EXPLAIN
TAG	EISPOT
TITLE	LABEL	Potentiostatic EIS	Test &Identifier
DATE	LABEL	11/7/2019	Date
TIME	LABEL	9:02:22	Time
NOTES	NOTES	2	&Notes...
	
	
PSTAT	PSTAT	REF600-11020	Potentiostat
VDC	POTEN	0.00000E+000	T	DC &Voltage (V)
FREQINIT	QUANT	1.00000E+006	Initial Fre&q. (Hz)
FREQFINAL	QUANT	1.00000E+000	Final Fre&q. (Hz)
PTSPERDEC	QUANT	1.00000E+001	Points/&decade
VAC	QUANT	2.50000E+001	AC &Voltage (mV rms)
AREA	QUANT	1.00000E-002	&Area (cm^2)
CONDIT	TWOPARAM	T	5.00000E+000	0.00000E+000	Conditionin&g	Time(s)	E(V)
DELAY	TWOPARAM	T	5.00000E+000	0.00000E+000	Init. De&lay	Time(s)	Stab.(mV/s)
SPEED	SELECTOR	1	&Optimize for:
ZGUESS	QUANT	1.00000E+005	E&stimated Z (ohms)
OCVCURVE	TABLE	19
	Pt	T	Vf	Vm	Ach	Over
	#	s	V vs. Ref.	V	V	bits
	0	0.258333	5.69374E-003	5.69374E-003	6.43531E-004	...........
	1	0.516667	5.69290E-003	5.64994E-003	6.35665E-004	...........
	2	0.775	5.68830E-003	5.63674E-003	6.31831E-004	...........
	3	1.03333	5.67743E-003	5.64140E-003	6.40764E-004	...........
	4	1.29167	5.66295E-003	5.64875E-003	6.37365E-004	...........
	5	1.55	5.65142E-003	5.65758E-003	6.43931E-004	...........
	6	1.80833	5.64711E-003	5.66760E-003	6.42431E-004	...........
	7	2.06667	5.64985E-003	5.67987E-003	6.46498E-004	...........
	8	2.325	5.65751E-003	5.70177E-003	6.38265E-004	...........
	9	2.58333	5.66876E-003	5.72176E-003	6.38198E-004	...........
	10	2.84167	5.68339E-003	5.74723E-003	6.40231E-004	...........
	11	3.1	5.70131E-003	5.76664E-003	6.39065E-004	...........
	12	3.35833	5.72164E-003	5.78535E-003	6.40298E-004	...........
	13	3.61667	5.74287E-003	5.80397E-003	6.38298E-004	...........
	14	3.875	5.76377E-003	5.82938E-003	6.33665E-004	...........
	15	4.13333	5.78424E-003	5.84671E-003	6.40265E-004	...........
	16	4.39167	5.80457E-003	5.85934E-003	6.40231E-004	...........
	17	4.65	5.82437E-003	5.88257E-003	6.40631E-004	...........
	18	4.90833	5.84350E-003	5.91388E-003	6.41731E-004	...........
EOC	QUANT	0.0058435	Open Circuit (V)
PSTATMODEL	IQUANT	4	Pstat Model
PSTATSECTION	LABEL	REF600-11020	Pstat Section
PSTATSERIALNO	LABEL	11020	Pstat Serial Number
CTRLMODE	IQUANT	1	Control Mode
IESTAB	IQUANT	0	I/E Stability
CASPEED	IQUANT	1	Control Amp Speed
CONVENTION	IQUANT	1	Current Convention
ICHRANGE	IQUANT	2	Ich Range
ICHRANGEMODE	TOGGLE	F	Ich Auto Range
ICHOFFSETENABLE	TOGGLE	T	Ich Offset Enable
ICHOFFSET	QUANT	0	Ich Offset (V)
ICHFILTER	IQUANT	3	Ich Filter
VCHRANGE	IQUANT	2	Vch Range
VCHRANGEMODE	TOGGLE	F	Vch Auto Range
VCHOFFSETENABLE	TOGGLE	T	Vch Offset Enable
VCHOFFSET	QUANT	0	Vch Offset (V)
VCHFILTER	IQUANT	3	Vch Filter
ACHRANGE	IQUANT	2	Ach Range
ACHOFFSETENABLE	TOGGLE	F	Ach Offset Enable
ACHOFFSET	QUANT	0	Ach Offset (V)
ACHFILTER	IQUANT	3	Ach Filter
IERANGELOWERLIMIT	IQUANT	1	I/E Range Lower Limit
IERANGEMODE	TOGGLE	F	I/E AutoRange
IERANGE	IQUANT	5	I/E Range
POSFEEDENABLE	TOGGLE	F	Positive Feedback IR Comp
POSFEEDRESISTANCE	QUANT	0	Positive Feedback Resistance (ohm)
ACHSELECT	IQUANT	0	Ach Select
CABLEID	IQUANT	14	Cable ID
DCCALDATE	LABEL	8/19/2019	DC Calibration Date
ACCALDATE	LABEL	8/19/2019	AC Calibration Date
THERMOSELECT	IQUANT	1	Thermo Select
FRAMEWORKVERSION	QUANT	6.33	Framework Version
INSTRUMENTVERSION	LABEL	3.50	Instrument Version
ZCURVE	TABLE
	Pt	Time	Freq	Zreal	Zimag	Zsig	Zmod	Zphz	Idc	Vdc	IERange
	#	s	Hz	ohm	ohm	V	ohm	°	A	V	#
	0	1	1000078	2061.052	-1767.264	1	2714.987	-40.61169	-4.116181E-006	0.00746	8
	1	3	794390.6	2433.792	-1801.205	1	3027.818	-36.50447	1.127532E-005	0.0065223	8
	2	4	630984.4	2792.466	-1783.173	1	3313.242	-32.56091	-4.410617E-006	0.0079946	8
	3	5	501234.4	3147.895	-1724.51	1	3589.314	-28.71523	-1.278577E-007	0.0070241	8
	4	7	398109.4	3467.115	-1607.891	1	3821.806	-24.87974	-5.128673E-006	0.0077081	8
	5	8	316265.6	3734.637	-1444.805	1	4004.369	-21.14977	2.391674E-006	0.0076263	8
	6	10	251203.1	3966.9	-1284.145	1	4169.572	-17.93755	-4.952629E-006	0.0076558	8
	7	11	199546.9	4151.409	-1108.408	1	4296.832	-14.94901	2.991117E-006	0.006654	8
	8	13	158578.1	4270.502	-982.783	1	4382.128	-12.95999	4.081344E-006	0.0072782	8
	9	14	125953.1	4373.284	-738.6509	1	4435.225	-9.58682	-3.217488E-006	0.0098713	7
	10	16	100078.1	4454.755	-667.7864	1	4504.529	-8.525397	6.969467E-008	0.0083895	7
	11	17	79453.13	4531.295	-561.0163	1	4565.893	-7.057831	1.129827E-006	0.0053311	7
	12	19	63140.62	4574.185	-489.9402	1	4600.349	-6.113633	5.645074E-007	0.0053417	7
	13	20	50203.12	4598.878	-433.0087	1	4619.218	-5.378844	-8.24335E-007	0.0070618	7
	14	21	39890.62	4641.134	-392.222	1	4657.678	-4.830585	1.251918E-006	0.0055837	7
	15	23	31640.63	4650.342	-363.1076	1	4664.496	-4.464706	-1.405538E-006	0.0089205	7
	16	24	25171.88	4689.988	-351.23	1	4703.122	-4.282847	1.266392E-006	0.0059559	7
	17	25	20015.62	4712.201	-353.1222	1	4725.413	-4.285612	6.989038E-007	0.0075033	7
	18	27	15890.62	4723.724	-353.2076	1	4736.911	-4.276227	9.518305E-007	0.0070248	7
	19	28	12609.37	4735.572	-377.543	1	4750.598	-4.558259	7.405929E-008	0.0083806	7
	20	30	10078.13	4748.627	-410.9536	1	4766.376	-4.946142	-1.404731E-006	0.0089113	7
	21	31	8015.625	4774.769	-464.7962	1	4797.338	-5.559896	-3.397737E-007	0.0088064	7
	22	32	6328.125	4784.993	-534.8687	1	4814.794	-6.378072	-1.189318E-006	0.0078279	7
	23	34	5015.625	4807.958	-632.4415	1	4849.376	-7.493695	-1.258664E-006	0.0091028	7
	24	35	3984.375	4825.228	-750.0698	1	4883.178	-8.835772	-1.029915E-006	0.0091783	7
	25	36	3170.956	4863.669	-902.0651	1	4946.615	-10.50726	-1.190965E-006	0.0078276	7
	26	38	2527.573	4918.572	-1098.864	1	5039.827	-12.59371	1.162656E-006	0.0064525	7
	27	39	1976.103	4951.365	-1340.94	1	5129.731	-15.15348	-1.403936E-006	0.0089111	7
	28	41	1577.524	5011.524	-1633.94	1	5271.161	-18.05786	6.972239E-007	0.0075013	7
	29	42	1265.625	5077.984	-1999.231	1	5457.367	-21.48984	6.979459E-007	0.0075021	7
	30	43	998.264	5150.634	-2445.05	1	5701.518	-25.39409	-1.3871E-006	0.0084706	7
	31	45	796.875	5256.658	-2992.574	1	6048.797	-29.65252	-3.40069E-007	0.0062614	7
	32	46	627.7902	5399.583	-3702.209	1	6546.896	-34.43637	-3.377639E-007	0.0088049	7
	33	47	505.5147	5563.417	-4494.53	1	7152.091	-38.93378	-3.380782E-007	0.0088042	7
	34	49	397.9953	5798.999	-5561.975	1	8035.169	-43.80481	6.871633E-009	0.0072687	7
	35	51	315.5048	6098.32	-6830.415	1	9156.641	-48.24094	7.51972E-009	0.0072701	7
	36	52	252.4038	6476.32	-8311.127	1	10536.49	-52.07303	1.454752E-009	0.0072197	6
	37	53	198.6229	7006.472	-10241.96	1	12409.2	-55.62416	7.216767E-010	0.0072126	6
	38	55	158.3615	7671.951	-12449.99	1	14623.99	-58.35773	1.045795E-009	0.0072035	6
	39	56	125.558	8563.3	-15174.74	1	17424.21	-60.56341	4.404509E-010	0.0072155	6
	40	57	100.4464	9707.13	-18281.85	1	20699.14	-62.03299	1.978264E-009	0.0072108	6
	41	59	79.00281	11238.99	-22286.7	1	24960.21	-63.2386	1.76647E-009	0.0072029	6
	42	60	63.3446	12880.47	-26584.15	1	29540.2	-64.14902	8.821779E-011	0.0072155	6
	43	62	49.86702	15712.81	-31679.55	1	35362.22	-63.61894	9.552765E-010	0.0072124	6
	44	63	39.72458	18744.83	-37690.14	1	42094.12	-63.55698	5.50928E-010	0.007221	6
	45	64	31.6723	22373.59	-44269.68	1	49602.24	-63.18829	4.648697E-010	0.0072129	6
	46	66	24.93351	26984.92	-52349.51	1	58895.3	-62.72998	4.89204E-010	0.0072123	6
	47	67	19.86229	31956.9	-60983.07	1	68848.95	-62.34416	3.063694E-010	0.0072189	6
	48	69	15.83615	37446.63	-70657.23	1	79966.83	-62.07749	1.196498E-009	0.0072112	6
	49	70	12.40079	44414.04	-83529.02	1	94602.88	-61.99953	-7.886906E-012	0.0072148	6
	50	72	9.93114	51433.16	-96510.1	1	109359.8	-61.94549	9.273596E-010	0.0072153	5
	51	73	7.944915	59286.38	-112191.6	1	126892.9	-62.14629	-7.432374E-010	0.0072124	5
	52	75	6.317385	68539.59	-132053.9	1	148781.4	-62.56945	6.631612E-010	0.0072067	5
	53	77	5.008013	79484.36	-155869.8	1	174966.2	-62.98111	3.520785E-010	0.0072317	5
	54	79	3.945707	92904.27	-185028.3	1	207042.6	-63.33838	-4.30306E-011	0.007205	5
	55	82	3.158693	107588.7	-217346.3	1	242517.5	-63.6641	3.530091E-010	0.0072269	5
	56	86	2.504006	126243.1	-257637.5	1	286904.8	-63.89502	-9.742909E-011	0.0072077	5
	57	88	1.998082	147602.7	-303301.5	1	337310.5	-64.04998	-1.0054E-010	0.0072145	5
	58	91	1.584686	174903.3	-358541.7	1	398927.7	-63.99603	1.414705E-010	0.0072639	5
	59	95	1.266892	204793.3	-420543.7	1	467757.8	-64.03518	-7.212093E-011	0.0072332	5
	60	99	0.999041	242315.3	-498191.2	1	553995.7	-64.06217	2.612032E-010	0.0072177	5
