EXPLAIN
TAG	EISPOT
TITLE	LABEL	Potentiostatic IDE	Test &Identifier
DATE	LABEL	9/14/2019	Date
TIME	LABEL	8:56:05	Time
NOTES	NOTES	1	&Notes...
	
PSTAT	PSTAT	REF600-11020	Potentiostat
VDC	POTEN	0.00000E+000	T	DC &Voltage (V)
FREQINIT	QUANT	1.00000E+006	Initial Fre&q. (Hz)
FREQFINAL	QUANT	1.00000E+000	Final Fre&q. (Hz)
PTSPERDEC	QUANT	1.00000E+001	Points/&decade
VAC	QUANT	2.50000E+001	AC &Voltage (mV rms)
AREA	QUANT	1.00000E-002	&Area (cm^2)
CONDIT	TWOPARAM	T	5.00000E+000	0.00000E+000	Conditionin&g	Time(s)	E(V)
DELAY	TWOPARAM	T	5.00000E+000	0.00000E+000	Init. De&lay	Time(s)	Stab.(mV/s)
SPEED	SELECTOR	1	&Optimize for:
ZGUESS	QUANT	1.00000E+007	E&stimated Z (ohms)
OCVCURVE	TABLE	18
	Pt	T	Vf	Vm	Ach	Over
	#	s	V vs. Ref.	V	V	bits
	0	0.258333	1.57085E-002	1.57085E-002	5.71066E-004	...........
	1	0.516667	1.57173E-002	1.61687E-002	5.67899E-004	...........
	2	0.775	1.57715E-002	1.66182E-002	5.71999E-004	...........
	3	1.03333	1.59259E-002	1.70524E-002	5.71566E-004	...........
	4	1.29167	1.62039E-002	1.74714E-002	5.69266E-004	...........
	5	1.55	1.65768E-002	1.78794E-002	5.70566E-004	...........
	6	1.80833	1.69943E-002	1.82677E-002	5.72132E-004	...........
	7	2.06667	1.74183E-002	1.86447E-002	5.71199E-004	...........
	8	2.325	1.78306E-002	1.90063E-002	5.73799E-004	...........
	9	2.58333	1.82260E-002	1.93545E-002	5.69899E-004	...........
	10	2.84167	1.86047E-002	1.96919E-002	5.73932E-004	...........
	11	3.1	1.89686E-002	2.00171E-002	5.75832E-004	...........
	12	3.35833	1.93190E-002	2.03290E-002	5.69899E-004	...........
	13	3.61667	1.96569E-002	2.06324E-002	5.71399E-004	...........
	14	3.875	1.99828E-002	2.09246E-002	5.71132E-004	...........
	15	4.13333	2.02973E-002	2.12069E-002	5.71866E-004	...........
	16	4.39167	2.06011E-002	2.14796E-002	5.67532E-004	...........
	17	4.65	2.08944E-002	2.17418E-002	5.67866E-004	...........
EOC	QUANT	0.0211777	Open Circuit (V)
PSTATMODEL	IQUANT	4	Pstat Model
PSTATSECTION	LABEL	REF600-11020	Pstat Section
PSTATSERIALNO	LABEL	11020	Pstat Serial Number
CTRLMODE	IQUANT	1	Control Mode
IESTAB	IQUANT	0	I/E Stability
CASPEED	IQUANT	1	Control Amp Speed
CONVENTION	IQUANT	1	Current Convention
ICHRANGE	IQUANT	2	Ich Range
ICHRANGEMODE	TOGGLE	F	Ich Auto Range
ICHOFFSETENABLE	TOGGLE	T	Ich Offset Enable
ICHOFFSET	QUANT	0	Ich Offset (V)
ICHFILTER	IQUANT	3	Ich Filter
VCHRANGE	IQUANT	2	Vch Range
VCHRANGEMODE	TOGGLE	F	Vch Auto Range
VCHOFFSETENABLE	TOGGLE	T	Vch Offset Enable
VCHOFFSET	QUANT	0	Vch Offset (V)
VCHFILTER	IQUANT	3	Vch Filter
ACHRANGE	IQUANT	2	Ach Range
ACHOFFSETENABLE	TOGGLE	F	Ach Offset Enable
ACHOFFSET	QUANT	0	Ach Offset (V)
ACHFILTER	IQUANT	3	Ach Filter
IERANGELOWERLIMIT	IQUANT	1	I/E Range Lower Limit
IERANGEMODE	TOGGLE	F	I/E AutoRange
IERANGE	IQUANT	3	I/E Range
POSFEEDENABLE	TOGGLE	F	Positive Feedback IR Comp
POSFEEDRESISTANCE	QUANT	0	Positive Feedback Resistance (ohm)
ACHSELECT	IQUANT	0	Ach Select
CABLEID	IQUANT	14	Cable ID
DCCALDATE	LABEL	8/19/2019	DC Calibration Date
ACCALDATE	LABEL	8/19/2019	AC Calibration Date
THERMOSELECT	IQUANT	1	Thermo Select
FRAMEWORKVERSION	QUANT	6.33	Framework Version
INSTRUMENTVERSION	LABEL	3.50	Instrument Version
ZCURVE	TABLE
	Pt	Time	Freq	Zreal	Zimag	Zsig	Zmod	Zphz	Idc	Vdc	IERange
	#	s	Hz	ohm	ohm	V	ohm	°	A	V	#
	0	2	1000078	2615.022	-1753.438	1	3148.474	-33.84285	2.009723E-006	0.0240859	8
	1	4	794390.6	2947.318	-1649.969	1	3377.734	-29.241	-7.204524E-007	0.0231141	8
	2	5	630984.4	3251.393	-1513.322	1	3586.321	-24.95906	4.572111E-006	0.0223527	8
	3	6	501234.4	3493.526	-1349.624	1	3745.158	-21.12262	-6.44688E-007	0.0228651	8
	4	8	398109.4	3675.33	-1191.439	1	3863.623	-17.96124	-1.601533E-006	0.0233388	8
	5	9	316265.6	3819.907	-1029	1	3956.076	-15.07637	-1.498607E-006	0.0232838	8
	6	10	251203.1	3948.408	-887.769	1	4046.981	-12.67178	3.954913E-007	0.0230178	8
	7	12	199546.9	4043.868	-795.4694	1	4121.364	-11.12857	2.331425E-006	0.0223433	8
	8	13	158578.1	4102.645	-685.3086	1	4159.488	-9.483172	2.303356E-006	0.022342	8
	9	14	125953.1	4177.984	-556.1721	1	4214.84	-7.582618	4.278517E-007	0.0220925	7
	10	16	100078.1	4212.855	-515.0612	1	4244.224	-6.970356	1.313694E-008	0.0229784	7
	11	17	79453.13	4253.554	-497.1483	1	4282.509	-6.666389	5.272672E-008	0.0227099	7
	12	18	63140.62	4294.344	-491.6291	1	4322.394	-6.530956	-6.65208E-008	0.022948	7
	13	20	50203.12	4337.165	-496.334	1	4365.472	-6.528381	9.663423E-008	0.0226635	7
	14	21	39890.62	4388.979	-513.0699	1	4418.866	-6.667593	8.023671E-008	0.0227256	7
	15	22	31640.63	4431.504	-542.6313	1	4464.603	-6.981033	1.110518E-007	0.0227705	7
	16	24	25171.88	4483.922	-584.1683	1	4521.815	-7.422725	1.110862E-007	0.0227676	7
	17	25	20015.62	4543.014	-635.8496	1	4587.296	-7.967478	5.392376E-008	0.0226971	7
	18	26	15890.62	4602.829	-693.6729	1	4654.806	-8.570309	-3.270682E-008	0.0228469	7
	19	28	12609.37	4678.943	-777.2436	1	4743.06	-9.431578	9.635295E-008	0.0226564	7
	20	29	10078.13	4753.033	-866.6464	1	4831.397	-10.33353	9.862829E-008	0.0226544	7
	21	30	8015.625	4840.023	-973.647	1	4936.984	-11.37414	2.255852E-008	0.0227443	7
	22	32	6328.125	4933.39	-1104.658	1	5055.552	-12.62118	-3.274275E-008	0.0228393	7
	23	33	5015.625	5035.298	-1260.939	1	5190.78	-14.05888	-1.335733E-008	0.022798	7
	24	34	3984.375	5139.473	-1443.23	1	5338.267	-15.68542	5.406126E-008	0.0226858	7
	25	36	3170.956	5251.328	-1665.454	1	5509.1	-17.59638	-4.435527E-008	0.0228453	7
	26	37	2527.573	5372.321	-1931.106	1	5708.854	-19.77122	1.328852E-008	0.022949	7
	27	38	1976.103	5515.495	-2283.429	1	5969.483	-22.48968	1.84064E-008	0.0229677	7
	28	40	1577.524	5656.479	-2684.925	1	6261.356	-25.39199	-8.119486E-008	0.023098	7
	29	41	1265.625	5821.508	-3160.113	1	6623.917	-28.49461	-4.694643E-008	0.0229598	7
	30	42	998.264	6003.776	-3784.301	1	7096.919	-32.22406	-4.576156E-008	0.0229658	7
	31	44	796.875	6199.318	-4499.829	1	7660.288	-35.97435	-8.321997E-008	0.0229426	7
	32	45	627.7902	6449.792	-5439.431	1	8437.252	-40.14261	-6.344538E-008	0.0229321	7
	33	46	505.5147	6695.242	-6487.983	1	9323.101	-44.0993	-8.26138E-008	0.0230861	7
	34	48	397.9953	7031.853	-7895.734	1	10573.06	-48.3121	9.052221E-010	0.0228027	6
	35	49	315.5048	7393.947	-9588.67	1	12108.39	-52.36372	-3.865219E-010	0.0228013	6
	36	50	252.4038	7794.404	-11586.07	1	13963.87	-56.06973	-1.416914E-010	0.0228059	6
	37	52	198.6229	8300.913	-14230.32	1	16474.44	-59.74389	-4.832476E-011	0.0228003	6
	38	53	158.3615	8871.199	-17336.18	1	19474.12	-62.90045	1.126289E-010	0.0227943	6
	39	54	125.558	9590.15	-21257.08	1	23320.26	-65.71745	2.260034E-010	0.0228016	6
	40	56	100.4464	10446.45	-25873.14	1	27902.47	-68.01328	1.084146E-009	0.0227941	6
	41	57	79.00281	11662.6	-32028.61	1	34085.89	-69.99188	-8.958705E-010	0.0227883	6
	42	58	63.3446	12524.84	-39315.96	1	41262.78	-72.32974	-3.398848E-011	0.0227926	6
	43	60	49.86702	15185.78	-48052.05	1	50394.52	-72.46201	-9.996576E-010	0.0227934	6
	44	61	39.72458	17432.46	-59361.29	1	61868.03	-73.63422	-9.075435E-011	0.0227954	6
	45	63	31.6723	20586.54	-72252.75	1	75128.33	-74.09647	3.511287E-010	0.0227978	6
	46	64	24.93351	25058.15	-89429.77	1	92874.08	-74.34717	-2.601954E-010	0.0227908	6
	47	65	19.86229	30833.16	-109014	1	113290.4	-74.20715	-5.680868E-010	0.0227999	5
	48	67	15.83615	37872.88	-131962.7	1	137289.9	-73.98669	-5.866435E-010	0.0228054	5
	49	68	12.40079	48485.15	-162799.9	1	169866.4	-73.41539	-3.35856E-010	0.0228075	5
	50	70	9.93114	62299	-195884.8	1	205553	-72.35731	-3.892296E-010	0.0228021	5
	51	71	7.944915	79589.62	-233194.3	1	246402.3	-71.15514	-7.005094E-010	0.0227976	5
	52	73	6.317385	100545.4	-280131.3	1	297628.8	-70.25581	-9.111959E-011	0.022789	5
	53	75	5.008013	129718.6	-333748.3	1	358071	-68.7603	-3.383057E-010	0.0227929	5
	54	77	3.945707	166207.8	-398057.4	1	431363.8	-67.33715	-1.523576E-011	0.0228072	5
	55	80	3.158693	209865.5	-465534.7	1	510652.6	-65.73389	-2.429175E-010	0.0228047	5
	56	83	2.504006	265067.9	-543882.6	1	605036.6	-64.01714	-9.309178E-011	0.0227936	5
	57	86	1.998082	328554	-627538.6	1	708344.8	-62.36525	-3.827616E-010	0.0227969	5
	58	89	1.584686	409326.6	-721868.5	1	829844.8	-60.44513	-1.294909E-010	0.0228442	5
	59	93	1.266892	497441.3	-822911.8	1	961578	-58.84749	-2.738096E-010	0.0227752	5
	60	97	0.999041	609617.7	-939562.3	1	1120005	-57.02322	5.627839E-011	0.0228345	4
