EXPLAIN
TAG	EISPOT
TITLE	LABEL	Potentiostatic EIS	Test &Identifier
DATE	LABEL	9/20/2019	Date
TIME	LABEL	10:35:10	Time
NOTES	NOTES	1	&Notes...
	
PSTAT	PSTAT	REF600-11020	Potentiostat
VDC	POTEN	0.00000E+000	T	DC &Voltage (V)
FREQINIT	QUANT	1.00000E+006	Initial Fre&q. (Hz)
FREQFINAL	QUANT	1.00000E+000	Final Fre&q. (Hz)
PTSPERDEC	QUANT	1.00000E+001	Points/&decade
VAC	QUANT	2.50000E+001	AC &Voltage (mV rms)
AREA	QUANT	1.00000E-002	&Area (cm^2)
CONDIT	TWOPARAM	T	5.00000E+000	0.00000E+000	Conditionin&g	Time(s)	E(V)
DELAY	TWOPARAM	T	5.00000E+000	0.00000E+000	Init. De&lay	Time(s)	Stab.(mV/s)
SPEED	SELECTOR	1	&Optimize for:
ZGUESS	QUANT	1.00000E+004	E&stimated Z (ohms)
OCVCURVE	TABLE	19
	Pt	T	Vf	Vm	Ach	Over
	#	s	V vs. Ref.	V	V	bits
	0	0.258333	2.56323E-002	2.56323E-002	5.72432E-004	...........
	1	0.516667	2.56555E-002	2.68447E-002	5.76999E-004	...........
	2	0.775	2.57971E-002	2.79637E-002	5.77599E-004	...........
	3	1.03333	2.61952E-002	2.90008E-002	5.73066E-004	...........
	4	1.29167	2.69002E-002	2.99710E-002	5.75666E-004	...........
	5	1.55	2.78241E-002	3.08660E-002	5.73132E-004	...........
	6	1.80833	2.88291E-002	3.17138E-002	5.74432E-004	...........
	7	2.06667	2.98165E-002	3.25084E-002	5.68766E-004	...........
	8	2.325	3.07450E-002	3.32668E-002	5.68032E-004	...........
	9	2.58333	3.16094E-002	3.39854E-002	5.71299E-004	...........
	10	2.84167	3.24182E-002	3.46646E-002	5.72232E-004	...........
	11	3.1	3.31804E-002	3.53041E-002	5.69499E-004	...........
	12	3.35833	3.39013E-002	3.59116E-002	5.68532E-004	...........
	13	3.61667	3.45840E-002	3.65028E-002	5.71632E-004	...........
	14	3.875	3.52316E-002	3.70580E-002	5.74266E-004	...........
	15	4.13333	3.58479E-002	3.75990E-002	5.71466E-004	...........
	16	4.39167	3.64366E-002	3.81188E-002	5.70599E-004	...........
	17	4.65	3.70005E-002	3.86078E-002	5.71032E-004	...........
	18	4.90833	3.75413E-002	3.90867E-002	5.66932E-004	...........
EOC	QUANT	0.0375413	Open Circuit (V)
PSTATMODEL	IQUANT	4	Pstat Model
PSTATSECTION	LABEL	REF600-11020	Pstat Section
PSTATSERIALNO	LABEL	11020	Pstat Serial Number
CTRLMODE	IQUANT	1	Control Mode
IESTAB	IQUANT	0	I/E Stability
CASPEED	IQUANT	1	Control Amp Speed
CONVENTION	IQUANT	1	Current Convention
ICHRANGE	IQUANT	2	Ich Range
ICHRANGEMODE	TOGGLE	F	Ich Auto Range
ICHOFFSETENABLE	TOGGLE	T	Ich Offset Enable
ICHOFFSET	QUANT	0	Ich Offset (V)
ICHFILTER	IQUANT	3	Ich Filter
VCHRANGE	IQUANT	2	Vch Range
VCHRANGEMODE	TOGGLE	F	Vch Auto Range
VCHOFFSETENABLE	TOGGLE	T	Vch Offset Enable
VCHOFFSET	QUANT	0	Vch Offset (V)
VCHFILTER	IQUANT	3	Vch Filter
ACHRANGE	IQUANT	2	Ach Range
ACHOFFSETENABLE	TOGGLE	F	Ach Offset Enable
ACHOFFSET	QUANT	0	Ach Offset (V)
ACHFILTER	IQUANT	3	Ach Filter
IERANGELOWERLIMIT	IQUANT	1	I/E Range Lower Limit
IERANGEMODE	TOGGLE	F	I/E AutoRange
IERANGE	IQUANT	6	I/E Range
POSFEEDENABLE	TOGGLE	F	Positive Feedback IR Comp
POSFEEDRESISTANCE	QUANT	0	Positive Feedback Resistance (ohm)
ACHSELECT	IQUANT	0	Ach Select
CABLEID	IQUANT	14	Cable ID
DCCALDATE	LABEL	8/19/2019	DC Calibration Date
ACCALDATE	LABEL	8/19/2019	AC Calibration Date
THERMOSELECT	IQUANT	1	Thermo Select
FRAMEWORKVERSION	QUANT	6.33	Framework Version
INSTRUMENTVERSION	LABEL	3.50	Instrument Version
ZCURVE	TABLE
	Pt	Time	Freq	Zreal	Zimag	Zsig	Zmod	Zphz	Idc	Vdc	IERange
	#	s	Hz	ohm	ohm	V	ohm	°	A	V	#
	0	1	1000078	2301.878	-1293.676	1	2640.5	-29.33637	2.592261E-006	0.0390335	8
	1	3	794390.6	2529.691	-1204.22	1	2801.693	-25.45607	-4.993622E-006	0.0402899	8
	2	4	630984.4	2729.227	-1097.649	1	2941.686	-21.90915	5.177309E-006	0.0385285	8
	3	5	501234.4	2892.342	-979.777	1	3053.785	-18.71374	-4.218772E-006	0.0399238	8
	4	7	398109.4	3030.856	-862.334	1	3151.144	-15.88202	1.594015E-007	0.0390712	8
	5	8	316265.6	3119.267	-760.8539	1	3210.721	-13.70795	4.661878E-006	0.0382161	8
	6	10	251203.1	3204.125	-665.5244	1	3272.513	-11.73398	3.276839E-006	0.038467	8
	7	11	199546.9	3255.775	-588.7659	1	3308.582	-10.25044	-2.160742E-006	0.0395122	8
	8	12	158578.1	3323.372	-522.7628	1	3364.236	-8.939316	-3.02084E-006	0.0397536	8
	9	14	125953.1	3388.54	-433.4755	1	3416.153	-7.289911	-9.03994E-007	0.041251	7
	10	15	100078.1	3417.281	-401.101	1	3440.74	-6.694424	3.496491E-008	0.0389406	7
	11	16	79453.13	3453.625	-384.9495	1	3475.012	-6.360076	-4.580393E-008	0.039108	7
	12	18	63140.62	3491.911	-375.9585	1	3512.092	-6.145109	-3.966088E-008	0.0390796	7
	13	19	50203.12	3528.691	-375.3474	1	3548.598	-6.071729	-4.432718E-008	0.0391064	7
	14	21	39890.62	3565.876	-379.528	1	3586.017	-6.075308	-4.521634E-008	0.0391059	7
	15	22	31640.63	3605.147	-391.1019	1	3626.299	-6.19148	7.531496E-009	0.038987	7
	16	23	25171.88	3645.503	-409.3988	1	3668.419	-6.407608	-4.976695E-008	0.0391526	7
	17	25	20015.62	3688.82	-435.1046	1	3714.392	-6.727085	8.197214E-009	0.0389846	7
	18	26	15890.62	3735.346	-467.0454	1	3764.431	-7.126937	7.15449E-008	0.0388974	7
	19	27	12609.37	3783.847	-509.1703	1	3817.951	-7.663924	6.359537E-008	0.0389374	7
	20	29	10078.13	3834.286	-557.4257	1	3874.593	-8.271669	-1.474809E-008	0.039017	7
	21	30	8015.625	3889.185	-616.5719	1	3937.756	-9.008414	3.679953E-008	0.038923	7
	22	31	6328.125	3952.038	-691.595	1	4012.095	-9.92608	-7.560483E-008	0.0391685	7
	23	33	5015.625	4015.864	-779.6345	1	4090.843	-10.98666	-6.064123E-009	0.0390639	7
	24	34	3984.375	4084.344	-884.8151	1	4179.086	-12.22343	8.331582E-009	0.0389857	7
	25	35	3170.956	4156.633	-1012.172	1	4278.094	-13.6856	7.320604E-008	0.0388894	7
	26	37	2527.573	4233.859	-1165.447	1	4391.336	-15.39053	-4.292853E-008	0.0390933	7
	27	38	1976.103	4324.894	-1370.131	1	4536.735	-17.57825	7.359827E-008	0.0388847	7
	28	40	1577.524	4417.092	-1599.002	1	4697.606	-19.90042	1.235817E-007	0.0388589	7
	29	41	1265.625	4520.217	-1870.685	1	4892.017	-22.48214	1.069284E-008	0.038977	7
	30	42	998.264	4640.607	-2227.565	1	5147.551	-25.64175	6.432741E-008	0.0389233	7
	31	44	796.875	4772.962	-2643.625	1	5456.182	-28.98097	-7.376397E-008	0.0391626	7
	32	45	627.7902	4932.395	-3184.476	1	5871.065	-32.84728	-1.3711E-008	0.0390974	7
	33	46	505.5147	5100.894	-3785.918	1	6352.346	-36.58305	-1.362297E-008	0.0390896	7
	34	48	397.9953	5320.183	-4594.426	1	7029.445	-40.81337	4.527153E-010	0.0390661	7
	35	49	315.5048	5580.735	-5565.801	1	7881.798	-44.92324	9.254083E-010	0.0390635	7
	36	50	252.4038	5890.189	-6706.742	1	8926.069	-48.70881	1.209663E-009	0.0390641	7
	37	52	198.6229	6315.86	-8205.979	1	10355.1	-52.41576	-3.811753E-009	0.0390083	6
	38	53	158.3615	6831.524	-9934.26	1	12056.5	-55.48474	-3.214615E-009	0.0390006	6
	39	55	125.558	7518.97	-12078.57	1	14227.67	-58.09753	-3.780041E-009	0.0390031	6
	40	56	100.4464	8379.509	-14555.63	1	16795.31	-60.07146	-5.007874E-009	0.0389989	6
	41	57	79.00281	9584.17	-17753.12	1	20174.97	-61.63723	-3.592268E-009	0.0390057	6
	42	59	63.3446	11098.91	-21311.82	1	24028.72	-62.49012	-4.844889E-009	0.0390072	6
	43	60	49.86702	12961.46	-25581.46	1	28677.7	-63.12985	-5.130656E-009	0.0390033	6
	44	61	39.72458	15516.65	-30479.39	1	34201.75	-63.01997	-3.66484E-009	0.0390033	6
	45	63	31.6723	18678.82	-36132.93	1	40675.39	-62.66343	-5.042083E-009	0.0390035	6
	46	64	24.93351	22822.2	-42814.21	1	48517.1	-61.94007	-4.668643E-009	0.0389973	6
	47	66	19.86229	27708.65	-50062.34	1	57218.95	-61.03622	-3.954723E-009	0.0390051	6
	48	67	15.83615	33649.43	-58135.49	1	67171.56	-59.93729	-3.157743E-009	0.0390085	6
	49	68	12.40079	41301.61	-67670.45	1	79278.71	-58.60284	-3.777168E-009	0.0390038	6
	50	70	9.93114	49817.24	-77124.11	1	91814.41	-57.14013	-3.824584E-009	0.0390054	6
	51	71	7.944915	59328.09	-87176.23	1	105449.1	-55.76262	-6.208288E-009	0.0390124	5
	52	73	6.317385	70914.86	-98757.5	1	121581	-54.31897	-4.501598E-009	0.0390023	5
	53	75	5.008013	84297.6	-111316.2	1	139633	-52.86405	-4.99542E-009	0.0390216	5
	54	78	3.945707	99603.1	-125158.6	1	159954.5	-51.48671	-5.487319E-009	0.0390124	5
	55	80	3.158693	115957.5	-139000	1	181016.9	-50.16423	-4.805814E-009	0.0390151	5
	56	83	2.504006	134755.4	-154610.5	1	205093.7	-48.92525	-5.560856E-009	0.0390205	5
	57	86	1.998082	154286.2	-170608.8	1	230025.2	-47.87611	-4.336763E-009	0.0389844	5
	58	89	1.584686	177102.9	-189240.9	1	259186.3	-46.89767	-5.285895E-009	0.0389808	5
	59	93	1.266892	200652.1	-207915	1	288946.2	-46.01842	-4.009036E-009	0.0389717	5
	60	97	0.999041	227967.3	-230873.6	1	324456	-45.3629	-4.442774E-009	0.0390431	5
