EXPLAIN
TAG	EISPOT
TITLE	LABEL	Potentiostatic EIS	Test &Identifier
DATE	LABEL	11/3/2019	Date
TIME	LABEL	11:23:07	Time
NOTES	NOTES	1	&Notes...
	
PSTAT	PSTAT	REF600-11020	Potentiostat
VDC	POTEN	0.00000E+000	T	DC &Voltage (V)
FREQINIT	QUANT	1.00000E+006	Initial Fre&q. (Hz)
FREQFINAL	QUANT	1.00000E+000	Final Fre&q. (Hz)
PTSPERDEC	QUANT	1.00000E+001	Points/&decade
VAC	QUANT	2.50000E+001	AC &Voltage (mV rms)
AREA	QUANT	1.00000E-002	&Area (cm^2)
CONDIT	TWOPARAM	T	5.00000E+000	0.00000E+000	Conditionin&g	Time(s)	E(V)
DELAY	TWOPARAM	T	5.00000E+000	0.00000E+000	Init. De&lay	Time(s)	Stab.(mV/s)
SPEED	SELECTOR	1	&Optimize for:
ZGUESS	QUANT	1.00000E+005	E&stimated Z (ohms)
OCVCURVE	TABLE	19
	Pt	T	Vf	Vm	Ach	Over
	#	s	V vs. Ref.	V	V	bits
	0	0.258333	6.97051E-003	6.97051E-003	5.80599E-004	...........
	1	0.516667	6.97001E-003	6.94404E-003	5.81965E-004	...........
	2	0.775	6.96714E-003	6.93151E-003	5.81765E-004	...........
	3	1.03333	6.96008E-003	6.93267E-003	5.82999E-004	...........
	4	1.29167	6.95018E-003	6.93794E-003	5.81665E-004	...........
	5	1.55	6.94191E-003	6.95610E-003	5.83732E-004	...........
	6	1.80833	6.93951E-003	6.97407E-003	5.81232E-004	...........
	7	2.06667	6.94486E-003	7.00127E-003	5.83899E-004	...........
	8	2.325	6.95763E-003	7.02500E-003	5.82499E-004	...........
	9	2.58333	6.97636E-003	7.05599E-003	5.88665E-004	...........
	10	2.84167	6.99941E-003	7.08417E-003	5.85999E-004	...........
	11	3.1	7.02548E-003	7.11796E-003	5.82532E-004	...........
	12	3.35833	7.05379E-003	7.14943E-003	5.83465E-004	...........
	13	3.61667	7.08389E-003	7.18529E-003	5.83365E-004	...........
	14	3.875	7.11547E-003	7.21679E-003	5.79799E-004	...........
	15	4.13333	7.14822E-003	7.25554E-003	5.77832E-004	...........
	16	4.39167	7.18178E-003	7.28275E-003	5.79965E-004	...........
	17	4.65	7.21564E-003	7.31883E-003	5.81399E-004	...........
	18	4.90833	7.24925E-003	7.35069E-003	5.83965E-004	...........
EOC	QUANT	0.0072492	Open Circuit (V)
PSTATMODEL	IQUANT	4	Pstat Model
PSTATSECTION	LABEL	REF600-11020	Pstat Section
PSTATSERIALNO	LABEL	11020	Pstat Serial Number
CTRLMODE	IQUANT	1	Control Mode
IESTAB	IQUANT	0	I/E Stability
CASPEED	IQUANT	1	Control Amp Speed
CONVENTION	IQUANT	1	Current Convention
ICHRANGE	IQUANT	2	Ich Range
ICHRANGEMODE	TOGGLE	F	Ich Auto Range
ICHOFFSETENABLE	TOGGLE	T	Ich Offset Enable
ICHOFFSET	QUANT	0	Ich Offset (V)
ICHFILTER	IQUANT	3	Ich Filter
VCHRANGE	IQUANT	2	Vch Range
VCHRANGEMODE	TOGGLE	F	Vch Auto Range
VCHOFFSETENABLE	TOGGLE	T	Vch Offset Enable
VCHOFFSET	QUANT	0	Vch Offset (V)
VCHFILTER	IQUANT	3	Vch Filter
ACHRANGE	IQUANT	2	Ach Range
ACHOFFSETENABLE	TOGGLE	F	Ach Offset Enable
ACHOFFSET	QUANT	0	Ach Offset (V)
ACHFILTER	IQUANT	3	Ach Filter
IERANGELOWERLIMIT	IQUANT	1	I/E Range Lower Limit
IERANGEMODE	TOGGLE	F	I/E AutoRange
IERANGE	IQUANT	5	I/E Range
POSFEEDENABLE	TOGGLE	F	Positive Feedback IR Comp
POSFEEDRESISTANCE	QUANT	0	Positive Feedback Resistance (ohm)
ACHSELECT	IQUANT	0	Ach Select
CABLEID	IQUANT	14	Cable ID
DCCALDATE	LABEL	8/19/2019	DC Calibration Date
ACCALDATE	LABEL	8/19/2019	AC Calibration Date
THERMOSELECT	IQUANT	1	Thermo Select
FRAMEWORKVERSION	QUANT	6.33	Framework Version
INSTRUMENTVERSION	LABEL	3.50	Instrument Version
ZCURVE	TABLE
	Pt	Time	Freq	Zreal	Zimag	Zsig	Zmod	Zphz	Idc	Vdc	IERange
	#	s	Hz	ohm	ohm	V	ohm	°	A	V	#
	0	1	1000078	2078.595	-1615.702	1	2632.689	-37.85809	-7.092845E-006	0.0103112	8
	1	2	794390.6	2415.846	-1636.997	1	2918.231	-34.12189	1.343044E-006	0.0097175	8
	2	3	630984.4	2739.865	-1567.399	1	3156.517	-29.77265	-3.6975E-006	0.0096488	8
	3	5	501234.4	3018.565	-1457.484	1	3352.013	-25.77311	4.870616E-007	0.0085466	8
	4	6	398109.4	3268.647	-1333.186	1	3530.076	-22.18912	-4.840315E-006	0.0092025	8
	5	8	316265.6	3459.632	-1192.669	1	3659.442	-19.02106	-6.416941E-007	0.0092489	8
	6	9	251203.1	3620.645	-1025.463	1	3763.063	-15.81353	2.627162E-006	0.0082063	8
	7	10	199546.9	3756.96	-910.574	1	3865.733	-13.62405	-1.54832E-006	0.0092136	8
	8	12	158578.1	3860.129	-780.9339	1	3938.332	-11.43701	-6.243331E-007	0.0085047	8
	9	13	125953.1	3958.302	-644.3257	1	4010.401	-9.245421	-1.223552E-006	0.0075517	7
	10	14	100078.1	4008.702	-569.4501	1	4048.947	-8.084971	-7.394531E-007	0.0085794	7
	11	16	79453.13	4056.688	-517.1911	1	4089.523	-7.2655	-1.072799E-006	0.0092719	7
	12	17	63140.62	4097.205	-479.8506	1	4125.208	-6.679856	-1.075213E-006	0.0092695	7
	13	19	50203.12	4141.904	-459.4711	1	4167.312	-6.330073	3.929559E-007	0.0093112	7
	14	20	39890.62	4177.624	-445.9347	1	4201.356	-6.092888	8.504542E-007	0.0085438	7
	15	21	31640.63	4214.431	-446.3656	1	4238.003	-6.045863	1.12755E-006	0.0072445	7
	16	23	25171.88	4241.463	-457.1418	1	4266.027	-6.15155	-7.43313E-007	0.0085616	7
	17	24	20015.62	4281.766	-484.3362	1	4309.072	-6.453636	3.931731E-007	0.0093081	7
	18	25	15890.62	4307.139	-521.8398	1	4338.636	-6.908111	-1.272096E-006	0.0102487	7
	19	27	12609.37	4347.712	-575.0707	1	4385.58	-7.53476	-3.059581E-007	0.0078536	7
	20	28	10078.13	4401.85	-641.1343	1	4448.296	-8.286921	8.1549E-007	0.0069096	7
	21	29	8015.625	4423.717	-740.0104	1	4485.185	-9.49665	1.305123E-007	0.0073249	7
	22	31	6328.125	4473.925	-864.2321	1	4556.633	-10.93321	8.538656E-007	0.0085398	7
	23	32	5015.625	4518.709	-1015.484	1	4631.408	-12.66559	6.177014E-008	0.0097525	7
	24	33	3984.375	4565.099	-1199.022	1	4719.935	-14.71633	-1.252698E-006	0.0098487	7
	25	35	3170.956	4629.874	-1433.036	1	4846.579	-17.19831	-1.074916E-006	0.0092633	7
	26	36	2527.573	4698.13	-1716.078	1	5001.734	-20.06565	-1.13649E-006	0.0104075	7
	27	37	1976.103	4789.983	-2097.804	1	5229.218	-23.65133	-6.485486E-007	0.0103994	7
	28	39	1577.524	4876.277	-2534.839	1	5495.77	-27.4668	1.128492E-006	0.0072371	7
	29	40	1265.625	4990.298	-3053.396	1	5850.325	-31.46107	5.129457E-007	0.0070162	7
	30	41	998.264	5130.708	-3738.452	1	6348.243	-36.07868	-3.043062E-007	0.007846	7
	31	43	796.875	5294.333	-4533.346	1	6970.02	-40.57225	-1.077076E-006	0.00926	7
	32	44	627.7902	5503.67	-5599.765	1	7851.608	-45.49585	6.25647E-007	0.0089642	7
	33	46	505.5147	5727.675	-6785.18	1	8879.467	-49.83079	1.127517E-006	0.0072306	7
	34	47	397.9953	6062.793	-8349.534	1	10318.54	-54.01572	2.877305E-009	0.0087668	7
	35	48	315.5048	6472.989	-10252.33	1	12124.76	-57.73301	1.181176E-009	0.0087094	6
	36	50	252.4038	6978.249	-12492.81	1	14309.66	-60.81311	1.438592E-009	0.0087045	6
	37	51	198.6229	7691.462	-15442.81	1	17252.22	-63.5239	4.253682E-010	0.0087119	6
	38	52	158.3615	8589.161	-18853.78	1	20718.07	-65.50755	8.25444E-010	0.0086988	6
	39	54	125.558	9820.08	-23102.66	1	25103.13	-66.97147	2.256478E-010	0.008713	6
	40	55	100.4464	11407.04	-27998.49	1	30233.03	-67.83323	1.034137E-009	0.0087079	6
	41	56	79.00281	13764.06	-34472.89	1	37119.13	-68.23455	3.966671E-011	0.0087039	6
	42	58	63.3446	17142.66	-41378	1	44788.5	-67.49606	5.951523E-010	0.0086958	6
	43	59	49.86702	20526.03	-50406.36	1	54425.35	-67.8433	-2.905829E-010	0.0086936	6
	44	61	39.72458	26122.68	-59662.14	1	65130.37	-66.35411	6.237903E-010	0.008716	6
	45	62	31.6723	32877.3	-70685.58	1	77957.48	-65.0559	7.791736E-010	0.0087128	6
	46	63	24.93351	41935.42	-83010.64	1	93001.86	-63.19795	9.479908E-010	0.0086987	6
	47	65	19.86229	52624.58	-95669.9	1	109188.3	-61.18639	9.573228E-010	0.0087072	5
	48	66	15.83615	65374.66	-108001	1	126246	-58.81283	1.45484E-009	0.0086983	5
	49	67	12.40079	80490.97	-125294.9	1	148921.5	-57.28283	-7.850896E-010	0.0087011	5
	50	69	9.93114	93914.45	-139324.4	1	168021.4	-56.01725	6.182549E-010	0.0087152	5
	51	70	7.944915	110143	-154905.6	1	190071.6	-54.58591	8.297656E-010	0.0087023	5
	52	72	6.317385	126508.9	-174760.4	1	215744.5	-54.09927	6.788684E-011	0.0087125	5
	53	74	5.008013	144269.1	-197247.7	1	244377.2	-53.81786	2.443918E-010	0.0087037	5
	54	77	3.945707	163256.5	-225036.7	1	278018.4	-54.04039	9.195204E-011	0.0087073	5
	55	79	3.158693	182238.3	-256262.1	1	314453.6	-54.58184	1.870677E-010	0.008714	5
	56	83	2.504006	204087.5	-296354.2	1	359829.9	-55.44634	-1.501794E-010	0.0086996	5
	57	85	1.998082	227774.8	-343016.8	1	411754.7	-56.4145	-1.310545E-010	0.0086832	5
	58	88	1.584686	255873.4	-399766.3	1	474641.2	-57.37842	2.55776E-011	0.0087484	5
	59	92	1.266892	286661.6	-468173.9	1	548964.2	-58.52098	-9.782702E-011	0.0086863	5
	60	96	0.999041	326199.1	-553949.9	1	642857.9	-59.50786	1.326761E-010	0.0087441	5
