EXPLAIN
TAG	EISPOT
TITLE	LABEL	Potentiostatic EIS	Test &Identifier
DATE	LABEL	11/11/2019	Date
TIME	LABEL	13:51:48	Time
NOTES	NOTES	3	&Notes...
	
	
	
PSTAT	PSTAT	REF600-11020	Potentiostat
VDC	POTEN	0.00000E+000	T	DC &Voltage (V)
FREQINIT	QUANT	1.00000E+006	Initial Fre&q. (Hz)
FREQFINAL	QUANT	1.00000E+000	Final Fre&q. (Hz)
PTSPERDEC	QUANT	1.00000E+001	Points/&decade
VAC	QUANT	2.50000E+001	AC &Voltage (mV rms)
AREA	QUANT	1.00000E-002	&Area (cm^2)
CONDIT	TWOPARAM	T	5.00000E+000	0.00000E+000	Conditionin&g	Time(s)	E(V)
DELAY	TWOPARAM	T	5.00000E+000	0.00000E+000	Init. De&lay	Time(s)	Stab.(mV/s)
SPEED	SELECTOR	1	&Optimize for:
ZGUESS	QUANT	1.00000E+005	E&stimated Z (ohms)
OCVCURVE	TABLE	19
	Pt	T	Vf	Vm	Ach	Over
	#	s	V vs. Ref.	V	V	bits
	0	0.258333	7.81414E-003	7.81414E-003	5.47499E-004	...........
	1	0.516667	7.81499E-003	7.85858E-003	5.43933E-004	...........
	2	0.775	7.81561E-003	7.66021E-003	5.43866E-004	...........
	3	1.03333	7.80535E-003	7.64074E-003	5.42933E-004	...........
	4	1.29167	7.77593E-003	7.84445E-003	5.40199E-004	...........
	5	1.55	7.74418E-003	7.71436E-003	5.44633E-004	...........
	6	1.80833	7.72927E-003	7.57977E-003	5.45633E-004	...........
	7	2.06667	7.71708E-003	7.57073E-003	5.45099E-004	...........
	8	2.325	7.68523E-003	7.57632E-003	5.46533E-004	...........
	9	2.58333	7.64050E-003	7.60788E-003	5.46633E-004	...........
	10	2.84167	7.60661E-003	7.64341E-003	5.44466E-004	...........
	11	3.1	7.59696E-003	7.66047E-003	5.46733E-004	...........
	12	3.35833	7.60779E-003	7.63534E-003	5.50199E-004	...........
	13	3.61667	7.62567E-003	7.65327E-003	5.43999E-004	...........
	14	3.875	7.63900E-003	7.63142E-003	5.46299E-004	...........
	15	4.13333	7.64587E-003	7.72164E-003	5.48799E-004	...........
	16	4.39167	7.65357E-003	7.72186E-003	5.50233E-004	...........
	17	4.65	7.66978E-003	7.74912E-003	5.47466E-004	...........
	18	4.90833	7.69372E-003	7.75571E-003	5.45699E-004	...........
EOC	QUANT	0.0076937	Open Circuit (V)
PSTATMODEL	IQUANT	4	Pstat Model
PSTATSECTION	LABEL	REF600-11020	Pstat Section
PSTATSERIALNO	LABEL	11020	Pstat Serial Number
CTRLMODE	IQUANT	1	Control Mode
IESTAB	IQUANT	0	I/E Stability
CASPEED	IQUANT	1	Control Amp Speed
CONVENTION	IQUANT	1	Current Convention
ICHRANGE	IQUANT	2	Ich Range
ICHRANGEMODE	TOGGLE	F	Ich Auto Range
ICHOFFSETENABLE	TOGGLE	T	Ich Offset Enable
ICHOFFSET	QUANT	0	Ich Offset (V)
ICHFILTER	IQUANT	3	Ich Filter
VCHRANGE	IQUANT	2	Vch Range
VCHRANGEMODE	TOGGLE	F	Vch Auto Range
VCHOFFSETENABLE	TOGGLE	T	Vch Offset Enable
VCHOFFSET	QUANT	0	Vch Offset (V)
VCHFILTER	IQUANT	3	Vch Filter
ACHRANGE	IQUANT	2	Ach Range
ACHOFFSETENABLE	TOGGLE	F	Ach Offset Enable
ACHOFFSET	QUANT	0	Ach Offset (V)
ACHFILTER	IQUANT	3	Ach Filter
IERANGELOWERLIMIT	IQUANT	1	I/E Range Lower Limit
IERANGEMODE	TOGGLE	F	I/E AutoRange
IERANGE	IQUANT	5	I/E Range
POSFEEDENABLE	TOGGLE	F	Positive Feedback IR Comp
POSFEEDRESISTANCE	QUANT	0	Positive Feedback Resistance (ohm)
ACHSELECT	IQUANT	0	Ach Select
CABLEID	IQUANT	14	Cable ID
DCCALDATE	LABEL	8/19/2019	DC Calibration Date
ACCALDATE	LABEL	8/19/2019	AC Calibration Date
THERMOSELECT	IQUANT	1	Thermo Select
FRAMEWORKVERSION	QUANT	6.33	Framework Version
INSTRUMENTVERSION	LABEL	3.50	Instrument Version
ZCURVE	TABLE
	Pt	Time	Freq	Zreal	Zimag	Zsig	Zmod	Zphz	Idc	Vdc	IERange
	#	s	Hz	ohm	ohm	V	ohm	°	A	V	#
	0	2	1000078	2019.613	-965.159	1	2238.385	-25.54282	-4.618224E-006	0.0105183	8
	1	3	794390.6	2179.457	-900.9702	1	2358.343	-22.45981	-3.357533E-006	0.0101057	8
	2	4	630984.4	2316.826	-830.7592	1	2461.268	-19.72664	5.382028E-007	0.0092448	8
	3	6	501234.4	2435.194	-759.849	1	2550.989	-17.32939	-3.344368E-006	0.0099241	8
	4	7	398109.4	2528.739	-702.7681	1	2624.577	-15.53127	-1.082669E-006	0.0091694	8
	5	8	316265.6	2612.459	-641.6317	1	2690.1	-13.79897	1.623343E-006	0.009557	8
	6	10	251203.1	2684.07	-595.0299	1	2749.235	-12.49971	3.247746E-006	0.0092558	8
	7	11	199546.9	2743.895	-566.6171	1	2801.788	-11.66764	-6.691091E-007	0.0096473	8
	8	12	158578.1	2800.963	-546.9551	1	2853.866	-11.04933	3.243517E-006	0.0092415	8
	9	14	125953.1	2878.72	-488.1202	1	2919.81	-9.62363	-1.777149E-006	0.0099031	7
	10	15	100078.1	2937.053	-487.1708	1	2977.183	-9.41794	7.274249E-007	0.0079863	7
	11	16	79453.13	2991.551	-502.125	1	3033.399	-9.52815	4.784534E-007	0.0093775	7
	12	18	63140.62	3052.19	-521.2956	1	3096.387	-9.69225	7.434841E-008	0.008247	7
	13	19	50203.12	3113.212	-547.2696	1	3160.948	-9.97012	-6.682575E-007	0.0105284	7
	14	20	39890.62	3181.896	-577.8483	1	3233.941	-10.29302	7.180117E-008	0.0082394	7
	15	22	31640.63	3252.444	-615.355	1	3310.144	-10.7136	-6.68159E-007	0.0105287	7
	16	23	25171.88	3327.429	-657.2161	1	3391.713	-11.17295	-9.312558E-007	0.0103784	7
	17	24	20015.62	3411.145	-708.5746	1	3483.962	-11.73479	7.795633E-007	0.0086803	7
	18	26	15890.62	3496.289	-763.8354	1	3578.754	-12.32379	3.5E-007	0.0080046	7
	19	27	12609.37	3583.832	-829.213	1	3678.511	-13.02762	-8.038228E-007	0.0096684	7
	20	29	10078.13	3676.181	-904.4732	1	3785.813	-13.82229	7.264033E-008	0.0082354	7
	21	30	8015.625	3772.653	-991.545	1	3900.778	-14.72569	-9.313792E-007	0.0103678	7
	22	31	6328.125	3879.568	-1098.463	1	4032.08	-15.80896	-2.462875E-007	0.008624	7
	23	33	5015.625	3984.491	-1223.066	1	4167.98	-17.06421	-9.307542E-007	0.0100969	7
	24	34	3984.375	4092.026	-1377.345	1	4317.61	-18.60285	5.751338E-007	0.0079123	7
	25	35	3170.956	4199.886	-1559.642	1	4480.125	-20.37265	7.356704E-008	0.0082283	7
	26	37	2527.573	4306.633	-1784.373	1	4661.66	-22.50576	-4.55466E-007	0.0104451	7
	27	38	1976.103	4427.739	-2094.537	1	4898.159	-25.31644	7.842709E-008	0.0099418	7
	28	39	1577.524	4541.781	-2464.055	1	5167.14	-28.48118	-8.22902E-007	0.0104906	7
	29	41	1265.625	4661.933	-2881.16	1	5480.392	-31.71682	7.949285E-008	0.0099404	7
	30	42	998.264	4801.845	-3468.031	1	5923.255	-35.83791	7.349187E-008	0.0082278	7
	31	43	796.875	4955.183	-4150.275	1	6463.638	-39.94828	-8.041823E-007	0.0096599	7
	32	45	627.7902	5140.715	-5055.554	1	7210.103	-44.52146	-2.46708E-007	0.0086198	7
	33	46	505.5147	5344.997	-6066.647	1	8085.369	-48.61846	-6.637114E-007	0.010517	7
	34	48	397.9953	5617.088	-7462.41	1	9340.195	-53.03057	4.981328E-009	0.0092682	7
	35	49	315.5048	5946.011	-9131.032	1	10896.37	-56.92834	5.688992E-010	0.0092055	6
	36	50	252.4038	6331.816	-11103.03	1	12781.59	-60.30483	4.140212E-010	0.0092014	6
	37	52	198.6229	6854.8	-13711.82	1	15329.78	-63.43866	4.382678E-010	0.0091997	6
	38	53	158.3615	7485.078	-16747.03	1	18343.64	-65.91776	4.64467E-010	0.0091991	6
	39	54	125.558	8309.823	-20550.43	1	22166.94	-67.98344	1.061876E-009	0.0091996	6
	40	56	100.4464	9307.725	-24998.48	1	26675.04	-69.57811	4.568393E-010	0.0091881	6
	41	57	79.00281	10769.54	-30909.68	1	32732.12	-70.79066	9.108698E-010	0.0091877	6
	42	58	63.3446	12668.47	-37356.63	1	39446.27	-71.26704	8.279956E-010	0.0091935	6
	43	60	49.86702	14754.67	-46218.27	1	48516.27	-72.2949	3.1301E-010	0.0091942	6
	44	61	39.72458	17668.48	-55919.45	1	58644.36	-72.46539	4.864674E-010	0.0092025	6
	45	63	31.6723	21553.44	-67979.67	1	71314.7	-72.40841	8.870224E-010	0.0091955	6
	46	64	24.93351	26727.79	-82878.63	1	87081.82	-72.12584	4.346133E-010	0.0091963	6
	47	65	19.86229	33169.71	-100045	1	105400.3	-71.65716	1.040385E-009	0.0091994	6
	48	67	15.83615	41691.21	-119123.7	1	126208.6	-70.71084	-2.025282E-010	0.009206	5
	49	68	12.40079	52539.62	-146082.8	1	155243.7	-70.21855	1.81142E-010	0.0092005	5
	50	69	9.93114	66874.12	-172671.7	1	185169.3	-68.82909	5.227179E-010	0.0092015	5
	51	71	7.944915	83895.6	-203804.2	1	220396.5	-67.62558	3.002772E-010	0.009211	5
	52	73	6.317385	105692.4	-239818.6	1	262076.1	-66.21604	-6.764746E-011	0.0092171	5
	53	75	5.008013	132696.2	-281078.9	1	310827.3	-64.7282	2.954846E-010	0.0092074	5
	54	77	3.945707	165691.9	-326985.6	1	366569.7	-63.12751	2.972587E-011	0.0092166	5
	55	80	3.158693	201746.9	-376840.3	1	427446.4	-61.83698	1.535666E-010	0.009225	5
	56	83	2.504006	244748.9	-434559	1	498742	-60.61126	-1.343408E-010	0.0091994	5
	57	86	1.998082	292193.1	-496775.6	1	576335.6	-59.53684	-1.282697E-010	0.0091785	5
	58	89	1.584686	346888.3	-566752.7	1	664484.8	-58.53075	-2.270439E-011	0.0092454	5
	59	93	1.266892	405953.2	-646051.8	1	763007.8	-57.85639	-1.126335E-010	0.0091741	5
	60	97	0.999041	469994.8	-738055.8	1	874997.9	-57.51097	1.578484E-010	0.0092422	5
