EXPLAIN
TAG	EISPOT
TITLE	LABEL	Potentiostatic EIS	Test &Identifier
DATE	LABEL	11/7/2019	Date
TIME	LABEL	10:50:03	Time
NOTES	NOTES	2	&Notes...
	
	
PSTAT	PSTAT	REF600-11020	Potentiostat
VDC	POTEN	0.00000E+000	T	DC &Voltage (V)
FREQINIT	QUANT	1.00000E+006	Initial Fre&q. (Hz)
FREQFINAL	QUANT	1.00000E+000	Final Fre&q. (Hz)
PTSPERDEC	QUANT	1.00000E+001	Points/&decade
VAC	QUANT	2.50000E+001	AC &Voltage (mV rms)
AREA	QUANT	1.00000E-002	&Area (cm^2)
CONDIT	TWOPARAM	T	5.00000E+000	0.00000E+000	Conditionin&g	Time(s)	E(V)
DELAY	TWOPARAM	T	5.00000E+000	0.00000E+000	Init. De&lay	Time(s)	Stab.(mV/s)
SPEED	SELECTOR	1	&Optimize for:
ZGUESS	QUANT	1.00000E+005	E&stimated Z (ohms)
OCVCURVE	TABLE	19
	Pt	T	Vf	Vm	Ach	Over
	#	s	V vs. Ref.	V	V	bits
	0	0.258333	5.06700E-003	5.06700E-003	5.75066E-004	...........
	1	0.516667	5.06564E-003	4.99561E-003	5.76032E-004	...........
	2	0.775	5.05459E-003	4.78808E-003	5.76666E-004	...........
	3	1.03333	5.01366E-003	4.54683E-003	5.79732E-004	...........
	4	1.29167	4.92438E-003	4.55957E-003	5.76699E-004	...........
	5	1.55	4.80170E-003	4.70956E-003	5.78132E-004	...........
	6	1.80833	4.69475E-003	4.57823E-003	5.77299E-004	...........
	7	2.06667	4.63430E-003	4.49030E-003	5.75165E-004	...........
	8	2.325	4.59627E-003	4.17816E-003	5.75999E-004	...........
	9	2.58333	4.53357E-003	4.20515E-003	5.80199E-004	...........
	10	2.84167	4.43596E-003	4.39487E-003	5.79799E-004	...........
	11	3.1	4.34656E-003	4.36241E-003	5.79166E-004	...........
	12	3.35833	4.30900E-003	4.37092E-003	5.82665E-004	...........
	13	3.61667	4.31830E-003	4.35295E-003	5.81499E-004	...........
	14	3.875	4.34197E-003	4.40566E-003	5.74632E-004	...........
	15	4.13333	4.36401E-003	4.54062E-003	5.76799E-004	...........
	16	4.39167	4.39201E-003	4.51792E-003	5.75199E-004	...........
	17	4.65	4.43275E-003	4.53550E-003	5.71266E-004	...........
	18	4.90833	4.47675E-003	4.54902E-003	5.72566E-004	...........
EOC	QUANT	0.0044767	Open Circuit (V)
PSTATMODEL	IQUANT	4	Pstat Model
PSTATSECTION	LABEL	REF600-11020	Pstat Section
PSTATSERIALNO	LABEL	11020	Pstat Serial Number
CTRLMODE	IQUANT	1	Control Mode
IESTAB	IQUANT	0	I/E Stability
CASPEED	IQUANT	1	Control Amp Speed
CONVENTION	IQUANT	1	Current Convention
ICHRANGE	IQUANT	2	Ich Range
ICHRANGEMODE	TOGGLE	F	Ich Auto Range
ICHOFFSETENABLE	TOGGLE	T	Ich Offset Enable
ICHOFFSET	QUANT	0	Ich Offset (V)
ICHFILTER	IQUANT	3	Ich Filter
VCHRANGE	IQUANT	2	Vch Range
VCHRANGEMODE	TOGGLE	F	Vch Auto Range
VCHOFFSETENABLE	TOGGLE	T	Vch Offset Enable
VCHOFFSET	QUANT	0	Vch Offset (V)
VCHFILTER	IQUANT	3	Vch Filter
ACHRANGE	IQUANT	2	Ach Range
ACHOFFSETENABLE	TOGGLE	F	Ach Offset Enable
ACHOFFSET	QUANT	0	Ach Offset (V)
ACHFILTER	IQUANT	3	Ach Filter
IERANGELOWERLIMIT	IQUANT	1	I/E Range Lower Limit
IERANGEMODE	TOGGLE	F	I/E AutoRange
IERANGE	IQUANT	4	I/E Range
POSFEEDENABLE	TOGGLE	F	Positive Feedback IR Comp
POSFEEDRESISTANCE	QUANT	0	Positive Feedback Resistance (ohm)
ACHSELECT	IQUANT	0	Ach Select
CABLEID	IQUANT	14	Cable ID
DCCALDATE	LABEL	8/19/2019	DC Calibration Date
ACCALDATE	LABEL	8/19/2019	AC Calibration Date
THERMOSELECT	IQUANT	1	Thermo Select
FRAMEWORKVERSION	QUANT	6.33	Framework Version
INSTRUMENTVERSION	LABEL	3.50	Instrument Version
ZCURVE	TABLE
	Pt	Time	Freq	Zreal	Zimag	Zsig	Zmod	Zphz	Idc	Vdc	IERange
	#	s	Hz	ohm	ohm	V	ohm	°	A	V	#
	0	1	1000078	2275.592	-1100.271	1	2527.63	-25.80422	2.858301E-006	0.0075274	8
	1	3	794390.6	2478.52	-999.236	1	2672.365	-21.95725	4.920534E-008	0.0069857	8
	2	4	630984.4	2621.259	-911.222	1	2775.126	-19.16886	-1.162714E-006	0.0068293	8
	3	6	501234.4	2738.986	-814.044	1	2857.396	-16.55229	1.052244E-006	0.00664	8
	4	7	398109.4	2834.896	-714.5531	1	2923.563	-14.14707	-2.003358E-006	0.0058243	8
	5	8	316265.6	2921.428	-639.7692	1	2990.66	-12.35232	-5.105661E-006	0.0064443	8
	6	10	251203.1	2992.855	-580.3817	1	3048.61	-10.97472	9.501488E-008	0.0056899	8
	7	11	199546.9	3042.186	-518.5254	1	3086.06	-9.67282	6.622061E-006	0.004828	8
	8	13	158578.1	3065.405	-458.2317	1	3099.465	-8.501899	-2.928623E-006	0.0059601	8
	9	14	125953.1	3176.544	-388.2817	1	3200.186	-6.968922	4.047661E-006	0.0012835	7
	10	15	100078.1	3198.685	-377.6325	1	3220.9	-6.733097	1.183618E-006	0.0044096	7
	11	17	79453.13	3239.32	-370.976	1	3260.493	-6.533211	6.688388E-007	0.0062143	7
	12	18	63140.62	3278.41	-375.0306	1	3299.791	-6.525928	4.27084E-007	0.0065681	7
	13	19	50203.12	3322.304	-383.7507	1	3344.394	-6.588886	1.187431E-006	0.0044054	7
	14	21	39890.62	3363.585	-394.011	1	3386.584	-6.681191	1.381962E-007	0.0044784	7
	15	22	31640.63	3410.729	-410.2011	1	3435.307	-6.857903	-3.188083E-007	0.0050321	7
	16	24	25171.88	3456.835	-432.2492	1	3483.755	-7.12738	1.40148E-007	0.0044883	7
	17	25	20015.62	3502.874	-457.1474	1	3532.578	-7.435441	-1.143904E-006	0.0065482	7
	18	26	15890.62	3552.825	-492.7318	1	3586.83	-7.895831	7.65471E-008	0.0070496	7
	19	28	12609.37	3606.743	-534.1895	1	3646.088	-8.424749	1.074835E-006	0.0041575	7
	20	29	10078.13	3665.228	-578.4196	1	3710.588	-8.968043	-9.855976E-007	0.0078395	7
	21	30	8015.625	3704.305	-651.594	1	3761.177	-9.97637	-1.352119E-006	0.0075898	7
	22	32	6328.125	3764.771	-734.3032	1	3835.714	-11.03674	-3.202976E-007	0.0074797	7
	23	33	5015.625	3822.815	-834.6257	1	3912.866	-12.31598	-9.875885E-007	0.0078326	7
	24	34	3984.375	3882.042	-954.729	1	3997.719	-13.81681	-7.854532E-007	0.005786	7
	25	36	3170.956	3946.695	-1107.096	1	4099.032	-15.66945	4.318909E-007	0.0065593	7
	26	37	2527.573	4007.412	-1293.203	1	4210.905	-17.88503	-3.198053E-007	0.0050266	7
	27	38	1976.103	4085.465	-1546.23	1	4368.278	-20.7302	1.108297E-006	0.0052178	7
	28	40	1577.524	4155.97	-1844.072	1	4546.723	-23.92764	1.189207E-006	0.0043887	7
	29	41	1265.625	4238.188	-2189.745	1	4770.453	-27.32405	1.075258E-006	0.0041483	7
	30	43	998.264	4334.917	-2666.644	1	5089.449	-31.59794	8.557495E-007	0.0040543	7
	31	44	796.875	4448.39	-3209.707	1	5485.471	-35.81209	-3.214727E-007	0.0074802	7
	32	45	627.7902	4592.35	-3942.03	1	6052.213	-40.64248	7.315673E-008	0.0070534	7
	33	47	505.5147	4753.553	-4760.866	1	6727.712	-45.04404	-3.206273E-007	0.007477	7
	34	48	397.9953	4971.536	-5867.238	1	7690.296	-49.72411	6.570203E-009	0.0060162	7
	35	50	315.5048	5242.893	-7198.432	1	8905.355	-53.93272	3.6523E-009	0.0060152	7
	36	51	252.4038	5576.043	-8760.333	1	10384.4	-57.52282	1.600664E-009	0.0059496	6
	37	52	198.6229	6033.907	-10824.43	1	12392.59	-60.86321	1.390311E-009	0.0059477	6
	38	54	158.3615	6599.45	-13216.12	1	14772.23	-63.46482	1.029723E-009	0.0059449	6
	39	55	125.558	7346.43	-16204.95	1	17792.42	-65.61308	1.053556E-009	0.0059539	6
	40	56	100.4464	8285.059	-19661.88	1	21336.16	-67.15057	2.210663E-009	0.0059403	6
	41	58	79.00281	9584.43	-24177.18	1	26007.64	-68.3754	9.374496E-010	0.0059467	6
	42	59	63.3446	10903.32	-29223.78	1	31191.54	-69.53958	5.054572E-010	0.0059545	6
	43	61	49.86702	13717.75	-35592.45	1	38144.45	-68.92274	1.169366E-009	0.0059522	6
	44	62	39.72458	16606.88	-43233.42	1	46313.25	-68.98714	1.108228E-009	0.0059429	6
	45	63	31.6723	20421.12	-51757.21	1	55640.19	-68.46799	3.523554E-010	0.0059475	6
	46	65	24.93351	25779.15	-62562.24	1	67665.34	-67.6056	3.289499E-011	0.0059445	6
	47	66	19.86229	32334.21	-74201.52	1	80940.52	-66.45425	-3.60784E-011	0.0059501	6
	48	68	15.83615	40538.38	-86327.48	1	95371.9	-64.84579	3.321307E-010	0.005939	6
	49	69	12.40079	50757.98	-103146.8	1	114959.3	-63.79845	8.744699E-012	0.0059472	5
	50	71	9.93114	62924.05	-118126.4	1	133840.5	-61.95648	5.330327E-010	0.0059407	5
	51	72	7.944915	77437.78	-135078.1	1	155700.7	-60.17515	2.025459E-010	0.0059574	5
	52	74	6.317385	92291.45	-153416	1	179036.8	-58.96987	6.223168E-012	0.0059464	5
	53	76	5.008013	109346.5	-174697.4	1	206096.7	-57.95675	-2.406117E-010	0.0059508	5
	54	78	3.945707	128459.9	-199383	1	237182.5	-57.20684	1.233709E-010	0.0059556	5
	55	81	3.158693	147446.3	-226294.4	1	270091.8	-56.91299	-7.717189E-011	0.0059373	5
	56	84	2.504006	168735.5	-259541.4	1	309569.7	-56.97092	3.241344E-010	0.0059593	5
	57	87	1.998082	191252.3	-297969.1	1	354066.4	-57.30551	3.55132E-010	0.0059609	5
	58	90	1.584686	218181.2	-344820	1	408048.9	-57.67685	6.868722E-011	0.0058955	5
	59	94	1.266892	245956.1	-399986.9	1	469557.1	-58.41221	2.699853E-010	0.0059651	5
	60	98	0.999041	282070.8	-469922.7	1	548079.6	-59.02573	-2.102224E-010	0.0059229	5
