EXPLAIN
TAG	EISPOT
TITLE	LABEL	Potentiostatic EIS	Test &Identifier
DATE	LABEL	10/22/2019	Date
TIME	LABEL	8:40:10	Time
NOTES	NOTES	1	&Notes...
	
PSTAT	PSTAT	REF600-11020	Potentiostat
VDC	POTEN	0.00000E+000	T	DC &Voltage (V)
FREQINIT	QUANT	1.00000E+006	Initial Fre&q. (Hz)
FREQFINAL	QUANT	1.00000E+000	Final Fre&q. (Hz)
PTSPERDEC	QUANT	1.00000E+001	Points/&decade
VAC	QUANT	2.50000E+001	AC &Voltage (mV rms)
AREA	QUANT	1.00000E-002	&Area (cm^2)
CONDIT	TWOPARAM	T	5.00000E+000	0.00000E+000	Conditionin&g	Time(s)	E(V)
DELAY	TWOPARAM	T	5.00000E+000	0.00000E+000	Init. De&lay	Time(s)	Stab.(mV/s)
SPEED	SELECTOR	1	&Optimize for:
ZGUESS	QUANT	1.00000E+005	E&stimated Z (ohms)
OCVCURVE	TABLE	19
	Pt	T	Vf	Vm	Ach	Over
	#	s	V vs. Ref.	V	V	bits
	0	0.258333	2.23167E-002	2.23167E-002	5.42333E-004	...........
	1	0.516667	2.23307E-002	2.30480E-002	5.44099E-004	...........
	2	0.775	2.24171E-002	2.37737E-002	5.49066E-004	...........
	3	1.03333	2.26634E-002	2.44621E-002	5.49666E-004	...........
	4	1.29167	2.31073E-002	2.51125E-002	5.50366E-004	...........
	5	1.55	2.37003E-002	2.57178E-002	5.56233E-004	...........
	6	1.80833	2.43573E-002	2.62891E-002	5.49766E-004	...........
	7	2.06667	2.50126E-002	2.68212E-002	5.49499E-004	...........
	8	2.325	2.56345E-002	2.73157E-002	5.45233E-004	...........
	9	2.58333	2.62267E-002	2.84420E-002	5.49799E-004	...........
	10	2.84167	2.68260E-002	2.86173E-002	5.53066E-004	...........
	11	3.1	2.74444E-002	2.88462E-002	5.47833E-004	...........
	12	3.35833	2.80175E-002	2.90002E-002	5.45599E-004	...........
	13	3.61667	2.84701E-002	2.93772E-002	5.45999E-004	...........
	14	3.875	2.88061E-002	2.97372E-002	5.47699E-004	...........
	15	4.13333	2.90927E-002	3.00969E-002	5.47699E-004	...........
	16	4.39167	2.93876E-002	3.03337E-002	5.44066E-004	...........
	17	4.65	2.97027E-002	3.07076E-002	5.44833E-004	...........
	18	4.90833	3.00257E-002	3.10399E-002	5.37799E-004	...........
EOC	QUANT	0.0300257	Open Circuit (V)
PSTATMODEL	IQUANT	4	Pstat Model
PSTATSECTION	LABEL	REF600-11020	Pstat Section
PSTATSERIALNO	LABEL	11020	Pstat Serial Number
CTRLMODE	IQUANT	1	Control Mode
IESTAB	IQUANT	0	I/E Stability
CASPEED	IQUANT	1	Control Amp Speed
CONVENTION	IQUANT	1	Current Convention
ICHRANGE	IQUANT	2	Ich Range
ICHRANGEMODE	TOGGLE	F	Ich Auto Range
ICHOFFSETENABLE	TOGGLE	T	Ich Offset Enable
ICHOFFSET	QUANT	0	Ich Offset (V)
ICHFILTER	IQUANT	3	Ich Filter
VCHRANGE	IQUANT	2	Vch Range
VCHRANGEMODE	TOGGLE	F	Vch Auto Range
VCHOFFSETENABLE	TOGGLE	T	Vch Offset Enable
VCHOFFSET	QUANT	0	Vch Offset (V)
VCHFILTER	IQUANT	3	Vch Filter
ACHRANGE	IQUANT	2	Ach Range
ACHOFFSETENABLE	TOGGLE	F	Ach Offset Enable
ACHOFFSET	QUANT	0	Ach Offset (V)
ACHFILTER	IQUANT	3	Ach Filter
IERANGELOWERLIMIT	IQUANT	1	I/E Range Lower Limit
IERANGEMODE	TOGGLE	F	I/E AutoRange
IERANGE	IQUANT	5	I/E Range
POSFEEDENABLE	TOGGLE	F	Positive Feedback IR Comp
POSFEEDRESISTANCE	QUANT	0	Positive Feedback Resistance (ohm)
ACHSELECT	IQUANT	0	Ach Select
CABLEID	IQUANT	14	Cable ID
DCCALDATE	LABEL	8/19/2019	DC Calibration Date
ACCALDATE	LABEL	8/19/2019	AC Calibration Date
THERMOSELECT	IQUANT	1	Thermo Select
FRAMEWORKVERSION	QUANT	6.33	Framework Version
INSTRUMENTVERSION	LABEL	3.50	Instrument Version
ZCURVE	TABLE
	Pt	Time	Freq	Zreal	Zimag	Zsig	Zmod	Zphz	Idc	Vdc	IERange
	#	s	Hz	ohm	ohm	V	ohm	°	A	V	#
	0	2	1000078	2395.552	-1496.566	1	2824.603	-31.99413	7.607907E-006	0.0310895	8
	1	3	794390.6	2678.132	-1417.029	1	3029.912	-27.88381	-3.201721E-006	0.0318617	8
	2	5	630984.4	2920.164	-1293.245	1	3193.719	-23.88698	7.024598E-007	0.031812	8
	3	6	501234.4	3119.246	-1155.977	1	3326.557	-20.33445	1.454515E-006	0.0310909	8
	4	7	398109.4	3272.378	-1024.312	1	3428.947	-17.38104	2.946627E-006	0.0309399	8
	5	9	316265.6	3394.166	-891.9282	1	3509.401	-14.72346	-2.313703E-006	0.0319592	8
	6	10	251203.1	3490.846	-786.9595	1	3578.451	-12.70411	-1.198906E-006	0.0317992	8
	7	11	199546.9	3559.61	-692.11	1	3626.271	-11.00298	-6.918593E-007	0.0318112	8
	8	13	158578.1	3631.637	-631.3828	1	3686.114	-9.86265	3.720169E-006	0.0308207	8
	9	14	125953.1	3693.596	-525.0396	1	3730.727	-8.090315	-6.577767E-007	0.0320922	7
	10	16	100078.1	3735.167	-505.5393	1	3769.223	-7.707909	8.426069E-008	0.0314333	7
	11	17	79453.13	3777.686	-500.7037	1	3810.723	-7.550116	-1.644211E-008	0.0314575	7
	12	18	63140.62	3822.608	-506.7509	1	3856.051	-7.551487	-3.91405E-008	0.031566	7
	13	20	50203.12	3868.856	-523.6769	1	3904.137	-7.708538	-2.948138E-008	0.0314911	7
	14	21	39890.62	3918.184	-553.7714	1	3957.124	-8.044543	-5.55724E-008	0.0316452	7
	15	22	31640.63	3972.635	-595.6791	1	4017.047	-8.527716	-3.839666E-008	0.031565	7
	16	24	25171.88	4031.735	-649.3945	1	4083.7	-9.150084	-5.159315E-009	0.0315159	7
	17	25	20015.62	4086.165	-726.3044	1	4150.212	-10.0789	-4.633136E-010	0.0314871	7
	18	26	15890.62	4174.473	-797.9144	1	4250.046	-10.82107	-5.528177E-008	0.0316479	7
	19	28	12609.37	4259.341	-894.1762	1	4352.188	-11.8561	-3.738091E-008	0.0314948	7
	20	29	10078.13	4351.194	-1006.03	1	4465.981	-13.01847	7.569001E-009	0.0314128	7
	21	30	8015.625	4463.266	-1132.489	1	4604.702	-14.2375	-7.492038E-008	0.0315979	7
	22	32	6328.125	4582.996	-1295.044	1	4762.457	-15.77901	8.747519E-008	0.031418	7
	23	33	5015.625	4721.922	-1476.526	1	4947.391	-17.36425	1.324516E-007	0.0312755	7
	24	34	3984.375	4884.633	-1696.213	1	5170.762	-19.14982	1.31639E-007	0.0312781	7
	25	36	3170.956	5051.888	-1922.352	1	5405.276	-20.8329	-1.091478E-008	0.0316073	7
	26	37	2527.573	5247.667	-2193.955	1	5687.833	-22.68892	9.545807E-009	0.0314109	7
	27	38	1976.103	5490.11	-2539.716	1	6049.088	-24.82518	-3.2903E-009	0.0315062	7
	28	40	1577.524	5764.289	-2969.995	1	6484.435	-27.25936	-1.448278E-008	0.0314384	7
	29	41	1265.625	6017.911	-3314.225	1	6870.177	-28.84276	3.922016E-008	0.0314173	7
	30	42	998.264	6345.621	-3819.164	1	7406.275	-31.04198	-1.471878E-008	0.0314346	7
	31	44	796.875	6683.535	-4379.988	1	7990.866	-33.23843	-7.922176E-008	0.0315985	7
	32	45	627.7902	7072.968	-5071.533	1	8703.294	-35.64167	-1.138429E-008	0.031599	7
	33	46	505.5147	7444.726	-5809.011	1	9442.91	-37.9644	-4.730048E-009	0.0315014	7
	34	48	397.9953	7856.766	-6795.826	1	10388.07	-40.85865	5.430257E-010	0.0314314	6
	35	49	315.5048	8261.239	-7983.407	1	11488.38	-44.02016	1.164288E-009	0.0314259	6
	36	50	252.4038	8659.517	-9401.01	1	12781.48	-47.35102	8.890823E-010	0.031422	6
	37	52	198.6229	9113.933	-11312.93	1	14527.42	-51.14434	5.203203E-010	0.031419	6
	38	53	158.3615	9587.81	-13584.36	1	16627.12	-54.78563	6.745398E-010	0.0314216	6
	39	54	125.558	10152.81	-16496.58	1	19370.51	-58.38979	7.639323E-010	0.0314213	6
	40	56	100.4464	10820.33	-19984.39	1	22725.66	-61.56716	-3.948115E-010	0.0314232	6
	41	57	79.00281	11650.34	-24619.25	1	27236.7	-64.67551	9.486376E-010	0.0314198	6
	42	58	63.3446	12615.19	-29701.24	1	32269.29	-66.9873	-2.421154E-012	0.03142	6
	43	60	49.86702	14327.18	-36969.17	1	39648.3	-68.81646	-1.968224E-010	0.0314173	6
	44	61	39.72458	15964.07	-45224.59	1	47959.51	-70.55721	2.14169E-010	0.0314223	6
	45	63	31.6723	18381.83	-55242.4	1	58220.39	-71.59521	8.357033E-011	0.0314181	6
	46	64	24.93351	21547.14	-68224.95	1	71546.66	-72.47258	-4.336454E-011	0.0314194	6
	47	65	19.86229	25532.1	-83089.73	1	86924.06	-72.91868	5.717312E-010	0.0314196	6
	48	67	15.83615	30167.13	-101243.3	1	105642.1	-73.40769	-1.009873E-009	0.0314152	6
	49	68	12.40079	38358.77	-124339.8	1	130122.1	-72.85502	2.314321E-010	0.0314205	5
	50	70	9.93114	46703.35	-149437.7	1	156565.7	-72.64455	-3.528366E-011	0.0314198	5
	51	71	7.944915	57954.4	-179650.4	1	188767	-72.12054	1.762314E-010	0.0314261	5
	52	73	6.317385	72282.13	-215758.6	1	227544.4	-71.47843	-1.589623E-010	0.031439	5
	53	75	5.008013	90634.23	-259143.9	1	274536.2	-70.72298	-1.434174E-010	0.0314153	5
	54	78	3.945707	114007.1	-311331.1	1	331548.9	-69.88765	1.449034E-010	0.0314316	5
	55	80	3.158693	141114.4	-368548.4	1	394640.6	-69.04854	-2.164995E-010	0.031409	5
	56	84	2.504006	175245.1	-437868.8	1	471635.3	-68.18758	1.912318E-010	0.0314348	5
	57	86	1.998082	215086.8	-515077.6	1	558182.1	-67.33549	6.163544E-011	0.0314178	5
	58	89	1.584686	266240.4	-609488.4	1	665101.6	-66.40304	-1.138712E-010	0.0313752	5
	59	93	1.266892	323389.3	-711113.5	1	781193.3	-65.54564	4.542869E-011	0.0314051	5
	60	97	0.999041	397567.2	-840562.3	1	929841.1	-64.6869	-2.265933E-010	0.0314365	5
