EXPLAIN
TAG	EISPOT
TITLE	LABEL	Potentiostatic IDE	Test &Identifier
DATE	LABEL	9/18/2019	Date
TIME	LABEL	8:39:44	Time
NOTES	NOTES	1	&Notes...
	
PSTAT	PSTAT	REF600-11020	Potentiostat
VDC	POTEN	0.00000E+000	T	DC &Voltage (V)
FREQINIT	QUANT	1.00000E+006	Initial Fre&q. (Hz)
FREQFINAL	QUANT	1.00000E+000	Final Fre&q. (Hz)
PTSPERDEC	QUANT	1.00000E+001	Points/&decade
VAC	QUANT	2.50000E+001	AC &Voltage (mV rms)
AREA	QUANT	1.00000E-002	&Area (cm^2)
CONDIT	TWOPARAM	T	5.00000E+000	0.00000E+000	Conditionin&g	Time(s)	E(V)
DELAY	TWOPARAM	T	5.00000E+000	0.00000E+000	Init. De&lay	Time(s)	Stab.(mV/s)
SPEED	SELECTOR	1	&Optimize for:
ZGUESS	QUANT	1.00000E+007	E&stimated Z (ohms)
OCVCURVE	TABLE	19
	Pt	T	Vf	Vm	Ach	Over
	#	s	V vs. Ref.	V	V	bits
	0	0.258333	5.61466E-003	5.61466E-003	5.64099E-004	...........
	1	0.516667	5.61072E-003	5.40798E-003	5.67166E-004	...........
	2	0.775	5.58886E-003	5.33722E-003	5.61332E-004	...........
	3	1.03333	5.53269E-003	5.14923E-003	5.65932E-004	...........
	4	1.29167	5.44598E-003	5.40948E-003	5.64766E-004	...........
	5	1.55	5.36692E-003	5.53662E-003	5.66999E-004	...........
	6	1.80833	5.34945E-003	5.84013E-003	5.60199E-004	...........
	7	2.06667	5.41934E-003	5.79465E-003	5.64066E-004	...........
	8	2.325	5.54965E-003	5.88185E-003	5.62632E-004	...........
	9	2.58333	5.68594E-003	5.92661E-003	5.59166E-004	...........
	10	2.84167	5.78350E-003	5.49055E-003	5.63332E-004	...........
	11	3.1	5.81496E-003	5.75277E-003	5.68232E-004	...........
	12	3.35833	5.78918E-003	5.96314E-003	5.64132E-004	...........
	13	3.61667	5.76456E-003	5.89500E-003	5.66666E-004	...........
	14	3.875	5.78766E-003	5.97752E-003	5.64232E-004	...........
	15	4.13333	5.84722E-003	6.06159E-003	5.66166E-004	...........
	16	4.39167	5.91833E-003	6.28627E-003	5.66099E-004	...........
	17	4.65	6.00166E-003	6.33888E-003	5.64999E-004	...........
	18	4.90833	6.10306E-003	6.37395E-003	5.67432E-004	...........
EOC	QUANT	0.0061031	Open Circuit (V)
PSTATMODEL	IQUANT	4	Pstat Model
PSTATSECTION	LABEL	REF600-11020	Pstat Section
PSTATSERIALNO	LABEL	11020	Pstat Serial Number
CTRLMODE	IQUANT	1	Control Mode
IESTAB	IQUANT	0	I/E Stability
CASPEED	IQUANT	1	Control Amp Speed
CONVENTION	IQUANT	1	Current Convention
ICHRANGE	IQUANT	2	Ich Range
ICHRANGEMODE	TOGGLE	F	Ich Auto Range
ICHOFFSETENABLE	TOGGLE	T	Ich Offset Enable
ICHOFFSET	QUANT	0	Ich Offset (V)
ICHFILTER	IQUANT	3	Ich Filter
VCHRANGE	IQUANT	2	Vch Range
VCHRANGEMODE	TOGGLE	F	Vch Auto Range
VCHOFFSETENABLE	TOGGLE	T	Vch Offset Enable
VCHOFFSET	QUANT	0	Vch Offset (V)
VCHFILTER	IQUANT	3	Vch Filter
ACHRANGE	IQUANT	2	Ach Range
ACHOFFSETENABLE	TOGGLE	F	Ach Offset Enable
ACHOFFSET	QUANT	0	Ach Offset (V)
ACHFILTER	IQUANT	3	Ach Filter
IERANGELOWERLIMIT	IQUANT	1	I/E Range Lower Limit
IERANGEMODE	TOGGLE	F	I/E AutoRange
IERANGE	IQUANT	3	I/E Range
POSFEEDENABLE	TOGGLE	F	Positive Feedback IR Comp
POSFEEDRESISTANCE	QUANT	0	Positive Feedback Resistance (ohm)
ACHSELECT	IQUANT	0	Ach Select
CABLEID	IQUANT	14	Cable ID
DCCALDATE	LABEL	8/19/2019	DC Calibration Date
ACCALDATE	LABEL	8/19/2019	AC Calibration Date
THERMOSELECT	IQUANT	1	Thermo Select
FRAMEWORKVERSION	QUANT	6.33	Framework Version
INSTRUMENTVERSION	LABEL	3.50	Instrument Version
ZCURVE	TABLE
	Pt	Time	Freq	Zreal	Zimag	Zsig	Zmod	Zphz	Idc	Vdc	IERange
	#	s	Hz	ohm	ohm	V	ohm	°	A	V	#
	0	2	1000078	2251	-1558.648	1	2737.952	-34.69968	6.763829E-006	0.0072496	8
	1	3	794390.6	2569.462	-1480.706	1	2965.574	-29.9536	-6.598153E-006	0.0089154	8
	2	5	630984.4	2848.716	-1366.389	1	3159.462	-25.62474	2.164843E-006	0.0076556	8
	3	6	501234.4	3048.794	-1210.988	1	3280.494	-21.66309	-4.103283E-006	0.0085247	8
	4	7	398109.4	3224.663	-1051.517	1	3391.775	-18.06042	1.66561E-006	0.0073472	8
	5	9	316265.6	3367.898	-922.7305	1	3492.015	-15.32181	-1.40585E-006	0.0078385	8
	6	10	251203.1	3457.956	-795.819	1	3548.35	-12.96046	3.576379E-006	0.0069028	8
	7	11	199546.9	3539.53	-690.5949	1	3606.271	-11.04024	4.015098E-006	0.0067499	8
	8	13	158578.1	3606.742	-605.9218	1	3657.284	-9.53647	4.966828E-007	0.0074822	8
	9	14	125953.1	3657.9	-520.7109	1	3694.776	-8.10176	5.5151E-007	0.0062429	7
	10	15	100078.1	3690.742	-468.9838	1	3720.42	-7.241782	1.106635E-008	0.0075916	7
	11	17	79453.13	3727.872	-442.4283	1	3754.034	-6.768272	-4.395162E-009	0.0075241	7
	12	18	63140.62	3764.258	-426.8732	1	3788.385	-6.469798	-9.90839E-009	0.0075726	7
	13	19	50203.12	3800.955	-422.4078	1	3824.355	-6.341374	1.246964E-008	0.0075833	7
	14	21	39890.62	3839.296	-426.2737	1	3862.888	-6.335552	2.186626E-008	0.0074862	7
	15	22	31640.63	3879.317	-439.7755	1	3904.165	-6.467676	9.196645E-008	0.0074069	7
	16	23	25171.88	3921.721	-462.3804	1	3948.885	-6.724268	6.29859E-008	0.007415	7
	17	25	20015.62	3968.13	-494.2281	1	3998.79	-7.099593	-3.04643E-008	0.0076605	7
	18	26	15890.62	4015.994	-534.0552	1	4051.348	-7.574869	-3.609164E-008	0.0076102	7
	19	27	12609.37	4070.702	-584.6658	1	4112.475	-8.173368	2.623252E-008	0.0075226	7
	20	29	10078.13	4125.618	-644.9406	1	4175.724	-8.8849	1.763128E-008	0.0075781	7
	21	30	8015.625	4184.687	-719.6964	1	4246.124	-9.75845	9.205708E-008	0.007398	7
	22	31	6328.125	4249.979	-813.1352	1	4327.068	-10.83132	-1.273379E-008	0.0075973	7
	23	33	5015.625	4317.573	-926.4106	1	4415.844	-12.11019	3.952862E-009	0.0076186	7
	24	34	3984.375	4388.917	-1063.315	1	4515.887	-13.6188	-3.512588E-008	0.0076128	7
	25	35	3170.956	4461.543	-1230.037	1	4627.998	-15.4134	1.723435E-008	0.0075764	7
	26	37	2527.573	4541.26	-1434.144	1	4762.333	-17.52628	1.568104E-008	0.0075663	7
	27	38	1976.103	4635.578	-1707.096	1	4939.915	-20.21672	-3.526029E-008	0.0076078	7
	28	39	1577.524	4732.512	-2018.77	1	5145.105	-23.10187	6.37032E-008	0.0074063	7
	29	41	1265.625	4843.885	-2391.224	1	5401.96	-26.27363	2.677004E-008	0.0075181	7
	30	42	998.264	4964.015	-2880.858	1	5739.406	-30.12867	-1.35304E-008	0.0075921	7
	31	43	796.875	5104.732	-3459.802	1	6166.727	-34.12799	-2.957513E-008	0.0076556	7
	32	45	627.7902	5275.496	-4208.893	1	6748.75	-38.58354	-2.897662E-008	0.0076552	7
	33	46	505.5147	5461.35	-5043.404	1	7433.859	-42.72161	5.391323E-009	0.0076134	7
	34	48	397.9953	5706.566	-6171.331	1	8405.368	-47.24076	4.389521E-009	0.0075785	7
	35	49	315.5048	5988.086	-7522.553	1	9614.88	-51.47959	6.702095E-009	0.007575	7
	36	50	252.4038	6312.721	-9114.353	1	11087.01	-55.29301	2.188532E-010	0.0075112	6
	37	52	198.6229	6731.671	-11217.21	1	13082.09	-59.03118	7.134882E-010	0.0075167	6
	38	53	158.3615	7214.903	-13670.2	1	15457.33	-62.17566	2.738234E-010	0.0075126	6
	39	54	125.558	7823.9	-16757.29	1	18493.78	-64.97234	3.699618E-010	0.0075169	6
	40	56	100.4464	8539.055	-20396.86	1	22112.16	-67.2836	9.428619E-010	0.0075116	6
	41	57	79.00281	9582.96	-25218.6	1	26977.97	-69.19344	8.040891E-010	0.0075201	6
	42	58	63.3446	10653.8	-30835.58	1	32624.17	-70.93979	2.388591E-010	0.0075108	6
	43	60	49.86702	12449.93	-37798.65	1	39796.21	-71.76942	7.345466E-010	0.0075173	6
	44	61	39.72458	14561.38	-46329.99	1	48564.41	-72.55222	6.704762E-010	0.0075194	6
	45	62	31.6723	17237.19	-56495.61	1	59066.7	-73.0327	6.454719E-010	0.0075149	6
	46	64	24.93351	21214.58	-69494.35	1	72660.33	-73.02411	7.628727E-010	0.0075161	6
	47	65	19.86229	26066.42	-84449.2	1	88380.57	-72.84643	2.951427E-011	0.0075222	6
	48	67	15.83615	32528.25	-102637.8	1	107669	-72.41541	1.450037E-009	0.007524	5
	49	68	12.40079	42006.96	-125314.7	1	132167.9	-71.46823	8.185119E-010	0.0075239	5
	50	69	9.93114	52752.07	-148931.2	1	157997.7	-70.49564	-2.597469E-010	0.007527	5
	51	71	7.944915	67022.18	-177048.3	1	189309.4	-69.26568	6.230554E-010	0.0075267	5
	52	73	6.317385	84939.63	-210539.4	1	227027.7	-68.02897	2.473806E-010	0.0075168	5
	53	75	5.008013	108568.2	-249645.6	1	272231.5	-66.49629	-1.381047E-010	0.0075262	5
	54	77	3.945707	138810.5	-294399.8	1	325483.7	-64.75597	-5.362158E-010	0.0075154	5
	55	80	3.158693	173906.8	-340587	1	382417.4	-62.95074	-3.377341E-010	0.0075112	5
	56	83	2.504006	216885	-393442	1	449261.3	-61.13424	-6.120576E-011	0.0075229	5
	57	86	1.998082	266365.6	-448812.5	1	521903.5	-59.3113	3.183511E-011	0.0075303	5
	58	89	1.584686	326790.5	-509254.1	1	605088.2	-57.31154	-3.392247E-010	0.0074713	5
	59	92	1.266892	389955	-572162.1	1	692412	-55.72375	-1.070986E-010	0.0075335	5
	60	97	0.999041	467822.2	-644268.6	1	796203.3	-54.0155	-6.641349E-010	0.0074843	5
