EXPLAIN
TAG	EISPOT
TITLE	LABEL	Potentiostatic EIS	Test &Identifier
DATE	LABEL	10/12/2019	Date
TIME	LABEL	10:25:44	Time
NOTES	NOTES	1	&Notes...
	
PSTAT	PSTAT	REF600-11020	Potentiostat
VDC	POTEN	0.00000E+000	T	DC &Voltage (V)
FREQINIT	QUANT	1.00000E+006	Initial Fre&q. (Hz)
FREQFINAL	QUANT	1.00000E+000	Final Fre&q. (Hz)
PTSPERDEC	QUANT	1.00000E+001	Points/&decade
VAC	QUANT	2.50000E+001	AC &Voltage (mV rms)
AREA	QUANT	1.00000E-002	&Area (cm^2)
CONDIT	TWOPARAM	T	5.00000E+000	0.00000E+000	Conditionin&g	Time(s)	E(V)
DELAY	TWOPARAM	T	5.00000E+000	0.00000E+000	Init. De&lay	Time(s)	Stab.(mV/s)
SPEED	SELECTOR	1	&Optimize for:
ZGUESS	QUANT	1.00000E+004	E&stimated Z (ohms)
OCVCURVE	TABLE	19
	Pt	T	Vf	Vm	Ach	Over
	#	s	V vs. Ref.	V	V	bits
	0	0.258333	5.04461E-003	5.04461E-003	5.33733E-004	...........
	1	0.516667	5.04292E-003	4.95634E-003	5.30466E-004	...........
	2	0.775	5.03228E-003	4.85759E-003	5.36833E-004	...........
	3	1.03333	5.00095E-003	4.74892E-003	5.36699E-004	...........
	4	1.29167	4.94268E-003	4.68645E-003	5.29600E-004	...........
	5	1.55	4.86494E-003	4.66449E-003	5.31966E-004	...........
	6	1.80833	4.78497E-003	4.61275E-003	5.40466E-004	...........
	7	2.06667	4.71682E-003	4.58000E-003	5.29700E-004	...........
	8	2.325	4.66337E-003	4.54709E-003	5.32166E-004	...........
	9	2.58333	4.62053E-003	4.51945E-003	5.29466E-004	...........
	10	2.84167	4.58420E-003	4.49537E-003	5.35233E-004	...........
	11	3.1	4.55242E-003	4.47793E-003	5.31033E-004	...........
	12	3.35833	4.52466E-003	4.45942E-003	5.28966E-004	...........
	13	3.61667	4.50078E-003	4.44606E-003	5.29899E-004	...........
	14	3.875	4.48040E-003	4.43135E-003	5.31666E-004	...........
	15	4.13333	4.46284E-003	4.41943E-003	5.26966E-004	...........
	16	4.39167	4.44750E-003	4.41267E-003	5.25766E-004	...........
	17	4.65	4.43426E-003	4.40886E-003	5.30900E-004	...........
	18	4.90833	4.42339E-003	4.39978E-003	5.27633E-004	...........
EOC	QUANT	0.0044234	Open Circuit (V)
PSTATMODEL	IQUANT	4	Pstat Model
PSTATSECTION	LABEL	REF600-11020	Pstat Section
PSTATSERIALNO	LABEL	11020	Pstat Serial Number
CTRLMODE	IQUANT	1	Control Mode
IESTAB	IQUANT	0	I/E Stability
CASPEED	IQUANT	1	Control Amp Speed
CONVENTION	IQUANT	1	Current Convention
ICHRANGE	IQUANT	2	Ich Range
ICHRANGEMODE	TOGGLE	F	Ich Auto Range
ICHOFFSETENABLE	TOGGLE	T	Ich Offset Enable
ICHOFFSET	QUANT	0	Ich Offset (V)
ICHFILTER	IQUANT	3	Ich Filter
VCHRANGE	IQUANT	2	Vch Range
VCHRANGEMODE	TOGGLE	F	Vch Auto Range
VCHOFFSETENABLE	TOGGLE	T	Vch Offset Enable
VCHOFFSET	QUANT	0	Vch Offset (V)
VCHFILTER	IQUANT	3	Vch Filter
ACHRANGE	IQUANT	2	Ach Range
ACHOFFSETENABLE	TOGGLE	F	Ach Offset Enable
ACHOFFSET	QUANT	0	Ach Offset (V)
ACHFILTER	IQUANT	3	Ach Filter
IERANGELOWERLIMIT	IQUANT	1	I/E Range Lower Limit
IERANGEMODE	TOGGLE	F	I/E AutoRange
IERANGE	IQUANT	5	I/E Range
POSFEEDENABLE	TOGGLE	F	Positive Feedback IR Comp
POSFEEDRESISTANCE	QUANT	0	Positive Feedback Resistance (ohm)
ACHSELECT	IQUANT	0	Ach Select
CABLEID	IQUANT	14	Cable ID
DCCALDATE	LABEL	8/19/2019	DC Calibration Date
ACCALDATE	LABEL	8/19/2019	AC Calibration Date
THERMOSELECT	IQUANT	1	Thermo Select
FRAMEWORKVERSION	QUANT	6.33	Framework Version
INSTRUMENTVERSION	LABEL	3.50	Instrument Version
ZCURVE	TABLE
	Pt	Time	Freq	Zreal	Zimag	Zsig	Zmod	Zphz	Idc	Vdc	IERange
	#	s	Hz	ohm	ohm	V	ohm	°	A	V	#
	0	2	1000078	2479.133	-2033.033	1	3206.138	-39.35374	5.596396E-006	0.0059975	8
	1	3	794390.6	2891.848	-2049.936	1	3544.717	-35.33158	-3.919532E-006	0.0068962	8
	2	5	630984.4	3298.904	-1991.299	1	3853.315	-31.11621	-2.326374E-006	0.0069556	8
	3	6	501234.4	3654.065	-1865.256	1	4102.605	-27.04251	-2.637829E-006	0.0067967	8
	4	7	398109.4	3967.487	-1724.09	1	4325.903	-23.48759	-1.288641E-006	0.0064798	8
	5	9	316265.6	4242.822	-1550.785	1	4517.353	-20.07776	-1.329672E-006	0.0063555	8
	6	10	251203.1	4450.517	-1390.606	1	4662.712	-17.35191	8.733154E-007	0.0060465	8
	7	11	199546.9	4614.95	-1219.331	1	4773.314	-14.80011	-1.59477E-006	0.0065361	8
	8	13	158578.1	4777.938	-1083.207	1	4899.186	-12.77361	-6.560394E-007	0.0062884	8
	9	14	125953.1	4916.548	-921.1315	1	5002.093	-10.61153	4.664159E-007	0.0052563	7
	10	16	100078.1	4976.913	-826.0708	1	5045.003	-9.424069	1.091162E-008	0.005994	7
	11	17	79453.13	5051.474	-759.4942	1	5108.25	-8.550434	-2.409783E-008	0.0060505	7
	12	18	63140.62	5120.05	-717.1826	1	5170.035	-7.973733	-3.536656E-008	0.0060539	7
	13	20	50203.12	5181.911	-690.2712	1	5227.684	-7.587578	3.800908E-008	0.0059325	7
	14	21	39890.62	5242.661	-681.4407	1	5286.763	-7.405781	9.673272E-008	0.0059622	7
	15	22	31640.63	5302.074	-688.3224	1	5346.566	-7.396846	1.122262E-008	0.0059875	7
	16	24	25171.88	5362.554	-712.5731	1	5409.69	-7.569088	-5.876815E-008	0.006156	7
	17	25	20015.62	5422.647	-761.0963	1	5475.799	-7.989564	-3.40117E-008	0.0060525	7
	18	26	15890.62	5498.208	-809.2539	1	5557.443	-8.372965	9.713118E-008	0.0059564	7
	19	28	12609.37	5572.397	-884.3013	1	5642.127	-9.017254	-3.021513E-009	0.0059975	7
	20	29	10078.13	5653.237	-979.747	1	5737.508	-9.83211	9.999004E-009	0.0059817	7
	21	31	8015.625	5763.477	-1114.03	1	5870.156	-10.93987	-9.709924E-009	0.0060734	7
	22	32	6328.125	5845.977	-1245.829	1	5977.251	-12.03027	4.615081E-008	0.0059963	7
	23	33	5015.625	5957.655	-1420.785	1	6124.728	-13.41339	-2.296363E-008	0.0060257	7
	24	35	3984.375	6084.885	-1634.863	1	6300.683	-15.03885	-4.225517E-008	0.006142	7
	25	36	3170.956	6222.633	-1877.745	1	6499.776	-16.79174	-6.450589E-009	0.0060923	7
	26	37	2527.573	6377.898	-2170.276	1	6737.039	-18.79245	-8.917194E-009	0.006033	7
	27	39	1976.103	6562.933	-2549.318	1	7040.675	-21.22826	1.122992E-007	0.0058747	7
	28	40	1577.524	6747.423	-2958.41	1	7367.49	-23.67507	-1.816055E-009	0.005996	7
	29	41	1265.625	6965.612	-3452.114	1	7774.114	-26.36272	7.519053E-008	0.0058918	7
	30	43	998.264	7217.438	-4091.315	1	8296.401	-29.5474	-2.345383E-009	0.0059984	7
	31	44	796.875	7477.152	-4814.131	1	8892.899	-32.77528	1.548583E-008	0.0059705	7
	32	45	627.7902	7790.859	-5750.727	1	9683.41	-36.43243	1.711962E-008	0.0057599	6
	33	47	505.5147	8105.301	-6786.698	1	10571.43	-39.93998	1.452443E-008	0.0057238	6
	34	48	397.9953	8500.986	-8182.801	1	11799.36	-43.90741	9.595722E-010	0.0059938	6
	35	49	315.5048	8938.104	-9852.46	1	13302.65	-47.78583	7.834884E-010	0.0059932	6
	36	51	252.4038	9420.598	-11819.65	1	15114.62	-51.44416	1.251844E-009	0.0059893	6
	37	52	198.6229	10030.09	-14418.74	1	17564.25	-55.17641	4.810368E-010	0.0059997	6
	38	53	158.3615	10721	-17449.57	1	20479.92	-58.43348	7.042212E-010	0.0059966	6
	39	55	125.558	11583.21	-21280.09	1	24228.35	-61.43959	1.040514E-009	0.0059934	6
	40	56	100.4464	12607.52	-25773.38	1	28691.75	-63.93359	9.964257E-011	0.0059985	6
	41	58	79.00281	13990.65	-31711.55	1	34660.65	-66.19367	6.741235E-010	0.0059921	6
	42	59	63.3446	15375.5	-38619.12	1	41567.32	-68.29092	1.013646E-009	0.0059948	6
	43	60	49.86702	18207.69	-47100.06	1	50496.89	-68.86476	-2.515165E-010	0.0059934	6
	44	62	39.72458	21171.02	-57661.53	1	61425.27	-69.83878	3.882138E-010	0.0059937	6
	45	63	31.6723	25014.54	-69917.09	1	74257.16	-70.31409	4.134362E-010	0.0059939	6
	46	64	24.93351	30607.2	-85755.71	1	91054.06	-70.35793	9.245199E-010	0.0059879	6
	47	66	19.86229	37754.83	-103533	1	110202.1	-69.96487	6.400937E-011	0.0059906	5
	48	67	15.83615	46801.39	-124966.5	1	133442.9	-69.4685	1.046696E-009	0.0059924	5
	49	69	12.40079	59660.9	-150680.8	1	162062.1	-68.3993	6.424101E-010	0.0059876	5
	50	70	9.93114	75577.69	-178094.8	1	193467.7	-67.0052	8.361539E-010	0.0059929	5
	51	72	7.944915	95945.2	-210113.4	1	230982.9	-65.45688	6.806074E-011	0.0059918	5
	52	73	6.317385	120549.7	-245108	1	273148.6	-63.81098	-1.148757E-010	0.0059835	5
	53	75	5.008013	152038.1	-284529.2	1	322602.6	-61.88219	-1.954625E-010	0.0059862	5
	54	78	3.945707	190585.2	-327844	1	379215.5	-59.82933	3.689568E-010	0.0059995	5
	55	80	3.158693	232775.5	-371318.1	1	438248.3	-57.91682	-1.580576E-010	0.0059827	5
	56	84	2.504006	282364.5	-418933.4	1	505207.8	-56.01971	5.4435E-010	0.0059932	5
	57	86	1.998082	335590.2	-466960.2	1	575041.4	-54.29634	1.893691E-010	0.006033	5
	58	90	1.584686	392732.2	-519864.3	1	651534.7	-52.93072	2.288101E-010	0.0059747	5
	59	93	1.266892	453750.8	-577409.8	1	734364.9	-51.83838	1.525135E-010	0.0060294	5
	60	97	0.999041	520689.9	-645122.6	1	829036.3	-51.09238	-4.386783E-011	0.0059506	5
