EXPLAIN
TAG	EISPOT
TITLE	LABEL	Potentiostatic EIS	Test &Identifier
DATE	LABEL	10/18/2019	Date
TIME	LABEL	10:23:24	Time
NOTES	NOTES	1	&Notes...
	
PSTAT	PSTAT	REF600-11020	Potentiostat
VDC	POTEN	0.00000E+000	T	DC &Voltage (V)
FREQINIT	QUANT	1.00000E+006	Initial Fre&q. (Hz)
FREQFINAL	QUANT	1.00000E+000	Final Fre&q. (Hz)
PTSPERDEC	QUANT	1.00000E+001	Points/&decade
VAC	QUANT	2.50000E+001	AC &Voltage (mV rms)
AREA	QUANT	1.00000E-002	&Area (cm^2)
CONDIT	TWOPARAM	T	5.00000E+000	0.00000E+000	Conditionin&g	Time(s)	E(V)
DELAY	TWOPARAM	T	5.00000E+000	0.00000E+000	Init. De&lay	Time(s)	Stab.(mV/s)
SPEED	SELECTOR	0	&Optimize for:
ZGUESS	QUANT	1.00000E+005	E&stimated Z (ohms)
OCVCURVE	TABLE	19
	Pt	T	Vf	Vm	Ach	Over
	#	s	V vs. Ref.	V	V	bits
	0	0.258333	5.64986E-003	5.64986E-003	4.97433E-004	...........
	1	0.516667	5.64986E-003	5.64993E-003	4.98100E-004	...........
	2	0.775	5.64226E-003	5.25172E-003	5.00167E-004	...........
	3	1.03333	5.59428E-003	4.80705E-003	4.95867E-004	...........
	4	1.29167	5.45747E-003	4.54885E-003	4.97900E-004	...........
	5	1.55	5.21977E-003	4.36939E-003	4.95300E-004	...........
	6	1.80833	4.93663E-003	4.58628E-003	4.98867E-004	...........
	7	2.06667	4.68980E-003	4.11052E-003	4.98500E-004	...........
	8	2.325	4.51917E-003	4.52712E-003	5.00167E-004	...........
	9	2.58333	4.42990E-003	4.91749E-003	4.96600E-004	...........
	10	2.84167	4.44304E-003	4.93095E-003	4.96300E-004	...........
	11	3.1	4.55358E-003	4.55561E-003	4.94567E-004	...........
	12	3.35833	4.67898E-003	4.74358E-003	4.97833E-004	...........
	13	3.61667	4.72564E-003	3.97083E-003	5.01267E-004	...........
	14	3.875	4.65591E-003	4.13816E-003	4.98433E-004	...........
	15	4.13333	4.48842E-003	3.87293E-003	5.01367E-004	...........
	16	4.39167	4.28340E-003	3.88172E-003	4.99967E-004	...........
	17	4.65	4.10682E-003	4.06817E-003	4.99167E-004	...........
	18	4.90833	3.99977E-003	4.04325E-003	4.97533E-004	...........
EOC	QUANT	0.0039998	Open Circuit (V)
PSTATMODEL	IQUANT	4	Pstat Model
PSTATSECTION	LABEL	REF600-11020	Pstat Section
PSTATSERIALNO	LABEL	11020	Pstat Serial Number
CTRLMODE	IQUANT	1	Control Mode
IESTAB	IQUANT	0	I/E Stability
CASPEED	IQUANT	1	Control Amp Speed
CONVENTION	IQUANT	1	Current Convention
ICHRANGE	IQUANT	2	Ich Range
ICHRANGEMODE	TOGGLE	F	Ich Auto Range
ICHOFFSETENABLE	TOGGLE	T	Ich Offset Enable
ICHOFFSET	QUANT	0	Ich Offset (V)
ICHFILTER	IQUANT	3	Ich Filter
VCHRANGE	IQUANT	2	Vch Range
VCHRANGEMODE	TOGGLE	F	Vch Auto Range
VCHOFFSETENABLE	TOGGLE	T	Vch Offset Enable
VCHOFFSET	QUANT	0	Vch Offset (V)
VCHFILTER	IQUANT	3	Vch Filter
ACHRANGE	IQUANT	2	Ach Range
ACHOFFSETENABLE	TOGGLE	F	Ach Offset Enable
ACHOFFSET	QUANT	0	Ach Offset (V)
ACHFILTER	IQUANT	3	Ach Filter
IERANGELOWERLIMIT	IQUANT	1	I/E Range Lower Limit
IERANGEMODE	TOGGLE	F	I/E AutoRange
IERANGE	IQUANT	4	I/E Range
POSFEEDENABLE	TOGGLE	F	Positive Feedback IR Comp
POSFEEDRESISTANCE	QUANT	0	Positive Feedback Resistance (ohm)
ACHSELECT	IQUANT	0	Ach Select
CABLEID	IQUANT	14	Cable ID
DCCALDATE	LABEL	8/19/2019	DC Calibration Date
ACCALDATE	LABEL	8/19/2019	AC Calibration Date
THERMOSELECT	IQUANT	1	Thermo Select
FRAMEWORKVERSION	QUANT	6.33	Framework Version
INSTRUMENTVERSION	LABEL	3.50	Instrument Version
ZCURVE	TABLE
	Pt	Time	Freq	Zreal	Zimag	Zsig	Zmod	Zphz	Idc	Vdc	IERange
	#	s	Hz	ohm	ohm	V	ohm	°	A	V	#
	0	1	1000078	2550.45	-1746.531	1	3091.143	-34.40307	4.732475E-006	0.0053279	8
	1	1	794390.6	2851.607	-1690.097	1	3314.829	-30.65447	4.636815E-007	0.0052713	8
	2	1	630984.4	3184.276	-1592.177	1	3560.147	-26.56561	-2.66572E-006	0.0062799	8
	3	2	501234.4	3463.459	-1480.888	1	3766.773	-23.15033	1.74681E-006	0.0053877	8
	4	2	398109.4	3674.66	-1358.03	1	3917.573	-20.2826	-3.503876E-006	0.0063723	8
	5	2	316265.6	3918.943	-1179.832	1	4092.691	-16.75489	4.17514E-006	0.0049788	8
	6	3	251203.1	4053.458	-1048.88	1	4186.964	-14.50774	-4.217519E-007	0.0055714	8
	7	3	199546.9	4175.225	-912.6733	1	4273.813	-12.33048	2.736956E-006	0.0050307	8
	8	3	158578.1	4279.106	-826.1873	1	4358.135	-10.9279	3.870076E-006	0.0048477	8
	9	4	125953.1	4396.423	-603.4674	1	4437.646	-7.815764	6.088227E-007	0.0036854	7
	10	4	100078.1	4436.836	-555.9321	1	4471.529	-7.141897	-2.000511E-008	0.0057222	7
	11	4	79453.13	4485.629	-500.6397	1	4513.48	-6.368409	8.83128E-008	0.0055049	7
	12	5	63140.62	4525.493	-456.6016	1	4548.469	-5.761385	-3.564783E-008	0.0055863	7
	13	5	50203.12	4562.241	-427.217	1	4582.2	-5.349686	-7.229907E-009	0.005575	7
	14	5	39890.62	4595.694	-407.9703	1	4613.767	-5.07298	3.856228E-008	0.0054223	7
	15	6	31640.63	4630.592	-397.9424	1	4647.66	-4.911798	8.038675E-008	0.005379	7
	16	6	25171.88	4662.422	-401.6574	1	4679.691	-4.923748	6.791942E-008	0.0054458	7
	17	6	20015.62	4680.737	-418.4267	1	4699.402	-5.108283	-3.117692E-008	0.0055749	7
	18	7	15890.62	4726.479	-438.1786	1	4746.746	-5.296592	-5.096401E-008	0.0055791	7
	19	7	12609.37	4763.062	-468.4226	1	4786.04	-5.616684	-3.983902E-008	0.0055691	7
	20	7	10078.13	4798.271	-514.0182	1	4825.724	-6.114533	-6.657951E-009	0.0055934	7
	21	7	8015.625	4833.591	-579.7064	1	4868.229	-6.838981	-8.708237E-009	0.0055928	7
	22	8	6328.125	4876.467	-653.5566	1	4920.067	-7.633441	3.883888E-008	0.0054193	7
	23	8	5015.625	4915.835	-752.0096	1	4973.023	-8.697507	3.733867E-008	0.0055094	7
	24	8	3984.375	4960.705	-880.651	1	5038.267	-10.06658	1.331033E-007	0.0053424	7
	25	9	3170.956	5005.321	-1032.063	1	5110.616	-11.65071	-1.703437E-008	0.0056035	7
	26	9	2527.573	5053.968	-1222.44	1	5199.707	-13.5974	3.685109E-008	0.0054051	7
	27	9	1976.103	5116.82	-1482.536	1	5327.266	-16.1583	8.160251E-008	0.005366	7
	28	10	1577.524	5184.436	-1777.075	1	5480.544	-18.92024	1.401517E-008	0.0054687	7
	29	10	1265.625	5250.417	-2147.538	1	5672.635	-22.24566	8.838781E-008	0.0054858	7
	30	10	998.264	5334.001	-2621.8	1	5943.518	-26.17531	3.995603E-008	0.0054951	7
	31	11	796.875	5445.945	-3188.01	1	6310.446	-30.34435	1.171797E-008	0.0054657	7
	32	11	627.7902	5581.3	-3931.599	1	6827.033	-35.16177	9.151933E-008	0.0054796	7
	33	11	505.5147	5730.315	-4755.577	1	7446.611	-39.68921	6.342487E-008	0.0054327	7
	34	12	397.9953	5934.799	-5875.715	1	8351.398	-44.71337	1.803574E-009	0.0055625	7
	35	12	315.5048	6186.449	-7222.432	1	9509.77	-49.41795	2.852677E-009	0.0055612	7
	36	12	252.4038	6491.817	-8811.668	1	10944.82	-53.61982	1.169573E-009	0.0054975	6
	37	13	198.6229	6909.711	-10910	1	12914.03	-57.65238	8.15234E-010	0.0054964	6
	38	13	158.3615	7415.55	-13351.72	1	15272.81	-60.95219	5.354673E-010	0.0054963	6
	39	13	125.558	8101.105	-16403.76	1	18295.12	-63.71723	-1.198596E-010	0.0055006	6
	40	14	100.4464	8972.134	-20001.89	1	21922.02	-65.8407	-8.613807E-010	0.0054943	6
	41	14	79.00281	10150.37	-24755.1	1	26755.27	-67.70483	-4.56482E-010	0.0054932	6
	42	14	63.3446	11296.39	-29552.19	1	31637.64	-69.08052	5.460821E-010	0.0054882	6
	43	15	49.86702	13463.64	-36473.64	1	38879.25	-69.73922	5.228014E-010	0.0054902	6
	44	15	39.72458	16170.71	-44511.72	1	47358.05	-70.03437	8.880831E-010	0.0054952	6
	45	15	31.6723	19482.13	-54007.49	1	57413.95	-70.1641	6.396677E-010	0.00549	6
	46	16	24.93351	24169.64	-65478.83	1	69797.2	-69.73981	6.335973E-010	0.0054908	6
	47	16	19.86229	29747.95	-78351.09	1	83808.32	-69.20949	1.545569E-009	0.0055022	6
	48	16	15.83615	36278.7	-93955.66	1	100716.5	-68.88715	2.402842E-010	0.005496	6
	49	17	12.40079	45404.95	-113025.3	1	121804.4	-68.11349	-1.257369E-009	0.005499	5
	50	17	9.93114	57930.18	-132784.4	1	144871	-66.42967	-1.037306E-009	0.0054998	5
	51	17	7.944915	72042.91	-156661.9	1	172432.9	-65.30408	2.593389E-010	0.0054919	5
	52	18	6.317385	89651.19	-182527.7	1	203356	-63.84135	-1.679255E-010	0.0055019	5
	53	19	5.008013	111712.7	-212567.5	1	240134.7	-62.27628	-3.59715E-010	0.0054944	5
	54	20	3.945707	139126.7	-246537.1	1	283084.4	-60.56294	2.835043E-010	0.0055056	5
	55	21	3.158693	169254.2	-280685.2	1	327766.9	-58.90987	-9.397368E-011	0.0055152	5
	56	23	2.504006	205183.9	-319493.7	1	379706	-57.29078	-3.161984E-010	0.0055011	5
	57	24	1.998082	243873.4	-358319.6	1	433436.5	-55.76068	7.265626E-011	0.0055318	5
	58	26	1.584686	287114.7	-403664.5	1	495358.3	-54.57688	1.31266E-010	0.0055511	5
	59	28	1.266892	330354.7	-450710	1	558814.6	-53.75988	5.096076E-011	0.0055059	5
	60	30	0.999041	382862.3	-512951.6	1	640080.3	-53.26268	-2.433617E-009	0.0054791	5
