EXPLAIN
TAG	EISPOT
TITLE	LABEL	Potentiostatic EIS	Test &Identifier
DATE	LABEL	10/24/2019	Date
TIME	LABEL	9:58:22	Time
NOTES	NOTES	1	&Notes...
	
PSTAT	PSTAT	REF600-11020	Potentiostat
VDC	POTEN	0.00000E+000	T	DC &Voltage (V)
FREQINIT	QUANT	1.00000E+006	Initial Fre&q. (Hz)
FREQFINAL	QUANT	1.00000E+000	Final Fre&q. (Hz)
PTSPERDEC	QUANT	1.00000E+001	Points/&decade
VAC	QUANT	2.50000E+001	AC &Voltage (mV rms)
AREA	QUANT	1.00000E-002	&Area (cm^2)
CONDIT	TWOPARAM	T	5.00000E+000	0.00000E+000	Conditionin&g	Time(s)	E(V)
DELAY	TWOPARAM	T	5.00000E+000	0.00000E+000	Init. De&lay	Time(s)	Stab.(mV/s)
SPEED	SELECTOR	1	&Optimize for:
ZGUESS	QUANT	1.00000E+005	E&stimated Z (ohms)
OCVCURVE	TABLE	19
	Pt	T	Vf	Vm	Ach	Over
	#	s	V vs. Ref.	V	V	bits
	0	0.258333	5.20597E-003	5.20597E-003	5.89132E-004	...........
	1	0.516667	5.20350E-003	5.07695E-003	5.90399E-004	...........
	2	0.775	5.18874E-003	4.97433E-003	5.88399E-004	...........
	3	1.03333	5.15083E-003	5.01136E-003	5.86565E-004	...........
	4	1.29167	5.09350E-003	4.87891E-003	5.82565E-004	...........
	5	1.55	5.02424E-003	4.51614E-003	5.86265E-004	...........
	6	1.80833	4.92768E-003	4.35950E-003	5.89199E-004	...........
	7	2.06667	4.78444E-003	4.30433E-003	5.84499E-004	...........
	8	2.325	4.61296E-003	4.28763E-003	5.89899E-004	...........
	9	2.58333	4.45889E-003	4.23024E-003	5.81199E-004	...........
	10	2.84167	4.34965E-003	4.18893E-003	5.92865E-004	...........
	11	3.1	4.27999E-003	4.15010E-003	5.88732E-004	...........
	12	3.35833	4.23150E-003	4.10529E-003	5.85465E-004	...........
	13	3.61667	4.19052E-003	4.07576E-003	5.89332E-004	...........
	14	3.875	4.15212E-003	4.06923E-003	5.85265E-004	...........
	15	4.13333	4.11657E-003	3.99416E-003	5.89832E-004	...........
	16	4.39167	4.08277E-003	3.95791E-003	5.91332E-004	...........
	17	4.65	4.04700E-003	3.93922E-003	5.89199E-004	...........
	18	4.90833	4.00886E-003	3.90429E-003	5.88065E-004	...........
EOC	QUANT	0.0040089	Open Circuit (V)
PSTATMODEL	IQUANT	4	Pstat Model
PSTATSECTION	LABEL	REF600-11020	Pstat Section
PSTATSERIALNO	LABEL	11020	Pstat Serial Number
CTRLMODE	IQUANT	1	Control Mode
IESTAB	IQUANT	0	I/E Stability
CASPEED	IQUANT	1	Control Amp Speed
CONVENTION	IQUANT	1	Current Convention
ICHRANGE	IQUANT	2	Ich Range
ICHRANGEMODE	TOGGLE	F	Ich Auto Range
ICHOFFSETENABLE	TOGGLE	T	Ich Offset Enable
ICHOFFSET	QUANT	0	Ich Offset (V)
ICHFILTER	IQUANT	3	Ich Filter
VCHRANGE	IQUANT	2	Vch Range
VCHRANGEMODE	TOGGLE	F	Vch Auto Range
VCHOFFSETENABLE	TOGGLE	T	Vch Offset Enable
VCHOFFSET	QUANT	0	Vch Offset (V)
VCHFILTER	IQUANT	3	Vch Filter
ACHRANGE	IQUANT	2	Ach Range
ACHOFFSETENABLE	TOGGLE	F	Ach Offset Enable
ACHOFFSET	QUANT	0	Ach Offset (V)
ACHFILTER	IQUANT	3	Ach Filter
IERANGELOWERLIMIT	IQUANT	1	I/E Range Lower Limit
IERANGEMODE	TOGGLE	F	I/E AutoRange
IERANGE	IQUANT	4	I/E Range
POSFEEDENABLE	TOGGLE	F	Positive Feedback IR Comp
POSFEEDRESISTANCE	QUANT	0	Positive Feedback Resistance (ohm)
ACHSELECT	IQUANT	0	Ach Select
CABLEID	IQUANT	14	Cable ID
DCCALDATE	LABEL	8/19/2019	DC Calibration Date
ACCALDATE	LABEL	8/19/2019	AC Calibration Date
THERMOSELECT	IQUANT	1	Thermo Select
FRAMEWORKVERSION	QUANT	6.33	Framework Version
INSTRUMENTVERSION	LABEL	3.50	Instrument Version
ZCURVE	TABLE
	Pt	Time	Freq	Zreal	Zimag	Zsig	Zmod	Zphz	Idc	Vdc	IERange
	#	s	Hz	ohm	ohm	V	ohm	°	A	V	#
	0	2	1000078	2409.682	-2048.517	1	3162.75	-40.36851	2.458527E-006	0.0057187	8
	1	3	794390.6	2832.21	-2025.203	1	3481.79	-35.56707	-4.404063E-007	0.0059615	8
	2	5	630984.4	3230.947	-1949.879	1	3773.731	-31.11102	1.027393E-006	0.0056929	8
	3	6	501234.4	3606.889	-1813.467	1	4037.117	-26.69227	-1.621582E-006	0.0059415	8
	4	7	398109.4	3905.644	-1636.032	1	4234.46	-22.72829	9.530274E-007	0.0053466	8
	5	9	316265.6	4167.156	-1442.86	1	4409.879	-19.0982	-2.396052E-006	0.0060216	8
	6	10	251203.1	4355.412	-1273.693	1	4537.83	-16.30099	3.250134E-006	0.0050225	8
	7	12	199546.9	4506.222	-1089.403	1	4636.036	-13.59079	-1.920955E-007	0.0055007	8
	8	13	158578.1	4614.95	-930.2272	1	4707.769	-11.3963	-2.285019E-006	0.006004	8
	9	14	125953.1	4717.558	-733.4592	1	4774.235	-8.837271	3.481768E-007	0.0042483	7
	10	16	100078.1	4778.744	-661.7584	1	4824.346	-7.884153	-3.810129E-008	0.0055915	7
	11	17	79453.13	4830.119	-590.8669	1	4866.125	-6.974324	1.018787E-007	0.0053495	7
	12	18	63140.62	4874.86	-536.3542	1	4904.277	-6.278688	3.809192E-008	0.0054559	7
	13	20	50203.12	4915.702	-499.5106	1	4941.016	-5.802212	-5.69726E-008	0.0055977	7
	14	21	39890.62	4951.266	-474.8797	1	4973.986	-5.478525	-2.751167E-009	0.0054538	7
	15	23	31640.63	4987.137	-464.3297	1	5008.706	-5.319216	-6.444707E-008	0.0056903	7
	16	24	25171.88	5023.276	-466.358	1	5044.877	-5.304102	2.179208E-009	0.0054798	7
	17	25	20015.62	5053.543	-484.038	1	5076.671	-5.471208	1.215401E-008	0.005572	7
	18	27	15890.62	5090.144	-512.1885	1	5115.848	-5.745965	-6.472212E-008	0.005686	7
	19	28	12609.37	5127.945	-556.384	1	5158.041	-6.19239	-4.155959E-008	0.0055433	7
	20	29	10078.13	5160.4	-621.0227	1	5197.634	-6.862197	3.949991E-008	0.0054492	7
	21	31	8015.625	5201.01	-703.2765	1	5248.343	-7.700783	7.001499E-008	0.0053506	7
	22	32	6328.125	5240.2	-812.7816	1	5302.859	-8.816611	-1.83111E-008	0.0054762	7
	23	33	5015.625	5285.634	-953.674	1	5370.979	-10.2277	3.797469E-008	0.0053704	7
	24	35	3984.375	5338.596	-1124.204	1	5455.68	-11.89163	-1.286349E-008	0.0055235	7
	25	36	3170.956	5393.114	-1344.445	1	5558.166	-13.99791	-2.66435E-008	0.0054875	7
	26	38	2527.573	5461.627	-1606.621	1	5693.031	-16.39205	3.828099E-008	0.005443	7
	27	39	1976.103	5549.913	-1961.963	1	5886.496	-19.46914	1.212116E-008	0.0054299	7
	28	40	1577.524	5682.663	-2370.26	1	6157.173	-22.6412	-6.314063E-008	0.0056848	7
	29	42	1265.625	5748.39	-2832.658	1	6408.427	-26.23289	1.057786E-007	0.0053404	7
	30	43	998.264	5885.662	-3455.154	1	6824.889	-30.41489	-1.152893E-008	0.0055162	7
	31	44	796.875	6039.46	-4179.963	1	7344.874	-34.68744	-3.010085E-008	0.0054874	7
	32	46	627.7902	6222.629	-5120.254	1	8058.419	-39.44906	-6.29809E-008	0.0055775	7
	33	47	505.5147	6419.025	-6176.914	1	8908.319	-43.89883	-2.409117E-009	0.0054428	7
	34	49	397.9953	6684.61	-7602.177	1	10123.1	-48.67477	3.70607E-010	0.0054527	6
	35	50	315.5048	6986.823	-9325.306	1	11652.34	-53.15825	3.05439E-010	0.0054544	6
	36	51	252.4038	7337.127	-11366.43	1	13528.83	-57.15741	2.159679E-010	0.0054547	6
	37	53	198.6229	7807.764	-14078.01	1	16098.18	-60.98693	9.600117E-010	0.0054553	6
	38	54	158.3615	8371.624	-17249.33	1	19173.51	-64.11129	3.66014E-010	0.0054541	6
	39	55	125.558	9117.319	-21260.08	1	23132.58	-66.78808	1.401325E-009	0.0054573	6
	40	57	100.4464	10016.09	-25994.47	1	27857.4	-68.92751	1.41008E-009	0.0054533	6
	41	58	79.00281	11325.47	-32319.09	1	34246.02	-70.68819	1.377599E-009	0.0054475	6
	42	59	63.3446	13431.19	-39460.59	1	41683.75	-71.20299	5.451456E-010	0.0054476	6
	43	61	49.86702	15096.52	-48849.66	1	51129.19	-72.82674	6.056224E-010	0.0054528	6
	44	62	39.72458	18422.06	-59419.43	1	62209.65	-72.77477	1.153741E-009	0.0054563	6
	45	63	31.6723	22701.57	-72436.14	1	75910.18	-72.59895	1.033064E-010	0.0054541	6
	46	65	24.93351	28222.82	-88841.29	1	93216.42	-72.37615	4.068902E-010	0.005452	6
	47	66	19.86229	35644.37	-107238.1	1	113006.8	-71.61395	6.518406E-010	0.0054619	5
	48	67	15.83615	44687.67	-128584.8	1	136128.8	-70.8359	8.619265E-011	0.0054519	5
	49	69	12.40079	58597.91	-157610.2	1	168150.8	-69.60537	8.550485E-010	0.0054578	5
	50	70	9.93114	76305.3	-184329.8	1	199499.3	-67.51237	7.179323E-010	0.0054465	5
	51	72	7.944915	95278.5	-215905.3	1	235993.8	-66.18825	-3.608716E-010	0.0054582	5
	52	73	6.317385	122529.5	-251649.8	1	279894.8	-64.03832	-1.514017E-011	0.0054684	5
	53	75	5.008013	153970.6	-290623.7	1	328890.7	-62.08564	4.482315E-010	0.0054541	5
	54	78	3.945707	192204.2	-334773.3	1	386025.4	-60.13847	1.55898E-010	0.0054501	5
	55	81	3.158693	232521.2	-377934.6	1	443734.9	-58.39842	6.171874E-010	0.0054722	5
	56	84	2.504006	278225.5	-429457.2	1	511705.9	-57.06266	-2.53758E-010	0.0054519	5
	57	87	1.998082	327705.4	-482383.8	1	583168	-55.80994	7.230821E-011	0.0054141	5
	58	90	1.584686	381467	-544007.8	1	664425.8	-54.96125	-3.251229E-011	0.0054578	5
	59	93	1.266892	441063.4	-614915.8	1	756741.9	-54.34909	1.918242E-010	0.0054106	5
	60	98	0.999041	504338.6	-694783.1	1	858534.2	-54.02435	2.503477E-011	0.0054932	5
