EXPLAIN
TAG	EISPOT
TITLE	LABEL	Potentiostatic EIS	Test &Identifier
DATE	LABEL	10/10/2019	Date
TIME	LABEL	10:18:20	Time
NOTES	NOTES	1	&Notes...
	
PSTAT	PSTAT	REF600-11020	Potentiostat
VDC	POTEN	0.00000E+000	T	DC &Voltage (V)
FREQINIT	QUANT	1.00000E+006	Initial Fre&q. (Hz)
FREQFINAL	QUANT	1.00000E+000	Final Fre&q. (Hz)
PTSPERDEC	QUANT	1.00000E+001	Points/&decade
VAC	QUANT	2.50000E+001	AC &Voltage (mV rms)
AREA	QUANT	1.00000E-002	&Area (cm^2)
CONDIT	TWOPARAM	T	5.00000E+000	0.00000E+000	Conditionin&g	Time(s)	E(V)
DELAY	TWOPARAM	T	5.00000E+000	0.00000E+000	Init. De&lay	Time(s)	Stab.(mV/s)
SPEED	SELECTOR	1	&Optimize for:
ZGUESS	QUANT	1.00000E+004	E&stimated Z (ohms)
OCVCURVE	TABLE	19
	Pt	T	Vf	Vm	Ach	Over
	#	s	V vs. Ref.	V	V	bits
	0	0.258333	3.85369E-003	3.85369E-003	5.58166E-004	...........
	1	0.516667	3.84777E-003	3.54403E-003	5.65099E-004	...........
	2	0.775	3.81180E-003	3.26891E-003	5.65532E-004	...........
	3	1.03333	3.71157E-003	3.02453E-003	5.59732E-004	...........
	4	1.29167	3.53639E-003	2.80182E-003	5.65999E-004	...........
	5	1.55	3.31093E-003	2.60190E-003	5.55933E-004	...........
	6	1.80833	3.07121E-003	2.41150E-003	5.65732E-004	...........
	7	2.06667	2.84145E-003	2.24376E-003	5.65466E-004	...........
	8	2.325	2.63085E-003	2.08834E-003	5.60999E-004	...........
	9	2.58333	2.44003E-003	1.94240E-003	5.65899E-004	...........
	10	2.84167	2.26655E-003	1.80220E-003	5.64599E-004	...........
	11	3.1	2.10714E-003	1.67647E-003	5.61699E-004	...........
	12	3.35833	1.95908E-003	1.55387E-003	5.61732E-004	...........
	13	3.61667	1.82071E-003	1.44214E-003	5.70532E-004	...........
	14	3.875	1.69097E-003	1.32918E-003	5.67432E-004	...........
	15	4.13333	1.56878E-003	1.22705E-003	5.65932E-004	...........
	16	4.39167	1.45298E-003	1.12501E-003	5.63132E-004	...........
	17	4.65	1.34285E-003	1.03755E-003	5.65932E-004	...........
	18	4.90833	1.23824E-003	9.43715E-004	5.67166E-004	...........
EOC	QUANT	0.0012382	Open Circuit (V)
PSTATMODEL	IQUANT	4	Pstat Model
PSTATSECTION	LABEL	REF600-11020	Pstat Section
PSTATSERIALNO	LABEL	11020	Pstat Serial Number
CTRLMODE	IQUANT	1	Control Mode
IESTAB	IQUANT	0	I/E Stability
CASPEED	IQUANT	1	Control Amp Speed
CONVENTION	IQUANT	1	Current Convention
ICHRANGE	IQUANT	2	Ich Range
ICHRANGEMODE	TOGGLE	F	Ich Auto Range
ICHOFFSETENABLE	TOGGLE	T	Ich Offset Enable
ICHOFFSET	QUANT	0	Ich Offset (V)
ICHFILTER	IQUANT	3	Ich Filter
VCHRANGE	IQUANT	2	Vch Range
VCHRANGEMODE	TOGGLE	F	Vch Auto Range
VCHOFFSETENABLE	TOGGLE	T	Vch Offset Enable
VCHOFFSET	QUANT	0	Vch Offset (V)
VCHFILTER	IQUANT	3	Vch Filter
ACHRANGE	IQUANT	2	Ach Range
ACHOFFSETENABLE	TOGGLE	F	Ach Offset Enable
ACHOFFSET	QUANT	0	Ach Offset (V)
ACHFILTER	IQUANT	3	Ach Filter
IERANGELOWERLIMIT	IQUANT	1	I/E Range Lower Limit
IERANGEMODE	TOGGLE	F	I/E AutoRange
IERANGE	IQUANT	5	I/E Range
POSFEEDENABLE	TOGGLE	F	Positive Feedback IR Comp
POSFEEDRESISTANCE	QUANT	0	Positive Feedback Resistance (ohm)
ACHSELECT	IQUANT	0	Ach Select
CABLEID	IQUANT	14	Cable ID
DCCALDATE	LABEL	8/19/2019	DC Calibration Date
ACCALDATE	LABEL	8/19/2019	AC Calibration Date
THERMOSELECT	IQUANT	1	Thermo Select
FRAMEWORKVERSION	QUANT	6.33	Framework Version
INSTRUMENTVERSION	LABEL	3.50	Instrument Version
ZCURVE	TABLE
	Pt	Time	Freq	Zreal	Zimag	Zsig	Zmod	Zphz	Idc	Vdc	IERange
	#	s	Hz	ohm	ohm	V	ohm	°	A	V	#
	0	2	1000078	2859.555	-1937	1	3453.842	-34.11285	-4.41781E-006	0.004231	8
	1	4	794390.6	3247.609	-1841.016	1	3733.135	-29.54819	-4.843668E-006	0.0046921	8
	2	5	630984.4	3553.56	-1668.652	1	3925.836	-25.15343	6.212873E-006	0.0020928	8
	3	6	501234.4	3849.974	-1479.95	1	4124.627	-21.02702	-1.388716E-006	0.0031516	8
	4	8	398109.4	4042.212	-1302.225	1	4246.795	-17.85669	-1.18423E-006	0.0031651	8
	5	10	316265.6	4220.18	-1121.186	1	4366.575	-14.87823	-3.099434E-006	0.0035279	8
	6	11	251203.1	4337.241	-962.701	1	4442.797	-12.51458	-4.814579E-006	0.003983	8
	7	13	199546.9	4428.746	-836.8669	1	4507.12	-10.70058	-2.847967E-006	0.0032744	8
	8	14	158578.1	4496.202	-709.7975	1	4551.883	-8.971022	1.913274E-006	0.0022899	8
	9	16	125953.1	4572.998	-551.3235	1	4606.112	-6.874437	1.359689E-006	-0.0002507	7
	10	17	100078.1	4598.126	-495.7452	1	4624.773	-6.153553	-3.779498E-008	0.0028535	7
	11	18	79453.13	4634.762	-452.9681	1	4656.844	-5.581948	-1.915495E-008	0.0029637	7
	12	20	63140.62	4669.175	-428.4508	1	4688.791	-5.242868	-1.879711E-008	0.0029674	7
	13	21	50203.12	4701.365	-413.2214	1	4719.49	-5.023043	1.50876E-007	0.0025735	7
	14	23	39890.62	4733.239	-407.0673	1	4750.711	-4.915449	-8.441541E-008	0.0029371	7
	15	24	31640.63	4766.184	-413.4823	1	4784.085	-4.958186	-3.848729E-008	0.0028412	7
	16	25	25171.88	4799.079	-431.4303	1	4818.433	-5.136999	-4.646339E-008	0.0028376	7
	17	27	20015.62	4840.469	-464.4723	1	4862.703	-5.481095	-8.458578E-008	0.0029346	7
	18	28	15890.62	4872.904	-499.6059	1	4898.449	-5.853929	1.826107E-008	0.0027078	7
	19	29	12609.37	4912.587	-551.6382	1	4943.462	-6.406949	9.537003E-008	0.0027455	7
	20	31	10078.13	4953.378	-617.1616	1	4991.677	-7.102116	5.01873E-008	0.0026506	7
	21	32	8015.625	5002.624	-729.153	1	5055.483	-8.2927	-3.818724E-008	0.0028215	7
	22	33	6328.125	5053.81	-809.4252	1	5118.219	-9.099292	-4.871994E-008	0.0028986	7
	23	35	5015.625	5111.165	-938.8506	1	5196.676	-10.40842	1.388079E-008	0.0027164	7
	24	36	3984.375	5170.129	-1094.414	1	5284.692	-11.95195	-5.799463E-008	0.0029808	7
	25	38	3170.956	5240.637	-1294.06	1	5398.042	-13.87046	-1.785324E-008	0.0027726	7
	26	39	2527.573	5315.972	-1530.016	1	5531.772	-16.0566	7.504536E-008	0.0026817	7
	27	40	1976.103	5411.271	-1849.455	1	5718.596	-18.86931	-1.511222E-008	0.0027713	7
	28	42	1577.524	5525.39	-2200.855	1	5947.579	-21.71822	-8.622816E-008	0.0029312	7
	29	43	1265.625	5630.936	-2625.126	1	6212.788	-24.9948	-4.73246E-008	0.002829	7
	30	44	998.264	5772.585	-3183.5	1	6592.224	-28.87612	-8.594776E-008	0.0029361	7
	31	46	796.875	5940.911	-3826.391	1	7066.519	-32.78456	4.578464E-008	0.002749	7
	32	47	627.7902	6146.796	-4668.431	1	7718.637	-37.21631	4.721049E-008	0.0026417	7
	33	49	505.5147	6363.99	-5582.697	1	8465.629	-41.25828	1.856797E-008	0.0027097	7
	34	50	397.9953	6650.374	-6830.746	1	9533.44	-45.76655	5.348487E-009	0.0028102	7
	35	51	315.5048	6986.913	-8319.107	1	10863.91	-49.97433	1.825775E-009	0.0027452	6
	36	53	252.4038	7373.986	-10071.8	1	12482.66	-53.79059	1.502434E-009	0.0027448	6
	37	54	198.6229	7888.625	-12387.06	1	14685.7	-57.50922	1.174494E-009	0.0027438	6
	38	55	158.3615	8490.824	-15081.26	1	17307.18	-60.62027	1.125265E-009	0.0027405	6
	39	57	125.558	9293.388	-18462.97	1	20669.99	-63.28148	1.374416E-009	0.0027399	6
	40	58	100.4464	10267.31	-22407.05	1	24647.38	-65.38191	6.61345E-010	0.0027402	6
	41	59	79.00281	11722.32	-27691.29	1	30070.26	-67.05602	5.983273E-010	0.0027394	6
	42	61	63.3446	13259.01	-33793.14	1	36301.2	-68.57704	1.515896E-009	0.0027409	6
	43	62	49.86702	15667.47	-40768.08	1	43675.01	-68.97787	1.772962E-009	0.0027394	6
	44	64	39.72458	18823.39	-49635.7	1	53085.05	-69.23173	8.902322E-010	0.0027391	6
	45	65	31.6723	23031.58	-59808.44	1	64089.8	-68.93885	1.394228E-009	0.002744	6
	46	67	24.93351	28287.8	-72437.8	1	77765.25	-68.66878	6.151356E-010	0.002735	6
	47	68	19.86229	34844.85	-86321.46	1	93088.98	-68.01785	3.116205E-010	0.0027429	6
	48	69	15.83615	43663.65	-101351	1	110356.4	-66.69284	1.577268E-009	0.0027387	5
	49	71	12.40079	53886.8	-121643.4	1	133044.7	-66.10713	1.011359E-009	0.0027389	5
	50	72	9.93114	66375.72	-142631.2	1	157319.4	-65.04433	9.563401E-010	0.0027406	5
	51	74	7.944915	80862.2	-165936.8	1	184590.7	-64.0197	8.799896E-011	0.0027409	5
	52	75	6.317385	97062.2	-193312.7	1	216312	-63.3388	5.691051E-010	0.0027617	5
	53	77	5.008013	117041.1	-225041.3	1	253657.7	-62.52163	9.550873E-011	0.0027531	5
	54	80	3.945707	140290.8	-263017.1	1	298093.2	-61.92496	5.014216E-010	0.0027549	5
	55	83	3.158693	165697	-303945.8	1	346177.1	-61.40286	1.203958E-010	0.0027569	5
	56	86	2.504006	195918.2	-353114.2	1	403823.7	-60.9772	5.018213E-010	0.0027494	5
	57	89	1.998082	229840.8	-408396	1	468630	-60.62967	1.464945E-010	0.002793	5
	58	92	1.584686	268473.5	-474315.3	1	545025.8	-60.48914	2.689123E-010	0.0027565	5
	59	95	1.266892	314282.5	-548612.5	1	632257.2	-60.19299	1.150339E-010	0.0027899	5
	60	100	0.999041	368294.6	-639335.6	1	737828.6	-60.05555	1.934569E-010	0.0027168	5
