EXPLAIN
TAG	EISPOT
TITLE	LABEL	Potentiostatic EIS	Test &Identifier
DATE	LABEL	10/28/2019	Date
TIME	LABEL	10:12:41	Time
NOTES	NOTES	1	&Notes...
	
PSTAT	PSTAT	REF600-11020	Potentiostat
VDC	POTEN	0.00000E+000	T	DC &Voltage (V)
FREQINIT	QUANT	1.00000E+006	Initial Fre&q. (Hz)
FREQFINAL	QUANT	1.00000E+000	Final Fre&q. (Hz)
PTSPERDEC	QUANT	1.00000E+001	Points/&decade
VAC	QUANT	2.50000E+001	AC &Voltage (mV rms)
AREA	QUANT	1.00000E-002	&Area (cm^2)
CONDIT	TWOPARAM	T	5.00000E+000	0.00000E+000	Conditionin&g	Time(s)	E(V)
DELAY	TWOPARAM	T	5.00000E+000	0.00000E+000	Init. De&lay	Time(s)	Stab.(mV/s)
SPEED	SELECTOR	1	&Optimize for:
ZGUESS	QUANT	1.00000E+005	E&stimated Z (ohms)
OCVCURVE	TABLE	19
	Pt	T	Vf	Vm	Ach	Over
	#	s	V vs. Ref.	V	V	bits
	0	0.258333	6.18962E-003	6.18962E-003	5.61632E-004	...........
	1	0.516667	6.18866E-003	6.13949E-003	5.62199E-004	...........
	2	0.775	6.18280E-003	6.09291E-003	5.62099E-004	...........
	3	1.03333	6.16867E-003	6.17370E-003	5.65932E-004	...........
	4	1.29167	6.15362E-003	6.23316E-003	5.61999E-004	...........
	5	1.55	6.15383E-003	6.26685E-003	5.62966E-004	...........
	6	1.80833	6.17649E-003	6.28228E-003	5.68766E-004	...........
	7	2.06667	6.21260E-003	6.30513E-003	5.61532E-004	...........
	8	2.325	6.24874E-003	6.32112E-003	5.58499E-004	...........
	9	2.58333	6.27845E-003	6.34898E-003	5.64566E-004	...........
	10	2.84167	6.30268E-003	6.37553E-003	5.61632E-004	...........
	11	3.1	6.32523E-003	6.40528E-003	5.60932E-004	...........
	12	3.35833	6.34891E-003	6.42681E-003	5.54333E-004	...........
	13	3.61667	6.37410E-003	6.44873E-003	5.66966E-004	...........
	14	3.875	6.39975E-003	6.48521E-003	5.65332E-004	...........
	15	4.13333	6.42561E-003	6.51257E-003	5.67199E-004	...........
	16	4.39167	6.45259E-003	6.54369E-003	5.62566E-004	...........
	17	4.65	6.48101E-003	6.56663E-003	5.61432E-004	...........
	18	4.90833	6.50992E-003	6.59327E-003	5.65466E-004	...........
EOC	QUANT	0.0065099	Open Circuit (V)
PSTATMODEL	IQUANT	4	Pstat Model
PSTATSECTION	LABEL	REF600-11020	Pstat Section
PSTATSERIALNO	LABEL	11020	Pstat Serial Number
CTRLMODE	IQUANT	1	Control Mode
IESTAB	IQUANT	0	I/E Stability
CASPEED	IQUANT	1	Control Amp Speed
CONVENTION	IQUANT	1	Current Convention
ICHRANGE	IQUANT	2	Ich Range
ICHRANGEMODE	TOGGLE	F	Ich Auto Range
ICHOFFSETENABLE	TOGGLE	T	Ich Offset Enable
ICHOFFSET	QUANT	0	Ich Offset (V)
ICHFILTER	IQUANT	3	Ich Filter
VCHRANGE	IQUANT	2	Vch Range
VCHRANGEMODE	TOGGLE	F	Vch Auto Range
VCHOFFSETENABLE	TOGGLE	T	Vch Offset Enable
VCHOFFSET	QUANT	0	Vch Offset (V)
VCHFILTER	IQUANT	3	Vch Filter
ACHRANGE	IQUANT	2	Ach Range
ACHOFFSETENABLE	TOGGLE	F	Ach Offset Enable
ACHOFFSET	QUANT	0	Ach Offset (V)
ACHFILTER	IQUANT	3	Ach Filter
IERANGELOWERLIMIT	IQUANT	1	I/E Range Lower Limit
IERANGEMODE	TOGGLE	F	I/E AutoRange
IERANGE	IQUANT	5	I/E Range
POSFEEDENABLE	TOGGLE	F	Positive Feedback IR Comp
POSFEEDRESISTANCE	QUANT	0	Positive Feedback Resistance (ohm)
ACHSELECT	IQUANT	0	Ach Select
CABLEID	IQUANT	14	Cable ID
DCCALDATE	LABEL	8/19/2019	DC Calibration Date
ACCALDATE	LABEL	8/19/2019	AC Calibration Date
THERMOSELECT	IQUANT	1	Thermo Select
FRAMEWORKVERSION	QUANT	6.33	Framework Version
INSTRUMENTVERSION	LABEL	3.50	Instrument Version
ZCURVE	TABLE
	Pt	Time	Freq	Zreal	Zimag	Zsig	Zmod	Zphz	Idc	Vdc	IERange
	#	s	Hz	ohm	ohm	V	ohm	°	A	V	#
	0	2	1000078	2425.811	-1724.941	1	2976.571	-35.41579	1.235373E-006	0.0079925	8
	1	3	794390.6	2778.852	-1681.578	1	3248.034	-31.17955	-5.262809E-007	0.0083808	8
	2	5	630984.4	3099.891	-1564.827	1	3472.465	-26.78468	-4.415272E-006	0.0092674	8
	3	6	501234.4	3352.913	-1437.034	1	3647.888	-23.19963	2.515174E-007	0.0081756	8
	4	8	398109.4	3580.183	-1289.438	1	3805.307	-19.80699	-4.058978E-006	0.0089935	8
	5	9	316265.6	3777.162	-1132.892	1	3943.399	-16.69567	-3.320014E-007	0.0083151	8
	6	11	251203.1	3909.48	-982.963	1	4031.16	-14.11337	-9.909105E-007	0.0084644	8
	7	12	199546.9	4012.284	-826.2078	1	4096.467	-11.63568	-5.369645E-009	0.0080103	8
	8	14	158578.1	4073.251	-716.3433	1	4135.761	-9.97434	4.864563E-006	0.0072413	8
	9	16	125953.1	4190.308	-566.6115	1	4228.442	-7.700801	7.843856E-007	0.0062856	7
	10	17	100078.1	4227.25	-498.9737	1	4256.597	-6.731897	-6.923625E-009	0.0080974	7
	11	18	79453.13	4266.032	-456.2821	1	4290.364	-6.104977	-8.250355E-009	0.0080887	7
	12	20	63140.62	4302.268	-425.9153	1	4323.299	-5.653737	-4.245346E-008	0.0080817	7
	13	21	50203.12	4333.962	-407.8986	1	4353.115	-5.376656	-5.763835E-008	0.0081506	7
	14	22	39890.62	4366.156	-399.6963	1	4384.413	-5.230518	-2.687008E-008	0.0080147	7
	15	24	31640.63	4395.685	-405.1306	1	4414.315	-5.265819	4.732595E-008	0.007978	7
	16	25	25171.88	4428.43	-418.9364	1	4448.202	-5.404187	-5.722577E-008	0.0081502	7
	17	26	20015.62	4460.828	-465.5168	1	4485.052	-5.957627	-8.744553E-008	0.0081751	7
	18	28	15890.62	4495.695	-486.0686	1	4521.895	-6.170774	-5.751644E-008	0.008146	7
	19	29	12609.37	4530.644	-537.7	1	4562.439	-6.768245	-5.807121E-008	0.0082158	7
	20	30	10078.13	4567.603	-610.0239	1	4608.158	-7.607093	9.318692E-008	0.0078356	7
	21	32	8015.625	4599.415	-680.711	1	4649.514	-8.418634	-1.514974E-008	0.0079894	7
	22	33	6328.125	4647.604	-807.7499	1	4717.275	-9.85948	-1.680621E-008	0.0079911	7
	23	34	5015.625	4694.976	-948.4557	1	4789.819	-11.4209	-1.875179E-008	0.0080938	7
	24	36	3984.375	4772.473	-1114.972	1	4900.986	-13.1499	-1.32604E-008	0.0081919	7
	25	37	3170.956	4804.316	-1338.62	1	4987.319	-15.56936	8.066956E-008	0.0079037	7
	26	39	2527.573	4871.891	-1601.966	1	5128.51	-18.2018	1.569956E-007	0.0077955	7
	27	40	1976.103	4957.897	-1954.606	1	5329.28	-21.51638	7.965382E-008	0.0078987	7
	28	41	1577.524	5093.667	-2374.834	1	5620.078	-24.99647	-3.972808E-008	0.0080714	7
	29	43	1265.625	5161.122	-2834.651	1	5888.33	-28.77698	-7.589327E-009	0.0080533	7
	30	44	998.264	5296.982	-3474.468	1	6334.82	-33.26221	-4.322023E-008	0.008056	7
	31	45	796.875	5453.895	-4211.565	1	6890.736	-37.67577	7.607018E-008	0.0078917	7
	32	47	627.7902	5662.431	-5169.978	1	7667.581	-42.39706	-4.866568E-009	0.0080601	7
	33	48	505.5147	5888.994	-6221.506	1	8566.644	-46.57275	-5.97788E-009	0.0080734	7
	34	49	397.9953	6195.924	-7649.573	1	9844.06	-50.99356	3.24785E-009	0.0080536	7
	35	51	315.5048	6562.344	-9354.465	1	11426.74	-54.94957	-6.493089E-011	0.007987	6
	36	52	252.4038	6989.69	-11361.89	1	13339.72	-58.40069	1.684899E-009	0.0079884	6
	37	53	198.6229	7561.051	-14014.52	1	15924.08	-61.65246	8.281618E-010	0.007987	6
	38	55	158.3615	8246.579	-17106.42	1	18990.41	-64.26244	9.721119E-010	0.0079847	6
	39	56	125.558	9169.396	-20976.41	1	22892.96	-66.38847	9.385954E-010	0.0079894	6
	40	57	100.4464	10324.56	-25561.64	1	27567.99	-68.00581	1.963945E-009	0.0079814	6
	41	59	79.00281	12033.06	-31584.44	1	33798.98	-69.14413	1.77869E-009	0.0079846	6
	42	60	63.3446	14548.08	-37968.57	1	40660.29	-69.0351	1.273989E-009	0.0079873	6
	43	62	49.86702	16856.66	-47285.17	1	50199.94	-70.37939	5.164652E-011	0.0079813	6
	44	63	39.72458	20781.92	-56641.71	1	60333.84	-69.85185	2.286244E-010	0.0079869	6
	45	64	31.6723	25548.54	-68364.51	1	72982.42	-69.50875	-7.150127E-010	0.0079866	6
	46	66	24.93351	32981.52	-82452.97	1	88804.69	-68.19839	2.946726E-011	0.0079869	6
	47	67	19.86229	41823.56	-97587.7	1	106172.3	-66.80127	5.098467E-010	0.0079909	5
	48	68	15.83615	54721.24	-114404.8	1	126818.3	-64.43764	2.081074E-009	0.0079866	5
	49	70	12.40079	67413.48	-135871.9	1	151676.5	-63.61148	8.103609E-011	0.0079919	5
	50	71	9.93114	84025.23	-155788.4	1	177003.5	-61.65957	6.432814E-010	0.0079909	5
	51	73	7.944915	102638.9	-179469.8	1	206746.6	-60.23474	-2.472019E-010	0.0079877	5
	52	74	6.317385	126033.6	-202525.1	1	238539.1	-58.10555	-1.066784E-010	0.0079997	5
	53	76	5.008013	152399.5	-228762.4	1	274877.9	-56.3288	1.883372E-010	0.0079875	5
	54	79	3.945707	181142.1	-258231.8	1	315430.1	-54.95145	9.61317E-011	0.007983	5
	55	82	3.158693	210556.8	-287960.1	1	356728.4	-53.82568	1.426549E-010	0.0080013	5
	56	85	2.504006	243042.3	-323701.3	1	404786.5	-53.09995	-6.908826E-011	0.0079772	5
	57	88	1.998082	276174.2	-363266	1	456327	-52.75597	-2.574175E-010	0.0079881	5
	58	91	1.584686	313018.7	-409477.3	1	515414.8	-52.60445	-1.037448E-012	0.0080343	5
	59	94	1.266892	349414.4	-464896.9	1	581566.4	-53.07164	-1.985601E-010	0.0079722	5
	60	99	0.999041	392222.1	-534707.2	1	663136.4	-53.73895	1.999867E-010	0.0080172	5
