EXPLAIN
TAG	EISPOT
TITLE	LABEL	Potentiostatic EIS	Test &Identifier
DATE	LABEL	10/6/2019	Date
TIME	LABEL	9:55:52	Time
NOTES	NOTES	2	&Notes...
	
	
PSTAT	PSTAT	REF600-11020	Potentiostat
VDC	POTEN	0.00000E+000	T	DC &Voltage (V)
FREQINIT	QUANT	1.00000E+006	Initial Fre&q. (Hz)
FREQFINAL	QUANT	1.00000E+000	Final Fre&q. (Hz)
PTSPERDEC	QUANT	1.00000E+001	Points/&decade
VAC	QUANT	2.50000E+001	AC &Voltage (mV rms)
AREA	QUANT	1.00000E-002	&Area (cm^2)
CONDIT	TWOPARAM	T	5.00000E+000	0.00000E+000	Conditionin&g	Time(s)	E(V)
DELAY	TWOPARAM	T	5.00000E+000	0.00000E+000	Init. De&lay	Time(s)	Stab.(mV/s)
SPEED	SELECTOR	1	&Optimize for:
ZGUESS	QUANT	1.00000E+004	E&stimated Z (ohms)
OCVCURVE	TABLE	19
	Pt	T	Vf	Vm	Ach	Over
	#	s	V vs. Ref.	V	V	bits
	0	0.258333	6.53223E-003	6.53223E-003	5.37033E-004	...........
	1	0.516667	6.53235E-003	6.53858E-003	5.39499E-004	...........
	2	0.775	6.53337E-003	6.55922E-003	5.38133E-004	...........
	3	1.03333	6.53735E-003	6.58695E-003	5.39566E-004	...........
	4	1.29167	6.54709E-003	6.62204E-003	5.36766E-004	...........
	5	1.55	6.56461E-003	6.66250E-003	5.39366E-004	...........
	6	1.80833	6.59026E-003	6.70473E-003	5.44133E-004	...........
	7	2.06667	6.62307E-003	6.75464E-003	5.42066E-004	...........
	8	2.325	6.66165E-003	6.80251E-003	5.39666E-004	...........
	9	2.58333	6.70475E-003	6.85442E-003	5.44799E-004	...........
	10	2.84167	6.75119E-003	6.90255E-003	5.52366E-004	...........
	11	3.1	6.79976E-003	6.95489E-003	5.42433E-004	...........
	12	3.35833	6.84953E-003	7.00771E-003	5.44299E-004	...........
	13	3.61667	6.90011E-003	7.05851E-003	5.39766E-004	...........
	14	3.875	6.95142E-003	7.11454E-003	5.42699E-004	...........
	15	4.13333	7.00328E-003	7.15849E-003	5.36899E-004	...........
	16	4.39167	7.05506E-003	7.20577E-003	5.37299E-004	...........
	17	4.65	7.10570E-003	7.25358E-003	5.38933E-004	...........
	18	4.90833	7.15496E-003	7.31268E-003	5.41433E-004	...........
EOC	QUANT	0.007155	Open Circuit (V)
PSTATMODEL	IQUANT	4	Pstat Model
PSTATSECTION	LABEL	REF600-11020	Pstat Section
PSTATSERIALNO	LABEL	11020	Pstat Serial Number
CTRLMODE	IQUANT	1	Control Mode
IESTAB	IQUANT	0	I/E Stability
CASPEED	IQUANT	1	Control Amp Speed
CONVENTION	IQUANT	1	Current Convention
ICHRANGE	IQUANT	2	Ich Range
ICHRANGEMODE	TOGGLE	F	Ich Auto Range
ICHOFFSETENABLE	TOGGLE	T	Ich Offset Enable
ICHOFFSET	QUANT	0	Ich Offset (V)
ICHFILTER	IQUANT	3	Ich Filter
VCHRANGE	IQUANT	2	Vch Range
VCHRANGEMODE	TOGGLE	F	Vch Auto Range
VCHOFFSETENABLE	TOGGLE	T	Vch Offset Enable
VCHOFFSET	QUANT	0	Vch Offset (V)
VCHFILTER	IQUANT	3	Vch Filter
ACHRANGE	IQUANT	2	Ach Range
ACHOFFSETENABLE	TOGGLE	F	Ach Offset Enable
ACHOFFSET	QUANT	0	Ach Offset (V)
ACHFILTER	IQUANT	3	Ach Filter
IERANGELOWERLIMIT	IQUANT	1	I/E Range Lower Limit
IERANGEMODE	TOGGLE	F	I/E AutoRange
IERANGE	IQUANT	6	I/E Range
POSFEEDENABLE	TOGGLE	F	Positive Feedback IR Comp
POSFEEDRESISTANCE	QUANT	0	Positive Feedback Resistance (ohm)
ACHSELECT	IQUANT	0	Ach Select
CABLEID	IQUANT	14	Cable ID
DCCALDATE	LABEL	8/19/2019	DC Calibration Date
ACCALDATE	LABEL	8/19/2019	AC Calibration Date
THERMOSELECT	IQUANT	1	Thermo Select
FRAMEWORKVERSION	QUANT	6.33	Framework Version
INSTRUMENTVERSION	LABEL	3.50	Instrument Version
ZCURVE	TABLE
	Pt	Time	Freq	Zreal	Zimag	Zsig	Zmod	Zphz	Idc	Vdc	IERange
	#	s	Hz	ohm	ohm	V	ohm	°	A	V	#
	0	1	1000078	2384.769	-1953.859	1	3082.967	-39.32802	-3.245001E-006	0.009555	8
	1	3	794390.6	2747.406	-1921.175	1	3352.485	-34.96389	9.971664E-007	0.0091932	8
	2	4	630984.4	3142.502	-1850.705	1	3646.975	-30.49498	-3.341909E-007	0.0090417	8
	3	5	501234.4	3474.103	-1737.284	1	3884.27	-26.56812	-2.993733E-006	0.0096103	8
	4	7	398109.4	3756.02	-1584.481	1	4076.551	-22.8725	1.549869E-006	0.0087571	8
	5	8	316265.6	3990.82	-1393.891	1	4227.242	-19.253	1.152869E-006	0.0087276	8
	6	9	251203.1	4186.169	-1253.299	1	4369.756	-16.6672	-3.978374E-007	0.0088284	8
	7	11	199546.9	4337.441	-1096.694	1	4473.939	-14.18948	-4.336377E-010	0.0089052	8
	8	12	158578.1	4449.179	-973.245	1	4554.383	-12.33893	-3.949286E-006	0.0095554	8
	9	14	125953.1	4581.676	-826.6959	1	4655.662	-10.22813	4.249668E-007	0.0080896	7
	10	15	100078.1	4646.158	-741.6125	1	4704.974	-9.06896	-6.49534E-008	0.0089203	7
	11	16	79453.13	4713.357	-688.0567	1	4763.314	-8.305383	-7.259819E-008	0.0090363	7
	12	18	63140.62	4774.423	-651.2835	1	4818.64	-7.767826	-7.167306E-008	0.0090306	7
	13	19	50203.12	4830.022	-629.9042	1	4870.923	-7.430257	2.144432E-008	0.0088832	7
	14	20	39890.62	4884.624	-624.2084	1	4924.346	-7.282385	5.846967E-008	0.008709	7
	15	22	31640.63	4940.943	-635.212	1	4981.607	-7.325813	1.103196E-008	0.008723	7
	16	23	25171.88	4998.411	-659.7811	1	5041.768	-7.519468	1.233285E-007	0.0086182	7
	17	25	20015.62	5053.397	-703.8668	1	5102.181	-7.929477	1.243318E-007	0.0086142	7
	18	26	15890.62	5124.767	-755.5956	1	5180.17	-8.387262	-7.606115E-008	0.0089008	7
	19	27	12609.37	5196.565	-826.8287	1	5261.933	-9.040585	5.888067E-008	0.0087074	7
	20	29	10078.13	5273.199	-917.6519	1	5352.449	-9.87186	-4.828081E-008	0.0089134	7
	21	30	8015.625	5359.807	-1012.41	1	5454.586	-10.69653	-3.387729E-008	0.0088017	7
	22	31	6328.125	5453.954	-1165.468	1	5577.09	-12.06225	6.132321E-008	0.0087011	7
	23	33	5015.625	5560.907	-1330.61	1	5717.885	-13.45669	-3.806009E-009	0.0088395	7
	24	34	3984.375	5676.668	-1523.251	1	5877.487	-15.02064	-3.354599E-008	0.0087964	7
	25	36	3170.956	5809.232	-1757.344	1	6069.221	-16.83103	6.14482E-008	0.0086973	7
	26	37	2527.573	5948.453	-2031.256	1	6285.705	-18.85382	5.942588E-008	0.008701	7
	27	38	1976.103	6124.12	-2382.725	1	6571.318	-21.25963	3.963555E-008	0.0086551	7
	28	40	1577.524	6297.632	-2773.052	1	6881.132	-23.76545	-3.559488E-008	0.0087945	7
	29	41	1265.625	6486.78	-3242.257	1	7251.934	-26.55705	-4.798656E-008	0.0088097	7
	30	42	998.264	6713.67	-3838.954	1	7733.752	-29.76142	-6.143677E-008	0.0088938	7
	31	44	796.875	6952.812	-4532.651	1	8299.791	-33.10098	-6.949981E-008	0.0090117	7
	32	45	627.7902	7239.754	-5418.555	1	9042.94	-36.81282	5.983566E-008	0.0086975	7
	33	47	505.5147	7525.228	-6395.286	1	9875.66	-40.35942	1.582351E-008	0.0084466	6
	34	48	397.9953	7895.749	-7737.95	1	11055.26	-44.4217	5.598677E-010	0.0087555	6
	35	49	315.5048	8300.413	-9332.916	1	12490	-48.35107	7.139327E-010	0.008756	6
	36	51	252.4038	8753.085	-11212.82	1	14224.76	-52.02327	1.210443E-010	0.0087542	6
	37	52	198.6229	9328.706	-13699.17	1	16573.83	-55.74636	3.111019E-010	0.0087588	6
	38	53	158.3615	9985.33	-16606.07	1	19377	-58.98126	2.057238E-010	0.0087518	6
	39	55	125.558	10817.34	-20259.34	1	22966.4	-61.90031	2.813877E-010	0.0087567	6
	40	56	100.4464	11805.81	-24546.76	1	27238.22	-64.31468	8.749677E-010	0.0087515	6
	41	58	79.00281	13249.36	-30293.35	1	33064.07	-66.37695	6.079627E-010	0.0087469	6
	42	59	63.3446	14853.48	-36938.55	1	39813.09	-68.09429	1.05714E-010	0.0087474	6
	43	60	49.86702	17069.28	-44911.73	1	48046.06	-69.19006	-1.292345E-010	0.0087467	6
	44	62	39.72458	20127.88	-54789.3	1	58369.5	-69.82825	3.128131E-010	0.0087519	6
	45	63	31.6723	24058.15	-66362.5	1	70588.78	-70.07308	2.255529E-010	0.0087474	6
	46	65	24.93351	29315.17	-81248.62	1	86375.44	-70.16014	7.965644E-010	0.0087472	6
	47	66	19.86229	36040.89	-98159.8	1	104567.2	-69.83851	5.285217E-010	0.0087452	6
	48	67	15.83615	44899.27	-117243.5	1	125546.8	-69.0453	3.52494E-010	0.0087518	5
	49	69	12.40079	58243.55	-142165.6	1	153633.9	-67.72167	-7.370691E-010	0.0087582	5
	50	70	9.93114	72029.97	-167842	1	182645.1	-66.77324	3.115508E-010	0.0087557	5
	51	72	7.944915	91042.9	-196929.4	1	216956.2	-65.18832	-3.451111E-010	0.0087572	5
	52	73	6.317385	114950.4	-230161.9	1	257270.4	-63.46095	8.077798E-011	0.0087383	5
	53	75	5.008013	144557.9	-266799.4	1	303445	-61.55017	-1.334521E-010	0.0087534	5
	54	78	3.945707	180770.5	-307194.3	1	356435.6	-59.52504	-3.485413E-010	0.0087424	5
	55	81	3.158693	219946.7	-347286.7	1	411077.3	-57.65274	2.477187E-010	0.008766	5
	56	84	2.504006	266346.7	-391915.8	1	473855	-55.7999	-4.269709E-010	0.0087433	5
	57	87	1.998082	315858.2	-437077.8	1	539261.9	-54.14591	-2.711875E-010	0.0087244	5
	58	90	1.584686	371074.3	-485543.7	1	611104.6	-52.61131	-5.26997E-011	0.0087934	5
	59	94	1.266892	426042.1	-540158.3	1	687955.6	-51.73589	-2.797389E-010	0.0087459	5
	60	98	0.999041	488530.6	-604570.8	1	777282.4	-51.05964	2.665158E-010	0.0087709	5
