EXPLAIN
TAG	EISPOT
TITLE	LABEL	Potentiostatic EIS	Test &Identifier
DATE	LABEL	10/10/2019	Date
TIME	LABEL	9:02:48	Time
NOTES	NOTES	1	&Notes...
	
PSTAT	PSTAT	REF600-11020	Potentiostat
VDC	POTEN	0.00000E+000	T	DC &Voltage (V)
FREQINIT	QUANT	1.00000E+006	Initial Fre&q. (Hz)
FREQFINAL	QUANT	1.00000E+000	Final Fre&q. (Hz)
PTSPERDEC	QUANT	1.00000E+001	Points/&decade
VAC	QUANT	2.50000E+001	AC &Voltage (mV rms)
AREA	QUANT	1.00000E-002	&Area (cm^2)
CONDIT	TWOPARAM	T	5.00000E+000	0.00000E+000	Conditionin&g	Time(s)	E(V)
DELAY	TWOPARAM	T	5.00000E+000	0.00000E+000	Init. De&lay	Time(s)	Stab.(mV/s)
SPEED	SELECTOR	1	&Optimize for:
ZGUESS	QUANT	1.00000E+004	E&stimated Z (ohms)
OCVCURVE	TABLE	19
	Pt	T	Vf	Vm	Ach	Over
	#	s	V vs. Ref.	V	V	bits
	0	0.258333	5.50991E-003	5.50991E-003	5.83065E-004	...........
	1	0.516667	5.50652E-003	5.33232E-003	5.85299E-004	...........
	2	0.775	5.48580E-003	5.17027E-003	5.86565E-004	...........
	3	1.03333	5.42802E-003	5.03655E-003	5.84499E-004	...........
	4	1.29167	5.32768E-003	4.93130E-003	5.83865E-004	...........
	5	1.55	5.20139E-003	4.84495E-003	5.82332E-004	...........
	6	1.80833	5.07281E-003	4.75170E-003	5.85932E-004	...........
	7	2.06667	4.95660E-003	4.68570E-003	5.84165E-004	...........
	8	2.325	4.85587E-003	4.59922E-003	5.81732E-004	...........
	9	2.58333	4.76730E-003	4.52579E-003	5.84532E-004	...........
	10	2.84167	4.68643E-003	4.47561E-003	5.84899E-004	...........
	11	3.1	4.61093E-003	4.39622E-003	5.83799E-004	...........
	12	3.35833	4.54030E-003	4.35071E-003	5.83665E-004	...........
	13	3.61667	4.47425E-003	4.30029E-003	5.81665E-004	...........
	14	3.875	4.41322E-003	4.26312E-003	5.82032E-004	...........
	15	4.13333	4.35838E-003	4.22341E-003	5.81899E-004	...........
	16	4.39167	4.31004E-003	4.19005E-003	5.83032E-004	...........
	17	4.65	4.26711E-003	4.14481E-003	5.86732E-004	...........
	18	4.90833	4.22734E-003	4.10561E-003	5.85865E-004	...........
EOC	QUANT	0.0042273	Open Circuit (V)
PSTATMODEL	IQUANT	4	Pstat Model
PSTATSECTION	LABEL	REF600-11020	Pstat Section
PSTATSERIALNO	LABEL	11020	Pstat Serial Number
CTRLMODE	IQUANT	1	Control Mode
IESTAB	IQUANT	0	I/E Stability
CASPEED	IQUANT	1	Control Amp Speed
CONVENTION	IQUANT	1	Current Convention
ICHRANGE	IQUANT	2	Ich Range
ICHRANGEMODE	TOGGLE	F	Ich Auto Range
ICHOFFSETENABLE	TOGGLE	T	Ich Offset Enable
ICHOFFSET	QUANT	0	Ich Offset (V)
ICHFILTER	IQUANT	3	Ich Filter
VCHRANGE	IQUANT	2	Vch Range
VCHRANGEMODE	TOGGLE	F	Vch Auto Range
VCHOFFSETENABLE	TOGGLE	T	Vch Offset Enable
VCHOFFSET	QUANT	0	Vch Offset (V)
VCHFILTER	IQUANT	3	Vch Filter
ACHRANGE	IQUANT	2	Ach Range
ACHOFFSETENABLE	TOGGLE	F	Ach Offset Enable
ACHOFFSET	QUANT	0	Ach Offset (V)
ACHFILTER	IQUANT	3	Ach Filter
IERANGELOWERLIMIT	IQUANT	1	I/E Range Lower Limit
IERANGEMODE	TOGGLE	F	I/E AutoRange
IERANGE	IQUANT	5	I/E Range
POSFEEDENABLE	TOGGLE	F	Positive Feedback IR Comp
POSFEEDRESISTANCE	QUANT	0	Positive Feedback Resistance (ohm)
ACHSELECT	IQUANT	0	Ach Select
CABLEID	IQUANT	14	Cable ID
DCCALDATE	LABEL	8/19/2019	DC Calibration Date
ACCALDATE	LABEL	8/19/2019	AC Calibration Date
THERMOSELECT	IQUANT	1	Thermo Select
FRAMEWORKVERSION	QUANT	6.33	Framework Version
INSTRUMENTVERSION	LABEL	3.50	Instrument Version
ZCURVE	TABLE
	Pt	Time	Freq	Zreal	Zimag	Zsig	Zmod	Zphz	Idc	Vdc	IERange
	#	s	Hz	ohm	ohm	V	ohm	°	A	V	#
	0	1	1000078	2632.058	-1886.578	1	3238.349	-35.63179	4.551264E-006	0.0059585	8
	1	3	794390.6	3023.103	-1792.791	1	3514.719	-30.66921	-8.269161E-006	0.0076814	8
	2	4	630984.4	3329.048	-1668.755	1	3723.883	-26.62328	-1.329267E-006	0.0064421	8
	3	6	501234.4	3620.688	-1505.017	1	3921.028	-22.57126	-2.832507E-006	0.0063358	8
	4	7	398109.4	3845.879	-1292.258	1	4057.181	-18.57291	-3.116641E-006	0.0065562	8
	5	9	316265.6	4015.353	-1123.458	1	4169.558	-15.63112	5.113629E-006	0.0049878	8
	6	11	251203.1	4142.547	-971.441	1	4254.926	-13.19758	-1.421988E-006	0.0062607	8
	7	12	199546.9	4238.266	-826.4644	1	4318.095	-11.03424	4.345448E-006	0.0050429	8
	8	14	158578.1	4293.712	-719.0757	1	4353.508	-9.5072	2.662409E-006	0.0052945	8
	9	15	125953.1	4382.981	-549.3912	1	4417.279	-7.144561	6.954971E-007	0.0038065	7
	10	16	100078.1	4415.478	-496.1888	1	4443.27	-6.411708	-3.970152E-008	0.005859	7
	11	18	79453.13	4451.747	-455.2436	1	4474.963	-5.838873	-5.374093E-008	0.0059769	7
	12	19	63140.62	4485.516	-427.3672	1	4505.829	-5.44255	1.666709E-008	0.0057275	7
	13	20	50203.12	4518.537	-409.4117	1	4537.046	-5.17727	-8.530091E-009	0.0057575	7
	14	22	39890.62	4549.203	-405.577	1	4567.247	-5.094645	-1.67906E-008	0.0059552	7
	15	23	31640.63	4582.89	-410.2963	1	4601.219	-5.115929	9.121788E-008	0.00562	7
	16	25	25171.88	4615.983	-427.5114	1	4635.738	-5.291379	4.281598E-008	0.0057653	7
	17	26	20015.62	4662.052	-467.1995	1	4685.403	-5.722692	7.559857E-008	0.0056801	7
	18	27	15890.62	4691.662	-490.4167	1	4717.224	-5.967422	-4.089073E-008	0.0058475	7
	19	29	12609.37	4735.51	-540.9429	1	4766.306	-6.516717	-4.884026E-008	0.0059034	7
	20	30	10078.13	4780.796	-600.4594	1	4818.356	-7.158762	-1.062255E-008	0.0058315	7
	21	31	8015.625	4831.168	-679.4531	1	4878.713	-8.005545	7.105264E-008	0.0056786	7
	22	33	6328.125	4883.8	-771.5598	1	4944.372	-8.977588	4.8884E-008	0.0056499	7
	23	34	5015.625	4940.472	-890.1266	1	5020.019	-10.21343	-6.206238E-008	0.0059012	7
	24	35	3984.375	4987.402	-1025.098	1	5091.661	-11.61468	-7.17168E-008	0.0059078	7
	25	37	3170.956	5065.593	-1207.661	1	5207.56	-13.40928	-4.954816E-008	0.0059663	7
	26	38	2527.573	5132.37	-1418.133	1	5324.689	-15.44609	-7.157931E-008	0.0059063	7
	27	39	1976.103	5212.655	-1706.378	1	5484.843	-18.12601	-4.691812E-008	0.0058255	7
	28	41	1577.524	5266.182	-2042.98	1	5648.579	-21.20343	-2.898287E-008	0.0057877	7
	29	42	1265.625	5380.483	-2432.396	1	5904.756	-24.32666	-1.161644E-008	0.0058208	7
	30	43	998.264	5486.657	-2959.621	1	6234	-28.34338	-2.508025E-008	0.0058643	7
	31	45	796.875	5602.222	-3581.624	1	6649.28	-32.59167	-2.493797E-008	0.0058679	7
	32	46	627.7902	5748.474	-4393.204	1	7234.998	-37.38845	7.561265E-008	0.0056706	7
	33	48	505.5147	5919.773	-5307.091	1	7950.405	-41.8763	4.653084E-008	0.0056434	7
	34	49	397.9953	6136.007	-6555.14	1	8978.889	-46.89154	6.425216E-009	0.0058069	7
	35	50	315.5048	6405.376	-8054.643	1	10291.07	-51.50687	1.047387E-009	0.0057486	6
	36	52	252.4038	6728.036	-9827.5	1	11909.92	-55.60395	3.378202E-010	0.0057455	6
	37	53	198.6229	7166.361	-12172.29	1	14125.2	-59.51281	6.738473E-010	0.0057479	6
	38	54	158.3615	7703.486	-14905.41	1	16778.41	-62.66896	7.316874E-010	0.0057458	6
	39	56	125.558	8405.856	-18328.86	1	20164.46	-65.36319	1.256006E-009	0.0057461	6
	40	57	100.4464	9292.733	-22329.28	1	24185.78	-67.40448	7.60061E-011	0.0057387	6
	41	58	79.00281	10468.89	-27580.6	1	29500.63	-69.21453	4.527386E-010	0.0057401	6
	42	60	63.3446	11633.83	-33407.55	1	35375.29	-70.79986	6.704775E-010	0.0057369	6
	43	61	49.86702	14224.86	-41118.98	1	43509.96	-70.91724	-3.011339E-010	0.0057362	6
	44	63	39.72458	16656.95	-50280.49	1	52967.74	-71.67097	4.290376E-010	0.005746	6
	45	64	31.6723	19811.9	-60844.3	1	63988.6	-71.9639	2.594873E-010	0.0057414	6
	46	65	24.93351	24432.28	-74627.57	1	78525.22	-71.8721	8.294456E-010	0.0057392	6
	47	67	19.86229	30025.59	-90154.03	1	95022.6	-71.57978	1.089455E-009	0.0057421	6
	48	68	15.83615	36593.79	-107407.5	1	113470.2	-71.186	1.409331E-009	0.0057473	5
	49	69	12.40079	47395.97	-131618.1	1	139891.7	-70.19594	-2.10876E-010	0.0057532	5
	50	71	9.93114	58750.83	-156458	1	167125	-69.41857	-2.026346E-010	0.0057524	5
	51	72	7.944915	72669.07	-185094.3	1	198848.4	-68.56474	8.018908E-010	0.0057455	5
	52	74	6.317385	91238.13	-219578	1	237779.1	-67.43634	6.333272E-010	0.0057463	5
	53	76	5.008013	114345.4	-259638.3	1	283702.2	-66.23118	3.587744E-010	0.0057543	5
	54	79	3.945707	143548.2	-306452.9	1	338407.2	-64.90074	-3.765516E-011	0.0057381	5
	55	81	3.158693	176669.6	-355919	1	397354.3	-63.6013	2.658141E-010	0.0057503	5
	56	85	2.504006	217885.3	-413462.7	1	467360	-62.2118	-7.057222E-011	0.0057491	5
	57	87	1.998082	263832.7	-474327.9	1	542765.8	-60.91613	3.842148E-010	0.0057069	5
	58	90	1.584686	319649.9	-546147.1	1	632813.3	-59.66034	3.162642E-011	0.005708	5
	59	94	1.266892	380567.7	-619961.8	1	727450.6	-58.45604	1.621113E-010	0.0057064	5
	60	98	0.999041	451951.9	-709696.7	1	841385.7	-57.51004	-1.99198E-011	0.0057653	5
