EXPLAIN
TAG	EISPOT
TITLE	LABEL	Potentiostatic EIS	Test &Identifier
DATE	LABEL	10/10/2019	Date
TIME	LABEL	8:28:34	Time
NOTES	NOTES	1	&Notes...
	
PSTAT	PSTAT	REF600-11020	Potentiostat
VDC	POTEN	0.00000E+000	T	DC &Voltage (V)
FREQINIT	QUANT	1.00000E+006	Initial Fre&q. (Hz)
FREQFINAL	QUANT	1.00000E+000	Final Fre&q. (Hz)
PTSPERDEC	QUANT	1.00000E+001	Points/&decade
VAC	QUANT	2.50000E+001	AC &Voltage (mV rms)
AREA	QUANT	1.00000E-002	&Area (cm^2)
CONDIT	TWOPARAM	T	5.00000E+000	0.00000E+000	Conditionin&g	Time(s)	E(V)
DELAY	TWOPARAM	T	5.00000E+000	0.00000E+000	Init. De&lay	Time(s)	Stab.(mV/s)
SPEED	SELECTOR	1	&Optimize for:
ZGUESS	QUANT	1.00000E+004	E&stimated Z (ohms)
OCVCURVE	TABLE	19
	Pt	T	Vf	Vm	Ach	Over
	#	s	V vs. Ref.	V	V	bits
	0	0.258333	5.67531E-003	5.67531E-003	5.92332E-004	...........
	1	0.516667	5.67382E-003	5.59755E-003	5.90632E-004	...........
	2	0.775	5.66420E-003	5.49768E-003	5.89499E-004	...........
	3	1.03333	5.63580E-003	5.42656E-003	5.93865E-004	...........
	4	1.29167	5.58380E-003	5.35752E-003	5.89099E-004	...........
	5	1.55	5.51276E-003	5.18041E-003	5.85199E-004	...........
	6	1.80833	5.42594E-003	5.05156E-003	5.87465E-004	...........
	7	2.06667	5.32457E-003	5.10968E-003	5.89532E-004	...........
	8	2.325	5.22232E-003	5.03353E-003	5.88165E-004	...........
	9	2.58333	5.13983E-003	5.00241E-003	5.91199E-004	...........
	10	2.84167	5.08044E-003	4.86400E-003	5.91199E-004	...........
	11	3.1	5.02824E-003	4.83646E-003	5.88732E-004	...........
	12	3.35833	4.97066E-003	4.83852E-003	5.85232E-004	...........
	13	3.61667	4.91297E-003	4.82537E-003	5.84832E-004	...........
	14	3.875	4.86818E-003	4.81703E-003	5.84432E-004	...........
	15	4.13333	4.84076E-003	4.80980E-003	5.86365E-004	...........
	16	4.39167	4.82577E-003	4.80390E-003	5.89865E-004	...........
	17	4.65	4.81684E-003	4.79623E-003	5.85499E-004	...........
	18	4.90833	4.80994E-003	4.78693E-003	5.90132E-004	...........
EOC	QUANT	0.0048099	Open Circuit (V)
PSTATMODEL	IQUANT	4	Pstat Model
PSTATSECTION	LABEL	REF600-11020	Pstat Section
PSTATSERIALNO	LABEL	11020	Pstat Serial Number
CTRLMODE	IQUANT	1	Control Mode
IESTAB	IQUANT	0	I/E Stability
CASPEED	IQUANT	1	Control Amp Speed
CONVENTION	IQUANT	1	Current Convention
ICHRANGE	IQUANT	2	Ich Range
ICHRANGEMODE	TOGGLE	F	Ich Auto Range
ICHOFFSETENABLE	TOGGLE	T	Ich Offset Enable
ICHOFFSET	QUANT	0	Ich Offset (V)
ICHFILTER	IQUANT	3	Ich Filter
VCHRANGE	IQUANT	2	Vch Range
VCHRANGEMODE	TOGGLE	F	Vch Auto Range
VCHOFFSETENABLE	TOGGLE	T	Vch Offset Enable
VCHOFFSET	QUANT	0	Vch Offset (V)
VCHFILTER	IQUANT	3	Vch Filter
ACHRANGE	IQUANT	2	Ach Range
ACHOFFSETENABLE	TOGGLE	F	Ach Offset Enable
ACHOFFSET	QUANT	0	Ach Offset (V)
ACHFILTER	IQUANT	3	Ach Filter
IERANGELOWERLIMIT	IQUANT	1	I/E Range Lower Limit
IERANGEMODE	TOGGLE	F	I/E AutoRange
IERANGE	IQUANT	5	I/E Range
POSFEEDENABLE	TOGGLE	F	Positive Feedback IR Comp
POSFEEDRESISTANCE	QUANT	0	Positive Feedback Resistance (ohm)
ACHSELECT	IQUANT	0	Ach Select
CABLEID	IQUANT	14	Cable ID
DCCALDATE	LABEL	8/19/2019	DC Calibration Date
ACCALDATE	LABEL	8/19/2019	AC Calibration Date
THERMOSELECT	IQUANT	1	Thermo Select
FRAMEWORKVERSION	QUANT	6.33	Framework Version
INSTRUMENTVERSION	LABEL	3.50	Instrument Version
ZCURVE	TABLE
	Pt	Time	Freq	Zreal	Zimag	Zsig	Zmod	Zphz	Idc	Vdc	IERange
	#	s	Hz	ohm	ohm	V	ohm	°	A	V	#
	0	1	1000078	2621.185	-1818.923	1	3190.469	-34.758	-3.236868E-007	0.0075834	8
	1	3	794390.6	2973.947	-1702.906	1	3426.989	-29.7958	6.08349E-006	0.005668	8
	2	4	630984.4	3294.656	-1558.132	1	3644.522	-25.31074	-2.84218E-007	0.0062923	8
	3	6	501234.4	3561.48	-1409.468	1	3830.24	-21.59136	5.083973E-006	0.0055845	8
	4	8	398109.4	3755.271	-1198.185	1	3941.79	-17.6962	-3.663893E-006	0.0070319	8
	5	9	316265.6	3908.853	-1046.745	1	4046.58	-14.9914	1.826201E-006	0.0060288	8
	6	11	251203.1	4012.724	-878.0229	1	4107.661	-12.34235	4.59169E-006	0.0055506	8
	7	12	199546.9	4109.131	-733.9733	1	4174.167	-10.12737	-1.28261E-006	0.0067369	8
	8	14	158578.1	4193.499	-614.5021	1	4238.283	-8.336611	2.774719E-006	0.0058061	8
	9	15	125953.1	4227.813	-486.3513	1	4255.694	-6.562241	4.915956E-007	0.0052013	7
	10	16	100078.1	4261.616	-412.5528	1	4281.538	-5.529384	3.428046E-008	0.0062875	7
	11	18	79453.13	4289.125	-364.2265	1	4304.562	-4.853832	-4.761354E-008	0.0063414	7
	12	19	63140.62	4314.272	-329.6113	1	4326.845	-4.368922	-3.863263E-008	0.0063313	7
	13	21	50203.12	4336.636	-302.9019	1	4347.201	-3.995462	1.429656E-007	0.0060975	7
	14	22	39890.62	4355.819	-285.3769	1	4365.158	-3.748447	-3.926396E-008	0.0063335	7
	15	23	31640.63	4377.545	-276.0022	1	4386.238	-3.607697	-1.784698E-008	0.0063526	7
	16	25	25171.88	4395.287	-276.3069	1	4403.963	-3.597128	-7.875302E-009	0.0063553	7
	17	26	20015.62	4416.788	-284.037	1	4425.912	-3.679538	-4.518353E-008	0.0063342	7
	18	27	15890.62	4430.082	-300.4192	1	4440.256	-3.879486	1.460066E-007	0.0060936	7
	19	29	12609.37	4448.207	-326.2588	1	4460.155	-4.194913	-7.298659E-009	0.0063541	7
	20	30	10078.13	4465.749	-364.8031	1	4480.625	-4.670072	-9.877095E-009	0.0062602	7
	21	32	8015.625	4487.176	-414.7172	1	4506.3	-5.280433	-1.717345E-008	0.0064598	7
	22	33	6328.125	4504.168	-486.7444	1	4530.392	-6.167752	-9.178613E-009	0.0063221	7
	23	34	5015.625	4525.312	-576.8026	1	4561.924	-7.263832	-7.971167E-008	0.0064312	7
	24	36	3984.375	4549.855	-677.3196	1	4599.994	-8.467221	9.000365E-008	0.00612	7
	25	37	3170.956	4577.277	-829.2705	1	4651.791	-10.26896	-3.972808E-008	0.006344	7
	26	38	2527.573	4611.513	-1003.575	1	4719.451	-12.27749	-1.655773E-008	0.0063507	7
	27	40	1976.103	4650.42	-1237.912	1	4812.362	-14.90611	-1.739536E-008	0.0063493	7
	28	41	1577.524	4698.686	-1512.036	1	4935.98	-17.83816	-4.01594E-008	0.0063395	7
	29	42	1265.625	4760.355	-1825.752	1	5098.466	-20.98345	1.581698E-008	0.0062166	7
	30	44	998.264	4834.523	-2254.357	1	5334.299	-24.99982	-3.940894E-008	0.0063252	7
	31	45	796.875	4927.318	-2753.375	1	5644.425	-29.19637	7.398897E-008	0.0061795	7
	32	47	627.7902	5053.592	-3399.807	1	6090.77	-33.93072	-2.019624E-008	0.0062747	7
	33	48	505.5147	5192.158	-4135.369	1	6637.754	-38.53607	3.975852E-008	0.0062535	7
	34	49	397.9953	5397.085	-5116.155	1	7436.637	-43.46933	4.620453E-009	0.0063149	7
	35	51	315.5048	5656.171	-6290.235	1	8459.275	-48.03816	3.158495E-009	0.0063152	7
	36	52	252.4038	5978.443	-7664.794	1	9720.64	-52.04622	5.201028E-009	0.0063122	7
	37	53	198.6229	6439.226	-9462.984	1	11446.03	-55.7661	7.94713E-010	0.0062511	6
	38	55	158.3615	7009.004	-11532.43	1	13495.3	-58.71024	1.774678E-009	0.0062507	6
	39	56	125.558	7778.596	-14088.72	1	16093.43	-61.09624	9.549348E-010	0.0062511	6
	40	58	100.4464	8763.375	-17040.07	1	19161.44	-62.78413	1.014084E-009	0.0062485	6
	41	59	79.00281	10128.29	-20843.52	1	23174	-64.08394	1.295583E-009	0.0062469	6
	42	60	63.3446	11745	-25141.3	1	27749.42	-64.95992	3.541865E-010	0.0062429	6
	43	62	49.86702	13895.44	-30096.3	1	33149.21	-65.21727	8.290336E-011	0.0062402	6
	44	63	39.72458	16779.3	-35872.75	1	39603.02	-64.9324	9.312499E-010	0.0062445	6
	45	65	31.6723	20341.18	-42450.74	1	47072.59	-64.39759	1.370341E-009	0.0062452	6
	46	66	24.93351	24599.8	-50380.86	1	56065.87	-63.97483	2.376098E-010	0.0062437	6
	47	67	19.86229	29564.42	-58955.82	1	65953.34	-63.36773	9.38479E-010	0.0062413	6
	48	69	15.83615	34885.17	-69115.7	1	77420.64	-63.21829	2.617929E-009	0.0062413	6
	49	70	12.40079	41962	-80730.64	1	90984.87	-62.53559	9.838288E-010	0.0062408	6
	50	72	9.93114	49216.47	-93337.47	1	105518.5	-62.1975	-2.425116E-010	0.0062534	5
	51	73	7.944915	57083.68	-108252.6	1	122381.2	-62.19645	1.185861E-009	0.0062528	5
	52	75	6.317385	66162.96	-126730.1	1	142961.8	-62.43195	2.79503E-010	0.006265	5
	53	77	5.008013	76625.19	-148922.7	1	167479.5	-62.77283	5.372501E-010	0.0062561	5
	54	79	3.945707	89198.41	-176509.3	1	197767.2	-63.19039	1.934533E-010	0.0062549	5
	55	82	3.158693	103045.5	-207248.7	1	231452.8	-63.56312	1.868882E-011	0.0062584	5
	56	85	2.504006	120169.3	-245376.8	1	273222.3	-63.90746	3.816391E-010	0.0062476	5
	57	88	1.998082	140248.6	-289294.6	1	321498.1	-64.13612	8.04873E-012	0.0062937	5
	58	91	1.584686	163649.7	-342108.1	1	379235	-64.43557	1.803711E-010	0.0062614	5
	59	95	1.266892	193651.4	-403075	1	447180.4	-64.33873	1.063539E-010	0.0062945	5
	60	99	0.999041	229736.1	-478702.2	1	530975	-64.36298	8.281808E-011	0.0062142	5
