EXPLAIN
TAG	EISPOT
TITLE	LABEL	Potentiostatic EIS	Test &Identifier
DATE	LABEL	9/26/2019	Date
TIME	LABEL	11:37:11	Time
NOTES	NOTES	2	&Notes...
	
	
PSTAT	PSTAT	REF600-11020	Potentiostat
VDC	POTEN	0.00000E+000	T	DC &Voltage (V)
FREQINIT	QUANT	1.00000E+006	Initial Fre&q. (Hz)
FREQFINAL	QUANT	1.00000E+000	Final Fre&q. (Hz)
PTSPERDEC	QUANT	1.00000E+001	Points/&decade
VAC	QUANT	2.50000E+001	AC &Voltage (mV rms)
AREA	QUANT	1.00000E-002	&Area (cm^2)
CONDIT	TWOPARAM	T	5.00000E+000	0.00000E+000	Conditionin&g	Time(s)	E(V)
DELAY	TWOPARAM	T	5.00000E+000	0.00000E+000	Init. De&lay	Time(s)	Stab.(mV/s)
SPEED	SELECTOR	1	&Optimize for:
ZGUESS	QUANT	1.00000E+004	E&stimated Z (ohms)
OCVCURVE	TABLE	19
	Pt	T	Vf	Vm	Ach	Over
	#	s	V vs. Ref.	V	V	bits
	0	0.258333	4.26925E-002	4.26925E-002	5.69732E-004	...........
	1	0.516667	4.27460E-002	4.54932E-002	5.65799E-004	...........
	2	0.775	4.30730E-002	4.80698E-002	5.66366E-004	...........
	3	1.03333	4.39913E-002	5.04407E-002	5.67432E-004	...........
	4	1.29167	4.56151E-002	5.26562E-002	5.68532E-004	...........
	5	1.55	4.77389E-002	5.47178E-002	5.73866E-004	...........
	6	1.80833	5.00451E-002	5.66577E-002	5.71099E-004	...........
	7	2.06667	5.23090E-002	5.84780E-002	5.66632E-004	...........
	8	2.325	5.44368E-002	6.01999E-002	5.69299E-004	...........
	9	2.58333	5.64158E-002	6.18197E-002	5.71766E-004	...........
	10	2.84167	5.82627E-002	6.33606E-002	5.65432E-004	...........
	11	3.1	5.99971E-002	6.48171E-002	5.69766E-004	...........
	12	3.35833	6.16334E-002	6.62009E-002	5.69166E-004	...........
	13	3.61667	6.31819E-002	6.75194E-002	5.71866E-004	...........
	14	3.875	6.46503E-002	6.87786E-002	5.71432E-004	...........
	15	4.13333	6.60453E-002	6.99846E-002	5.65832E-004	...........
	16	4.39167	6.73735E-002	7.11303E-002	5.65132E-004	...........
	17	4.65	6.86402E-002	7.22287E-002	5.68399E-004	...........
	18	4.90833	6.98492E-002	7.32728E-002	5.57132E-004	...........
EOC	QUANT	0.0698492	Open Circuit (V)
PSTATMODEL	IQUANT	4	Pstat Model
PSTATSECTION	LABEL	REF600-11020	Pstat Section
PSTATSERIALNO	LABEL	11020	Pstat Serial Number
CTRLMODE	IQUANT	1	Control Mode
IESTAB	IQUANT	0	I/E Stability
CASPEED	IQUANT	1	Control Amp Speed
CONVENTION	IQUANT	1	Current Convention
ICHRANGE	IQUANT	2	Ich Range
ICHRANGEMODE	TOGGLE	F	Ich Auto Range
ICHOFFSETENABLE	TOGGLE	T	Ich Offset Enable
ICHOFFSET	QUANT	0	Ich Offset (V)
ICHFILTER	IQUANT	3	Ich Filter
VCHRANGE	IQUANT	2	Vch Range
VCHRANGEMODE	TOGGLE	F	Vch Auto Range
VCHOFFSETENABLE	TOGGLE	T	Vch Offset Enable
VCHOFFSET	QUANT	0	Vch Offset (V)
VCHFILTER	IQUANT	3	Vch Filter
ACHRANGE	IQUANT	2	Ach Range
ACHOFFSETENABLE	TOGGLE	F	Ach Offset Enable
ACHOFFSET	QUANT	0	Ach Offset (V)
ACHFILTER	IQUANT	3	Ach Filter
IERANGELOWERLIMIT	IQUANT	1	I/E Range Lower Limit
IERANGEMODE	TOGGLE	F	I/E AutoRange
IERANGE	IQUANT	7	I/E Range
POSFEEDENABLE	TOGGLE	F	Positive Feedback IR Comp
POSFEEDRESISTANCE	QUANT	0	Positive Feedback Resistance (ohm)
ACHSELECT	IQUANT	0	Ach Select
CABLEID	IQUANT	14	Cable ID
DCCALDATE	LABEL	8/19/2019	DC Calibration Date
ACCALDATE	LABEL	8/19/2019	AC Calibration Date
THERMOSELECT	IQUANT	1	Thermo Select
FRAMEWORKVERSION	QUANT	6.33	Framework Version
INSTRUMENTVERSION	LABEL	3.50	Instrument Version
ZCURVE	TABLE
	Pt	Time	Freq	Zreal	Zimag	Zsig	Zmod	Zphz	Idc	Vdc	IERange
	#	s	Hz	ohm	ohm	V	ohm	°	A	V	#
	0	2	1000078	1533.262	-2304.821	1	2768.229	-56.36652	2.738556E-006	0.0713702	8
	1	3	794390.6	1671.982	-2694.782	1	3171.336	-58.1824	-1.943037E-006	0.0720259	8
	2	5	630984.4	1875.009	-3182.455	1	3693.735	-59.49466	2.066227E-006	0.0709508	8
	3	6	501234.4	2095.355	-3774.678	1	4317.257	-60.96498	-3.804093E-006	0.0721598	8
	4	8	398109.4	2382.336	-4525.273	1	5114.061	-62.23537	-2.370729E-009	0.0713527	8
	5	9	316265.6	2781.76	-5434.839	1	6105.38	-62.89489	7.780961E-007	0.071184	8
	6	11	251203.1	3260.356	-6449.28	1	7226.558	-63.18167	-3.283251E-006	0.0720339	8
	7	12	199546.9	3998.208	-7678.085	1	8656.711	-62.49266	-2.879036E-006	0.0717888	8
	8	14	158578.1	4922.997	-9154.777	1	10394.51	-61.73079	3.000434E-006	0.0707383	8
	9	16	125953.1	6102.685	-10678.06	1	12298.93	-60.25133	1.381929E-007	0.0711159	7
	10	18	100078.1	7487.351	-12389.68	1	14476.35	-58.85453	-1.489174E-008	0.0713698	7
	11	19	79453.13	9193.495	-14337.24	1	17031.64	-57.33071	-5.530646E-008	0.0714404	7
	12	20	63140.62	11340.98	-16397.41	1	19937.22	-55.33101	5.092869E-009	0.0712437	7
	13	22	50203.12	13952.54	-18580.72	1	23236.11	-53.09657	5.172314E-008	0.0712435	7
	14	23	39890.62	17231.39	-20882.39	1	27073.88	-50.4718	1.480867E-007	0.0710959	7
	15	25	31640.63	20888.79	-22646.4	1	30809.11	-47.3119	-4.305541E-008	0.0713171	7
	16	27	25171.88	25174.61	-24287.51	1	34980.63	-43.97252	-1.356841E-008	0.0713484	7
	17	28	20015.62	29768.12	-25349.05	1	39098.79	-40.41607	-5.410284E-008	0.0714248	7
	18	30	15890.62	34935.85	-25430.07	1	43211.13	-36.05116	-1.775133E-008	0.0712584	7
	19	31	12609.37	40097.61	-25066.48	1	47287.91	-32.01101	4.402662E-010	0.0711265	6
	20	33	10078.13	44484.37	-24366.17	1	50720.5	-28.71158	3.740529E-009	0.071284	6
	21	34	8015.625	48532.58	-23179.68	1	53783.91	-25.52964	4.165735E-009	0.071257	6
	22	35	6328.125	52272.94	-21755.36	1	56619.39	-22.59648	1.674718E-008	0.070895	6
	23	37	5015.625	55375.11	-20217.52	1	58950.41	-20.0572	-1.221807E-008	0.0713558	6
	24	38	3984.375	57917.54	-18919.27	1	60929.3	-18.09008	-4.371072E-008	0.0713127	7
	25	40	3170.956	60175.12	-17694.2	1	62722.64	-16.38571	-4.29546E-008	0.0713273	7
	26	42	2527.573	62274.35	-16699.48	1	64474.55	-15.01126	-3.831679E-008	0.0712987	7
	27	43	1976.103	64660.36	-15804.67	1	66563.88	-13.73527	9.339673E-009	0.0711949	6
	28	45	1577.524	65995.18	-15332.05	1	67752.75	-13.07899	-1.035181E-008	0.0713679	6
	29	47	1265.625	65945.97	-14711.42	1	67566.98	-12.57579	-9.14377E-008	0.0714487	7
	30	48	998.264	69124.98	-15262.78	1	70789.94	-12.45112	8.08335E-009	0.0711936	6
	31	50	796.875	70456.95	-15596.62	1	72162.56	-12.48193	8.960408E-009	0.0711952	6
	32	51	627.7902	71887.67	-16629.12	1	73785.94	-13.02462	-1.584024E-009	0.0713589	6
	33	53	505.5147	73130.25	-17878.74	1	75284.02	-13.73808	-1.266982E-008	0.0713468	6
	34	54	397.9953	74824.09	-19589.69	1	77345.98	-14.67131	-1.35732E-009	0.07126	6
	35	56	315.5048	76416.9	-21883.66	1	79488.59	-15.98023	-2.061345E-009	0.0712555	6
	36	57	252.4038	78103.12	-24813.25	1	81949.95	-17.62498	-1.451201E-009	0.0712555	6
	37	58	198.6229	80249.81	-28580.95	1	85187.46	-19.60334	-1.427899E-009	0.0712561	6
	38	60	158.3615	82809.89	-33002.32	1	89143.88	-21.72882	-1.627873E-009	0.0712549	6
	39	61	125.558	85682.34	-38252.43	1	93833.42	-24.05812	-1.400271E-009	0.0712586	5
	40	63	100.4464	89220.63	-44459.83	1	99684.5	-26.48769	-2.867226E-009	0.0712579	5
	41	64	79.00281	93549.29	-51733.9	1	106901.2	-28.94313	-1.480268E-009	0.071255	5
	42	66	63.3446	102036.8	-60891.2	1	118824.4	-30.82696	-1.082707E-009	0.0712543	5
	43	67	49.86702	104108.3	-72885.13	1	127085.7	-34.99546	-1.757371E-009	0.0712535	5
	44	69	39.72458	111543.2	-85412.65	1	140489.1	-37.44259	-1.959547E-009	0.071263	5
	45	70	31.6723	120543.1	-99413.6	1	156248.8	-39.51288	-1.723674E-009	0.0712547	5
	46	72	24.93351	131375.7	-115827.7	1	175144.6	-41.4011	-2.08225E-009	0.0712514	5
	47	73	19.86229	143812.7	-135003.6	1	197251.3	-43.19035	-6.457114E-010	0.0712617	5
	48	74	15.83615	160928.5	-160407.4	1	227219.1	-44.90709	-3.774617E-009	0.0712591	5
	49	76	12.40079	184037.1	-179753.2	1	257256.4	-44.32533	-1.281128E-010	0.0712598	5
	50	77	9.93114	200392.1	-204496.2	1	286313.9	-45.58076	-2.213868E-009	0.0712649	5
	51	79	7.944915	224057.7	-230332.2	1	321332.8	-45.79112	-7.728767E-010	0.0712632	5
	52	81	6.317385	254698.6	-263179.3	1	366244	-45.93818	-1.83802E-009	0.071266	5
	53	83	5.008013	288193.5	-297535.4	1	414225.6	-45.91375	-1.782248E-009	0.0712658	5
	54	85	3.945707	324742.9	-335479.8	1	466909.7	-45.93169	-1.748578E-009	0.0712098	5
	55	88	3.158693	363741.4	-377212.9	1	524020.4	-46.0416	-1.613523E-009	0.0712468	5
	56	91	2.504006	408864.9	-425347.1	1	589992.1	-46.13189	-1.888344E-009	0.0712661	5
	57	94	1.998082	455656.8	-477166.5	1	659781	-46.32094	-1.602107E-009	0.0712155	5
	58	97	1.584686	509784.4	-539329.3	1	742129.5	-46.61312	-1.720849E-009	0.0712711	5
	59	101	1.266892	570404.8	-609589.3	1	834841.8	-46.90194	-1.61394E-009	0.0712195	5
	60	105	0.999041	640819.4	-694560.1	1	945020.3	-47.30455	-1.468319E-009	0.0713039	5
