EXPLAIN
TAG	EISPOT
TITLE	LABEL	Potentiostatic EIS	Test &Identifier
DATE	LABEL	11/20/2019	Date
TIME	LABEL	10:17:02	Time
NOTES	NOTES	4	&Notes...
	
	
	
	
PSTAT	PSTAT	REF600-11020	Potentiostat
VDC	POTEN	0.00000E+000	T	DC &Voltage (V)
FREQINIT	QUANT	1.00000E+006	Initial Fre&q. (Hz)
FREQFINAL	QUANT	1.00000E+000	Final Fre&q. (Hz)
PTSPERDEC	QUANT	1.00000E+001	Points/&decade
VAC	QUANT	2.50000E+001	AC &Voltage (mV rms)
AREA	QUANT	1.00000E-002	&Area (cm^2)
CONDIT	TWOPARAM	T	5.00000E+000	0.00000E+000	Conditionin&g	Time(s)	E(V)
DELAY	TWOPARAM	T	5.00000E+000	0.00000E+000	Init. De&lay	Time(s)	Stab.(mV/s)
SPEED	SELECTOR	0	&Optimize for:
ZGUESS	QUANT	1.00000E+005	E&stimated Z (ohms)
OCVCURVE	TABLE	19
	Pt	T	Vf	Vm	Ach	Over
	#	s	V vs. Ref.	V	V	bits
	0	0.258333	4.21713E-003	4.21713E-003	5.59366E-004	...........
	1	0.516667	4.21386E-003	4.04596E-003	5.57466E-004	...........
	2	0.775	4.19393E-003	3.89123E-003	5.65699E-004	...........
	3	1.03333	4.13854E-003	3.77049E-003	5.62866E-004	...........
	4	1.29167	4.04286E-003	3.66416E-003	5.68199E-004	...........
	5	1.55	3.92289E-003	3.58323E-003	5.64266E-004	...........
	6	1.80833	3.80075E-003	3.49612E-003	5.62232E-004	...........
	7	2.06667	3.69023E-003	3.43596E-003	5.61599E-004	...........
	8	2.325	3.59507E-003	3.37243E-003	5.67632E-004	...........
	9	2.58333	3.51392E-003	3.32429E-003	5.62699E-004	...........
	10	2.84167	3.44419E-003	3.27124E-003	5.59166E-004	...........
	11	3.1	3.38321E-003	3.22725E-003	5.57833E-004	...........
	12	3.35833	3.32842E-003	3.17414E-003	5.59966E-004	...........
	13	3.61667	3.27764E-003	3.14132E-003	5.58866E-004	...........
	14	3.875	3.22992E-003	3.10305E-003	5.62632E-004	...........
	15	4.13333	3.18560E-003	3.06984E-003	5.64399E-004	...........
	16	4.39167	3.14509E-003	3.03812E-003	5.69766E-004	...........
	17	4.65	3.10807E-003	3.00993E-003	5.69099E-004	...........
	18	4.90833	3.07405E-003	2.98466E-003	5.63066E-004	...........
EOC	QUANT	0.003074	Open Circuit (V)
PSTATMODEL	IQUANT	4	Pstat Model
PSTATSECTION	LABEL	REF600-11020	Pstat Section
PSTATSERIALNO	LABEL	11020	Pstat Serial Number
CTRLMODE	IQUANT	1	Control Mode
IESTAB	IQUANT	0	I/E Stability
CASPEED	IQUANT	1	Control Amp Speed
CONVENTION	IQUANT	1	Current Convention
ICHRANGE	IQUANT	2	Ich Range
ICHRANGEMODE	TOGGLE	F	Ich Auto Range
ICHOFFSETENABLE	TOGGLE	T	Ich Offset Enable
ICHOFFSET	QUANT	0	Ich Offset (V)
ICHFILTER	IQUANT	3	Ich Filter
VCHRANGE	IQUANT	2	Vch Range
VCHRANGEMODE	TOGGLE	F	Vch Auto Range
VCHOFFSETENABLE	TOGGLE	T	Vch Offset Enable
VCHOFFSET	QUANT	0	Vch Offset (V)
VCHFILTER	IQUANT	3	Vch Filter
ACHRANGE	IQUANT	2	Ach Range
ACHOFFSETENABLE	TOGGLE	F	Ach Offset Enable
ACHOFFSET	QUANT	0	Ach Offset (V)
ACHFILTER	IQUANT	3	Ach Filter
IERANGELOWERLIMIT	IQUANT	1	I/E Range Lower Limit
IERANGEMODE	TOGGLE	F	I/E AutoRange
IERANGE	IQUANT	4	I/E Range
POSFEEDENABLE	TOGGLE	F	Positive Feedback IR Comp
POSFEEDRESISTANCE	QUANT	0	Positive Feedback Resistance (ohm)
ACHSELECT	IQUANT	0	Ach Select
CABLEID	IQUANT	14	Cable ID
DCCALDATE	LABEL	8/19/2019	DC Calibration Date
ACCALDATE	LABEL	8/19/2019	AC Calibration Date
THERMOSELECT	IQUANT	1	Thermo Select
FRAMEWORKVERSION	QUANT	6.33	Framework Version
INSTRUMENTVERSION	LABEL	3.50	Instrument Version
ZCURVE	TABLE
	Pt	Time	Freq	Zreal	Zimag	Zsig	Zmod	Zphz	Idc	Vdc	IERange
	#	s	Hz	ohm	ohm	V	ohm	°	A	V	#
	0	1	1000078	2114.838	-1389.296	1	2530.352	-33.30203	-2.315869E-008	0.0055041	8
	1	2	794390.6	2388.851	-1304.321	1	2721.739	-28.6347	-2.851017E-006	0.004734	8
	2	2	630984.4	2614.826	-1194.609	1	2874.788	-24.55376	-2.054846E-006	0.0052562	8
	3	2	501234.4	2813.681	-1062.44	1	3007.587	-20.68642	6.183019E-006	0.0035316	8
	4	3	398109.4	2961.924	-938.9171	1	3107.178	-17.58839	-6.22138E-007	0.0043151	8
	5	3	316265.6	3078.339	-811.1234	1	3183.409	-14.76156	6.353916E-006	0.0038781	8
	6	3	251203.1	3162.649	-700.9307	1	3239.391	-12.49634	-5.651119E-007	0.004978	8
	7	4	199546.9	3225.606	-619.9086	1	3284.634	-10.87867	1.705942E-006	0.0041858	8
	8	4	158578.1	3310.424	-529.8604	1	3352.56	-9.093526	-9.224861E-008	0.0043156	8
	9	4	125953.1	3340.477	-441.6055	1	3369.54	-7.53074	-2.020867E-006	0.0074743	7
	10	5	100078.1	3370.597	-399.3392	1	3394.171	-6.756752	-9.085543E-007	0.0050059	7
	11	5	79453.13	3401.459	-381.6633	1	3422.805	-6.402137	7.198286E-007	0.004343	7
	12	5	63140.62	3433.489	-372.6909	1	3453.656	-6.194965	9.344421E-007	0.0032789	7
	13	5	50203.12	3465.332	-370.1414	1	3485.044	-6.096799	6.427044E-008	0.0053576	7
	14	6	39890.62	3498.239	-376.0676	1	3518.395	-6.135844	-9.511679E-007	0.0059456	7
	15	6	31640.63	3533.844	-393.1175	1	3555.643	-6.347689	8.441393E-007	0.0030832	7
	16	6	25171.88	3571.419	-415.5261	1	3595.51	-6.63639	-2.497958E-007	0.0057063	7
	17	7	20015.62	3612.61	-450.4512	1	3640.585	-7.107446	4.188953E-007	0.0031015	7
	18	7	15890.62	3658.12	-490.4638	1	3690.853	-7.636413	9.3708E-007	0.0032727	7
	19	7	12609.37	3707.175	-542.4758	1	3746.655	-8.325082	-1.061309E-006	0.0054823	7
	20	8	10078.13	3761.637	-602.1409	1	3809.526	-9.09442	6.701811E-007	0.0030041	7
	21	8	8015.625	3828.781	-673.7681	1	3887.613	-9.98042	9.518086E-007	0.0035511	7
	22	8	6328.125	3887.514	-766.123	1	3962.286	-11.14857	-5.364145E-007	0.0059068	7
	23	9	5015.625	3963.511	-873.3671	1	4058.594	-12.42665	7.216616E-007	0.0043263	7
	24	9	3984.375	4039.343	-999.299	1	4161.117	-13.89549	9.783908E-008	0.0033416	7
	25	9	3170.956	4134.408	-1142.261	1	4289.299	-15.4445	-9.495911E-007	0.005928	7
	26	10	2527.573	4234.207	-1313.361	1	4433.218	-17.23277	9.514992E-007	0.0035444	7
	27	10	1976.103	4354.393	-1535.542	1	4617.209	-19.42479	3.401909E-007	0.0049755	7
	28	10	1577.524	4482.125	-1781.311	1	4823.122	-21.67414	6.717079E-007	0.0029998	7
	29	11	1265.625	4604.336	-2062.006	1	5044.976	-24.12475	6.713923E-007	0.0029982	7
	30	11	998.264	4759.072	-2422.941	1	5340.356	-26.98158	-9.489895E-007	0.0059316	7
	31	11	796.875	4919.526	-2839.813	1	5680.341	-29.99583	-9.093528E-007	0.0049814	7
	32	12	627.7902	5101.71	-3379.545	1	6119.54	-33.52183	-6.334205E-007	0.0043941	7
	33	12	505.5147	5280.396	-3968.388	1	6605.353	-36.92604	-9.499865E-007	0.0059311	7
	34	12	397.9953	5492.803	-4776.195	1	7278.937	-41.00817	3.234164E-009	0.0045499	7
	35	13	315.5048	5721.079	-5749.045	1	8110.626	-45.13969	3.693743E-009	0.0045441	7
	36	13	252.4038	5967.645	-6905.527	1	9126.833	-49.16695	1.047156E-009	0.0045494	7
	37	13	198.6229	6278.633	-8448.192	1	10525.83	-53.38055	5.054055E-010	0.0044852	6
	38	14	158.3615	6626.468	-10261.54	1	12215.13	-57.14734	1.09152E-009	0.0044823	6
	39	14	125.558	7065.009	-12559.09	1	14409.9	-60.64044	6.972758E-010	0.004489	6
	40	14	100.4464	7584.911	-15274.98	1	17054.5	-63.59294	1.073016E-009	0.0044816	6
	41	15	79.00281	8312.888	-18869.42	1	20619.39	-66.22421	9.460682E-010	0.0044811	6
	42	15	63.3446	9164.472	-23073.55	1	24826.92	-68.33775	-1.959422E-011	0.0044824	6
	43	15	49.86702	10321.62	-28460.21	1	30274.08	-70.06589	-3.441072E-010	0.0044771	6
	44	16	39.72458	11807.96	-34657.42	1	36613.73	-71.18576	3.62626E-010	0.0044878	6
	45	16	31.6723	13672.93	-42199.92	1	44359.7	-72.04749	-2.40316E-011	0.004478	6
	46	16	24.93351	16203.67	-52033.45	1	54498.07	-72.70296	7.561125E-010	0.0044802	6
	47	17	19.86229	19352.13	-63369.84	1	66258.9	-73.01817	1.52371E-009	0.0044853	6
	48	17	15.83615	23776.54	-76745.14	1	80343.89	-72.78641	-1.013431E-009	0.0044813	6
	49	17	12.40079	29661.7	-94329.66	1	98883.3	-72.54439	-1.657759E-009	0.0044943	6
	50	17	9.93114	36033.43	-113646.8	1	119222.5	-72.408	-5.569539E-010	0.0044855	5
	51	18	7.944915	44450.22	-136375.1	1	143436.4	-71.9471	-3.231673E-010	0.0044972	5
	52	18	6.317385	55749.61	-163732.2	1	172963.1	-71.19666	-2.948271E-011	0.0044856	5
	53	19	5.008013	70359.95	-196559	1	208772.5	-70.30475	1.720141E-010	0.0044906	5
	54	20	3.945707	89093.39	-236707	1	252918.6	-69.37432	-2.56433E-010	0.0044824	5
	55	21	3.158693	111551.4	-278712.7	1	300207.3	-68.18684	2.354444E-010	0.0044791	5
	56	23	2.504006	139695.4	-329936	1	358291.2	-67.05212	2.412007E-010	0.0044866	5
	57	24	1.998082	173733.5	-386586.6	1	423830.8	-65.80067	5.191827E-012	0.0044408	5
	58	26	1.584686	214166.7	-452981	1	501058	-64.6955	3.766336E-011	0.004452	5
	59	28	1.266892	262199.3	-524416.6	1	586311.5	-63.43573	9.582751E-011	0.004492	5
	60	30	0.999041	323015.8	-611074.4	1	691195.4	-62.13894	1.278541E-010	0.0045172	5
