EXPLAIN
TAG	EISPOT
TITLE	LABEL	Potentiostatic EIS	Test &Identifier
DATE	LABEL	9/20/2019	Date
TIME	LABEL	12:03:29	Time
NOTES	NOTES	1	&Notes...
	
PSTAT	PSTAT	REF600-11020	Potentiostat
VDC	POTEN	0.00000E+000	T	DC &Voltage (V)
FREQINIT	QUANT	1.00000E+006	Initial Fre&q. (Hz)
FREQFINAL	QUANT	1.00000E+000	Final Fre&q. (Hz)
PTSPERDEC	QUANT	1.00000E+001	Points/&decade
VAC	QUANT	2.50000E+001	AC &Voltage (mV rms)
AREA	QUANT	1.00000E-002	&Area (cm^2)
CONDIT	TWOPARAM	T	5.00000E+000	0.00000E+000	Conditionin&g	Time(s)	E(V)
DELAY	TWOPARAM	T	5.00000E+000	0.00000E+000	Init. De&lay	Time(s)	Stab.(mV/s)
SPEED	SELECTOR	1	&Optimize for:
ZGUESS	QUANT	1.00000E+004	E&stimated Z (ohms)
OCVCURVE	TABLE	19
	Pt	T	Vf	Vm	Ach	Over
	#	s	V vs. Ref.	V	V	bits
	0	0.258333	5.43966E-003	5.43966E-003	5.73832E-004	...........
	1	0.516667	5.43775E-003	5.33932E-003	5.75732E-004	...........
	2	0.775	5.42624E-003	5.25792E-003	5.76732E-004	...........
	3	1.03333	5.39472E-003	5.18876E-003	5.72666E-004	...........
	4	1.29167	5.34097E-003	5.13298E-003	5.79799E-004	...........
	5	1.55	5.27434E-003	5.09135E-003	5.73032E-004	...........
	6	1.80833	5.20750E-003	5.05121E-003	5.82799E-004	...........
	7	2.06667	5.14831E-003	5.01155E-003	5.81332E-004	...........
	8	2.325	5.09823E-003	4.97650E-003	5.76566E-004	...........
	9	2.58333	5.05508E-003	4.94363E-003	5.80665E-004	...........
	10	2.84167	5.01651E-003	4.91801E-003	5.82032E-004	...........
	11	3.1	4.98158E-003	4.89717E-003	5.78732E-004	...........
	12	3.35833	4.95052E-003	4.87875E-003	5.82299E-004	...........
	13	3.61667	4.92366E-003	4.85925E-003	5.77532E-004	...........
	14	3.875	4.90050E-003	4.83843E-003	5.77732E-004	...........
	15	4.13333	4.87994E-003	4.83194E-003	5.81565E-004	...........
	16	4.39167	4.86153E-003	4.81979E-003	5.71632E-004	...........
	17	4.65	4.84573E-003	4.81351E-003	5.77332E-004	...........
	18	4.90833	4.83281E-003	4.80234E-003	5.79166E-004	...........
EOC	QUANT	0.0048328	Open Circuit (V)
PSTATMODEL	IQUANT	4	Pstat Model
PSTATSECTION	LABEL	REF600-11020	Pstat Section
PSTATSERIALNO	LABEL	11020	Pstat Serial Number
CTRLMODE	IQUANT	1	Control Mode
IESTAB	IQUANT	0	I/E Stability
CASPEED	IQUANT	1	Control Amp Speed
CONVENTION	IQUANT	1	Current Convention
ICHRANGE	IQUANT	2	Ich Range
ICHRANGEMODE	TOGGLE	F	Ich Auto Range
ICHOFFSETENABLE	TOGGLE	T	Ich Offset Enable
ICHOFFSET	QUANT	0	Ich Offset (V)
ICHFILTER	IQUANT	3	Ich Filter
VCHRANGE	IQUANT	2	Vch Range
VCHRANGEMODE	TOGGLE	F	Vch Auto Range
VCHOFFSETENABLE	TOGGLE	T	Vch Offset Enable
VCHOFFSET	QUANT	0	Vch Offset (V)
VCHFILTER	IQUANT	3	Vch Filter
ACHRANGE	IQUANT	2	Ach Range
ACHOFFSETENABLE	TOGGLE	F	Ach Offset Enable
ACHOFFSET	QUANT	0	Ach Offset (V)
ACHFILTER	IQUANT	3	Ach Filter
IERANGELOWERLIMIT	IQUANT	1	I/E Range Lower Limit
IERANGEMODE	TOGGLE	F	I/E AutoRange
IERANGE	IQUANT	5	I/E Range
POSFEEDENABLE	TOGGLE	F	Positive Feedback IR Comp
POSFEEDRESISTANCE	QUANT	0	Positive Feedback Resistance (ohm)
ACHSELECT	IQUANT	0	Ach Select
CABLEID	IQUANT	14	Cable ID
DCCALDATE	LABEL	8/19/2019	DC Calibration Date
ACCALDATE	LABEL	8/19/2019	AC Calibration Date
THERMOSELECT	IQUANT	1	Thermo Select
FRAMEWORKVERSION	QUANT	6.33	Framework Version
INSTRUMENTVERSION	LABEL	3.50	Instrument Version
ZCURVE	TABLE
	Pt	Time	Freq	Zreal	Zimag	Zsig	Zmod	Zphz	Idc	Vdc	IERange
	#	s	Hz	ohm	ohm	V	ohm	°	A	V	#
	0	2	1000078	2683.232	-1792.969	1	3227.147	-33.75134	-2.909733E-006	0.0075994	8
	1	4	794390.6	3036.453	-1670.26	1	3465.518	-28.81384	-3.311339E-006	0.0076322	8
	2	5	630984.4	3336.31	-1536.271	1	3673.022	-24.72466	-2.410579E-006	0.0069988	8
	3	6	501234.4	3583.969	-1361.488	1	3833.86	-20.80092	-4.005772E-007	0.0067899	8
	4	8	398109.4	3764.289	-1183.862	1	3946.061	-17.45827	1.755612E-006	0.0059303	8
	5	9	316265.6	3900.965	-1019.819	1	4032.066	-14.65079	3.134895E-006	0.0057169	8
	6	11	251203.1	4018.694	-876.1779	1	4113.1	-12.29947	6.672925E-007	0.0064369	8
	7	12	199546.9	4094.825	-741.1236	1	4161.353	-10.25892	7.561544E-007	0.0064306	8
	8	14	158578.1	4155.378	-648.8726	1	4205.734	-8.875205	-4.56483E-006	0.0074321	8
	9	15	125953.1	4224.427	-532.1981	1	4257.819	-7.180358	-7.708863E-007	0.0086094	7
	10	17	100078.1	4257.636	-477.6188	1	4284.341	-6.400644	-4.148145E-008	0.0063802	7
	11	18	79453.13	4294.173	-446.2039	1	4317.293	-5.932267	-4.908249E-008	0.0064246	7
	12	20	63140.62	4328.375	-429.8655	1	4349.669	-5.671639	-3.627805E-009	0.0063368	7
	13	21	50203.12	4362.147	-421.9704	1	4382.509	-5.525291	-1.649679E-008	0.006368	7
	14	22	39890.62	4395.508	-426.8009	1	4416.181	-5.545996	3.96343E-008	0.0062727	7
	15	24	31640.63	4431.866	-439.5923	1	4453.614	-5.664582	-4.04532E-008	0.0063381	7
	16	25	25171.88	4469.846	-464.986	1	4493.966	-5.938964	1.58592E-008	0.0062307	7
	17	26	20015.62	4509.586	-500.8434	1	4537.313	-6.337409	8.763617E-008	0.0061338	7
	18	28	15890.62	4551.233	-549.2917	1	4584.261	-6.881785	-3.221925E-008	0.006328	7
	19	29	12609.37	4602.684	-612.2895	1	4643.231	-7.577498	-4.208622E-008	0.0063635	7
	20	30	10078.13	4653.054	-688.4385	1	4703.707	-8.41609	-6.891803E-008	0.0064143	7
	21	32	8015.625	4709.731	-781.395	1	4774.112	-9.420177	5.226472E-009	0.006273	7
	22	33	6328.125	4774.696	-899.985	1	4858.775	-10.67447	-7.561216E-009	0.0062614	7
	23	34	5015.625	4842.995	-1043.179	1	4954.071	-12.15576	1.264149E-007	0.006126	7
	24	36	3984.375	4920.992	-1214.837	1	5068.727	-13.86724	-5.376123E-008	0.0064269	7
	25	37	3170.956	5007.074	-1419.857	1	5204.496	-15.83176	2.367745E-008	0.0062079	7
	26	38	2527.573	5102.295	-1669.676	1	5368.542	-18.12018	4.967158E-008	0.006255	7
	27	40	1976.103	5218.935	-1999.577	1	5588.88	-20.96378	-7.199654E-008	0.0064095	7
	28	41	1577.524	5337.693	-2369.536	1	5840.006	-23.93764	9.579664E-008	0.0062333	7
	29	43	1265.625	5471.463	-2802.331	1	6147.354	-27.12026	-1.517943E-008	0.0063436	7
	30	44	998.264	5642.785	-3376.312	1	6575.751	-30.89383	1.220983E-007	0.006129	7
	31	45	796.875	5824.475	-4033.518	1	7084.756	-34.70306	8.517205E-008	0.006133	7
	32	47	627.7902	6051.841	-4895.055	1	7783.723	-38.9678	-3.625312E-008	0.0063137	7
	33	48	505.5147	6288.61	-5842.405	1	8583.724	-42.89349	1.269571E-007	0.0061188	7
	34	49	397.9953	6593.06	-7118.418	1	9702.59	-47.19423	5.885537E-009	0.0063308	7
	35	51	315.5048	6947.406	-8642.674	1	11088.83	-51.20597	1.440096E-009	0.0062669	6
	36	52	252.4038	7348.848	-10436.17	1	12763.98	-54.84789	5.200929E-010	0.0062641	6
	37	53	198.6229	7865.883	-12800.71	1	15024.33	-58.42978	9.652894E-010	0.006265	6
	38	55	158.3615	8456.207	-15553.25	1	17703.42	-61.46735	8.74785E-010	0.006265	6
	39	56	125.558	9200.894	-19007.17	1	21117.03	-64.16954	1.089142E-009	0.0062698	6
	40	58	100.4464	10098.48	-23081.31	1	25193.78	-66.36977	4.874351E-010	0.0062686	6
	41	59	79.00281	11225.67	-28456.18	1	30590.36	-68.47128	9.241506E-010	0.006263	6
	42	60	63.3446	12433.99	-34539.58	1	36709.49	-70.2015	1.132411E-009	0.0062597	6
	43	62	49.86702	14766.01	-42368.7	1	44868.05	-70.78593	1.352205E-009	0.0062607	6
	44	63	39.72458	17120.33	-51871.85	1	54624.12	-71.7345	1.323489E-009	0.0062627	6
	45	65	31.6723	20120.51	-63162.29	1	66289.59	-72.33058	1.343105E-009	0.0062598	6
	46	66	24.93351	24633.41	-77579.73	1	81396.68	-72.38412	1.032595E-009	0.0062522	6
	47	67	19.86229	30230.08	-94188.52	1	98920.8	-72.20582	9.631878E-010	0.0062637	6
	48	69	15.83615	38311.51	-114010.3	1	120275.2	-71.42582	1.749304E-009	0.0062631	5
	49	70	12.40079	47369.66	-138685.1	1	146551.8	-71.14175	4.015939E-010	0.0062638	5
	50	71	9.93114	60504.32	-165966.5	1	176651.2	-69.97029	3.317995E-010	0.0062588	5
	51	73	7.944915	77304.63	-197120.2	1	211736.5	-68.58637	3.155383E-010	0.0062537	5
	52	75	6.317385	98766	-233619.4	1	253639	-67.08308	8.020111E-010	0.0062616	5
	53	77	5.008013	126523.5	-275450.2	1	303118.8	-65.32909	5.698625E-010	0.0062762	5
	54	79	3.945707	162305.8	-322509.6	1	361047.9	-63.28577	-2.630192E-011	0.0062627	5
	55	82	3.158693	202276.8	-369595	1	421326.9	-61.30842	3.890556E-010	0.006285	5
	56	85	2.504006	251300.7	-423074.5	1	492081.4	-59.29024	-1.467522E-010	0.0062579	5
	57	88	1.998082	305032.2	-477140.8	1	566310.8	-57.40955	-8.670985E-011	0.0062446	5
	58	91	1.584686	367308.6	-534355.2	1	648422	-55.49589	8.549124E-011	0.0063072	5
	59	95	1.266892	428953.9	-597844.1	1	735811.9	-54.34051	2.63099E-011	0.0062498	5
	60	99	0.999041	505403.2	-669881.9	1	839150.8	-52.96669	3.518523E-010	0.0062891	5
