EXPLAIN
TAG	EISPOT
TITLE	LABEL	Potentiostatic EIS	Test &Identifier
DATE	LABEL	6/20/2000	Date
TIME	LABEL	9:27:02	Time
NOTES	NOTES	2	&Notes...
	
	
PSTAT	PSTAT	REF600-11020	Potentiostat
VDC	POTEN	0.00000E+000	T	DC &Voltage (V)
FREQINIT	QUANT	1.00000E+006	Initial Fre&q. (Hz)
FREQFINAL	QUANT	1.00000E+000	Final Fre&q. (Hz)
PTSPERDEC	QUANT	1.00000E+001	Points/&decade
VAC	QUANT	2.50000E+001	AC &Voltage (mV rms)
AREA	QUANT	1.00000E-002	&Area (cm^2)
CONDIT	TWOPARAM	T	5.00000E+000	0.00000E+000	Conditionin&g	Time(s)	E(V)
DELAY	TWOPARAM	T	5.00000E+000	0.00000E+000	Init. De&lay	Time(s)	Stab.(mV/s)
SPEED	SELECTOR	0	&Optimize for:
ZGUESS	QUANT	1.00000E+005	E&stimated Z (ohms)
OCVCURVE	TABLE	19
	Pt	T	Vf	Vm	Ach	Over
	#	s	V vs. Ref.	V	V	bits
	0	0.258333	7.08940E-003	7.08940E-003	5.35333E-004	...........
	1	0.516667	7.05530E-003	5.30440E-003	5.37766E-004	...........
	2	0.775	6.88779E-003	5.80506E-003	5.35833E-004	...........
	3	1.03333	6.54845E-003	6.03977E-003	5.36633E-004	...........
	4	1.29167	6.16830E-003	5.10699E-003	5.29666E-004	...........
	5	1.55	5.85981E-003	4.69972E-003	5.31933E-004	...........
	6	1.80833	5.56631E-003	4.33394E-003	5.29800E-004	...........
	7	2.06667	5.21296E-003	4.14794E-003	5.38099E-004	...........
	8	2.325	4.82469E-003	3.76732E-003	5.32133E-004	...........
	9	2.58333	4.47210E-003	4.33704E-003	5.32033E-004	...........
	10	2.84167	4.77114E-003	3.27755E-002	5.32066E-004	.........v.
	11	3.1	7.80695E-003	4.86862E-002	5.31500E-004	...........
	12	3.35833	1.55446E-002	4.10808E-002	5.30600E-004	...........
	13	3.61667	2.62394E-002	3.91952E-002	5.32800E-004	...........
	14	3.875	3.51335E-002	3.51387E-002	5.30800E-004	...........
	15	4.13333	3.92431E-002	3.46363E-002	5.27400E-004	...........
	16	4.39167	3.92355E-002	3.30728E-002	5.29600E-004	...........
	17	4.65	3.73310E-002	3.15444E-002	5.24166E-004	...........
	18	4.90833	3.51510E-002	2.97180E-002	5.22566E-004	...........
EOC	QUANT	0.035151	Open Circuit (V)
PSTATMODEL	IQUANT	4	Pstat Model
PSTATSECTION	LABEL	REF600-11020	Pstat Section
PSTATSERIALNO	LABEL	11020	Pstat Serial Number
CTRLMODE	IQUANT	1	Control Mode
IESTAB	IQUANT	0	I/E Stability
CASPEED	IQUANT	1	Control Amp Speed
CONVENTION	IQUANT	1	Current Convention
ICHRANGE	IQUANT	2	Ich Range
ICHRANGEMODE	TOGGLE	F	Ich Auto Range
ICHOFFSETENABLE	TOGGLE	T	Ich Offset Enable
ICHOFFSET	QUANT	0	Ich Offset (V)
ICHFILTER	IQUANT	3	Ich Filter
VCHRANGE	IQUANT	2	Vch Range
VCHRANGEMODE	TOGGLE	F	Vch Auto Range
VCHOFFSETENABLE	TOGGLE	T	Vch Offset Enable
VCHOFFSET	QUANT	0	Vch Offset (V)
VCHFILTER	IQUANT	3	Vch Filter
ACHRANGE	IQUANT	2	Ach Range
ACHOFFSETENABLE	TOGGLE	F	Ach Offset Enable
ACHOFFSET	QUANT	0	Ach Offset (V)
ACHFILTER	IQUANT	3	Ach Filter
IERANGELOWERLIMIT	IQUANT	1	I/E Range Lower Limit
IERANGEMODE	TOGGLE	F	I/E AutoRange
IERANGE	IQUANT	5	I/E Range
POSFEEDENABLE	TOGGLE	F	Positive Feedback IR Comp
POSFEEDRESISTANCE	QUANT	0	Positive Feedback Resistance (ohm)
ACHSELECT	IQUANT	0	Ach Select
CABLEID	IQUANT	14	Cable ID
DCCALDATE	LABEL	8/19/2019	DC Calibration Date
ACCALDATE	LABEL	8/19/2019	AC Calibration Date
THERMOSELECT	IQUANT	1	Thermo Select
FRAMEWORKVERSION	QUANT	6.33	Framework Version
INSTRUMENTVERSION	LABEL	3.50	Instrument Version
ZCURVE	TABLE
	Pt	Time	Freq	Zreal	Zimag	Zsig	Zmod	Zphz	Idc	Vdc	IERange
	#	s	Hz	ohm	ohm	V	ohm	°	A	V	#
	0	1	1000078	2021.277	-1132.877	1	2317.104	-29.26958	1.019004E-005	0.0355933	8
	1	2	794390.6	2274.821	-1082.06	1	2519.061	-25.43895	-3.945579E-006	0.0366613	8
	2	2	630984.4	2450.998	-984.565	1	2641.356	-21.88531	-1.208606E-006	0.0366742	8
	3	2	501234.4	2581.871	-888.2654	1	2730.398	-18.98524	-1.485925E-006	0.0365897	8
	4	3	398109.4	2709.926	-791.4928	1	2823.147	-16.28159	-1.752894E-006	0.0373142	8
	5	3	316265.6	2777.772	-735.5427	1	2873.507	-14.8313	-1.496659E-006	0.0369994	8
	6	3	251203.1	2852.018	-669.8753	1	2929.632	-13.21791	-1.793815E-006	0.036663	8
	7	4	199546.9	2923.264	-605.2746	1	2985.269	-11.69804	-6.095234E-007	0.0370372	8
	8	4	158578.1	2992.446	-520.724	1	3037.415	-9.87136	-2.257633E-006	0.0369415	8
	9	4	125953.1	3062.659	-457.4812	1	3096.638	-8.495676	1.955795E-006	0.0303598	7
	10	5	100078.1	3088.407	-452.9346	1	3121.444	-8.343313	7.107805E-007	0.0369804	7
	11	5	79453.13	3135.056	-455.8764	1	3168.028	-8.273535	-8.432016E-007	0.036573	7
	12	5	63140.62	3172.925	-473.0163	1	3207.99	-8.479146	-1.214472E-006	0.0373617	7
	13	6	50203.12	3220.704	-503.1076	1	3259.763	-8.878446	-1.391358E-006	0.0379913	7
	14	6	39890.62	3267.563	-541.3418	1	3312.102	-9.40683	8.718914E-007	0.034754	7
	15	6	31640.63	3324.78	-592.8512	1	3377.223	-10.11032	-3.363169E-007	0.0357829	7
	16	7	25171.88	3387.853	-658.3751	1	3451.232	-10.99745	1.233353E-006	0.0350823	7
	17	7	20015.62	3451.912	-720.4467	1	3526.292	-11.78894	-1.238265E-006	0.0385942	7
	18	7	15890.62	3523.38	-819.2144	1	3617.363	-13.08918	-1.194607E-006	0.0373391	7
	19	7	12609.37	3610.136	-924.86	1	3726.72	-14.36925	-3.164752E-007	0.0382826	7
	20	8	10078.13	3715.913	-1038.15	1	3858.208	-15.60928	-8.242006E-007	0.0365694	7
	21	8	8015.625	3814.33	-1182.266	1	3993.353	-17.22102	-1.384682E-006	0.0379789	7
	22	8	6328.125	3944.401	-1366.428	1	4174.377	-19.10722	1.156308E-006	0.0359314	7
	23	9	5015.625	4086.565	-1565.717	1	4376.241	-20.96371	-3.507861E-007	0.0357897	7
	24	9	3984.375	4248.316	-1791.199	1	4610.487	-22.86154	-3.222525E-007	0.0382731	7
	25	9	3170.956	4437.255	-2049.863	1	4887.86	-24.79535	-1.395533E-006	0.0384055	7
	26	10	2527.573	4625.903	-2349.479	1	5188.355	-26.92585	-1.388796E-006	0.0379835	7
	27	10	1976.103	4896.106	-2728.992	1	5605.288	-29.13442	1.276228E-007	0.0351929	7
	28	10	1577.524	5151.516	-3131.691	1	6028.732	-31.2961	-7.109945E-007	0.0385645	7
	29	11	1265.625	5464.395	-3589.297	1	6537.787	-33.29898	1.337721E-007	0.0351883	7
	30	11	998.264	5838.755	-4147.548	1	7161.928	-35.38801	5.427289E-007	0.0348585	7
	31	11	796.875	6207.421	-4758.397	1	7821.408	-37.47254	5.489896E-007	0.0348553	7
	32	12	627.7902	6662.731	-5495.627	1	8636.776	-39.51687	-1.184581E-006	0.0373288	7
	33	12	505.5147	7125.333	-6298.001	1	9509.74	-41.47311	-1.245016E-006	0.0385887	7
	34	13	397.9953	7572.367	-7318.995	1	10531.31	-44.02522	2.724335E-009	0.036772	7
	35	13	315.5048	8056.966	-8548.445	1	11746.94	-46.69532	-1.479032E-010	0.036706	6
	36	13	252.4038	8526.13	-10010.93	1	13149.66	-49.57955	-3.094957E-010	0.0367073	6
	37	14	198.6229	9040.945	-11976.88	1	15006.14	-52.95207	1.57084E-009	0.0366956	6
	38	14	158.3615	9593.73	-14325.38	1	17241.12	-56.18973	9.945934E-011	0.0366971	6
	39	14	125.558	10216.57	-17331.26	1	20118.42	-59.48117	1.020556E-009	0.0366972	6
	40	15	100.4464	10949.6	-20860.14	1	23559.27	-62.30478	2.455102E-009	0.0366925	6
	41	15	79.00281	11996.35	-25763.84	1	28419.85	-65.03202	2.125611E-009	0.0367029	6
	42	15	63.3446	12459.82	-30976.32	1	33388.32	-68.08818	2.320417E-011	0.0366843	6
	43	16	49.86702	14221.2	-38184.65	1	40746.9	-69.57304	-8.230741E-010	0.0366899	6
	44	16	39.72458	16545.97	-47082.21	1	49904.95	-70.63714	9.449235E-010	0.0366945	6
	45	16	31.6723	19379.88	-57285.71	1	60475.05	-71.30921	1.220545E-009	0.0366975	6
	46	17	24.93351	22701.56	-70521.74	1	74085.6	-72.15619	8.659812E-010	0.0366929	6
	47	17	19.86229	27082.45	-85941.25	1	90107.48	-72.50893	3.159547E-010	0.0366931	6
	48	17	15.83615	35007.32	-104013.4	1	109746.5	-71.39854	3.862313E-009	0.0367041	5
	49	18	12.40079	42365.01	-127025.7	1	133904.2	-71.55567	-9.934029E-010	0.0366945	5
	50	18	9.93114	50651.69	-153316.4	1	161466.7	-71.71781	7.73504E-010	0.036699	5
	51	19	7.944915	62451.42	-183121.1	1	193477.5	-71.16862	8.230161E-010	0.0366908	5
	52	19	6.317385	78046.78	-219394.5	1	232863.2	-70.41764	7.712618E-010	0.036686	5
	53	20	5.008013	97950.8	-262374.5	1	280062	-69.52817	6.889961E-010	0.036694	5
	54	21	3.945707	123240.9	-314701.8	1	337972.8	-68.61411	3.975177E-010	0.0366932	5
	55	23	3.158693	152692.1	-370665.7	1	400883.9	-67.61127	5.646864E-010	0.0366694	5
	56	24	2.504006	189837.7	-438464.1	1	477796.1	-66.58929	6.325139E-010	0.0366832	5
	57	25	1.998082	233946.1	-512535.7	1	563403.6	-65.46574	4.233101E-010	0.0366543	5
	58	27	1.584686	287409.7	-602242.1	1	667307.9	-64.48799	3.863575E-010	0.0366382	5
	59	29	1.266892	348725.4	-697878.3	1	780156.1	-63.44899	3.863373E-010	0.0366672	5
	60	31	0.999041	426712.4	-814441.6	1	919455.6	-62.3485	3.380481E-010	0.0367017	5
