EXPLAIN
TAG	EISPOT
TITLE	LABEL	Potentiostatic EIS	Test &Identifier
DATE	LABEL	11/22/2019	Date
TIME	LABEL	10:12:43	Time
NOTES	NOTES	4	&Notes...
	
	
	
	
PSTAT	PSTAT	REF600-11020	Potentiostat
VDC	POTEN	0.00000E+000	T	DC &Voltage (V)
FREQINIT	QUANT	1.00000E+006	Initial Fre&q. (Hz)
FREQFINAL	QUANT	1.00000E+000	Final Fre&q. (Hz)
PTSPERDEC	QUANT	1.00000E+001	Points/&decade
VAC	QUANT	2.50000E+001	AC &Voltage (mV rms)
AREA	QUANT	1.00000E-002	&Area (cm^2)
CONDIT	TWOPARAM	T	5.00000E+000	0.00000E+000	Conditionin&g	Time(s)	E(V)
DELAY	TWOPARAM	T	5.00000E+000	0.00000E+000	Init. De&lay	Time(s)	Stab.(mV/s)
SPEED	SELECTOR	0	&Optimize for:
ZGUESS	QUANT	1.00000E+005	E&stimated Z (ohms)
OCVCURVE	TABLE	19
	Pt	T	Vf	Vm	Ach	Over
	#	s	V vs. Ref.	V	V	bits
	0	0.258333	2.46427E-003	2.46427E-003	5.35733E-004	...........
	1	0.516667	2.45947E-003	2.21287E-003	5.28066E-004	...........
	2	0.775	2.43040E-003	1.99687E-003	5.18733E-004	...........
	3	1.03333	2.34987E-003	1.80382E-003	5.25700E-004	...........
	4	1.29167	2.20996E-003	1.63165E-003	5.21666E-004	...........
	5	1.55	2.03127E-003	1.48331E-003	5.29533E-004	...........
	6	1.80833	1.84312E-003	1.33142E-003	5.23366E-004	...........
	7	2.06667	1.66444E-003	1.19599E-003	5.21600E-004	...........
	8	2.325	1.50088E-003	1.06785E-003	5.26966E-004	...........
	9	2.58333	1.35123E-003	9.54233E-004	5.26233E-004	...........
	10	2.84167	1.21331E-003	8.40026E-004	5.29866E-004	...........
	11	3.1	1.08534E-003	7.29973E-004	5.29566E-004	...........
	12	3.35833	9.65340E-004	6.28215E-004	5.31000E-004	...........
	13	3.61667	8.51630E-004	5.34265E-004	5.29633E-004	...........
	14	3.875	7.43460E-004	4.35122E-004	5.32433E-004	...........
	15	4.13333	6.40436E-004	3.48585E-004	5.30700E-004	...........
	16	4.39167	5.41927E-004	2.58667E-004	5.30300E-004	...........
	17	4.65	4.47443E-004	1.80299E-004	5.24300E-004	...........
	18	4.90833	3.56837E-004	9.56998E-005	5.21633E-004	...........
EOC	QUANT	0.0003568	Open Circuit (V)
PSTATMODEL	IQUANT	4	Pstat Model
PSTATSECTION	LABEL	REF600-11020	Pstat Section
PSTATSERIALNO	LABEL	11020	Pstat Serial Number
CTRLMODE	IQUANT	1	Control Mode
IESTAB	IQUANT	0	I/E Stability
CASPEED	IQUANT	1	Control Amp Speed
CONVENTION	IQUANT	1	Current Convention
ICHRANGE	IQUANT	2	Ich Range
ICHRANGEMODE	TOGGLE	F	Ich Auto Range
ICHOFFSETENABLE	TOGGLE	T	Ich Offset Enable
ICHOFFSET	QUANT	0	Ich Offset (V)
ICHFILTER	IQUANT	3	Ich Filter
VCHRANGE	IQUANT	2	Vch Range
VCHRANGEMODE	TOGGLE	F	Vch Auto Range
VCHOFFSETENABLE	TOGGLE	T	Vch Offset Enable
VCHOFFSET	QUANT	0	Vch Offset (V)
VCHFILTER	IQUANT	3	Vch Filter
ACHRANGE	IQUANT	2	Ach Range
ACHOFFSETENABLE	TOGGLE	F	Ach Offset Enable
ACHOFFSET	QUANT	0	Ach Offset (V)
ACHFILTER	IQUANT	3	Ach Filter
IERANGELOWERLIMIT	IQUANT	1	I/E Range Lower Limit
IERANGEMODE	TOGGLE	F	I/E AutoRange
IERANGE	IQUANT	3	I/E Range
POSFEEDENABLE	TOGGLE	F	Positive Feedback IR Comp
POSFEEDRESISTANCE	QUANT	0	Positive Feedback Resistance (ohm)
ACHSELECT	IQUANT	0	Ach Select
CABLEID	IQUANT	14	Cable ID
DCCALDATE	LABEL	8/19/2019	DC Calibration Date
ACCALDATE	LABEL	8/19/2019	AC Calibration Date
THERMOSELECT	IQUANT	1	Thermo Select
FRAMEWORKVERSION	QUANT	6.33	Framework Version
INSTRUMENTVERSION	LABEL	3.50	Instrument Version
ZCURVE	TABLE
	Pt	Time	Freq	Zreal	Zimag	Zsig	Zmod	Zphz	Idc	Vdc	IERange
	#	s	Hz	ohm	ohm	V	ohm	°	A	V	#
	0	1	1000078	2369.499	-1386.608	1	2745.397	-30.33575	-8.577118E-006	0.0036937	8
	1	2	794390.6	2627.883	-1280.326	1	2923.184	-25.97573	5.447744E-006	0.0024655	8
	2	2	630984.4	2850.129	-1163.274	1	3078.383	-22.20272	-1.556615E-006	0.0016236	8
	3	2	501234.4	3019.156	-1017.139	1	3185.887	-18.61842	6.76666E-006	0.001088	8
	4	3	398109.4	3149.789	-906.3765	1	3277.604	-16.05359	-1.318397E-006	0.0015275	8
	5	3	316265.6	3249.179	-789.2218	1	3343.656	-13.65268	-7.810482E-007	0.0022471	8
	6	3	251203.1	3330.801	-691.9066	1	3401.907	-11.73514	6.985858E-006	0.0010459	8
	7	4	199546.9	3411.477	-616.474	1	3466.729	-10.24315	5.731082E-006	0.0010868	8
	8	4	158578.1	3485.052	-576.1058	1	3532.348	-9.386545	-2.792563E-006	0.0023443	8
	9	4	125953.1	3524.099	-448.6042	1	3552.537	-7.254514	1.713002E-006	-0.0037178	7
	10	5	100078.1	3550.927	-415.4082	1	3575.143	-6.672465	-2.859445E-007	0.000912	7
	11	5	79453.13	3583.431	-405.5147	1	3606.303	-6.456342	-3.027795E-007	0.0031297	7
	12	5	63140.62	3620.182	-405.4154	1	3642.812	-6.389791	-7.104148E-007	0.001585	7
	13	5	50203.12	3657.932	-418.4819	1	3681.792	-6.526489	1.085489E-006	0.0006646	7
	14	6	39890.62	3695.559	-434.4261	1	3721.006	-6.704553	8.130194E-007	0.0015743	7
	15	6	31640.63	3738.718	-464.4479	1	3767.456	-7.081376	9.985822E-007	0.0010872	7
	16	6	25171.88	3784.841	-501.9148	1	3817.976	-7.554024	1.076555E-006	0.0003334	7
	17	7	20015.62	3833.69	-549.431	1	3872.861	-8.155892	5.815087E-008	0.002732	7
	18	7	15890.62	3892.031	-609.6418	1	3939.489	-8.902385	1.077677E-006	0.0003307	7
	19	7	12609.37	3952.089	-678.7334	1	4009.948	-9.74494	1.301092E-007	0.0003913	7
	20	8	10078.13	4017.647	-758.9191	1	4088.697	-10.69693	5.957351E-007	0.001985	7
	21	8	8015.625	4091.442	-855.1621	1	4179.857	-11.80557	-1.222533E-006	0.0031991	7
	22	8	6328.125	4176.4	-975.185	1	4288.741	-13.14302	1.296184E-007	0.0003838	7
	23	9	5015.625	4262.036	-1111.674	1	4404.63	-14.61884	-9.001938E-007	0.0034244	7
	24	9	3984.375	4358.187	-1277.385	1	4541.531	-16.33587	1.319953E-007	0.0003854	7
	25	9	3170.956	4458.436	-1471.04	1	4694.849	-18.26007	-1.030111E-006	0.0022483	7
	26	10	2527.573	4565.035	-1706.012	1	4873.399	-20.49136	-1.095047E-006	0.0033585	7
	27	10	1976.103	4693.066	-2023.275	1	5110.627	-23.32184	9.971569E-007	0.0010817	7
	28	10	1577.524	4814.221	-2367.188	1	5364.727	-26.18368	-6.290771E-007	0.003348	7
	29	11	1265.625	4963.487	-2785.434	1	5691.647	-29.30048	-1.206121E-006	0.002816	7
	30	11	998.264	5136.25	-3335.878	1	6124.472	-33.00281	3.764515E-007	0.0022945	7
	31	11	796.875	5321.09	-3978.779	1	6644.146	-36.78684	7.832012E-007	3.215511E-006	7
	32	12	627.7902	5548.118	-4800.713	1	7336.788	-40.8692	6.370111E-008	0.0027247	7
	33	12	505.5147	5783.88	-5720.215	1	8134.749	-44.68292	8.141797E-007	0.0015549	7
	34	12	397.9953	6098.959	-6955.474	1	9250.725	-48.75385	3.354806E-009	0.0017785	7
	35	13	315.5048	6458.537	-8425.743	1	10616.3	-52.52896	6.206174E-010	0.001715	6
	36	13	252.4038	6861.977	-10155.75	1	12256.67	-55.95414	1.396563E-011	0.0017231	6
	37	13	198.6229	7378.742	-12436.01	1	14460.3	-59.31779	1.028188E-009	0.0017159	6
	38	14	158.3615	7968.878	-15080.54	1	17056.54	-62.14707	1.012524E-009	0.0017149	6
	39	14	125.558	8703.791	-18419.88	1	20372.72	-64.70825	1.02681E-009	0.0017116	6
	40	14	100.4464	9570.97	-22326.33	1	24291.32	-66.79589	-7.370496E-010	0.0017145	6
	41	14	79.00281	10739.05	-27494.38	1	29517.26	-68.66484	1.190857E-009	0.0017149	6
	42	15	63.3446	12453.6	-33500.25	1	35740.16	-69.60756	-2.671427E-010	0.0017158	6
	43	15	49.86702	14360.9	-41232.48	1	43661.8	-70.79723	-4.796669E-010	0.0017073	6
	44	16	39.72458	16600.02	-49954.83	1	52640.72	-71.61832	4.98189E-010	0.0017135	6
	45	16	31.6723	19582.83	-60634.19	1	63718.07	-72.10126	3.077072E-010	0.0017083	6
	46	16	24.93351	24091.27	-74535.79	1	78332.45	-72.08826	5.003235E-011	0.0017139	6
	47	17	19.86229	29652.42	-90172.87	1	94923.19	-71.79708	2.216809E-011	0.0017063	6
	48	17	15.83615	36601.33	-107557	1	113614.1	-71.20671	-1.088887E-009	0.0017192	5
	49	17	12.40079	46341.43	-131906.7	1	139810.3	-70.64262	1.238396E-009	0.0017163	5
	50	18	9.93114	58580.54	-157653.1	1	168184.9	-69.616	4.241131E-010	0.0017141	5
	51	18	7.944915	73404.44	-187430.2	1	201291.6	-68.61289	-3.587929E-010	0.0017214	5
	52	19	6.317385	92845.19	-222308.3	1	240917.5	-67.33256	-3.337682E-010	0.0017357	5
	53	19	5.008013	118067.2	-262528.6	1	287856.1	-65.78507	-5.090952E-011	0.0017225	5
	54	21	3.945707	150350.7	-308439.4	1	343132.9	-64.0128	1.195814E-010	0.0017082	5
	55	22	3.158693	187073.5	-356422.6	1	402533.9	-62.30663	3.497987E-010	0.0017035	5
	56	24	2.504006	232358.2	-410396.6	1	471609.7	-60.48234	2.780697E-010	0.0017142	5
	57	25	1.998082	284142.8	-466916.2	1	546578.3	-58.67731	4.242944E-011	0.0016652	5
	58	26	1.584686	342530	-528504.8	1	629796.8	-57.05227	4.366966E-011	0.0016903	5
	59	28	1.266892	407367.3	-592047.1	1	718657	-55.46947	1.790631E-010	0.0017217	5
	60	31	0.999041	483186.3	-666678.8	1	823364.9	-54.06667	2.09759E-010	0.0017417	5
