EXPLAIN
TAG	EISPOT
TITLE	LABEL	Potentiostatic EIS	Test &Identifier
DATE	LABEL	11/27/2019	Date
TIME	LABEL	13:44:50	Time
NOTES	NOTES	3	&Notes...
	
	
	
PSTAT	PSTAT	REF600-11020	Potentiostat
VDC	POTEN	0.00000E+000	T	DC &Voltage (V)
FREQINIT	QUANT	1.00000E+006	Initial Fre&q. (Hz)
FREQFINAL	QUANT	1.00000E+000	Final Fre&q. (Hz)
PTSPERDEC	QUANT	1.00000E+001	Points/&decade
VAC	QUANT	2.50000E+001	AC &Voltage (mV rms)
AREA	QUANT	1.00000E-002	&Area (cm^2)
CONDIT	TWOPARAM	T	5.00000E+000	0.00000E+000	Conditionin&g	Time(s)	E(V)
DELAY	TWOPARAM	T	5.00000E+000	0.00000E+000	Init. De&lay	Time(s)	Stab.(mV/s)
SPEED	SELECTOR	0	&Optimize for:
ZGUESS	QUANT	1.00000E+005	E&stimated Z (ohms)
OCVCURVE	TABLE	19
	Pt	T	Vf	Vm	Ach	Over
	#	s	V vs. Ref.	V	V	bits
	0	0.258333	6.15012E-003	6.15012E-003	5.69832E-004	...........
	1	0.516667	6.15313E-003	6.30736E-003	5.69666E-004	...........
	2	0.775	6.17844E-003	6.81603E-003	5.73099E-004	...........
	3	1.03333	6.26998E-003	7.15191E-003	5.71832E-004	...........
	4	1.29167	6.46100E-003	7.25005E-003	5.70499E-004	...........
	5	1.55	6.72594E-003	7.49474E-003	5.69066E-004	...........
	6	1.80833	7.00067E-003	7.63125E-003	5.68166E-004	...........
	7	2.06667	7.23985E-003	7.65508E-003	5.69499E-004	...........
	8	2.325	7.42565E-003	7.61728E-003	5.67666E-004	...........
	9	2.58333	7.54440E-003	7.38915E-003	5.66832E-004	...........
	10	2.84167	7.57805E-003	7.09772E-003	5.63299E-004	...........
	11	3.1	7.52176E-003	7.32589E-003	5.63566E-004	...........
	12	3.35833	7.41818E-003	7.46651E-003	5.65299E-004	...........
	13	3.61667	7.34589E-003	7.50951E-003	5.65032E-004	...........
	14	3.875	7.34859E-003	7.54457E-003	5.72432E-004	...........
	15	4.13333	7.40649E-003	7.64215E-003	5.63066E-004	...........
	16	4.39167	7.48280E-003	7.75349E-003	5.65332E-004	...........
	17	4.65	7.56320E-003	7.85673E-003	5.69132E-004	...........
	18	4.90833	7.64993E-003	7.94689E-003	5.68599E-004	...........
EOC	QUANT	0.0076499	Open Circuit (V)
PSTATMODEL	IQUANT	4	Pstat Model
PSTATSECTION	LABEL	REF600-11020	Pstat Section
PSTATSERIALNO	LABEL	11020	Pstat Serial Number
CTRLMODE	IQUANT	1	Control Mode
IESTAB	IQUANT	0	I/E Stability
CASPEED	IQUANT	1	Control Amp Speed
CONVENTION	IQUANT	1	Current Convention
ICHRANGE	IQUANT	2	Ich Range
ICHRANGEMODE	TOGGLE	F	Ich Auto Range
ICHOFFSETENABLE	TOGGLE	T	Ich Offset Enable
ICHOFFSET	QUANT	0	Ich Offset (V)
ICHFILTER	IQUANT	3	Ich Filter
VCHRANGE	IQUANT	2	Vch Range
VCHRANGEMODE	TOGGLE	F	Vch Auto Range
VCHOFFSETENABLE	TOGGLE	T	Vch Offset Enable
VCHOFFSET	QUANT	0	Vch Offset (V)
VCHFILTER	IQUANT	3	Vch Filter
ACHRANGE	IQUANT	2	Ach Range
ACHOFFSETENABLE	TOGGLE	F	Ach Offset Enable
ACHOFFSET	QUANT	0	Ach Offset (V)
ACHFILTER	IQUANT	3	Ach Filter
IERANGELOWERLIMIT	IQUANT	1	I/E Range Lower Limit
IERANGEMODE	TOGGLE	F	I/E AutoRange
IERANGE	IQUANT	5	I/E Range
POSFEEDENABLE	TOGGLE	F	Positive Feedback IR Comp
POSFEEDRESISTANCE	QUANT	0	Positive Feedback Resistance (ohm)
ACHSELECT	IQUANT	0	Ach Select
CABLEID	IQUANT	14	Cable ID
DCCALDATE	LABEL	8/19/2019	DC Calibration Date
ACCALDATE	LABEL	8/19/2019	AC Calibration Date
THERMOSELECT	IQUANT	1	Thermo Select
FRAMEWORKVERSION	QUANT	6.33	Framework Version
INSTRUMENTVERSION	LABEL	3.50	Instrument Version
ZCURVE	TABLE
	Pt	Time	Freq	Zreal	Zimag	Zsig	Zmod	Zphz	Idc	Vdc	IERange
	#	s	Hz	ohm	ohm	V	ohm	°	A	V	#
	0	1	1000078	2044.502	-1087.523	1	2315.75	-28.00966	8.726776E-006	0.0084925	8
	1	1	794390.6	2235.608	-1012.771	1	2454.313	-24.37138	-8.62252E-006	0.0101697	8
	2	2	630984.4	2397.522	-921.8608	1	2568.646	-21.03203	-3.056688E-006	0.0099562	8
	3	2	501234.4	2531.772	-827.8539	1	2663.684	-18.10702	-3.733705E-007	0.0098693	8
	4	2	398109.4	2639.813	-739.3891	1	2741.406	-15.64711	-2.372647E-006	0.0092889	8
	5	2	316265.6	2730.907	-657.0546	1	2808.839	-13.5282	6.569542E-006	0.0086193	8
	6	3	251203.1	2799.125	-597.2251	1	2862.129	-12.04411	6.07802E-006	0.008624	8
	7	3	199546.9	2864.77	-535.1841	1	2914.332	-10.58178	5.88633E-007	0.0096598	8
	8	3	158578.1	2919.396	-490.766	1	2960.359	-9.5425	-4.135001E-006	0.0096739	8
	9	4	125953.1	2978.067	-415.1112	1	3006.859	-7.935299	-1.934689E-006	0.0099961	7
	10	4	100078.1	3017.427	-396.3402	1	3043.345	-7.482985	-9.338796E-007	0.0106921	7
	11	4	79453.13	3056.724	-384.4417	1	3080.805	-7.168404	-2.368268E-007	0.0104382	7
	12	5	63140.62	3098.535	-382.3763	1	3122.04	-7.035048	3.493984E-007	0.0097101	7
	13	5	50203.12	3141.438	-384.3304	1	3164.86	-6.97503	9.349E-007	0.0083007	7
	14	5	39890.62	3182.914	-388.7581	1	3206.567	-6.963562	3.501328E-007	0.009703	7
	15	6	31640.63	3224.188	-398.9585	1	3248.778	-7.053877	-7.591886E-007	0.010717	7
	16	6	25171.88	3267.588	-415.4859	1	3293.897	-7.246483	-9.123501E-007	0.0097454	7
	17	6	20015.62	3311.644	-438.0996	1	3340.496	-7.535939	-1.060176E-006	0.010236	7
	18	7	15890.62	3358.877	-471.5482	1	3391.815	-7.99145	7.261107E-007	0.0090599	7
	19	7	12609.37	3404.038	-509.0768	1	3441.894	-8.505596	3.52616E-007	0.0097065	7
	20	7	10078.13	3453.002	-566.2545	1	3499.124	-9.312988	9.42848E-007	0.0082863	7
	21	8	8015.625	3498.191	-622.0989	1	3553.076	-10.08374	3.998678E-007	0.0078564	7
	22	8	6328.125	3553.294	-700.7883	1	3621.741	-11.15681	6.520474E-007	0.0077601	7
	23	8	5015.625	3604.333	-797.1978	1	3691.441	-12.47176	-9.405008E-007	0.0106892	7
	24	8	3984.375	3663.526	-917.6713	1	3776.71	-14.06259	7.254996E-007	0.0090618	7
	25	9	3170.956	3717.322	-1064.556	1	3866.751	-15.9805	-5.238065E-007	0.0106482	7
	26	9	2527.573	3776.938	-1245.892	1	3977.123	-18.25609	-5.237191E-007	0.010649	7
	27	9	1976.103	3846.115	-1493.927	1	4126.066	-21.22741	-2.371612E-007	0.010434	7
	28	10	1577.524	3926.289	-1779.298	1	4310.644	-24.37887	3.51669E-007	0.0097032	7
	29	10	1265.625	3995.136	-2125.669	1	4525.437	-28.01585	3.499609E-007	0.0097005	7
	30	10	998.264	4091.541	-2588.158	1	4841.412	-32.31594	7.264593E-007	0.0090541	7
	31	11	796.875	4201.358	-3132.294	1	5240.484	-36.70612	8.527801E-008	0.0081106	7
	32	11	627.7902	4340.807	-3840.294	1	5795.728	-41.49905	-9.104391E-007	0.009735	7
	33	11	505.5147	4499.395	-4644.084	1	6466.225	-45.90659	9.427511E-007	0.0082797	7
	34	12	397.9953	4720.201	-5720.127	1	7416.208	-50.47083	2.523278E-010	0.009301	7
	35	12	315.5048	4989.007	-7016.321	1	8609.236	-54.58499	1.31122E-009	0.0093008	7
	36	12	252.4038	5320.429	-8538.525	1	10060.49	-58.07261	-1.03478E-009	0.0093015	7
	37	13	198.6229	5781.698	-10545.37	1	12026.34	-61.26542	2.7024E-010	0.0092324	6
	38	13	158.3615	6342.472	-12868.06	1	14346.22	-63.76201	-1.340438E-010	0.0092329	6
	39	13	125.558	7093.75	-15765.33	1	17287.77	-65.77422	-1.502449E-010	0.0092404	6
	40	14	100.4464	8018.123	-19145.3	1	20756.51	-67.27588	4.731641E-010	0.0092328	6
	41	14	79.00281	9428.888	-23524.91	1	25344.14	-68.15887	-2.561818E-010	0.0092278	6
	42	14	63.3446	10994.58	-28692.18	1	30726.57	-69.03362	-6.693798E-010	0.0092286	6
	43	15	49.86702	13311.51	-34933.21	1	37383.49	-69.14036	-1.505188E-009	0.0092287	6
	44	15	39.72458	16294.54	-41868.08	1	44927.14	-68.73463	-1.15534E-009	0.0092398	6
	45	15	31.6723	20261.54	-50093.13	1	54035.65	-67.97778	-1.110109E-009	0.0092391	6
	46	16	24.93351	25413.28	-60112.52	1	65263.7	-67.08321	6.664141E-010	0.0092307	6
	47	16	19.86229	31758.5	-71072.67	1	77845.53	-65.92274	1.766999E-009	0.0092375	6
	48	16	15.83615	40121.15	-84005.3	1	93094.56	-64.47074	-1.873502E-009	0.0092292	6
	49	16	12.40079	50805.51	-97135.3	1	109619.6	-62.38869	1.088554E-009	0.0092325	5
	50	17	9.93114	61482.58	-112068.3	1	127825.7	-61.25008	-5.394916E-010	0.0092216	5
	51	17	7.944915	73824.32	-127935	1	147707.1	-60.0131	-1.446397E-009	0.0092388	5
	52	18	6.317385	88480.97	-145550.1	1	170334.1	-58.70427	-9.00251E-010	0.009257	5
	53	19	5.008013	104379.2	-165717.3	1	195850	-57.79468	-3.762483E-010	0.0092286	5
	54	20	3.945707	122087.4	-189217.7	1	225185.8	-57.16901	-8.884372E-011	0.0092233	5
	55	21	3.158693	139265.5	-215638.7	1	256700.1	-57.1445	1.122697E-010	0.0092358	5
	56	23	2.504006	159141.3	-247826.7	1	294523.4	-57.29356	-2.035119E-010	0.0092324	5
	57	24	1.998082	179897.9	-285622.9	1	337555.5	-57.79547	-2.550936E-010	0.0091988	5
	58	26	1.584686	204691	-331258.9	1	389398.1	-58.28732	-2.14427E-011	0.0092705	5
	59	28	1.266892	231072	-385755	1	449667.8	-59.07787	6.479255E-012	0.0092649	5
	60	30	0.999041	262945.7	-453960.4	1	524614.6	-59.91946	-3.579732E-011	0.009239	5
