EXPLAIN
TAG	EISPOT
TITLE	LABEL	Potentiostatic EIS	Test &Identifier
DATE	LABEL	10/28/2019	Date
TIME	LABEL	9:50:13	Time
NOTES	NOTES	1	&Notes...
	
PSTAT	PSTAT	REF600-11020	Potentiostat
VDC	POTEN	0.00000E+000	T	DC &Voltage (V)
FREQINIT	QUANT	1.00000E+006	Initial Fre&q. (Hz)
FREQFINAL	QUANT	1.00000E+000	Final Fre&q. (Hz)
PTSPERDEC	QUANT	1.00000E+001	Points/&decade
VAC	QUANT	2.50000E+001	AC &Voltage (mV rms)
AREA	QUANT	1.00000E-002	&Area (cm^2)
CONDIT	TWOPARAM	T	5.00000E+000	0.00000E+000	Conditionin&g	Time(s)	E(V)
DELAY	TWOPARAM	T	5.00000E+000	0.00000E+000	Init. De&lay	Time(s)	Stab.(mV/s)
SPEED	SELECTOR	1	&Optimize for:
ZGUESS	QUANT	1.00000E+005	E&stimated Z (ohms)
OCVCURVE	TABLE	19
	Pt	T	Vf	Vm	Ach	Over
	#	s	V vs. Ref.	V	V	bits
	0	0.258333	7.50939E-003	7.50939E-003	5.64499E-004	...........
	1	0.516667	7.53116E-003	8.64895E-003	5.64166E-004	...........
	2	0.775	7.63778E-003	8.31292E-003	5.67166E-004	...........
	3	1.03333	7.84465E-003	7.73666E-003	5.64332E-004	...........
	4	1.29167	8.02288E-003	7.36147E-003	5.62332E-004	...........
	5	1.55	7.99633E-003	6.12183E-003	5.59999E-004	...........
	6	1.80833	7.70034E-003	6.43647E-003	5.66966E-004	...........
	7	2.06667	7.23777E-003	6.62973E-003	5.66299E-004	...........
	8	2.325	6.82061E-003	6.66770E-003	5.61532E-004	...........
	9	2.58333	6.59984E-003	6.71360E-003	5.62432E-004	...........
	10	2.84167	6.56482E-003	6.84698E-003	5.66166E-004	...........
	11	3.1	6.62506E-003	6.82060E-003	5.62166E-004	...........
	12	3.35833	6.70350E-003	6.62087E-003	5.60299E-004	...........
	13	3.61667	6.75447E-003	6.90109E-003	5.66332E-004	...........
	14	3.875	6.78124E-003	7.25302E-003	5.70166E-004	...........
	15	4.13333	6.83765E-003	7.35588E-003	5.62466E-004	...........
	16	4.39167	6.96054E-003	7.35536E-003	5.63532E-004	...........
	17	4.65	7.11711E-003	7.31679E-003	5.65099E-004	...........
	18	4.90833	7.24518E-003	7.35355E-003	5.66999E-004	...........
EOC	QUANT	0.0072452	Open Circuit (V)
PSTATMODEL	IQUANT	4	Pstat Model
PSTATSECTION	LABEL	REF600-11020	Pstat Section
PSTATSERIALNO	LABEL	11020	Pstat Serial Number
CTRLMODE	IQUANT	1	Control Mode
IESTAB	IQUANT	0	I/E Stability
CASPEED	IQUANT	1	Control Amp Speed
CONVENTION	IQUANT	1	Current Convention
ICHRANGE	IQUANT	2	Ich Range
ICHRANGEMODE	TOGGLE	F	Ich Auto Range
ICHOFFSETENABLE	TOGGLE	T	Ich Offset Enable
ICHOFFSET	QUANT	0	Ich Offset (V)
ICHFILTER	IQUANT	3	Ich Filter
VCHRANGE	IQUANT	2	Vch Range
VCHRANGEMODE	TOGGLE	F	Vch Auto Range
VCHOFFSETENABLE	TOGGLE	T	Vch Offset Enable
VCHOFFSET	QUANT	0	Vch Offset (V)
VCHFILTER	IQUANT	3	Vch Filter
ACHRANGE	IQUANT	2	Ach Range
ACHOFFSETENABLE	TOGGLE	F	Ach Offset Enable
ACHOFFSET	QUANT	0	Ach Offset (V)
ACHFILTER	IQUANT	3	Ach Filter
IERANGELOWERLIMIT	IQUANT	1	I/E Range Lower Limit
IERANGEMODE	TOGGLE	F	I/E AutoRange
IERANGE	IQUANT	5	I/E Range
POSFEEDENABLE	TOGGLE	F	Positive Feedback IR Comp
POSFEEDRESISTANCE	QUANT	0	Positive Feedback Resistance (ohm)
ACHSELECT	IQUANT	0	Ach Select
CABLEID	IQUANT	14	Cable ID
DCCALDATE	LABEL	8/19/2019	DC Calibration Date
ACCALDATE	LABEL	8/19/2019	AC Calibration Date
THERMOSELECT	IQUANT	1	Thermo Select
FRAMEWORKVERSION	QUANT	6.33	Framework Version
INSTRUMENTVERSION	LABEL	3.50	Instrument Version
ZCURVE	TABLE
	Pt	Time	Freq	Zreal	Zimag	Zsig	Zmod	Zphz	Idc	Vdc	IERange
	#	s	Hz	ohm	ohm	V	ohm	°	A	V	#
	0	2	1000078	2544.374	-1378.924	1	2894.006	-28.45549	2.77405E-006	0.0094813	8
	1	3	794390.6	2804.837	-1272.914	1	3080.166	-24.40989	-4.223843E-007	0.0091528	8
	2	5	630984.4	3001.076	-1126.286	1	3205.461	-20.57081	1.171053E-006	0.0090034	8
	3	6	501234.4	3168.903	-987.01	1	3319.056	-17.30011	-5.83103E-007	0.0087532	8
	4	8	398109.4	3279.684	-856.7252	1	3389.735	-14.63977	1.062291E-006	0.008583	8
	5	9	316265.6	3386.352	-743.509	1	3467.014	-12.3834	8.650415E-007	0.0088099	8
	6	11	251203.1	3446.851	-636.7858	1	3505.179	-10.46705	6.453143E-007	0.0087943	8
	7	12	199546.9	3499.539	-560.1349	1	3544.083	-9.093608	-1.048394E-006	0.0092112	8
	8	14	158578.1	3564.017	-544.3872	1	3605.354	-8.684541	6.275355E-007	0.0088106	8
	9	15	125953.1	3613.98	-389.9314	1	3634.955	-6.158121	-1.469958E-007	0.0086409	7
	10	16	100078.1	3627.074	-362.5269	1	3645.147	-5.707769	-4.376925E-008	0.0088877	7
	11	18	79453.13	3653.132	-354.6137	1	3670.303	-5.544396	-5.876502E-008	0.0088494	7
	12	19	63140.62	3682.102	-355.9858	1	3699.271	-5.522196	-4.534603E-008	0.0088778	7
	13	20	50203.12	3714.146	-366.1935	1	3732.154	-5.630837	-5.676322E-008	0.0088404	7
	14	22	39890.62	3746.874	-384.1748	1	3766.518	-5.854198	8.549211E-008	0.0085871	7
	15	23	31640.63	3783.215	-409.5586	1	3805.319	-6.178594	1.166798E-008	0.0088697	7
	16	24	25171.88	3823.867	-444.2021	1	3849.582	-6.626103	-6.789198E-009	0.00878	7
	17	26	20015.62	3860.255	-476.5547	1	3889.56	-7.037649	4.639771E-008	0.0087126	7
	18	27	15890.62	3914.782	-541.9521	1	3952.117	-7.881781	4.937937E-008	0.0086126	7
	19	29	12609.37	3967.25	-607.4481	1	4013.485	-8.705272	-6.820384E-008	0.0088902	7
	20	30	10078.13	4021.509	-683.0338	1	4079.102	-9.63942	8.945673E-008	0.0085895	7
	21	31	8015.625	4073.959	-780.2158	1	4147.997	-10.84161	-5.621158E-008	0.0088388	7
	22	33	6328.125	4154.318	-887.7756	1	4248.118	-12.06264	-4.357547E-008	0.0088709	7
	23	34	5015.625	4228.403	-1023.994	1	4350.627	-13.61325	1.030211E-007	0.008677	7
	24	35	3984.375	4309.405	-1185.423	1	4469.474	-15.38041	-7.054167E-008	0.0089803	7
	25	37	3170.956	4392.144	-1380.551	1	4604.003	-17.44913	-6.963373E-008	0.0089802	7
	26	38	2527.573	4484.394	-1614.194	1	4766.069	-19.79675	1.036399E-007	0.0086775	7
	27	39	1976.103	4596.426	-1927.118	1	4984.066	-22.74657	-6.953526E-008	0.0089843	7
	28	41	1577.524	4740.234	-2330.863	1	5282.304	-26.18422	-2.396188E-008	0.0088079	7
	29	42	1265.625	4839.868	-2693.091	1	5538.688	-29.09327	-6.972122E-008	0.0088807	7
	30	44	998.264	4992.003	-3238.518	1	5950.47	-32.97313	7.328002E-008	0.0086458	7
	31	45	796.875	5157.141	-3876.653	1	6451.708	-36.9324	-7.514217E-008	0.0088522	7
	32	46	627.7902	5356.203	-4700.161	1	7126.039	-41.26751	4.620431E-008	0.0087078	7
	33	48	505.5147	5563.219	-5618.433	1	7906.718	-45.28292	-4.596593E-009	0.008772	7
	34	49	397.9953	5818.417	-6866.875	1	9000.441	-49.72484	3.96602E-009	0.0087865	7
	35	50	315.5048	6116.823	-8371.278	1	10367.92	-53.84472	9.420611E-010	0.0087229	6
	36	52	252.4038	6454.223	-10154.98	1	12032.48	-57.5611	2.383987E-010	0.0087202	6
	37	53	198.6229	6895.322	-12530.83	1	14302.7	-61.17739	5.02335E-010	0.0087242	6
	38	55	158.3615	7426.19	-15309.66	1	17015.7	-64.12357	8.66976E-010	0.0087184	6
	39	56	125.558	8101.619	-18815.74	1	20485.81	-66.70442	4.215231E-010	0.0087232	6
	40	57	100.4464	8936.238	-22983.07	1	24659.23	-68.75301	1.306066E-009	0.0087215	6
	41	59	79.00281	10167.2	-28486.11	1	30246.16	-70.35762	1.616691E-009	0.0087223	6
	42	60	63.3446	11339.64	-34928.16	1	36722.8	-72.01366	-1.749431E-010	0.0087192	6
	43	61	49.86702	13545.21	-42316.65	1	44431.65	-72.25056	-4.835775E-010	0.0087186	6
	44	63	39.72458	16192.32	-51940.18	1	54405.64	-72.68517	4.798289E-010	0.0087205	6
	45	64	31.6723	19613.72	-63484.8	1	66445.6	-72.83139	1.45205E-009	0.0087207	6
	46	66	24.93351	24264.74	-77446.7	1	81158.91	-72.60376	2.106471E-010	0.0087176	6
	47	67	19.86229	30118.04	-93797.64	1	98514.4	-72.19839	7.840631E-010	0.0087228	6
	48	68	15.83615	38621.46	-113020.7	1	119437.4	-71.13367	-1.029119E-009	0.0087235	5
	49	70	12.40079	49158.84	-136380.7	1	144969.9	-70.17814	-1.148905E-009	0.0087251	5
	50	71	9.93114	59871.2	-162047.1	1	172753.6	-69.72234	8.549293E-010	0.0087177	5
	51	73	7.944915	74618.94	-193858.9	1	207724	-68.94761	4.69805E-010	0.0087207	5
	52	74	6.317385	93299.24	-227897.4	1	246255.9	-67.73622	3.455763E-010	0.0087127	5
	53	77	5.008013	116842.5	-269580.2	1	293812.3	-66.56693	1.241357E-010	0.0087271	5
	54	79	3.945707	146247	-318229.1	1	350225.6	-65.31814	-8.613658E-011	0.0087177	5
	55	82	3.158693	179529.3	-370231	1	411463	-64.13072	2.270236E-010	0.0087339	5
	56	85	2.504006	220970.1	-431848.1	1	485098.5	-62.90186	-2.325107E-010	0.008724	5
	57	88	1.998082	268475.3	-497878.4	1	565651.8	-61.66473	8.349788E-011	0.0086829	5
	58	91	1.584686	324512.5	-574485.4	1	659804.4	-60.53897	-5.102767E-011	0.0087341	5
	59	95	1.266892	389451.8	-658455.4	1	765007.4	-59.39727	-1.353573E-012	0.0086855	5
	60	99	0.999041	468501.1	-756447.1	1	889778.3	-58.22824	1.107673E-010	0.0087696	5
