EXPLAIN
TAG	EISPOT
TITLE	LABEL	Potentiostatic IDE	Test &Identifier
DATE	LABEL	9/4/2019	Date
TIME	LABEL	10:40:49	Time
NOTES	NOTES	1	&Notes...
	
PSTAT	PSTAT	REF600-11020	Potentiostat
VDC	POTEN	0.00000E+000	T	DC &Voltage (V)
FREQINIT	QUANT	1.00000E+006	Initial Fre&q. (Hz)
FREQFINAL	QUANT	1.00000E+000	Final Fre&q. (Hz)
PTSPERDEC	QUANT	1.00000E+001	Points/&decade
VAC	QUANT	2.50000E+001	AC &Voltage (mV rms)
AREA	QUANT	1.00000E-002	&Area (cm^2)
CONDIT	TWOPARAM	T	5.00000E+000	0.00000E+000	Conditionin&g	Time(s)	E(V)
DELAY	TWOPARAM	T	5.00000E+000	0.00000E+000	Init. De&lay	Time(s)	Stab.(mV/s)
SPEED	SELECTOR	1	&Optimize for:
ZGUESS	QUANT	1.00000E+007	E&stimated Z (ohms)
OCVCURVE	TABLE	19
	Pt	T	Vf	Vm	Ach	Over
	#	s	V vs. Ref.	V	V	bits
	0	0.258333	6.90978E-002	6.90978E-002	5.81274E-004	...........
	1	0.516667	6.91113E-002	6.98039E-002	5.81907E-004	...........
	2	0.775	6.91957E-002	7.05548E-002	5.76241E-004	...........
	3	1.03333	6.94397E-002	7.12800E-002	5.78241E-004	...........
	4	1.29167	6.98876E-002	7.20274E-002	5.76841E-004	...........
	5	1.55	7.05017E-002	7.27362E-002	5.76941E-004	...........
	6	1.80833	7.12062E-002	7.34717E-002	5.78241E-004	...........
	7	2.06667	7.19412E-002	7.41793E-002	5.84007E-004	...........
	8	2.325	7.26760E-002	7.48616E-002	5.78874E-004	...........
	9	2.58333	7.33993E-002	7.55279E-002	5.78541E-004	...........
	10	2.84167	7.41057E-002	7.61637E-002	5.77241E-004	...........
	11	3.1	7.47923E-002	7.67903E-002	5.74407E-004	...........
	12	3.35833	7.54574E-002	7.73777E-002	5.80141E-004	...........
	13	3.61667	7.61004E-002	7.79637E-002	5.78674E-004	...........
	14	3.875	7.67213E-002	7.85084E-002	5.78741E-004	...........
	15	4.13333	7.73206E-002	7.90619E-002	5.74041E-004	...........
	16	4.39167	7.78993E-002	7.95680E-002	5.74907E-004	...........
	17	4.65	7.84583E-002	8.00736E-002	5.75941E-004	...........
	18	4.90833	7.89979E-002	8.05542E-002	5.76341E-004	...........
EOC	QUANT	0.0789979	Open Circuit (V)
PSTATMODEL	IQUANT	4	Pstat Model
PSTATSECTION	LABEL	REF600-11020	Pstat Section
PSTATSERIALNO	LABEL	11020	Pstat Serial Number
CTRLMODE	IQUANT	1	Control Mode
IESTAB	IQUANT	0	I/E Stability
CASPEED	IQUANT	1	Control Amp Speed
CONVENTION	IQUANT	1	Current Convention
ICHRANGE	IQUANT	2	Ich Range
ICHRANGEMODE	TOGGLE	F	Ich Auto Range
ICHOFFSETENABLE	TOGGLE	T	Ich Offset Enable
ICHOFFSET	QUANT	0	Ich Offset (V)
ICHFILTER	IQUANT	3	Ich Filter
VCHRANGE	IQUANT	2	Vch Range
VCHRANGEMODE	TOGGLE	F	Vch Auto Range
VCHOFFSETENABLE	TOGGLE	T	Vch Offset Enable
VCHOFFSET	QUANT	0	Vch Offset (V)
VCHFILTER	IQUANT	3	Vch Filter
ACHRANGE	IQUANT	2	Ach Range
ACHOFFSETENABLE	TOGGLE	F	Ach Offset Enable
ACHOFFSET	QUANT	0	Ach Offset (V)
ACHFILTER	IQUANT	2	Ach Filter
IERANGELOWERLIMIT	IQUANT	1	I/E Range Lower Limit
IERANGEMODE	TOGGLE	F	I/E AutoRange
IERANGE	IQUANT	4	I/E Range
POSFEEDENABLE	TOGGLE	F	Positive Feedback IR Comp
POSFEEDRESISTANCE	QUANT	0	Positive Feedback Resistance (ohm)
ACHSELECT	IQUANT	0	Ach Select
CABLEID	IQUANT	14	Cable ID
DCCALDATE	LABEL	8/19/2019	DC Calibration Date
ACCALDATE	LABEL	8/19/2019	AC Calibration Date
THERMOSELECT	IQUANT	1	Thermo Select
FRAMEWORKVERSION	QUANT	6.33	Framework Version
INSTRUMENTVERSION	LABEL	3.50	Instrument Version
ZCURVE	TABLE
	Pt	Time	Freq	Zreal	Zimag	Zsig	Zmod	Zphz	Idc	Vdc	IERange
	#	s	Hz	ohm	ohm	V	ohm	°	A	V	#
	0	2	1000078	2574.874	-1918.481	1	3211.004	-36.68896	1.042216E-005	0.0806362	8
	1	4	794390.6	2901.948	-1803.405	1	3416.661	-31.85873	8.628919E-006	0.0805955	8
	2	5	630984.4	3215.278	-1693.568	1	3634.031	-27.77691	9.183931E-006	0.0804387	8
	3	7	501234.4	3468.142	-1565.83	1	3805.238	-24.29869	1.100806E-005	0.0799624	8
	4	8	398109.4	3674.725	-1428.277	1	3942.534	-21.23991	8.902789E-006	0.0803509	8
	5	10	316265.6	3839.785	-1309.305	1	4056.875	-18.82856	1.022299E-005	0.0800129	8
	6	11	251203.1	4001.001	-1269.816	1	4197.671	-17.60811	1.250544E-005	0.0796643	8
	7	13	199546.9	4094.196	-1167.146	1	4257.308	-15.91144	1.165704E-005	0.079775	8
	8	14	158578.1	4185.886	-1146.127	1	4339.959	-15.31271	9.029888E-006	0.08031	8
	9	16	125953.1	4300.814	-1146.671	1	4451.051	-14.92877	4.412217E-007	0.081001	7
	10	17	100078.1	4386.363	-1171.964	1	4540.229	-14.95906	9.158412E-007	0.0804008	7
	11	19	79453.13	4488.767	-1247.444	1	4658.878	-15.5308	9.429199E-007	0.0802573	7
	12	20	63140.62	4591.499	-1353.395	1	4786.809	-16.42346	9.105264E-007	0.0803394	7
	13	21	50203.12	4705.715	-1493.845	1	4937.138	-17.61222	9.011704E-007	0.0803637	7
	14	23	39890.62	4831.518	-1673.622	1	5113.177	-19.10592	9.654636E-007	0.0802186	7
	15	24	31640.63	4974.332	-1909.502	1	5328.243	-21.00035	9.967038E-007	0.0802052	7
	16	25	25171.88	5135.104	-2182.252	1	5579.563	-23.02391	9.167069E-007	0.0803088	7
	17	27	20015.62	5321.136	-2522.06	1	5888.572	-25.35955	9.931658E-007	0.0802271	7
	18	28	15890.62	5543.759	-2927.838	1	6269.41	-27.83998	9.460469E-007	0.0803299	7
	19	29	12609.37	5785.42	-3409.012	1	6715.091	-30.50838	9.388228E-007	0.080279	7
	20	31	10078.13	6070.536	-3966.982	1	7251.783	-33.16387	9.191698E-007	0.0802976	7
	21	32	8015.625	6403.348	-4648.586	1	7912.788	-35.97822	9.364531E-007	0.0803079	7
	22	33	6328.125	6796.673	-5476.584	1	8728.56	-38.86097	9.427057E-007	0.0802397	7
	23	35	5015.625	7270.362	-6448.657	1	9718.2	-41.57234	9.173698E-007	0.0803949	7
	24	36	3984.375	7814.254	-7599.815	1	10900.45	-44.20296	9.016825E-007	0.0803524	7
	25	38	3170.956	8454.761	-8908.946	1	12282.19	-46.49836	9.407924E-007	0.0802701	7
	26	39	2527.573	9198.38	-10474.79	1	13940.28	-48.71218	8.754476E-008	0.0803106	6
	27	40	1976.103	10143.04	-12487.73	1	16088.03	-50.9151	9.372896E-008	0.0801345	6
	28	42	1577.524	11169.4	-14693.33	1	18456.68	-52.75906	8.880726E-008	0.080188	6
	29	43	1265.625	12334.41	-17227.58	1	21187.9	-54.39853	9.088535E-008	0.08021	6
	30	44	998.264	13817.54	-20460.75	1	24689.41	-55.96808	8.753739E-008	0.0803111	6
	31	46	796.875	15514	-24052.05	1	28621.41	-57.17725	9.314113E-008	0.08026	6
	32	47	627.7902	17588.86	-28595.84	1	33572.16	-58.40498	9.157194E-008	0.0802851	6
	33	48	505.5147	19845.76	-33433.32	1	38879.83	-59.30697	8.811221E-008	0.0802765	6
	34	50	397.9953	22828.08	-39773.36	1	45858.93	-60.14616	9.365731E-008	0.0798766	6
	35	51	315.5048	26230.35	-47040.75	1	53859.66	-60.85556	9.371043E-008	0.0798742	6
	36	52	252.4038	30124.59	-55264.92	1	62942.05	-61.40546	9.328343E-008	0.0798788	6
	37	54	198.6229	35051.95	-65701.8	1	74467.21	-61.92005	9.35097E-008	0.0798774	6
	38	55	158.3615	40639.85	-77310.59	1	87341.43	-62.27045	9.323882E-008	0.0798722	6
	39	56	125.558	47376.16	-91419.58	1	102966.2	-62.60556	9.341569E-008	0.079874	6
	40	58	100.4464	55453.17	-107288	1	120771.6	-62.66724	9.320588E-008	0.0798758	6
	41	59	79.00281	64618.5	-127768.8	1	143179.7	-63.1722	9.174161E-009	0.079881	5
	42	60	63.3446	76687.4	-152313.6	1	170529.7	-63.27549	9.148576E-009	0.0798745	5
	43	62	49.86702	88058.46	-175446.6	1	196305.4	-63.34746	9.429274E-009	0.0798692	5
	44	63	39.72458	106319.6	-207340.7	1	233010.8	-62.85228	9.34306E-009	0.0798797	5
	45	64	31.6723	125657.3	-243406	1	273927.4	-62.69515	9.146429E-009	0.0798803	5
	46	66	24.93351	148394.3	-287775.1	1	323782.9	-62.72163	9.419962E-009	0.0798825	5
	47	67	19.86229	175155.5	-337938.2	1	380633.3	-62.602	9.180555E-009	0.0798782	5
	48	69	15.83615	211938.3	-397208.4	1	450213.7	-61.91698	8.70206E-009	0.0798771	5
	49	70	12.40079	247124.2	-463965	1	525674.7	-61.95866	9.586E-009	0.0798793	5
	50	71	9.93114	287344.7	-541647.1	1	613146.4	-62.05398	9.535882E-009	0.0798813	5
	51	73	7.944915	342915.9	-632178.6	1	719194.8	-61.52304	9.348976E-008	0.0798738	6
	52	75	6.317385	401465.3	-735140.9	1	837619.5	-61.36076	9.431196E-009	0.0798692	5
	53	77	5.008013	475126.7	-857771	1	980570	-61.01756	9.360583E-009	0.0798717	5
	54	80	3.945707	562037.8	-1006431	1	1152731	-60.81897	9.448124E-009	0.0798844	5
	55	82	3.158693	659861.8	-1168992	1	1342371	-60.55655	8.665503E-010	0.0798714	4
	56	86	2.504006	779629.9	-1361893	1	1569259	-60.21056	9.680994E-010	0.0801551	4
	57	88	1.998082	915009.4	-1577194	1	1823398	-59.87982	8.992115E-010	0.0802022	4
	58	91	1.584686	1077627	-1837759	1	2130408	-59.61345	9.465209E-010	0.0802011	4
	59	95	1.266892	1262241	-2119873	1	2467208	-59.22905	8.743571E-010	0.080186	4
	60	99	0.999041	1492299	-2469301	1	2885204	-58.85374	9.76857E-010	0.0801624	4
