EXPLAIN
TAG	EISPOT
TITLE	LABEL	Potentiostatic EIS	Test &Identifier
DATE	LABEL	10/22/2019	Date
TIME	LABEL	7:47:19	Time
NOTES	NOTES	1	&Notes...
	
PSTAT	PSTAT	REF600-11020	Potentiostat
VDC	POTEN	0.00000E+000	T	DC &Voltage (V)
FREQINIT	QUANT	1.00000E+006	Initial Fre&q. (Hz)
FREQFINAL	QUANT	1.00000E+000	Final Fre&q. (Hz)
PTSPERDEC	QUANT	1.00000E+001	Points/&decade
VAC	QUANT	2.50000E+001	AC &Voltage (mV rms)
AREA	QUANT	1.00000E-002	&Area (cm^2)
CONDIT	TWOPARAM	T	5.00000E+000	0.00000E+000	Conditionin&g	Time(s)	E(V)
DELAY	TWOPARAM	T	5.00000E+000	0.00000E+000	Init. De&lay	Time(s)	Stab.(mV/s)
SPEED	SELECTOR	1	&Optimize for:
ZGUESS	QUANT	1.00000E+005	E&stimated Z (ohms)
OCVCURVE	TABLE	19
	Pt	T	Vf	Vm	Ach	Over
	#	s	V vs. Ref.	V	V	bits
	0	0.258333	3.43423E-002	3.43423E-002	5.53233E-004	...........
	1	0.516667	3.43870E-002	3.66827E-002	5.57566E-004	...........
	2	0.775	3.46592E-002	3.87766E-002	5.54466E-004	...........
	3	1.03333	3.54190E-002	4.06695E-002	5.56799E-004	...........
	4	1.29167	3.67518E-002	4.24057E-002	5.53766E-004	...........
	5	1.55	3.84768E-002	4.40022E-002	5.50599E-004	...........
	6	1.80833	4.03248E-002	4.54400E-002	5.51166E-004	...........
	7	2.06667	4.21081E-002	4.67750E-002	5.47233E-004	...........
	8	2.325	4.37489E-002	4.79973E-002	5.49166E-004	...........
	9	2.58333	4.52390E-002	4.91538E-002	5.50566E-004	...........
	10	2.84167	4.65986E-002	5.02763E-002	5.51399E-004	...........
	11	3.1	4.78550E-002	5.13174E-002	5.47033E-004	...........
	12	3.35833	4.90312E-002	5.22763E-002	5.54266E-004	...........
	13	3.61667	5.01386E-002	5.31682E-002	5.49666E-004	...........
	14	3.875	5.11791E-002	5.40417E-002	5.52166E-004	...........
	15	4.13333	5.21544E-002	5.48304E-002	5.53433E-004	...........
	16	4.39167	5.30697E-002	5.56074E-002	5.45533E-004	...........
	17	4.65	5.39313E-002	5.63287E-002	5.40199E-004	...........
	18	4.90833	5.47447E-002	5.70016E-002	5.42333E-004	...........
EOC	QUANT	0.0547447	Open Circuit (V)
PSTATMODEL	IQUANT	4	Pstat Model
PSTATSECTION	LABEL	REF600-11020	Pstat Section
PSTATSERIALNO	LABEL	11020	Pstat Serial Number
CTRLMODE	IQUANT	1	Control Mode
IESTAB	IQUANT	0	I/E Stability
CASPEED	IQUANT	1	Control Amp Speed
CONVENTION	IQUANT	1	Current Convention
ICHRANGE	IQUANT	2	Ich Range
ICHRANGEMODE	TOGGLE	F	Ich Auto Range
ICHOFFSETENABLE	TOGGLE	T	Ich Offset Enable
ICHOFFSET	QUANT	0	Ich Offset (V)
ICHFILTER	IQUANT	3	Ich Filter
VCHRANGE	IQUANT	2	Vch Range
VCHRANGEMODE	TOGGLE	F	Vch Auto Range
VCHOFFSETENABLE	TOGGLE	T	Vch Offset Enable
VCHOFFSET	QUANT	0	Vch Offset (V)
VCHFILTER	IQUANT	3	Vch Filter
ACHRANGE	IQUANT	2	Ach Range
ACHOFFSETENABLE	TOGGLE	F	Ach Offset Enable
ACHOFFSET	QUANT	0	Ach Offset (V)
ACHFILTER	IQUANT	3	Ach Filter
IERANGELOWERLIMIT	IQUANT	1	I/E Range Lower Limit
IERANGEMODE	TOGGLE	F	I/E AutoRange
IERANGE	IQUANT	6	I/E Range
POSFEEDENABLE	TOGGLE	F	Positive Feedback IR Comp
POSFEEDRESISTANCE	QUANT	0	Positive Feedback Resistance (ohm)
ACHSELECT	IQUANT	0	Ach Select
CABLEID	IQUANT	14	Cable ID
DCCALDATE	LABEL	8/19/2019	DC Calibration Date
ACCALDATE	LABEL	8/19/2019	AC Calibration Date
THERMOSELECT	IQUANT	1	Thermo Select
FRAMEWORKVERSION	QUANT	6.33	Framework Version
INSTRUMENTVERSION	LABEL	3.50	Instrument Version
ZCURVE	TABLE
	Pt	Time	Freq	Zreal	Zimag	Zsig	Zmod	Zphz	Idc	Vdc	IERange
	#	s	Hz	ohm	ohm	V	ohm	°	A	V	#
	0	1	1000078	1941.265	-699.0948	1	2063.309	-19.80513	-1.280042E-006	0.0577119	8
	1	3	794390.6	2038.413	-617.2303	1	2129.812	-16.84629	5.569083E-006	0.0554844	8
	2	4	630984.4	2120.626	-534.0541	1	2186.84	-14.13531	1.623632E-006	0.0558979	8
	3	5	501234.4	2181.849	-465.4062	1	2230.934	-12.0412	-3.581388E-006	0.0570913	8
	4	7	398109.4	2225.706	-399.1062	1	2261.206	-10.16605	-4.215476E-007	0.0566033	8
	5	8	316265.6	2261.676	-341.8607	1	2287.367	-8.595402	-1.570601E-006	0.0568328	8
	6	10	251203.1	2286.687	-305.1619	1	2306.959	-7.601297	-2.923245E-006	0.0569257	8
	7	11	199546.9	2313.184	-278.4508	1	2329.883	-6.863986	-2.826332E-006	0.0569082	8
	8	12	158578.1	2335.561	-252.4456	1	2349.164	-6.169024	-1.487869E-006	0.0568114	8
	9	14	125953.1	2365.094	-207.1168	1	2374.145	-5.004759	-6.061504E-007	0.057202	7
	10	15	100078.1	2381.117	-200.6202	1	2389.554	-4.81606	-2.347458E-008	0.0563575	7
	11	16	79453.13	2399.27	-207.3058	1	2408.209	-4.938304	1.460555E-008	0.0563435	7
	12	18	63140.62	2419.365	-219.1421	1	2429.27	-5.175633	3.892144E-008	0.0562023	7
	13	19	50203.12	2442.082	-234.1069	1	2453.277	-5.475851	-4.194111E-008	0.0562822	7
	14	20	39890.62	2467.286	-253.377	1	2480.262	-5.863414	9.258818E-008	0.0561749	7
	15	22	31640.63	2494.346	-277.0856	1	2509.689	-6.338739	-8.036196E-008	0.0564972	7
	16	23	25171.88	2523.031	-306.0341	1	2541.524	-6.915974	5.057585E-009	0.0562682	7
	17	24	20015.62	2553.871	-341.6596	1	2576.623	-7.619848	9.676378E-008	0.0561691	7
	18	26	15890.62	2590.471	-383.3692	1	2618.685	-8.418219	3.978572E-008	0.0562045	7
	19	27	12609.37	2626.189	-434.2925	1	2661.857	-9.390012	-8.024934E-008	0.056503	7
	20	28	10078.13	2664.528	-493.4354	1	2709.832	-10.49157	9.798598E-008	0.0561164	7
	21	30	8015.625	2707.115	-567.5996	1	2765.98	-11.84164	-8.775402E-009	0.0562678	7
	22	31	6328.125	2752.821	-658.6595	1	2830.522	-13.45602	-2.195691E-008	0.0563373	7
	23	32	5015.625	2803.557	-770.2886	1	2907.452	-15.36315	-5.235323E-008	0.056373	7
	24	34	3984.375	2856.05	-904.1682	1	2995.754	-17.56674	9.843761E-008	0.0561146	7
	25	35	3170.956	2919.975	-1067.423	1	3108.962	-20.08035	-8.237921E-008	0.0564958	7
	26	36	2527.573	2988.072	-1263.308	1	3244.152	-22.91785	1.019224E-007	0.056113	7
	27	38	1976.103	3073.674	-1527.54	1	3432.324	-26.42624	3.751283E-009	0.0562453	7
	28	39	1577.524	3164.681	-1821.302	1	3651.349	-29.92081	-9.483351E-009	0.056256	7
	29	41	1265.625	3266.332	-2173.093	1	3923.169	-33.63584	1.89315E-008	0.0563327	7
	30	42	998.264	3396.74	-2635.709	1	4299.396	-37.80977	4.056029E-008	0.056197	7
	31	43	796.875	3551.653	-3177.868	1	4765.825	-41.82083	4.114386E-008	0.0561912	7
	32	45	627.7902	3754.834	-3884.133	1	5402.339	-45.9697	6.067736E-009	0.0562567	7
	33	46	505.5147	3992.145	-4656.115	1	6133.239	-49.39027	4.060941E-008	0.0561921	7
	34	47	397.9953	4334.102	-5695.419	1	7156.972	-52.72958	4.457769E-010	0.0562933	7
	35	49	315.5048	4770.805	-6914.299	1	8400.482	-55.39467	-3.693823E-011	0.0562946	7
	36	50	252.4038	5323.537	-8309.479	1	9868.51	-57.35401	-5.253469E-010	0.0562924	7
	37	51	198.6229	6110.864	-10081.8	1	11789.21	-58.77877	-4.548145E-009	0.0562331	6
	38	53	158.3615	7080.973	-12040.45	1	13968.27	-59.54026	-4.604922E-009	0.0562304	6
	39	54	125.558	8373.871	-14347.63	1	16612.53	-59.73039	-4.914049E-009	0.0562364	6
	40	55	100.4464	9949.46	-16864.22	1	19580.44	-59.46049	-5.649045E-009	0.0562315	6
	41	57	79.00281	12072.75	-19893.99	1	23270.63	-58.74836	-3.70766E-009	0.056234	6
	42	58	63.3446	14601.76	-22911.46	1	27168.85	-57.49013	-3.696953E-009	0.0562301	6
	43	60	49.86702	17390.41	-26463.81	1	31666.38	-56.68951	-4.210222E-009	0.056226	6
	44	61	39.72458	20823.59	-30003.46	1	36521.63	-55.23782	-4.156313E-009	0.0562301	6
	45	62	31.6723	24618.69	-33888.54	1	41886.91	-54.00307	-5.696629E-009	0.0562254	6
	46	64	24.93351	28972.02	-38245.01	1	47979.77	-52.85472	-5.514999E-009	0.056228	6
	47	65	19.86229	33531.99	-42795.48	1	54367.7	-51.91986	-3.950816E-009	0.0562349	6
	48	66	15.83615	38455.24	-48104.78	1	61586.33	-51.36096	-6.900801E-009	0.0562269	6
	49	68	12.40079	43739.52	-54398.81	1	69802.41	-51.19888	-5.33312E-009	0.0562301	6
	50	69	9.93114	49470.05	-61135.88	1	78644.02	-51.02084	-4.860482E-009	0.0562273	6
	51	71	7.944915	55543.3	-68978.76	1	88561.44	-51.15817	-6.690452E-009	0.0562316	6
	52	72	6.317385	62341.85	-78601.73	1	100323.2	-51.5808	-6.245374E-009	0.0562331	5
	53	74	5.008013	69838.73	-90307.84	1	114162	-52.28376	-5.034179E-009	0.05624	5
	54	77	3.945707	78878.28	-104773.6	1	131146.1	-53.02592	-5.637006E-009	0.0562272	5
	55	79	3.158693	88789.2	-120750.2	1	149880.4	-53.67247	-4.462288E-009	0.0562423	5
	56	82	2.504006	100993.6	-140390.1	1	172942.4	-54.26958	-5.031194E-009	0.0562341	5
	57	85	1.998082	114855.4	-162591.2	1	199067	-54.7624	-4.231509E-009	0.0561943	5
	58	88	1.584686	131573.5	-189822	1	230963.1	-55.27256	-4.337238E-009	0.0562111	5
	59	92	1.266892	152332.3	-219979.1	1	267574.1	-55.29797	-3.276073E-009	0.0561868	5
	60	96	0.999041	177635.1	-256229.9	1	311781.9	-55.2678	-2.550631E-009	0.0562547	5
