EXPLAIN
TAG	EISPOT
TITLE	LABEL	Potentiostatic EIS	Test &Identifier
DATE	LABEL	11/20/2019	Date
TIME	LABEL	10:45:33	Time
NOTES	NOTES	4	&Notes...
	
	
	
	
PSTAT	PSTAT	REF600-11020	Potentiostat
VDC	POTEN	0.00000E+000	T	DC &Voltage (V)
FREQINIT	QUANT	1.00000E+006	Initial Fre&q. (Hz)
FREQFINAL	QUANT	1.00000E+000	Final Fre&q. (Hz)
PTSPERDEC	QUANT	1.00000E+001	Points/&decade
VAC	QUANT	2.50000E+001	AC &Voltage (mV rms)
AREA	QUANT	1.00000E-002	&Area (cm^2)
CONDIT	TWOPARAM	T	5.00000E+000	0.00000E+000	Conditionin&g	Time(s)	E(V)
DELAY	TWOPARAM	T	5.00000E+000	0.00000E+000	Init. De&lay	Time(s)	Stab.(mV/s)
SPEED	SELECTOR	0	&Optimize for:
ZGUESS	QUANT	1.00000E+005	E&stimated Z (ohms)
OCVCURVE	TABLE	19
	Pt	T	Vf	Vm	Ach	Over
	#	s	V vs. Ref.	V	V	bits
	0	0.258333	3.38346E-003	3.38346E-003	5.38499E-004	...........
	1	0.516667	3.37930E-003	3.16561E-003	5.32300E-004	...........
	2	0.775	3.35117E-003	2.82449E-003	5.38766E-004	...........
	3	1.03333	3.26648E-003	2.67627E-003	5.31766E-004	...........
	4	1.29167	3.11324E-003	2.52960E-003	5.30633E-004	...........
	5	1.55	2.92003E-003	2.39872E-003	5.35000E-004	...........
	6	1.80833	2.72847E-003	2.28117E-003	5.41766E-004	...........
	7	2.06667	2.56109E-003	2.18333E-003	5.35666E-004	...........
	8	2.325	2.42093E-003	2.12650E-003	5.32233E-004	...........
	9	2.58333	2.30477E-003	2.04010E-003	5.37499E-004	...........
	10	2.84167	2.20754E-003	1.93650E-003	5.29600E-004	...........
	11	3.1	2.12130E-003	1.88304E-003	5.34866E-004	...........
	12	3.35833	2.03972E-003	1.82524E-003	5.32366E-004	...........
	13	3.61667	1.96268E-003	1.75628E-003	5.33233E-004	...........
	14	3.875	1.89105E-003	1.65336E-003	5.31833E-004	...........
	15	4.13333	1.82011E-003	1.54430E-003	5.33133E-004	...........
	16	4.39167	1.74294E-003	1.49102E-003	5.28466E-004	...........
	17	4.65	1.65890E-003	1.40686E-003	5.29833E-004	...........
	18	4.90833	1.57270E-003	1.27229E-003	5.35766E-004	...........
EOC	QUANT	0.0015727	Open Circuit (V)
PSTATMODEL	IQUANT	4	Pstat Model
PSTATSECTION	LABEL	REF600-11020	Pstat Section
PSTATSERIALNO	LABEL	11020	Pstat Serial Number
CTRLMODE	IQUANT	1	Control Mode
IESTAB	IQUANT	0	I/E Stability
CASPEED	IQUANT	1	Control Amp Speed
CONVENTION	IQUANT	1	Current Convention
ICHRANGE	IQUANT	2	Ich Range
ICHRANGEMODE	TOGGLE	F	Ich Auto Range
ICHOFFSETENABLE	TOGGLE	T	Ich Offset Enable
ICHOFFSET	QUANT	0	Ich Offset (V)
ICHFILTER	IQUANT	3	Ich Filter
VCHRANGE	IQUANT	2	Vch Range
VCHRANGEMODE	TOGGLE	F	Vch Auto Range
VCHOFFSETENABLE	TOGGLE	T	Vch Offset Enable
VCHOFFSET	QUANT	0	Vch Offset (V)
VCHFILTER	IQUANT	3	Vch Filter
ACHRANGE	IQUANT	2	Ach Range
ACHOFFSETENABLE	TOGGLE	F	Ach Offset Enable
ACHOFFSET	QUANT	0	Ach Offset (V)
ACHFILTER	IQUANT	3	Ach Filter
IERANGELOWERLIMIT	IQUANT	1	I/E Range Lower Limit
IERANGEMODE	TOGGLE	F	I/E AutoRange
IERANGE	IQUANT	4	I/E Range
POSFEEDENABLE	TOGGLE	F	Positive Feedback IR Comp
POSFEEDRESISTANCE	QUANT	0	Positive Feedback Resistance (ohm)
ACHSELECT	IQUANT	0	Ach Select
CABLEID	IQUANT	14	Cable ID
DCCALDATE	LABEL	8/19/2019	DC Calibration Date
ACCALDATE	LABEL	8/19/2019	AC Calibration Date
THERMOSELECT	IQUANT	1	Thermo Select
FRAMEWORKVERSION	QUANT	6.33	Framework Version
INSTRUMENTVERSION	LABEL	3.50	Instrument Version
ZCURVE	TABLE
	Pt	Time	Freq	Zreal	Zimag	Zsig	Zmod	Zphz	Idc	Vdc	IERange
	#	s	Hz	ohm	ohm	V	ohm	°	A	V	#
	0	1	1000078	2370.635	-1773.782	1	2960.78	-36.80497	3.698193E-006	0.0026603	8
	1	1	794390.6	2733.59	-1729.161	1	3234.581	-32.31583	-2.124804E-006	0.0030178	8
	2	2	630984.4	3063.827	-1608.876	1	3460.566	-27.70485	1.352232E-006	0.0036747	8
	3	2	501234.4	3338.511	-1474.671	1	3649.7	-23.83178	1.691123E-006	0.0027089	8
	4	2	398109.4	3556.637	-1285.435	1	3781.8	-19.87081	-8.110871E-007	0.0028127	8
	5	3	316265.6	3742.385	-1151.365	1	3915.493	-17.10079	1.810388E-006	0.0026715	8
	6	3	251203.1	3874.84	-997.414	1	4001.152	-14.43501	-5.731007E-006	0.0039144	8
	7	3	199546.9	3969.412	-866.2937	1	4062.843	-12.31133	8.569716E-007	0.0034419	8
	8	4	158578.1	4056.199	-748.6655	1	4124.712	-10.45757	1.67312E-006	0.002683	8
	9	4	125953.1	4154.325	-629.0945	1	4201.687	-8.610948	4.000558E-006	-0.0037445	7
	10	4	100078.1	4189.822	-572.7529	1	4228.789	-7.784143	4.932118E-007	0.0013712	7
	11	5	79453.13	4235.398	-538.5751	1	4269.503	-7.246864	8.356631E-007	0.0028276	7
	12	5	63140.62	4279.062	-521.068	1	4310.671	-6.942813	6.090729E-007	0.0032677	7
	13	5	50203.12	4325.047	-513.5389	1	4355.428	-6.771371	7.95753E-007	0.0012352	7
	14	6	39890.62	4369.825	-516.4578	1	4400.238	-6.740366	-9.421417E-007	0.0048034	7
	15	6	31640.63	4418.053	-533.4241	1	4450.139	-6.884418	-1.342606E-006	0.0046319	7
	16	6	25171.88	4469.28	-565.5525	1	4504.921	-7.212001	7.940687E-008	0.0041257	7
	17	6	20015.62	4523.753	-609.5258	1	4564.632	-7.673759	8.810052E-007	0.002814	7
	18	7	15890.62	4585.331	-665.9866	1	4633.443	-8.264015	-8.889016E-007	0.0047058	7
	19	7	12609.37	4649.811	-734.7673	1	4707.507	-8.979679	-2.839067E-007	0.0043506	7
	20	7	10078.13	4722.784	-816.8075	1	4792.897	-9.81226	-2.89234E-007	0.0022353	7
	21	8	8015.625	4807.453	-909.7801	1	4892.781	-10.71614	9.205559E-007	0.0014685	7
	22	8	6328.125	4896.977	-1028.027	1	5003.721	-11.85599	-1.027256E-006	0.0045578	7
	23	8	5015.625	4993.066	-1165.05	1	5127.188	-13.13404	-1.021417E-006	0.0045511	7
	24	9	3984.375	5105.96	-1336.565	1	5277.996	-14.66893	1.007816E-006	0.0016945	7
	25	9	3170.956	5205.215	-1521.925	1	5423.147	-16.29811	3.527254E-007	0.0035424	7
	26	9	2527.573	5321.809	-1754.422	1	5603.539	-18.24565	-1.133994E-006	0.004379	7
	27	10	1976.103	5457.891	-2064	1	5835.124	-20.71502	-8.348536E-007	0.0045959	7
	28	10	1577.524	5598.967	-2416.838	1	6098.323	-23.34782	7.259575E-007	0.0013984	7
	29	10	1265.625	5742.011	-2824.255	1	6398.992	-26.19064	7.687571E-007	0.0028403	7
	30	11	998.264	5917.549	-3365.041	1	6807.414	-29.62492	5.869644E-008	0.003931	7
	31	11	796.875	6109.7	-3999.897	1	7302.576	-33.21196	-1.017921E-006	0.0045409	7
	32	11	627.7902	6338.792	-4822.723	1	7964.856	-37.26485	5.612666E-007	0.0032444	7
	33	12	505.5147	6583.411	-5736.435	1	8732.009	-41.06716	1.022008E-006	0.0019924	7
	34	12	397.9953	6896.189	-6962	1	9799.33	-45.27209	2.626232E-009	0.0030581	7
	35	13	315.5048	7255.571	-8425.862	1	11119.28	-49.26802	9.454996E-010	0.0030055	6
	36	13	252.4038	7657.412	-10145.79	1	12711.13	-52.95675	1.069771E-009	0.0029925	6
	37	13	198.6229	8166.97	-12414.45	1	14859.95	-56.66069	9.150867E-010	0.0030039	6
	38	13	158.3615	8743.154	-15052.57	1	17407.54	-59.8502	7.316875E-010	0.0030025	6
	39	14	125.558	9459.529	-18374.16	1	20666.21	-62.75932	1.095044E-009	0.0029996	6
	40	14	100.4464	10296.16	-22277.53	1	24541.79	-65.19472	1.27504E-009	0.0029966	6
	41	14	79.00281	11443.28	-27419.77	1	29711.83	-67.34743	6.756878E-010	0.0029931	6
	42	15	63.3446	12872.56	-33554.02	1	35938.49	-69.01134	-1.239986E-010	0.0030004	6
	43	15	49.86702	14682.39	-41239.15	1	43774.88	-70.40273	-5.261612E-010	0.002989	6
	44	16	39.72458	16985.91	-50015.99	1	52821.59	-71.24201	2.692535E-010	0.0030034	6
	45	16	31.6723	19877.86	-60724.61	1	63895.29	-71.87444	-3.303203E-010	0.0030021	6
	46	16	24.93351	23984.66	-74777.22	1	78529.59	-72.21645	2.249289E-010	0.0030003	6
	47	17	19.86229	29137.25	-90810.37	1	95370.3	-72.21074	1.183177E-009	0.0029923	6
	48	17	15.83615	36486.88	-108799.9	1	114755	-71.46073	-1.538318E-009	0.0030034	5
	49	17	12.40079	45404.36	-133832.6	1	141324.8	-71.25986	-9.575983E-010	0.0030107	5
	50	17	9.93114	56235.29	-160511.9	1	170077.8	-70.69211	5.675182E-010	0.0029923	5
	51	18	7.944915	70142.96	-191123.7	1	203588.6	-69.84672	7.791543E-010	0.0029904	5
	52	19	6.317385	88785.46	-228194.7	1	244858.5	-68.7401	5.761541E-010	0.0029807	5
	53	19	5.008013	112827.2	-271385	1	293904.4	-67.42511	5.187725E-010	0.0029979	5
	54	20	3.945707	144658.5	-322412.5	1	353377.8	-65.8354	5.263293E-011	0.0029964	5
	55	22	3.158693	180481.4	-374965.9	1	416140.5	-64.29721	8.788086E-011	0.0029792	5
	56	23	2.504006	227041.7	-436114.6	1	491674.6	-62.49847	3.631289E-010	0.0029846	5
	57	25	1.998082	279615.5	-499739.3	1	572646.7	-60.772	2.14104E-010	0.0029727	5
	58	26	1.584686	345278.7	-571690.9	1	667868.1	-58.86968	7.262812E-011	0.0029346	5
	59	28	1.266892	416693.1	-646342.8	1	769020.2	-57.19038	-1.695259E-011	0.0029489	5
	60	31	0.999041	498063.8	-731331.9	1	884824.3	-55.7437	5.977131E-011	0.0029687	5
