EXPLAIN
TAG	EISPOT
TITLE	LABEL	Potentiostatic EIS	Test &Identifier
DATE	LABEL	10/12/2019	Date
TIME	LABEL	11:13:12	Time
NOTES	NOTES	1	&Notes...
	
PSTAT	PSTAT	REF600-11020	Potentiostat
VDC	POTEN	0.00000E+000	T	DC &Voltage (V)
FREQINIT	QUANT	1.00000E+006	Initial Fre&q. (Hz)
FREQFINAL	QUANT	1.00000E+000	Final Fre&q. (Hz)
PTSPERDEC	QUANT	1.00000E+001	Points/&decade
VAC	QUANT	2.50000E+001	AC &Voltage (mV rms)
AREA	QUANT	1.00000E-002	&Area (cm^2)
CONDIT	TWOPARAM	T	5.00000E+000	0.00000E+000	Conditionin&g	Time(s)	E(V)
DELAY	TWOPARAM	T	5.00000E+000	0.00000E+000	Init. De&lay	Time(s)	Stab.(mV/s)
SPEED	SELECTOR	1	&Optimize for:
ZGUESS	QUANT	1.00000E+004	E&stimated Z (ohms)
OCVCURVE	TABLE	19
	Pt	T	Vf	Vm	Ach	Over
	#	s	V vs. Ref.	V	V	bits
	0	0.258333	4.67711E-003	4.67711E-003	5.53166E-004	...........
	1	0.516667	4.67391E-003	4.50946E-003	5.46766E-004	...........
	2	0.775	4.65458E-003	4.36826E-003	5.46133E-004	...........
	3	1.03333	4.60138E-003	4.25099E-003	5.45233E-004	...........
	4	1.29167	4.50996E-003	4.14249E-003	5.49866E-004	...........
	5	1.55	4.39466E-003	4.03915E-003	5.50666E-004	...........
	6	1.80833	4.27436E-003	3.95858E-003	5.45433E-004	...........
	7	2.06667	4.16137E-003	3.88993E-003	5.49033E-004	...........
	8	2.325	4.06144E-003	3.84253E-003	5.51399E-004	...........
	9	2.58333	3.97681E-003	3.79605E-003	5.48733E-004	...........
	10	2.84167	3.90709E-003	3.74654E-003	5.52366E-004	...........
	11	3.1	3.84929E-003	3.71087E-003	5.48466E-004	...........
	12	3.35833	3.79952E-003	3.67211E-003	5.49066E-004	...........
	13	3.61667	3.75489E-003	3.62900E-003	5.48066E-004	...........
	14	3.875	3.71344E-003	3.59594E-003	5.49566E-004	...........
	15	4.13333	3.67396E-003	3.56681E-003	5.47399E-004	...........
	16	4.39167	3.63635E-003	3.52762E-003	5.44466E-004	...........
	17	4.65	3.60079E-003	3.50422E-003	5.46699E-004	...........
	18	4.90833	3.56742E-003	3.48688E-003	5.43433E-004	...........
EOC	QUANT	0.0035674	Open Circuit (V)
PSTATMODEL	IQUANT	4	Pstat Model
PSTATSECTION	LABEL	REF600-11020	Pstat Section
PSTATSERIALNO	LABEL	11020	Pstat Serial Number
CTRLMODE	IQUANT	1	Control Mode
IESTAB	IQUANT	0	I/E Stability
CASPEED	IQUANT	1	Control Amp Speed
CONVENTION	IQUANT	1	Current Convention
ICHRANGE	IQUANT	2	Ich Range
ICHRANGEMODE	TOGGLE	F	Ich Auto Range
ICHOFFSETENABLE	TOGGLE	T	Ich Offset Enable
ICHOFFSET	QUANT	0	Ich Offset (V)
ICHFILTER	IQUANT	3	Ich Filter
VCHRANGE	IQUANT	2	Vch Range
VCHRANGEMODE	TOGGLE	F	Vch Auto Range
VCHOFFSETENABLE	TOGGLE	T	Vch Offset Enable
VCHOFFSET	QUANT	0	Vch Offset (V)
VCHFILTER	IQUANT	3	Vch Filter
ACHRANGE	IQUANT	2	Ach Range
ACHOFFSETENABLE	TOGGLE	F	Ach Offset Enable
ACHOFFSET	QUANT	0	Ach Offset (V)
ACHFILTER	IQUANT	3	Ach Filter
IERANGELOWERLIMIT	IQUANT	1	I/E Range Lower Limit
IERANGEMODE	TOGGLE	F	I/E AutoRange
IERANGE	IQUANT	5	I/E Range
POSFEEDENABLE	TOGGLE	F	Positive Feedback IR Comp
POSFEEDRESISTANCE	QUANT	0	Positive Feedback Resistance (ohm)
ACHSELECT	IQUANT	0	Ach Select
CABLEID	IQUANT	14	Cable ID
DCCALDATE	LABEL	8/19/2019	DC Calibration Date
ACCALDATE	LABEL	8/19/2019	AC Calibration Date
THERMOSELECT	IQUANT	1	Thermo Select
FRAMEWORKVERSION	QUANT	6.33	Framework Version
INSTRUMENTVERSION	LABEL	3.50	Instrument Version
ZCURVE	TABLE
	Pt	Time	Freq	Zreal	Zimag	Zsig	Zmod	Zphz	Idc	Vdc	IERange
	#	s	Hz	ohm	ohm	V	ohm	°	A	V	#
	0	1	1000078	2008.206	-875.907	1	2190.914	-23.56509	-1.785065E-006	0.0058076	8
	1	3	794390.6	2138.58	-804.1851	1	2284.784	-20.60811	1.204397E-006	0.0054153	8
	2	4	630984.4	2261.356	-721.7214	1	2373.734	-17.7007	-1.393009E-006	0.0052227	8
	3	5	501234.4	2356.292	-641.7057	1	2442.11	-15.23431	2.504245E-006	0.0047002	8
	4	7	398109.4	2424.777	-578.9247	1	2492.929	-13.4282	-1.691057E-006	0.0053528	8
	5	8	316265.6	2491.057	-518.3884	1	2544.424	-11.75546	8.407131E-007	0.0050794	8
	6	10	251203.1	2534.283	-474.7953	1	2578.375	-10.6113	-8.209307E-007	0.0053086	8
	7	11	199546.9	2583.424	-439.7327	1	2620.581	-9.65991	-7.305791E-007	0.0053806	8
	8	12	158578.1	2639.042	-416.8701	1	2671.764	-8.976425	-1.857864E-006	0.0054662	8
	9	14	125953.1	2685.233	-366.4647	1	2710.124	-7.771378	6.317103E-007	0.0035072	7
	10	15	100078.1	2716.484	-369.324	1	2741.475	-7.742271	3.248171E-008	0.0049379	7
	11	16	79453.13	2752.072	-371.1704	1	2776.989	-7.681102	7.920459E-009	0.0051346	7
	12	18	63140.62	2797.104	-386.1996	1	2823.64	-7.861195	3.883727E-008	0.0050036	7
	13	19	50203.12	2840.334	-405.0844	1	2869.075	-8.116708	5.698412E-009	0.0049815	7
	14	20	39890.62	2884.826	-432.2375	1	2917.028	-8.521317	3.794813E-008	0.0050053	7
	15	22	31640.63	2938.781	-455.2508	1	2973.834	-8.805777	-5.104993E-008	0.0051121	7
	16	23	25171.88	2994.042	-490.2245	1	3033.91	-9.298718	-4.528198E-008	0.0051062	7
	17	24	20015.62	3048.453	-527.8034	1	3093.807	-9.82271	9.586462E-009	0.0051244	7
	18	26	15890.62	3108.976	-572.6825	1	3161.281	-10.43705	1.148274E-007	0.004875	7
	19	27	12609.37	3178.622	-634.6162	1	3241.354	-11.29073	-1.336355E-008	0.0050684	7
	20	28	10078.13	3254.456	-693.4791	1	3327.521	-12.02902	-6.769439E-008	0.005135	7
	21	30	8015.625	3334.082	-770.9515	1	3422.056	-13.01987	-7.210748E-008	0.0051382	7
	22	31	6328.125	3427.771	-854.6476	1	3532.709	-14.00013	-2.26023E-008	0.0050272	7
	23	32	5015.625	3524.686	-946.248	1	3649.492	-15.02747	2.111926E-008	0.0049886	7
	24	34	3984.375	3620.587	-1055.141	1	3771.203	-16.24761	2.165839E-008	0.0049913	7
	25	35	3170.956	3729.584	-1175.649	1	3910.492	-17.49603	-2.224132E-008	0.0050343	7
	26	36	2527.573	3825.299	-1322.692	1	4047.521	-19.0741	7.100419E-008	0.0049013	7
	27	38	1976.103	3933.489	-1506.347	1	4212.056	-20.95457	-1.06663E-008	0.0050765	7
	28	39	1577.524	4029.216	-1735.305	1	4387.01	-23.3006	-7.999917E-008	0.0052474	7
	29	41	1265.625	4128.934	-2004.838	1	4589.932	-25.89927	-3.910142E-008	0.0051165	7
	30	42	998.264	4245.499	-2367.507	1	4861.003	-29.14627	-2.152804E-008	0.0050258	7
	31	43	796.875	4360.083	-2798.346	1	5180.835	-32.69276	-9.520841E-009	0.0050694	7
	32	45	627.7902	4479.68	-3382.812	1	5613.461	-37.05812	8.752131E-009	0.0050079	7
	33	46	505.5147	4626.202	-4038.375	1	6140.864	-41.11885	-1.47872E-008	0.0050169	7
	34	47	397.9953	4786.502	-4926.195	1	6868.624	-45.824	3.49273E-009	0.0050505	7
	35	49	315.5048	4981.074	-6012.78	1	7807.985	-50.36116	7.027303E-009	0.0050491	7
	36	50	252.4038	5204.948	-7301.466	1	8966.766	-54.51632	6.592237E-009	0.0050527	7
	37	51	198.6229	5502.742	-9026.044	1	10571.17	-58.63136	1.158224E-009	0.0049943	6
	38	53	158.3615	5851.946	-11039.55	1	12494.68	-62.07243	1.270566E-009	0.0049909	6
	39	54	125.558	6325.172	-13585.81	1	14986.07	-65.03464	1.179089E-009	0.0049961	6
	40	55	100.4464	6902.539	-16571.7	1	17951.78	-67.38702	-5.559772E-010	0.0049939	6
	41	57	79.00281	7662.844	-20619.91	1	21997.72	-69.61375	2.010262E-009	0.004991	6
	42	58	63.3446	8925.646	-25304.61	1	26832.64	-70.57082	8.739417E-010	0.0049932	6
	43	60	49.86702	9753.41	-31011.18	1	32508.8	-72.54099	-1.679128E-010	0.0049891	6
	44	61	39.72458	11676.25	-37863.92	1	39623.37	-72.8616	5.821841E-010	0.0049951	6
	45	62	31.6723	13923.25	-46330.35	1	48377.25	-73.27336	3.166634E-011	0.0049912	6
	46	64	24.93351	17070.41	-56901.56	1	59406.96	-73.30081	5.604616E-010	0.0049882	6
	47	65	19.86229	21071.42	-68932.98	1	72081.63	-73.00267	4.257356E-010	0.0049939	6
	48	67	15.83615	25718.43	-84383.02	1	88215.26	-73.04972	3.170655E-009	0.004988	6
	49	68	12.40079	33680.26	-102412.9	1	107808.9	-71.79565	7.799233E-010	0.0049908	5
	50	69	9.93114	42067.45	-122297.5	1	129330.4	-71.01799	6.34118E-010	0.0049902	5
	51	71	7.944915	53994.27	-145436.8	1	155136.2	-69.63225	5.521312E-010	0.0049923	5
	52	73	6.317385	67608.91	-172609.1	1	185377.7	-68.61032	-1.216949E-010	0.0049875	5
	53	75	5.008013	85899.75	-204065.2	1	221407.7	-67.1717	6.126531E-011	0.0049822	5
	54	77	3.945707	108131.5	-241184.1	1	264314.6	-65.85158	4.932194E-010	0.0049978	5
	55	80	3.158693	133712.3	-280006.6	1	310294.5	-64.47399	-4.757471E-011	0.0049845	5
	56	83	2.504006	164744.5	-325230.2	1	364575.7	-63.13563	5.203462E-010	0.0049904	5
	57	86	1.998082	199079.6	-374374.3	1	424015.1	-61.99746	2.867036E-011	0.0050341	5
	58	89	1.584686	238329.2	-432530.1	1	493845.2	-61.14471	2.574527E-010	0.005025	5
	59	93	1.266892	283111	-495158.3	1	570380.3	-60.24087	-4.341515E-011	0.0050333	5
	60	97	0.999041	334795.8	-572238.7	1	662982.1	-59.66967	2.752865E-010	0.0049754	5
