EXPLAIN
TAG	EISPOT
TITLE	LABEL	Potentiostatic IDE	Test &Identifier
DATE	LABEL	9/6/2019	Date
TIME	LABEL	8:31:38	Time
NOTES	NOTES	1	&Notes...
	
PSTAT	PSTAT	REF600-11020	Potentiostat
VDC	POTEN	0.00000E+000	T	DC &Voltage (V)
FREQINIT	QUANT	1.00000E+006	Initial Fre&q. (Hz)
FREQFINAL	QUANT	1.00000E+000	Final Fre&q. (Hz)
PTSPERDEC	QUANT	1.00000E+001	Points/&decade
VAC	QUANT	2.50000E+001	AC &Voltage (mV rms)
AREA	QUANT	1.00000E-002	&Area (cm^2)
CONDIT	TWOPARAM	T	5.00000E+000	0.00000E+000	Conditionin&g	Time(s)	E(V)
DELAY	TWOPARAM	T	5.00000E+000	0.00000E+000	Init. De&lay	Time(s)	Stab.(mV/s)
SPEED	SELECTOR	1	&Optimize for:
ZGUESS	QUANT	1.00000E+007	E&stimated Z (ohms)
OCVCURVE	TABLE	18
	Pt	T	Vf	Vm	Ach	Over
	#	s	V vs. Ref.	V	V	bits
	0	0.258333	5.28946E-003	5.28946E-003	5.72366E-004	...........
	1	0.516667	5.29535E-003	5.59732E-003	5.67432E-004	...........
	2	0.775	5.32062E-003	5.32188E-003	5.68566E-004	...........
	3	1.03333	5.35961E-003	5.24043E-003	5.73599E-004	...........
	4	1.29167	5.37337E-003	5.08454E-003	5.64099E-004	...........
	5	1.55	5.32813E-003	4.86945E-003	5.66066E-004	...........
	6	1.80833	5.22510E-003	4.83526E-003	5.62366E-004	...........
	7	2.06667	5.09239E-003	4.82167E-003	5.64599E-004	...........
	8	2.325	4.96859E-003	4.81237E-003	5.64399E-004	...........
	9	2.58333	4.88098E-003	4.78953E-003	5.68532E-004	...........
	10	2.84167	4.83166E-003	4.79081E-003	5.63099E-004	...........
	11	3.1	4.80732E-003	4.77787E-003	5.64366E-004	...........
	12	3.35833	4.79416E-003	4.73654E-003	5.66799E-004	...........
	13	3.61667	4.78433E-003	4.82827E-003	5.65899E-004	...........
	14	3.875	4.77756E-003	4.73762E-003	5.65499E-004	...........
	15	4.13333	4.77383E-003	4.71358E-003	5.66832E-004	...........
	16	4.39167	4.76572E-003	4.68072E-003	5.66532E-004	...........
	17	4.65	4.74672E-003	4.66305E-003	5.71466E-004	...........
EOC	QUANT	0.0047199	Open Circuit (V)
PSTATMODEL	IQUANT	4	Pstat Model
PSTATSECTION	LABEL	REF600-11020	Pstat Section
PSTATSERIALNO	LABEL	11020	Pstat Serial Number
CTRLMODE	IQUANT	1	Control Mode
IESTAB	IQUANT	0	I/E Stability
CASPEED	IQUANT	1	Control Amp Speed
CONVENTION	IQUANT	1	Current Convention
ICHRANGE	IQUANT	2	Ich Range
ICHRANGEMODE	TOGGLE	F	Ich Auto Range
ICHOFFSETENABLE	TOGGLE	T	Ich Offset Enable
ICHOFFSET	QUANT	0	Ich Offset (V)
ICHFILTER	IQUANT	3	Ich Filter
VCHRANGE	IQUANT	2	Vch Range
VCHRANGEMODE	TOGGLE	F	Vch Auto Range
VCHOFFSETENABLE	TOGGLE	T	Vch Offset Enable
VCHOFFSET	QUANT	0	Vch Offset (V)
VCHFILTER	IQUANT	3	Vch Filter
ACHRANGE	IQUANT	2	Ach Range
ACHOFFSETENABLE	TOGGLE	F	Ach Offset Enable
ACHOFFSET	QUANT	0	Ach Offset (V)
ACHFILTER	IQUANT	3	Ach Filter
IERANGELOWERLIMIT	IQUANT	1	I/E Range Lower Limit
IERANGEMODE	TOGGLE	F	I/E AutoRange
IERANGE	IQUANT	2	I/E Range
POSFEEDENABLE	TOGGLE	F	Positive Feedback IR Comp
POSFEEDRESISTANCE	QUANT	0	Positive Feedback Resistance (ohm)
ACHSELECT	IQUANT	0	Ach Select
CABLEID	IQUANT	14	Cable ID
DCCALDATE	LABEL	8/19/2019	DC Calibration Date
ACCALDATE	LABEL	8/19/2019	AC Calibration Date
THERMOSELECT	IQUANT	1	Thermo Select
FRAMEWORKVERSION	QUANT	6.33	Framework Version
INSTRUMENTVERSION	LABEL	3.50	Instrument Version
ZCURVE	TABLE
	Pt	Time	Freq	Zreal	Zimag	Zsig	Zmod	Zphz	Idc	Vdc	IERange
	#	s	Hz	ohm	ohm	V	ohm	°	A	V	#
	0	1	1000078	2201.596	-1275.825	1	2544.554	-30.0923	-4.819686E-007	0.0073406	8
	1	3	794390.6	2427.324	-1164.364	1	2692.145	-25.62658	1.736734E-006	0.0065158	8
	2	4	630984.4	2625.675	-1033.263	1	2821.667	-21.48076	9.17588E-007	0.0063905	8
	3	5	501234.4	2776.746	-901.1748	1	2919.321	-17.9805	-1.340523E-006	0.0066784	8
	4	7	398109.4	2894.688	-765.173	1	2994.112	-14.80673	-6.019501E-007	0.0066626	8
	5	8	316265.6	2979.003	-649.4462	1	3048.973	-12.2985	2.382818E-007	0.00637	8
	6	9	251203.1	3034.282	-549.9929	1	3083.725	-10.27386	-2.618558E-006	0.0070231	8
	7	11	199546.9	3085.58	-469.2159	1	3121.052	-8.646572	3.122773E-006	0.0059193	8
	8	12	158578.1	3113.22	-397.1863	1	3138.454	-7.270549	-5.603361E-007	0.0065651	8
	9	13	125953.1	3155.384	-330.0519	1	3172.598	-5.971401	3.271231E-007	0.0056499	7
	10	15	100078.1	3172.583	-287.1267	1	3185.549	-5.171324	-1.479188E-008	0.0064845	7
	11	16	79453.13	3192.849	-264.9477	1	3203.823	-4.743627	-3.246544E-009	0.0064188	7
	12	17	63140.62	3212.473	-250.001	1	3222.186	-4.449901	2.86031E-008	0.0063108	7
	13	19	50203.12	3229.666	-240.8053	1	3238.631	-4.264108	4.471935E-008	0.0063107	7
	14	20	39890.62	3247.801	-236.6662	1	3256.413	-4.167758	-1.474342E-008	0.0064725	7
	15	21	31640.63	3266.914	-240.4449	1	3275.75	-4.20938	-6.536033E-009	0.0064106	7
	16	23	25171.88	3284.983	-250.6212	1	3294.53	-4.362814	2.973067E-009	0.0063541	7
	17	24	20015.62	3303.1	-266.8763	1	3313.864	-4.619218	-1.20181E-008	0.0063856	7
	18	25	15890.62	3322.9	-291.6241	1	3335.673	-5.015537	-2.394314E-008	0.0064071	7
	19	27	12609.37	3343.817	-324.5846	1	3359.534	-5.544335	-1.295097E-008	0.0063885	7
	20	28	10078.13	3364.157	-365.5322	1	3383.957	-6.201141	-7.367442E-009	0.0064205	7
	21	29	8015.625	3389.047	-419.432	1	3414.903	-7.05511	1.244312E-008	0.0063412	7
	22	31	6328.125	3416.481	-490.3998	1	3451.497	-8.168411	4.49194E-008	0.0062944	7
	23	32	5015.625	3447.702	-577.0993	1	3495.668	-9.50245	-4.565503E-009	0.0064097	7
	24	33	3984.375	3481.342	-683.139	1	3547.734	-11.10201	-3.877863E-009	0.0064093	7
	25	35	3170.956	3519.776	-811.7586	1	3612.171	-12.98693	-3.478833E-008	0.0064302	7
	26	36	2527.573	3564.168	-970.662	1	3693.979	-15.2344	3.514774E-008	0.0063989	7
	27	37	1976.103	3621.462	-1180.154	1	3808.904	-18.04963	2.571676E-008	0.0062932	7
	28	39	1577.524	3683.408	-1416.541	1	3946.402	-21.03542	2.992203E-008	0.0062977	7
	29	40	1265.625	3755.627	-1697.411	1	4121.401	-24.32129	1.553728E-008	0.0063733	7
	30	41	998.264	3847.349	-2065.777	1	4366.867	-28.23291	3.60041E-008	0.0063966	7
	31	43	796.875	3950.651	-2489.557	1	4669.64	-32.21764	-2.481667E-008	0.006412	7
	32	44	627.7902	4081.556	-3038.205	1	5088.201	-36.66304	1.395423E-008	0.0063301	7
	33	45	505.5147	4222.453	-3646.636	1	5579.163	-40.81487	-1.488095E-008	0.0064604	7
	34	47	397.9953	4402.649	-4459.941	1	6266.929	-45.37038	4.769213E-009	0.0063978	7
	35	48	315.5048	4608.902	-5430.828	1	7122.912	-49.68021	5.087829E-009	0.0063981	7
	36	49	252.4038	4842.641	-6572.518	1	8163.894	-53.61716	4.959611E-009	0.0063923	7
	37	51	198.6229	5139.525	-8079.819	1	9575.92	-57.5398	4.926186E-009	0.0063962	7
	38	52	158.3615	5475.82	-9836.34	1	11257.81	-60.89563	1.05111E-009	0.0063317	6
	39	53	125.558	5890.341	-12052.33	1	13414.72	-63.95383	1.209643E-009	0.0063347	6
	40	55	100.4464	6379.579	-14669.17	1	15996.36	-66.49592	1.075934E-009	0.0063363	6
	41	56	79.00281	7031.517	-18146.04	1	19460.75	-68.81885	9.025749E-010	0.0063358	6
	42	57	63.3446	7761.956	-22042	1	23368.73	-70.60059	6.814402E-010	0.0063399	6
	43	59	49.86702	8831.957	-27320.88	1	28712.96	-72.08566	7.99395E-010	0.0063282	6
	44	60	39.72458	10072.46	-33428.45	1	34912.98	-73.23172	9.072256E-010	0.0063399	6
	45	61	31.6723	11700.85	-40884.98	1	42526.37	-74.02943	8.785369E-010	0.0063349	6
	46	63	24.93351	13941.96	-50501.79	1	52390.93	-74.56684	1.225546E-009	0.0063344	6
	47	64	19.86229	16734.6	-61701.93	1	63931.02	-74.82546	1.029116E-009	0.0063381	6
	48	65	15.83615	20206.49	-75185.39	1	77853.36	-74.9569	9.657271E-010	0.0063343	6
	49	67	12.40079	25637.66	-92882.2	1	96355.5	-74.56925	3.769797E-010	0.0063401	6
	50	68	9.93114	31804.77	-112141.4	1	116564.3	-74.16598	1.046845E-009	0.0063325	5
	51	70	7.944915	39909.75	-135211.3	1	140978.3	-73.5552	1.084338E-009	0.0063415	5
	52	71	6.317385	50556.29	-163349.4	1	170994.1	-72.80282	9.193659E-010	0.0063223	5
	53	73	5.008013	64859.52	-197318.3	1	207704.8	-71.80405	3.415393E-010	0.0063356	5
	54	75	3.945707	83473.24	-237669.2	1	251901.6	-70.6479	6.727406E-010	0.0063399	5
	55	78	3.158693	105875.6	-281574.3	1	300821.8	-69.39308	3.067771E-010	0.0063581	5
	56	81	2.504006	134762.6	-334602.2	1	360720.9	-68.06265	-1.445952E-011	0.0063278	5
	57	84	1.998082	169432.5	-392499.8	1	427508.4	-66.65134	9.171649E-011	0.0062985	5
	58	87	1.584686	212192.6	-457869.5	1	504648.6	-65.13536	3.219841E-011	0.0063328	5
	59	90	1.266892	261857.1	-530710.9	1	591796.6	-63.7379	1.846637E-010	0.0062928	5
	60	95	0.999041	322066.6	-616349.6	1	695423.4	-62.41119	7.637053E-012	0.0063644	5
