EXPLAIN
TAG	EISPOT
TITLE	LABEL	Potentiostatic EIS	Test &Identifier
DATE	LABEL	10/16/2019	Date
TIME	LABEL	10:04:39	Time
NOTES	NOTES	1	&Notes...
	
PSTAT	PSTAT	REF600-11020	Potentiostat
VDC	POTEN	0.00000E+000	T	DC &Voltage (V)
FREQINIT	QUANT	1.00000E+006	Initial Fre&q. (Hz)
FREQFINAL	QUANT	1.00000E+000	Final Fre&q. (Hz)
PTSPERDEC	QUANT	1.00000E+001	Points/&decade
VAC	QUANT	2.50000E+001	AC &Voltage (mV rms)
AREA	QUANT	1.00000E-002	&Area (cm^2)
CONDIT	TWOPARAM	T	5.00000E+000	0.00000E+000	Conditionin&g	Time(s)	E(V)
DELAY	TWOPARAM	T	5.00000E+000	0.00000E+000	Init. De&lay	Time(s)	Stab.(mV/s)
SPEED	SELECTOR	0	&Optimize for:
ZGUESS	QUANT	1.00000E+005	E&stimated Z (ohms)
OCVCURVE	TABLE	19
	Pt	T	Vf	Vm	Ach	Over
	#	s	V vs. Ref.	V	V	bits
	0	0.258333	4.11948E-003	4.11948E-003	5.79266E-004	...........
	1	0.516667	4.10601E-003	3.41411E-003	5.82832E-004	...........
	2	0.775	4.03089E-003	3.14492E-003	5.78499E-004	...........
	3	1.03333	3.86021E-003	3.74765E-003	5.81599E-004	...........
	4	1.29167	3.66103E-003	3.55772E-003	5.71432E-004	...........
	5	1.55	3.52551E-003	2.66404E-003	5.80565E-004	...........
	6	1.80833	3.40068E-003	1.84723E-003	5.78566E-004	...........
	7	2.06667	3.15739E-003	2.70758E-003	5.83132E-004	...........
	8	2.325	2.82741E-003	2.60535E-003	5.72666E-004	...........
	9	2.58333	2.58055E-003	2.36769E-003	5.77299E-004	...........
	10	2.84167	2.48089E-003	2.32535E-003	5.78466E-004	...........
	11	3.1	2.45369E-003	2.60660E-003	5.73466E-004	...........
	12	3.35833	2.44167E-003	2.35996E-003	5.79365E-004	...........
	13	3.61667	2.43089E-003	1.96184E-003	5.80765E-004	...........
	14	3.875	2.38476E-003	1.93595E-003	5.78099E-004	...........
	15	4.13333	2.26077E-003	1.23374E-003	5.84632E-004	...........
	16	4.39167	2.05329E-003	1.42521E-003	5.76232E-004	...........
	17	4.65	1.82868E-003	2.74188E-003	5.72899E-004	...........
	18	4.90833	1.73573E-003	2.31684E-003	5.73332E-004	...........
EOC	QUANT	0.0017357	Open Circuit (V)
PSTATMODEL	IQUANT	4	Pstat Model
PSTATSECTION	LABEL	REF600-11020	Pstat Section
PSTATSERIALNO	LABEL	11020	Pstat Serial Number
CTRLMODE	IQUANT	1	Control Mode
IESTAB	IQUANT	0	I/E Stability
CASPEED	IQUANT	1	Control Amp Speed
CONVENTION	IQUANT	1	Current Convention
ICHRANGE	IQUANT	2	Ich Range
ICHRANGEMODE	TOGGLE	F	Ich Auto Range
ICHOFFSETENABLE	TOGGLE	T	Ich Offset Enable
ICHOFFSET	QUANT	0	Ich Offset (V)
ICHFILTER	IQUANT	3	Ich Filter
VCHRANGE	IQUANT	2	Vch Range
VCHRANGEMODE	TOGGLE	F	Vch Auto Range
VCHOFFSETENABLE	TOGGLE	T	Vch Offset Enable
VCHOFFSET	QUANT	0	Vch Offset (V)
VCHFILTER	IQUANT	3	Vch Filter
ACHRANGE	IQUANT	2	Ach Range
ACHOFFSETENABLE	TOGGLE	F	Ach Offset Enable
ACHOFFSET	QUANT	0	Ach Offset (V)
ACHFILTER	IQUANT	3	Ach Filter
IERANGELOWERLIMIT	IQUANT	1	I/E Range Lower Limit
IERANGEMODE	TOGGLE	F	I/E AutoRange
IERANGE	IQUANT	4	I/E Range
POSFEEDENABLE	TOGGLE	F	Positive Feedback IR Comp
POSFEEDRESISTANCE	QUANT	0	Positive Feedback Resistance (ohm)
ACHSELECT	IQUANT	0	Ach Select
CABLEID	IQUANT	14	Cable ID
DCCALDATE	LABEL	8/19/2019	DC Calibration Date
ACCALDATE	LABEL	8/19/2019	AC Calibration Date
THERMOSELECT	IQUANT	1	Thermo Select
FRAMEWORKVERSION	QUANT	6.33	Framework Version
INSTRUMENTVERSION	LABEL	3.50	Instrument Version
ZCURVE	TABLE
	Pt	Time	Freq	Zreal	Zimag	Zsig	Zmod	Zphz	Idc	Vdc	IERange
	#	s	Hz	ohm	ohm	V	ohm	°	A	V	#
	0	1	1000078	2456.388	-1587.919	1	2924.949	-32.88043	-2.12393E-006	0.0049335	8
	1	1	794390.6	2741.568	-1519.905	1	3134.694	-29.00367	1.847167E-006	0.0035029	8
	2	2	630984.4	3011.614	-1418.291	1	3328.869	-25.21765	6.749573E-007	0.0033546	8
	3	2	501234.4	3249.003	-1308.856	1	3502.731	-21.94197	-2.18312E-006	0.0039545	8
	4	2	398109.4	3449.708	-1171.254	1	3643.119	-18.75351	9.066947E-008	0.0033808	8
	5	2	316265.6	3613.604	-1044.741	1	3761.598	-16.12529	9.090441E-007	0.0031867	8
	6	3	251203.1	3733.048	-907.7476	1	3841.829	-13.66709	-6.618134E-009	0.0032174	8
	7	3	199546.9	3847.004	-793.4642	1	3927.98	-11.65412	-4.0701E-007	0.0034976	8
	8	3	158578.1	3942.744	-702.6539	1	4004.866	-10.10485	-4.082351E-007	0.0035038	8
	9	4	125953.1	4021.672	-548.0906	1	4058.848	-7.760703	-1.67175E-007	0.0034671	7
	10	4	100078.1	4071.156	-500.667	1	4101.826	-7.010979	-2.344865E-009	0.003311	7
	11	4	79453.13	4114.362	-454.916	1	4139.436	-6.309441	7.225125E-008	0.0032889	7
	12	5	63140.62	4151.959	-421.0842	1	4173.257	-5.791034	-3.459143E-008	0.0033696	7
	13	5	50203.12	4185.266	-398.2425	1	4204.17	-5.435526	-2.600746E-008	0.003328	7
	14	5	39890.62	4215.392	-384.9948	1	4232.937	-5.218388	9.916585E-008	0.0031867	7
	15	6	31640.63	4245.858	-383.8689	1	4263.175	-5.166078	-5.619439E-008	0.0034224	7
	16	6	25171.88	4274.732	-392.7613	1	4292.738	-5.249582	5.348362E-009	0.0034172	7
	17	6	20015.62	4300.306	-392.1732	1	4318.151	-5.210766	-3.309069E-009	0.0033036	7
	18	7	15890.62	4334.002	-445.7626	1	4356.866	-5.872361	-5.759457E-008	0.0034299	7
	19	7	12609.37	4366.572	-490.7971	1	4394.068	-6.413057	-3.553218E-008	0.0033639	7
	20	7	10078.13	4399.615	-550.2745	1	4433.894	-7.129153	2.695134E-008	0.0032335	7
	21	7	8015.625	4456.7	-650.9106	1	4503.983	-8.30942	-6.239144E-009	0.0033731	7
	22	8	6328.125	4476.875	-728.9354	1	4535.831	-9.247879	-2.003947E-008	0.0033287	7
	23	8	5015.625	4520.031	-853.3295	1	4599.875	-10.69095	-5.999647E-008	0.0034312	7
	24	8	3984.375	4560.075	-1034.858	1	4676.025	-12.78607	7.179335E-008	0.003283	7
	25	9	3170.956	4623.84	-1195.691	1	4775.937	-14.49866	1.010005E-007	0.0031811	7
	26	9	2527.573	4685.756	-1428.551	1	4898.681	-16.95494	-4.842926E-008	0.0034821	7
	27	9	1976.103	4763.997	-1736.939	1	5070.762	-20.0317	4.681111E-009	0.0034098	7
	28	10	1577.524	4842.857	-2048.017	1	5258.103	-22.92323	-1.20095E-009	0.0032853	7
	29	10	1265.625	4945.007	-2505.622	1	5543.576	-26.87121	-3.95758E-009	0.0032943	7
	30	10	998.264	5066.7	-3052.632	1	5915.236	-31.06851	5.97365E-008	0.0031848	7
	31	11	796.875	5211.43	-3699.577	1	6391.078	-35.37082	-2.222041E-008	0.0033139	7
	32	11	627.7902	5386.292	-4537.18	1	7042.594	-40.10934	-2.421537E-008	0.0033819	7
	33	11	505.5147	5587.451	-5459.536	1	7811.923	-44.33659	-2.554039E-008	0.003314	7
	34	12	397.9953	5855.5	-6708.497	1	8904.539	-48.88397	1.207143E-009	0.0033372	7
	35	12	315.5048	6173.655	-8200.064	1	10264.26	-53.02468	6.88745E-010	0.0032772	6
	36	12	252.4038	6545.895	-9956.39	1	11915.47	-56.67681	-1.027026E-011	0.0032764	6
	37	13	198.6229	7039.208	-12273.74	1	14149.03	-60.16496	2.597339E-010	0.003279	6
	38	13	158.3615	7632.044	-14967.31	1	16800.85	-62.98232	5.25634E-010	0.0032724	6
	39	13	125.558	8396.184	-18352.16	1	20181.62	-65.41573	3.75335E-010	0.0032763	6
	40	14	100.4464	9309.933	-22313.46	1	24177.79	-67.35245	3.38311E-010	0.0032733	6
	41	14	79.00281	10613.6	-27573.25	1	29545.43	-68.9471	6.831494E-011	0.0032717	6
	42	14	63.3446	12620.29	-33258.61	1	35572.55	-69.22029	7.195438E-010	0.0032687	6
	43	15	49.86702	14945.24	-41078.54	1	43712.77	-70.00754	1.300636E-009	0.0032661	6
	44	15	39.72458	17715.17	-49890.64	1	52942.45	-70.45107	1.024348E-010	0.0032756	6
	45	15	31.6723	21613.96	-60222.42	1	63983.61	-70.25682	1.749141E-011	0.003274	6
	46	16	24.93351	27174.67	-73345.6	1	78217.9	-69.67025	6.816756E-010	0.0032758	6
	47	16	19.86229	34160.72	-87865.81	1	94272.77	-68.75478	1.219509E-009	0.0032818	6
	48	16	15.83615	43473.64	-103865.1	1	112596.3	-67.28783	5.720347E-010	0.0032807	5
	49	17	12.40079	54472.39	-124773.3	1	136145.6	-66.41532	-1.376023E-009	0.0032768	5
	50	17	9.93114	69863.95	-145125.7	1	161066.6	-64.29369	-9.950207E-010	0.0032801	5
	51	17	7.944915	86980.09	-168298.5	1	189446.3	-62.66916	1.894138E-010	0.0032751	5
	52	18	6.317385	107678.5	-193142.9	1	221130.8	-60.86002	4.41026E-011	0.0032823	5
	53	19	5.008013	132036.6	-220965	1	257408.6	-59.13978	-3.186801E-010	0.0032669	5
	54	20	3.945707	160434.4	-251019.2	1	297909.1	-57.41606	1.994776E-010	0.0032772	5
	55	21	3.158693	190309.5	-282430.3	1	340565	-56.0268	-7.383586E-011	0.0032871	5
	56	23	2.504006	223489.6	-318434.7	1	389035.1	-54.93737	-1.851775E-010	0.0032756	5
	57	24	1.998082	258090.1	-356472.5	1	440094.5	-54.09504	1.442527E-010	0.0033119	5
	58	26	1.584686	294956.1	-403140.4	1	499521.1	-53.80907	1.288067E-010	0.0033132	5
	59	28	1.266892	332819	-454443.7	1	563282.8	-53.78223	5.516912E-011	0.0032789	5
	60	30	0.999041	376728.7	-519268.6	1	641532.8	-54.03917	1.807761E-011	0.0032522	5
