EXPLAIN
TAG	EISPOT
TITLE	LABEL	Potentiostatic EIS	Test &Identifier
DATE	LABEL	10/20/2019	Date
TIME	LABEL	9:39:27	Time
NOTES	NOTES	1	&Notes...
	
PSTAT	PSTAT	REF600-11020	Potentiostat
VDC	POTEN	0.00000E+000	T	DC &Voltage (V)
FREQINIT	QUANT	1.00000E+006	Initial Fre&q. (Hz)
FREQFINAL	QUANT	1.00000E+000	Final Fre&q. (Hz)
PTSPERDEC	QUANT	1.00000E+001	Points/&decade
VAC	QUANT	2.50000E+001	AC &Voltage (mV rms)
AREA	QUANT	1.00000E-002	&Area (cm^2)
CONDIT	TWOPARAM	T	5.00000E+000	0.00000E+000	Conditionin&g	Time(s)	E(V)
DELAY	TWOPARAM	T	5.00000E+000	0.00000E+000	Init. De&lay	Time(s)	Stab.(mV/s)
SPEED	SELECTOR	1	&Optimize for:
ZGUESS	QUANT	1.00000E+005	E&stimated Z (ohms)
OCVCURVE	TABLE	19
	Pt	T	Vf	Vm	Ach	Over
	#	s	V vs. Ref.	V	V	bits
	0	0.258333	4.75159E-003	4.75159E-003	5.91465E-004	...........
	1	0.516667	4.74965E-003	4.65020E-003	5.91199E-004	...........
	2	0.775	4.73837E-003	4.58599E-003	6.00932E-004	...........
	3	1.03333	4.70836E-003	4.51871E-003	5.93932E-004	...........
	4	1.29167	4.65876E-003	4.48714E-003	5.89132E-004	...........
	5	1.55	4.59969E-003	4.45556E-003	5.91032E-004	...........
	6	1.80833	4.54376E-003	4.43297E-003	6.00399E-004	...........
	7	2.06667	4.49822E-003	4.41927E-003	5.95898E-004	...........
	8	2.325	4.46412E-003	4.40354E-003	5.93765E-004	...........
	9	2.58333	4.43938E-003	4.39703E-003	6.01065E-004	...........
	10	2.84167	4.42138E-003	4.38888E-003	6.05065E-004	...........
	11	3.1	4.40811E-003	4.38386E-003	5.99565E-004	...........
	12	3.35833	4.39812E-003	4.37518E-003	5.97532E-004	...........
	13	3.61667	4.39024E-003	4.37407E-003	6.03265E-004	...........
	14	3.875	4.38375E-003	4.37223E-003	5.98799E-004	...........
	15	4.13333	4.37877E-003	4.37807E-003	5.85732E-004	...........
	16	4.39167	4.38088E-003	4.63977E-003	5.88532E-004	...........
	17	4.65	4.41115E-003	4.89986E-003	6.03265E-004	...........
	18	4.90833	4.48900E-003	4.56466E-003	6.03265E-004	...........
EOC	QUANT	0.004489	Open Circuit (V)
PSTATMODEL	IQUANT	4	Pstat Model
PSTATSECTION	LABEL	REF600-11020	Pstat Section
PSTATSERIALNO	LABEL	11020	Pstat Serial Number
CTRLMODE	IQUANT	1	Control Mode
IESTAB	IQUANT	0	I/E Stability
CASPEED	IQUANT	1	Control Amp Speed
CONVENTION	IQUANT	1	Current Convention
ICHRANGE	IQUANT	2	Ich Range
ICHRANGEMODE	TOGGLE	F	Ich Auto Range
ICHOFFSETENABLE	TOGGLE	T	Ich Offset Enable
ICHOFFSET	QUANT	0	Ich Offset (V)
ICHFILTER	IQUANT	3	Ich Filter
VCHRANGE	IQUANT	2	Vch Range
VCHRANGEMODE	TOGGLE	F	Vch Auto Range
VCHOFFSETENABLE	TOGGLE	T	Vch Offset Enable
VCHOFFSET	QUANT	0	Vch Offset (V)
VCHFILTER	IQUANT	3	Vch Filter
ACHRANGE	IQUANT	2	Ach Range
ACHOFFSETENABLE	TOGGLE	F	Ach Offset Enable
ACHOFFSET	QUANT	0	Ach Offset (V)
ACHFILTER	IQUANT	3	Ach Filter
IERANGELOWERLIMIT	IQUANT	1	I/E Range Lower Limit
IERANGEMODE	TOGGLE	F	I/E AutoRange
IERANGE	IQUANT	4	I/E Range
POSFEEDENABLE	TOGGLE	F	Positive Feedback IR Comp
POSFEEDRESISTANCE	QUANT	0	Positive Feedback Resistance (ohm)
ACHSELECT	IQUANT	0	Ach Select
CABLEID	IQUANT	14	Cable ID
DCCALDATE	LABEL	8/19/2019	DC Calibration Date
ACCALDATE	LABEL	8/19/2019	AC Calibration Date
THERMOSELECT	IQUANT	1	Thermo Select
FRAMEWORKVERSION	QUANT	6.33	Framework Version
INSTRUMENTVERSION	LABEL	3.50	Instrument Version
ZCURVE	TABLE
	Pt	Time	Freq	Zreal	Zimag	Zsig	Zmod	Zphz	Idc	Vdc	IERange
	#	s	Hz	ohm	ohm	V	ohm	°	A	V	#
	0	1	1000078	2655.193	-1262.531	1	2940.074	-25.43085	6.375004E-007	0.0064588	8
	1	3	794390.6	2886.646	-1139.826	1	3103.534	-21.54716	1.650188E-006	0.0058322	8
	2	5	630984.4	3058.245	-1010.046	1	3220.723	-18.27682	1.227991E-006	0.0058714	8
	3	6	501234.4	3193.086	-873.968	1	3310.531	-15.30732	-5.097878E-007	0.0061783	8
	4	7	398109.4	3290.84	-754.6301	1	3376.255	-12.91534	-9.109912E-007	0.0064652	8
	5	9	316265.6	3353.439	-645.5085	1	3415.001	-10.89568	2.502263E-008	0.0060045	8
	6	10	251203.1	3427.391	-551.6498	1	3471.502	-9.143524	2.873328E-006	0.0055025	8
	7	11	199546.9	3469.322	-486.5729	1	3503.277	-7.983666	-2.849855E-007	0.0061899	8
	8	13	158578.1	3503.458	-432.1864	1	3530.015	-7.032476	-2.746681E-006	0.0064632	8
	9	14	125953.1	3567.555	-354.9609	1	3585.17	-5.682056	-7.987254E-007	0.0077193	7
	10	16	100078.1	3575.865	-321.1929	1	3590.261	-5.132672	-2.084427E-008	0.0060917	7
	11	17	79453.13	3602.19	-315.3256	1	3615.965	-5.002759	-9.556764E-009	0.0060804	7
	12	18	63140.62	3627.813	-318.5571	1	3641.772	-5.018253	-9.597417E-009	0.0059868	7
	13	20	50203.12	3655.894	-328.8865	1	3670.657	-5.140528	4.30066E-008	0.0058897	7
	14	21	39890.62	3684.812	-345.444	1	3700.969	-5.355716	-3.618385E-008	0.0060464	7
	15	23	31640.63	3718.418	-371.4806	1	3736.928	-5.705081	-1.224464E-008	0.0059859	7
	16	24	25171.88	3754.045	-403.6602	1	3775.685	-6.137248	1.458399E-008	0.0059445	7
	17	25	20015.62	3794.878	-454.484	1	3821.996	-6.829358	-4.183152E-008	0.0060454	7
	18	27	15890.62	3837.55	-498.4789	1	3869.79	-7.401	3.92077E-008	0.0059884	7
	19	28	12609.37	3890.323	-561.2437	1	3930.599	-8.209227	-4.190808E-008	0.0060476	7
	20	29	10078.13	3944.417	-631.6674	1	3994.676	-9.098217	-1.28869E-008	0.005991	7
	21	31	8015.625	3990.801	-715.5528	1	4054.443	-10.16515	8.775806E-008	0.0058446	7
	22	32	6328.125	4079.48	-819.2966	1	4160.938	-11.35585	-1.836267E-008	0.0060823	7
	23	34	5015.625	4158.806	-937.8051	1	4263.232	-12.70757	-2.346804E-008	0.0060094	7
	24	35	3984.375	4261.5	-1080.672	1	4396.389	-14.22965	-1.835173E-008	0.0060796	7
	25	36	3170.956	4342.281	-1236.786	1	4514.98	-15.89823	-4.486156E-008	0.0060443	7
	26	38	2527.573	4444.411	-1424.611	1	4667.151	-17.77273	1.356198E-008	0.0059438	7
	27	39	1976.103	4567.201	-1668.665	1	4862.485	-20.0702	-4.197528E-008	0.0060484	7
	28	40	1577.524	4681.986	-1920.906	1	5060.719	-22.30717	-5.824937E-008	0.0061924	7
	29	42	1265.625	4812.584	-2257.034	1	5315.559	-25.12591	-3.535716E-008	0.0060416	7
	30	43	998.264	4957.468	-2681.49	1	5636.212	-28.40892	8.612552E-008	0.0059721	7
	31	44	796.875	5107.802	-3161.182	1	6006.889	-31.75307	-8.623848E-009	0.0060622	7
	32	46	627.7902	5282.029	-3795.566	1	6504.318	-35.70031	-1.099882E-008	0.0059757	7
	33	47	505.5147	5455.765	-4507.213	1	7076.747	-39.56139	1.413621E-007	0.0057991	7
	34	49	397.9953	5670.409	-5479.058	1	7885.024	-44.01677	4.061695E-009	0.0060302	7
	35	50	315.5048	5914.844	-6654.882	1	8903.529	-48.36938	6.132184E-009	0.0060302	7
	36	51	252.4038	6196.806	-8048.753	1	10157.89	-52.40701	2.044073E-009	0.0059682	6
	37	53	198.6229	6564.729	-9907.64	1	11885.16	-56.47184	1.220744E-009	0.0059689	6
	38	54	158.3615	6998.613	-12086.45	1	13966.49	-59.92717	8.295016E-011	0.0059668	6
	39	55	125.558	7574.946	-14825.89	1	16648.93	-62.93629	1.308802E-009	0.0059744	6
	40	57	100.4464	8296.069	-18035.51	1	19852.06	-65.29827	-2.836255E-010	0.0059764	6
	41	58	79.00281	9277.325	-22394.56	1	24240.15	-67.49739	3.946786E-010	0.0059704	6
	42	60	63.3446	10168.43	-27297.29	1	29129.69	-69.56927	4.435723E-010	0.0059675	6
	43	61	49.86702	12277.97	-33121.37	1	35323.84	-69.66045	1.735455E-009	0.0059671	6
	44	62	39.72458	14356.21	-40625.89	1	43087.86	-70.53783	4.983856E-010	0.0059716	6
	45	64	31.6723	17183.67	-49284.34	1	52194.1	-70.77818	5.186707E-010	0.0059644	6
	46	65	24.93351	21251.31	-60314.84	1	63949.18	-70.59061	4.663878E-010	0.0059689	6
	47	67	19.86229	26475.99	-72706.48	1	77377.07	-69.99096	8.88257E-010	0.0059733	6
	48	68	15.83615	31983.83	-86530.46	1	92252.3	-69.71442	-6.821379E-010	0.0059635	6
	49	70	12.40079	41723.9	-103837.4	1	111906.6	-68.10876	-8.430044E-010	0.0059786	5
	50	71	9.93114	52712.51	-123766.5	1	134524.2	-66.9307	-4.707546E-010	0.0059809	5
	51	73	7.944915	64851.09	-145871.9	1	159637.9	-66.03123	-2.005631E-010	0.0059834	5
	52	74	6.317385	81701.32	-169294.8	1	187978.3	-64.23814	-3.091858E-010	0.0059798	5
	53	76	5.008013	101405.8	-196768.5	1	221361.7	-62.73543	-1.493706E-010	0.0059673	5
	54	79	3.945707	125319.9	-228063.8	1	260227.1	-61.21143	1.198748E-010	0.0059776	5
	55	82	3.158693	149652.8	-260294.8	1	300248.7	-60.10387	2.748685E-011	0.0059679	5
	56	85	2.504006	178406.9	-298036.8	1	347354.2	-59.09497	8.572325E-011	0.0059854	5
	57	88	1.998082	208686.6	-339017.1	1	398098.8	-58.38506	3.68405E-010	0.005947	5
	58	91	1.584686	243390.5	-388721.8	1	458632.3	-57.94807	4.10468E-011	0.0059285	5
	59	95	1.266892	278826.1	-443156	1	523575.4	-57.82261	2.809266E-010	0.0059447	5
	60	99	0.999041	320211.1	-513664	1	605298.2	-58.06115	-1.387457E-010	0.0059872	5
