EXPLAIN
TAG	EISPOT
TITLE	LABEL	Potentiostatic EIS	Test &Identifier
DATE	LABEL	10/14/2019	Date
TIME	LABEL	11:38:40	Time
NOTES	NOTES	1	&Notes...
	
PSTAT	PSTAT	REF600-11020	Potentiostat
VDC	POTEN	0.00000E+000	T	DC &Voltage (V)
FREQINIT	QUANT	1.00000E+006	Initial Fre&q. (Hz)
FREQFINAL	QUANT	1.00000E+000	Final Fre&q. (Hz)
PTSPERDEC	QUANT	1.00000E+001	Points/&decade
VAC	QUANT	2.50000E+001	AC &Voltage (mV rms)
AREA	QUANT	1.00000E-002	&Area (cm^2)
CONDIT	TWOPARAM	T	5.00000E+000	0.00000E+000	Conditionin&g	Time(s)	E(V)
DELAY	TWOPARAM	T	5.00000E+000	0.00000E+000	Init. De&lay	Time(s)	Stab.(mV/s)
SPEED	SELECTOR	1	&Optimize for:
ZGUESS	QUANT	1.00000E+004	E&stimated Z (ohms)
OCVCURVE	TABLE	19
	Pt	T	Vf	Vm	Ach	Over
	#	s	V vs. Ref.	V	V	bits
	0	0.258333	7.15049E-003	7.15050E-003	5.80432E-004	...........
	1	0.516667	7.15265E-003	7.26346E-003	5.78099E-004	...........
	2	0.775	7.16619E-003	7.38542E-003	5.74966E-004	...........
	3	1.03333	7.20838E-003	7.65692E-003	5.73866E-004	...........
	4	1.29167	7.29688E-003	7.82962E-003	5.76766E-004	...........
	5	1.55	7.43051E-003	7.69860E-003	5.79232E-004	...........
	6	1.80833	7.56509E-003	7.33381E-003	5.73166E-004	...........
	7	2.06667	7.61944E-003	6.85911E-003	5.79166E-004	...........
	8	2.325	7.53626E-003	7.01710E-003	5.76866E-004	...........
	9	2.58333	7.34690E-003	6.86685E-003	5.80132E-004	...........
	10	2.84167	7.14378E-003	6.77679E-003	5.73366E-004	...........
	11	3.1	6.99219E-003	6.98194E-003	5.74032E-004	...........
	12	3.35833	6.91233E-003	7.14179E-003	5.76799E-004	...........
	13	3.61667	6.91056E-003	7.15634E-003	5.73565E-004	...........
	14	3.875	6.97232E-003	7.19297E-003	5.80365E-004	...........
	15	4.13333	7.05854E-003	7.27877E-003	5.83165E-004	...........
	16	4.39167	7.14225E-003	7.53479E-003	5.80899E-004	...........
	17	4.65	7.22755E-003	7.44780E-003	5.73932E-004	...........
	18	4.90833	7.31978E-003	7.51731E-003	5.73699E-004	...........
EOC	QUANT	0.0073198	Open Circuit (V)
PSTATMODEL	IQUANT	4	Pstat Model
PSTATSECTION	LABEL	REF600-11020	Pstat Section
PSTATSERIALNO	LABEL	11020	Pstat Serial Number
CTRLMODE	IQUANT	1	Control Mode
IESTAB	IQUANT	0	I/E Stability
CASPEED	IQUANT	1	Control Amp Speed
CONVENTION	IQUANT	1	Current Convention
ICHRANGE	IQUANT	2	Ich Range
ICHRANGEMODE	TOGGLE	F	Ich Auto Range
ICHOFFSETENABLE	TOGGLE	T	Ich Offset Enable
ICHOFFSET	QUANT	0	Ich Offset (V)
ICHFILTER	IQUANT	3	Ich Filter
VCHRANGE	IQUANT	2	Vch Range
VCHRANGEMODE	TOGGLE	F	Vch Auto Range
VCHOFFSETENABLE	TOGGLE	T	Vch Offset Enable
VCHOFFSET	QUANT	0	Vch Offset (V)
VCHFILTER	IQUANT	3	Vch Filter
ACHRANGE	IQUANT	2	Ach Range
ACHOFFSETENABLE	TOGGLE	F	Ach Offset Enable
ACHOFFSET	QUANT	0	Ach Offset (V)
ACHFILTER	IQUANT	3	Ach Filter
IERANGELOWERLIMIT	IQUANT	1	I/E Range Lower Limit
IERANGEMODE	TOGGLE	F	I/E AutoRange
IERANGE	IQUANT	6	I/E Range
POSFEEDENABLE	TOGGLE	F	Positive Feedback IR Comp
POSFEEDRESISTANCE	QUANT	0	Positive Feedback Resistance (ohm)
ACHSELECT	IQUANT	0	Ach Select
CABLEID	IQUANT	14	Cable ID
DCCALDATE	LABEL	8/19/2019	DC Calibration Date
ACCALDATE	LABEL	8/19/2019	AC Calibration Date
THERMOSELECT	IQUANT	1	Thermo Select
FRAMEWORKVERSION	QUANT	6.33	Framework Version
INSTRUMENTVERSION	LABEL	3.50	Instrument Version
ZCURVE	TABLE
	Pt	Time	Freq	Zreal	Zimag	Zsig	Zmod	Zphz	Idc	Vdc	IERange
	#	s	Hz	ohm	ohm	V	ohm	°	A	V	#
	0	2	1000078	2558.18	-1966.809	1	3226.859	-37.55421	2.946447E-007	0.0095587	8
	1	3	794390.6	2926.802	-1936.957	1	3509.696	-33.49658	-1.914945E-006	0.0095396	8
	2	5	630984.4	3277.082	-1872.503	1	3774.325	-29.74337	4.09967E-006	0.0083511	8
	3	6	501234.4	3608.144	-1748.446	1	4009.459	-25.85405	-2.451877E-006	0.0094332	8
	4	8	398109.4	3890.962	-1624.839	1	4216.597	-22.66507	-1.504315E-006	0.0093342	8
	5	9	316265.6	4140.602	-1492.049	1	4401.227	-19.81642	8.472447E-007	0.0088153	8
	6	11	251203.1	4349.617	-1353.974	1	4555.482	-17.29062	-6.822914E-007	0.0091015	8
	7	12	199546.9	4508.863	-1232.895	1	4674.385	-15.29302	-9.494691E-007	0.0089482	8
	8	13	158578.1	4657.154	-1128.376	1	4791.901	-13.61967	-6.595934E-007	0.0091074	8
	9	15	125953.1	4800.164	-975.9	1	4898.362	-11.49192	6.026013E-007	0.0075978	7
	10	16	100078.1	4901.066	-921.4554	1	4986.936	-10.64795	8.138215E-008	0.0086283	7
	11	18	79453.13	4994.179	-877.1561	1	5070.624	-9.96158	-6.39541E-009	0.008798	7
	12	19	63140.62	5078.725	-852.5957	1	5149.793	-9.52972	4.094699E-008	0.0086604	7
	13	20	50203.12	5159.677	-845.9516	1	5228.566	-9.311052	9.015368E-008	0.0087117	7
	14	22	39890.62	5241.868	-858.9227	1	5311.773	-9.305683	-6.256557E-008	0.0088875	7
	15	23	31640.63	5325.149	-891.3856	1	5399.239	-9.50273	-4.438186E-008	0.008883	7
	16	24	25171.88	5411.283	-941.549	1	5492.586	-9.8705	-6.825151E-009	0.0087603	7
	17	26	20015.62	5524.102	-1025.195	1	5618.427	-10.51367	-6.565759E-009	0.0087636	7
	18	27	15890.62	5609.832	-1102.221	1	5717.089	-11.11589	4.211588E-008	0.0086561	7
	19	28	12609.37	5720.657	-1216.633	1	5848.599	-12.00642	-2.551988E-008	0.0087762	7
	20	30	10078.13	5843.94	-1351.548	1	5998.193	-13.02204	-9.541145E-009	0.0088353	7
	21	31	8015.625	5995.934	-1520.513	1	6185.724	-14.22971	-5.419696E-008	0.0088491	7
	22	33	6328.125	6146.944	-1713.684	1	6381.35	-15.57774	4.365216E-008	0.0087271	7
	23	34	5015.625	6330.302	-1946.96	1	6622.943	-17.09591	9.631434E-008	0.0086982	7
	24	35	3984.375	6541.824	-2215.895	1	6906.928	-18.71265	5.182374E-008	0.0086966	7
	25	37	3170.956	6768.383	-2521.061	1	7222.656	-20.42916	-4.236237E-009	0.0087743	7
	26	38	2527.573	7034.283	-2872.406	1	7598.148	-22.21235	-5.252047E-008	0.0089433	7
	27	39	1976.103	7362.855	-3304.75	1	8070.502	-24.17249	-3.525061E-008	0.0087858	7
	28	41	1577.524	7620.125	-3769.356	1	8501.433	-26.31967	4.775768E-009	0.0087035	7
	29	42	1265.625	8072.16	-4267.67	1	9130.869	-27.86496	6.517605E-008	0.0086705	7
	30	43	998.264	8506.096	-4883.688	1	9808.37	-29.86185	7.691326E-009	0.0087103	6
	31	45	796.875	8942.444	-5571.252	1	10535.95	-31.92341	1.519435E-008	0.0084519	6
	32	46	627.7902	9434.448	-6433.733	1	11419.36	-34.29166	-3.601435E-009	0.0086988	6
	33	48	505.5147	9888.61	-7363.97	1	12329.34	-36.67477	2.191547E-010	0.0088471	6
	34	49	397.9953	10409.65	-8618.639	1	13514.5	-39.62294	5.677042E-012	0.0087269	6
	35	50	315.5048	10931.97	-10129.91	1	14903.79	-42.81918	-1.267635E-010	0.0087298	6
	36	52	252.4038	11460.58	-11931.6	1	16544.13	-46.15353	8.674179E-010	0.0087239	6
	37	53	198.6229	12078.06	-14347.36	1	18754.36	-49.90827	6.234356E-010	0.0087278	6
	38	54	158.3615	12735.15	-17202.52	1	21403.52	-53.48718	6.714011E-010	0.0087319	6
	39	56	125.558	13526.75	-20856.34	1	24858.8	-57.03385	5.081436E-010	0.008727	6
	40	57	100.4464	14425.25	-25171.11	1	29011.6	-60.18352	6.608761E-010	0.0087274	6
	41	59	79.00281	15718.6	-31005.66	1	34762.42	-63.11686	7.754373E-010	0.0087257	6
	42	60	63.3446	17242.11	-37865.92	1	41606.71	-65.51803	3.541863E-010	0.0087257	6
	43	61	49.86702	18842.2	-46254.29	1	49944.84	-67.83593	6.778997E-010	0.0087243	6
	44	63	39.72458	21544.02	-56491	1	60459.72	-69.12461	3.493425E-010	0.0087278	6
	45	64	31.6723	24942.26	-68896.14	1	73272.06	-70.09837	3.82494E-010	0.0087269	6
	46	66	24.93351	29368.44	-84762.99	1	89706.58	-70.88997	4.015771E-010	0.0087221	6
	47	67	19.86229	35240.3	-103086.4	1	108943.5	-71.12691	1.997947E-010	0.0087287	5
	48	68	15.83615	43316.96	-124807	1	132110.4	-70.85957	-2.716316E-010	0.0087282	5
	49	70	12.40079	54393.65	-152822.1	1	162213.6	-70.40794	-3.694504E-010	0.0087309	5
	50	71	9.93114	66761.95	-183511.4	1	195278.3	-70.00848	1.686167E-010	0.008736	5
	51	73	7.944915	84817.21	-218356.9	1	234251.4	-68.77215	5.779858E-010	0.0087317	5
	52	74	6.317385	107725.8	-260679.3	1	282061.3	-67.54712	-1.554585E-010	0.0087388	5
	53	76	5.008013	138321.2	-308265.9	1	337876.7	-65.83388	-7.302988E-011	0.0087204	5
	54	79	3.945707	177783.4	-362937.9	1	404142.1	-63.9023	1.634497E-010	0.0087294	5
	55	82	3.158693	223234.1	-418925.3	1	474691.4	-61.94804	-1.149013E-010	0.0087149	5
	56	85	2.504006	279731.4	-480928.7	1	556365.1	-59.81564	4.065303E-010	0.0087344	5
	57	88	1.998082	343421.1	-543233.8	1	642682.7	-57.69978	3.501948E-010	0.0087394	5
	58	91	1.584686	418133.7	-608333.9	1	738177.4	-55.4976	1.336724E-010	0.0086785	5
	59	94	1.266892	494354	-676860.9	1	838168.6	-53.857	2.781884E-010	0.0087395	5
	60	99	0.999041	582147.9	-753798.3	1	952422	-52.32159	-1.109635E-010	0.0086974	5
