EXPLAIN
TAG	EISPOT
TITLE	LABEL	Potentiostatic EIS	Test &Identifier
DATE	LABEL	10/2/2019	Date
TIME	LABEL	10:14:29	Time
NOTES	NOTES	2	&Notes...
	
	
PSTAT	PSTAT	REF600-11020	Potentiostat
VDC	POTEN	0.00000E+000	T	DC &Voltage (V)
FREQINIT	QUANT	1.00000E+006	Initial Fre&q. (Hz)
FREQFINAL	QUANT	1.00000E+000	Final Fre&q. (Hz)
PTSPERDEC	QUANT	1.00000E+001	Points/&decade
VAC	QUANT	2.50000E+001	AC &Voltage (mV rms)
AREA	QUANT	1.00000E-002	&Area (cm^2)
CONDIT	TWOPARAM	T	5.00000E+000	0.00000E+000	Conditionin&g	Time(s)	E(V)
DELAY	TWOPARAM	T	5.00000E+000	0.00000E+000	Init. De&lay	Time(s)	Stab.(mV/s)
SPEED	SELECTOR	1	&Optimize for:
ZGUESS	QUANT	1.00000E+004	E&stimated Z (ohms)
OCVCURVE	TABLE	19
	Pt	T	Vf	Vm	Ach	Over
	#	s	V vs. Ref.	V	V	bits
	0	0.258333	2.74925E-003	2.74925E-003	5.73399E-004	...........
	1	0.516667	2.72183E-003	1.31356E-003	5.67932E-004	...........
	2	0.775	2.57788E-003	1.23385E-003	5.68532E-004	...........
	3	1.03333	2.25203E-003	1.15770E-003	5.66532E-004	...........
	4	1.29167	1.82458E-003	9.79635E-004	5.72699E-004	...........
	5	1.55	1.42589E-003	-1.27246E-004	5.65299E-004	...........
	6	1.80833	1.06122E-003	-2.11355E-004	5.71432E-004	...........
	7	2.06667	6.73110E-004	-4.15701E-005	5.67266E-004	...........
	8	2.325	3.09179E-004	3.00620E-004	5.68166E-004	...........
	9	2.58333	1.01158E-004	8.33389E-004	5.63432E-004	...........
	10	2.84167	1.17704E-004	6.37923E-004	5.65532E-004	...........
	11	3.1	2.83731E-004	1.58067E-004	5.66932E-004	...........
	12	3.35833	3.89796E-004	-1.95627E-003	5.64766E-004	...........
	13	3.61667	1.26189E-004	-5.50352E-003	5.71066E-004	...........
	14	3.875	-8.27878E-004	-7.89287E-003	5.67399E-004	...........
	15	4.13333	-2.52895E-003	-7.41270E-003	5.61599E-004	...........
	16	4.39167	-4.51195E-003	-6.37809E-003	5.69266E-004	...........
	17	4.65	-6.05232E-003	-6.77924E-003	5.68666E-004	...........
	18	4.90833	-6.82462E-003	-8.32985E-003	5.67999E-004	...........
EOC	QUANT	-0.0068246	Open Circuit (V)
PSTATMODEL	IQUANT	4	Pstat Model
PSTATSECTION	LABEL	REF600-11020	Pstat Section
PSTATSERIALNO	LABEL	11020	Pstat Serial Number
CTRLMODE	IQUANT	1	Control Mode
IESTAB	IQUANT	0	I/E Stability
CASPEED	IQUANT	1	Control Amp Speed
CONVENTION	IQUANT	1	Current Convention
ICHRANGE	IQUANT	2	Ich Range
ICHRANGEMODE	TOGGLE	F	Ich Auto Range
ICHOFFSETENABLE	TOGGLE	T	Ich Offset Enable
ICHOFFSET	QUANT	0	Ich Offset (V)
ICHFILTER	IQUANT	3	Ich Filter
VCHRANGE	IQUANT	2	Vch Range
VCHRANGEMODE	TOGGLE	F	Vch Auto Range
VCHOFFSETENABLE	TOGGLE	T	Vch Offset Enable
VCHOFFSET	QUANT	0	Vch Offset (V)
VCHFILTER	IQUANT	3	Vch Filter
ACHRANGE	IQUANT	2	Ach Range
ACHOFFSETENABLE	TOGGLE	F	Ach Offset Enable
ACHOFFSET	QUANT	0	Ach Offset (V)
ACHFILTER	IQUANT	3	Ach Filter
IERANGELOWERLIMIT	IQUANT	1	I/E Range Lower Limit
IERANGEMODE	TOGGLE	F	I/E AutoRange
IERANGE	IQUANT	6	I/E Range
POSFEEDENABLE	TOGGLE	F	Positive Feedback IR Comp
POSFEEDRESISTANCE	QUANT	0	Positive Feedback Resistance (ohm)
ACHSELECT	IQUANT	0	Ach Select
CABLEID	IQUANT	14	Cable ID
DCCALDATE	LABEL	8/19/2019	DC Calibration Date
ACCALDATE	LABEL	8/19/2019	AC Calibration Date
THERMOSELECT	IQUANT	1	Thermo Select
FRAMEWORKVERSION	QUANT	6.33	Framework Version
INSTRUMENTVERSION	LABEL	3.50	Instrument Version
ZCURVE	TABLE
	Pt	Time	Freq	Zreal	Zimag	Zsig	Zmod	Zphz	Idc	Vdc	IERange
	#	s	Hz	ohm	ohm	V	ohm	°	A	V	#
	0	1	1000078	2441.359	-2009.268	1	3161.865	-39.45479	4.77098E-007	-0.0043393	8
	1	3	794390.6	2866.049	-1972.84	1	3479.416	-34.54152	8.68877E-007	-0.0051467	8
	2	4	630984.4	3253.123	-1868.927	1	3751.759	-29.87747	3.430451E-007	-0.0050554	8
	3	6	501234.4	3593.973	-1714.211	1	3981.854	-25.49966	-3.140019E-006	-0.0043427	8
	4	7	398109.4	3893.023	-1526.088	1	4181.456	-21.40547	3.862258E-006	-0.0059558	8
	5	9	316265.6	4080.222	-1355.834	1	4299.593	-18.38135	4.005854E-006	-0.0059803	8
	6	10	251203.1	4271.378	-1153.774	1	4424.462	-15.11585	-3.034159E-006	-0.0047213	8
	7	12	199546.9	4413.686	-1008.616	1	4527.464	-12.87221	1.993178E-006	-0.0056614	8
	8	13	158578.1	4507.722	-862.4357	1	4589.482	-10.83117	3.329368E-006	-0.0058052	8
	9	14	125953.1	4590.201	-707.4993	1	4644.405	-8.762191	6.880676E-007	-0.0069346	7
	10	16	100078.1	4638.91	-625.8139	1	4680.932	-7.683124	-2.484792E-008	-0.0051931	7
	11	17	79453.13	4686.896	-569.5043	1	4721.37	-6.928042	7.959641E-009	-0.0051455	7
	12	18	63140.62	4725.441	-526.8892	1	4754.725	-6.36223	-6.38173E-008	-0.0050596	7
	13	20	50203.12	4773.494	-501.8424	1	4799.801	-6.001519	8.821281E-008	-0.0053105	7
	14	21	39890.62	4808.726	-489.9678	1	4833.623	-5.817869	5.669131E-008	-0.0053887	7
	15	22	31640.63	4845.623	-490.5009	1	4870.385	-5.780109	-5.960266E-008	-0.0050558	7
	16	24	25171.88	4886.171	-503.6837	1	4912.063	-5.885463	-6.352821E-008	-0.0051764	7
	17	25	20015.62	4933.204	-537.3061	1	4962.378	-6.21594	5.021764E-009	-0.0052948	7
	18	26	15890.62	4972.702	-570.1235	1	5005.277	-6.540441	-3.37429E-008	-0.005248	7
	19	28	12609.37	5026.42	-622.5098	1	5064.821	-7.059992	-2.326178E-008	-0.0052082	7
	20	29	10078.13	5074.005	-688.9727	1	5120.567	-7.732603	6.543861E-009	-0.0052953	7
	21	31	8015.625	5127.265	-776.0834	1	5185.667	-8.607183	-6.3797E-008	-0.0051777	7
	22	32	6328.125	5189.437	-886.9199	1	5264.682	-9.69864	1.576852E-008	-0.0053449	7
	23	33	5015.625	5256.764	-1022.244	1	5355.236	-11.00454	-2.548552E-008	-0.005214	7
	24	35	3984.375	5330.17	-1193.084	1	5462.066	-12.61689	-5.982925E-008	-0.0051594	7
	25	36	3170.956	5405.166	-1392.237	1	5581.589	-14.44401	1.186513E-007	-0.0054289	7
	26	37	2527.573	5491.905	-1637.794	1	5730.916	-16.60561	4.434898E-008	-0.0053082	7
	27	39	1976.103	5601.961	-1967.66	1	5937.479	-19.35357	-3.791846E-008	-0.0052471	7
	28	40	1577.524	5717.28	-2336.568	1	6176.313	-22.22911	-6.982226E-009	-0.0052115	7
	29	41	1265.625	5845.04	-2775.844	1	6470.688	-25.40332	8.086833E-008	-0.0054272	7
	30	43	998.264	6012.322	-3353.658	1	6884.406	-29.15267	-2.022699E-008	-0.0052841	7
	31	44	796.875	6187.35	-4020.364	1	7378.795	-33.01467	-2.16944E-008	-0.0052202	7
	32	45	627.7902	6403.73	-4880.587	1	8051.577	-37.31275	1.036624E-008	-0.00517	7
	33	47	505.5147	6648.371	-5828.666	1	8841.616	-41.24124	8.997318E-008	-0.0053263	7
	34	48	397.9953	6926.016	-7107.304	1	9923.88	-45.74013	1.242774E-008	-0.0052384	7
	35	49	315.5048	7260.431	-8639.24	1	11284.96	-49.95626	1.773738E-009	-0.0052989	6
	36	51	252.4038	7642.349	-10455.14	1	12950.5	-53.83448	-4.821603E-009	-0.0053035	6
	37	52	198.6229	8138.823	-12861.65	1	15220.46	-57.67446	5.066588E-009	-0.0052987	6
	38	53	158.3615	8708.929	-15652.96	1	17912.58	-60.90948	-5.316481E-010	-0.0052991	6
	39	55	125.558	9446.36	-19185.86	1	21385.29	-63.78618	1.420952E-009	-0.0052996	6
	40	56	100.4464	10335.62	-23340.51	1	25526.54	-66.11534	-1.674673E-009	-0.0052981	6
	41	58	79.00281	11639.65	-28822.5	1	31084.04	-68.00921	1.748739E-009	-0.0053002	6
	42	59	63.3446	13261.88	-34881.32	1	37317.34	-69.1832	7.876772E-010	-0.0052997	6
	43	60	49.86702	15255.44	-43258.52	1	45869.69	-70.57442	9.248051E-010	-0.0053061	6
	44	62	39.72458	17800.68	-52495.25	1	55431.18	-71.26865	1.183238E-009	-0.0052972	6
	45	63	31.6723	21363.6	-63799.63	1	67281.47	-71.48664	6.66012E-010	-0.0053001	6
	46	64	24.93351	25986.88	-78037.2	1	82250.37	-71.58192	7.790939E-010	-0.005302	6
	47	66	19.86229	31762.54	-94207.52	1	99417.9	-71.3682	6.682676E-010	-0.0053018	6
	48	67	15.83615	38780.81	-113433.3	1	119879.4	-71.12537	1.523788E-009	-0.0052978	5
	49	69	12.40079	49691.68	-137196.4	1	145918.2	-70.08993	4.617515E-010	-0.0052974	5
	50	70	9.93114	62143.31	-164197.2	1	175563.4	-69.26997	7.532864E-010	-0.0052984	5
	51	72	7.944915	77565.79	-194076.7	1	209002.9	-68.21511	3.432798E-010	-0.005302	5
	52	73	6.317385	97161.2	-229977.1	1	249659.3	-67.09681	6.91794E-010	-0.0053068	5
	53	75	5.008013	122357.3	-271631.2	1	297917.5	-65.75064	3.5496E-010	-0.0052969	5
	54	78	3.945707	153907	-319451.3	1	354593.5	-64.2759	3.870369E-010	-0.0052977	5
	55	80	3.158693	189367.7	-369378.7	1	415091.3	-62.85735	3.024563E-010	-0.0053098	5
	56	84	2.504006	232481.7	-427297.2	1	486446.9	-61.4505	6.024827E-010	-0.0052937	5
	57	86	1.998082	281352.8	-489287.1	1	564412.3	-60.09998	6.112125E-010	-0.0052892	5
	58	90	1.584686	339432.5	-558385.8	1	653459.3	-58.70535	3.715364E-010	-0.0053466	5
	59	93	1.266892	401127.6	-634460.4	1	750628.6	-57.69753	5.059763E-010	-0.0052795	5
	60	97	0.999041	479451.8	-733698.8	1	876463.3	-56.83649	3.710713E-010	-0.0053368	5
