EXPLAIN
TAG	EISPOT
TITLE	LABEL	Potentiostatic IDE	Test &Identifier
DATE	LABEL	9/10/2019	Date
TIME	LABEL	8:53:00	Time
NOTES	NOTES	1	&Notes...
	
PSTAT	PSTAT	REF600-11020	Potentiostat
VDC	POTEN	0.00000E+000	T	DC &Voltage (V)
FREQINIT	QUANT	1.00000E+006	Initial Fre&q. (Hz)
FREQFINAL	QUANT	1.00000E+000	Final Fre&q. (Hz)
PTSPERDEC	QUANT	1.00000E+001	Points/&decade
VAC	QUANT	2.50000E+001	AC &Voltage (mV rms)
AREA	QUANT	1.00000E-002	&Area (cm^2)
CONDIT	TWOPARAM	T	5.00000E+000	0.00000E+000	Conditionin&g	Time(s)	E(V)
DELAY	TWOPARAM	T	5.00000E+000	0.00000E+000	Init. De&lay	Time(s)	Stab.(mV/s)
SPEED	SELECTOR	1	&Optimize for:
ZGUESS	QUANT	1.00000E+007	E&stimated Z (ohms)
OCVCURVE	TABLE	19
	Pt	T	Vf	Vm	Ach	Over
	#	s	V vs. Ref.	V	V	bits
	0	0.258333	2.98052E-003	2.98052E-003	5.57566E-004	...........
	1	0.516667	2.97613E-003	2.75081E-003	5.53166E-004	...........
	2	0.775	2.94937E-003	2.54257E-003	5.55299E-004	...........
	3	1.03333	2.87442E-003	2.35156E-003	5.56099E-004	...........
	4	1.29167	2.74237E-003	2.17534E-003	5.51466E-004	...........
	5	1.55	2.57041E-003	2.00990E-003	5.55933E-004	...........
	6	1.80833	2.38452E-003	1.85255E-003	5.58066E-004	...........
	7	2.06667	2.20251E-003	1.70462E-003	5.57632E-004	...........
	8	2.325	2.03135E-003	1.56532E-003	5.51699E-004	...........
	9	2.58333	1.87162E-003	1.42937E-003	5.54099E-004	...........
	10	2.84167	1.72166E-003	1.30006E-003	5.53266E-004	...........
	11	3.1	1.57955E-003	1.17521E-003	5.56099E-004	...........
	12	3.35833	1.44383E-003	1.05553E-003	5.58732E-004	...........
	13	3.61667	1.31367E-003	9.42377E-004	5.49866E-004	...........
	14	3.875	1.18876E-003	8.31584E-004	5.52033E-004	...........
	15	4.13333	1.06887E-003	7.22401E-004	5.50599E-004	...........
	16	4.39167	9.53429E-004	6.16292E-004	5.60599E-004	...........
	17	4.65	8.41629E-004	5.14338E-004	5.61632E-004	...........
	18	4.90833	7.32931E-004	4.15353E-004	5.64532E-004	...........
EOC	QUANT	0.0007329	Open Circuit (V)
PSTATMODEL	IQUANT	4	Pstat Model
PSTATSECTION	LABEL	REF600-11020	Pstat Section
PSTATSERIALNO	LABEL	11020	Pstat Serial Number
CTRLMODE	IQUANT	1	Control Mode
IESTAB	IQUANT	0	I/E Stability
CASPEED	IQUANT	1	Control Amp Speed
CONVENTION	IQUANT	1	Current Convention
ICHRANGE	IQUANT	2	Ich Range
ICHRANGEMODE	TOGGLE	F	Ich Auto Range
ICHOFFSETENABLE	TOGGLE	T	Ich Offset Enable
ICHOFFSET	QUANT	0	Ich Offset (V)
ICHFILTER	IQUANT	3	Ich Filter
VCHRANGE	IQUANT	2	Vch Range
VCHRANGEMODE	TOGGLE	F	Vch Auto Range
VCHOFFSETENABLE	TOGGLE	T	Vch Offset Enable
VCHOFFSET	QUANT	0	Vch Offset (V)
VCHFILTER	IQUANT	3	Vch Filter
ACHRANGE	IQUANT	2	Ach Range
ACHOFFSETENABLE	TOGGLE	F	Ach Offset Enable
ACHOFFSET	QUANT	0	Ach Offset (V)
ACHFILTER	IQUANT	3	Ach Filter
IERANGELOWERLIMIT	IQUANT	1	I/E Range Lower Limit
IERANGEMODE	TOGGLE	F	I/E AutoRange
IERANGE	IQUANT	2	I/E Range
POSFEEDENABLE	TOGGLE	F	Positive Feedback IR Comp
POSFEEDRESISTANCE	QUANT	0	Positive Feedback Resistance (ohm)
ACHSELECT	IQUANT	0	Ach Select
CABLEID	IQUANT	14	Cable ID
DCCALDATE	LABEL	8/19/2019	DC Calibration Date
ACCALDATE	LABEL	8/19/2019	AC Calibration Date
THERMOSELECT	IQUANT	1	Thermo Select
FRAMEWORKVERSION	QUANT	6.33	Framework Version
INSTRUMENTVERSION	LABEL	3.50	Instrument Version
ZCURVE	TABLE
	Pt	Time	Freq	Zreal	Zimag	Zsig	Zmod	Zphz	Idc	Vdc	IERange
	#	s	Hz	ohm	ohm	V	ohm	°	A	V	#
	0	2	1000078	2583.344	-1553.616	1	3014.53	-31.02258	-2.956994E-009	0.00332	8
	1	3	794390.6	2874.108	-1441.655	1	3215.411	-26.63838	-5.805904E-007	0.0030199	8
	2	4	630984.4	3115.74	-1295.592	1	3374.373	-22.57859	-3.150404E-007	0.0028377	8
	3	6	501234.4	3319.927	-1142.153	1	3510.901	-18.98474	-4.543114E-007	0.0027252	8
	4	7	398109.4	3458.619	-988.938	1	3597.228	-15.95706	2.725451E-006	0.0019354	8
	5	8	316265.6	3572.805	-847.835	1	3672.024	-13.3495	-2.693449E-007	0.0025316	8
	6	10	251203.1	3673.025	-712.6076	1	3741.513	-10.97962	-1.209478E-006	0.0027233	8
	7	11	199546.9	3740.681	-625.1882	1	3792.566	-9.488272	1.259301E-006	0.0021124	8
	8	13	158578.1	3780.319	-534.2592	1	3817.885	-8.044138	-5.139015E-007	0.0023252	8
	9	14	125953.1	3831.458	-443.2916	1	3857.017	-6.599657	3.335414E-007	0.0011792	7
	10	15	100078.1	3861.899	-399.4994	1	3882.507	-5.906033	-3.426266E-009	0.002361	7
	11	16	79453.13	3891.225	-372.1328	1	3908.978	-5.462803	-3.258492E-008	0.0024238	7
	12	18	63140.62	3920.614	-353.3056	1	3936.501	-5.149293	-1.292911E-008	0.0023112	7
	13	19	50203.12	3949.676	-344.3004	1	3964.654	-4.981983	-4.066997E-009	0.0023428	7
	14	21	39890.62	3976.21	-340.8889	1	3990.796	-4.900108	-2.29164E-008	0.0023351	7
	15	22	31640.63	4008.583	-350.4181	1	4023.871	-4.995922	-4.230496E-008	0.0024004	7
	16	23	25171.88	4037.676	-365.998	1	4054.23	-5.179461	6.278589E-008	0.0022111	7
	17	25	20015.62	4072.021	-390.0279	1	4090.657	-5.471236	6.328284E-008	0.0022107	7
	18	26	15890.62	4100.571	-425.7292	1	4122.612	-5.927322	-1.344731E-009	0.0023203	7
	19	27	12609.37	4139.521	-466.3969	1	4165.712	-6.428364	-7.126763E-009	0.0023835	7
	20	28	10078.13	4177.735	-521.5761	1	4210.167	-7.116364	-2.767333E-008	0.0024143	7
	21	30	8015.625	4218.211	-589.3088	1	4259.177	-7.95308	6.214675E-008	0.0022091	7
	22	31	6328.125	4262.95	-676.1119	1	4316.233	-9.012155	6.54347E-008	0.0022948	7
	23	32	5015.625	4310.847	-784.2856	1	4381.61	-10.31122	-4.730098E-008	0.0023936	7
	24	34	3984.375	4365.482	-918.6544	1	4461.094	-11.8837	6.404856E-008	0.0022088	7
	25	35	3170.956	4423.553	-1079.711	1	4553.416	-13.71669	-1.802512E-008	0.0023276	7
	26	36	2527.573	4490.597	-1270.963	1	4666.992	-15.80298	9.144918E-008	0.0022275	7
	27	38	1976.103	4573.685	-1534.249	1	4824.159	-18.5441	-2.411191E-008	0.0023371	7
	28	39	1577.524	4660.634	-1826.771	1	5005.857	-21.40308	-2.280079E-008	0.0023899	7
	29	40	1265.625	4761.917	-2171.289	1	5233.58	-24.51154	-1.55373E-008	0.0023279	7
	30	42	998.264	4889.142	-2623.691	1	5548.645	-28.21962	-4.746907E-008	0.0024781	7
	31	43	796.875	5025.578	-3147.481	1	5929.845	-32.0586	-7.270555E-009	0.0023446	7
	32	44	627.7902	5195.884	-3819.686	1	6448.815	-36.32097	1.02697E-008	0.0024064	7
	33	46	505.5147	5376.393	-4560.832	1	7050.304	-40.30818	1.753335E-009	0.0023056	7
	34	47	397.9953	5597.823	-5568.363	1	7895.713	-44.84884	5.007845E-009	0.0023649	7
	35	48	315.5048	5851.048	-6773.694	1	8950.85	-49.17988	4.582917E-009	0.002363	7
	36	50	252.4038	6138.99	-8196.93	1	10240.94	-53.16908	1.39536E-009	0.0022954	6
	37	51	198.6229	6506.093	-10084.65	1	12001.22	-57.17198	1.203953E-009	0.0023065	6
	38	52	158.3615	6930.022	-12293.27	1	14112.04	-60.58896	1.452319E-009	0.002291	6
	39	54	125.558	7469.564	-15086.67	1	16834.55	-63.65952	1.05425E-009	0.0023056	6
	40	55	100.4464	8116.862	-18372.91	1	20086	-66.16492	1.193794E-009	0.0022983	6
	41	56	79.00281	9033.317	-22759.31	1	24486.47	-68.35155	1.053881E-009	0.0022969	6
	42	58	63.3446	10145.28	-27550.63	1	29359.22	-69.78422	7.551718E-010	0.0022996	6
	43	59	49.86702	11626.08	-34255.8	1	36174.93	-71.2533	1.240468E-009	0.0022944	6
	44	61	39.72458	13599.53	-41722.25	1	43882.72	-71.94642	1.02814E-009	0.0023037	6
	45	62	31.6723	16051	-50892.47	1	53363.64	-72.49522	1.180808E-009	0.0022999	6
	46	63	24.93351	19643.52	-62487.44	1	65502.27	-72.54897	1.219923E-009	0.0023023	6
	47	65	19.86229	24028.35	-75766.15	1	79485.03	-72.40418	1.699062E-009	0.0023085	6
	48	66	15.83615	29708.85	-91610.04	1	96306.9	-72.03228	7.496844E-010	0.0022983	6
	49	67	12.40079	37971.93	-111621.6	1	117903.6	-71.21249	2.524525E-010	0.0023066	5
	50	69	9.93114	47555.18	-133607.9	1	141818.8	-70.40779	2.555596E-010	0.0023125	5
	51	70	7.944915	59792.42	-158922.2	1	169798.1	-69.38184	2.993874E-010	0.0023039	5
	52	72	6.317385	75490.72	-188762.9	1	203298.5	-68.20237	5.301514E-011	0.0023119	5
	53	74	5.008013	95939.3	-223579.7	1	243294.5	-66.77555	4.083472E-010	0.0023038	5
	54	76	3.945707	121637.7	-264181.4	1	290839.4	-65.27713	1.770801E-010	0.0022967	5
	55	79	3.158693	150986.7	-306679.3	1	341832.1	-63.78771	5.35571E-010	0.0023224	5
	56	82	2.504006	188396.1	-356191.9	1	402946.4	-62.12486	-8.440419E-011	0.0023083	5
	57	85	1.998082	229917.9	-406732.9	1	467219.4	-60.5214	5.3484E-010	0.0022775	5
	58	88	1.584686	280625.9	-466451.3	1	544359.9	-58.96809	1.29539E-010	0.0022581	5
	59	92	1.266892	333079	-526746	1	623219.9	-57.69347	4.893795E-010	0.002295	5
	60	96	0.999041	398907.5	-600761.1	1	721138.7	-56.4157	-1.26643E-010	0.0022835	5
