EXPLAIN
TAG	EISPOT
TITLE	LABEL	Potentiostatic IDE	Test &Identifier
DATE	LABEL	9/8/2019	Date
TIME	LABEL	11:17:22	Time
NOTES	NOTES	1	&Notes...
	
PSTAT	PSTAT	REF600-11020	Potentiostat
VDC	POTEN	0.00000E+000	T	DC &Voltage (V)
FREQINIT	QUANT	1.00000E+006	Initial Fre&q. (Hz)
FREQFINAL	QUANT	1.00000E+000	Final Fre&q. (Hz)
PTSPERDEC	QUANT	1.00000E+001	Points/&decade
VAC	QUANT	2.50000E+001	AC &Voltage (mV rms)
AREA	QUANT	1.00000E-002	&Area (cm^2)
CONDIT	TWOPARAM	T	5.00000E+000	0.00000E+000	Conditionin&g	Time(s)	E(V)
DELAY	TWOPARAM	T	5.00000E+000	0.00000E+000	Init. De&lay	Time(s)	Stab.(mV/s)
SPEED	SELECTOR	1	&Optimize for:
ZGUESS	QUANT	1.00000E+007	E&stimated Z (ohms)
OCVCURVE	TABLE	19
	Pt	T	Vf	Vm	Ach	Over
	#	s	V vs. Ref.	V	V	bits
	0	0.258333	1.24367E-002	1.24367E-002	6.29165E-004	...........
	1	0.516667	1.24415E-002	1.26901E-002	6.27498E-004	...........
	2	0.775	1.24718E-002	1.29613E-002	6.36031E-004	...........
	3	1.03333	1.25589E-002	1.31870E-002	6.32831E-004	...........
	4	1.29167	1.27163E-002	1.34384E-002	6.28998E-004	...........
	5	1.55	1.29275E-002	1.36759E-002	6.35798E-004	...........
	6	1.80833	1.31654E-002	1.39173E-002	6.32898E-004	...........
	7	2.06667	1.34104E-002	1.41422E-002	6.29098E-004	...........
	8	2.325	1.36531E-002	1.43531E-002	6.31331E-004	...........
	9	2.58333	1.38888E-002	1.45680E-002	6.26231E-004	...........
	10	2.84167	1.41159E-002	1.47713E-002	6.30131E-004	...........
	11	3.1	1.43346E-002	1.49730E-002	6.24231E-004	...........
	12	3.35833	1.45464E-002	1.51661E-002	6.30231E-004	...........
	13	3.61667	1.47523E-002	1.53575E-002	6.29265E-004	...........
	14	3.875	1.49528E-002	1.55388E-002	6.28231E-004	...........
	15	4.13333	1.51482E-002	1.57389E-002	6.26298E-004	...........
	16	4.39167	1.53392E-002	1.58811E-002	6.28331E-004	...........
	17	4.65	1.55248E-002	1.60491E-002	6.33631E-004	...........
	18	4.90833	1.57025E-002	1.62086E-002	6.33965E-004	...........
EOC	QUANT	0.0157025	Open Circuit (V)
PSTATMODEL	IQUANT	4	Pstat Model
PSTATSECTION	LABEL	REF600-11020	Pstat Section
PSTATSERIALNO	LABEL	11020	Pstat Serial Number
CTRLMODE	IQUANT	1	Control Mode
IESTAB	IQUANT	0	I/E Stability
CASPEED	IQUANT	1	Control Amp Speed
CONVENTION	IQUANT	1	Current Convention
ICHRANGE	IQUANT	2	Ich Range
ICHRANGEMODE	TOGGLE	F	Ich Auto Range
ICHOFFSETENABLE	TOGGLE	T	Ich Offset Enable
ICHOFFSET	QUANT	0	Ich Offset (V)
ICHFILTER	IQUANT	3	Ich Filter
VCHRANGE	IQUANT	2	Vch Range
VCHRANGEMODE	TOGGLE	F	Vch Auto Range
VCHOFFSETENABLE	TOGGLE	T	Vch Offset Enable
VCHOFFSET	QUANT	0	Vch Offset (V)
VCHFILTER	IQUANT	3	Vch Filter
ACHRANGE	IQUANT	2	Ach Range
ACHOFFSETENABLE	TOGGLE	F	Ach Offset Enable
ACHOFFSET	QUANT	0	Ach Offset (V)
ACHFILTER	IQUANT	3	Ach Filter
IERANGELOWERLIMIT	IQUANT	1	I/E Range Lower Limit
IERANGEMODE	TOGGLE	F	I/E AutoRange
IERANGE	IQUANT	3	I/E Range
POSFEEDENABLE	TOGGLE	F	Positive Feedback IR Comp
POSFEEDRESISTANCE	QUANT	0	Positive Feedback Resistance (ohm)
ACHSELECT	IQUANT	0	Ach Select
CABLEID	IQUANT	14	Cable ID
DCCALDATE	LABEL	8/19/2019	DC Calibration Date
ACCALDATE	LABEL	8/19/2019	AC Calibration Date
THERMOSELECT	IQUANT	1	Thermo Select
FRAMEWORKVERSION	QUANT	6.33	Framework Version
INSTRUMENTVERSION	LABEL	3.50	Instrument Version
ZCURVE	TABLE
	Pt	Time	Freq	Zreal	Zimag	Zsig	Zmod	Zphz	Idc	Vdc	IERange
	#	s	Hz	ohm	ohm	V	ohm	°	A	V	#
	0	2	1000078	2894.49	-1936.507	1	3482.547	-33.78379	5.060528E-006	0.0176344	8
	1	3	794390.6	3285.075	-1859.506	1	3774.848	-29.51189	1.25443E-006	0.0172472	8
	2	5	630984.4	3610.502	-1699.877	1	3990.652	-25.21174	4.074119E-007	0.0174388	8
	3	6	501234.4	3893.467	-1501.296	1	4172.885	-21.08632	-9.894098E-007	0.0178021	8
	4	7	398109.4	4089.068	-1337.945	1	4302.392	-18.11812	-9.736578E-007	0.0178227	8
	5	9	316265.6	4253.649	-1151.604	1	4406.781	-15.14872	5.508615E-006	0.0164251	8
	6	10	251203.1	4372.771	-1000.985	1	4485.877	-12.89361	1.739993E-006	0.0170272	8
	7	12	199546.9	4475.534	-875.848	1	4560.429	-11.07267	1.914769E-006	0.0168629	8
	8	13	158578.1	4539.012	-803.7545	1	4609.626	-10.04167	-2.120906E-006	0.01765	8
	9	15	125953.1	4637.805	-665.7059	1	4685.339	-8.168385	-8.2784E-007	0.0189998	7
	10	16	100078.1	4677.771	-616.8793	1	4718.271	-7.512509	1.039962E-009	0.0173037	7
	11	18	79453.13	4723.707	-597.7502	1	4761.377	-7.212025	-5.300802E-008	0.0174626	7
	12	19	63140.62	4775.022	-590.2152	1	4811.361	-7.046288	-1.198056E-008	0.017412	7
	13	20	50203.12	4825.083	-600.7726	1	4862.34	-7.097389	-3.694333E-008	0.0173707	7
	14	22	39890.62	4873.916	-628.0711	1	4914.217	-7.342883	7.124799E-008	0.0173327	7
	15	23	31640.63	4932.657	-666.3839	1	4977.467	-7.693869	-5.209382E-008	0.0174548	7
	16	24	25171.88	4992.333	-721.2131	1	5044.158	-8.220316	8.612344E-008	0.0171836	7
	17	26	20015.62	5057.308	-794.5042	1	5119.335	-8.928206	-3.849197E-008	0.0173716	7
	18	27	15890.62	5123.161	-883.8387	1	5198.841	-9.78822	-1.164143E-008	0.0173877	7
	19	28	12609.37	5211.26	-996.722	1	5305.722	-10.82781	-2.404939E-008	0.0173424	7
	20	30	10078.13	5292.97	-1130.948	1	5412.446	-12.06102	6.910393E-008	0.0173278	7
	21	31	8015.625	5392.529	-1295.245	1	5545.902	-13.50616	1.333377E-007	0.0171571	7
	22	32	6328.125	5504.225	-1501.481	1	5705.343	-15.25831	5.18922E-008	0.0171987	7
	23	34	5015.625	5631.029	-1744.685	1	5895.118	-17.21476	2.441501E-008	0.0172646	7
	24	35	3984.375	5769.369	-2033.737	1	6117.328	-19.41786	3.70308E-008	0.0173181	7
	25	36	3170.956	5930.105	-2381.4	1	6390.4	-21.87931	-2.895225E-008	0.0173377	7
	26	38	2527.573	6114.144	-2790.125	1	6720.681	-24.52908	-1.044161E-008	0.0173984	7
	27	39	1976.103	6345.307	-3323.07	1	7162.801	-27.64128	5.103209E-008	0.0171861	7
	28	40	1577.524	6589.992	-3912.717	1	7664.029	-30.69914	-5.234546E-008	0.017444	7
	29	42	1265.625	6864.67	-4597.197	1	8261.835	-33.8098	-1.173553E-008	0.0173886	7
	30	43	998.264	7213.562	-5470.354	1	9053.19	-37.17461	1.391866E-007	0.0171481	7
	31	44	796.875	7593.103	-6463.269	1	9971.41	-40.40451	-6.732642E-009	0.0173804	6
	32	46	627.7902	8052.813	-7731.898	1	11163.78	-43.8353	4.729824E-009	0.0171757	6
	33	47	505.5147	8529.148	-9115.538	1	12483.57	-46.90342	5.081959E-009	0.0173159	6
	34	48	397.9953	9137.338	-10968.26	1	14275.63	-50.2033	4.706835E-010	0.0172977	6
	35	49	315.5048	9819.28	-13153.88	1	16414.71	-53.25891	1.224499E-009	0.0172988	6
	36	51	252.4038	10583.85	-15702.49	1	18936.37	-56.01909	2.712465E-010	0.017302	6
	37	52	198.6229	11555.37	-19033.04	1	22266.19	-58.73716	8.209187E-010	0.0172989	6
	38	53	158.3615	12645.59	-22880.22	1	26142.22	-61.07117	7.117878E-010	0.0172928	6
	39	55	125.558	14007.55	-27674.71	1	31017.76	-63.15376	6.26549E-010	0.0172965	6
	40	56	100.4464	15595.11	-33228.54	1	36706.18	-64.85799	9.428615E-011	0.0173021	6
	41	57	79.00281	17739.38	-40645.46	1	44347.93	-66.42153	1.571269E-010	0.0172987	6
	42	59	63.3446	19595.48	-48628.07	1	52427.78	-68.05222	8.336212E-010	0.017296	6
	43	60	49.86702	23709.23	-59375.94	1	63934.58	-68.23283	1.903394E-010	0.0172909	6
	44	62	39.72458	27150.99	-71723.77	1	76690.78	-69.26587	5.281912E-010	0.0173007	6
	45	63	31.6723	32149.07	-86363.63	1	92153.34	-69.58209	8.458794E-010	0.0172916	6
	46	64	24.93351	38681.83	-105225.1	1	112109.8	-69.81606	1.12964E-010	0.0172981	5
	47	66	19.86229	46638.05	-126785.4	1	135091.3	-69.80394	6.290636E-010	0.0173067	5
	48	67	15.83615	56463.47	-150337.5	1	160591	-69.41492	1.405577E-009	0.0173026	5
	49	68	12.40079	69970.08	-183084.3	1	195999.1	-69.08443	1.172483E-009	0.0173006	5
	50	70	9.93114	86964.35	-218997.1	1	235632.2	-68.34184	-1.752239E-010	0.0173083	5
	51	71	7.944915	107357.5	-258896	1	280272.6	-67.47748	-3.549336E-010	0.0172955	5
	52	73	6.317385	134844.1	-307697.9	1	335947.8	-66.33527	4.50843E-010	0.0172882	5
	53	75	5.008013	169785.5	-363415.7	1	401121.1	-64.95831	-1.424235E-011	0.0172952	5
	54	77	3.945707	213471.6	-427359.9	1	477709.8	-63.45729	-1.951406E-012	0.017302	5
	55	80	3.158693	263190.7	-493187.5	1	559019.9	-61.91328	-7.815316E-011	0.0172863	5
	56	83	2.504006	324770.6	-568281.2	1	654537.6	-60.25219	3.237987E-010	0.0172995	5
	57	86	1.998082	395455.8	-647822.2	1	758985.4	-58.59849	2.229134E-010	0.0173335	5
	58	89	1.584686	475829.4	-734091.6	1	874816.6	-57.04918	1.666642E-010	0.0172798	5
	59	93	1.266892	567654.1	-829090.2	1	1004799	-55.60168	7.114975E-011	0.0173355	4
	60	97	0.999041	671875.4	-934791.3	1	1151196	-54.29354	-4.883913E-012	0.0172585	4
