EXPLAIN
TAG	EISPOT
TITLE	LABEL	Potentiostatic EIS	Test &Identifier
DATE	LABEL	11/5/2019	Date
TIME	LABEL	9:00:00	Time
NOTES	NOTES	2	&Notes...
	
	
PSTAT	PSTAT	REF600-11020	Potentiostat
VDC	POTEN	0.00000E+000	T	DC &Voltage (V)
FREQINIT	QUANT	1.00000E+006	Initial Fre&q. (Hz)
FREQFINAL	QUANT	1.00000E+000	Final Fre&q. (Hz)
PTSPERDEC	QUANT	1.00000E+001	Points/&decade
VAC	QUANT	2.50000E+001	AC &Voltage (mV rms)
AREA	QUANT	1.00000E-002	&Area (cm^2)
CONDIT	TWOPARAM	T	5.00000E+000	0.00000E+000	Conditionin&g	Time(s)	E(V)
DELAY	TWOPARAM	T	5.00000E+000	0.00000E+000	Init. De&lay	Time(s)	Stab.(mV/s)
SPEED	SELECTOR	1	&Optimize for:
ZGUESS	QUANT	1.00000E+005	E&stimated Z (ohms)
OCVCURVE	TABLE	19
	Pt	T	Vf	Vm	Ach	Over
	#	s	V vs. Ref.	V	V	bits
	0	0.258333	5.09279E-003	5.09279E-003	5.65666E-004	...........
	1	0.516667	5.08921E-003	4.90526E-003	5.63432E-004	...........
	2	0.775	5.06751E-003	4.74336E-003	5.61666E-004	...........
	3	1.03333	5.00772E-003	4.61793E-003	5.62232E-004	...........
	4	1.29167	4.90541E-003	4.50972E-003	5.58099E-004	...........
	5	1.55	4.77829E-003	4.41404E-003	5.61832E-004	...........
	6	1.80833	4.64890E-003	4.30247E-003	5.70332E-004	...........
	7	2.06667	4.52905E-003	4.21623E-003	5.66399E-004	...........
	8	2.325	4.41998E-003	4.13004E-003	5.63799E-004	...........
	9	2.58333	4.32007E-003	4.06795E-003	5.59932E-004	...........
	10	2.84167	4.22897E-003	3.98976E-003	5.62432E-004	...........
	11	3.1	4.14632E-003	3.92351E-003	5.62732E-004	...........
	12	3.35833	4.07026E-003	3.85549E-003	5.58966E-004	...........
	13	3.61667	3.99853E-003	3.79602E-003	5.58099E-004	...........
	14	3.875	3.93157E-003	3.81828E-003	5.57499E-004	...........
	15	4.13333	3.87425E-003	3.76087E-003	5.63199E-004	...........
	16	4.39167	3.83016E-003	3.72026E-003	5.60432E-004	...........
	17	4.65	3.79562E-003	3.72073E-003	5.63932E-004	...........
	18	4.90833	3.76302E-003	3.56524E-003	5.62299E-004	...........
EOC	QUANT	0.003763	Open Circuit (V)
PSTATMODEL	IQUANT	4	Pstat Model
PSTATSECTION	LABEL	REF600-11020	Pstat Section
PSTATSERIALNO	LABEL	11020	Pstat Serial Number
CTRLMODE	IQUANT	1	Control Mode
IESTAB	IQUANT	0	I/E Stability
CASPEED	IQUANT	1	Control Amp Speed
CONVENTION	IQUANT	1	Current Convention
ICHRANGE	IQUANT	2	Ich Range
ICHRANGEMODE	TOGGLE	F	Ich Auto Range
ICHOFFSETENABLE	TOGGLE	T	Ich Offset Enable
ICHOFFSET	QUANT	0	Ich Offset (V)
ICHFILTER	IQUANT	3	Ich Filter
VCHRANGE	IQUANT	2	Vch Range
VCHRANGEMODE	TOGGLE	F	Vch Auto Range
VCHOFFSETENABLE	TOGGLE	T	Vch Offset Enable
VCHOFFSET	QUANT	0	Vch Offset (V)
VCHFILTER	IQUANT	3	Vch Filter
ACHRANGE	IQUANT	2	Ach Range
ACHOFFSETENABLE	TOGGLE	F	Ach Offset Enable
ACHOFFSET	QUANT	0	Ach Offset (V)
ACHFILTER	IQUANT	3	Ach Filter
IERANGELOWERLIMIT	IQUANT	1	I/E Range Lower Limit
IERANGEMODE	TOGGLE	F	I/E AutoRange
IERANGE	IQUANT	4	I/E Range
POSFEEDENABLE	TOGGLE	F	Positive Feedback IR Comp
POSFEEDRESISTANCE	QUANT	0	Positive Feedback Resistance (ohm)
ACHSELECT	IQUANT	0	Ach Select
CABLEID	IQUANT	14	Cable ID
DCCALDATE	LABEL	8/19/2019	DC Calibration Date
ACCALDATE	LABEL	8/19/2019	AC Calibration Date
THERMOSELECT	IQUANT	1	Thermo Select
FRAMEWORKVERSION	QUANT	6.33	Framework Version
INSTRUMENTVERSION	LABEL	3.50	Instrument Version
ZCURVE	TABLE
	Pt	Time	Freq	Zreal	Zimag	Zsig	Zmod	Zphz	Idc	Vdc	IERange
	#	s	Hz	ohm	ohm	V	ohm	°	A	V	#
	0	2	1000078	2391.21	-1806.623	1	2996.96	-37.07202	9.846148E-006	0.0059884	8
	1	3	794390.6	2795.968	-1716.998	1	3281.085	-31.55399	-9.513506E-006	0.0061171	8
	2	4	630984.4	3125.513	-1602.801	1	3512.521	-27.1493	-9.381807E-007	0.0054029	8
	3	6	501234.4	3387.785	-1430.462	1	3677.405	-22.89146	2.783322E-006	0.0048129	8
	4	7	398109.4	3611.004	-1274.513	1	3829.325	-19.44061	-5.243259E-007	0.0050402	8
	5	9	316265.6	3790.428	-1099.155	1	3946.579	-16.1712	-2.886834E-006	0.0058768	8
	6	10	251203.1	3907.458	-966.883	1	4025.306	-13.8984	-1.708795E-007	0.0050111	8
	7	11	199546.9	3999.178	-821.2502	1	4082.631	-11.60463	-3.70226E-006	0.0058628	8
	8	13	158578.1	4069.55	-718.1926	1	4132.437	-10.00848	-6.066019E-007	0.0049948	8
	9	14	125953.1	4162.861	-578.1692	1	4202.82	-7.907082	3.02977E-006	0.0034253	7
	10	15	100078.1	4195.649	-516.2642	1	4227.292	-7.014842	1.066527E-006	0.0045255	7
	11	17	79453.13	4233.97	-475.0964	1	4260.542	-6.402414	-6.771259E-007	0.0069482	7
	12	18	63140.62	4273.716	-453.7102	1	4297.732	-6.059989	8.435954E-007	0.003351	7
	13	19	50203.12	4308.475	-440.5298	1	4330.938	-5.838048	-1.305916E-006	0.0067696	7
	14	21	39890.62	4345.315	-442.4648	1	4367.785	-5.814143	-6.751287E-007	0.0069502	7
	15	22	31640.63	4385.114	-453.5162	1	4408.503	-5.904638	-7.557225E-007	0.0050331	7
	16	24	25171.88	4424.365	-475.2304	1	4449.815	-6.130755	-6.758538E-007	0.006947	7
	17	25	20015.62	4466.162	-512.9673	1	4495.524	-6.552077	1.465255E-007	0.003757	7
	18	26	15890.62	4512.953	-553.4151	1	4546.759	-6.991171	1.460285E-007	0.0037625	7
	19	28	12609.37	4560.579	-610.2745	1	4601.23	-7.621765	-3.267313E-007	0.0066881	7
	20	29	10078.13	4609.925	-688.4679	1	4661.051	-8.494043	3.947717E-007	0.0058218	7
	21	30	8015.625	4661.615	-760.0812	1	4723.175	-9.260643	6.339231E-007	0.0054818	7
	22	32	6328.125	4723.457	-882.3173	1	4805.156	-10.58062	-3.038375E-007	0.0042905	7
	23	33	5015.625	4787.693	-1019.001	1	4894.933	-12.01541	1.173333E-006	0.004049	7
	24	34	3984.375	4859.938	-1190.106	1	5003.534	-13.75986	5.783209E-008	0.0062753	7
	25	36	3170.956	4926.814	-1393.113	1	5119.986	-15.78886	8.722837E-007	0.0050302	7
	26	37	2527.573	5001.672	-1644.217	1	5264.995	-18.19742	-6.757038E-007	0.0069363	7
	27	38	1976.103	5094.416	-1981.255	1	5466.117	-21.25141	-1.290325E-006	0.0063556	7
	28	40	1577.524	5165.282	-2376.35	1	5685.7	-24.70536	3.959313E-007	0.0058161	7
	29	41	1265.625	5304.078	-2832.304	1	6012.918	-28.1016	8.727072E-007	0.0050279	7
	30	43	998.264	5434.274	-3438.667	1	6430.844	-32.32456	-1.178654E-006	0.0069486	7
	31	44	796.875	5583.514	-4157.708	1	6961.477	-36.67284	-9.616761E-007	0.0070064	7
	32	45	627.7902	5761.517	-5098.185	1	7693.28	-41.5046	-3.013839E-007	0.0042924	7
	33	47	505.5147	5955.538	-6158.752	1	8567.302	-45.96103	5.323579E-007	0.0034375	7
	34	48	397.9953	6225.825	-7580.291	1	9809.27	-50.60314	5.439122E-009	0.0052554	7
	35	50	315.5048	6546.122	-9299.471	1	11372.42	-54.85736	3.38404E-010	0.0051987	6
	36	51	252.4038	6924.484	-11333.58	1	13281.51	-58.5763	2.003911E-011	0.0051906	6
	37	52	198.6229	7439.179	-14032.6	1	15882.55	-62.07035	3.839625E-010	0.0052015	6
	38	54	158.3615	8068.129	-17172.7	1	18973.57	-64.83478	9.683214E-010	0.005186	6
	39	55	125.558	8894.392	-21121.53	1	22917.88	-67.16377	6.510565E-010	0.0051986	6
	40	56	100.4464	9953.87	-25742.76	1	27600.17	-68.86017	-9.420009E-010	0.0052025	6
	41	58	79.00281	11384.48	-31805.04	1	33781.17	-70.30538	-3.028217E-010	0.0051997	6
	42	59	63.3446	12883.17	-38415.84	1	40518.54	-71.46056	4.282584E-010	0.0052	6
	43	60	49.86702	16121.65	-47592.11	1	50248.55	-71.28638	3.231651E-010	0.005196	6
	44	62	39.72458	19187.92	-58004.11	1	61095.44	-71.69564	8.738205E-010	0.005199	6
	45	63	31.6723	23678.7	-70061.75	1	73954.91	-71.32634	5.478722E-010	0.0052049	6
	46	65	24.93351	29565.89	-85607.16	1	90568.91	-70.94677	8.552913E-010	0.0051938	6
	47	66	19.86229	36904.22	-102716.6	1	109144.9	-70.23755	1.392613E-009	0.0052043	5
	48	67	15.83615	48134.54	-122371.1	1	131497.6	-68.52786	-8.877483E-010	0.0051985	5
	49	69	12.40079	60226.37	-148835.9	1	160559.5	-67.96931	1.256729E-009	0.0052063	5
	50	70	9.93114	75605.8	-173534.1	1	189289	-66.45808	3.466438E-010	0.0052134	5
	51	72	7.944915	95517.2	-201498.8	1	222991.7	-64.63747	-1.041227E-010	0.0052	5
	52	73	6.317385	117799.7	-234376.4	1	262314.9	-63.31548	7.883164E-010	0.0051971	5
	53	75	5.008013	146353.8	-271721.9	1	308629.6	-61.69237	1.252816E-010	0.0052057	5
	54	78	3.945707	179874.9	-313194.8	1	361173	-60.13027	-5.709511E-011	0.0052017	5
	55	81	3.158693	215283.4	-355856.6	1	415909.6	-58.82722	2.449777E-010	0.0052015	5
	56	84	2.504006	257530.2	-406018.2	1	480804.1	-57.61377	-5.073022E-011	0.005208	5
	57	87	1.998082	301621.1	-459351.4	1	549526.1	-56.71014	1.151385E-010	0.0051637	5
	58	90	1.584686	353018.7	-524162.7	1	631956.3	-56.0401	-5.439014E-011	0.005169	5
	59	93	1.266892	407737.2	-590666.3	1	717729.9	-55.38266	2.205224E-010	0.0051605	5
	60	98	0.999041	474066.9	-675576.2	1	825313.6	-54.94181	-1.343203E-010	0.0052102	5
