EXPLAIN
TAG	EISPOT
TITLE	LABEL	Potentiostatic EIS	Test &Identifier
DATE	LABEL	10/22/2019	Date
TIME	LABEL	8:10:39	Time
NOTES	NOTES	1	&Notes...
	
PSTAT	PSTAT	REF600-11020	Potentiostat
VDC	POTEN	0.00000E+000	T	DC &Voltage (V)
FREQINIT	QUANT	1.00000E+006	Initial Fre&q. (Hz)
FREQFINAL	QUANT	1.00000E+000	Final Fre&q. (Hz)
PTSPERDEC	QUANT	1.00000E+001	Points/&decade
VAC	QUANT	2.50000E+001	AC &Voltage (mV rms)
AREA	QUANT	1.00000E-002	&Area (cm^2)
CONDIT	TWOPARAM	T	5.00000E+000	0.00000E+000	Conditionin&g	Time(s)	E(V)
DELAY	TWOPARAM	T	5.00000E+000	0.00000E+000	Init. De&lay	Time(s)	Stab.(mV/s)
SPEED	SELECTOR	1	&Optimize for:
ZGUESS	QUANT	1.00000E+005	E&stimated Z (ohms)
OCVCURVE	TABLE	19
	Pt	T	Vf	Vm	Ach	Over
	#	s	V vs. Ref.	V	V	bits
	0	0.258333	6.18303E-003	6.18303E-003	5.42033E-004	...........
	1	0.516667	6.18269E-003	6.16514E-003	5.37933E-004	...........
	2	0.775	6.18077E-003	6.15753E-003	5.46866E-004	...........
	3	1.03333	6.17617E-003	6.16301E-003	5.42599E-004	...........
	4	1.29167	6.17035E-003	6.17788E-003	5.43899E-004	...........
	5	1.55	6.16738E-003	6.20188E-003	5.36299E-004	...........
	6	1.80833	6.17118E-003	6.22788E-003	5.40699E-004	...........
	7	2.06667	6.18366E-003	6.27833E-003	5.37966E-004	...........
	8	2.325	6.20491E-003	6.29378E-003	5.38733E-004	...........
	9	2.58333	6.23290E-003	6.32811E-003	5.40633E-004	...........
	10	2.84167	6.26418E-003	6.37605E-003	5.40933E-004	...........
	11	3.1	6.29779E-003	6.44711E-003	5.36533E-004	...........
	12	3.35833	6.33671E-003	6.49672E-003	5.40766E-004	...........
	13	3.61667	6.38266E-003	6.51249E-003	5.37399E-004	...........
	14	3.875	6.43018E-003	6.49507E-003	5.34966E-004	...........
	15	4.13333	6.46874E-003	6.50145E-003	5.37499E-004	...........
	16	4.39167	6.49069E-003	6.45373E-003	5.38833E-004	...........
	17	4.65	6.49543E-003	6.46887E-003	5.33700E-004	...........
	18	4.90833	6.48899E-003	6.50170E-003	5.35499E-004	...........
EOC	QUANT	0.006489	Open Circuit (V)
PSTATMODEL	IQUANT	4	Pstat Model
PSTATSECTION	LABEL	REF600-11020	Pstat Section
PSTATSERIALNO	LABEL	11020	Pstat Serial Number
CTRLMODE	IQUANT	1	Control Mode
IESTAB	IQUANT	0	I/E Stability
CASPEED	IQUANT	1	Control Amp Speed
CONVENTION	IQUANT	1	Current Convention
ICHRANGE	IQUANT	2	Ich Range
ICHRANGEMODE	TOGGLE	F	Ich Auto Range
ICHOFFSETENABLE	TOGGLE	T	Ich Offset Enable
ICHOFFSET	QUANT	0	Ich Offset (V)
ICHFILTER	IQUANT	3	Ich Filter
VCHRANGE	IQUANT	2	Vch Range
VCHRANGEMODE	TOGGLE	F	Vch Auto Range
VCHOFFSETENABLE	TOGGLE	T	Vch Offset Enable
VCHOFFSET	QUANT	0	Vch Offset (V)
VCHFILTER	IQUANT	3	Vch Filter
ACHRANGE	IQUANT	2	Ach Range
ACHOFFSETENABLE	TOGGLE	F	Ach Offset Enable
ACHOFFSET	QUANT	0	Ach Offset (V)
ACHFILTER	IQUANT	3	Ach Filter
IERANGELOWERLIMIT	IQUANT	1	I/E Range Lower Limit
IERANGEMODE	TOGGLE	F	I/E AutoRange
IERANGE	IQUANT	5	I/E Range
POSFEEDENABLE	TOGGLE	F	Positive Feedback IR Comp
POSFEEDRESISTANCE	QUANT	0	Positive Feedback Resistance (ohm)
ACHSELECT	IQUANT	0	Ach Select
CABLEID	IQUANT	14	Cable ID
DCCALDATE	LABEL	8/19/2019	DC Calibration Date
ACCALDATE	LABEL	8/19/2019	AC Calibration Date
THERMOSELECT	IQUANT	1	Thermo Select
FRAMEWORKVERSION	QUANT	6.33	Framework Version
INSTRUMENTVERSION	LABEL	3.50	Instrument Version
ZCURVE	TABLE
	Pt	Time	Freq	Zreal	Zimag	Zsig	Zmod	Zphz	Idc	Vdc	IERange
	#	s	Hz	ohm	ohm	V	ohm	°	A	V	#
	0	2	1000078	2346.388	-1362.697	1	2713.389	-30.14647	2.877167E-006	0.0077806	8
	1	4	794390.6	2590.137	-1285.803	1	2891.729	-26.40084	-4.726774E-006	0.0092704	8
	2	5	630984.4	2820.39	-1162.794	1	3050.686	-22.40543	2.689655E-006	0.0077866	8
	3	7	501234.4	3004.688	-1048.368	1	3182.331	-19.23443	-5.360296E-007	0.0083685	8
	4	8	398109.4	3139.499	-905.0803	1	3267.358	-16.08164	-2.958591E-006	0.0087838	8
	5	10	316265.6	3248.447	-781.3627	1	3341.098	-13.52467	-4.908462E-007	0.0084204	8
	6	11	251203.1	3338.767	-665.3124	1	3404.41	-11.26965	2.242716E-008	0.0082053	8
	7	12	199546.9	3400.66	-588.125	1	3451.142	-9.81193	-2.967756E-006	0.0085586	8
	8	14	158578.1	3449.944	-498.6162	1	3485.79	-8.223944	-2.730526E-006	0.0087011	8
	9	15	125953.1	3513.312	-398.9994	1	3535.896	-6.479201	-1.384672E-008	0.0082287	7
	10	16	100078.1	3533.099	-359.3072	1	3551.323	-5.80687	-1.416572E-009	0.0080841	7
	11	18	79453.13	3560.69	-335.9929	1	3576.508	-5.390567	5.941043E-008	0.0079673	7
	12	19	63140.62	3587.998	-320.2215	1	3602.259	-5.100019	-3.990466E-008	0.0081466	7
	13	20	50203.12	3615.58	-312.611	1	3629.069	-4.94163	-3.73043E-008	0.0080889	7
	14	22	39890.62	3642.317	-312.7377	1	3655.719	-4.907512	-3.581193E-008	0.0080892	7
	15	23	31640.63	3670.201	-319.9568	1	3684.121	-4.982274	-3.396481E-008	0.0080856	7
	16	25	25171.88	3698.519	-334.9771	1	3713.657	-5.175193	7.079868E-009	0.0079911	7
	17	26	20015.62	3734.8	-363.7026	1	3752.467	-5.562045	-5.135885E-009	0.0080903	7
	18	27	15890.62	3760.127	-388.8485	1	3780.18	-5.90418	-3.702925E-008	0.0080769	7
	19	29	12609.37	3794.586	-430.3979	1	3818.917	-6.471074	7.418982E-009	0.0079953	7
	20	30	10078.13	3828.239	-479.4083	1	3858.14	-7.13796	1.281979E-007	0.0078621	7
	21	31	8015.625	3851.2	-535.1843	1	3888.209	-7.911473	9.266115E-009	0.00799	7
	22	33	6328.125	3906.812	-625.4209	1	3956.555	-9.09501	1.304608E-007	0.0078584	7
	23	34	5015.625	3950.633	-725.6563	1	4016.725	-10.40813	-1.018968E-008	0.0080261	7
	24	35	3984.375	3998.84	-852.005	1	4088.598	-12.02776	1.313327E-007	0.0078557	7
	25	37	3170.956	4049.131	-1001.385	1	4171.119	-13.89102	-3.656517E-008	0.0080736	7
	26	38	2527.573	4107.267	-1184.863	1	4274.757	-16.09178	-3.693238E-008	0.0080743	7
	27	40	1976.103	4180.213	-1434.541	1	4419.513	-18.9409	1.297137E-007	0.0078462	7
	28	41	1577.524	4257.668	-1718.136	1	4591.267	-21.97601	-4.301291E-008	0.0080809	7
	29	42	1265.625	4341.48	-2043.004	1	4798.158	-25.20063	8.351906E-009	0.0079839	7
	30	44	998.264	4444.328	-2479.156	1	5089.034	-29.15386	-3.535283E-008	0.008125	7
	31	45	796.875	4559.304	-2986.458	1	5450.338	-33.2258	1.31053E-007	0.0078455	7
	32	46	627.7902	4700.565	-3646.379	1	5949.066	-37.80188	1.300013E-007	0.0078493	7
	33	48	505.5147	4846.024	-4384.615	1	6535.197	-42.13836	7.821154E-008	0.0078849	7
	34	49	397.9953	5032.804	-5391.853	1	7375.716	-46.97261	5.408082E-009	0.0080694	7
	35	50	315.5048	5252.726	-6603.846	1	8438.123	-51.50112	4.866386E-009	0.0080688	7
	36	52	252.4038	5510.012	-8040.294	1	9747.13	-55.57717	6.022622E-009	0.0080663	7
	37	53	198.6229	5857.618	-9947.48	1	11544	-59.50811	1.084208E-009	0.008005	6
	38	55	158.3615	6269.564	-12179.22	1	13698.21	-62.7617	4.785376E-010	0.0080062	6
	39	56	125.558	6815.84	-14988.87	1	16465.78	-65.54744	8.247057E-010	0.0080078	6
	40	57	100.4464	7481.675	-18293.54	1	19764.34	-67.75647	5.580001E-010	0.0080049	6
	41	59	79.00281	8478.574	-22681.67	1	24214.54	-69.50388	1.154831E-010	0.0080082	6
	42	60	63.3446	9577.91	-27819.96	1	29422.55	-71.00234	4.288828E-010	0.008007	6
	43	62	49.86702	11255.69	-33990.99	1	35806.12	-71.67835	6.497698E-010	0.008005	6
	44	63	39.72458	13394.86	-41624.11	1	43726.3	-72.16155	6.687171E-010	0.0080097	6
	45	64	31.6723	16316.71	-50768.46	1	53326.09	-72.18287	1.112495E-009	0.0080037	6
	46	66	24.93351	20195.94	-62117.01	1	65317.68	-71.98923	4.566991E-010	0.0080094	6
	47	67	19.86229	25257.82	-75007.66	1	79146.11	-71.38974	1.150555E-009	0.0080114	6
	48	68	15.83615	31951.34	-90104.02	1	95601.4	-70.47523	1.175912E-009	0.0080068	6
	49	70	12.40079	41732.89	-109175.8	1	116880.3	-69.08044	1.835714E-009	0.0080092	5
	50	71	9.93114	51759.9	-129000.6	1	138997.3	-68.13749	-1.822639E-011	0.008014	5
	51	73	7.944915	65661.8	-151504.3	1	165121.2	-66.56814	2.551044E-010	0.0080109	5
	52	75	6.317385	82324.92	-177316.3	1	195495.4	-65.09536	6.996521E-010	0.0080152	5
	53	77	5.008013	102767.5	-206682.4	1	230821.9	-63.56231	4.858616E-010	0.0080275	5
	54	79	3.945707	127765.4	-239817.4	1	271728.5	-61.95303	-1.143459E-010	0.0080187	5
	55	82	3.158693	154003.5	-273853.1	1	314185.6	-60.64842	2.232471E-010	0.0080351	5
	56	85	2.504006	184757.4	-314070.1	1	364383.5	-59.53307	-2.328271E-010	0.0080066	5
	57	88	1.998082	217229.1	-357433.9	1	418267.3	-58.71101	-2.186371E-010	0.0080029	5
	58	91	1.584686	255193.2	-408549.8	1	481701.6	-58.00978	4.372151E-011	0.0080612	5
	59	95	1.266892	293026.2	-466697.9	1	551063.8	-57.87647	-2.104228E-010	0.008021	5
	60	99	0.999041	338422.7	-539543	1	636896.1	-57.90244	2.397995E-010	0.0080272	5
