EXPLAIN
TAG	EISPOT
TITLE	LABEL	Potentiostatic EIS	Test &Identifier
DATE	LABEL	11/27/2019	Date
TIME	LABEL	12:45:52	Time
NOTES	NOTES	3	&Notes...
	
	
	
PSTAT	PSTAT	REF600-11020	Potentiostat
VDC	POTEN	0.00000E+000	T	DC &Voltage (V)
FREQINIT	QUANT	1.00000E+006	Initial Fre&q. (Hz)
FREQFINAL	QUANT	1.00000E+000	Final Fre&q. (Hz)
PTSPERDEC	QUANT	1.00000E+001	Points/&decade
VAC	QUANT	2.50000E+001	AC &Voltage (mV rms)
AREA	QUANT	1.00000E-002	&Area (cm^2)
CONDIT	TWOPARAM	T	5.00000E+000	0.00000E+000	Conditionin&g	Time(s)	E(V)
DELAY	TWOPARAM	T	5.00000E+000	0.00000E+000	Init. De&lay	Time(s)	Stab.(mV/s)
SPEED	SELECTOR	0	&Optimize for:
ZGUESS	QUANT	1.00000E+005	E&stimated Z (ohms)
OCVCURVE	TABLE	19
	Pt	T	Vf	Vm	Ach	Over
	#	s	V vs. Ref.	V	V	bits
	0	0.258333	3.84070E-003	3.84070E-003	5.52166E-004	...........
	1	0.516667	3.83660E-003	3.62612E-003	5.54966E-004	...........
	2	0.775	3.81288E-003	3.49888E-003	5.49133E-004	...........
	3	1.03333	3.75090E-003	3.39152E-003	5.50666E-004	...........
	4	1.29167	3.64855E-003	3.18039E-003	5.51699E-004	...........
	5	1.55	3.51922E-003	3.10742E-003	5.54166E-004	...........
	6	1.80833	3.37981E-003	3.04463E-003	5.51066E-004	...........
	7	2.06667	3.24879E-003	2.98495E-003	5.53799E-004	...........
	8	2.325	3.14032E-003	2.91715E-003	5.52333E-004	...........
	9	2.58333	3.05450E-003	2.81331E-003	5.55066E-004	...........
	10	2.84167	2.97940E-003	2.70712E-003	5.53533E-004	...........
	11	3.1	2.90070E-003	2.57555E-003	5.56466E-004	...........
	12	3.35833	2.81091E-003	2.53663E-003	5.56166E-004	...........
	13	3.61667	2.71335E-003	2.41474E-003	5.46033E-004	...........
	14	3.875	2.61768E-003	2.42268E-003	5.52532E-004	...........
	15	4.13333	2.53386E-003	2.39926E-003	5.45533E-004	...........
	16	4.39167	2.46728E-003	2.24867E-003	5.45699E-004	...........
	17	4.65	2.41172E-003	2.23728E-003	5.52799E-004	...........
	18	4.90833	2.35542E-003	2.18423E-003	5.53666E-004	...........
EOC	QUANT	0.0023554	Open Circuit (V)
PSTATMODEL	IQUANT	4	Pstat Model
PSTATSECTION	LABEL	REF600-11020	Pstat Section
PSTATSERIALNO	LABEL	11020	Pstat Serial Number
CTRLMODE	IQUANT	1	Control Mode
IESTAB	IQUANT	0	I/E Stability
CASPEED	IQUANT	1	Control Amp Speed
CONVENTION	IQUANT	1	Current Convention
ICHRANGE	IQUANT	2	Ich Range
ICHRANGEMODE	TOGGLE	F	Ich Auto Range
ICHOFFSETENABLE	TOGGLE	T	Ich Offset Enable
ICHOFFSET	QUANT	0	Ich Offset (V)
ICHFILTER	IQUANT	3	Ich Filter
VCHRANGE	IQUANT	2	Vch Range
VCHRANGEMODE	TOGGLE	F	Vch Auto Range
VCHOFFSETENABLE	TOGGLE	T	Vch Offset Enable
VCHOFFSET	QUANT	0	Vch Offset (V)
VCHFILTER	IQUANT	3	Vch Filter
ACHRANGE	IQUANT	2	Ach Range
ACHOFFSETENABLE	TOGGLE	F	Ach Offset Enable
ACHOFFSET	QUANT	0	Ach Offset (V)
ACHFILTER	IQUANT	3	Ach Filter
IERANGELOWERLIMIT	IQUANT	1	I/E Range Lower Limit
IERANGEMODE	TOGGLE	F	I/E AutoRange
IERANGE	IQUANT	4	I/E Range
POSFEEDENABLE	TOGGLE	F	Positive Feedback IR Comp
POSFEEDRESISTANCE	QUANT	0	Positive Feedback Resistance (ohm)
ACHSELECT	IQUANT	0	Ach Select
CABLEID	IQUANT	14	Cable ID
DCCALDATE	LABEL	8/19/2019	DC Calibration Date
ACCALDATE	LABEL	8/19/2019	AC Calibration Date
THERMOSELECT	IQUANT	1	Thermo Select
FRAMEWORKVERSION	QUANT	6.33	Framework Version
INSTRUMENTVERSION	LABEL	3.50	Instrument Version
ZCURVE	TABLE
	Pt	Time	Freq	Zreal	Zimag	Zsig	Zmod	Zphz	Idc	Vdc	IERange
	#	s	Hz	ohm	ohm	V	ohm	°	A	V	#
	0	2	1000078	1992.229	-1409.579	1	2440.469	-35.28088	-4.206323E-006	0.0049178	8
	1	2	794390.6	2287.774	-1351.654	1	2657.231	-30.57528	3.66845E-006	0.0044489	8
	2	2	630984.4	2539.318	-1258.097	1	2833.892	-26.35597	-1.542616E-006	0.0036585	8
	3	2	501234.4	2753.39	-1141.971	1	2980.814	-22.52628	-1.330975E-006	0.0036819	8
	4	3	398109.4	2933.261	-1002.422	1	3099.817	-18.86751	-2.021647E-007	0.0042843	8
	5	3	316265.6	3075.905	-874.7591	1	3197.873	-15.87527	-2.037754E-006	0.0039982	8
	6	3	251203.1	3179.47	-749.2266	1	3266.554	-13.25957	5.429578E-006	0.0027849	8
	7	4	199546.9	3261.834	-640.2291	1	3324.072	-11.10478	3.449231E-006	0.0037621	8
	8	4	158578.1	3318.728	-559.3076	1	3365.528	-9.56621	-3.198261E-006	0.0043238	8
	9	4	125953.1	3384.018	-442.2082	1	3412.789	-7.444968	-1.033559E-006	0.0028045	7
	10	5	100078.1	3403.619	-371.7386	1	3423.859	-6.233062	5.371443E-007	0.003957	7
	11	5	79453.13	3431.426	-333.5266	1	3447.597	-5.551577	-2.810359E-007	0.0030604	7
	12	5	63140.62	3456.551	-301.6587	1	3469.689	-4.987657	-5.374459E-007	0.0051754	7
	13	6	50203.12	3474.204	-279.6143	1	3485.438	-4.601417	-6.477796E-007	0.0036525	7
	14	6	39890.62	3495.932	-267.3948	1	3506.143	-4.37389	-9.477362E-007	0.0052007	7
	15	6	31640.63	3510.971	-257.6106	1	3520.409	-4.196445	8.915357E-008	0.0025903	7
	16	7	25171.88	3530.696	-258.6018	1	3540.153	-4.189085	5.415167E-007	0.0039512	7
	17	7	20015.62	3548.195	-269.3239	1	3558.402	-4.340682	9.632523E-007	0.002775	7
	18	7	15890.62	3559.404	-290.437	1	3571.233	-4.664834	-9.281898E-007	0.0042491	7
	19	8	12609.37	3573.124	-316.4708	1	3587.112	-5.061467	-1.079935E-006	0.0050675	7
	20	8	10078.13	3596.799	-360.8716	1	3614.857	-5.729388	6.718814E-007	0.0022304	7
	21	8	8015.625	3613.894	-411.498	1	3637.246	-6.496037	8.910581E-007	0.0031396	7
	22	8	6328.125	3632.253	-484.3584	1	3664.405	-7.595543	4.175327E-007	0.0023185	7
	23	9	5015.625	3650.048	-574.8249	1	3695.033	-8.949676	-5.403072E-007	0.0051776	7
	24	9	3984.375	3672.484	-685.7081	1	3735.951	-10.5762	-5.378585E-007	0.0051652	7
	25	9	3170.956	3702.505	-827.5216	1	3793.855	-12.59873	7.366324E-007	0.0035627	7
	26	10	2527.573	3736.956	-1003.842	1	3869.436	-15.03615	9.180233E-008	0.0025755	7
	27	10	1976.103	3779.321	-1236.617	1	3976.492	-18.11841	-9.586612E-007	0.0052022	7
	28	10	1577.524	3823.895	-1529.785	1	4118.545	-21.80434	9.507819E-007	0.002474	7
	29	11	1265.625	3882.051	-1826.665	1	4290.341	-25.19892	-7.838123E-007	0.0052477	7
	30	11	998.264	3958.196	-2260.279	1	4558.089	-29.728	-1.070629E-006	0.0050504	7
	31	11	796.875	4044.72	-2757.56	1	4895.294	-34.28491	-9.277351E-007	0.0042326	7
	32	12	627.7902	4176.476	-3417.157	1	5396.287	-39.28974	-2.762815E-007	0.0030323	7
	33	12	505.5147	4316.662	-4157.429	1	5993.145	-43.92351	3.493796E-007	0.0042155	7
	34	12	397.9953	4519.527	-5140.58	1	6844.829	-48.67851	-2.871566E-010	0.0037967	7
	35	12	315.5048	4779.703	-6320.476	1	7924.265	-52.90251	2.994258E-009	0.003789	7
	36	13	252.4038	5102.002	-7697.44	1	9234.772	-56.46286	1.062777E-009	0.0037954	7
	37	13	198.6229	5559.526	-9499.913	1	11007.12	-59.66303	2.174819E-010	0.0037351	6
	38	13	158.3615	6118.833	-11570.09	1	13088.44	-62.12791	-3.863202E-010	0.0037353	6
	39	14	125.558	6865.521	-14134.9	1	15714.03	-64.09349	-3.686701E-010	0.0037338	6
	40	14	100.4464	7814.56	-17080.92	1	18783.64	-65.41579	1.678232E-009	0.003726	6
	41	14	79.00281	9142.426	-20886.9	1	22800.15	-66.36048	-5.064682E-010	0.0037283	6
	42	15	63.3446	10785.16	-25314.84	1	27516.55	-66.924	1.160318E-010	0.0037295	6
	43	15	49.86702	12941.4	-30627.12	1	33249.07	-67.09366	-1.089516E-009	0.0037295	6
	44	15	39.72458	15571.62	-36458.36	1	39644.51	-66.87234	1.08049E-009	0.0037296	6
	45	16	31.6723	18953.61	-43495.12	1	47445.39	-66.45415	7.120001E-010	0.0037234	6
	46	16	24.93351	23465.23	-51817.09	1	56882.58	-65.63673	9.998918E-010	0.0037177	6
	47	16	19.86229	28782.67	-60876.86	1	67338.21	-64.69514	2.821531E-009	0.0037245	6
	48	17	15.83615	34901.01	-70927.79	1	79049.55	-63.79987	1.653134E-010	0.0037278	6
	49	17	12.40079	43892.56	-83459.09	1	94297.28	-62.25935	1.521529E-009	0.0037147	6
	50	17	9.93114	52272.54	-96205.9	1	109489.7	-61.48298	-3.358683E-010	0.0037302	5
	51	18	7.944915	61941.66	-110396.6	1	126586.7	-60.70396	-9.676576E-010	0.0037234	5
	52	18	6.317385	73112.95	-126928.3	1	146479.7	-60.05729	-5.549035E-010	0.0037408	5
	53	19	5.008013	85515.09	-146291.4	1	169452.1	-59.69144	-2.513215E-010	0.003725	5
	54	20	3.945707	99166.7	-169641.3	1	196499.9	-59.69086	3.569597E-011	0.0037132	5
	55	22	3.158693	113539.6	-195498.1	1	226076.9	-59.85324	2.246405E-010	0.0037347	5
	56	23	2.504006	130259	-227734.9	1	262355.8	-60.23146	-8.59119E-012	0.0037271	5
	57	25	1.998082	148018	-265419.1	1	303902.3	-60.85261	1.784436E-011	0.0037045	5
	58	26	1.584686	169765.6	-310986.6	1	354306.4	-61.37015	2.014181E-010	0.0037506	5
	59	28	1.266892	194245.1	-365162.2	1	413611.6	-61.98961	1.972989E-010	0.0037629	5
	60	31	0.999041	223794.6	-433665.4	1	488005.8	-62.70384	2.242797E-010	0.0037537	5
