EXPLAIN
TAG	EISPOT
TITLE	LABEL	Potentiostatic EIS	Test &Identifier
DATE	LABEL	11/12/2019	Date
TIME	LABEL	22:28:15	Time
NOTES	NOTES	3	&Notes...
	
	
	
PSTAT	PSTAT	REF600-11020	Potentiostat
VDC	POTEN	0.00000E+000	T	DC &Voltage (V)
FREQINIT	QUANT	1.00000E+006	Initial Fre&q. (Hz)
FREQFINAL	QUANT	1.00000E+000	Final Fre&q. (Hz)
PTSPERDEC	QUANT	1.00000E+001	Points/&decade
VAC	QUANT	2.50000E+001	AC &Voltage (mV rms)
AREA	QUANT	1.00000E-002	&Area (cm^2)
CONDIT	TWOPARAM	T	5.00000E+000	0.00000E+000	Conditionin&g	Time(s)	E(V)
DELAY	TWOPARAM	T	5.00000E+000	0.00000E+000	Init. De&lay	Time(s)	Stab.(mV/s)
SPEED	SELECTOR	1	&Optimize for:
ZGUESS	QUANT	1.00000E+005	E&stimated Z (ohms)
OCVCURVE	TABLE	19
	Pt	T	Vf	Vm	Ach	Over
	#	s	V vs. Ref.	V	V	bits
	0	0.258333	3.94261E-003	3.94261E-003	5.62699E-004	...........
	1	0.516667	3.94188E-003	3.90477E-003	5.60466E-004	...........
	2	0.775	3.93764E-003	3.87913E-003	5.57599E-004	...........
	3	1.03333	3.92660E-003	3.87084E-003	5.59532E-004	...........
	4	1.29167	3.90917E-003	3.84791E-003	5.63199E-004	...........
	5	1.55	3.88944E-003	3.84523E-003	5.58932E-004	...........
	6	1.80833	3.87140E-003	3.84169E-003	5.62699E-004	...........
	7	2.06667	3.85744E-003	3.84082E-003	5.61066E-004	...........
	8	2.325	3.84827E-003	3.83746E-003	5.56866E-004	...........
	9	2.58333	3.84302E-003	3.83680E-003	5.60799E-004	...........
	10	2.84167	3.84010E-003	3.83722E-003	5.56599E-004	...........
	11	3.1	3.83846E-003	3.83933E-003	5.58766E-004	...........
	12	3.35833	3.83775E-003	3.83829E-003	5.57966E-004	...........
	13	3.61667	3.83783E-003	3.84176E-003	5.61699E-004	...........
	14	3.875	3.83847E-003	3.84157E-003	5.62499E-004	...........
	15	4.13333	3.83952E-003	3.84610E-003	5.63332E-004	...........
	16	4.39167	3.84096E-003	3.84595E-003	5.56466E-004	...........
	17	4.65	3.84262E-003	3.84421E-003	5.56366E-004	...........
	18	4.90833	3.84410E-003	3.84802E-003	5.61832E-004	...........
EOC	QUANT	0.0038441	Open Circuit (V)
PSTATMODEL	IQUANT	4	Pstat Model
PSTATSECTION	LABEL	REF600-11020	Pstat Section
PSTATSERIALNO	LABEL	11020	Pstat Serial Number
CTRLMODE	IQUANT	1	Control Mode
IESTAB	IQUANT	0	I/E Stability
CASPEED	IQUANT	1	Control Amp Speed
CONVENTION	IQUANT	1	Current Convention
ICHRANGE	IQUANT	2	Ich Range
ICHRANGEMODE	TOGGLE	F	Ich Auto Range
ICHOFFSETENABLE	TOGGLE	T	Ich Offset Enable
ICHOFFSET	QUANT	0	Ich Offset (V)
ICHFILTER	IQUANT	3	Ich Filter
VCHRANGE	IQUANT	2	Vch Range
VCHRANGEMODE	TOGGLE	F	Vch Auto Range
VCHOFFSETENABLE	TOGGLE	T	Vch Offset Enable
VCHOFFSET	QUANT	0	Vch Offset (V)
VCHFILTER	IQUANT	3	Vch Filter
ACHRANGE	IQUANT	2	Ach Range
ACHOFFSETENABLE	TOGGLE	F	Ach Offset Enable
ACHOFFSET	QUANT	0	Ach Offset (V)
ACHFILTER	IQUANT	3	Ach Filter
IERANGELOWERLIMIT	IQUANT	1	I/E Range Lower Limit
IERANGEMODE	TOGGLE	F	I/E AutoRange
IERANGE	IQUANT	4	I/E Range
POSFEEDENABLE	TOGGLE	F	Positive Feedback IR Comp
POSFEEDRESISTANCE	QUANT	0	Positive Feedback Resistance (ohm)
ACHSELECT	IQUANT	0	Ach Select
CABLEID	IQUANT	14	Cable ID
DCCALDATE	LABEL	8/19/2019	DC Calibration Date
ACCALDATE	LABEL	8/19/2019	AC Calibration Date
THERMOSELECT	IQUANT	1	Thermo Select
FRAMEWORKVERSION	QUANT	6.33	Framework Version
INSTRUMENTVERSION	LABEL	3.50	Instrument Version
ZCURVE	TABLE
	Pt	Time	Freq	Zreal	Zimag	Zsig	Zmod	Zphz	Idc	Vdc	IERange
	#	s	Hz	ohm	ohm	V	ohm	°	A	V	#
	0	2	1000078	2058.495	-1219.898	1	2392.813	-30.65168	-4.912347E-006	0.0056986	8
	1	3	794390.6	2237.105	-1220.257	1	2548.267	-28.61082	-5.014136E-006	0.0065481	8
	2	5	630984.4	2403.093	-1221.018	1	2695.504	-26.93526	2.880614E-007	0.0059082	8
	3	6	501234.4	2550.062	-1220.875	1	2827.252	-25.58336	1.981905E-006	0.0048885	8
	4	7	398109.4	2720.404	-1258.377	1	2997.35	-24.82384	5.363243E-006	0.0046401	8
	5	9	316265.6	2905.742	-1300.364	1	3183.439	-24.10924	3.381883E-006	0.0052525	8
	6	10	251203.1	3096.552	-1358.05	1	3381.262	-23.68074	5.20731E-006	0.0042991	8
	7	12	199546.9	3306.963	-1405.156	1	3593.114	-23.02103	1.608597E-006	0.0055467	8
	8	13	158578.1	3564.704	-1445.996	1	3846.82	-22.07957	-2.324834E-006	0.0057685	8
	9	14	125953.1	3850.33	-1449.146	1	4114.009	-20.6248	2.600472E-006	0.0035129	7
	10	16	100078.1	4096.668	-1429.291	1	4338.843	-19.23342	-7.735249E-007	0.0067816	7
	11	17	79453.13	4364.637	-1393.072	1	4581.562	-17.70165	-7.740938E-007	0.006776	7
	12	18	63140.62	4614.757	-1315.88	1	4798.7	-15.9153	-9.6612E-007	0.0067433	7
	13	20	50203.12	4842.084	-1214.228	1	4992.007	-14.07752	3.864237E-007	0.0038002	7
	14	21	39890.62	5032.538	-1102.388	1	5151.863	-12.35561	1.15715E-007	0.0060595	7
	15	23	31640.63	5185.576	-982.352	1	5277.804	-10.72696	9.648604E-007	0.0038994	7
	16	24	25171.88	5291.261	-870.1134	1	5362.326	-9.338341	3.872848E-007	0.0037943	7
	17	25	20015.62	5374.183	-776.9465	1	5430.054	-8.226264	-1.09811E-006	0.0066034	7
	18	27	15890.62	5437.971	-702.2346	1	5483.125	-7.358192	-3.245403E-007	0.0045552	7
	19	28	12609.37	5505.506	-651.9556	1	5543.974	-6.753448	-5.152444E-007	0.0066638	7
	20	29	10078.13	5545.864	-622.7411	1	5580.718	-6.406864	-5.150397E-007	0.0066653	7
	21	31	8015.625	5567.044	-613.957	1	5600.796	-6.293386	-1.096305E-006	0.0066017	7
	22	32	6328.125	5596.423	-634.6969	1	5632.299	-6.470335	-6.965989E-007	0.0051747	7
	23	34	5015.625	5625.721	-677.6301	1	5666.385	-6.868309	-9.668919E-007	0.0057828	7
	24	35	3984.375	5666.313	-748.4285	1	5715.527	-7.524292	9.369863E-007	0.0045309	7
	25	36	3170.956	5693.432	-847.7085	1	5756.195	-8.468688	-9.660496E-007	0.0067311	7
	26	38	2527.573	5745.844	-983.665	1	5829.436	-9.71463	9.962944E-007	0.0041706	7
	27	39	1976.103	5773.599	-1165.582	1	5890.078	-11.41354	-3.245325E-007	0.0045565	7
	28	40	1577.524	5844.751	-1415.492	1	6013.712	-13.61387	8.547157E-007	0.0037172	7
	29	42	1265.625	5876.855	-1648.905	1	6103.795	-15.67285	-3.245138E-007	0.004557	7
	30	43	998.264	5944.741	-2006.654	1	6274.281	-18.65217	-3.252257E-007	0.0045517	7
	31	45	796.875	6036.579	-2431.757	1	6507.974	-21.94139	-5.143427E-007	0.0066608	7
	32	46	627.7902	6125.986	-2974.891	1	6810.116	-25.90206	-6.946701E-007	0.0051813	7
	33	48	505.5147	6238.704	-3589.958	1	7197.863	-29.91756	-6.997178E-007	0.0051773	7
	34	49	397.9953	6401.47	-4440.922	1	7791.06	-34.75039	3.751077E-009	0.0052735	7
	35	50	315.5048	6587.927	-5451.273	1	8550.857	-39.60653	4.259734E-009	0.005269	7
	36	52	252.4038	6812.586	-6643.929	1	9515.94	-44.28192	7.64316E-009	0.0052675	7
	37	53	198.6229	7120.127	-8218.932	1	10874.15	-49.09735	1.387166E-009	0.005201	6
	38	55	158.3615	7493.813	-10054.24	1	12539.74	-53.30143	1.314539E-009	0.0052021	6
	39	56	125.558	7989.549	-12357.78	1	14715.56	-57.11654	1.180656E-009	0.0052082	6
	40	57	100.4464	8611.315	-15063.33	1	17351.04	-60.24452	1.537148E-009	0.0052091	6
	41	59	79.00281	9474.998	-18598.24	1	20872.72	-63.00313	1.520619E-009	0.005203	6
	42	60	63.3446	10524.26	-22466.03	1	24808.92	-64.89916	3.720177E-010	0.0052052	6
	43	62	49.86702	12178.46	-27783.99	1	30335.87	-66.33089	4.696298E-011	0.0051996	6
	44	63	39.72458	14030.34	-33748.87	1	36549.1	-67.426	8.94723E-010	0.0052081	6
	45	64	31.6723	16562.95	-40936.52	1	44160.27	-67.9717	6.63556E-010	0.0052047	6
	46	66	24.93351	20077.56	-49798.26	1	53693.34	-68.04179	1.719983E-009	0.0051981	6
	47	67	19.86229	24515.46	-59813.17	1	64642.27	-67.71288	4.622454E-010	0.0051997	6
	48	68	15.83615	29978.02	-71578.61	1	77602.7	-67.27545	2.164826E-009	0.0052038	6
	49	70	12.40079	38140.76	-86013.99	1	94091.05	-66.0863	1.381352E-009	0.0052098	6
	50	71	9.93114	47136	-100841	1	111313.5	-64.94724	-1.636047E-010	0.0052092	5
	51	73	7.944915	58598.77	-117408.6	1	131219.7	-63.47617	8.001421E-010	0.0052019	5
	52	75	6.317385	72474.46	-136460	1	154511.7	-62.02704	-4.735506E-010	0.0052089	5
	53	77	5.008013	89473.76	-157648.7	1	181269.6	-60.42286	-2.08438E-010	0.0051974	5
	54	79	3.945707	109865.4	-180908	1	211655.7	-58.7297	6.333671E-010	0.0052133	5
	55	82	3.158693	131589.8	-204854.9	1	243477.7	-57.28508	-2.790691E-010	0.0051916	5
	56	85	2.504006	156701.9	-231782.6	1	279783.2	-55.93845	7.323626E-010	0.0052086	5
	57	88	1.998082	183517.1	-260339	1	318519.9	-54.81938	4.595825E-010	0.0052274	5
	58	91	1.584686	213326.6	-292161.9	1	361755.2	-53.86437	1.294672E-010	0.0051582	5
	59	95	1.266892	243060.6	-328673.8	1	408784.7	-53.51636	3.786371E-010	0.005214	5
	60	99	0.999041	277886	-373383.4	1	465441.5	-53.34198	-3.204453E-010	0.0051805	5
