EXPLAIN
TAG	EISPOT
TITLE	LABEL	Potentiostatic IDE	Test &Identifier
DATE	LABEL	9/8/2019	Date
TIME	LABEL	9:06:05	Time
NOTES	NOTES	1	&Notes...
	
PSTAT	PSTAT	REF600-11020	Potentiostat
VDC	POTEN	0.00000E+000	T	DC &Voltage (V)
FREQINIT	QUANT	1.00000E+006	Initial Fre&q. (Hz)
FREQFINAL	QUANT	1.00000E+000	Final Fre&q. (Hz)
PTSPERDEC	QUANT	1.00000E+001	Points/&decade
VAC	QUANT	2.50000E+001	AC &Voltage (mV rms)
AREA	QUANT	1.00000E-002	&Area (cm^2)
CONDIT	TWOPARAM	T	5.00000E+000	0.00000E+000	Conditionin&g	Time(s)	E(V)
DELAY	TWOPARAM	T	5.00000E+000	0.00000E+000	Init. De&lay	Time(s)	Stab.(mV/s)
SPEED	SELECTOR	1	&Optimize for:
ZGUESS	QUANT	1.00000E+007	E&stimated Z (ohms)
OCVCURVE	TABLE	19
	Pt	T	Vf	Vm	Ach	Over
	#	s	V vs. Ref.	V	V	bits
	0	0.258333	-2.42122E-003	-2.42122E-003	5.64966E-004	...........
	1	0.516667	-2.43477E-003	-3.13021E-003	5.66232E-004	...........
	2	0.775	-2.51769E-003	-3.78945E-003	5.69699E-004	...........
	3	1.03333	-2.75105E-003	-4.40008E-003	5.68799E-004	...........
	4	1.29167	-3.16501E-003	-4.97896E-003	5.70899E-004	...........
	5	1.55	-3.70929E-003	-5.53271E-003	5.72399E-004	...........
	6	1.80833	-4.30523E-003	-6.05204E-003	5.68199E-004	...........
	7	2.06667	-4.89712E-003	-6.55296E-003	5.65166E-004	...........
	8	2.325	-5.46132E-003	-7.03570E-003	5.65932E-004	...........
	9	2.58333	-5.99457E-003	-7.50368E-003	5.68466E-004	...........
	10	2.84167	-6.50138E-003	-7.94701E-003	5.71199E-004	...........
	11	3.1	-6.98649E-003	-8.37661E-003	5.68966E-004	...........
	12	3.35833	-7.45249E-003	-8.79186E-003	5.62432E-004	...........
	13	3.61667	-7.90077E-003	-9.19266E-003	5.71166E-004	...........
	14	3.875	-8.33266E-003	-9.58322E-003	5.63099E-004	...........
	15	4.13333	-8.74971E-003	-9.96367E-003	5.66732E-004	...........
	16	4.39167	-9.15330E-003	-1.03229E-002	5.61299E-004	...........
	17	4.65	-9.54445E-003	-1.06957E-002	5.62166E-004	...........
	18	4.90833	-9.92448E-003	-1.10458E-002	5.67666E-004	...........
EOC	QUANT	-0.0099245	Open Circuit (V)
PSTATMODEL	IQUANT	4	Pstat Model
PSTATSECTION	LABEL	REF600-11020	Pstat Section
PSTATSERIALNO	LABEL	11020	Pstat Serial Number
CTRLMODE	IQUANT	1	Control Mode
IESTAB	IQUANT	0	I/E Stability
CASPEED	IQUANT	1	Control Amp Speed
CONVENTION	IQUANT	1	Current Convention
ICHRANGE	IQUANT	2	Ich Range
ICHRANGEMODE	TOGGLE	F	Ich Auto Range
ICHOFFSETENABLE	TOGGLE	T	Ich Offset Enable
ICHOFFSET	QUANT	0	Ich Offset (V)
ICHFILTER	IQUANT	3	Ich Filter
VCHRANGE	IQUANT	2	Vch Range
VCHRANGEMODE	TOGGLE	F	Vch Auto Range
VCHOFFSETENABLE	TOGGLE	T	Vch Offset Enable
VCHOFFSET	QUANT	0	Vch Offset (V)
VCHFILTER	IQUANT	3	Vch Filter
ACHRANGE	IQUANT	2	Ach Range
ACHOFFSETENABLE	TOGGLE	F	Ach Offset Enable
ACHOFFSET	QUANT	0	Ach Offset (V)
ACHFILTER	IQUANT	3	Ach Filter
IERANGELOWERLIMIT	IQUANT	1	I/E Range Lower Limit
IERANGEMODE	TOGGLE	F	I/E AutoRange
IERANGE	IQUANT	3	I/E Range
POSFEEDENABLE	TOGGLE	F	Positive Feedback IR Comp
POSFEEDRESISTANCE	QUANT	0	Positive Feedback Resistance (ohm)
ACHSELECT	IQUANT	0	Ach Select
CABLEID	IQUANT	14	Cable ID
DCCALDATE	LABEL	8/19/2019	DC Calibration Date
ACCALDATE	LABEL	8/19/2019	AC Calibration Date
THERMOSELECT	IQUANT	1	Thermo Select
FRAMEWORKVERSION	QUANT	6.33	Framework Version
INSTRUMENTVERSION	LABEL	3.50	Instrument Version
ZCURVE	TABLE
	Pt	Time	Freq	Zreal	Zimag	Zsig	Zmod	Zphz	Idc	Vdc	IERange
	#	s	Hz	ohm	ohm	V	ohm	°	A	V	#
	0	2	1000078	2479.782	-1602.501	1	2952.512	-32.87161	-1.673913E-006	-0.0083647	8
	1	3	794390.6	2816.015	-1495.26	1	3188.376	-27.9676	-6.601267E-006	-0.0063961	8
	2	5	630984.4	3075.221	-1335.944	1	3352.869	-23.48118	4.540566E-006	-0.0087383	8
	3	6	501234.4	3288.413	-1180.508	1	3493.889	-19.74763	-1.479699E-006	-0.008112	8
	4	8	398109.4	3428.623	-1049.189	1	3585.561	-17.01457	2.651884E-006	-0.0088319	8
	5	9	316265.6	3570.107	-876.9213	1	3676.228	-13.80029	-2.032019E-006	-0.0080263	8
	6	11	251203.1	3668.257	-760.7181	1	3746.305	-11.71586	-2.237403E-007	-0.0080479	8
	7	12	199546.9	3721.439	-627.081	1	3773.902	-9.56477	-1.049189E-006	-0.0080756	8
	8	13	158578.1	3773.008	-574.7114	1	3816.528	-8.660822	-5.338937E-006	-0.0071753	8
	9	15	125953.1	3836.841	-459.3006	1	3864.234	-6.826281	-6.116185E-007	-0.0070213	7
	10	16	100078.1	3863.288	-412.2372	1	3885.22	-6.090773	-4.693686E-008	-0.0083375	7
	11	18	79453.13	3893.516	-389.4251	1	3912.943	-5.711663	-1.124139E-008	-0.0083719	7
	12	19	63140.62	3922.367	-376.373	1	3940.383	-5.481068	3.362157E-009	-0.0084845	7
	13	20	50203.12	3950.522	-374.4076	1	3968.224	-5.41399	-4.085636E-008	-0.0082777	7
	14	22	39890.62	3982.283	-382.9733	1	4000.656	-5.493201	7.90506E-008	-0.0084449	7
	15	23	31640.63	4013.372	-399.9544	1	4033.251	-5.691048	-2.344464E-008	-0.0084305	7
	16	24	25171.88	4047.004	-426.8719	1	4069.455	-6.021208	2.957512E-008	-0.0085227	7
	17	26	20015.62	4083.908	-465.6575	1	4110.37	-6.504917	-6.042252E-009	-0.0083854	7
	18	27	15890.62	4123.434	-514.2079	1	4155.372	-7.108306	-3.876315E-009	-0.0083894	7
	19	28	12609.37	4168.577	-577.5158	1	4208.391	-7.887567	9.041776E-008	-0.0085819	7
	20	30	10078.13	4215.142	-651.8521	1	4265.247	-8.790888	-3.176763E-008	-0.0084197	7
	21	31	8015.625	4268.839	-746.8167	1	4333.673	-9.92325	-5.256184E-009	-0.0083883	7
	22	32	6328.125	4331.646	-863.865	1	4416.947	-11.27859	5.707263E-008	-0.00859	7
	23	34	5015.625	4399.806	-1004.901	1	4513.105	-12.86548	-4.014219E-008	-0.0082941	7
	24	35	3984.375	4476.007	-1173.046	1	4627.167	-14.68547	-7.708079E-009	-0.0083797	7
	25	36	3170.956	4561.38	-1376.114	1	4764.439	-16.78793	7.772074E-008	-0.0084467	7
	26	38	2527.573	4660.423	-1617.247	1	4933.055	-19.13766	-4.481783E-008	-0.0083753	7
	27	39	1976.103	4783.584	-1936.309	1	5160.617	-22.03722	3.693449E-009	-0.0084978	7
	28	40	1577.524	4912.688	-2291.016	1	5420.632	-25.00184	-2.126307E-008	-0.0084401	7
	29	42	1265.625	5062.401	-2701.722	1	5738.223	-28.08812	-3.05487E-008	-0.0084308	7
	30	43	998.264	5245.052	-3239.948	1	6165.05	-31.70426	-6.017241E-009	-0.0084064	7
	31	45	796.875	5443.016	-3850.509	1	6667.296	-35.27642	8.565461E-008	-0.0085864	7
	32	46	627.7902	5685.777	-4641.472	1	7339.708	-39.2258	-3.485123E-009	-0.0083906	7
	33	47	505.5147	5957.655	-5510.821	1	8115.59	-42.76878	-2.958952E-008	-0.0084323	7
	34	48	397.9953	6274.638	-6667.57	1	9155.74	-46.73899	8.316261E-009	-0.0084156	7
	35	50	315.5048	6653.57	-8046.761	1	10441.28	-50.41391	1.651692E-009	-0.0084708	6
	36	51	252.4038	7076.497	-9658.59	1	11973.52	-53.77112	1.080302E-009	-0.0084741	6
	37	52	198.6229	7617.634	-11776.47	1	14025.46	-57.1031	1.618699E-009	-0.0084766	6
	38	54	158.3615	8233.605	-14222.53	1	16433.88	-59.93289	1.262113E-009	-0.0084804	6
	39	55	125.558	8997.684	-17285.84	1	19487.39	-62.50197	1.83194E-009	-0.0084766	6
	40	56	100.4464	9879.97	-20843.85	1	23066.86	-64.63907	1.30071E-009	-0.0084821	6
	41	58	79.00281	11014.9	-25600.42	1	27869.51	-66.7196	1.538293E-009	-0.0084805	6
	42	59	63.3446	12580.36	-31026.81	1	33480.27	-67.92905	1.119598E-009	-0.0084727	6
	43	61	49.86702	14044.75	-37721.41	1	40251.21	-69.57827	1.218202E-009	-0.0084824	6
	44	62	39.72458	16420.19	-45936.71	1	48783.24	-70.33044	1.745028E-009	-0.0084789	6
	45	63	31.6723	19078.31	-55598.11	1	58780.37	-71.06051	1.548042E-009	-0.0084826	6
	46	65	24.93351	22833.89	-68168.46	1	71891.07	-71.48107	1.686231E-009	-0.0084821	6
	47	66	19.86229	27434.5	-82704.56	1	87136.08	-71.64845	1.163837E-009	-0.0084815	6
	48	67	15.83615	32540.32	-100231.7	1	105381.5	-72.01392	2.435326E-009	-0.0084767	6
	49	69	12.40079	41850.99	-122851.9	1	129784.8	-71.18797	5.482169E-010	-0.0084758	5
	50	70	9.93114	51452.73	-145972.2	1	154774.9	-70.58331	5.087077E-010	-0.0084696	5
	51	72	7.944915	63208.61	-174755.3	1	185835.3	-70.11505	1.544824E-009	-0.008485	5
	52	73	6.317385	80255.77	-208158	1	223093.5	-68.91574	9.338739E-010	-0.0084898	5
	53	75	5.008013	101095.1	-248176.4	1	267977.1	-67.83638	4.678899E-010	-0.0084877	5
	54	78	3.945707	128178.5	-294457.1	1	321145.9	-66.4763	1.000778E-009	-0.0084722	5
	55	80	3.158693	159501.5	-344047.9	1	379222.5	-65.12744	6.61954E-010	-0.0084678	5
	56	84	2.504006	198954.1	-402089.6	1	448618.8	-63.67377	8.276069E-010	-0.008487	5
	57	86	1.998082	243880.8	-464725	1	524830.6	-62.31018	4.677889E-010	-0.0084414	5
	58	89	1.584686	298982.1	-537107.9	1	614715.5	-60.89742	7.21652E-010	-0.008435	5
	59	93	1.266892	359319.9	-613193.7	1	710716	-59.6305	4.20047E-010	-0.0084494	5
	60	97	0.999041	431684.7	-702697.8	1	824703.5	-58.43656	7.839532E-010	-0.0084891	5
