EXPLAIN
TAG	EISPOT
TITLE	LABEL	Potentiostatic IDE	Test &Identifier
DATE	LABEL	9/12/2019	Date
TIME	LABEL	10:48:08	Time
NOTES	NOTES	1	&Notes...
	
PSTAT	PSTAT	REF600-11020	Potentiostat
VDC	POTEN	0.00000E+000	T	DC &Voltage (V)
FREQINIT	QUANT	1.00000E+006	Initial Fre&q. (Hz)
FREQFINAL	QUANT	1.00000E+000	Final Fre&q. (Hz)
PTSPERDEC	QUANT	1.00000E+001	Points/&decade
VAC	QUANT	2.50000E+001	AC &Voltage (mV rms)
AREA	QUANT	1.00000E-002	&Area (cm^2)
CONDIT	TWOPARAM	T	5.00000E+000	0.00000E+000	Conditionin&g	Time(s)	E(V)
DELAY	TWOPARAM	T	5.00000E+000	0.00000E+000	Init. De&lay	Time(s)	Stab.(mV/s)
SPEED	SELECTOR	1	&Optimize for:
ZGUESS	QUANT	1.00000E+007	E&stimated Z (ohms)
OCVCURVE	TABLE	19
	Pt	T	Vf	Vm	Ach	Over
	#	s	V vs. Ref.	V	V	bits
	0	0.258333	4.05154E-003	4.05154E-003	5.59699E-004	...........
	1	0.516667	4.04321E-003	3.61555E-003	5.60899E-004	...........
	2	0.775	3.98808E-003	2.99319E-003	5.61266E-004	...........
	3	1.03333	3.81622E-003	2.26015E-003	5.61399E-004	...........
	4	1.29167	3.47491E-003	1.72342E-003	5.61066E-004	...........
	5	1.55	2.97894E-003	1.16144E-003	5.57966E-004	...........
	6	1.80833	2.41334E-003	1.39355E-003	5.61666E-004	...........
	7	2.06667	1.88874E-003	5.66907E-004	5.63499E-004	...........
	8	2.325	1.47188E-003	1.05442E-003	5.56799E-004	...........
	9	2.58333	1.18038E-003	1.19546E-003	5.59832E-004	...........
	10	2.84167	1.02480E-003	7.90434E-004	5.65032E-004	...........
	11	3.1	9.77130E-004	9.51470E-004	5.69866E-004	...........
	12	3.35833	9.65618E-004	9.61835E-004	5.63699E-004	...........
	13	3.61667	9.43301E-004	4.61472E-004	5.64532E-004	...........
	14	3.875	8.90502E-004	6.59754E-004	5.62999E-004	...........
	15	4.13333	7.97230E-004	3.67909E-004	5.64332E-004	...........
	16	4.39167	6.76751E-004	2.40162E-004	5.66232E-004	...........
	17	4.65	5.54716E-004	6.15775E-004	5.56933E-004	...........
	18	4.90833	4.61811E-004	2.87194E-004	5.63332E-004	...........
EOC	QUANT	0.0004618	Open Circuit (V)
PSTATMODEL	IQUANT	4	Pstat Model
PSTATSECTION	LABEL	REF600-11020	Pstat Section
PSTATSERIALNO	LABEL	11020	Pstat Serial Number
CTRLMODE	IQUANT	1	Control Mode
IESTAB	IQUANT	0	I/E Stability
CASPEED	IQUANT	1	Control Amp Speed
CONVENTION	IQUANT	1	Current Convention
ICHRANGE	IQUANT	2	Ich Range
ICHRANGEMODE	TOGGLE	F	Ich Auto Range
ICHOFFSETENABLE	TOGGLE	T	Ich Offset Enable
ICHOFFSET	QUANT	0	Ich Offset (V)
ICHFILTER	IQUANT	3	Ich Filter
VCHRANGE	IQUANT	2	Vch Range
VCHRANGEMODE	TOGGLE	F	Vch Auto Range
VCHOFFSETENABLE	TOGGLE	T	Vch Offset Enable
VCHOFFSET	QUANT	0	Vch Offset (V)
VCHFILTER	IQUANT	3	Vch Filter
ACHRANGE	IQUANT	2	Ach Range
ACHOFFSETENABLE	TOGGLE	F	Ach Offset Enable
ACHOFFSET	QUANT	0	Ach Offset (V)
ACHFILTER	IQUANT	3	Ach Filter
IERANGELOWERLIMIT	IQUANT	1	I/E Range Lower Limit
IERANGEMODE	TOGGLE	F	I/E AutoRange
IERANGE	IQUANT	1	I/E Range
POSFEEDENABLE	TOGGLE	F	Positive Feedback IR Comp
POSFEEDRESISTANCE	QUANT	0	Positive Feedback Resistance (ohm)
ACHSELECT	IQUANT	0	Ach Select
CABLEID	IQUANT	14	Cable ID
DCCALDATE	LABEL	8/19/2019	DC Calibration Date
ACCALDATE	LABEL	8/19/2019	AC Calibration Date
THERMOSELECT	IQUANT	1	Thermo Select
FRAMEWORKVERSION	QUANT	6.33	Framework Version
INSTRUMENTVERSION	LABEL	3.50	Instrument Version
ZCURVE	TABLE
	Pt	Time	Freq	Zreal	Zimag	Zsig	Zmod	Zphz	Idc	Vdc	IERange
	#	s	Hz	ohm	ohm	V	ohm	°	A	V	#
	0	2	1000078	2598.889	-1765.06	1	3141.602	-34.18275	-3.372803E-006	0.0025752	8
	1	4	794390.6	2953.836	-1629.45	1	3373.463	-28.88283	-9.363848E-007	0.0029542	8
	2	5	630984.4	3235.931	-1499.512	1	3566.481	-24.86273	-1.097769E-006	0.0027539	8
	3	7	501234.4	3487.788	-1322.832	1	3730.221	-20.77049	-6.651809E-007	0.0024382	8
	4	8	398109.4	3655.045	-1157.163	1	3833.846	-17.56744	2.594427E-006	0.001718	8
	5	9	316265.6	3784.178	-1036.595	1	3923.587	-15.31917	-3.790955E-006	0.0029406	8
	6	11	251203.1	3893.308	-864.2402	1	3988.077	-12.51563	-5.141402E-006	0.0033705	8
	7	12	199546.9	3979.236	-741.8633	1	4047.799	-10.56062	5.38151E-006	0.0012286	8
	8	14	158578.1	4031.655	-674.0674	1	4087.616	-9.491702	-1.245262E-006	0.0024823	8
	9	15	125953.1	4124.905	-561.9698	1	4163.01	-7.758112	-1.189127E-006	0.004991	7
	10	17	100078.1	4153.347	-504.8024	1	4183.911	-6.929803	-1.133828E-008	0.0021761	7
	11	18	79453.13	4190.207	-481.1992	1	4217.747	-6.551092	1.481616E-007	0.0019165	7
	12	19	63140.62	4226.452	-472.8335	1	4252.818	-6.383411	3.339904E-008	0.0020981	7
	13	21	50203.12	4264.215	-477.6107	1	4290.879	-6.390742	-2.013948E-008	0.0022803	7
	14	22	39890.62	4302.455	-492.2206	1	4330.519	-6.526525	8.62313E-008	0.0019692	7
	15	23	31640.63	4342.964	-523.0244	1	4374.345	-6.867075	-2.089112E-008	0.0022757	7
	16	24	25171.88	4386.209	-566.9707	1	4422.701	-7.365334	-4.759636E-008	0.002156	7
	17	26	20015.62	4435.041	-625.3354	1	4478.909	-8.025729	5.390184E-008	0.0019559	7
	18	27	15890.62	4485.252	-698.4022	1	4539.301	-8.8505	-2.945792E-008	0.0021208	7
	19	28	12609.37	4546.576	-792.855	1	4615.189	-9.89206	-4.393803E-008	0.002173	7
	20	30	10078.13	4609.635	-903.5521	1	4697.355	-11.09016	7.726287E-008	0.0020948	7
	21	31	8015.625	4687.259	-1043.569	1	4802.024	-12.55159	9.622952E-008	0.0019205	7
	22	32	6328.125	4775.909	-1214.778	1	4927.981	-14.27087	8.762835E-008	0.0019616	7
	23	34	5015.625	4878.167	-1418.711	1	5080.28	-16.21595	-8.4207E-009	0.0021514	7
	24	35	3984.375	4993.279	-1659.958	1	5261.967	-18.38879	9.80266E-008	0.0019169	7
	25	36	3170.956	5130.03	-1945.63	1	5486.592	-20.76988	7.897872E-008	0.0020903	7
	26	38	2527.573	5288.202	-2283.081	1	5759.995	-23.35135	1.494383E-007	0.0018892	7
	27	39	1976.103	5485.274	-2717.022	1	6121.311	-26.35061	-9.952141E-009	0.0021584	7
	28	40	1577.524	5700.986	-3195.71	1	6535.58	-29.27298	-2.707283E-009	0.0021393	7
	29	42	1265.625	5946.474	-3740.519	1	7025.1	-32.17118	2.541404E-009	0.0020356	7
	30	43	998.264	6248.428	-4438.353	1	7664.321	-35.38675	3.562888E-008	0.0020818	7
	31	44	796.875	6587.006	-5226.442	1	8408.588	-38.43015	8.724968E-008	0.0019563	7
	32	46	627.7902	6992.461	-6218.708	1	9357.716	-41.64812	-5.57195E-008	0.0022258	7
	33	47	505.5147	7417.755	-7279.617	1	10393.07	-44.4615	1.666939E-008	0.0018692	6
	34	48	397.9953	7954.159	-8706.494	1	11792.87	-47.58551	1.07314E-009	0.0020515	6
	35	50	315.5048	8548.854	-10372.6	1	13441.49	-50.50545	7.575656E-010	0.0020497	6
	36	51	252.4038	9203.413	-12299.07	1	15361.32	-53.19244	4.372903E-010	0.0020557	6
	37	53	198.6229	10016.56	-14808.07	1	17877.65	-55.92459	1.404011E-009	0.0020552	6
	38	54	158.3615	10908.45	-17687.46	1	20780.77	-58.33647	4.903589E-010	0.0020543	6
	39	55	125.558	11983.13	-21265.48	1	24409.34	-60.59867	1.245049E-009	0.0020483	6
	40	57	100.4464	13197.77	-25469.15	1	28685.51	-62.60741	1.496249E-009	0.0020472	6
	41	58	79.00281	14702.33	-30959.08	1	34272.78	-64.59716	1.281488E-009	0.002046	6
	42	59	63.3446	16230.15	-37343.6	1	40718.09	-66.50943	1.609033E-009	0.0020418	6
	43	61	49.86702	18753.48	-44786.58	1	48554.41	-67.27949	6.751643E-010	0.002042	6
	44	62	39.72458	21265.36	-54530.9	1	58530.63	-68.69576	1.266061E-009	0.002045	6
	45	63	31.6723	24528.39	-65834.74	1	70255.64	-69.56586	1.296894E-009	0.0020472	6
	46	65	24.93351	28584.43	-80439.73	1	85367.55	-70.43722	1.145391E-009	0.0020439	6
	47	66	19.86229	33656.39	-97482.9	1	103129.3	-70.95254	1.490207E-009	0.0020565	6
	48	67	15.83615	40751.51	-117404.5	1	124275.9	-70.85793	1.4598E-009	0.0020465	5
	49	69	12.40079	49274.41	-143786.7	1	151995.3	-71.08387	-8.074169E-011	0.0020521	5
	50	70	9.93114	60888.4	-173122.9	1	183518.2	-70.62291	7.731307E-010	0.0020555	5
	51	72	7.944915	74364.4	-207264.4	1	220201.2	-70.26252	2.082951E-010	0.0020596	5
	52	73	6.317385	93170.84	-248547.5	1	265436.8	-69.45093	3.318089E-010	0.0020728	5
	53	75	5.008013	117010.7	-297009.1	1	319227	-68.49738	5.590077E-010	0.0020641	5
	54	78	3.945707	148327.4	-355073.9	1	384809.7	-67.32791	1.218375E-010	0.0020467	5
	55	81	3.158693	185258.8	-416604.8	1	455939	-66.02591	3.348141E-010	0.0020514	5
	56	84	2.504006	231874.1	-489078.8	1	541261.2	-64.63419	2.096016E-010	0.0020659	5
	57	87	1.998082	285836.4	-567195.6	1	635148.2	-63.25433	4.840336E-010	0.0020461	5
	58	90	1.584686	355051	-657525.4	1	747262.3	-61.63181	2.477713E-010	0.0019985	5
	59	93	1.266892	430657	-754638.1	1	868875.2	-60.28745	3.89744E-010	0.0020687	5
	60	98	0.999041	528089.3	-868017.9	1	1016038	-58.68428	3.106316E-011	0.0020102	5
