EXPLAIN
TAG	EISPOT
TITLE	LABEL	Potentiostatic EIS	Test &Identifier
DATE	LABEL	10/26/2019	Date
TIME	LABEL	10:36:42	Time
NOTES	NOTES	1	&Notes...
	
PSTAT	PSTAT	REF600-11020	Potentiostat
VDC	POTEN	0.00000E+000	T	DC &Voltage (V)
FREQINIT	QUANT	1.00000E+006	Initial Fre&q. (Hz)
FREQFINAL	QUANT	1.00000E+000	Final Fre&q. (Hz)
PTSPERDEC	QUANT	1.00000E+001	Points/&decade
VAC	QUANT	2.50000E+001	AC &Voltage (mV rms)
AREA	QUANT	1.00000E-002	&Area (cm^2)
CONDIT	TWOPARAM	T	5.00000E+000	0.00000E+000	Conditionin&g	Time(s)	E(V)
DELAY	TWOPARAM	T	5.00000E+000	0.00000E+000	Init. De&lay	Time(s)	Stab.(mV/s)
SPEED	SELECTOR	0	&Optimize for:
ZGUESS	QUANT	1.00000E+005	E&stimated Z (ohms)
OCVCURVE	TABLE	19
	Pt	T	Vf	Vm	Ach	Over
	#	s	V vs. Ref.	V	V	bits
	0	0.258333	5.27891E-003	5.27891E-003	5.49033E-004	...........
	1	0.516667	5.27625E-003	5.13982E-003	5.50566E-004	...........
	2	0.775	5.26024E-003	5.02432E-003	5.52199E-004	...........
	3	1.03333	5.21642E-003	4.93483E-003	5.51599E-004	...........
	4	1.29167	5.14190E-003	4.85480E-003	5.52066E-004	...........
	5	1.55	5.04977E-003	4.78770E-003	5.48166E-004	...........
	6	1.80833	4.95661E-003	4.72395E-003	5.49833E-004	...........
	7	2.06667	4.87252E-003	4.69427E-003	5.46733E-004	...........
	8	2.325	4.80132E-003	4.64858E-003	5.44466E-004	...........
	9	2.58333	4.74298E-003	4.60440E-003	5.50833E-004	...........
	10	2.84167	4.69443E-003	4.57610E-003	5.49999E-004	...........
	11	3.1	4.65227E-003	4.55829E-003	5.46966E-004	...........
	12	3.35833	4.61567E-003	4.53698E-003	5.48666E-004	...........
	13	3.61667	4.58524E-003	4.51899E-003	5.52499E-004	...........
	14	3.875	4.56038E-003	4.50014E-003	5.52899E-004	...........
	15	4.13333	4.53930E-003	4.48528E-003	5.53366E-004	...........
	16	4.39167	4.52041E-003	4.46751E-003	5.49333E-004	...........
	17	4.65	4.50283E-003	4.45534E-003	5.58932E-004	...........
	18	4.90833	4.48633E-003	4.44266E-003	5.51566E-004	...........
EOC	QUANT	0.0044863	Open Circuit (V)
PSTATMODEL	IQUANT	4	Pstat Model
PSTATSECTION	LABEL	REF600-11020	Pstat Section
PSTATSERIALNO	LABEL	11020	Pstat Serial Number
CTRLMODE	IQUANT	1	Control Mode
IESTAB	IQUANT	0	I/E Stability
CASPEED	IQUANT	1	Control Amp Speed
CONVENTION	IQUANT	1	Current Convention
ICHRANGE	IQUANT	2	Ich Range
ICHRANGEMODE	TOGGLE	F	Ich Auto Range
ICHOFFSETENABLE	TOGGLE	T	Ich Offset Enable
ICHOFFSET	QUANT	0	Ich Offset (V)
ICHFILTER	IQUANT	3	Ich Filter
VCHRANGE	IQUANT	2	Vch Range
VCHRANGEMODE	TOGGLE	F	Vch Auto Range
VCHOFFSETENABLE	TOGGLE	T	Vch Offset Enable
VCHOFFSET	QUANT	0	Vch Offset (V)
VCHFILTER	IQUANT	3	Vch Filter
ACHRANGE	IQUANT	2	Ach Range
ACHOFFSETENABLE	TOGGLE	F	Ach Offset Enable
ACHOFFSET	QUANT	0	Ach Offset (V)
ACHFILTER	IQUANT	3	Ach Filter
IERANGELOWERLIMIT	IQUANT	1	I/E Range Lower Limit
IERANGEMODE	TOGGLE	F	I/E AutoRange
IERANGE	IQUANT	4	I/E Range
POSFEEDENABLE	TOGGLE	F	Positive Feedback IR Comp
POSFEEDRESISTANCE	QUANT	0	Positive Feedback Resistance (ohm)
ACHSELECT	IQUANT	0	Ach Select
CABLEID	IQUANT	14	Cable ID
DCCALDATE	LABEL	8/19/2019	DC Calibration Date
ACCALDATE	LABEL	8/19/2019	AC Calibration Date
THERMOSELECT	IQUANT	1	Thermo Select
FRAMEWORKVERSION	QUANT	6.33	Framework Version
INSTRUMENTVERSION	LABEL	3.50	Instrument Version
ZCURVE	TABLE
	Pt	Time	Freq	Zreal	Zimag	Zsig	Zmod	Zphz	Idc	Vdc	IERange
	#	s	Hz	ohm	ohm	V	ohm	°	A	V	#
	0	2	1000078	2276.094	-1473.58	1	2711.465	-32.91967	-3.717113E-006	0.0072288	8
	1	2	794390.6	2552.492	-1403.956	1	2913.127	-28.81227	1.597059E-006	0.0065088	8
	2	2	630984.4	2805.914	-1294.154	1	3089.982	-24.76026	1.697433E-006	0.0059005	8
	3	3	501234.4	3008.031	-1181.774	1	3231.848	-21.44852	-2.133175E-006	0.0065973	8
	4	3	398109.4	3187.84	-1045.982	1	3355.056	-18.1655	3.275222E-006	0.0056527	8
	5	3	316265.6	3311.134	-915.2558	1	3435.302	-15.45174	2.861765E-006	0.0056308	8
	6	4	251203.1	3430.815	-800.7363	1	3523.021	-13.13739	-2.453998E-006	0.0065552	8
	7	4	199546.9	3492.183	-713.4961	1	3564.326	-11.54731	1.126376E-006	0.0059744	8
	8	4	158578.1	3585.763	-637.6309	1	3642.014	-10.08311	-1.302943E-006	0.0063722	8
	9	5	125953.1	3663.061	-531.7721	1	3701.459	-8.260011	-8.188574E-008	0.0069501	7
	10	5	100078.1	3693.356	-489.3097	1	3725.628	-7.546811	-9.784953E-009	0.006042	7
	11	5	79453.13	3735.415	-467.589	1	3764.567	-7.135016	9.909086E-008	0.0058951	7
	12	6	63140.62	3778.855	-454.7124	1	3806.115	-6.861454	-1.189305E-008	0.0060662	7
	13	6	50203.12	3820.919	-450.9489	1	3847.438	-6.730972	3.701517E-008	0.0059234	7
	14	6	39890.62	3864.203	-457.575	1	3891.2	-6.753164	-9.209862E-009	0.0060828	7
	15	7	31640.63	3909.496	-472.5809	1	3937.956	-6.892488	-4.830736E-008	0.0060947	7
	16	7	25171.88	3956.355	-496.0363	1	3987.33	-7.146289	-4.69056E-008	0.0060966	7
	17	7	20015.62	4008.589	-543.3691	1	4045.249	-7.719462	-6.4894E-008	0.006126	7
	18	7	15890.62	4058.913	-575.9639	1	4099.574	-8.076409	-6.590042E-008	0.0061291	7
	19	8	12609.37	4116.113	-630.5107	1	4164.125	-8.708935	-9.864647E-009	0.0060811	7
	20	8	10078.13	4175.731	-694.2974	1	4233.058	-9.440188	-2.295546E-008	0.0060293	7
	21	8	8015.625	4229.732	-775.3476	1	4300.209	-10.3875	-5.17649E-009	0.005994	7
	22	9	6328.125	4306.692	-876.5453	1	4394.989	-11.50433	9.85986E-008	0.0058866	7
	23	9	5015.625	4377.886	-998.777	1	4490.373	-12.85159	3.728242E-008	0.0059183	7
	24	9	3984.375	4445.619	-1155.765	1	4593.4	-14.57306	-1.04366E-008	0.0060738	7
	25	10	3170.956	4530.866	-1331	1	4722.32	-16.37083	-6.384698E-008	0.0061182	7
	26	10	2527.573	4614.779	-1557.652	1	4870.572	-18.65137	-5.626628E-008	0.0061283	7
	27	10	1976.103	4715.664	-1860.965	1	5069.583	-21.53592	-5.670383E-008	0.0061333	7
	28	11	1577.524	4806.419	-2234.003	1	5300.23	-24.9288	8.109307E-008	0.0059595	7
	29	11	1265.625	4933.827	-2604.667	1	5579.152	-27.83048	3.441015E-008	0.0059958	7
	30	11	998.264	5071.824	-3141.899	1	5966.148	-31.77743	-2.636564E-009	0.0059876	7
	31	12	796.875	5224.674	-3773.05	1	6444.62	-35.83531	1.070456E-008	0.006112	7
	32	12	627.7902	5407.035	-4589.975	1	7092.523	-40.32758	-9.725899E-009	0.0060729	7
	33	12	505.5147	5603.108	-5502.507	1	7853.178	-44.481	-5.528272E-008	0.0061312	7
	34	13	397.9953	5857.642	-6741.463	1	8930.806	-49.0127	2.340278E-009	0.0060607	7
	35	13	315.5048	6155.498	-8233.424	1	10280.05	-53.21736	-3.696622E-010	0.0059978	6
	36	13	252.4038	6497.497	-10001.71	1	11926.93	-56.99068	1.257273E-009	0.0059973	6
	37	14	198.6229	6955.813	-12346.54	1	14171.11	-60.60389	1.577684E-010	0.0059971	6
	38	14	158.3615	7505.271	-15082.28	1	16846.49	-63.54407	1.114108E-009	0.0059911	6
	39	14	125.558	8231.945	-18532.51	1	20278.54	-66.04971	6.001881E-010	0.0059936	6
	40	15	100.4464	9132.767	-22611.73	1	24386.43	-68.00646	-8.183045E-010	0.005991	6
	41	15	79.00281	10351.99	-27990.13	1	29843.11	-69.70338	1.6312E-010	0.0059888	6
	42	15	63.3446	12268.87	-33612.06	1	35781.22	-69.94722	5.92345E-010	0.0059879	6
	43	16	49.86702	14524.54	-41567.62	1	44032.14	-70.73959	1.063102E-009	0.0059888	6
	44	16	39.72458	17068.18	-50783.1	1	53574.68	-71.42252	5.353031E-010	0.0059974	6
	45	16	31.6723	20676.75	-61683	1	65056.29	-71.46835	7.193666E-010	0.0059939	6
	46	17	24.93351	26196.58	-75139.56	1	79575.21	-70.77946	6.949899E-010	0.0059919	6
	47	17	19.86229	32885.21	-90142.63	1	95953.8	-69.95737	1.256233E-009	0.0059962	6
	48	17	15.83615	40679.23	-107511.5	1	114950.1	-69.27482	2.650698E-010	0.0059948	5
	49	18	12.40079	53863.2	-131150.4	1	141780.4	-67.67214	6.011864E-010	0.0059956	5
	50	18	9.93114	67090.2	-152119.7	1	166257.3	-66.20081	-2.101672E-010	0.0059985	5
	51	18	7.944915	84089.7	-177128.9	1	196075.8	-64.60456	7.777635E-010	0.0059916	5
	52	19	6.317385	104943.1	-205794.5	1	231007.4	-62.98108	6.498397E-010	0.0059849	5
	53	20	5.008013	130546	-237567	1	271072.6	-61.21066	2.901143E-010	0.0059966	5
	54	21	3.945707	159175	-272840.8	1	315877.8	-59.74077	2.153233E-010	0.0060023	5
	55	22	3.158693	190170.1	-308758.6	1	362624.5	-58.37032	-1.736525E-010	0.0059876	5
	56	24	2.504006	224767.3	-350295.9	1	416206.2	-57.31376	3.840732E-011	0.0059869	5
	57	25	1.998082	260436.8	-396832.7	1	474661.4	-56.72356	1.537676E-010	0.0060205	5
	58	27	1.584686	299951.4	-451028.1	1	541661.4	-56.37453	-8.007863E-012	0.0059741	5
	59	29	1.266892	342756.7	-514476.8	1	618197.8	-56.3275	-6.220016E-011	0.0059519	5
	60	31	0.999041	392094.8	-595245.9	1	712780.4	-56.62668	-9.770488E-011	0.0059461	5
