EXPLAIN
TAG	EISPOT
TITLE	LABEL	Potentiostatic EIS	Test &Identifier
DATE	LABEL	11/9/2019	Date
TIME	LABEL	11:18:46	Time
NOTES	NOTES	2	&Notes...
	
	
PSTAT	PSTAT	REF600-11020	Potentiostat
VDC	POTEN	0.00000E+000	T	DC &Voltage (V)
FREQINIT	QUANT	1.00000E+006	Initial Fre&q. (Hz)
FREQFINAL	QUANT	1.00000E+000	Final Fre&q. (Hz)
PTSPERDEC	QUANT	1.00000E+001	Points/&decade
VAC	QUANT	2.50000E+001	AC &Voltage (mV rms)
AREA	QUANT	1.00000E-002	&Area (cm^2)
CONDIT	TWOPARAM	T	5.00000E+000	0.00000E+000	Conditionin&g	Time(s)	E(V)
DELAY	TWOPARAM	T	5.00000E+000	0.00000E+000	Init. De&lay	Time(s)	Stab.(mV/s)
SPEED	SELECTOR	0	&Optimize for:
ZGUESS	QUANT	1.00000E+005	E&stimated Z (ohms)
OCVCURVE	TABLE	19
	Pt	T	Vf	Vm	Ach	Over
	#	s	V vs. Ref.	V	V	bits
	0	0.258333	8.58473E-002	8.58473E-002	5.59799E-004	...........
	1	0.516667	8.59477E-002	9.11016E-002	5.61166E-004	...........
	2	0.775	8.65581E-002	9.57698E-002	5.59266E-004	...........
	3	1.03333	8.82614E-002	1.00059E-001	5.58899E-004	...........
	4	1.29167	9.12505E-002	1.03960E-001	5.61732E-004	...........
	5	1.55	9.51234E-002	1.07555E-001	5.56933E-004	...........
	6	1.80833	9.92801E-002	1.10910E-001	5.59499E-004	...........
	7	2.06667	1.03306E-001	1.13984E-001	5.62666E-004	...........
	8	2.325	1.07036E-001	1.16928E-001	5.62966E-004	...........
	9	2.58333	1.10459E-001	1.19608E-001	5.57799E-004	...........
	10	2.84167	1.13617E-001	1.22223E-001	5.57666E-004	...........
	11	3.1	1.16555E-001	1.24577E-001	5.62199E-004	...........
	12	3.35833	1.19305E-001	1.26940E-001	5.56832E-004	...........
	13	3.61667	1.21892E-001	1.29067E-001	5.63099E-004	...........
	14	3.875	1.24334E-001	1.31190E-001	5.59666E-004	...........
	15	4.13333	1.26648E-001	1.33128E-001	5.56466E-004	...........
	16	4.39167	1.28845E-001	1.35056E-001	5.58666E-004	...........
	17	4.65	1.30936E-001	1.36846E-001	5.57266E-004	...........
	18	4.90833	1.32930E-001	1.38604E-001	5.58599E-004	...........
EOC	QUANT	0.1329303	Open Circuit (V)
PSTATMODEL	IQUANT	4	Pstat Model
PSTATSECTION	LABEL	REF600-11020	Pstat Section
PSTATSERIALNO	LABEL	11020	Pstat Serial Number
CTRLMODE	IQUANT	1	Control Mode
IESTAB	IQUANT	0	I/E Stability
CASPEED	IQUANT	1	Control Amp Speed
CONVENTION	IQUANT	1	Current Convention
ICHRANGE	IQUANT	2	Ich Range
ICHRANGEMODE	TOGGLE	F	Ich Auto Range
ICHOFFSETENABLE	TOGGLE	T	Ich Offset Enable
ICHOFFSET	QUANT	0	Ich Offset (V)
ICHFILTER	IQUANT	3	Ich Filter
VCHRANGE	IQUANT	2	Vch Range
VCHRANGEMODE	TOGGLE	F	Vch Auto Range
VCHOFFSETENABLE	TOGGLE	T	Vch Offset Enable
VCHOFFSET	QUANT	0	Vch Offset (V)
VCHFILTER	IQUANT	3	Vch Filter
ACHRANGE	IQUANT	2	Ach Range
ACHOFFSETENABLE	TOGGLE	F	Ach Offset Enable
ACHOFFSET	QUANT	0	Ach Offset (V)
ACHFILTER	IQUANT	3	Ach Filter
IERANGELOWERLIMIT	IQUANT	1	I/E Range Lower Limit
IERANGEMODE	TOGGLE	F	I/E AutoRange
IERANGE	IQUANT	6	I/E Range
POSFEEDENABLE	TOGGLE	F	Positive Feedback IR Comp
POSFEEDRESISTANCE	QUANT	0	Positive Feedback Resistance (ohm)
ACHSELECT	IQUANT	0	Ach Select
CABLEID	IQUANT	14	Cable ID
DCCALDATE	LABEL	8/19/2019	DC Calibration Date
ACCALDATE	LABEL	8/19/2019	AC Calibration Date
THERMOSELECT	IQUANT	1	Thermo Select
FRAMEWORKVERSION	QUANT	6.33	Framework Version
INSTRUMENTVERSION	LABEL	3.50	Instrument Version
ZCURVE	TABLE
	Pt	Time	Freq	Zreal	Zimag	Zsig	Zmod	Zphz	Idc	Vdc	IERange
	#	s	Hz	ohm	ohm	V	ohm	°	A	V	#
	0	2	1000078	1998.959	-1959.068	1	2798.889	-44.42257	1.432613E-006	0.1341714	8
	1	2	794390.6	2310.837	-2156.048	1	3160.46	-43.01534	-5.026902E-006	0.1357483	8
	2	2	630984.4	2672.658	-2315.749	1	3536.353	-40.90759	1.125179E-005	0.1335809	8
	3	2	501234.4	3099.304	-2436.596	1	3942.421	-38.17356	-2.16644E-006	0.1352388	8
	4	3	398109.4	3539.327	-2561.737	1	4369.134	-35.89672	-4.031323E-007	0.1351562	8
	5	3	316265.6	4024.149	-2581.167	1	4780.815	-32.6769	7.53595E-006	0.1335867	8
	6	3	251203.1	4503.438	-2544.39	1	5172.511	-29.46595	1.937193E-006	0.1348663	8
	7	4	199546.9	4981.156	-2545.57	1	5593.911	-27.06885	-3.977246E-007	0.1341613	8
	8	4	158578.1	5434.84	-2397.786	1	5940.275	-23.8065	2.928529E-006	0.1338041	8
	9	4	125953.1	5892.291	-2188.285	1	6285.514	-20.37404	-5.708134E-007	0.1316223	7
	10	5	100078.1	6170.408	-2018.92	1	6492.301	-18.11778	-8.446893E-007	0.1366443	7
	11	5	79453.13	6512.75	-1874.966	1	6777.272	-16.06066	1.073279E-007	0.1357586	7
	12	6	63140.62	6721.3	-1680.15	1	6928.115	-14.03484	-1.228585E-006	0.1367528	7
	13	6	50203.12	6904.896	-1479.822	1	7061.689	-12.09635	-1.455673E-006	0.135177	7
	14	7	39890.62	7080.814	-1365.57	1	7211.291	-10.91576	-1.671246E-006	0.1359395	7
	15	7	31640.63	7329.966	-1275.474	1	7440.11	-9.8711	1.317754E-006	0.1321154	7
	16	7	25171.88	7477.077	-1162.282	1	7566.874	-8.835687	1.502266E-006	0.1328485	7
	17	8	20015.62	7427.85	-1086.399	1	7506.878	-8.321095	-1.458071E-006	0.1351844	7
	18	8	15890.62	7599.457	-1083.127	1	7676.256	-8.111556	1.259601E-007	0.1326044	7
	19	9	12609.37	7701.001	-1046.511	1	7771.783	-7.738686	-8.482523E-007	0.1366147	7
	20	9	10078.13	7828.365	-1101.677	1	7905.504	-8.010564	1.039286E-006	0.1320123	7
	21	10	8015.625	7938.985	-1138.734	1	8020.237	-8.162582	1.48451E-006	0.1324005	7
	22	10	6328.125	7993.942	-1217.511	1	8086.126	-8.659842	8.553308E-007	0.1347101	7
	23	11	5015.625	8106.44	-1313.01	1	8212.087	-9.200367	1.507991E-006	0.1328535	7
	24	11	3984.375	8110.651	-1522.352	1	8252.286	-10.6306	-3.820028E-007	0.1362783	7
	25	11	3170.956	8218.109	-1700.805	1	8392.262	-11.69275	5.332398E-007	0.1351657	7
	26	12	2527.573	8259.734	-1982.438	1	8494.309	-13.4964	-3.858937E-007	0.1362832	7
	27	12	1976.103	8325.7	-2308.271	1	8639.757	-15.49585	-1.450559E-006	0.1351532	7
	28	12	1577.524	8426.548	-2733.909	1	8858.948	-17.97514	-4.546675E-007	0.1333223	7
	29	13	1265.625	8661.786	-3293.998	1	9266.982	-20.82135	8.394167E-007	0.1347136	7
	30	13	998.264	8751.525	-4006.596	1	9625.07	-24.5991	6.19325E-007	0.1321689	7
	31	14	796.875	8990.033	-4858.945	1	10219.1	-28.39039	1.332281E-006	0.1320852	7
	32	14	627.7902	9243.205	-5937.488	1	10985.93	-32.71517	5.388591E-007	0.1351585	7
	33	14	505.5147	9383.448	-7097.252	1	11765.21	-37.10236	-1.414878E-008	0.1317848	6
	34	15	397.9953	9777.65	-8784.698	1	13144.33	-41.93801	-5.159573E-009	0.1343885	6
	35	15	315.5048	10222.47	-10750.93	1	14835.13	-46.44336	-8.084333E-009	0.1343883	6
	36	15	252.4038	10766.57	-13065.19	1	16929.8	-50.50926	-8.095826E-009	0.1343872	6
	37	16	198.6229	11530.44	-16106.25	1	19808.14	-54.40119	-6.790791E-009	0.1343874	6
	38	16	158.3615	12490.67	-19662.87	1	23294.75	-57.5746	-7.576754E-009	0.1343936	6
	39	16	125.558	13788.67	-24014.66	1	27691.72	-60.13654	-7.785804E-009	0.134395	6
	40	17	100.4464	15392.69	-29082.13	1	32904.48	-62.10847	-8.47511E-009	0.1343936	6
	41	17	79.00281	17865.37	-35398.58	1	39651.37	-63.2203	-6.965389E-009	0.1343903	6
	42	17	63.3446	21646.11	-43882.18	1	48930.56	-63.74389	-5.806909E-009	0.134387	6
	43	18	49.86702	25477.82	-52804.69	1	58629.81	-64.24309	-5.347478E-009	0.1343831	6
	44	18	39.72458	30970.22	-61692.54	1	69029.88	-63.34293	-6.657019E-009	0.1343991	6
	45	18	31.6723	37352.51	-72581.92	1	81629.32	-62.76849	-7.513979E-009	0.1343949	6
	46	19	24.93351	47358.25	-85888.62	1	98079.9	-61.12803	-7.471707E-009	0.1343974	6
	47	19	19.86229	58373.45	-99248.6	1	115142.3	-59.53792	-8.665613E-009	0.134407	5
	48	19	15.83615	74812.29	-113790.4	1	136180.5	-56.67681	-3.455538E-009	0.1344003	5
	49	20	12.40079	91047.99	-128022.1	1	157096.7	-54.57995	-9.13949E-009	0.1343963	5
	50	20	9.93114	104208.1	-143976.2	1	177731.5	-54.10347	-6.23002E-009	0.1343926	5
	51	21	7.944915	121488.3	-160504.9	1	201298.8	-52.87744	-7.216455E-009	0.134404	5
	52	21	6.317385	140796.3	-178008.5	1	226959.6	-51.65767	-6.965411E-009	0.1344087	5
	53	22	5.008013	162126.7	-198685.2	1	256438.8	-50.78563	-6.640807E-009	0.1344139	5
	54	23	3.945707	185657.5	-225068.7	1	291761.3	-50.48104	-6.939529E-009	0.1343967	5
	55	24	3.158693	208771.6	-252235.3	1	327426.7	-50.38592	-6.435565E-009	0.1343884	5
	56	26	2.504006	236927.6	-286703	1	371931.8	-50.43012	-6.209187E-009	0.1343932	5
	57	27	1.998082	268541.2	-325044.8	1	421626	-50.43762	-6.472071E-009	0.1343518	5
	58	29	1.584686	306422.3	-372635	1	482443.2	-50.56912	-6.434882E-009	0.1343523	5
	59	31	1.266892	349081.6	-423435	1	548776	-50.49768	-6.260897E-009	0.1343915	5
	60	33	0.999041	404017.9	-483538.1	1	630110.8	-50.11972	-6.116903E-009	0.1344152	5
