EXPLAIN
TAG	EISPOT
TITLE	LABEL	Potentiostatic EIS	Test &Identifier
DATE	LABEL	10/24/2019	Date
TIME	LABEL	10:47:50	Time
NOTES	NOTES	1	&Notes...
	
PSTAT	PSTAT	REF600-11020	Potentiostat
VDC	POTEN	0.00000E+000	T	DC &Voltage (V)
FREQINIT	QUANT	1.00000E+006	Initial Fre&q. (Hz)
FREQFINAL	QUANT	1.00000E+000	Final Fre&q. (Hz)
PTSPERDEC	QUANT	1.00000E+001	Points/&decade
VAC	QUANT	2.50000E+001	AC &Voltage (mV rms)
AREA	QUANT	1.00000E-002	&Area (cm^2)
CONDIT	TWOPARAM	T	5.00000E+000	0.00000E+000	Conditionin&g	Time(s)	E(V)
DELAY	TWOPARAM	T	5.00000E+000	0.00000E+000	Init. De&lay	Time(s)	Stab.(mV/s)
SPEED	SELECTOR	1	&Optimize for:
ZGUESS	QUANT	1.00000E+005	E&stimated Z (ohms)
OCVCURVE	TABLE	19
	Pt	T	Vf	Vm	Ach	Over
	#	s	V vs. Ref.	V	V	bits
	0	0.258333	5.81200E-003	5.81200E-003	5.11667E-004	...........
	1	0.516667	5.80550E-003	5.47173E-003	5.15533E-004	...........
	2	0.775	5.76601E-003	5.17146E-003	5.15633E-004	...........
	3	1.03333	5.65776E-003	4.99044E-003	5.17533E-004	...........
	4	1.29167	5.47533E-003	4.79534E-003	5.16000E-004	...........
	5	1.55	5.25399E-003	4.66029E-003	5.09700E-004	...........
	6	1.80833	5.03593E-003	4.51660E-003	5.11567E-004	...........
	7	2.06667	4.84325E-003	4.38616E-003	5.10267E-004	...........
	8	2.325	4.67694E-003	4.21279E-003	5.07367E-004	...........
	9	2.58333	4.52651E-003	4.08421E-003	5.05900E-004	...........
	10	2.84167	4.38283E-003	4.02188E-003	5.15633E-004	...........
	11	3.1	4.24799E-003	3.95284E-003	5.13300E-004	...........
	12	3.35833	4.13107E-003	3.87714E-003	5.14900E-004	...........
	13	3.61667	4.03519E-003	3.79935E-003	5.11567E-004	...........
	14	3.875	3.95406E-003	3.72848E-003	5.16200E-004	...........
	15	4.13333	3.87963E-003	3.66833E-003	5.09600E-004	...........
	16	4.39167	3.80864E-003	3.63205E-003	5.10200E-004	...........
	17	4.65	3.74281E-003	3.58038E-003	5.11833E-004	...........
	18	4.90833	3.68445E-003	3.53985E-003	5.18033E-004	...........
EOC	QUANT	0.0036844	Open Circuit (V)
PSTATMODEL	IQUANT	4	Pstat Model
PSTATSECTION	LABEL	REF600-11020	Pstat Section
PSTATSERIALNO	LABEL	11020	Pstat Serial Number
CTRLMODE	IQUANT	1	Control Mode
IESTAB	IQUANT	0	I/E Stability
CASPEED	IQUANT	1	Control Amp Speed
CONVENTION	IQUANT	1	Current Convention
ICHRANGE	IQUANT	2	Ich Range
ICHRANGEMODE	TOGGLE	F	Ich Auto Range
ICHOFFSETENABLE	TOGGLE	T	Ich Offset Enable
ICHOFFSET	QUANT	0	Ich Offset (V)
ICHFILTER	IQUANT	3	Ich Filter
VCHRANGE	IQUANT	2	Vch Range
VCHRANGEMODE	TOGGLE	F	Vch Auto Range
VCHOFFSETENABLE	TOGGLE	T	Vch Offset Enable
VCHOFFSET	QUANT	0	Vch Offset (V)
VCHFILTER	IQUANT	3	Vch Filter
ACHRANGE	IQUANT	2	Ach Range
ACHOFFSETENABLE	TOGGLE	F	Ach Offset Enable
ACHOFFSET	QUANT	0	Ach Offset (V)
ACHFILTER	IQUANT	3	Ach Filter
IERANGELOWERLIMIT	IQUANT	1	I/E Range Lower Limit
IERANGEMODE	TOGGLE	F	I/E AutoRange
IERANGE	IQUANT	4	I/E Range
POSFEEDENABLE	TOGGLE	F	Positive Feedback IR Comp
POSFEEDRESISTANCE	QUANT	0	Positive Feedback Resistance (ohm)
ACHSELECT	IQUANT	0	Ach Select
CABLEID	IQUANT	14	Cable ID
DCCALDATE	LABEL	8/19/2019	DC Calibration Date
ACCALDATE	LABEL	8/19/2019	AC Calibration Date
THERMOSELECT	IQUANT	1	Thermo Select
FRAMEWORKVERSION	QUANT	6.33	Framework Version
INSTRUMENTVERSION	LABEL	3.50	Instrument Version
ZCURVE	TABLE
	Pt	Time	Freq	Zreal	Zimag	Zsig	Zmod	Zphz	Idc	Vdc	IERange
	#	s	Hz	ohm	ohm	V	ohm	°	A	V	#
	0	2	1000078	2437.186	-1942.887	1	3116.839	-38.5613	6.659931E-006	0.0051839	8
	1	3	794390.6	2838.558	-1914.579	1	3423.89	-33.99928	-2.52113E-006	0.0058212	8
	2	4	630984.4	3209.094	-1816.371	1	3687.477	-29.51019	5.033405E-007	0.0056051	8
	3	6	501234.4	3524.54	-1681.437	1	3905.075	-25.50421	-4.228278E-007	0.0054599	8
	4	7	398109.4	3790.691	-1504.723	1	4078.423	-21.6507	-8.523106E-007	0.0056796	8
	5	8	316265.6	4013.753	-1337.537	1	4230.747	-18.43006	1.067946E-006	0.0050673	8
	6	10	251203.1	4169.391	-1173.726	1	4331.449	-15.72246	1.102188E-006	0.0050216	8
	7	11	199546.9	4307.022	-1048.01	1	4432.693	-13.67578	9.463436E-007	0.0050627	8
	8	12	158578.1	4416.281	-945.7886	1	4516.421	-12.08784	-1.657411E-007	0.0054047	8
	9	14	125953.1	4529.081	-803.4304	1	4599.791	-10.05927	-8.440935E-007	0.0072539	7
	10	15	100078.1	4584.844	-744.6384	1	4644.92	-9.22503	-4.362705E-008	0.0054148	7
	11	17	79453.13	4651.502	-708.7229	1	4705.185	-8.663203	-3.175196E-008	0.0053058	7
	12	18	63140.62	4717.761	-689.4392	1	4767.872	-8.314178	-3.650266E-008	0.0052955	7
	13	19	50203.12	4780.441	-686.3848	1	4829.466	-8.170793	-1.309008E-008	0.0052994	7
	14	21	39890.62	4844.605	-698.1252	1	4894.648	-8.20008	-5.28377E-008	0.0053502	7
	15	22	31640.63	4912.36	-726.647	1	4965.813	-8.4143	-4.140176E-008	0.0054028	7
	16	23	25171.88	4984.611	-768.014	1	5043.431	-8.759085	-2.292891E-008	0.0052616	7
	17	25	20015.62	5061.02	-824.6064	1	5127.757	-9.254048	1.054604E-007	0.0051141	7
	18	26	15890.62	5151.114	-900.9412	1	5229.309	-9.92081	-3.276621E-008	0.0052997	7
	19	27	12609.37	5244.971	-989.599	1	5337.512	-10.68472	1.060809E-007	0.0051117	7
	20	29	10078.13	5348.393	-1097.095	1	5459.755	-11.59206	-2.318677E-008	0.0052603	7
	21	30	8015.625	5463.002	-1229.491	1	5599.646	-12.68353	-2.815307E-008	0.0052723	7
	22	32	6328.125	5604.018	-1378.556	1	5771.086	-13.82002	-1.206181E-008	0.0052856	7
	23	33	5015.625	5756.445	-1555.213	1	5962.83	-15.1186	-1.689528E-008	0.005317	7
	24	34	3984.375	5933.58	-1757.857	1	6188.491	-16.50222	-3.923632E-008	0.0053868	7
	25	36	3170.956	6109.466	-1984.942	1	6423.828	-17.99878	-3.782629E-008	0.0052848	7
	26	37	2527.573	6313.316	-2242.098	1	6699.625	-19.55188	3.543168E-008	0.0052131	7
	27	38	1976.103	6557.476	-2570.175	1	7043.173	-21.40249	-2.373921E-010	0.0053462	7
	28	40	1577.524	6825.851	-2960.516	1	7440.221	-23.4474	1.287219E-008	0.0051865	7
	29	41	1265.625	7047.824	-3312.183	1	7787.322	-25.17156	1.470416E-008	0.0051913	7
	30	42	998.264	7330.483	-3812.702	1	8262.728	-27.47966	-3.824854E-008	0.0053245	7
	31	44	796.875	7612.561	-4396.295	1	8790.819	-30.00667	-1.264002E-008	0.0052822	7
	32	45	627.7902	7922.78	-5137.488	1	9442.682	-32.96119	6.11336E-009	0.0050515	6
	33	46	505.5147	8212.474	-5970.066	1	10153.15	-36.01532	6.243691E-009	0.0051989	6
	34	48	397.9953	8552.709	-7112.445	1	11123.66	-39.74696	4.17485E-010	0.0052155	6
	35	49	315.5048	8907.179	-8501.377	1	12313.05	-43.66465	3.571624E-010	0.0052158	6
	36	51	252.4038	9286.525	-10158.04	1	13763.19	-47.56631	4.138512E-010	0.0052106	6
	37	52	198.6229	9754.94	-12385.37	1	15765.66	-51.7754	6.630997E-010	0.0052151	6
	38	53	158.3615	10282.61	-15009	1	18193.46	-55.58511	-1.8093E-010	0.0052103	6
	39	55	125.558	10960.2	-18344.43	1	21369.24	-59.14306	3.511966E-010	0.0052129	6
	40	56	100.4464	11755.18	-22282.08	1	25192.77	-62.18558	1.601605E-010	0.0052096	6
	41	57	79.00281	12884.49	-27555.29	1	30418.81	-64.93983	-1.629618E-010	0.0052099	6
	42	59	63.3446	14121.33	-33731.28	1	36567.9	-67.28377	2.785506E-010	0.00521	6
	43	60	49.86702	16065.56	-41024.55	1	44058.1	-68.61427	-6.042977E-010	0.0052115	6
	44	61	39.72458	18758.4	-50152.44	1	53545.73	-69.49281	3.686806E-010	0.0052194	6
	45	63	31.6723	21934.25	-61125.86	1	64942.14	-70.26011	5.229116E-010	0.0052133	6
	46	64	24.93351	26376.01	-74635.11	1	79158.66	-70.53661	1.752365E-010	0.0052106	6
	47	66	19.86229	31904.26	-90187.83	1	95664.7	-70.51859	4.451142E-010	0.0052117	6
	48	67	15.83615	38925.36	-108037	1	114835.4	-70.18607	7.354779E-010	0.0052169	5
	49	68	12.40079	47748.78	-131635.5	1	140028.1	-70.06254	6.43062E-010	0.0052139	5
	50	70	9.93114	58100.77	-156666.5	1	167093	-69.65237	2.335266E-010	0.0052105	5
	51	71	7.944915	71314.28	-186246.8	1	199433.2	-69.04806	3.325286E-010	0.0052155	5
	52	73	6.317385	87677.56	-220507.7	1	237299.4	-68.3164	1.974347E-010	0.0052108	5
	53	75	5.008013	107049.7	-261866.9	1	282902.7	-67.76553	-2.768056E-011	0.0052153	5
	54	78	3.945707	131372	-311667	1	338223.2	-67.14389	-3.529417E-011	0.0052207	5
	55	80	3.158693	158388.8	-366068.8	1	398865.1	-66.60308	1.65118E-010	0.0052276	5
	56	84	2.504006	191479.5	-432509.7	1	473000	-66.12021	-6.972996E-012	0.0052263	5
	57	86	1.998082	229521.8	-507152.9	1	556672.6	-65.64996	1.666645E-010	0.0051804	5
	58	89	1.584686	273631.8	-598712.8	1	658279.1	-65.43801	8.27542E-011	0.0052018	5
	59	93	1.266892	328930.2	-701222.3	1	774537.1	-64.86961	1.074894E-010	0.0051749	5
	60	97	0.999041	396097.5	-827241	1	917180.9	-64.41408	6.204178E-011	0.0052521	5
