EXPLAIN
TAG	EISPOT
TITLE	LABEL	Potentiostatic IDE	Test &Identifier
DATE	LABEL	9/14/2019	Date
TIME	LABEL	12:01:14	Time
NOTES	NOTES	1	&Notes...
	
PSTAT	PSTAT	REF600-11020	Potentiostat
VDC	POTEN	0.00000E+000	T	DC &Voltage (V)
FREQINIT	QUANT	1.00000E+006	Initial Fre&q. (Hz)
FREQFINAL	QUANT	1.00000E+000	Final Fre&q. (Hz)
PTSPERDEC	QUANT	1.00000E+001	Points/&decade
VAC	QUANT	2.50000E+001	AC &Voltage (mV rms)
AREA	QUANT	1.00000E-002	&Area (cm^2)
CONDIT	TWOPARAM	T	5.00000E+000	0.00000E+000	Conditionin&g	Time(s)	E(V)
DELAY	TWOPARAM	T	5.00000E+000	0.00000E+000	Init. De&lay	Time(s)	Stab.(mV/s)
SPEED	SELECTOR	1	&Optimize for:
ZGUESS	QUANT	1.00000E+007	E&stimated Z (ohms)
OCVCURVE	TABLE	19
	Pt	T	Vf	Vm	Ach	Over
	#	s	V vs. Ref.	V	V	bits
	0	0.258333	4.78369E-003	4.78369E-003	5.72032E-004	...........
	1	0.516667	4.78134E-003	4.66073E-003	5.72799E-004	...........
	2	0.775	4.76714E-003	4.55584E-003	5.77032E-004	...........
	3	1.03333	4.72788E-003	4.46447E-003	5.72632E-004	...........
	4	1.29167	4.66000E-003	4.38425E-003	5.71832E-004	...........
	5	1.55	4.57393E-003	4.31449E-003	5.73332E-004	...........
	6	1.80833	4.48426E-003	4.24967E-003	5.70332E-004	...........
	7	2.06667	4.40047E-003	4.19156E-003	5.71066E-004	...........
	8	2.325	4.32553E-003	4.13390E-003	5.70166E-004	...........
	9	2.58333	4.25869E-003	4.08801E-003	5.70032E-004	...........
	10	2.84167	4.19836E-003	4.04054E-003	5.71232E-004	...........
	11	3.1	4.14346E-003	3.99849E-003	5.71432E-004	...........
	12	3.35833	4.09319E-003	3.95982E-003	5.72132E-004	...........
	13	3.61667	4.04688E-003	3.92033E-003	5.73099E-004	...........
	14	3.875	4.00383E-003	3.88436E-003	5.71099E-004	...........
	15	4.13333	3.96334E-003	3.84873E-003	5.70666E-004	...........
	16	4.39167	3.92486E-003	3.81654E-003	5.70199E-004	...........
	17	4.65	3.88819E-003	3.78553E-003	5.75132E-004	...........
	18	4.90833	3.85332E-003	3.75558E-003	5.66632E-004	...........
EOC	QUANT	0.0038533	Open Circuit (V)
PSTATMODEL	IQUANT	4	Pstat Model
PSTATSECTION	LABEL	REF600-11020	Pstat Section
PSTATSERIALNO	LABEL	11020	Pstat Serial Number
CTRLMODE	IQUANT	1	Control Mode
IESTAB	IQUANT	0	I/E Stability
CASPEED	IQUANT	1	Control Amp Speed
CONVENTION	IQUANT	1	Current Convention
ICHRANGE	IQUANT	2	Ich Range
ICHRANGEMODE	TOGGLE	F	Ich Auto Range
ICHOFFSETENABLE	TOGGLE	T	Ich Offset Enable
ICHOFFSET	QUANT	0	Ich Offset (V)
ICHFILTER	IQUANT	3	Ich Filter
VCHRANGE	IQUANT	2	Vch Range
VCHRANGEMODE	TOGGLE	F	Vch Auto Range
VCHOFFSETENABLE	TOGGLE	T	Vch Offset Enable
VCHOFFSET	QUANT	0	Vch Offset (V)
VCHFILTER	IQUANT	3	Vch Filter
ACHRANGE	IQUANT	2	Ach Range
ACHOFFSETENABLE	TOGGLE	F	Ach Offset Enable
ACHOFFSET	QUANT	0	Ach Offset (V)
ACHFILTER	IQUANT	3	Ach Filter
IERANGELOWERLIMIT	IQUANT	1	I/E Range Lower Limit
IERANGEMODE	TOGGLE	F	I/E AutoRange
IERANGE	IQUANT	2	I/E Range
POSFEEDENABLE	TOGGLE	F	Positive Feedback IR Comp
POSFEEDRESISTANCE	QUANT	0	Positive Feedback Resistance (ohm)
ACHSELECT	IQUANT	0	Ach Select
CABLEID	IQUANT	14	Cable ID
DCCALDATE	LABEL	8/19/2019	DC Calibration Date
ACCALDATE	LABEL	8/19/2019	AC Calibration Date
THERMOSELECT	IQUANT	1	Thermo Select
FRAMEWORKVERSION	QUANT	6.33	Framework Version
INSTRUMENTVERSION	LABEL	3.50	Instrument Version
ZCURVE	TABLE
	Pt	Time	Freq	Zreal	Zimag	Zsig	Zmod	Zphz	Idc	Vdc	IERange
	#	s	Hz	ohm	ohm	V	ohm	°	A	V	#
	0	2	1000078	2368.23	-1669.405	1	2897.486	-35.18064	1.80868E-006	0.0052997	8
	1	3	794390.6	2694.877	-1574.621	1	3121.184	-30.29781	1.92261E-006	0.0051638	8
	2	5	630984.4	2991.751	-1457.972	1	3328.101	-25.9814	5.928224E-006	0.0043487	8
	3	6	501234.4	3233.637	-1291.198	1	3481.896	-21.76693	-4.83748E-006	0.0062999	8
	4	8	398109.4	3419.077	-1132.261	1	3601.681	-18.32279	4.768398E-006	0.0045916	8
	5	9	316265.6	3557.112	-957.199	1	3683.65	-15.06121	-4.184408E-006	0.0062126	8
	6	10	251203.1	3646.404	-824.5737	1	3738.474	-12.74218	-9.209905E-007	0.0056814	8
	7	12	199546.9	3732.747	-701.5032	1	3798.092	-10.64357	-5.152604E-008	0.0056289	8
	8	13	158578.1	3786.565	-600.3567	1	3833.863	-9.009206	-8.286451E-007	0.0055336	8
	9	15	125953.1	3850.994	-471.3584	1	3879.733	-6.978245	1.341175E-006	0.0030346	7
	10	16	100078.1	3885.267	-427.4001	1	3908.705	-6.277601	-6.856483E-008	0.0054431	7
	11	17	79453.13	3917	-395.6973	1	3936.936	-5.768478	-5.454629E-009	0.0053729	7
	12	19	63140.62	3946.81	-374.4268	1	3964.531	-5.419329	-9.586449E-009	0.0053718	7
	13	20	50203.12	3976.726	-362.0254	1	3993.171	-5.201643	-6.702243E-008	0.0054321	7
	14	21	39890.62	4000.529	-361.6539	1	4016.843	-5.165584	-4.792762E-008	0.0053734	7
	15	23	31640.63	4034.388	-363.3914	1	4050.721	-5.146942	7.032286E-008	0.0053102	7
	16	24	25171.88	4064.494	-378.1941	1	4082.051	-5.315966	7.592986E-008	0.005203	7
	17	25	20015.62	4095.362	-401.6691	1	4115.012	-5.601598	-3.047058E-008	0.0053336	7
	18	27	15890.62	4126.018	-431.9321	1	4148.564	-5.97624	-1.565136E-008	0.0053907	7
	19	28	12609.37	4160.931	-481.9644	1	4188.751	-6.607178	-4.130798E-008	0.0054645	7
	20	29	10078.13	4194.819	-539.9895	1	4229.432	-7.335216	3.431481E-008	0.005304	7
	21	31	8015.625	4233.27	-615.4894	1	4277.78	-8.272461	-4.133453E-008	0.0054635	7
	22	32	6328.125	4275.512	-713.3795	1	4334.618	-9.472677	-4.043284E-008	0.0053614	7
	23	33	5015.625	4321.169	-834.3718	1	4400.986	-10.92871	-9.320819E-009	0.0053625	7
	24	35	3984.375	4371.472	-982.95	1	4480.621	-12.6725	-4.030005E-008	0.0053628	7
	25	36	3170.956	4427.489	-1164.411	1	4578.046	-14.73488	-1.560449E-008	0.0054803	7
	26	37	2527.573	4490.86	-1385.338	1	4699.679	-17.14392	4.728847E-008	0.0051889	7
	27	39	1976.103	4572.04	-1682.413	1	4871.762	-20.20254	-2.571469E-009	0.0053634	7
	28	40	1577.524	4664.931	-2017.822	1	5082.636	-23.39096	4.74041E-008	0.0051818	7
	29	41	1265.625	4765.436	-2426.465	1	5347.626	-26.98429	8.777991E-008	0.0051485	7
	30	43	998.264	4894.741	-2935.698	1	5707.609	-30.95388	4.461466E-008	0.0051751	7
	31	44	796.875	5045.237	-3539.165	1	6162.8	-35.04914	3.560874E-008	0.0052979	7
	32	45	627.7902	5235.972	-4316.885	1	6786.081	-39.50445	-3.844163E-008	0.0053768	7
	33	47	505.5147	5437.792	-5177.414	1	7508.341	-43.59489	8.646675E-008	0.005142	7
	34	48	397.9953	5705.231	-6332.13	1	8523.235	-47.98124	6.078136E-009	0.0053517	7
	35	49	315.5048	6011.191	-7708.72	1	9775.42	-52.05321	5.613815E-009	0.005345	7
	36	51	252.4038	6360.169	-9321.437	1	11284.54	-55.69364	1.913794E-009	0.0052809	6
	37	52	198.6229	6805.627	-11456.46	1	13325.43	-59.28787	1.292656E-009	0.0052867	6
	38	53	158.3615	7321.871	-13939.26	1	15745.25	-62.28841	1.33735E-009	0.0052846	6
	39	55	125.558	7967.381	-17070.92	1	18838.67	-64.98048	8.865133E-010	0.0052924	6
	40	56	100.4464	8769.503	-20757.99	1	22534.38	-67.09769	1.667509E-009	0.005285	6
	41	57	79.00281	9803.63	-25692.33	1	27499.21	-69.11425	1.903706E-009	0.0052828	6
	42	59	63.3446	11209.14	-30868.5	1	32840.67	-70.04275	1.396506E-009	0.0052832	6
	43	60	49.86702	12975.56	-38607.57	1	40729.71	-71.4231	7.208706E-010	0.0052796	6
	44	61	39.72458	15128.39	-46766.16	1	49152.24	-72.07412	8.195206E-010	0.0052872	6
	45	63	31.6723	18071.11	-57085.59	1	59877.63	-72.43421	4.818355E-010	0.0052854	6
	46	64	24.93351	22145.14	-69860.54	1	73286.44	-72.41187	7.631231E-010	0.0052852	6
	47	65	19.86229	27203.05	-84649.41	1	88913.05	-72.1846	1.291043E-009	0.0052845	6
	48	67	15.83615	33461.7	-101853.7	1	107209.5	-71.81326	5.73794E-010	0.0052921	5
	49	68	12.40079	43089.19	-123994	1	131267.7	-70.83714	1.772916E-010	0.005293	5
	50	70	9.93114	53719.98	-147810.7	1	157270	-70.02695	1.107896E-009	0.0052858	5
	51	71	7.944915	66863.74	-176235.3	1	188493.1	-69.22324	3.455808E-010	0.0053	5
	52	73	6.317385	84712.13	-208680.1	1	225218.9	-67.90568	5.583859E-010	0.0053059	5
	53	75	5.008013	106767.5	-247045.7	1	269129.8	-66.62711	6.362632E-010	0.005304	5
	54	77	3.945707	135142.4	-292421.2	1	322139.1	-65.19599	4.971558E-012	0.0052937	5
	55	80	3.158693	167775.6	-339310.1	1	378523.5	-63.6894	3.595829E-010	0.0052984	5
	56	83	2.504006	208226.2	-393737.9	1	445407.3	-62.12812	1.523409E-010	0.0053003	5
	57	86	1.998082	253556.9	-451249.9	1	517607.6	-60.66841	5.634221E-010	0.0052853	5
	58	89	1.584686	310339	-516795.5	1	602816.6	-59.01491	1.984823E-010	0.0052411	5
	59	93	1.266892	370005.9	-586418.1	1	693390.7	-57.74974	3.921593E-010	0.0053052	5
	60	97	0.999041	444396.8	-669319.8	1	803416.2	-56.41771	-4.37275E-011	0.0052531	5
