EXPLAIN
TAG	EISPOT
TITLE	LABEL	Potentiostatic EIS	Test &Identifier
DATE	LABEL	11/11/2019	Date
TIME	LABEL	13:35:25	Time
NOTES	NOTES	3	&Notes...
	
	
	
PSTAT	PSTAT	REF600-11020	Potentiostat
VDC	POTEN	0.00000E+000	T	DC &Voltage (V)
FREQINIT	QUANT	1.00000E+006	Initial Fre&q. (Hz)
FREQFINAL	QUANT	1.00000E+000	Final Fre&q. (Hz)
PTSPERDEC	QUANT	1.00000E+001	Points/&decade
VAC	QUANT	2.50000E+001	AC &Voltage (mV rms)
AREA	QUANT	1.00000E-002	&Area (cm^2)
CONDIT	TWOPARAM	T	5.00000E+000	0.00000E+000	Conditionin&g	Time(s)	E(V)
DELAY	TWOPARAM	T	5.00000E+000	0.00000E+000	Init. De&lay	Time(s)	Stab.(mV/s)
SPEED	SELECTOR	1	&Optimize for:
ZGUESS	QUANT	1.00000E+005	E&stimated Z (ohms)
OCVCURVE	TABLE	19
	Pt	T	Vf	Vm	Ach	Over
	#	s	V vs. Ref.	V	V	bits
	0	0.258333	5.41405E-003	5.41405E-003	5.33200E-004	...........
	1	0.516667	5.41374E-003	5.39793E-003	5.33366E-004	...........
	2	0.775	5.41218E-003	5.39980E-003	5.35933E-004	...........
	3	1.03333	5.40898E-003	5.40887E-003	5.32066E-004	...........
	4	1.29167	5.40613E-003	5.42505E-003	5.34966E-004	...........
	5	1.55	5.40705E-003	5.44627E-003	5.28366E-004	...........
	6	1.80833	5.41439E-003	5.48244E-003	5.29733E-004	...........
	7	2.06667	5.42938E-003	5.51809E-003	5.28800E-004	...........
	8	2.325	5.45211E-003	5.55007E-003	5.25566E-004	...........
	9	2.58333	5.48113E-003	5.58886E-003	5.37499E-004	...........
	10	2.84167	5.51412E-003	5.62489E-003	5.33766E-004	...........
	11	3.1	5.54925E-003	5.66291E-003	5.31766E-004	...........
	12	3.35833	5.58561E-003	5.70339E-003	5.36899E-004	...........
	13	3.61667	5.62292E-003	5.74258E-003	5.31000E-004	...........
	14	3.875	5.66120E-003	5.78529E-003	5.37499E-004	...........
	15	4.13333	5.70048E-003	5.82534E-003	5.37633E-004	...........
	16	4.39167	5.74060E-003	5.86463E-003	5.29866E-004	...........
	17	4.65	5.78111E-003	5.90476E-003	5.35666E-004	...........
	18	4.90833	5.82159E-003	5.94727E-003	5.42833E-004	...........
EOC	QUANT	0.0058216	Open Circuit (V)
PSTATMODEL	IQUANT	4	Pstat Model
PSTATSECTION	LABEL	REF600-11020	Pstat Section
PSTATSERIALNO	LABEL	11020	Pstat Serial Number
CTRLMODE	IQUANT	1	Control Mode
IESTAB	IQUANT	0	I/E Stability
CASPEED	IQUANT	1	Control Amp Speed
CONVENTION	IQUANT	1	Current Convention
ICHRANGE	IQUANT	2	Ich Range
ICHRANGEMODE	TOGGLE	F	Ich Auto Range
ICHOFFSETENABLE	TOGGLE	T	Ich Offset Enable
ICHOFFSET	QUANT	0	Ich Offset (V)
ICHFILTER	IQUANT	3	Ich Filter
VCHRANGE	IQUANT	2	Vch Range
VCHRANGEMODE	TOGGLE	F	Vch Auto Range
VCHOFFSETENABLE	TOGGLE	T	Vch Offset Enable
VCHOFFSET	QUANT	0	Vch Offset (V)
VCHFILTER	IQUANT	3	Vch Filter
ACHRANGE	IQUANT	2	Ach Range
ACHOFFSETENABLE	TOGGLE	F	Ach Offset Enable
ACHOFFSET	QUANT	0	Ach Offset (V)
ACHFILTER	IQUANT	3	Ach Filter
IERANGELOWERLIMIT	IQUANT	1	I/E Range Lower Limit
IERANGEMODE	TOGGLE	F	I/E AutoRange
IERANGE	IQUANT	5	I/E Range
POSFEEDENABLE	TOGGLE	F	Positive Feedback IR Comp
POSFEEDRESISTANCE	QUANT	0	Positive Feedback Resistance (ohm)
ACHSELECT	IQUANT	0	Ach Select
CABLEID	IQUANT	14	Cable ID
DCCALDATE	LABEL	8/19/2019	DC Calibration Date
ACCALDATE	LABEL	8/19/2019	AC Calibration Date
THERMOSELECT	IQUANT	1	Thermo Select
FRAMEWORKVERSION	QUANT	6.33	Framework Version
INSTRUMENTVERSION	LABEL	3.50	Instrument Version
ZCURVE	TABLE
	Pt	Time	Freq	Zreal	Zimag	Zsig	Zmod	Zphz	Idc	Vdc	IERange
	#	s	Hz	ohm	ohm	V	ohm	°	A	V	#
	0	2	1000078	1948.538	-1162.839	1	2269.139	-30.8277	8.950143E-007	0.0082975	8
	1	3	794390.6	2112.848	-1165.692	1	2413.082	-28.88623	-3.009444E-006	0.0081207	8
	2	4	630984.4	2277.795	-1178.017	1	2564.385	-27.34684	6.371388E-006	0.006403	8
	3	6	501234.4	2435.397	-1203.904	1	2716.716	-26.30483	-1.61781E-006	0.0077709	8
	4	7	398109.4	2587.07	-1238.631	1	2868.299	-25.58405	-1.993968E-006	0.0072566	8
	5	8	316265.6	2757.437	-1289.643	1	3044.115	-25.06532	-2.882985E-006	0.0077804	8
	6	10	251203.1	2930.061	-1345.696	1	3224.307	-24.66801	-5.352496E-007	0.0076559	8
	7	11	199546.9	3119.29	-1407.964	1	3422.328	-24.29314	1.581755E-006	0.007535	8
	8	12	158578.1	3311.557	-1479.615	1	3627.074	-24.07526	-4.592552E-006	0.0079812	8
	9	14	125953.1	3561.472	-1503.512	1	3865.828	-22.88755	-2.23292E-006	0.0092614	7
	10	15	100078.1	3783.646	-1586.991	1	4102.989	-22.75485	8.533483E-007	0.006082	7
	11	16	79453.13	4014.642	-1677.401	1	4350.98	-22.67618	3.662022E-007	0.007635	7
	12	18	63140.62	4256.22	-1760.286	1	4605.867	-22.46899	-8.558956E-007	0.0086078	7
	13	19	50203.12	4508.277	-1849.268	1	4872.817	-22.30314	-6.275222E-007	0.0072401	7
	14	20	39890.62	4770.982	-1945.325	1	5152.335	-22.18274	-6.273503E-007	0.0072314	7
	15	22	31640.63	5054.248	-2055.924	1	5456.395	-22.13509	8.861043E-007	0.0062944	7
	16	23	25171.88	5337.406	-2163.875	1	5759.363	-22.06847	3.689823E-007	0.0076179	7
	17	24	20015.62	5631.732	-2281.397	1	6076.28	-22.05272	-1.796284E-007	0.0083117	7
	18	26	15890.62	5947.244	-2423.344	1	6422.017	-22.1696	5.751104E-007	0.0058672	7
	19	27	12609.37	6286.1	-2576.913	1	6793.787	-22.2906	8.548564E-007	0.0060536	7
	20	29	10078.13	6636.519	-2745.054	1	7181.832	-22.47139	5.430722E-007	0.0073448	7
	21	30	8015.625	7017.286	-2929.143	1	7604.089	-22.65655	3.274251E-007	0.0059847	7
	22	31	6328.125	7438.711	-3112.848	1	8063.761	-22.70765	-9.750411E-007	0.0084742	7
	23	33	5015.625	7906.857	-3318.802	1	8575.129	-22.7696	5.434563E-007	0.0073387	7
	24	34	3984.375	8346.77	-3491.458	1	9047.588	-22.69958	-3.060308E-007	0.0066707	7
	25	36	3170.956	8854.336	-3714.474	1	9601.91	-22.75849	5.425098E-007	0.007341	7
	26	38	2527.573	9336.981	-3924.714	1	10128.31	-22.799	5.435722E-007	0.0073424	7
	27	39	1976.103	9851.04	-4150.867	1	10689.84	-22.84876	1.112179E-007	0.0051776	6
	28	41	1577.524	10338.2	-4509.246	1	11278.81	-23.56555	-1.147073E-007	0.0094535	6
	29	42	1265.625	10780.51	-4815.156	1	11807	-24.06811	-7.457044E-008	0.0092525	6
	30	44	998.264	11269.83	-5286.479	1	12448.13	-25.13045	-1.463736E-007	0.0084736	6
	31	45	796.875	11798.66	-5863.006	1	13175.1	-26.42376	-3.119377E-008	0.0089078	6
	32	47	627.7902	12385.71	-6600.255	1	14034.57	-28.05283	9.424291E-008	0.0071638	6
	33	48	505.5147	12933.67	-7395.333	1	14898.69	-29.76045	-1.549709E-007	0.0090724	6
	34	49	397.9953	13642.5	-8470.84	1	16058.42	-31.83679	1.16129E-009	0.0072256	6
	35	51	315.5048	14382.36	-9739.54	1	17369.83	-34.10532	1.621262E-009	0.0072312	6
	36	52	252.4038	15172.18	-11212.11	1	18865.48	-36.46408	1.741747E-009	0.0072189	6
	37	53	198.6229	16161.03	-13143.66	1	20831.1	-39.12123	9.265949E-010	0.007218	6
	38	55	158.3615	17254.55	-15354.28	1	23097.04	-41.66488	9.306922E-010	0.0072181	6
	39	56	125.558	18609.01	-18076.47	1	25943.28	-44.16833	3.702761E-010	0.0072208	6
	40	58	100.4464	20219.73	-21189.93	1	29289.09	-46.34215	5.290555E-010	0.0072239	6
	41	59	79.00281	22391.9	-25152.55	1	33675.63	-48.32312	2.075233E-010	0.0072232	6
	42	61	63.3446	24704.15	-29271.3	1	38302.79	-49.83659	7.68454E-010	0.0072171	6
	43	62	49.86702	28175.42	-34445.68	1	44501.23	-50.71798	2.844913E-010	0.007219	6
	44	64	39.72458	31999	-39915.12	1	51158.11	-51.28168	3.729785E-010	0.0072295	6
	45	65	31.6723	36585.43	-45996.98	1	58772.57	-51.50169	1.331499E-009	0.0072186	6
	46	67	24.93351	41913.51	-52936.03	1	67520.11	-51.62864	1.332193E-010	0.0072171	6
	47	68	19.86229	47531.09	-60260.86	1	76750.09	-51.7352	2.660687E-010	0.0072238	6
	48	69	15.83615	53432.15	-68517.26	1	86888.48	-52.05165	7.34839E-010	0.0072197	6
	49	71	12.40079	60611.99	-78979.15	1	99556.6	-52.49582	5.426009E-010	0.0072222	6
	50	72	9.93114	67042.36	-90370.38	1	112523.3	-53.42968	1.194798E-010	0.0072252	5
	51	74	7.944915	74339.83	-103865.6	1	127728.1	-54.40754	-1.495491E-010	0.0072257	5
	52	76	6.317385	82283.92	-120937.8	1	146275.7	-55.76932	5.577992E-010	0.0072167	5
	53	78	5.008013	91614.34	-142139.3	1	169105.8	-57.19664	1.372351E-010	0.0072296	5
	54	80	3.945707	102767.4	-168693	1	197530.9	-58.65032	-2.177262E-010	0.0072179	5
	55	82	3.158693	115338.9	-198623.3	1	229683	-59.85662	8.584899E-011	0.0072252	5
	56	86	2.504006	130902.7	-236076	1	269939.6	-60.9919	-1.185001E-010	0.0072379	5
	57	89	1.998082	148931.4	-278826.4	1	316108.8	-61.8917	2.138627E-010	0.0071977	5
	58	92	1.584686	172068.4	-332654.3	1	374521.6	-62.64933	-1.096612E-010	0.0071948	5
	59	95	1.266892	199583.2	-392074.7	1	439950	-63.0219	1.267827E-010	0.0071954	5
	60	100	0.999041	234116.5	-467415.8	1	522769.6	-63.39489	-1.607305E-010	0.0072513	5
