EXPLAIN
TAG	EISPOT
TITLE	LABEL	Potentiostatic EIS	Test &Identifier
DATE	LABEL	8/16/2017	Date
TIME	LABEL	16:30:28	Time
NOTES	NOTES	1	&Notes...
	
PSTAT	PSTAT	REF600-11020	Potentiostat
VDC	POTEN	0.00000E+000	T	DC &Voltage (V)
FREQINIT	QUANT	1.00000E+006	Initial Fre&q. (Hz)
FREQFINAL	QUANT	1.00000E+000	Final Fre&q. (Hz)
PTSPERDEC	QUANT	1.00000E+001	Points/&decade
VAC	QUANT	2.50000E+001	AC &Voltage (mV rms)
AREA	QUANT	1.00000E-002	&Area (cm^2)
CONDIT	TWOPARAM	T	5.00000E+000	0.00000E+000	Conditionin&g	Time(s)	E(V)
DELAY	TWOPARAM	T	5.00000E+000	0.00000E+000	Init. De&lay	Time(s)	Stab.(mV/s)
SPEED	SELECTOR	0	&Optimize for:
ZGUESS	QUANT	1.00000E+005	E&stimated Z (ohms)
OCVCURVE	TABLE	19
	Pt	T	Vf	Vm	Ach	Over
	#	s	V vs. Ref.	V	V	bits
	0	0.258333	6.17646E-003	6.17646E-003	5.45699E-004	...........
	1	0.516667	6.17769E-003	6.24124E-003	5.49199E-004	...........
	2	0.775	6.18564E-003	6.32071E-003	5.48999E-004	...........
	3	1.03333	6.20971E-003	6.42061E-003	5.50633E-004	...........
	4	1.29167	6.25690E-003	6.51276E-003	5.45699E-004	...........
	5	1.55	6.32590E-003	6.57914E-003	5.42766E-004	...........
	6	1.80833	6.40833E-003	6.68988E-003	5.48833E-004	...........
	7	2.06667	6.49577E-003	6.76104E-003	5.44066E-004	...........
	8	2.325	6.58408E-003	6.85244E-003	5.46666E-004	...........
	9	2.58333	6.67196E-003	6.94384E-003	5.47233E-004	...........
	10	2.84167	6.75949E-003	7.03414E-003	5.43766E-004	...........
	11	3.1	6.84749E-003	7.11815E-003	5.49533E-004	...........
	12	3.35833	6.93592E-003	7.19840E-003	5.49333E-004	...........
	13	3.61667	7.02333E-003	7.27602E-003	5.47733E-004	...........
	14	3.875	7.10807E-003	7.34560E-003	5.52966E-004	...........
	15	4.13333	7.18853E-003	7.38889E-003	5.46299E-004	...........
	16	4.39167	7.26357E-003	7.50282E-003	5.53399E-004	...........
	17	4.65	7.33536E-003	7.57160E-003	5.48699E-004	...........
	18	4.90833	7.40870E-003	7.64471E-003	5.51599E-004	...........
EOC	QUANT	0.0074087	Open Circuit (V)
PSTATMODEL	IQUANT	4	Pstat Model
PSTATSECTION	LABEL	REF600-11020	Pstat Section
PSTATSERIALNO	LABEL	11020	Pstat Serial Number
CTRLMODE	IQUANT	1	Control Mode
IESTAB	IQUANT	0	I/E Stability
CASPEED	IQUANT	1	Control Amp Speed
CONVENTION	IQUANT	1	Current Convention
ICHRANGE	IQUANT	2	Ich Range
ICHRANGEMODE	TOGGLE	F	Ich Auto Range
ICHOFFSETENABLE	TOGGLE	T	Ich Offset Enable
ICHOFFSET	QUANT	0	Ich Offset (V)
ICHFILTER	IQUANT	3	Ich Filter
VCHRANGE	IQUANT	2	Vch Range
VCHRANGEMODE	TOGGLE	F	Vch Auto Range
VCHOFFSETENABLE	TOGGLE	T	Vch Offset Enable
VCHOFFSET	QUANT	0	Vch Offset (V)
VCHFILTER	IQUANT	3	Vch Filter
ACHRANGE	IQUANT	2	Ach Range
ACHOFFSETENABLE	TOGGLE	F	Ach Offset Enable
ACHOFFSET	QUANT	0	Ach Offset (V)
ACHFILTER	IQUANT	3	Ach Filter
IERANGELOWERLIMIT	IQUANT	1	I/E Range Lower Limit
IERANGEMODE	TOGGLE	F	I/E AutoRange
IERANGE	IQUANT	5	I/E Range
POSFEEDENABLE	TOGGLE	F	Positive Feedback IR Comp
POSFEEDRESISTANCE	QUANT	0	Positive Feedback Resistance (ohm)
ACHSELECT	IQUANT	0	Ach Select
CABLEID	IQUANT	14	Cable ID
DCCALDATE	LABEL	8/19/2019	DC Calibration Date
ACCALDATE	LABEL	8/19/2019	AC Calibration Date
THERMOSELECT	IQUANT	1	Thermo Select
FRAMEWORKVERSION	QUANT	6.33	Framework Version
INSTRUMENTVERSION	LABEL	3.50	Instrument Version
ZCURVE	TABLE
	Pt	Time	Freq	Zreal	Zimag	Zsig	Zmod	Zphz	Idc	Vdc	IERange
	#	s	Hz	ohm	ohm	V	ohm	°	A	V	#
	0	1	1000078	2023.809	-1214.502	1	2360.258	-30.96826	1.343099E-006	0.0095835	8
	1	1	794390.6	2258.934	-1154.145	1	2536.698	-27.0636	-9.985812E-007	0.0099768	8
	2	2	630984.4	2463.511	-1059.843	1	2681.82	-23.27817	7.303909E-006	0.0083791	8
	3	2	501234.4	2636.566	-963.293	1	2807.029	-20.07023	1.146921E-006	0.0094544	8
	4	2	398109.4	2784.22	-850.1798	1	2911.132	-16.98039	-6.329888E-006	0.0099884	8
	5	2	316265.6	2894.671	-737.9153	1	2987.246	-14.30136	-4.481367E-006	0.0094611	8
	6	3	251203.1	2982.106	-638.2673	1	3049.646	-12.08088	9.819031E-007	0.0094366	8
	7	3	199546.9	3045.034	-547.8678	1	3093.928	-10.19963	7.023162E-006	0.008292	8
	8	3	158578.1	3100.402	-455.3618	1	3133.664	-8.355399	-4.913122E-007	0.0095289	8
	9	4	125953.1	3160.863	-357.5512	1	3181.022	-6.453763	1.223395E-006	0.0104306	7
	10	4	100078.1	3184.453	-308.9183	1	3199.402	-5.540828	9.913145E-008	0.007713	7
	11	4	79453.13	3203.992	-273.9166	1	3215.679	-4.886466	8.2481E-007	0.0087816	7
	12	5	63140.62	3223.866	-251.1543	1	3233.634	-4.454614	8.22291E-007	0.008788	7
	13	5	50203.12	3241.168	-231.9814	1	3249.459	-4.093872	8.249492E-007	0.0087827	7
	14	5	39890.62	3258.858	-221.3621	1	3266.368	-3.885921	1.078988E-006	0.0078926	7
	15	6	31640.63	3266.901	-217.8867	1	3274.159	-3.815704	-8.730776E-007	0.0106788	7
	16	6	25171.88	3280.953	-220.4018	1	3288.347	-3.843136	-1.074628E-006	0.0106275	7
	17	6	20015.62	3297.252	-233.0397	1	3305.477	-4.042768	4.609714E-007	0.007405	7
	18	7	15890.62	3307.614	-250.1349	1	3317.059	-4.324702	-7.316489E-007	0.0088945	7
	19	7	12609.37	3322.475	-278.8487	1	3334.156	-4.797477	-3.188005E-007	0.0082126	7
	20	7	10078.13	3338.063	-316.5137	1	3353.035	-5.416566	9.665455E-008	0.0076989	7
	21	8	8015.625	3355.313	-365.1819	1	3375.128	-6.211446	1.062106E-006	0.0075792	7
	22	8	6328.125	3366.325	-430.4528	1	3393.734	-7.286882	-7.299206E-007	0.008898	7
	23	8	5015.625	3382.657	-513.7643	1	3421.45	-8.636188	-1.207309E-006	0.0104635	7
	24	9	3984.375	3403.236	-618.0566	1	3458.903	-10.29322	-1.206506E-006	0.0101126	7
	25	9	3170.956	3432.38	-750.0563	1	3513.377	-12.32671	8.245913E-007	0.0087783	7
	26	9	2527.573	3462.562	-910.7561	1	3580.337	-14.73669	9.514335E-007	0.0073662	7
	27	9	1976.103	3498.308	-1127.768	1	3675.598	-17.86803	7.500233E-007	0.0072919	7
	28	10	1577.524	3535.729	-1367.566	1	3790.992	-21.14571	-8.73323E-007	0.0106715	7
	29	10	1265.625	3587.194	-1664.202	1	3954.432	-24.88794	-1.207875E-006	0.0101083	7
	30	10	998.264	3658.483	-2063.187	1	4200.147	-29.42065	1.002524E-007	0.0076923	7
	31	11	796.875	3741.464	-2525.02	1	4513.788	-34.01442	9.847668E-008	0.0076904	7
	32	11	627.7902	3854.129	-3121.902	1	4959.897	-39.00798	-6.00402E-007	0.0105836	7
	33	11	505.5147	3986.997	-3785.766	1	5498.016	-43.51699	-1.213388E-006	0.0104655	7
	34	12	397.9953	4174.709	-4700.688	1	6286.864	-48.39152	5.587036E-009	0.009036	7
	35	12	315.5048	4414.685	-5778.319	1	7271.754	-52.61987	-2.883681E-010	0.0090414	7
	36	12	252.4038	4715.866	-7038.3	1	8472.134	-56.17676	1.295428E-009	0.0090375	7
	37	13	198.6229	5138.01	-8684.109	1	10090.24	-59.38904	3.447465E-009	0.0090376	7
	38	13	158.3615	5661.896	-10573.16	1	11993.7	-61.83108	-5.211875E-010	0.0089782	6
	39	13	125.558	6362.877	-12909.11	1	14392.05	-63.76139	1.100368E-010	0.0089776	6
	40	14	100.4464	7221.793	-15607.06	1	17196.94	-65.16879	7.991041E-010	0.0089811	6
	41	14	79.00281	8424.997	-19045.8	1	20826.02	-66.13757	1.155472E-009	0.0089722	6
	42	14	63.3446	10078.64	-22882.07	1	25003.36	-66.22843	-9.569056E-010	0.0089737	6
	43	15	49.86702	12074.47	-27765.9	1	30277.68	-66.49738	-1.773194E-009	0.0089726	6
	44	15	39.72458	14410.34	-33069.14	1	36072.51	-66.45416	-4.615036E-010	0.0089807	6
	45	15	31.6723	17403.72	-39298.73	1	42980	-66.1135	-2.512922E-010	0.0089722	6
	46	16	24.93351	21641.67	-46952.69	1	51700.26	-65.25385	-7.631442E-010	0.0089718	6
	47	16	19.86229	26505.24	-55129.69	1	61170.34	-64.32269	-9.351959E-010	0.0089763	6
	48	16	15.83615	31915.92	-63905.99	1	71432.49	-63.46155	-1.187439E-009	0.0089726	6
	49	17	12.40079	39382.4	-75076.73	1	84779.06	-62.3202	-1.965193E-009	0.0089676	6
	50	17	9.93114	47176.25	-86979.64	1	98949.8	-61.52536	3.050757E-010	0.0089755	6
	51	17	7.944915	55535.88	-99638.8	1	114070.7	-60.86593	1.107157E-009	0.0089707	5
	52	18	6.317385	65438.43	-114592.5	1	131960.8	-60.27134	6.744299E-010	0.0089605	5
	53	19	5.008013	76346.48	-132575.1	1	152986.7	-60.0635	1.673761E-010	0.0089726	5
	54	20	3.945707	88321.47	-154131.2	1	177643.2	-60.18608	-1.206875E-010	0.0089763	5
	55	21	3.158693	100563.8	-178548.9	1	204921.4	-60.61055	-4.020244E-010	0.0089611	5
	56	23	2.504006	115062.3	-208674.9	1	238295.1	-61.12789	-1.099698E-010	0.0089645	5
	57	24	1.998082	130353.6	-244255	1	276862	-61.91213	-8.33555E-011	0.0089939	5
	58	26	1.584686	149280.5	-287327.3	1	323792.6	-62.54593	-2.79696E-010	0.0089452	5
	59	28	1.266892	170788.6	-338790.8	1	379404.8	-63.24677	-2.830802E-010	0.0089304	5
	60	30	0.999041	196653.2	-404371.2	1	449653.8	-64.06549	-2.924211E-010	0.0089343	5
