EXPLAIN
TAG	EISPOT
TITLE	LABEL	Potentiostatic EIS	Test &Identifier
DATE	LABEL	8/14/2018	Date
TIME	LABEL	5:08:12	Time
NOTES	NOTES	1	&Notes...
	
PSTAT	PSTAT	REF600-11020	Potentiostat
VDC	POTEN	0.00000E+000	T	DC &Voltage (V)
FREQINIT	QUANT	1.00000E+006	Initial Fre&q. (Hz)
FREQFINAL	QUANT	1.00000E+000	Final Fre&q. (Hz)
PTSPERDEC	QUANT	1.00000E+001	Points/&decade
VAC	QUANT	2.50000E+001	AC &Voltage (mV rms)
AREA	QUANT	1.00000E-002	&Area (cm^2)
CONDIT	TWOPARAM	T	5.00000E+000	0.00000E+000	Conditionin&g	Time(s)	E(V)
DELAY	TWOPARAM	T	5.00000E+000	0.00000E+000	Init. De&lay	Time(s)	Stab.(mV/s)
SPEED	SELECTOR	0	&Optimize for:
ZGUESS	QUANT	1.00000E+005	E&stimated Z (ohms)
OCVCURVE	TABLE	19
	Pt	T	Vf	Vm	Ach	Over
	#	s	V vs. Ref.	V	V	bits
	0	0.258333	6.38598E-003	6.38598E-003	5.37766E-004	...........
	1	0.516667	6.38735E-003	6.45776E-003	5.28633E-004	...........
	2	0.775	6.39591E-003	6.53308E-003	5.29800E-004	...........
	3	1.03333	6.42074E-003	6.61317E-003	5.34833E-004	...........
	4	1.29167	6.46691E-003	6.70113E-003	5.31966E-004	...........
	5	1.55	6.53202E-003	6.79281E-003	5.28966E-004	...........
	6	1.80833	6.61006E-003	6.88259E-003	5.37699E-004	...........
	7	2.06667	6.69558E-003	6.97381E-003	5.37633E-004	...........
	8	2.325	6.78478E-003	7.06439E-003	5.30833E-004	...........
	9	2.58333	6.87538E-003	7.15437E-003	5.33833E-004	...........
	10	2.84167	6.96622E-003	7.24326E-003	5.34766E-004	...........
	11	3.1	7.05676E-003	7.33301E-003	5.38233E-004	...........
	12	3.35833	7.14678E-003	7.41940E-003	5.39566E-004	...........
	13	3.61667	7.23614E-003	7.50667E-003	5.37066E-004	...........
	14	3.875	7.32459E-003	7.58668E-003	5.42366E-004	...........
	15	4.13333	7.41167E-003	7.67034E-003	5.39199E-004	...........
	16	4.39167	7.49701E-003	7.75134E-003	5.33966E-004	...........
	17	4.65	7.58069E-003	7.83190E-003	5.32966E-004	...........
	18	4.90833	7.66308E-003	7.91131E-003	5.40999E-004	...........
EOC	QUANT	0.0076631	Open Circuit (V)
PSTATMODEL	IQUANT	4	Pstat Model
PSTATSECTION	LABEL	REF600-11020	Pstat Section
PSTATSERIALNO	LABEL	11020	Pstat Serial Number
CTRLMODE	IQUANT	1	Control Mode
IESTAB	IQUANT	0	I/E Stability
CASPEED	IQUANT	1	Control Amp Speed
CONVENTION	IQUANT	1	Current Convention
ICHRANGE	IQUANT	2	Ich Range
ICHRANGEMODE	TOGGLE	F	Ich Auto Range
ICHOFFSETENABLE	TOGGLE	T	Ich Offset Enable
ICHOFFSET	QUANT	0	Ich Offset (V)
ICHFILTER	IQUANT	3	Ich Filter
VCHRANGE	IQUANT	2	Vch Range
VCHRANGEMODE	TOGGLE	F	Vch Auto Range
VCHOFFSETENABLE	TOGGLE	T	Vch Offset Enable
VCHOFFSET	QUANT	0	Vch Offset (V)
VCHFILTER	IQUANT	3	Vch Filter
ACHRANGE	IQUANT	2	Ach Range
ACHOFFSETENABLE	TOGGLE	F	Ach Offset Enable
ACHOFFSET	QUANT	0	Ach Offset (V)
ACHFILTER	IQUANT	3	Ach Filter
IERANGELOWERLIMIT	IQUANT	1	I/E Range Lower Limit
IERANGEMODE	TOGGLE	F	I/E AutoRange
IERANGE	IQUANT	5	I/E Range
POSFEEDENABLE	TOGGLE	F	Positive Feedback IR Comp
POSFEEDRESISTANCE	QUANT	0	Positive Feedback Resistance (ohm)
ACHSELECT	IQUANT	0	Ach Select
CABLEID	IQUANT	14	Cable ID
DCCALDATE	LABEL	8/19/2019	DC Calibration Date
ACCALDATE	LABEL	8/19/2019	AC Calibration Date
THERMOSELECT	IQUANT	1	Thermo Select
FRAMEWORKVERSION	QUANT	6.33	Framework Version
INSTRUMENTVERSION	LABEL	3.50	Instrument Version
ZCURVE	TABLE
	Pt	Time	Freq	Zreal	Zimag	Zsig	Zmod	Zphz	Idc	Vdc	IERange
	#	s	Hz	ohm	ohm	V	ohm	°	A	V	#
	0	1	1000078	2142.196	-1305.195	1	2508.493	-31.35308	8.318721E-006	0.0088844	8
	1	1	794390.6	2391.683	-1244.692	1	2696.184	-27.4936	-4.514952E-006	0.0099627	8
	2	1	630984.4	2613.507	-1141.057	1	2851.742	-23.58607	4.665663E-007	0.0096231	8
	3	2	501234.4	2803.594	-1022.046	1	2984.077	-20.02926	1.99696E-007	0.0093705	8
	4	2	398109.4	2947.51	-888.212	1	3078.431	-16.76982	-1.984213E-006	0.009605	8
	5	2	316265.6	3068.572	-767.6288	1	3163.129	-14.04478	3.921145E-006	0.0086188	8
	6	3	251203.1	3161.694	-663.7568	1	3230.616	-11.85633	4.397374E-006	0.0085376	8
	7	3	199546.9	3219.985	-559.0626	1	3268.157	-9.84966	3.623485E-006	0.0086254	8
	8	3	158578.1	3281.931	-423.2726	1	3309.114	-7.348903	-1.916872E-006	0.0095574	8
	9	4	125953.1	3332.168	-349.9254	1	3350.491	-5.994905	1.177683E-006	0.0072521	7
	10	4	100078.1	3343.996	-306.8831	1	3358.048	-5.243425	-3.231303E-008	0.0092972	7
	11	4	79453.13	3370.47	-274.652	1	3381.642	-4.658611	-1.437309E-008	0.0093317	7
	12	4	63140.62	3390.081	-250.7093	1	3399.339	-4.22954	3.892323E-008	0.0091414	7
	13	5	50203.12	3406.022	-232.6612	1	3413.96	-3.907733	6.822259E-008	0.0092552	7
	14	5	39890.62	3421.26	-222.5044	1	3428.488	-3.721036	-4.197681E-008	0.0092911	7
	15	5	31640.63	3435.435	-221.5718	1	3442.573	-3.690238	-4.444278E-008	0.0092935	7
	16	6	25171.88	3448.631	-226.0141	1	3456.029	-3.749651	-2.19616E-008	0.0093199	7
	17	6	20015.62	3460.572	-237.6641	1	3468.723	-3.928773	-4.783385E-008	0.0093319	7
	18	6	15890.62	3474.352	-261.3922	1	3484.171	-4.302532	1.203859E-007	0.0090966	7
	19	7	12609.37	3486.272	-292.8429	1	3498.55	-4.801509	-4.357388E-008	0.0092926	7
	20	7	10078.13	3509.043	-333.1631	1	3524.824	-5.423641	-9.644276E-009	0.0093116	7
	21	7	8015.625	3512.568	-390.5494	1	3534.213	-6.344447	9.431712E-009	0.0092014	7
	22	8	6328.125	3531.365	-465.283	1	3561.885	-7.5059	-6.175763E-008	0.009356	7
	23	8	5015.625	3550.208	-558.2612	1	3593.832	-8.93644	-7.986255E-009	0.0093805	7
	24	8	3984.375	3565.747	-670.3842	1	3628.219	-10.64769	1.245092E-008	0.0091988	7
	25	9	3170.956	3599.688	-816.8102	1	3691.197	-12.78458	-2.779303E-009	0.009202	7
	26	9	2527.573	3631.658	-993.708	1	3765.156	-15.30291	-7.390883E-009	0.009385	7
	27	9	1976.103	3674.105	-1232.126	1	3875.201	-18.53908	-8.072186E-009	0.0093077	7
	28	10	1577.524	3739.823	-1492.611	1	4026.682	-21.75756	-4.296602E-008	0.0092879	7
	29	10	1265.625	3781.584	-1828.907	1	4200.628	-25.81005	-5.122497E-008	0.0093622	7
	30	10	998.264	3864.967	-2258.987	1	4476.716	-30.30533	-3.880817E-008	0.0092908	7
	31	10	796.875	3963.25	-2762.782	1	4831.182	-34.88036	-1.002404E-008	0.0093807	7
	32	11	627.7902	4099.882	-3413.489	1	5334.879	-39.78016	-7.45318E-009	0.0093074	7
	33	11	505.5147	4263.302	-4138.606	1	5941.701	-44.14972	-4.126893E-008	0.0092852	7
	34	11	397.9953	4492.769	-5117.851	1	6810.093	-48.72132	1.107663E-009	0.0092857	7
	35	12	315.5048	4790.999	-6277.411	1	7896.807	-52.64867	2.804719E-009	0.0092851	7
	36	12	252.4038	5166.153	-7626.045	1	9211.173	-55.8849	1.414579E-009	0.0092827	7
	37	12	198.6229	5702.495	-9372.03	1	10970.57	-58.68121	3.536302E-010	0.0092226	6
	38	13	158.3615	6366.052	-11357.77	1	13020.2	-60.72928	7.990964E-010	0.0092166	6
	39	13	125.558	7261.938	-13785.33	1	15581.11	-62.2203	1.84697E-010	0.0092178	6
	40	13	100.4464	8355.528	-16525.77	1	18517.99	-63.17857	-3.697981E-010	0.0092173	6
	41	14	79.00281	9910.14	-19951.04	1	22276.78	-63.58535	-8.492189E-010	0.009216	6
	42	14	63.3446	11862.21	-23834.6	1	26623.3	-63.54099	5.920403E-010	0.0092165	6
	43	14	49.86702	14206.52	-28394.84	1	31750.46	-63.42026	7.001653E-010	0.0092178	6
	44	15	39.72458	16970.09	-33186.66	1	37273.84	-62.91694	8.365122E-010	0.0092238	6
	45	15	31.6723	20341.67	-38677.59	1	43700.56	-62.25882	9.696176E-010	0.0092204	6
	46	15	24.93351	24236.3	-45392.62	1	51457.64	-61.90108	-9.472283E-010	0.0092233	6
	47	16	19.86229	28456.05	-52755.58	1	59940.79	-61.65784	-2.113471E-009	0.0092154	6
	48	16	15.83615	33808.14	-61314.46	1	70017.52	-61.12812	2.691807E-009	0.0092193	6
	49	16	12.40079	39101.59	-71910.64	1	81853.98	-61.46475	-4.260479E-011	0.0092226	6
	50	17	9.93114	44901.66	-83296.2	1	94627.77	-61.67266	-1.048728E-009	0.0092228	6
	51	17	7.944915	51495.58	-97245.7	1	110038.8	-62.09695	2.333909E-010	0.0092181	5
	52	18	6.317385	59321.66	-114032.7	1	128539.9	-62.51581	9.111541E-011	0.0092198	5
	53	19	5.008013	68820.11	-134767.7	1	151322.7	-62.94855	-1.447979E-010	0.0092176	5
	54	20	3.945707	80018.05	-160330.7	1	179189.3	-63.47707	1.259514E-010	0.0092272	5
	55	21	3.158693	93060.68	-188567.7	1	210280.9	-63.73304	-4.037343E-010	0.0092275	5
	56	23	2.504006	108840.7	-223372.8	1	248478.8	-64.02187	-3.211502E-010	0.0092153	5
	57	24	1.998082	127448.8	-263097.3	1	292341.2	-64.15366	-1.834252E-011	0.009263	5
	58	26	1.584686	149050.7	-310820	1	344710.3	-64.3804	-1.580159E-010	0.0092396	5
	59	28	1.266892	175262.1	-364807.1	1	404723.4	-64.33926	-2.350842E-010	0.0091981	5
	60	30	0.999041	207842.5	-433185.3	1	480466.4	-64.36829	-2.492333E-010	0.0091759	5
