EXPLAIN
TAG	EISPOT
TITLE	LABEL	Potentiostatic EIS	Test &Identifier
DATE	LABEL	10/6/2019	Date
TIME	LABEL	8:54:57	Time
NOTES	NOTES	2	&Notes...
	
	
PSTAT	PSTAT	REF600-11020	Potentiostat
VDC	POTEN	0.00000E+000	T	DC &Voltage (V)
FREQINIT	QUANT	1.00000E+006	Initial Fre&q. (Hz)
FREQFINAL	QUANT	1.00000E+000	Final Fre&q. (Hz)
PTSPERDEC	QUANT	1.00000E+001	Points/&decade
VAC	QUANT	2.50000E+001	AC &Voltage (mV rms)
AREA	QUANT	1.00000E-002	&Area (cm^2)
CONDIT	TWOPARAM	T	5.00000E+000	0.00000E+000	Conditionin&g	Time(s)	E(V)
DELAY	TWOPARAM	T	5.00000E+000	0.00000E+000	Init. De&lay	Time(s)	Stab.(mV/s)
SPEED	SELECTOR	1	&Optimize for:
ZGUESS	QUANT	1.00000E+004	E&stimated Z (ohms)
OCVCURVE	TABLE	19
	Pt	T	Vf	Vm	Ach	Over
	#	s	V vs. Ref.	V	V	bits
	0	0.258333	3.54663E-003	3.54663E-003	5.26500E-004	...........
	1	0.516667	3.54088E-003	3.24595E-003	5.23866E-004	...........
	2	0.775	3.50587E-003	2.97462E-003	5.27966E-004	...........
	3	1.03333	3.40823E-003	2.74195E-003	5.25400E-004	...........
	4	1.29167	3.23794E-003	2.54053E-003	5.22633E-004	...........
	5	1.55	3.02032E-003	2.34443E-003	5.25200E-004	...........
	6	1.80833	2.79132E-003	2.17780E-003	5.24500E-004	...........
	7	2.06667	2.57409E-003	2.00700E-003	5.25800E-004	...........
	8	2.325	2.37620E-003	1.86782E-003	5.23833E-004	...........
	9	2.58333	2.19707E-003	1.73283E-003	5.28300E-004	...........
	10	2.84167	2.03775E-003	1.78251E-003	5.30766E-004	...........
	11	3.1	1.91066E-003	1.87284E-003	5.27133E-004	...........
	12	3.35833	1.83834E-003	2.02523E-003	5.32700E-004	...........
	13	3.61667	1.83257E-003	1.94735E-003	5.26500E-004	...........
	14	3.875	1.87226E-003	1.89320E-003	5.31200E-004	...........
	15	4.13333	1.91779E-003	2.11034E-003	5.26200E-004	...........
	16	4.39167	1.94829E-003	1.80896E-003	5.27933E-004	...........
	17	4.65	1.95888E-003	1.83751E-003	5.22766E-004	...........
	18	4.90833	1.94291E-003	1.88740E-003	5.31133E-004	...........
EOC	QUANT	0.0019429	Open Circuit (V)
PSTATMODEL	IQUANT	4	Pstat Model
PSTATSECTION	LABEL	REF600-11020	Pstat Section
PSTATSERIALNO	LABEL	11020	Pstat Serial Number
CTRLMODE	IQUANT	1	Control Mode
IESTAB	IQUANT	0	I/E Stability
CASPEED	IQUANT	1	Control Amp Speed
CONVENTION	IQUANT	1	Current Convention
ICHRANGE	IQUANT	2	Ich Range
ICHRANGEMODE	TOGGLE	F	Ich Auto Range
ICHOFFSETENABLE	TOGGLE	T	Ich Offset Enable
ICHOFFSET	QUANT	0	Ich Offset (V)
ICHFILTER	IQUANT	3	Ich Filter
VCHRANGE	IQUANT	2	Vch Range
VCHRANGEMODE	TOGGLE	F	Vch Auto Range
VCHOFFSETENABLE	TOGGLE	T	Vch Offset Enable
VCHOFFSET	QUANT	0	Vch Offset (V)
VCHFILTER	IQUANT	3	Vch Filter
ACHRANGE	IQUANT	2	Ach Range
ACHOFFSETENABLE	TOGGLE	F	Ach Offset Enable
ACHOFFSET	QUANT	0	Ach Offset (V)
ACHFILTER	IQUANT	3	Ach Filter
IERANGELOWERLIMIT	IQUANT	1	I/E Range Lower Limit
IERANGEMODE	TOGGLE	F	I/E AutoRange
IERANGE	IQUANT	5	I/E Range
POSFEEDENABLE	TOGGLE	F	Positive Feedback IR Comp
POSFEEDRESISTANCE	QUANT	0	Positive Feedback Resistance (ohm)
ACHSELECT	IQUANT	0	Ach Select
CABLEID	IQUANT	14	Cable ID
DCCALDATE	LABEL	8/19/2019	DC Calibration Date
ACCALDATE	LABEL	8/19/2019	AC Calibration Date
THERMOSELECT	IQUANT	1	Thermo Select
FRAMEWORKVERSION	QUANT	6.33	Framework Version
INSTRUMENTVERSION	LABEL	3.50	Instrument Version
ZCURVE	TABLE
	Pt	Time	Freq	Zreal	Zimag	Zsig	Zmod	Zphz	Idc	Vdc	IERange
	#	s	Hz	ohm	ohm	V	ohm	°	A	V	#
	0	1	1000078	2245.826	-1258.941	1	2574.62	-29.27365	6.215327E-006	0.0033257	8
	1	3	794390.6	2472.555	-1153.379	1	2728.335	-25.00776	-2.779224E-006	0.0039456	8
	2	4	630984.4	2656.363	-1033.131	1	2850.197	-21.2524	3.447259E-006	0.003214	8
	3	5	501234.4	2797.917	-896.329	1	2937.983	-17.76316	4.948366E-006	0.0024999	8
	4	7	398109.4	2923.405	-775.6348	1	3024.55	-14.8593	-2.927463E-006	0.0042694	8
	5	8	316265.6	2995.324	-666.2851	1	3068.535	-12.54079	-1.738639E-006	0.0040011	8
	6	10	251203.1	3068.711	-559.6713	1	3119.33	-10.336	-4.30525E-006	0.0043629	8
	7	11	199546.9	3108.788	-498.4545	1	3148.495	-9.109116	3.501707E-006	0.0029731	8
	8	12	158578.1	3149.821	-431.14	1	3179.191	-7.794075	7.812147E-007	0.0035621	8
	9	14	125953.1	3194.584	-356.324	1	3214.395	-6.364465	-1.438645E-006	0.0066991	7
	10	15	100078.1	3215.729	-319.0313	1	3231.515	-5.665754	5.952608E-008	0.0034377	7
	11	16	79453.13	3240.509	-305.6543	1	3254.892	-5.388364	-1.208209E-008	0.0035198	7
	12	18	63140.62	3264.856	-300.8823	1	3278.691	-5.265387	-8.158849E-008	0.0037636	7
	13	19	50203.12	3291.706	-303.1332	1	3305.634	-5.261528	1.328851E-008	0.0034524	7
	14	20	39890.62	3317.712	-312.3688	1	3332.384	-5.378649	-8.138529E-008	0.0036391	7
	15	22	31640.63	3345.62	-329.4068	1	3361.798	-5.623167	6.187953E-008	0.0034273	7
	16	23	25171.88	3375.514	-353.61	1	3393.985	-5.980344	-5.97902E-008	0.0036022	7
	17	24	20015.62	3410.859	-386.3226	1	3432.667	-6.461928	1.042681E-007	0.0034268	7
	18	26	15890.62	3441.438	-428.5197	1	3468.015	-7.097802	-1.225248E-008	0.0035744	7
	19	27	12609.37	3480.661	-480.9406	1	3513.73	-7.867035	-7.991796E-008	0.0037599	7
	20	29	10078.13	3519.951	-543.9567	1	3561.733	-8.78473	-8.035551E-008	0.0036359	7
	21	30	8015.625	3567.407	-619.9659	1	3620.877	-9.85875	-4.566484E-008	0.0036205	7
	22	31	6328.125	3612.802	-720.7072	1	3683.987	-11.28167	1.484967E-008	0.0034439	7
	23	33	5015.625	3664.143	-840.6108	1	3759.331	-12.92095	-5.822902E-008	0.0035899	7
	24	34	3984.375	3718.508	-983.216	1	3846.299	-14.81072	1.081162E-008	0.0034935	7
	25	35	3170.956	3781.895	-1162.776	1	3956.612	-17.09049	1.025063E-008	0.0034919	7
	26	37	2527.573	3850.567	-1377.969	1	4089.702	-19.69032	-3.824193E-008	0.0035138	7
	27	38	1976.103	3936.276	-1663.693	1	4273.422	-22.91167	-3.672769E-008	0.003513	7
	28	39	1577.524	4021.097	-1985.725	1	4484.677	-26.28139	-4.417555E-008	0.003612	7
	29	41	1265.625	4119.352	-2371.545	1	4753.24	-29.92939	-3.29187E-009	0.0034628	7
	30	42	998.264	4236.7	-2879.846	1	5122.806	-34.20544	-4.372204E-008	0.0036132	7
	31	44	796.875	4366.502	-3471.796	1	5578.504	-38.48813	-5.823215E-008	0.0035949	7
	32	45	627.7902	4518.607	-4245.708	1	6200.31	-43.21653	-1.275253E-008	0.0035731	7
	33	46	505.5147	4680.321	-5121.377	1	6937.86	-47.57645	-1.028299E-008	0.00355	7
	34	48	397.9953	4899.489	-6293.819	1	7976.036	-52.10065	5.718013E-009	0.0035356	7
	35	49	315.5048	5153.554	-7719.712	1	9281.868	-56.27357	4.576499E-009	0.0035342	7
	36	50	252.4038	5458.076	-9410.287	1	10878.61	-59.88577	1.452407E-009	0.0034753	6
	37	52	198.6229	5867.415	-11652.34	1	13046.21	-63.27294	9.697647E-010	0.0034703	6
	38	53	158.3615	6364.398	-14271.44	1	15626.25	-65.96535	1.037756E-009	0.0034715	6
	39	54	125.558	7017.358	-17570.36	1	18919.85	-68.22891	9.585736E-010	0.003474	6
	40	56	100.4464	7847.82	-21451.05	1	22841.54	-69.90506	2.72681E-010	0.0034695	6
	41	57	79.00281	8959.19	-26513.06	1	27985.88	-71.32906	1.052033E-009	0.0034678	6
	42	59	63.3446	10580.65	-32164.04	1	33859.64	-71.79091	5.889019E-010	0.003478	6
	43	60	49.86702	12270.54	-39992.22	1	41832.33	-72.94277	4.223978E-010	0.0034683	6
	44	61	39.72458	14791.36	-48572.52	1	50774.74	-73.0634	7.624777E-010	0.0034759	6
	45	63	31.6723	18084.52	-58816.44	1	61533.92	-72.90871	1.449369E-009	0.003475	6
	46	64	24.93351	22522.21	-72137.73	1	75571.83	-72.66105	-3.318917E-010	0.0034749	6
	47	66	19.86229	28157.5	-87162.38	1	91597.63	-72.09713	7.389011E-010	0.0034744	6
	48	67	15.83615	35299.59	-104410	1	110215.7	-71.32031	2.249149E-010	0.003477	5
	49	68	12.40079	44612.86	-126772.9	1	134393.8	-70.61244	7.46583E-010	0.0034824	5
	50	70	9.93114	57159.93	-150748.5	1	161221.5	-69.23457	9.159098E-010	0.0034743	5
	51	71	7.944915	71781.27	-178328.3	1	192233	-68.07407	5.256398E-010	0.0034777	5
	52	73	6.317385	90262.34	-210025	1	228599.6	-66.74344	5.398249E-010	0.0034705	5
	53	75	5.008013	113326.5	-247173.2	1	271914.5	-65.36901	2.432612E-010	0.003483	5
	54	78	3.945707	141983.4	-289820.8	1	322731.1	-63.89974	-1.102738E-010	0.0034729	5
	55	80	3.158693	173264.1	-334551.4	1	376756	-62.62037	3.305656E-010	0.0034949	5
	56	84	2.504006	211845	-387132.7	1	441304.9	-61.31183	-2.974183E-010	0.003472	5
	57	86	1.998082	254168	-443497.3	1	511166.6	-60.18301	-3.134194E-011	0.0034542	5
	58	90	1.584686	305027.8	-507789.8	1	592361.8	-59.0069	1.669924E-010	0.0035284	5
	59	93	1.266892	357302	-580175.6	1	681372.4	-58.3731	9.436179E-012	0.0034776	5
	60	97	0.999041	420822.3	-666131	1	787922.6	-57.71771	2.604302E-010	0.0035018	5
