EXPLAIN
TAG	EISPOT
TITLE	LABEL	Potentiostatic IDE	Test &Identifier
DATE	LABEL	9/12/2019	Date
TIME	LABEL	10:53:20	Time
NOTES	NOTES	1	&Notes...
	
PSTAT	PSTAT	REF600-11020	Potentiostat
VDC	POTEN	0.00000E+000	T	DC &Voltage (V)
FREQINIT	QUANT	1.00000E+006	Initial Fre&q. (Hz)
FREQFINAL	QUANT	1.00000E+000	Final Fre&q. (Hz)
PTSPERDEC	QUANT	1.00000E+001	Points/&decade
VAC	QUANT	2.50000E+001	AC &Voltage (mV rms)
AREA	QUANT	1.00000E-002	&Area (cm^2)
CONDIT	TWOPARAM	T	5.00000E+000	0.00000E+000	Conditionin&g	Time(s)	E(V)
DELAY	TWOPARAM	T	5.00000E+000	0.00000E+000	Init. De&lay	Time(s)	Stab.(mV/s)
SPEED	SELECTOR	1	&Optimize for:
ZGUESS	QUANT	1.00000E+007	E&stimated Z (ohms)
OCVCURVE	TABLE	19
	Pt	T	Vf	Vm	Ach	Over
	#	s	V vs. Ref.	V	V	bits
	0	0.258333	1.73899E-002	1.73899E-002	5.52432E-004	...........
	1	0.516667	1.73990E-002	1.78679E-002	5.50599E-004	...........
	2	0.775	1.74553E-002	1.83313E-002	5.48666E-004	...........
	3	1.03333	1.76154E-002	1.87884E-002	5.50766E-004	...........
	4	1.29167	1.79041E-002	1.92281E-002	5.57099E-004	...........
	5	1.55	1.82923E-002	1.96581E-002	5.55166E-004	...........
	6	1.80833	1.87287E-002	2.00733E-002	5.47899E-004	...........
	7	2.06667	1.91741E-002	2.04741E-002	5.46299E-004	...........
	8	2.325	1.96093E-002	2.08536E-002	5.48533E-004	...........
	9	2.58333	2.00285E-002	2.12485E-002	5.54099E-004	...........
	10	2.84167	2.04320E-002	2.15865E-002	5.47233E-004	...........
	11	3.1	2.08213E-002	2.19442E-002	5.54099E-004	...........
	12	3.35833	2.11964E-002	2.22804E-002	5.52733E-004	...........
	13	3.61667	2.15579E-002	2.26009E-002	5.59832E-004	...........
	14	3.875	2.19064E-002	2.28929E-002	5.53933E-004	...........
	15	4.13333	2.22413E-002	2.32089E-002	5.54699E-004	...........
	16	4.39167	2.25639E-002	2.35535E-002	5.54599E-004	...........
	17	4.65	2.28802E-002	2.38440E-002	5.52033E-004	...........
	18	4.90833	2.31943E-002	2.40882E-002	5.48399E-004	...........
EOC	QUANT	0.0231943	Open Circuit (V)
PSTATMODEL	IQUANT	4	Pstat Model
PSTATSECTION	LABEL	REF600-11020	Pstat Section
PSTATSERIALNO	LABEL	11020	Pstat Serial Number
CTRLMODE	IQUANT	1	Control Mode
IESTAB	IQUANT	0	I/E Stability
CASPEED	IQUANT	1	Control Amp Speed
CONVENTION	IQUANT	1	Current Convention
ICHRANGE	IQUANT	2	Ich Range
ICHRANGEMODE	TOGGLE	F	Ich Auto Range
ICHOFFSETENABLE	TOGGLE	T	Ich Offset Enable
ICHOFFSET	QUANT	0	Ich Offset (V)
ICHFILTER	IQUANT	3	Ich Filter
VCHRANGE	IQUANT	2	Vch Range
VCHRANGEMODE	TOGGLE	F	Vch Auto Range
VCHOFFSETENABLE	TOGGLE	T	Vch Offset Enable
VCHOFFSET	QUANT	0	Vch Offset (V)
VCHFILTER	IQUANT	3	Vch Filter
ACHRANGE	IQUANT	2	Ach Range
ACHOFFSETENABLE	TOGGLE	F	Ach Offset Enable
ACHOFFSET	QUANT	0	Ach Offset (V)
ACHFILTER	IQUANT	3	Ach Filter
IERANGELOWERLIMIT	IQUANT	1	I/E Range Lower Limit
IERANGEMODE	TOGGLE	F	I/E AutoRange
IERANGE	IQUANT	3	I/E Range
POSFEEDENABLE	TOGGLE	F	Positive Feedback IR Comp
POSFEEDRESISTANCE	QUANT	0	Positive Feedback Resistance (ohm)
ACHSELECT	IQUANT	0	Ach Select
CABLEID	IQUANT	14	Cable ID
DCCALDATE	LABEL	8/19/2019	DC Calibration Date
ACCALDATE	LABEL	8/19/2019	AC Calibration Date
THERMOSELECT	IQUANT	1	Thermo Select
FRAMEWORKVERSION	QUANT	6.33	Framework Version
INSTRUMENTVERSION	LABEL	3.50	Instrument Version
ZCURVE	TABLE
	Pt	Time	Freq	Zreal	Zimag	Zsig	Zmod	Zphz	Idc	Vdc	IERange
	#	s	Hz	ohm	ohm	V	ohm	°	A	V	#
	0	2	1000078	2557.887	-1895.844	1	3183.867	-36.54494	-3.360911E-006	0.025934	8
	1	3	794390.6	2961.428	-1839.223	1	3486.086	-31.84275	1.553546E-006	0.0250809	8
	2	5	630984.4	3298.989	-1730.664	1	3725.39	-27.6817	-1.612177E-006	0.0254968	8
	3	6	501234.4	3613.877	-1577.19	1	3943.049	-23.57771	-3.806756E-006	0.0258932	8
	4	7	398109.4	3849.058	-1386.163	1	4091.051	-19.80549	-6.741784E-007	0.0251577	8
	5	9	316265.6	4055.88	-1243.707	1	4242.284	-17.04779	-5.307709E-006	0.0261488	8
	6	10	251203.1	4186.793	-1073.653	1	4322.265	-14.38289	-1.056956E-006	0.0253426	8
	7	12	199546.9	4317.525	-928.7555	1	4416.29	-12.14006	-3.609758E-006	0.0256867	8
	8	13	158578.1	4382.094	-816.4163	1	4457.498	-10.55363	-3.559256E-006	0.0256859	8
	9	15	125953.1	4481.922	-684.4014	1	4533.875	-8.682149	-6.036337E-007	0.0259164	7
	10	16	100078.1	4530.353	-635.582	1	4574.72	-7.986139	-1.369017E-008	0.0249272	7
	11	17	79453.13	4582.288	-604.8721	1	4622.038	-7.519695	8.072114E-008	0.0248346	7
	12	19	63140.62	4633.03	-589.4411	1	4670.375	-7.250551	-1.028501E-008	0.024906	7
	13	20	50203.12	4683.761	-588.6223	1	4720.603	-7.162981	-5.032329E-008	0.0249123	7
	14	21	39890.62	4734.372	-608.5272	1	4773.32	-7.32429	-5.595528E-008	0.0249848	7
	15	23	31640.63	4790.761	-629.7462	1	4831.974	-7.488602	-4.112045E-008	0.0249166	7
	16	24	25171.88	4849.488	-669.9663	1	4895.548	-7.865735	-1.775477E-008	0.0250186	7
	17	25	20015.62	4912.568	-724.5692	1	4965.715	-8.390233	-5.022641E-008	0.0249121	7
	18	27	15890.62	4986.237	-802.8578	1	5050.459	-9.146959	-4.123295E-008	0.0249089	7
	19	28	12609.37	5058.027	-885.5159	1	5134.956	-9.93022	7.985073E-008	0.024731	7
	20	29	10078.13	5139.673	-990.757	1	5234.294	-10.91087	-1.66843E-008	0.0250168	7
	21	31	8015.625	5235.086	-1120.517	1	5353.661	-12.08129	7.959443E-008	0.0247367	7
	22	32	6328.125	5341.835	-1281.959	1	5493.507	-13.4949	-6.586087E-009	0.0249082	7
	23	33	5015.625	5459.912	-1468.907	1	5654.054	-15.05802	-4.296604E-008	0.0248957	7
	24	35	3984.375	5590.587	-1694.128	1	5841.638	-16.8585	-2.074895E-008	0.0248542	7
	25	36	3170.956	5739.765	-1957.899	1	6064.509	-18.83509	-1.768447E-008	0.0250058	7
	26	37	2527.573	5904.872	-2268.303	1	6325.56	-21.01382	-3.471506E-008	0.0248837	7
	27	39	1976.103	6110.567	-2667.523	1	6667.437	-23.58332	4.479546E-008	0.024708	7
	28	40	1577.524	6330.521	-3103.171	1	7050.189	-26.11373	-1.49705E-008	0.0250181	7
	29	41	1265.625	6567.098	-3609.224	1	7493.549	-28.79284	-1.050366E-008	0.0249155	7
	30	43	998.264	6855.133	-4258.841	1	8070.352	-31.85116	-4.561917E-008	0.0250052	7
	31	44	796.875	7166.73	-4987.896	1	8731.616	-34.83712	-4.41487E-008	0.0248942	7
	32	45	627.7902	7533.124	-5918.056	1	9579.74	-38.15334	3.918841E-008	0.0248293	7
	33	47	505.5147	7908.035	-6940.916	1	10522.04	-41.27356	-8.518184E-009	0.024915	6
	34	48	397.9953	8357.654	-8289.562	1	11771.46	-44.76564	6.91495E-010	0.024818	6
	35	49	315.5048	8851.713	-9902.19	1	13281.8	-48.20601	8.80535E-010	0.0248183	6
	36	51	252.4038	9387.033	-11789.11	1	15069.82	-51.47157	1.551687E-009	0.0248136	6
	37	52	198.6229	10042.31	-14277.23	1	17455.29	-54.87823	9.031689E-010	0.0248189	6
	38	53	158.3615	10752.21	-17165.98	1	20255.39	-57.9383	1.296712E-009	0.0248167	6
	39	55	125.558	11605.99	-20791.07	1	23811.08	-60.82887	1.226127E-009	0.0248147	6
	40	56	100.4464	12587.51	-25044.31	1	28029.68	-63.31546	1.650735E-009	0.0248162	6
	41	57	79.00281	13747.58	-30682.49	1	33621.59	-65.86478	1.449742E-009	0.0248186	6
	42	59	63.3446	15110.29	-37542.29	1	40469.06	-68.07584	6.923495E-010	0.0248187	6
	43	60	49.86702	16803.45	-45427.14	1	48435.32	-69.70062	1.096702E-009	0.0248084	6
	44	62	39.72458	19213.63	-55725.57	1	58944.91	-70.97631	7.558374E-010	0.0248207	6
	45	63	31.6723	21984.46	-68042.65	1	71506.08	-72.09444	8.829362E-010	0.0248179	6
	46	64	24.93351	25664.9	-83802.43	1	87644.36	-72.97254	7.010519E-010	0.024814	6
	47	66	19.86229	30329.98	-102131.4	1	106539.8	-73.46014	7.609884E-010	0.0248212	5
	48	67	15.83615	36292.46	-123028.6	1	128269.9	-73.56435	-7.868463E-010	0.0248196	5
	49	68	12.40079	46527.49	-154330.7	1	161191.7	-73.22303	-4.35468E-010	0.0248219	5
	50	70	9.93114	56344.68	-184865.1	1	193261	-73.0494	-1.97895E-010	0.0248276	5
	51	71	7.944915	71112.23	-222628.9	1	233710.5	-72.28545	5.020534E-011	0.0248192	5
	52	73	6.317385	89178.02	-268987.6	1	283385	-71.65798	3.923304E-010	0.0248099	5
	53	75	5.008013	113573.8	-323820.3	1	343159.8	-70.67265	-6.662008E-011	0.0248162	5
	54	77	3.945707	146259.9	-388891.8	1	415486.2	-69.38902	2.451547E-010	0.0248257	5
	55	80	3.158693	185142.4	-459357.7	1	495264.7	-68.04829	4.197032E-011	0.0248285	5
	56	83	2.504006	234786	-542987.1	1	591573.7	-66.61649	5.048105E-011	0.0248045	5
	57	86	1.998082	293239	-634926.1	1	699371.3	-65.21027	-1.14531E-010	0.0248109	5
	58	89	1.584686	369752.3	-739327.9	1	826633.3	-63.42947	2.915282E-011	0.0248604	5
	59	93	1.266892	454293.6	-853638.3	1	966996	-61.97876	-1.213713E-010	0.0248132	5
	60	97	0.999041	565328.8	-985823	1	1136417	-60.1675	1.661736E-010	0.0248424	4
