EXPLAIN
TAG	EISPOT
TITLE	LABEL	Potentiostatic EIS	Test &Identifier
DATE	LABEL	9/24/2019	Date
TIME	LABEL	9:39:39	Time
NOTES	NOTES	1	&Notes...
	
PSTAT	PSTAT	REF600-11020	Potentiostat
VDC	POTEN	0.00000E+000	T	DC &Voltage (V)
FREQINIT	QUANT	1.00000E+006	Initial Fre&q. (Hz)
FREQFINAL	QUANT	1.00000E+000	Final Fre&q. (Hz)
PTSPERDEC	QUANT	1.00000E+001	Points/&decade
VAC	QUANT	2.50000E+001	AC &Voltage (mV rms)
AREA	QUANT	1.00000E-002	&Area (cm^2)
CONDIT	TWOPARAM	T	5.00000E+000	0.00000E+000	Conditionin&g	Time(s)	E(V)
DELAY	TWOPARAM	T	5.00000E+000	0.00000E+000	Init. De&lay	Time(s)	Stab.(mV/s)
SPEED	SELECTOR	1	&Optimize for:
ZGUESS	QUANT	1.00000E+004	E&stimated Z (ohms)
OCVCURVE	TABLE	19
	Pt	T	Vf	Vm	Ach	Over
	#	s	V vs. Ref.	V	V	bits
	0	0.258333	-1.59984E-002	-1.59984E-002	5.70032E-004	...........
	1	0.516667	-1.60329E-002	-1.78022E-002	5.71732E-004	...........
	2	0.775	-1.62446E-002	-1.95176E-002	5.69032E-004	...........
	3	1.03333	-1.68433E-002	-2.11362E-002	5.75566E-004	...........
	4	1.29167	-1.79120E-002	-2.26432E-002	5.70666E-004	...........
	5	1.55	-1.93259E-002	-2.40943E-002	5.69832E-004	...........
	6	1.80833	-2.08815E-002	-2.54721E-002	5.72399E-004	...........
	7	2.06667	-2.24317E-002	-2.67827E-002	5.70132E-004	...........
	8	2.325	-2.39128E-002	-2.80455E-002	5.71732E-004	...........
	9	2.58333	-2.53119E-002	-2.91599E-002	5.71066E-004	...........
	10	2.84167	-2.66309E-002	-3.02841E-002	5.70566E-004	...........
	11	3.1	-2.78744E-002	-3.13966E-002	5.74399E-004	...........
	12	3.35833	-2.90544E-002	-3.24593E-002	5.72832E-004	...........
	13	3.61667	-3.01863E-002	-3.34206E-002	5.69166E-004	...........
	14	3.875	-3.12740E-002	-3.42501E-002	5.67066E-004	...........
	15	4.13333	-3.23074E-002	-3.51932E-002	5.72399E-004	...........
	16	4.39167	-3.32859E-002	-3.63121E-002	5.66199E-004	...........
	17	4.65	-3.42401E-002	-3.73197E-002	5.68232E-004	...........
	18	4.90833	-3.52006E-002	-3.78239E-002	5.68566E-004	...........
EOC	QUANT	-0.0352006	Open Circuit (V)
PSTATMODEL	IQUANT	4	Pstat Model
PSTATSECTION	LABEL	REF600-11020	Pstat Section
PSTATSERIALNO	LABEL	11020	Pstat Serial Number
CTRLMODE	IQUANT	1	Control Mode
IESTAB	IQUANT	0	I/E Stability
CASPEED	IQUANT	1	Control Amp Speed
CONVENTION	IQUANT	1	Current Convention
ICHRANGE	IQUANT	2	Ich Range
ICHRANGEMODE	TOGGLE	F	Ich Auto Range
ICHOFFSETENABLE	TOGGLE	T	Ich Offset Enable
ICHOFFSET	QUANT	0	Ich Offset (V)
ICHFILTER	IQUANT	3	Ich Filter
VCHRANGE	IQUANT	2	Vch Range
VCHRANGEMODE	TOGGLE	F	Vch Auto Range
VCHOFFSETENABLE	TOGGLE	T	Vch Offset Enable
VCHOFFSET	QUANT	0	Vch Offset (V)
VCHFILTER	IQUANT	3	Vch Filter
ACHRANGE	IQUANT	2	Ach Range
ACHOFFSETENABLE	TOGGLE	F	Ach Offset Enable
ACHOFFSET	QUANT	0	Ach Offset (V)
ACHFILTER	IQUANT	3	Ach Filter
IERANGELOWERLIMIT	IQUANT	1	I/E Range Lower Limit
IERANGEMODE	TOGGLE	F	I/E AutoRange
IERANGE	IQUANT	6	I/E Range
POSFEEDENABLE	TOGGLE	F	Positive Feedback IR Comp
POSFEEDRESISTANCE	QUANT	0	Positive Feedback Resistance (ohm)
ACHSELECT	IQUANT	0	Ach Select
CABLEID	IQUANT	14	Cable ID
DCCALDATE	LABEL	8/19/2019	DC Calibration Date
ACCALDATE	LABEL	8/19/2019	AC Calibration Date
THERMOSELECT	IQUANT	1	Thermo Select
FRAMEWORKVERSION	QUANT	6.33	Framework Version
INSTRUMENTVERSION	LABEL	3.50	Instrument Version
ZCURVE	TABLE
	Pt	Time	Freq	Zreal	Zimag	Zsig	Zmod	Zphz	Idc	Vdc	IERange
	#	s	Hz	ohm	ohm	V	ohm	°	A	V	#
	0	1	1000078	2006.538	-2224.891	1	2996.053	-47.95399	4.895851E-006	-0.0342615	8
	1	3	794390.6	2444.557	-2342.527	1	3385.749	-43.77901	-5.58304E-006	-0.0325216	8
	2	4	630984.4	2945.335	-2411.331	1	3806.51	-39.30701	1.068498E-006	-0.0335712	8
	3	5	501234.4	3423.464	-2391.84	1	4176.243	-34.94049	-3.209261E-007	-0.0336537	8
	4	7	398109.4	3901.087	-2304.671	1	4531.003	-30.5736	6.241704E-007	-0.0338158	8
	5	8	316265.6	4311.309	-2149.05	1	4817.24	-26.49479	-2.081714E-007	-0.0337273	8
	6	9	251203.1	4667.979	-1986.885	1	5073.238	-23.05661	-7.64381E-007	-0.0335423	8
	7	11	199546.9	4967.792	-1774.758	1	5275.293	-19.65941	-9.229679E-007	-0.0334684	8
	8	12	158578.1	5209.229	-1601.273	1	5449.783	-17.08698	3.345511E-007	-0.0336474	8
	9	13	125953.1	5402.651	-1341.63	1	5566.741	-13.94605	-8.330946E-007	-0.0325387	7
	10	15	100078.1	5554.542	-1200.983	1	5682.895	-12.20048	-5.009826E-008	-0.0335284	7
	11	16	79453.13	5674.606	-1089.799	1	5778.306	-10.8712	8.071801E-008	-0.0338803	7
	12	17	63140.62	5775.08	-1001.125	1	5861.211	-9.83464	-1.554977E-008	-0.0336789	7
	13	19	50203.12	5865.345	-941.3725	1	5940.409	-9.118061	1.213845E-007	-0.0338782	7
	14	20	39890.62	5939.944	-903.6453	1	6008.287	-8.650098	-3.123004E-008	-0.033715	7
	15	22	31640.63	6019.164	-888.7723	1	6084.427	-8.399437	1.574165E-008	-0.0336379	7
	16	23	25171.88	6095.514	-899.8983	1	6161.583	-8.398079	-4.879294E-008	-0.0335436	7
	17	24	20015.62	6172.247	-929.9036	1	6241.903	-8.567681	4.203304E-008	-0.033859	7
	18	26	15890.62	6258.252	-985.522	1	6335.375	-8.94919	7.08765E-008	-0.0338365	7
	19	27	12609.37	6344.354	-1061.886	1	6432.606	-9.50181	8.243838E-008	-0.0338942	7
	20	28	10078.13	6434.186	-1165.133	1	6538.829	-10.26416	-1.657542E-008	-0.0336927	7
	21	30	8015.625	6534.126	-1292.336	1	6660.701	-11.18772	-3.700226E-008	-0.0336214	7
	22	31	6328.125	6646.004	-1461.869	1	6804.883	-12.40534	-3.641704E-008	-0.033623	7
	23	32	5015.625	6764.856	-1664.611	1	6966.65	-13.82398	-2.5248E-008	-0.0337412	7
	24	34	3984.375	6893.723	-1914.748	1	7154.696	-15.52276	8.990098E-008	-0.0337872	7
	25	35	3170.956	7029.514	-2214.469	1	7370.071	-17.48571	-3.61456E-008	-0.0336213	7
	26	36	2527.573	7184.715	-2576.788	1	7632.821	-19.7303	1.984317E-009	-0.0336893	7
	27	38	1976.103	7364.993	-3067.184	1	7978.141	-22.6095	-4.790608E-008	-0.0335485	7
	28	39	1577.524	7557.32	-3610.962	1	8375.687	-25.53893	-2.610829E-008	-0.0337352	7
	29	40	1265.625	7782.006	-4226.842	1	8855.835	-28.50886	1.322725E-008	-0.0338119	7
	30	42	998.264	8019.655	-5102.734	1	9505.41	-32.46772	-5.852403E-009	-0.0336322	6
	31	43	796.875	8297.727	-6092.043	1	10293.94	-36.28545	2.202399E-009	-0.0336892	6
	32	44	627.7902	8634.521	-7379.565	1	11358.39	-40.51913	3.643402E-009	-0.0336693	6
	33	46	505.5147	9002.699	-8805.415	1	12593.01	-44.36528	-1.101181E-009	-0.0338875	6
	34	47	397.9953	9469.929	-10730.21	1	14311.43	-48.57003	2.067742E-009	-0.0337676	6
	35	49	315.5048	10013.62	-13028.24	1	16431.91	-52.45379	2.289319E-009	-0.0337678	6
	36	50	252.4038	10638.25	-15729.05	1	18988.82	-55.92776	1.281918E-009	-0.0337705	6
	37	51	198.6229	11451.57	-19281.29	1	22425.59	-59.29301	1.92242E-009	-0.0337689	6
	38	53	158.3615	12396.17	-23398.44	1	26479.28	-62.08599	2.224253E-009	-0.033776	6
	39	54	125.558	13606.88	-28582.86	1	31656.39	-64.54321	1.555309E-009	-0.0337757	6
	40	55	100.4464	15096.09	-34648.03	1	37793.88	-66.45733	2.480529E-009	-0.0337789	6
	41	57	79.00281	17046.72	-42521.25	1	45810.99	-68.15421	2.18942E-009	-0.0337726	6
	42	58	63.3446	18587.59	-52120.66	1	55335.9	-70.37244	1.210858E-009	-0.0337766	6
	43	59	49.86702	22326.62	-62855.6	1	66703.1	-70.44471	2.100345E-009	-0.0337787	6
	44	61	39.72458	26670.14	-77004.42	1	81492.2	-70.8967	1.616102E-009	-0.0337765	6
	45	62	31.6723	31537.45	-93711.63	1	98876.1	-71.4	1.958064E-009	-0.033774	6
	46	64	24.93351	39123.96	-114379.7	1	120885.9	-71.11657	9.25304E-010	-0.0337696	5
	47	65	19.86229	48707.59	-137880	1	146230.3	-70.54369	1.322877E-009	-0.0337704	5
	48	66	15.83615	63578.21	-166818.7	1	178523.6	-69.13708	-6.512968E-010	-0.0337764	5
	49	68	12.40079	79978.98	-201810.8	1	217081.2	-68.38125	2.24109E-009	-0.0337735	5
	50	69	9.93114	98934.7	-237832.2	1	257589.3	-67.4134	1.604321E-009	-0.033776	5
	51	71	7.944915	122242.9	-279684.1	1	305231.9	-66.39108	3.12779E-010	-0.0337666	5
	52	72	6.317385	158232.5	-328128.5	1	364288.1	-64.25537	6.669171E-010	-0.0337638	5
	53	74	5.008013	200428.1	-381283.9	1	430753.8	-62.27061	7.881171E-010	-0.0337759	5
	54	77	3.945707	251897	-441125	1	507979.7	-60.2722	1.209018E-009	-0.0337673	5
	55	80	3.158693	309364.2	-498017.5	1	586282.9	-58.15181	7.69578E-010	-0.033767	5
	56	83	2.504006	376266.9	-561229.8	1	675689	-56.1608	9.795492E-010	-0.0337815	5
	57	86	1.998082	446109.6	-626205.7	1	768861.1	-54.53389	6.429706E-010	-0.0337529	5
	58	89	1.584686	526737.1	-698268.1	1	874660.1	-52.971	8.932788E-010	-0.0337308	5
	59	93	1.266892	605428.9	-774725.4	1	983231	-51.99325	6.167768E-010	-0.0337575	5
	60	97	0.999041	701461.6	-875043.4	1	1121494	-51.28327	1.060481E-009	-0.0337658	4
