EXPLAIN
TAG	EISPOT
TITLE	LABEL	Potentiostatic EIS	Test &Identifier
DATE	LABEL	10/16/2019	Date
TIME	LABEL	9:28:50	Time
NOTES	NOTES	1	&Notes...
	
PSTAT	PSTAT	REF600-11020	Potentiostat
VDC	POTEN	0.00000E+000	T	DC &Voltage (V)
FREQINIT	QUANT	1.00000E+006	Initial Fre&q. (Hz)
FREQFINAL	QUANT	1.00000E+000	Final Fre&q. (Hz)
PTSPERDEC	QUANT	1.00000E+001	Points/&decade
VAC	QUANT	2.50000E+001	AC &Voltage (mV rms)
AREA	QUANT	1.00000E-002	&Area (cm^2)
CONDIT	TWOPARAM	T	5.00000E+000	0.00000E+000	Conditionin&g	Time(s)	E(V)
DELAY	TWOPARAM	T	5.00000E+000	0.00000E+000	Init. De&lay	Time(s)	Stab.(mV/s)
SPEED	SELECTOR	0	&Optimize for:
ZGUESS	QUANT	1.00000E+005	E&stimated Z (ohms)
OCVCURVE	TABLE	19
	Pt	T	Vf	Vm	Ach	Over
	#	s	V vs. Ref.	V	V	bits
	0	0.258333	7.97054E-003	7.97054E-003	5.90232E-004	...........
	1	0.516667	7.96806E-003	7.84032E-003	5.90132E-004	...........
	2	0.775	7.95307E-003	7.73183E-003	5.90799E-004	...........
	3	1.03333	7.91187E-003	7.64123E-003	5.90732E-004	...........
	4	1.29167	7.84216E-003	7.60886E-003	5.93099E-004	...........
	5	1.55	7.76068E-003	7.65899E-003	5.82365E-004	...........
	6	1.80833	7.69269E-003	7.63156E-003	5.87532E-004	...........
	7	2.06667	7.65153E-003	7.56269E-003	5.82799E-004	...........
	8	2.325	7.62760E-003	7.50115E-003	5.93065E-004	...........
	9	2.58333	7.60017E-003	7.40784E-003	5.87599E-004	...........
	10	2.84167	7.55516E-003	7.29450E-003	5.86965E-004	...........
	11	3.1	7.49091E-003	7.30542E-003	5.85399E-004	...........
	12	3.35833	7.41913E-003	7.31761E-003	5.84399E-004	...........
	13	3.61667	7.35995E-003	7.32047E-003	5.83865E-004	...........
	14	3.875	7.32611E-003	7.31795E-003	5.90599E-004	...........
	15	4.13333	7.31437E-003	7.31692E-003	5.93132E-004	...........
	16	4.39167	7.31378E-003	7.32346E-003	5.89465E-004	...........
	17	4.65	7.31621E-003	7.31954E-003	5.94065E-004	...........
	18	4.90833	7.31893E-003	7.34226E-003	5.97098E-004	...........
EOC	QUANT	0.0073189	Open Circuit (V)
PSTATMODEL	IQUANT	4	Pstat Model
PSTATSECTION	LABEL	REF600-11020	Pstat Section
PSTATSERIALNO	LABEL	11020	Pstat Serial Number
CTRLMODE	IQUANT	1	Control Mode
IESTAB	IQUANT	0	I/E Stability
CASPEED	IQUANT	1	Control Amp Speed
CONVENTION	IQUANT	1	Current Convention
ICHRANGE	IQUANT	2	Ich Range
ICHRANGEMODE	TOGGLE	F	Ich Auto Range
ICHOFFSETENABLE	TOGGLE	T	Ich Offset Enable
ICHOFFSET	QUANT	0	Ich Offset (V)
ICHFILTER	IQUANT	3	Ich Filter
VCHRANGE	IQUANT	2	Vch Range
VCHRANGEMODE	TOGGLE	F	Vch Auto Range
VCHOFFSETENABLE	TOGGLE	T	Vch Offset Enable
VCHOFFSET	QUANT	0	Vch Offset (V)
VCHFILTER	IQUANT	3	Vch Filter
ACHRANGE	IQUANT	2	Ach Range
ACHOFFSETENABLE	TOGGLE	F	Ach Offset Enable
ACHOFFSET	QUANT	0	Ach Offset (V)
ACHFILTER	IQUANT	3	Ach Filter
IERANGELOWERLIMIT	IQUANT	1	I/E Range Lower Limit
IERANGEMODE	TOGGLE	F	I/E AutoRange
IERANGE	IQUANT	5	I/E Range
POSFEEDENABLE	TOGGLE	F	Positive Feedback IR Comp
POSFEEDRESISTANCE	QUANT	0	Positive Feedback Resistance (ohm)
ACHSELECT	IQUANT	0	Ach Select
CABLEID	IQUANT	14	Cable ID
DCCALDATE	LABEL	8/19/2019	DC Calibration Date
ACCALDATE	LABEL	8/19/2019	AC Calibration Date
THERMOSELECT	IQUANT	1	Thermo Select
FRAMEWORKVERSION	QUANT	6.33	Framework Version
INSTRUMENTVERSION	LABEL	3.50	Instrument Version
ZCURVE	TABLE
	Pt	Time	Freq	Zreal	Zimag	Zsig	Zmod	Zphz	Idc	Vdc	IERange
	#	s	Hz	ohm	ohm	V	ohm	°	A	V	#
	0	2	1000078	2275.285	-1393.151	1	2667.919	-31.47904	1.452028E-006	0.0095995	8
	1	2	794390.6	2534.498	-1302.586	1	2849.634	-27.20055	-3.429804E-006	0.0096974	8
	2	2	630984.4	2745.649	-1180.676	1	2988.743	-23.26853	-2.0475E-006	0.0096209	8
	3	3	501234.4	2919.377	-1054.5	1	3103.987	-19.86008	6.559322E-007	0.0090115	8
	4	3	398109.4	3070.537	-933.5551	1	3209.318	-16.91118	3.013721E-007	0.008852	8
	5	3	316265.6	3183.407	-818.5925	1	3286.97	-14.42081	8.809961E-007	0.0086593	8
	6	4	251203.1	3267.383	-727.5362	1	3347.402	-12.55305	-1.351651E-007	0.0088208	8
	7	4	199546.9	3343.788	-637.3583	1	3403.989	-10.79168	2.290166E-006	0.0083745	8
	8	4	158578.1	3386.942	-574.8504	1	3435.379	-9.63276	-2.108316E-006	0.0091884	8
	9	5	125953.1	3463.651	-490.5136	1	3498.211	-8.060485	1.504497E-008	0.0086584	7
	10	5	100078.1	3496.46	-469.7007	1	3527.868	-7.651084	6.2614E-008	0.008698	7
	11	5	79453.13	3536.635	-465.5389	1	3567.144	-7.498917	-2.334147E-008	0.0088268	7
	12	6	63140.62	3576.363	-473.2071	1	3607.534	-7.537318	5.327054E-008	0.0087284	7
	13	6	50203.12	3620.615	-490.9323	1	3653.747	-7.721849	-2.272264E-008	0.008818	7
	14	6	39890.62	3666.794	-518.5434	1	3703.278	-8.049166	5.789303E-008	0.0086863	7
	15	6	31640.63	3717.247	-558.3437	1	3758.946	-8.542171	-4.121106E-008	0.0088647	7
	16	7	25171.88	3773.645	-610.7166	1	3822.744	-9.192889	-2.735607E-008	0.0088237	7
	17	7	20015.62	3848.592	-695.4028	1	3910.914	-10.24227	-1.293381E-008	0.0088367	7
	18	7	15890.62	3905.405	-750.817	1	3976.923	-10.88238	-2.870629E-008	0.0088215	7
	19	8	12609.37	3983.513	-843.8429	1	4071.909	-11.96038	6.185135E-008	0.0087772	7
	20	8	10078.13	4070.552	-949.9595	1	4179.93	-13.13621	-2.874379E-008	0.0088168	7
	21	8	8015.625	4163.612	-1070.773	1	4299.095	-14.42245	6.050275E-008	0.0086804	7
	22	9	6328.125	4287.189	-1225.462	1	4458.895	-15.9522	2.188567E-009	0.00878	7
	23	9	5015.625	4416.884	-1397.547	1	4632.709	-17.5579	-4.149549E-008	0.0088648	7
	24	9	3984.375	4542.063	-1593.991	1	4813.642	-19.33801	-5.046391E-008	0.0088953	7
	25	10	3170.956	4724.763	-1826.181	1	5065.404	-21.13216	-2.556521E-008	0.008861	7
	26	10	2527.573	4908.267	-2087.779	1	5333.845	-23.04295	-3.938835E-009	0.0088434	7
	27	10	1976.103	5133.085	-2418.534	1	5674.317	-25.22821	-3.827883E-009	0.0088404	7
	28	11	1577.524	5369.816	-2888.342	1	6097.331	-28.27513	-4.866211E-008	0.008889	7
	29	11	1265.625	5624.992	-3169.313	1	6456.399	-29.3984	-2.38286E-008	0.0088603	7
	30	11	998.264	5930.959	-3657.456	1	6968.017	-31.66097	-2.24582E-008	0.0088082	7
	31	12	796.875	6235.154	-4199.453	1	7517.483	-33.96075	-4.634566E-009	0.0088384	7
	32	12	627.7902	6578.566	-4872.731	1	8186.638	-36.52728	1.345221E-009	0.0087706	7
	33	12	505.5147	6906.446	-5620.522	1	8904.452	-39.13898	6.689442E-008	0.008763	7
	34	13	397.9953	7273.307	-6607.777	1	9826.68	-42.25505	-3.294869E-010	0.0087661	6
	35	13	315.5048	7633.486	-7814.353	1	10924.02	-45.6708	-3.548149E-010	0.0087656	6
	36	13	252.4038	7997.105	-9260.767	1	12235.83	-49.18786	-1.007084E-010	0.0087641	6
	37	14	198.6229	8419.202	-11207.75	1	14017.72	-53.08631	6.709191E-010	0.0087657	6
	38	14	158.3615	8877.058	-13523.99	1	16177.16	-56.71936	-3.981424E-010	0.0087638	6
	39	14	125.558	9432.549	-16476.42	1	18985.4	-60.2094	-4.884899E-011	0.0087647	6
	40	14	100.4464	10090.71	-20023.46	1	22422.34	-63.25445	-1.693329E-010	0.0087612	6
	41	15	79.00281	11041.2	-24687.97	1	27044.48	-65.90437	-5.041464E-010	0.0087582	6
	42	15	63.3446	11786.7	-30181.26	1	32401.16	-68.66785	4.548174E-010	0.0087556	6
	43	16	49.86702	13302.26	-37142.14	1	39452.36	-70.29529	7.962749E-010	0.0087545	6
	44	16	39.72458	15434.74	-45461.82	1	48010.5	-71.24713	4.686907E-010	0.0087599	6
	45	16	31.6723	17962.25	-55431.57	1	58269.21	-72.04541	2.420743E-010	0.008757	6
	46	17	24.93351	21240.84	-68319.3	1	71545.09	-72.72925	-1.929824E-011	0.0087533	6
	47	17	19.86229	25383.16	-83169.69	1	86956.9	-73.02795	1.850029E-010	0.0087562	6
	48	17	15.83615	31485.89	-100781.3	1	105585.2	-72.65025	-9.900281E-010	0.0087544	6
	49	17	12.40079	39216.87	-123265	1	129353.1	-72.35148	1.473277E-009	0.0087556	5
	50	18	9.93114	47653.85	-148948.3	1	156385.7	-72.25868	-1.54774E-010	0.0087597	5
	51	18	7.944915	58913.35	-178638.2	1	188102.1	-71.74789	-1.034876E-010	0.0087591	5
	52	19	6.317385	73255.28	-213826.8	1	226027.1	-71.08897	-2.529727E-010	0.0087672	5
	53	20	5.008013	91655.96	-256405.7	1	272295.2	-70.32983	-2.449707E-010	0.0087498	5
	54	21	3.945707	114792.9	-306996.7	1	327756.6	-69.49812	-7.054673E-011	0.0087536	5
	55	22	3.158693	141922.2	-362772.7	1	389545.8	-68.63381	2.191074E-012	0.0087726	5
	56	24	2.504006	175760.9	-430521.6	1	465016.9	-67.79221	-1.165894E-010	0.0087594	5
	57	25	1.998082	214347.7	-505505.5	1	549072.6	-67.02177	-7.157662E-012	0.0087653	5
	58	27	1.584686	263704.6	-597025.4	1	652671	-66.16908	5.054732E-011	0.0088085	5
	59	29	1.266892	318079.3	-699547.1	1	768466.4	-65.54903	1.054128E-011	0.0087888	5
	60	31	0.999041	387482	-824740.1	1	911229.1	-64.83477	-7.116261E-012	0.0087646	5
