EXPLAIN
TAG	EISPOT
TITLE	LABEL	Potentiostatic EIS	Test &Identifier
DATE	LABEL	8/14/2018	Date
TIME	LABEL	5:34:38	Time
NOTES	NOTES	1	&Notes...
	
PSTAT	PSTAT	REF600-11020	Potentiostat
VDC	POTEN	0.00000E+000	T	DC &Voltage (V)
FREQINIT	QUANT	1.00000E+006	Initial Fre&q. (Hz)
FREQFINAL	QUANT	1.00000E+000	Final Fre&q. (Hz)
PTSPERDEC	QUANT	1.00000E+001	Points/&decade
VAC	QUANT	2.50000E+001	AC &Voltage (mV rms)
AREA	QUANT	1.00000E-002	&Area (cm^2)
CONDIT	TWOPARAM	T	5.00000E+000	0.00000E+000	Conditionin&g	Time(s)	E(V)
DELAY	TWOPARAM	T	5.00000E+000	0.00000E+000	Init. De&lay	Time(s)	Stab.(mV/s)
SPEED	SELECTOR	0	&Optimize for:
ZGUESS	QUANT	1.00000E+005	E&stimated Z (ohms)
OCVCURVE	TABLE	19
	Pt	T	Vf	Vm	Ach	Over
	#	s	V vs. Ref.	V	V	bits
	0	0.258333	3.13882E-002	3.13882E-002	5.81832E-004	...........
	1	0.516667	3.14268E-002	3.34060E-002	5.91199E-004	...........
	2	0.775	3.16628E-002	3.52853E-002	5.87799E-004	...........
	3	1.03333	3.23279E-002	3.70573E-002	5.83699E-004	...........
	4	1.29167	3.35106E-002	3.87269E-002	5.80599E-004	...........
	5	1.55	3.50708E-002	4.03368E-002	5.89999E-004	...........
	6	1.80833	3.67834E-002	4.17162E-002	5.85965E-004	...........
	7	2.06667	3.84790E-002	4.31040E-002	5.80699E-004	...........
	8	2.325	4.00771E-002	4.44322E-002	5.78366E-004	...........
	9	2.58333	4.15653E-002	4.57157E-002	5.92299E-004	...........
	10	2.84167	4.29615E-002	4.67671E-002	5.83299E-004	...........
	11	3.1	4.42795E-002	4.80252E-002	5.84499E-004	...........
	12	3.35833	4.55293E-002	4.91534E-002	5.86665E-004	...........
	13	3.61667	4.67291E-002	5.02362E-002	5.88199E-004	...........
	14	3.875	4.78941E-002	5.12677E-002	5.81899E-004	...........
	15	4.13333	4.90249E-002	5.23013E-002	5.75932E-004	...........
	16	4.39167	5.01174E-002	5.32756E-002	5.81699E-004	...........
	17	4.65	5.11712E-002	5.41783E-002	5.80032E-004	...........
	18	4.90833	5.21850E-002	5.50670E-002	5.75265E-004	...........
EOC	QUANT	0.052185	Open Circuit (V)
PSTATMODEL	IQUANT	4	Pstat Model
PSTATSECTION	LABEL	REF600-11020	Pstat Section
PSTATSERIALNO	LABEL	11020	Pstat Serial Number
CTRLMODE	IQUANT	1	Control Mode
IESTAB	IQUANT	0	I/E Stability
CASPEED	IQUANT	1	Control Amp Speed
CONVENTION	IQUANT	1	Current Convention
ICHRANGE	IQUANT	2	Ich Range
ICHRANGEMODE	TOGGLE	F	Ich Auto Range
ICHOFFSETENABLE	TOGGLE	T	Ich Offset Enable
ICHOFFSET	QUANT	0	Ich Offset (V)
ICHFILTER	IQUANT	3	Ich Filter
VCHRANGE	IQUANT	2	Vch Range
VCHRANGEMODE	TOGGLE	F	Vch Auto Range
VCHOFFSETENABLE	TOGGLE	T	Vch Offset Enable
VCHOFFSET	QUANT	0	Vch Offset (V)
VCHFILTER	IQUANT	3	Vch Filter
ACHRANGE	IQUANT	2	Ach Range
ACHOFFSETENABLE	TOGGLE	F	Ach Offset Enable
ACHOFFSET	QUANT	0	Ach Offset (V)
ACHFILTER	IQUANT	3	Ach Filter
IERANGELOWERLIMIT	IQUANT	1	I/E Range Lower Limit
IERANGEMODE	TOGGLE	F	I/E AutoRange
IERANGE	IQUANT	5	I/E Range
POSFEEDENABLE	TOGGLE	F	Positive Feedback IR Comp
POSFEEDRESISTANCE	QUANT	0	Positive Feedback Resistance (ohm)
ACHSELECT	IQUANT	0	Ach Select
CABLEID	IQUANT	14	Cable ID
DCCALDATE	LABEL	8/19/2019	DC Calibration Date
ACCALDATE	LABEL	8/19/2019	AC Calibration Date
THERMOSELECT	IQUANT	1	Thermo Select
FRAMEWORKVERSION	QUANT	6.33	Framework Version
INSTRUMENTVERSION	LABEL	3.50	Instrument Version
ZCURVE	TABLE
	Pt	Time	Freq	Zreal	Zimag	Zsig	Zmod	Zphz	Idc	Vdc	IERange
	#	s	Hz	ohm	ohm	V	ohm	°	A	V	#
	0	1	1000078	2139.111	-1414.097	1	2564.267	-33.4674	-9.980969E-007	0.0544572	8
	1	1	794390.6	2382.412	-1388.529	1	2757.517	-30.2347	-3.513275E-006	0.055023	8
	2	2	630984.4	2632.595	-1324.111	1	2946.833	-26.70093	7.20475E-007	0.0540184	8
	3	2	501234.4	2848.892	-1255.085	1	3113.105	-23.77599	3.54021E-007	0.0538891	8
	4	2	398109.4	3053.152	-1188.052	1	3276.157	-21.26215	7.08891E-007	0.0536685	8
	5	3	316265.6	3219.282	-1088.356	1	3398.278	-18.67906	4.006135E-007	0.0537805	8
	6	3	251203.1	3362.944	-1027.714	1	3516.474	-16.99312	-2.879131E-008	0.0537873	8
	7	3	199546.9	3478.297	-944.9538	1	3604.371	-15.19879	3.581146E-006	0.0532531	8
	8	4	158578.1	3704.583	-848.6377	1	3800.542	-12.90257	-2.932766E-006	0.0544147	8
	9	4	125953.1	3737.96	-753.3221	1	3813.114	-11.39436	-5.540607E-008	0.0536332	7
	10	4	100078.1	3825.121	-719.3528	1	3892.174	-10.65065	1.261972E-008	0.0538785	7
	11	5	79453.13	3904.458	-697.9943	1	3966.357	-10.13562	-3.587913E-008	0.0538522	7
	12	5	63140.62	3983.48	-692.1759	1	4043.169	-9.85739	-4.153773E-008	0.0537944	7
	13	5	50203.12	4060.764	-694.6077	1	4119.743	-9.7067	3.764649E-008	0.0537298	7
	14	5	39890.62	4136.299	-708.7886	1	4196.588	-9.72366	-6.876799E-008	0.0538687	7
	15	6	31640.63	4213.875	-733.7084	1	4277.273	-9.87716	-6.888204E-008	0.0538651	7
	16	6	25171.88	4295.165	-771.4055	1	4363.887	-10.18169	6.387669E-008	0.0536703	7
	17	6	20015.62	4375.757	-825.3532	1	4452.916	-10.68161	-2.701074E-008	0.0537659	7
	18	7	15890.62	4468.328	-883.951	1	4554.923	-11.19011	-7.018534E-008	0.0538623	7
	19	7	12609.37	4561.246	-966.042	1	4662.424	-11.95816	-9.636487E-009	0.0537603	7
	20	7	10078.13	4661.111	-1054.721	1	4778.953	-12.75022	8.711889E-008	0.0537101	7
	21	8	8015.625	4768.299	-1175.645	1	4911.091	-13.85029	-8.917626E-009	0.0538001	7
	22	8	6328.125	4881.837	-1323.757	1	5058.129	-15.17148	6.530654E-008	0.0536676	7
	23	8	5015.625	5005.342	-1496.596	1	5224.294	-16.64666	-7.031976E-008	0.0538642	7
	24	9	3984.375	5134.175	-1702.772	1	5409.176	-18.34833	-1.40324E-008	0.0537953	7
	25	9	3170.956	5274.396	-1950.149	1	5623.375	-20.29131	-4.687907E-008	0.0537929	7
	26	9	2527.573	5418.549	-2246.747	1	5865.88	-22.52085	-5.34237E-008	0.0538311	7
	27	10	1976.103	5590.216	-2641.94	1	6183.07	-25.29545	-5.466135E-008	0.0538346	7
	28	10	1577.524	5771.35	-3156.167	1	6577.983	-28.67284	-9.141578E-009	0.0537467	7
	29	10	1265.625	5938.928	-3635.986	1	6963.567	-31.47619	-2.959031E-008	0.05383	7
	30	11	998.264	6163.895	-4346.09	1	7542.022	-35.18722	-5.303616E-008	0.0538378	7
	31	11	796.875	6405.364	-5175.828	1	8235.161	-38.9398	-4.651684E-008	0.0537901	7
	32	11	627.7902	6705.815	-6250.163	1	9166.924	-42.98578	1.224559E-009	0.0537001	7
	33	11	505.5147	7035.496	-7445.32	1	10243.58	-46.62111	-3.297985E-009	0.0538152	6
	34	12	397.9953	7458.742	-9060.757	1	11735.85	-50.53907	-9.375348E-010	0.0537311	6
	35	12	315.5048	7954.722	-10980.73	1	13559.28	-54.07946	-1.822916E-009	0.0537319	6
	36	12	252.4038	8532.471	-13232.16	1	15744.62	-57.18493	-2.395687E-009	0.0537256	6
	37	13	198.6229	9289.869	-16179.52	1	18656.86	-60.13665	-1.456902E-009	0.0537321	6
	38	13	158.3615	10176.99	-19581.06	1	22067.83	-62.53745	-1.611706E-009	0.0537294	6
	39	13	125.558	11295.16	-23832.78	1	26373.89	-64.64214	-1.743885E-009	0.0537287	6
	40	14	100.4464	12604.03	-28832.77	1	31467.29	-66.38781	-6.227672E-010	0.053727	6
	41	14	79.00281	14296.79	-35288.94	1	38075.02	-67.9454	-7.53925E-010	0.0537278	6
	42	14	63.3446	17112.48	-42312.63	1	45642.04	-67.98013	-1.932357E-009	0.0537244	6
	43	15	49.86702	19922.66	-52040.2	1	55723.38	-69.05154	-1.828669E-009	0.0537237	6
	44	15	39.72458	23229.34	-63153.72	1	67290.38	-69.80536	-1.05357E-009	0.0537255	6
	45	15	31.6723	27975.36	-75900.24	1	80891.7	-69.76709	-8.963962E-010	0.0537258	6
	46	16	24.93351	34484.63	-92911.01	1	99104.2	-69.63721	-1.879244E-009	0.0537284	6
	47	16	19.86229	42889.5	-111772	1	119718.3	-69.00703	-2.880401E-009	0.053732	5
	48	16	15.83615	52609.84	-131733.3	1	141850.1	-68.2299	-2.325185E-009	0.0537283	5
	49	17	12.40079	70365.35	-159683.3	1	174499.4	-66.21903	-2.135453E-009	0.0537366	5
	50	17	9.93114	86672	-186814.9	1	205941.4	-65.11126	-3.591954E-010	0.0537299	5
	51	18	7.944915	109114.4	-216817.4	1	242725.7	-63.28595	-6.244916E-010	0.0537364	5
	52	18	6.317385	137167.6	-251390.2	1	286377.3	-61.38152	-1.008046E-009	0.053724	5
	53	19	5.008013	170803.1	-288086	1	334913.8	-59.33674	-1.054558E-009	0.0537401	5
	54	20	3.945707	210765.9	-328437	1	390247.5	-57.31074	-1.446304E-009	0.0537287	5
	55	21	3.158693	252520.1	-366807.8	1	445325	-55.45545	-1.227244E-009	0.0537177	5
	56	23	2.504006	299590	-410795.6	1	508436	-53.89702	-9.306861E-010	0.0537285	5
	57	24	1.998082	348195.7	-455942.3	1	573692.9	-52.63161	-1.163563E-009	0.0537047	5
	58	26	1.584686	403369.3	-509291.4	1	649680.3	-51.62005	-1.156898E-009	0.053675	5
	59	28	1.266892	455476.2	-569499.9	1	729238.4	-51.34778	-1.099006E-009	0.0537037	5
	60	30	0.999041	518674.5	-641897	1	825260.6	-51.06062	-1.050356E-009	0.0537288	5
