EXPLAIN
TAG	EISPOT
TITLE	LABEL	Potentiostatic EIS	Test &Identifier
DATE	LABEL	11/7/2019	Date
TIME	LABEL	8:51:04	Time
NOTES	NOTES	2	&Notes...
	
	
PSTAT	PSTAT	REF600-11020	Potentiostat
VDC	POTEN	0.00000E+000	T	DC &Voltage (V)
FREQINIT	QUANT	1.00000E+006	Initial Fre&q. (Hz)
FREQFINAL	QUANT	1.00000E+000	Final Fre&q. (Hz)
PTSPERDEC	QUANT	1.00000E+001	Points/&decade
VAC	QUANT	2.50000E+001	AC &Voltage (mV rms)
AREA	QUANT	1.00000E-002	&Area (cm^2)
CONDIT	TWOPARAM	T	5.00000E+000	0.00000E+000	Conditionin&g	Time(s)	E(V)
DELAY	TWOPARAM	T	5.00000E+000	0.00000E+000	Init. De&lay	Time(s)	Stab.(mV/s)
SPEED	SELECTOR	1	&Optimize for:
ZGUESS	QUANT	1.00000E+005	E&stimated Z (ohms)
OCVCURVE	TABLE	19
	Pt	T	Vf	Vm	Ach	Over
	#	s	V vs. Ref.	V	V	bits
	0	0.258333	5.58333E-003	5.58333E-003	5.76299E-004	...........
	1	0.516667	5.58220E-003	5.52412E-003	5.76666E-004	...........
	2	0.775	5.57579E-003	5.49599E-003	5.71032E-004	...........
	3	1.03333	5.55944E-003	5.46926E-003	5.74599E-004	...........
	4	1.29167	5.53388E-003	5.45596E-003	5.68832E-004	...........
	5	1.55	5.50547E-003	5.44836E-003	5.76232E-004	...........
	6	1.80833	5.48089E-003	5.45057E-003	5.71032E-004	...........
	7	2.06667	5.46383E-003	5.45524E-003	5.69066E-004	...........
	8	2.325	5.45498E-003	5.46200E-003	5.68866E-004	...........
	9	2.58333	5.45309E-003	5.47089E-003	5.72566E-004	...........
	10	2.84167	5.45626E-003	5.48535E-003	5.72166E-004	...........
	11	3.1	5.46305E-003	5.49771E-003	5.77466E-004	...........
	12	3.35833	5.47271E-003	5.51703E-003	5.79166E-004	...........
	13	3.61667	5.48480E-003	5.52884E-003	5.81265E-004	...........
	14	3.875	5.49871E-003	5.54700E-003	5.76632E-004	...........
	15	4.13333	5.51362E-003	5.55700E-003	5.73199E-004	...........
	16	4.39167	5.52867E-003	5.57394E-003	5.74132E-004	...........
	17	4.65	5.54342E-003	5.58882E-003	5.79399E-004	...........
	18	4.90833	5.55810E-003	5.60940E-003	5.78132E-004	...........
EOC	QUANT	0.0055581	Open Circuit (V)
PSTATMODEL	IQUANT	4	Pstat Model
PSTATSECTION	LABEL	REF600-11020	Pstat Section
PSTATSERIALNO	LABEL	11020	Pstat Serial Number
CTRLMODE	IQUANT	1	Control Mode
IESTAB	IQUANT	0	I/E Stability
CASPEED	IQUANT	1	Control Amp Speed
CONVENTION	IQUANT	1	Current Convention
ICHRANGE	IQUANT	2	Ich Range
ICHRANGEMODE	TOGGLE	F	Ich Auto Range
ICHOFFSETENABLE	TOGGLE	T	Ich Offset Enable
ICHOFFSET	QUANT	0	Ich Offset (V)
ICHFILTER	IQUANT	3	Ich Filter
VCHRANGE	IQUANT	2	Vch Range
VCHRANGEMODE	TOGGLE	F	Vch Auto Range
VCHOFFSETENABLE	TOGGLE	T	Vch Offset Enable
VCHOFFSET	QUANT	0	Vch Offset (V)
VCHFILTER	IQUANT	3	Vch Filter
ACHRANGE	IQUANT	2	Ach Range
ACHOFFSETENABLE	TOGGLE	F	Ach Offset Enable
ACHOFFSET	QUANT	0	Ach Offset (V)
ACHFILTER	IQUANT	3	Ach Filter
IERANGELOWERLIMIT	IQUANT	1	I/E Range Lower Limit
IERANGEMODE	TOGGLE	F	I/E AutoRange
IERANGE	IQUANT	5	I/E Range
POSFEEDENABLE	TOGGLE	F	Positive Feedback IR Comp
POSFEEDRESISTANCE	QUANT	0	Positive Feedback Resistance (ohm)
ACHSELECT	IQUANT	0	Ach Select
CABLEID	IQUANT	14	Cable ID
DCCALDATE	LABEL	8/19/2019	DC Calibration Date
ACCALDATE	LABEL	8/19/2019	AC Calibration Date
THERMOSELECT	IQUANT	1	Thermo Select
FRAMEWORKVERSION	QUANT	6.33	Framework Version
INSTRUMENTVERSION	LABEL	3.50	Instrument Version
ZCURVE	TABLE
	Pt	Time	Freq	Zreal	Zimag	Zsig	Zmod	Zphz	Idc	Vdc	IERange
	#	s	Hz	ohm	ohm	V	ohm	°	A	V	#
	0	1	1000078	1923.672	-996.137	1	2166.288	-27.37652	6.400537E-006	0.0076047	8
	1	3	794390.6	2109.974	-916.8367	1	2300.561	-23.48616	-5.013796E-006	0.0075333	8
	2	4	630984.4	2251.276	-819.3871	1	2395.754	-19.99977	-1.367528E-006	0.0073853	8
	3	5	501234.4	2367.348	-717.0549	1	2473.561	-16.85123	-7.787291E-007	0.0076568	8
	4	7	398109.4	2455.717	-629.3197	1	2535.072	-14.3737	-5.064552E-006	0.0074791	8
	5	8	316265.6	2531.662	-546.4722	1	2589.97	-12.1807	7.901958E-006	0.0062388	8
	6	9	251203.1	2581.715	-486.3525	1	2627.126	-10.66855	2.507714E-006	0.0064154	8
	7	11	199546.9	2613.579	-424.1109	1	2647.766	-9.217165	-4.875491E-006	0.0074195	8
	8	12	158578.1	2671.158	-366.2455	1	2696.149	-7.807208	-1.968231E-006	0.0071856	8
	9	13	125953.1	2705.942	-297.853	1	2722.286	-6.281469	1.248344E-006	0.00844	7
	10	15	100078.1	2734.549	-282.5403	1	2749.107	-5.899007	1.096825E-006	0.0058745	7
	11	16	79453.13	2752.96	-275.6336	1	2766.724	-5.717551	4.025711E-007	0.0075168	7
	12	17	63140.62	2778.763	-277.1348	1	2792.549	-5.695455	1.162212E-007	0.0056446	7
	13	19	50203.12	2802.965	-286.5194	1	2817.571	-5.836509	8.371898E-007	0.0067711	7
	14	20	39890.62	2831.673	-298.6758	1	2847.381	-6.021111	-1.052773E-006	0.0075283	7
	15	21	31640.63	2862.326	-318.3679	1	2879.978	-6.346748	1.082237E-006	0.0055362	7
	16	23	25171.88	2893.846	-343.4596	1	2914.156	-6.768556	-1.22326E-006	0.008108	7
	17	24	20015.62	2929.497	-374.5542	1	2953.344	-7.286086	6.270409E-007	0.0071776	7
	18	26	15890.62	2968.372	-414.0484	1	2997.11	-7.940763	-3.069676E-007	0.006153	7
	19	27	12609.37	3010.705	-463.1549	1	3046.122	-8.745595	-3.07027E-007	0.0061454	7
	20	28	10078.13	3055.231	-516.4588	1	3098.575	-9.59462	-1.22573E-006	0.0080972	7
	21	30	8015.625	3102.983	-582.0971	1	3157.109	-10.62479	1.102698E-006	0.0058541	7
	22	31	6328.125	3165.93	-667.7632	1	3235.587	-11.91034	-8.941414E-007	0.0086843	7
	23	32	5015.625	3230.862	-763.1298	1	3319.764	-13.2897	1.144211E-007	0.0056392	7
	24	34	3984.375	3295.822	-881.4828	1	3411.665	-14.97356	-1.054737E-006	0.0075286	7
	25	35	3170.956	3375.293	-1004.453	1	3521.581	-16.57247	-3.042923E-007	0.0061477	7
	26	36	2527.573	3457.824	-1161.604	1	3647.722	-18.56901	7.719059E-007	0.0052265	7
	27	38	1976.103	3552.939	-1361.869	1	3805.005	-20.97222	-1.052519E-006	0.0075234	7
	28	39	1577.524	3657.239	-1593.785	1	3989.429	-23.54705	6.312477E-007	0.0071743	7
	29	41	1265.625	3753.578	-1849.095	1	4184.316	-26.22588	-1.224949E-006	0.0080917	7
	30	42	998.264	3870.456	-2187.046	1	4445.627	-29.46913	-8.930374E-007	0.008684	7
	31	43	796.875	3993.17	-2587.088	1	4757.985	-32.93832	-7.303316E-007	0.0068343	7
	32	45	627.7902	4125.417	-3113.359	1	5168.372	-37.04103	1.020463E-006	0.0062757	7
	33	46	505.5147	4264.021	-3694.828	1	5642.13	-40.90934	-1.224655E-006	0.0080925	7
	34	47	397.9953	4430.745	-4500.333	1	6315.417	-45.44642	6.166986E-009	0.0070211	7
	35	49	315.5048	4616.021	-5474.105	1	7160.55	-49.86085	3.278682E-009	0.007027	7
	36	50	252.4038	4827.04	-6633.605	1	8203.965	-53.95794	8.223147E-009	0.0070138	7
	37	51	198.6229	5104.511	-8178.55	1	9640.78	-58.03032	6.533043E-009	0.0070241	7
	38	53	158.3615	5431.738	-9992.24	1	11373.15	-61.47168	1.35315E-009	0.0069647	6
	39	54	125.558	5851.71	-12282.57	1	13605.3	-64.52576	3.45828E-010	0.0069649	6
	40	55	100.4464	6364.773	-14995.59	1	16290.43	-67.00155	1.842098E-009	0.0069601	6
	41	57	79.00281	7101.907	-18587.03	1	19897.61	-69.08867	1.506295E-009	0.0069579	6
	42	58	63.3446	8107.639	-22661.27	1	24067.96	-70.31405	3.638974E-010	0.0069622	6
	43	60	49.86702	9041.476	-28048.77	1	29470.02	-72.13336	1.162338E-009	0.0069519	6
	44	61	39.72458	10582.98	-34141.83	1	35744.42	-72.77808	7.628692E-010	0.0069659	6
	45	62	31.6723	12507.63	-41682.84	1	43518.96	-73.29725	-5.841091E-011	0.0069618	6
	46	64	24.93351	15128.03	-51211.55	1	53399.25	-73.54272	5.138944E-010	0.0069574	6
	47	65	19.86229	18496.59	-62205.75	1	64897.45	-73.44039	1.071309E-009	0.006958	6
	48	66	15.83615	22624.32	-75161.92	1	78493.15	-73.2478	-3.725099E-011	0.0069711	6
	49	68	12.40079	28519.41	-92660.36	1	96950	-72.89245	8.616781E-010	0.0069667	6
	50	69	9.93114	35324.61	-111002.6	1	116487.8	-72.34724	5.209773E-010	0.0069587	5
	51	71	7.944915	43891.85	-133339	1	140377.3	-71.77975	5.260692E-010	0.0069614	5
	52	72	6.317385	55629.46	-159197.8	1	168637.4	-70.73875	3.42194E-010	0.0069593	5
	53	74	5.008013	70201.14	-190475	1	202999.8	-69.76821	1.035103E-010	0.0069662	5
	54	77	3.945707	88998.65	-227872.7	1	244635.9	-68.66622	8.531238E-011	0.0069653	5
	55	80	3.158693	110837.1	-268158.9	1	290162.1	-67.54341	1.593922E-010	0.0069544	5
	56	83	2.504006	137996.7	-316250.7	1	345047.3	-66.42584	2.360217E-010	0.006969	5
	57	86	1.998082	169408.6	-369194.4	1	406206.6	-65.3515	4.05881E-010	0.0069549	5
	58	89	1.584686	209496.5	-432037.3	1	480151	-64.13108	1.240798E-010	0.0069045	5
	59	92	1.266892	252622.6	-500136.6	1	560316.6	-63.20133	3.375875E-010	0.0069492	5
	60	97	0.999041	307823.3	-584686.8	1	660767.6	-62.23429	-1.406699E-010	0.0069453	5
