EXPLAIN
TAG	EISPOT
TITLE	LABEL	Potentiostatic EIS	Test &Identifier
DATE	LABEL	11/15/2019	Date
TIME	LABEL	9:32:42	Time
NOTES	NOTES	4	&Notes...
	
	
	
	
PSTAT	PSTAT	REF600-11020	Potentiostat
VDC	POTEN	0.00000E+000	T	DC &Voltage (V)
FREQINIT	QUANT	1.00000E+006	Initial Fre&q. (Hz)
FREQFINAL	QUANT	1.00000E+000	Final Fre&q. (Hz)
PTSPERDEC	QUANT	1.00000E+001	Points/&decade
VAC	QUANT	2.50000E+001	AC &Voltage (mV rms)
AREA	QUANT	1.00000E-002	&Area (cm^2)
CONDIT	TWOPARAM	T	5.00000E+000	0.00000E+000	Conditionin&g	Time(s)	E(V)
DELAY	TWOPARAM	T	5.00000E+000	0.00000E+000	Init. De&lay	Time(s)	Stab.(mV/s)
SPEED	SELECTOR	0	&Optimize for:
ZGUESS	QUANT	1.00000E+005	E&stimated Z (ohms)
OCVCURVE	TABLE	19
	Pt	T	Vf	Vm	Ach	Over
	#	s	V vs. Ref.	V	V	bits
	0	0.258333	3.30370E-003	3.30370E-003	5.46199E-004	...........
	1	0.516667	3.30033E-003	3.12709E-003	5.49066E-004	...........
	2	0.775	3.27990E-003	2.97514E-003	5.42333E-004	...........
	3	1.03333	3.22343E-003	2.84620E-003	5.46133E-004	...........
	4	1.29167	3.12588E-003	2.73117E-003	5.46066E-004	...........
	5	1.55	3.00224E-003	2.62142E-003	5.43566E-004	...........
	6	1.80833	2.87280E-003	2.52316E-003	5.39733E-004	...........
	7	2.06667	2.75006E-003	2.43091E-003	5.44799E-004	...........
	8	2.325	2.63795E-003	2.34391E-003	5.50066E-004	...........
	9	2.58333	2.53584E-003	2.26236E-003	5.49433E-004	...........
	10	2.84167	2.44191E-003	2.19026E-003	5.49833E-004	...........
	11	3.1	2.35478E-003	2.11638E-003	5.46866E-004	...........
	12	3.35833	2.27351E-003	2.04874E-003	5.51999E-004	...........
	13	3.61667	2.19712E-003	1.97991E-003	5.46899E-004	...........
	14	3.875	2.12453E-003	1.91851E-003	5.50399E-004	...........
	15	4.13333	2.05507E-003	1.85757E-003	5.49133E-004	...........
	16	4.39167	1.98859E-003	1.80087E-003	5.51366E-004	...........
	17	4.65	1.92507E-003	1.74237E-003	5.46366E-004	...........
	18	4.90833	1.86426E-003	1.69046E-003	5.44199E-004	...........
EOC	QUANT	0.0018643	Open Circuit (V)
PSTATMODEL	IQUANT	4	Pstat Model
PSTATSECTION	LABEL	REF600-11020	Pstat Section
PSTATSERIALNO	LABEL	11020	Pstat Serial Number
CTRLMODE	IQUANT	1	Control Mode
IESTAB	IQUANT	0	I/E Stability
CASPEED	IQUANT	1	Control Amp Speed
CONVENTION	IQUANT	1	Current Convention
ICHRANGE	IQUANT	2	Ich Range
ICHRANGEMODE	TOGGLE	F	Ich Auto Range
ICHOFFSETENABLE	TOGGLE	T	Ich Offset Enable
ICHOFFSET	QUANT	0	Ich Offset (V)
ICHFILTER	IQUANT	3	Ich Filter
VCHRANGE	IQUANT	2	Vch Range
VCHRANGEMODE	TOGGLE	F	Vch Auto Range
VCHOFFSETENABLE	TOGGLE	T	Vch Offset Enable
VCHOFFSET	QUANT	0	Vch Offset (V)
VCHFILTER	IQUANT	3	Vch Filter
ACHRANGE	IQUANT	2	Ach Range
ACHOFFSETENABLE	TOGGLE	F	Ach Offset Enable
ACHOFFSET	QUANT	0	Ach Offset (V)
ACHFILTER	IQUANT	3	Ach Filter
IERANGELOWERLIMIT	IQUANT	1	I/E Range Lower Limit
IERANGEMODE	TOGGLE	F	I/E AutoRange
IERANGE	IQUANT	4	I/E Range
POSFEEDENABLE	TOGGLE	F	Positive Feedback IR Comp
POSFEEDRESISTANCE	QUANT	0	Positive Feedback Resistance (ohm)
ACHSELECT	IQUANT	0	Ach Select
CABLEID	IQUANT	14	Cable ID
DCCALDATE	LABEL	8/19/2019	DC Calibration Date
ACCALDATE	LABEL	8/19/2019	AC Calibration Date
THERMOSELECT	IQUANT	1	Thermo Select
FRAMEWORKVERSION	QUANT	6.33	Framework Version
INSTRUMENTVERSION	LABEL	3.50	Instrument Version
ZCURVE	TABLE
	Pt	Time	Freq	Zreal	Zimag	Zsig	Zmod	Zphz	Idc	Vdc	IERange
	#	s	Hz	ohm	ohm	V	ohm	°	A	V	#
	0	2	1000078	1838.697	-761.2642	1	1990.057	-22.49072	9.532941E-006	0.0027759	8
	1	2	794390.6	1954.361	-677.0624	1	2068.318	-19.10796	-6.972685E-006	0.0042669	8
	2	2	630984.4	2045.277	-592.2634	1	2129.303	-16.14976	2.409757E-006	0.0038854	8
	3	2	501234.4	2114.154	-516.3578	1	2176.297	-13.72514	-2.0321E-006	0.0031308	8
	4	3	398109.4	2166.704	-442.82	1	2211.492	-11.55075	-1.916808E-006	0.0034846	8
	5	3	316265.6	2209.04	-390.2986	1	2243.255	-10.01975	-2.692349E-006	0.0038736	8
	6	3	251203.1	2237.029	-345.9713	1	2263.625	-8.791516	-2.204693E-007	0.0037526	8
	7	4	199546.9	2266.484	-311.6298	1	2287.808	-7.828784	-3.465534E-006	0.0038447	8
	8	4	158578.1	2291.947	-285.1508	1	2309.617	-7.091969	-2.644769E-006	0.0038599	8
	9	4	125953.1	2325.867	-244.5142	1	2338.685	-6.001357	-1.340955E-006	0.0059784	7
	10	5	100078.1	2343.644	-237.6842	1	2355.666	-5.790939	-5.330893E-007	0.0046774	7
	11	5	79453.13	2363.464	-244.9128	1	2376.12	-5.916131	-9.517793E-007	0.0046992	7
	12	5	63140.62	2385.326	-258.1432	1	2399.254	-6.176588	-1.072094E-006	0.0045686	7
	13	6	50203.12	2409.502	-277.8271	1	2425.467	-6.57743	7.210644E-007	0.003082	7
	14	6	39890.62	2436.373	-300.8058	1	2454.872	-7.038381	3.524423E-007	0.0037072	7
	15	6	31640.63	2466.8	-330.9812	1	2488.906	-7.64198	8.789125E-007	0.0026577	7
	16	6	25171.88	2499.058	-366.8732	1	2525.844	-8.351628	3.534425E-007	0.0037062	7
	17	7	20015.62	2535.055	-410.9042	1	2568.14	-9.206936	1.039976E-007	0.0020985	7
	18	7	15890.62	2575.439	-462.4526	1	2616.63	-10.1797	8.432547E-007	0.0018309	7
	19	7	12609.37	2617.316	-524.0589	1	2669.266	-11.32247	-5.376241E-007	0.0046624	7
	20	8	10078.13	2662.097	-595.1929	1	2727.822	-12.60295	-7.77202E-007	0.0047381	7
	21	8	8015.625	2710.955	-682.6437	1	2795.582	-14.13377	-9.135972E-007	0.0037281	7
	22	8	6328.125	2765.893	-792.4315	1	2877.171	-15.98707	8.437486E-007	0.0018265	7
	23	9	5015.625	2823.309	-922.6984	1	2970.26	-18.09814	-7.779021E-007	0.0047349	7
	24	9	3984.375	2883.801	-1080.547	1	3079.592	-20.54075	-9.120689E-007	0.0037206	7
	25	9	3170.956	2954.221	-1273.068	1	3216.85	-23.31274	-1.075233E-006	0.0045511	7
	26	10	2527.573	3028.927	-1505.393	1	3382.397	-26.42762	-1.075586E-006	0.0045506	7
	27	10	1976.103	3119.683	-1816.007	1	3609.751	-30.20422	-7.784319E-007	0.0047273	7
	28	10	1577.524	3207.384	-2172.744	1	3874.032	-34.11448	-5.359176E-007	0.0046499	7
	29	10	1265.625	3313.721	-2588.243	1	4204.729	-37.99227	-2.47708E-007	0.0044357	7
	30	11	998.264	3438.466	-3151.184	1	4664.012	-42.50372	9.533201E-007	0.0022851	7
	31	11	796.875	3575.649	-3808.195	1	5223.755	-46.80387	9.52965E-007	0.0022822	7
	32	11	627.7902	3761.839	-4662.827	1	5991.109	-51.10437	-9.557804E-007	0.0046746	7
	33	12	505.5147	3955.091	-5635.587	1	6884.954	-54.93858	1.065559E-007	0.0020773	7
	34	12	397.9953	4229.653	-6938.94	1	8126.43	-58.63547	2.301035E-009	0.0032911	7
	35	12	315.5048	4572.817	-8507.795	1	9658.84	-61.74261	2.524794E-009	0.0032927	7
	36	13	252.4038	5000.749	-10354.32	1	11498.67	-64.22119	-8.860734E-011	0.0032268	6
	37	13	198.6229	5597.068	-12774.13	1	13946.53	-66.33907	2.693067E-010	0.0032328	6
	38	13	158.3615	6344.271	-15570.89	1	16813.76	-67.83184	1.624242E-010	0.0032303	6
	39	14	125.558	7335.037	-19043.19	1	20407	-68.93436	2.407705E-010	0.0032297	6
	40	14	100.4464	8580.987	-23076.79	1	24620.55	-69.6026	3.784897E-010	0.0032222	6
	41	14	79.00281	10367.61	-28293.79	1	30133.47	-69.87579	1.157511E-009	0.0032195	6
	42	15	63.3446	12391.36	-33641.21	1	35850.76	-69.7793	-5.867769E-011	0.0032253	6
	43	15	49.86702	15635.25	-40908.61	1	43794.7	-69.08316	-1.15632E-009	0.003228	6
	44	15	39.72458	19427.61	-49254.91	1	52947.88	-68.47424	3.798161E-010	0.0032297	6
	45	16	31.6723	24204.81	-58549.88	1	63355.84	-67.53956	6.684677E-010	0.0032257	6
	46	16	24.93351	30928.96	-69866.52	1	76406.36	-66.12168	6.772244E-011	0.0032209	6
	47	16	19.86229	38701.41	-82021.88	1	90693.92	-64.74007	2.396378E-009	0.0032229	6
	48	17	15.83615	48403.9	-95776.1	1	107312.6	-63.1886	1.570863E-009	0.0032311	5
	49	17	12.40079	60145.39	-110963	1	126215.1	-61.54093	-2.438959E-010	0.0032286	5
	50	17	9.93114	72801.92	-126867.3	1	146271.7	-60.15093	1.362723E-009	0.0032273	5
	51	18	7.944915	87284.07	-144498.1	1	168814.2	-58.86593	1.384537E-009	0.0032287	5
	52	18	6.317385	104541.4	-163856.7	1	194365.4	-57.46192	7.961621E-010	0.0032258	5
	53	19	5.008013	123432.1	-186136.4	1	223343.4	-56.45056	1.220875E-010	0.0032288	5
	54	20	3.945707	144363.5	-212433.6	1	256844	-55.80114	4.928471E-010	0.0032329	5
	55	22	3.158693	165847.7	-240224.5	1	291913.2	-55.37933	1.05842E-011	0.0032322	5
	56	23	2.504006	190224.8	-274824.3	1	334236.3	-55.31022	-8.508276E-011	0.0032249	5
	57	25	1.998082	216680.5	-313571.1	1	381152.5	-55.35518	1.922597E-010	0.003262	5
	58	26	1.584686	247627.6	-362242.4	1	438792.7	-55.64363	2.157435E-010	0.0032762	5
	59	28	1.266892	280925.1	-416524.6	1	502405.8	-56.0023	1.432649E-010	0.0032408	5
	60	30	0.999041	322427.4	-483656.2	1	581276.8	-56.31076	1.567956E-010	0.0032122	5
