EXPLAIN
TAG	EISPOT
TITLE	LABEL	Potentiostatic EIS	Test &Identifier
DATE	LABEL	9/24/2019	Date
TIME	LABEL	8:19:31	Time
NOTES	NOTES	1	&Notes...
	
PSTAT	PSTAT	REF600-11020	Potentiostat
VDC	POTEN	0.00000E+000	T	DC &Voltage (V)
FREQINIT	QUANT	1.00000E+006	Initial Fre&q. (Hz)
FREQFINAL	QUANT	1.00000E+000	Final Fre&q. (Hz)
PTSPERDEC	QUANT	1.00000E+001	Points/&decade
VAC	QUANT	2.50000E+001	AC &Voltage (mV rms)
AREA	QUANT	1.00000E-002	&Area (cm^2)
CONDIT	TWOPARAM	T	5.00000E+000	0.00000E+000	Conditionin&g	Time(s)	E(V)
DELAY	TWOPARAM	T	5.00000E+000	0.00000E+000	Init. De&lay	Time(s)	Stab.(mV/s)
SPEED	SELECTOR	1	&Optimize for:
ZGUESS	QUANT	1.00000E+004	E&stimated Z (ohms)
OCVCURVE	TABLE	19
	Pt	T	Vf	Vm	Ach	Over
	#	s	V vs. Ref.	V	V	bits
	0	0.258333	7.32484E-003	7.32484E-003	5.47799E-004	...........
	1	0.516667	7.32854E-003	7.51849E-003	5.47099E-004	...........
	2	0.775	7.35129E-003	7.70353E-003	5.48766E-004	...........
	3	1.03333	7.41586E-003	7.88806E-003	5.46933E-004	...........
	4	1.29167	7.53215E-003	8.06519E-003	5.53199E-004	...........
	5	1.55	7.68836E-003	8.23581E-003	5.56966E-004	...........
	6	1.80833	7.86376E-003	8.40221E-003	5.52966E-004	...........
	7	2.06667	8.04244E-003	8.56260E-003	5.50599E-004	...........
	8	2.325	8.21676E-003	8.71830E-003	5.52999E-004	...........
	9	2.58333	8.38468E-003	8.86865E-003	5.53499E-004	...........
	10	2.84167	8.54626E-003	9.00778E-003	5.55333E-004	...........
	11	3.1	8.70163E-003	9.14457E-003	5.51966E-004	...........
	12	3.35833	8.85060E-003	9.27395E-003	5.53799E-004	...........
	13	3.61667	8.99319E-003	9.40256E-003	5.54966E-004	...........
	14	3.875	9.13006E-003	9.52865E-003	5.55433E-004	...........
	15	4.13333	9.26224E-003	9.64782E-003	5.57599E-004	...........
	16	4.39167	9.39050E-003	9.76332E-003	5.57499E-004	...........
	17	4.65	9.51496E-003	9.87723E-003	5.52066E-004	...........
	18	4.90833	9.63545E-003	9.98235E-003	5.48233E-004	...........
EOC	QUANT	0.0096354	Open Circuit (V)
PSTATMODEL	IQUANT	4	Pstat Model
PSTATSECTION	LABEL	REF600-11020	Pstat Section
PSTATSERIALNO	LABEL	11020	Pstat Serial Number
CTRLMODE	IQUANT	1	Control Mode
IESTAB	IQUANT	0	I/E Stability
CASPEED	IQUANT	1	Control Amp Speed
CONVENTION	IQUANT	1	Current Convention
ICHRANGE	IQUANT	2	Ich Range
ICHRANGEMODE	TOGGLE	F	Ich Auto Range
ICHOFFSETENABLE	TOGGLE	T	Ich Offset Enable
ICHOFFSET	QUANT	0	Ich Offset (V)
ICHFILTER	IQUANT	3	Ich Filter
VCHRANGE	IQUANT	2	Vch Range
VCHRANGEMODE	TOGGLE	F	Vch Auto Range
VCHOFFSETENABLE	TOGGLE	T	Vch Offset Enable
VCHOFFSET	QUANT	0	Vch Offset (V)
VCHFILTER	IQUANT	3	Vch Filter
ACHRANGE	IQUANT	2	Ach Range
ACHOFFSETENABLE	TOGGLE	F	Ach Offset Enable
ACHOFFSET	QUANT	0	Ach Offset (V)
ACHFILTER	IQUANT	3	Ach Filter
IERANGELOWERLIMIT	IQUANT	1	I/E Range Lower Limit
IERANGEMODE	TOGGLE	F	I/E AutoRange
IERANGE	IQUANT	6	I/E Range
POSFEEDENABLE	TOGGLE	F	Positive Feedback IR Comp
POSFEEDRESISTANCE	QUANT	0	Positive Feedback Resistance (ohm)
ACHSELECT	IQUANT	0	Ach Select
CABLEID	IQUANT	14	Cable ID
DCCALDATE	LABEL	8/19/2019	DC Calibration Date
ACCALDATE	LABEL	8/19/2019	AC Calibration Date
THERMOSELECT	IQUANT	1	Thermo Select
FRAMEWORKVERSION	QUANT	6.33	Framework Version
INSTRUMENTVERSION	LABEL	3.50	Instrument Version
ZCURVE	TABLE
	Pt	Time	Freq	Zreal	Zimag	Zsig	Zmod	Zphz	Idc	Vdc	IERange
	#	s	Hz	ohm	ohm	V	ohm	°	A	V	#
	0	2	1000078	1957.47	-928.2396	1	2166.406	-25.37048	-2.464817E-006	0.0125271	8
	1	3	794390.6	2113.81	-832.4194	1	2271.808	-21.49455	-2.364002E-007	0.0119679	8
	2	4	630984.4	2240.011	-734.2516	1	2357.281	-18.14859	-3.168624E-006	0.0122925	8
	3	6	501234.4	2329.47	-630.9234	1	2413.399	-15.15464	2.558383E-006	0.0109724	8
	4	7	398109.4	2406.212	-544.9104	1	2467.141	-12.75997	7.692368E-007	0.0112172	8
	5	8	316265.6	2461.279	-473.7633	1	2506.46	-10.89541	9.341408E-007	0.0111901	8
	6	10	251203.1	2503.291	-405.873	1	2535.98	-9.209554	-2.38872E-006	0.0118255	8
	7	11	199546.9	2539.57	-355.2192	1	2564.292	-7.962518	9.832511E-007	0.0111791	8
	8	12	158578.1	2565.41	-320.8554	1	2585.397	-7.128956	-5.87416E-007	0.0116281	8
	9	14	125953.1	2602.972	-261.5156	1	2616.076	-5.737147	-6.081111E-007	0.0125447	7
	10	15	100078.1	2623.698	-240.5412	1	2634.701	-5.238247	-3.329137E-008	0.011322	7
	11	16	79453.13	2645.164	-233.8483	1	2655.481	-5.052153	-3.259138E-008	0.0113209	7
	12	18	63140.62	2667.332	-232.3259	1	2677.431	-4.977926	3.454129E-008	0.0112591	7
	13	19	50203.12	2691.387	-235.2517	1	2701.649	-4.995477	-1.607964E-008	0.0112934	7
	14	21	39890.62	2715.143	-242.004	1	2725.907	-5.093382	3.490233E-008	0.011264	7
	15	22	31640.63	2740.316	-252.6851	1	2751.942	-5.268357	-1.777668E-008	0.0113485	7
	16	23	25171.88	2765.544	-267.813	1	2778.481	-5.531229	3.490866E-008	0.0112621	7
	17	25	20015.62	2791.99	-289.7351	1	2806.983	-5.92459	-3.009549E-008	0.0113899	7
	18	26	15890.62	2818.254	-318.3814	1	2836.181	-6.445445	-5.368741E-009	0.011346	7
	19	27	12609.37	2846.97	-355.3318	1	2869.059	-7.114326	1.058814E-008	0.0113873	7
	20	29	10078.13	2875.08	-399.6545	1	2902.724	-7.913767	-3.835707E-009	0.0113447	7
	21	30	8015.625	2905.525	-456.8899	1	2941.229	-8.936505	1.394171E-008	0.0112365	7
	22	31	6328.125	2940.105	-530.6742	1	2987.613	-10.23144	-3.078159E-008	0.0113164	7
	23	33	5015.625	2976.775	-620.4158	1	3040.741	-11.77298	-4.834488E-008	0.0113721	7
	24	34	3984.375	3017.241	-730.3251	1	3104.371	-13.60677	-2.64747E-008	0.0112995	7
	25	35	3170.956	3062.66	-864.455	1	3182.322	-15.76205	-4.740573E-008	0.0114623	7
	26	37	2527.573	3112.559	-1026.327	1	3277.403	-18.24932	-5.034046E-008	0.0113695	7
	27	38	1976.103	3172.559	-1243.899	1	3407.699	-21.40918	-3.042681E-008	0.0113798	7
	28	40	1577.524	3236.921	-1486.143	1	3561.781	-24.66091	1.483093E-008	0.011224	7
	29	41	1265.625	3306.46	-1780.068	1	3755.172	-28.29627	-1.583422E-008	0.0113431	7
	30	42	998.264	3391.112	-2167.711	1	4024.75	-32.58807	-3.046327E-008	0.0113149	7
	31	44	796.875	3484.936	-2621.689	1	4360.967	-36.95384	-1.50169E-008	0.0112847	7
	32	45	627.7902	3602.448	-3219.195	1	4831.236	-41.7844	9.229656E-009	0.0113785	7
	33	46	505.5147	3736.332	-3888.798	1	5392.858	-46.14549	6.140132E-008	0.0112013	7
	34	48	397.9953	3907.505	-4789.828	1	6181.509	-50.7927	6.913617E-009	0.0113269	7
	35	49	315.5048	4119.115	-5878.318	1	7177.864	-54.97991	6.052798E-009	0.0113288	7
	36	50	252.4038	4376.593	-7163.117	1	8394.332	-58.57549	7.349567E-009	0.0113266	7
	37	52	198.6229	4729.806	-8858.763	1	10042.35	-61.90168	7.298966E-009	0.0113317	7
	38	53	158.3615	5163.063	-10830.37	1	11998.08	-64.51188	1.424604E-009	0.0112722	6
	39	55	125.558	5737.142	-13295.58	1	14480.58	-66.65944	9.228183E-010	0.0112693	6
	40	56	100.4464	6453.66	-16186.06	1	17425.22	-68.26198	1.756149E-009	0.0112673	6
	41	57	79.00281	7445.411	-19921.81	1	21267.65	-69.5077	1.547959E-009	0.0112604	6
	42	59	63.3446	8503.996	-24075.06	1	25532.86	-70.54533	3.37321E-010	0.0112596	6
	43	60	49.86702	10496.36	-29544.49	1	31353.64	-70.44125	5.239725E-010	0.0112551	6
	44	62	39.72458	12540.15	-35841.81	1	37972.23	-70.71634	4.362665E-010	0.0112687	6
	45	63	31.6723	15195.14	-43355.14	1	45940.84	-70.68542	-1.353939E-011	0.0112601	6
	46	64	24.93351	18975.87	-52487.11	1	55812	-70.12336	3.604367E-010	0.0112556	6
	47	66	19.86229	23523.06	-62833.12	1	67091.99	-69.47543	8.033046E-010	0.0112609	6
	48	67	15.83615	29751.99	-74740.69	1	80444.71	-68.29401	-6.915166E-010	0.0112627	6
	49	68	12.40079	37022.1	-89883.73	1	97209.7	-67.61378	4.719639E-010	0.0112695	6
	50	70	9.93114	45521.71	-106027.7	1	115386.7	-66.76431	2.420471E-010	0.0112744	5
	51	71	7.944915	55990.36	-123757.9	1	135834.3	-65.65714	1.479902E-009	0.0112659	5
	52	73	6.317385	69244.13	-145371.8	1	161020.9	-64.5304	4.427506E-010	0.0112843	5
	53	75	5.008013	85289.16	-170135.1	1	190316	-63.37527	5.0182E-010	0.0112679	5
	54	78	3.945707	105217.5	-199231.9	1	225308.9	-62.16076	3.962161E-010	0.0112653	5
	55	80	3.158693	127791.2	-229823.2	1	262962.5	-60.92413	-1.572639E-011	0.0112707	5
	56	84	2.504006	155444.1	-265200.9	1	307399.4	-59.62386	3.796896E-010	0.0112612	5
	57	86	1.998082	186528.9	-303070.9	1	355872.2	-58.38924	-2.145953E-010	0.0113007	5
	58	90	1.584686	222781.6	-346403.9	1	411858.4	-57.25385	2.160964E-010	0.0112861	5
	59	93	1.266892	263935.2	-391841.3	1	472441.9	-56.03671	-1.515043E-010	0.0113117	5
	60	97	0.999041	310787.7	-445234.2	1	542975.6	-55.08372	1.748307E-011	0.0112309	5
