EXPLAIN
TAG	EISPOT
TITLE	LABEL	Potentiostatic IDE	Test &Identifier
DATE	LABEL	9/4/2019	Date
TIME	LABEL	12:48:52	Time
NOTES	NOTES	1	&Notes...
	
PSTAT	PSTAT	REF600-11020	Potentiostat
VDC	POTEN	0.00000E+000	T	DC &Voltage (V)
FREQINIT	QUANT	1.00000E+006	Initial Fre&q. (Hz)
FREQFINAL	QUANT	1.00000E+000	Final Fre&q. (Hz)
PTSPERDEC	QUANT	1.00000E+001	Points/&decade
VAC	QUANT	2.50000E+001	AC &Voltage (mV rms)
AREA	QUANT	1.00000E-002	&Area (cm^2)
CONDIT	TWOPARAM	T	5.00000E+000	0.00000E+000	Conditionin&g	Time(s)	E(V)
DELAY	TWOPARAM	T	5.00000E+000	0.00000E+000	Init. De&lay	Time(s)	Stab.(mV/s)
SPEED	SELECTOR	1	&Optimize for:
ZGUESS	QUANT	1.00000E+007	E&stimated Z (ohms)
OCVCURVE	TABLE	19
	Pt	T	Vf	Vm	Ach	Over
	#	s	V vs. Ref.	V	V	bits
	0	0.258333	5.06382E-002	5.06382E-002	5.70932E-004	...........
	1	0.516667	5.06370E-002	5.05733E-002	5.72966E-004	...........
	2	0.775	5.06314E-002	5.06188E-002	5.69066E-004	...........
	3	1.03333	5.06215E-002	5.06124E-002	5.70166E-004	...........
	4	1.29167	5.06135E-002	5.06462E-002	5.70066E-004	...........
	5	1.55	5.06154E-002	5.07414E-002	5.72932E-004	...........
	6	1.80833	5.06347E-002	5.08413E-002	5.73432E-004	...........
	7	2.06667	5.06785E-002	5.09606E-002	5.77999E-004	...........
	8	2.325	5.07499E-002	5.10997E-002	5.73632E-004	...........
	9	2.58333	5.08460E-002	5.12316E-002	5.74966E-004	...........
	10	2.84167	5.09602E-002	5.13335E-002	5.64566E-004	...........
	11	3.1	5.10838E-002	5.14644E-002	5.69466E-004	...........
	12	3.35833	5.12092E-002	5.16175E-002	5.68432E-004	...........
	13	3.61667	5.13344E-002	5.16806E-002	5.69032E-004	...........
	14	3.875	5.14597E-002	5.19021E-002	5.66932E-004	...........
	15	4.13333	5.15882E-002	5.20614E-002	5.67299E-004	...........
	16	4.39167	5.17273E-002	5.22187E-002	5.65766E-004	...........
	17	4.65	5.18796E-002	5.23488E-002	5.71332E-004	...........
	18	4.90833	5.20380E-002	5.25203E-002	5.74799E-004	...........
EOC	QUANT	0.052038	Open Circuit (V)
PSTATMODEL	IQUANT	4	Pstat Model
PSTATSECTION	LABEL	REF600-11020	Pstat Section
PSTATSERIALNO	LABEL	11020	Pstat Serial Number
CTRLMODE	IQUANT	1	Control Mode
IESTAB	IQUANT	0	I/E Stability
CASPEED	IQUANT	1	Control Amp Speed
CONVENTION	IQUANT	1	Current Convention
ICHRANGE	IQUANT	2	Ich Range
ICHRANGEMODE	TOGGLE	F	Ich Auto Range
ICHOFFSETENABLE	TOGGLE	T	Ich Offset Enable
ICHOFFSET	QUANT	0	Ich Offset (V)
ICHFILTER	IQUANT	3	Ich Filter
VCHRANGE	IQUANT	2	Vch Range
VCHRANGEMODE	TOGGLE	F	Vch Auto Range
VCHOFFSETENABLE	TOGGLE	T	Vch Offset Enable
VCHOFFSET	QUANT	0	Vch Offset (V)
VCHFILTER	IQUANT	3	Vch Filter
ACHRANGE	IQUANT	2	Ach Range
ACHOFFSETENABLE	TOGGLE	F	Ach Offset Enable
ACHOFFSET	QUANT	0	Ach Offset (V)
ACHFILTER	IQUANT	3	Ach Filter
IERANGELOWERLIMIT	IQUANT	1	I/E Range Lower Limit
IERANGEMODE	TOGGLE	F	I/E AutoRange
IERANGE	IQUANT	3	I/E Range
POSFEEDENABLE	TOGGLE	F	Positive Feedback IR Comp
POSFEEDRESISTANCE	QUANT	0	Positive Feedback Resistance (ohm)
ACHSELECT	IQUANT	0	Ach Select
CABLEID	IQUANT	14	Cable ID
DCCALDATE	LABEL	8/19/2019	DC Calibration Date
ACCALDATE	LABEL	8/19/2019	AC Calibration Date
THERMOSELECT	IQUANT	1	Thermo Select
FRAMEWORKVERSION	QUANT	6.33	Framework Version
INSTRUMENTVERSION	LABEL	3.50	Instrument Version
ZCURVE	TABLE
	Pt	Time	Freq	Zreal	Zimag	Zsig	Zmod	Zphz	Idc	Vdc	IERange
	#	s	Hz	ohm	ohm	V	ohm	°	A	V	#
	0	2	1000078	2295.025	-1705.965	1	2859.626	-36.6246	1.081285E-005	0.0539852	8
	1	3	794390.6	2613.917	-1612.488	1	3071.266	-31.66985	1.294993E-005	0.0530291	8
	2	5	630984.4	2904.442	-1498.973	1	3268.44	-27.2981	1.067873E-005	0.0529529	8
	3	6	501234.4	3136.189	-1355.996	1	3416.783	-23.38223	1.110825E-005	0.0524604	8
	4	8	398109.4	3317.44	-1204.258	1	3529.256	-19.95132	9.812187E-006	0.0531574	8
	5	9	316265.6	3472.928	-1053.058	1	3629.071	-16.86831	1.118047E-005	0.0528656	8
	6	11	251203.1	3579.029	-957.348	1	3704.856	-14.97535	1.175695E-005	0.0529009	8
	7	12	199546.9	3663.11	-867.2042	1	3764.361	-13.31899	1.157722E-005	0.0527783	8
	8	14	158578.1	3728.025	-796.4218	1	3812.146	-12.05889	1.017167E-005	0.053188	8
	9	16	125953.1	3809.704	-751.5322	1	3883.124	-11.15933	4.162029E-007	0.0540531	7
	10	17	100078.1	3856.918	-721.0777	1	3923.744	-10.5896	9.279944E-007	0.0532911	7
	11	18	79453.13	3911.351	-725.768	1	3978.116	-10.51192	9.071697E-007	0.0533604	7
	12	20	63140.62	3967.414	-756.697	1	4038.931	-10.79822	9.071088E-007	0.0533335	7
	13	21	50203.12	4027.765	-806.5089	1	4107.718	-11.32301	9.076323E-007	0.053343	7
	14	22	39890.62	4091.537	-876.6626	1	4184.401	-12.09348	9.16035E-007	0.0533447	7
	15	24	31640.63	4163.389	-973.036	1	4275.582	-13.15462	9.550513E-007	0.0533077	7
	16	25	25171.88	4251.047	-1095.494	1	4389.933	-14.45069	9.170117E-007	0.0533206	7
	17	26	20015.62	4337.471	-1246.997	1	4513.165	-16.03963	9.187681E-007	0.0533606	7
	18	28	15890.62	4440.801	-1433.094	1	4666.313	-17.88545	9.18379E-007	0.0533178	7
	19	29	12609.37	4566.266	-1655.945	1	4857.256	-19.93304	9.269146E-007	0.0532824	7
	20	30	10078.13	4706.787	-1913.848	1	5081.009	-22.12738	9.283617E-007	0.0532906	7
	21	32	8015.625	4866.372	-2231.292	1	5353.526	-24.63204	9.44292E-007	0.0532715	7
	22	33	6328.125	5062.946	-2612.286	1	5697.145	-27.292	9.173773E-007	0.0533229	7
	23	34	5015.625	5286.787	-3069.57	1	6113.294	-30.13995	9.332467E-007	0.0533209	7
	24	36	3984.375	5546.93	-3600.891	1	6613.233	-32.99036	9.31636E-007	0.0533196	7
	25	37	3170.956	5848.057	-4227.404	1	7216.004	-35.86216	9.979825E-007	0.0532023	7
	26	38	2527.573	6214.742	-4958.409	1	7950.398	-38.58448	9.222009E-007	0.0533662	7
	27	40	1976.103	6653.345	-5904.746	1	8895.675	-41.58858	9.367006E-007	0.0532853	7
	28	41	1577.524	7118.703	-6949.202	1	9948.23	-44.30969	8.957571E-007	0.0533779	7
	29	42	1265.625	7692.079	-8120.328	1	11185.16	-46.55137	9.512331E-007	0.0533004	7
	30	44	998.264	8401.067	-9645.15	1	12790.89	-48.94367	9.351501E-007	0.0533353	7
	31	45	796.875	9195.674	-11334.3	1	14595.43	-50.94709	8.726973E-008	0.0532985	6
	32	46	627.7902	10199.84	-13455.21	1	16884.29	-52.83572	8.9057E-008	0.0532589	6
	33	48	505.5147	11252.67	-15732	1	19342.14	-54.4249	8.779011E-008	0.0533014	6
	34	49	397.9953	12680.06	-18672.67	1	22571.05	-55.82072	9.339358E-008	0.0528957	6
	35	50	315.5048	14305.02	-22066.3	1	26297.44	-57.0457	9.291159E-008	0.052891	6
	36	52	252.4038	16158.31	-25906.23	1	30532.34	-58.04726	9.303867E-008	0.0528957	6
	37	53	198.6229	18527.61	-30752.03	1	35902.08	-58.93169	9.311739E-008	0.0528941	6
	38	54	158.3615	21179.77	-36142.24	1	41890.86	-59.6292	9.306549E-008	0.0528934	6
	39	56	125.558	24444.04	-42653.66	1	49161.42	-60.18377	9.296885E-008	0.0528914	6
	40	57	100.4464	28164.43	-49944.14	1	57338.05	-60.58054	9.290252E-008	0.052894	6
	41	58	79.00281	32885.22	-59202.94	1	67723.16	-60.94932	9.318823E-008	0.0528934	6
	42	60	63.3446	37438.18	-68574.9	1	78128.96	-61.36785	9.309937E-008	0.0528926	6
	43	61	49.86702	44612.62	-81813.22	1	93186.31	-61.39643	9.308291E-008	0.052892	6
	44	63	39.72458	51280.53	-95559.5	1	108449.6	-61.78047	9.309939E-008	0.0528942	6
	45	64	31.6723	59452.52	-111979.2	1	126783.1	-62.03507	9.284582E-008	0.0528889	6
	46	65	24.93351	69523.46	-132092.1	1	149271	-62.24102	9.636814E-009	0.052903	5
	47	67	19.86229	80677.46	-155135	1	174859.1	-62.52345	9.352396E-009	0.0528966	5
	48	68	15.83615	94104.64	-182953.7	1	205737.1	-62.78038	8.941639E-009	0.0528945	5
	49	69	12.40079	109957.9	-217519.1	1	243732	-63.18299	9.753141E-009	0.0529033	5
	50	71	9.93114	126805.1	-253142.9	1	283126.9	-63.39266	9.367333E-009	0.0529006	5
	51	72	7.944915	146970.4	-297247.3	1	331596.5	-63.69045	9.36457E-009	0.052894	5
	52	74	6.317385	171288.7	-351284.4	1	390820.4	-64.00582	9.494685E-009	0.0528902	5
	53	76	5.008013	200694.3	-416943.1	1	462730.8	-64.29631	9.459199E-009	0.0528952	5
	54	78	3.945707	236584.6	-495961.5	1	549499.9	-64.49783	9.651168E-009	0.0528989	5
	55	81	3.158693	277526.1	-584764.7	1	647279.3	-64.61124	9.443144E-009	0.0528945	5
	56	84	2.504006	328855.9	-693621.5	1	767630.8	-64.6337	9.528491E-009	0.0531804	5
	57	87	1.998082	389755.3	-817461.3	1	905622.5	-64.50877	9.3772E-009	0.0532253	5
	58	90	1.584686	463778.7	-965830	1	1071409	-64.3503	9.376064E-009	0.0531698	5
	59	94	1.266892	555603.4	-1137006	1	1265495	-63.95734	9.334065E-009	0.0532256	5
	60	98	0.999041	671704.4	-1344503	1	1502956	-63.45361	1.040797E-009	0.0531525	4
