EXPLAIN
TAG	EISPOT
TITLE	LABEL	Potentiostatic IDE	Test &Identifier
DATE	LABEL	9/16/2019	Date
TIME	LABEL	9:56:08	Time
NOTES	NOTES	1	&Notes...
	
PSTAT	PSTAT	REF600-11020	Potentiostat
VDC	POTEN	0.00000E+000	T	DC &Voltage (V)
FREQINIT	QUANT	1.00000E+006	Initial Fre&q. (Hz)
FREQFINAL	QUANT	1.00000E+000	Final Fre&q. (Hz)
PTSPERDEC	QUANT	1.00000E+001	Points/&decade
VAC	QUANT	2.50000E+001	AC &Voltage (mV rms)
AREA	QUANT	1.00000E-002	&Area (cm^2)
CONDIT	TWOPARAM	T	5.00000E+000	0.00000E+000	Conditionin&g	Time(s)	E(V)
DELAY	TWOPARAM	T	5.00000E+000	0.00000E+000	Init. De&lay	Time(s)	Stab.(mV/s)
SPEED	SELECTOR	1	&Optimize for:
ZGUESS	QUANT	1.00000E+007	E&stimated Z (ohms)
OCVCURVE	TABLE	19
	Pt	T	Vf	Vm	Ach	Over
	#	s	V vs. Ref.	V	V	bits
	0	0.258333	-5.27646E-003	-5.27646E-003	5.69799E-004	...........
	1	0.516667	-5.29422E-003	-6.20613E-003	5.67932E-004	...........
	2	0.775	-5.40446E-003	-7.14938E-003	5.67666E-004	...........
	3	1.03333	-5.71309E-003	-7.67861E-003	5.63099E-004	...........
	4	1.29167	-6.24024E-003	-8.11822E-003	5.67966E-004	...........
	5	1.55	-6.88085E-003	-8.66370E-003	5.68199E-004	...........
	6	1.80833	-7.51666E-003	-9.37210E-003	5.70899E-004	...........
	7	2.06667	-8.11667E-003	-1.00723E-002	5.64999E-004	...........
	8	2.325	-8.71448E-003	-1.06476E-002	5.66199E-004	...........
	9	2.58333	-9.33350E-003	-1.12120E-002	5.65666E-004	...........
	10	2.84167	-9.96048E-003	-1.17851E-002	5.61799E-004	...........
	11	3.1	-1.05727E-002	-1.23311E-002	5.67566E-004	...........
	12	3.35833	-1.11611E-002	-1.28509E-002	5.67999E-004	...........
	13	3.61667	-1.17266E-002	-1.33471E-002	5.69866E-004	...........
	14	3.875	-1.22714E-002	-1.38686E-002	5.71232E-004	...........
	15	4.13333	-1.27985E-002	-1.43527E-002	5.71732E-004	...........
	16	4.39167	-1.33120E-002	-1.48225E-002	5.65799E-004	...........
	17	4.65	-1.38137E-002	-1.52917E-002	5.70532E-004	...........
	18	4.90833	-1.43031E-002	-1.57415E-002	5.73332E-004	...........
EOC	QUANT	-0.0143031	Open Circuit (V)
PSTATMODEL	IQUANT	4	Pstat Model
PSTATSECTION	LABEL	REF600-11020	Pstat Section
PSTATSERIALNO	LABEL	11020	Pstat Serial Number
CTRLMODE	IQUANT	1	Control Mode
IESTAB	IQUANT	0	I/E Stability
CASPEED	IQUANT	1	Control Amp Speed
CONVENTION	IQUANT	1	Current Convention
ICHRANGE	IQUANT	2	Ich Range
ICHRANGEMODE	TOGGLE	F	Ich Auto Range
ICHOFFSETENABLE	TOGGLE	T	Ich Offset Enable
ICHOFFSET	QUANT	0	Ich Offset (V)
ICHFILTER	IQUANT	3	Ich Filter
VCHRANGE	IQUANT	2	Vch Range
VCHRANGEMODE	TOGGLE	F	Vch Auto Range
VCHOFFSETENABLE	TOGGLE	T	Vch Offset Enable
VCHOFFSET	QUANT	0	Vch Offset (V)
VCHFILTER	IQUANT	3	Vch Filter
ACHRANGE	IQUANT	2	Ach Range
ACHOFFSETENABLE	TOGGLE	F	Ach Offset Enable
ACHOFFSET	QUANT	0	Ach Offset (V)
ACHFILTER	IQUANT	3	Ach Filter
IERANGELOWERLIMIT	IQUANT	1	I/E Range Lower Limit
IERANGEMODE	TOGGLE	F	I/E AutoRange
IERANGE	IQUANT	3	I/E Range
POSFEEDENABLE	TOGGLE	F	Positive Feedback IR Comp
POSFEEDRESISTANCE	QUANT	0	Positive Feedback Resistance (ohm)
ACHSELECT	IQUANT	0	Ach Select
CABLEID	IQUANT	14	Cable ID
DCCALDATE	LABEL	8/19/2019	DC Calibration Date
ACCALDATE	LABEL	8/19/2019	AC Calibration Date
THERMOSELECT	IQUANT	1	Thermo Select
FRAMEWORKVERSION	QUANT	6.33	Framework Version
INSTRUMENTVERSION	LABEL	3.50	Instrument Version
ZCURVE	TABLE
	Pt	Time	Freq	Zreal	Zimag	Zsig	Zmod	Zphz	Idc	Vdc	IERange
	#	s	Hz	ohm	ohm	V	ohm	°	A	V	#
	0	2	1000078	2625.092	-1899.392	1	3240.185	-35.88771	3.317889E-006	-0.0121168	8
	1	4	794390.6	3011.798	-1828.94	1	3523.627	-31.26857	-7.72731E-006	-0.0107704	8
	2	5	630984.4	3349.792	-1674.101	1	3744.826	-26.55417	4.405453E-006	-0.0129648	8
	3	7	501234.4	3644.164	-1501.197	1	3941.259	-22.389	3.982443E-006	-0.0134004	8
	4	8	398109.4	3853.938	-1360.482	1	4087.022	-19.44359	-4.295739E-006	-0.0117749	8
	5	10	316265.6	4027.616	-1156.761	1	4190.44	-16.02446	-4.865742E-006	-0.011492	8
	6	11	251203.1	4149.963	-981.883	1	4264.539	-13.31142	9.538818E-007	-0.0127981	8
	7	13	199546.9	4244.499	-864.1108	1	4331.565	-11.50723	1.469964E-006	-0.0130629	8
	8	14	158578.1	4350.612	-729.1458	1	4411.29	-9.51413	2.907915E-006	-0.0132358	8
	9	16	125953.1	4425.471	-594.3373	1	4465.202	-7.649011	7.791402E-007	-0.014292	7
	10	17	100078.1	4451.162	-527.4694	1	4482.306	-6.758119	-3.767155E-008	-0.0126925	7
	11	18	79453.13	4488.203	-486.0561	1	4514.445	-6.180838	4.827144E-008	-0.0128607	7
	12	20	63140.62	4524.004	-458.076	1	4547.136	-5.781754	8.18541E-008	-0.0128555	7
	13	21	50203.12	4557.799	-443.924	1	4579.367	-5.562991	-5.130309E-008	-0.0125504	7
	14	22	39890.62	4592.733	-441.8425	1	4613.938	-5.495212	-2.289455E-008	-0.0125472	7
	15	24	31640.63	4626.777	-451.178	1	4648.724	-5.569562	-7.671125E-008	-0.0125887	7
	16	25	25171.88	4662.354	-475.1951	1	4686.508	-5.819587	-1.99754E-008	-0.0127337	7
	17	26	20015.62	4699.803	-510.1528	1	4727.41	-6.19507	-8.120637E-009	-0.0126796	7
	18	28	15890.62	4744.331	-555.7028	1	4776.765	-6.680606	2.445722E-008	-0.0128052	7
	19	29	12609.37	4782.405	-626.9653	1	4823.327	-7.468787	3.979683E-008	-0.0127452	7
	20	30	10078.13	4828.473	-706.8534	1	4879.938	-8.328526	-4.889807E-008	-0.0125548	7
	21	32	8015.625	4881.081	-808.5905	1	4947.602	-9.406087	8.216351E-008	-0.0127441	7
	22	33	6328.125	4939.381	-941.4227	1	5028.296	-10.79088	5.208443E-008	-0.0128635	7
	23	34	5015.625	5009.723	-1102.079	1	5129.513	-12.40676	-2.055827E-008	-0.0125537	7
	24	36	3984.375	5079.347	-1300.666	1	5243.234	-14.36307	-2.143964E-008	-0.0125527	7
	25	37	3170.956	5165.024	-1532.603	1	5387.611	-16.52706	8.215415E-008	-0.0127437	7
	26	38	2527.573	5259.838	-1812.772	1	5563.456	-19.01621	9.868295E-008	-0.0128975	7
	27	40	1976.103	5378.156	-2188.199	1	5806.271	-22.13983	-4.010469E-008	-0.0126678	7
	28	41	1577.524	5506.909	-2608.466	1	6093.451	-25.34559	-2.140684E-008	-0.0125581	7
	29	42	1265.625	5647.739	-3100.67	1	6442.912	-28.76726	-1.471266E-008	-0.0126559	7
	30	44	998.264	5821.627	-3751.905	1	6925.903	-32.80085	-4.513247E-008	-0.0126767	7
	31	45	796.875	6015.917	-4506.564	1	7516.674	-36.83713	9.822368E-008	-0.0129132	7
	32	46	627.7902	6253.442	-5482.036	1	8316.145	-41.2392	9.951851E-008	-0.0129095	7
	33	48	505.5147	6503.799	-6559.107	1	9236.953	-45.24259	-3.857045E-008	-0.0126803	7
	34	49	397.9953	6842.719	-8020.654	1	10542.95	-49.53127	1.825998E-009	-0.0127585	6
	35	50	315.5048	7228.897	-9765.81	1	12150.23	-53.49024	1.302437E-009	-0.0127547	6
	36	52	252.4038	7669.429	-11815.83	1	14086.66	-57.01318	2.144736E-009	-0.0127586	6
	37	53	198.6229	8244.07	-14523.3	1	16700.03	-60.41883	1.536456E-009	-0.0127615	6
	38	54	158.3615	8909.582	-17661.79	1	19781.8	-63.2311	1.153386E-009	-0.0127593	6
	39	56	125.558	9745.57	-21614.96	1	23710.39	-65.73074	1.511405E-009	-0.0127547	6
	40	57	100.4464	10771.01	-26243.54	1	28367.9	-67.68551	5.601957E-010	-0.0127579	6
	41	58	79.00281	12142.34	-32343.16	1	34547.3	-69.42275	9.020152E-010	-0.0127632	6
	42	60	63.3446	13633.18	-38840.77	1	41163.93	-70.65884	1.52027E-009	-0.0127622	6
	43	61	49.86702	16189.2	-48737.94	1	51356.37	-71.62515	1.765148E-009	-0.0127688	6
	44	63	39.72458	18797.52	-59210.84	1	62123.03	-72.38704	1.757332E-009	-0.0127596	6
	45	64	31.6723	22229.19	-72162.02	1	75508.23	-72.87878	1.845539E-009	-0.0127619	6
	46	65	24.93351	27468.79	-88511.6	1	92675.98	-72.75874	1.236902E-009	-0.012763	6
	47	67	19.86229	34066.12	-107213.9	1	112495.9	-72.37288	1.387181E-009	-0.012755	5
	48	68	15.83615	42271.09	-130794.6	1	137455.7	-72.08985	2.359482E-009	-0.0127499	5
	49	69	12.40079	54178.77	-156725.7	1	165826.1	-70.93016	2.139471E-009	-0.0127516	5
	50	71	9.93114	69886.78	-188247.2	1	200801.3	-69.63255	4.867534E-010	-0.0127505	5
	51	72	7.944915	87739.69	-223551.7	1	240153.3	-68.57096	1.382016E-009	-0.0127607	5
	52	74	6.317385	112901.3	-263722.4	1	286873.2	-66.82392	1.072646E-009	-0.0127653	5
	53	76	5.008013	143887.6	-309932.1	1	341703.9	-65.09666	4.471053E-010	-0.0127637	5
	54	78	3.945707	182427.8	-362999.6	1	406261.8	-63.31789	9.347826E-010	-0.0127474	5
	55	81	3.158693	226025.9	-415186.3	1	472723.3	-61.43629	5.606414E-010	-0.0127462	5
	56	85	2.504006	277611.8	-475471.5	1	550582.8	-59.72078	5.509775E-010	-0.0127659	5
	57	87	1.998082	333716.1	-539861.4	1	634678.4	-58.27766	3.174266E-010	-0.0127701	5
	58	90	1.584686	399159.7	-609234.8	1	728351.2	-56.7679	4.743983E-010	-0.0127182	5
	59	94	1.266892	467613.7	-687873.8	1	831764.9	-55.7923	3.527436E-010	-0.0127917	5
	60	98	0.999041	548390.4	-778131.9	1	951957	-54.82564	6.105162E-010	-0.0127102	5
