EXPLAIN
TAG	EISPOT
TITLE	LABEL	Potentiostatic EIS	Test &Identifier
DATE	LABEL	8/16/2017	Date
TIME	LABEL	16:42:52	Time
NOTES	NOTES	1	&Notes...
	
PSTAT	PSTAT	REF600-11020	Potentiostat
VDC	POTEN	0.00000E+000	T	DC &Voltage (V)
FREQINIT	QUANT	1.00000E+006	Initial Fre&q. (Hz)
FREQFINAL	QUANT	1.00000E+000	Final Fre&q. (Hz)
PTSPERDEC	QUANT	1.00000E+001	Points/&decade
VAC	QUANT	2.50000E+001	AC &Voltage (mV rms)
AREA	QUANT	1.00000E-002	&Area (cm^2)
CONDIT	TWOPARAM	T	5.00000E+000	0.00000E+000	Conditionin&g	Time(s)	E(V)
DELAY	TWOPARAM	T	5.00000E+000	0.00000E+000	Init. De&lay	Time(s)	Stab.(mV/s)
SPEED	SELECTOR	0	&Optimize for:
ZGUESS	QUANT	1.00000E+005	E&stimated Z (ohms)
OCVCURVE	TABLE	19
	Pt	T	Vf	Vm	Ach	Over
	#	s	V vs. Ref.	V	V	bits
	0	0.258333	5.68694E-003	5.68694E-003	5.26166E-004	...........
	1	0.516667	5.68733E-003	5.70746E-003	5.26600E-004	...........
	2	0.775	5.68986E-003	5.73309E-003	5.23400E-004	...........
	3	1.03333	5.69766E-003	5.77132E-003	5.31433E-004	...........
	4	1.29167	5.71349E-003	5.80751E-003	5.25366E-004	...........
	5	1.55	5.73797E-003	5.84711E-003	5.24333E-004	...........
	6	1.80833	5.76951E-003	5.88759E-003	5.27233E-004	...........
	7	2.06667	5.80623E-003	5.95842E-003	5.18400E-004	...........
	8	2.325	5.84824E-003	6.01414E-003	5.26666E-004	...........
	9	2.58333	5.89672E-003	6.07124E-003	5.31066E-004	...........
	10	2.84167	5.95079E-003	6.12195E-003	5.31566E-004	...........
	11	3.1	6.00729E-003	6.17524E-003	5.31866E-004	...........
	12	3.35833	6.06357E-003	6.24130E-003	5.23566E-004	...........
	13	3.61667	6.11718E-003	6.17708E-003	5.22433E-004	...........
	14	3.875	6.16308E-003	6.29289E-003	5.21900E-004	...........
	15	4.13333	6.19983E-003	6.33204E-003	5.27066E-004	...........
	16	4.39167	6.23483E-003	6.34773E-003	5.26966E-004	...........
	17	4.65	6.27323E-003	6.36822E-003	5.27333E-004	...........
	18	4.90833	6.31149E-003	6.43452E-003	5.28166E-004	...........
EOC	QUANT	0.0063115	Open Circuit (V)
PSTATMODEL	IQUANT	4	Pstat Model
PSTATSECTION	LABEL	REF600-11020	Pstat Section
PSTATSERIALNO	LABEL	11020	Pstat Serial Number
CTRLMODE	IQUANT	1	Control Mode
IESTAB	IQUANT	0	I/E Stability
CASPEED	IQUANT	1	Control Amp Speed
CONVENTION	IQUANT	1	Current Convention
ICHRANGE	IQUANT	2	Ich Range
ICHRANGEMODE	TOGGLE	F	Ich Auto Range
ICHOFFSETENABLE	TOGGLE	T	Ich Offset Enable
ICHOFFSET	QUANT	0	Ich Offset (V)
ICHFILTER	IQUANT	3	Ich Filter
VCHRANGE	IQUANT	2	Vch Range
VCHRANGEMODE	TOGGLE	F	Vch Auto Range
VCHOFFSETENABLE	TOGGLE	T	Vch Offset Enable
VCHOFFSET	QUANT	0	Vch Offset (V)
VCHFILTER	IQUANT	3	Vch Filter
ACHRANGE	IQUANT	2	Ach Range
ACHOFFSETENABLE	TOGGLE	F	Ach Offset Enable
ACHOFFSET	QUANT	0	Ach Offset (V)
ACHFILTER	IQUANT	3	Ach Filter
IERANGELOWERLIMIT	IQUANT	1	I/E Range Lower Limit
IERANGEMODE	TOGGLE	F	I/E AutoRange
IERANGE	IQUANT	5	I/E Range
POSFEEDENABLE	TOGGLE	F	Positive Feedback IR Comp
POSFEEDRESISTANCE	QUANT	0	Positive Feedback Resistance (ohm)
ACHSELECT	IQUANT	0	Ach Select
CABLEID	IQUANT	14	Cable ID
DCCALDATE	LABEL	8/19/2019	DC Calibration Date
ACCALDATE	LABEL	8/19/2019	AC Calibration Date
THERMOSELECT	IQUANT	1	Thermo Select
FRAMEWORKVERSION	QUANT	6.33	Framework Version
INSTRUMENTVERSION	LABEL	3.50	Instrument Version
ZCURVE	TABLE
	Pt	Time	Freq	Zreal	Zimag	Zsig	Zmod	Zphz	Idc	Vdc	IERange
	#	s	Hz	ohm	ohm	V	ohm	°	A	V	#
	0	1	1000078	2135.864	-1300.898	1	2500.85	-31.3445	-4.153614E-006	0.0090727	8
	1	1	794390.6	2358.995	-1236.084	1	2663.224	-27.65399	-7.671017E-007	0.0078476	8
	2	2	630984.4	2562.639	-1151.399	1	2809.42	-24.19449	-2.367402E-006	0.0081768	8
	3	2	501234.4	2754.085	-1067.123	1	2953.598	-21.17982	-2.792638E-006	0.0085399	8
	4	2	398109.4	2900.165	-970.873	1	3058.358	-18.50873	2.364498E-006	0.0081748	8
	5	3	316265.6	3035.425	-881.3101	1	3160.778	-16.19021	-1.64011E-006	0.0082944	8
	6	3	251203.1	3159.054	-800.9659	1	3259.014	-14.22731	-2.897937E-007	0.0075736	8
	7	3	199546.9	3254.551	-727.639	1	3334.901	-12.60269	-4.705761E-006	0.0082115	8
	8	4	158578.1	3333.821	-660.3046	1	3398.583	-11.20315	7.194815E-006	0.0070889	8
	9	4	125953.1	3436.25	-537.6673	1	3478.06	-8.89292	-7.150595E-007	0.0110747	7
	10	4	100078.1	3490.809	-482.009	1	3523.93	-7.861657	-1.25359E-006	0.0089506	7
	11	5	79453.13	3541.146	-452.9752	1	3570	-7.289556	1.071872E-007	0.0064189	7
	12	5	63140.62	3587.76	-427.1316	1	3613.096	-6.789248	4.869062E-007	0.0061113	7
	13	5	50203.12	3630.239	-408.205	1	3653.118	-6.415719	1.047301E-006	0.0070595	7
	14	6	39890.62	3667.125	-398.0663	1	3688.666	-6.195199	6.406068E-007	0.0079928	7
	15	6	31640.63	3704.787	-395.4714	1	3725.834	-6.093027	6.387972E-007	0.0079943	7
	16	6	25171.88	3738.815	-401.5394	1	3760.315	-6.129928	1.112021E-006	0.0062978	7
	17	7	20015.62	3766.218	-421.4322	1	3789.723	-6.384723	4.868218E-007	0.0061064	7
	18	7	15890.62	3802.25	-448.6467	1	3828.628	-6.729503	1.131889E-006	0.0066239	7
	19	7	12609.37	3831.701	-486.8242	1	3862.503	-7.240733	-7.593042E-007	0.0076555	7
	20	7	10078.13	3867.363	-545.2198	1	3905.606	-8.024659	-1.126334E-006	0.0094747	7
	21	8	8015.625	3892.604	-618.0637	1	3941.367	-9.022051	-1.260257E-006	0.0089312	7
	22	8	6328.125	3929.732	-717.2218	1	3994.647	-10.3433	-1.25879E-006	0.0089293	7
	23	8	5015.625	3970.07	-841.4242	1	4058.257	-11.9663	-9.18104E-007	0.0095302	7
	24	9	3984.375	4015.813	-997.915	1	4137.945	-13.95513	4.876126E-007	0.0061035	7
	25	9	3170.956	4060.99	-1189.098	1	4231.5	-16.32055	-1.084349E-006	0.0083446	7
	26	9	2527.573	4119.455	-1424.569	1	4358.819	-19.07615	-2.910123E-007	0.0091819	7
	27	10	1976.103	4194.395	-1746.19	1	4543.361	-22.6027	1.111044E-006	0.006292	7
	28	10	1577.524	4265.323	-2102.385	1	4755.313	-26.23877	9.971867E-007	0.0060695	7
	29	10	1265.625	4361.025	-2538.957	1	5046.27	-30.20765	8.602242E-007	0.0075558	7
	30	11	998.264	4471.09	-3107.215	1	5444.762	-34.79763	-1.258443E-006	0.0089227	7
	31	11	796.875	4613.346	-3778.322	1	5963.11	-39.31742	-9.160757E-007	0.0095189	7
	32	11	627.7902	4789.755	-4649.598	1	6675.367	-44.14933	-1.264203E-006	0.009297	7
	33	12	505.5147	4994.108	-5631.665	1	7527.068	-48.43369	-6.257434E-007	0.0094227	7
	34	12	397.9953	5280.691	-6954.341	1	8732.042	-52.78924	3.903344E-009	0.007815	7
	35	12	315.5048	5645.569	-8531.287	1	10230.12	-56.50545	1.082705E-009	0.0077643	6
	36	13	252.4038	6097.25	-10381.58	1	12039.67	-59.57368	1.352565E-010	0.0077483	6
	37	13	198.6229	6730.668	-12804.71	1	14465.91	-62.27179	3.626742E-010	0.0077614	6
	38	13	158.3615	7525.393	-15589.46	1	17310.78	-64.23233	-8.932914E-010	0.0077554	6
	39	14	125.558	8601.019	-19043.24	1	20895.52	-65.69334	-2.837729E-010	0.0077548	6
	40	14	100.4464	9946.06	-23043.71	1	25098.54	-66.65416	5.937002E-010	0.0077515	6
	41	14	79.00281	11873.12	-28178.21	1	30577.48	-67.15147	-9.844208E-010	0.0077562	6
	42	15	63.3446	14630.67	-33373.32	1	36439.47	-66.32764	-2.930867E-010	0.0077531	6
	43	15	49.86702	17977.99	-40505.38	1	44315.84	-66.06634	6.259005E-011	0.0077506	6
	44	15	39.72458	21892.96	-48257.68	1	52991.56	-65.59773	8.800735E-010	0.0077524	6
	45	16	31.6723	26976.33	-57029.53	1	63087.95	-64.68473	5.566228E-010	0.0077537	6
	46	16	24.93351	34157.88	-67112.45	1	75304.99	-63.02551	1.09829E-009	0.0077455	6
	47	16	19.86229	42111.07	-77726.84	1	88401.38	-61.55192	2.247688E-009	0.0077603	6
	48	17	15.83615	51015.82	-88968.13	1	102557	-60.16932	-3.40031E-010	0.0077611	5
	49	17	12.40079	62228.75	-102713.7	1	120093.8	-58.79057	-1.338964E-009	0.0077608	5
	50	17	9.93114	75451.87	-116092.4	1	138457.3	-56.97897	-9.715223E-010	0.0077699	5
	51	18	7.944915	88566.95	-131041.9	1	158164.7	-55.94651	6.007106E-010	0.0077491	5
	52	18	6.317385	103465.2	-147782	1	180401.2	-55.00336	3.358435E-010	0.0077451	5
	53	19	5.008013	119822.4	-167295.9	1	205779.8	-54.38861	-2.328871E-010	0.0077458	5
	54	20	3.945707	138133.8	-189839.4	1	234776.4	-53.95905	2.594789E-012	0.0077681	5
	55	22	3.158693	157035.3	-215563.7	1	266697.9	-53.92714	-3.557586E-010	0.0077613	5
	56	23	2.504006	178113.2	-246292.5	1	303947.8	-54.1264	-2.490476E-010	0.0077475	5
	57	25	1.998082	201277.6	-281339.5	1	345925.7	-54.41908	1.222336E-010	0.0077979	5
	58	26	1.584686	226387.9	-324089.4	1	395329.5	-55.06434	-1.225325E-011	0.0077718	5
	59	28	1.266892	254881.9	-372289.4	1	451180.9	-55.60314	-1.253731E-010	0.0077322	5
	60	31	0.999041	289255.5	-434078.1	1	521624.9	-56.3218	-1.753474E-010	0.0077125	5
