EXPLAIN
TAG	EISPOT
TITLE	LABEL	Potentiostatic EIS	Test &Identifier
DATE	LABEL	11/21/2019	Date
TIME	LABEL	23:44:37	Time
NOTES	NOTES	4	&Notes...
	
	
	
	
PSTAT	PSTAT	REF600-11020	Potentiostat
VDC	POTEN	0.00000E+000	T	DC &Voltage (V)
FREQINIT	QUANT	1.00000E+006	Initial Fre&q. (Hz)
FREQFINAL	QUANT	1.00000E+000	Final Fre&q. (Hz)
PTSPERDEC	QUANT	1.00000E+001	Points/&decade
VAC	QUANT	2.50000E+001	AC &Voltage (mV rms)
AREA	QUANT	1.00000E-002	&Area (cm^2)
CONDIT	TWOPARAM	T	5.00000E+000	0.00000E+000	Conditionin&g	Time(s)	E(V)
DELAY	TWOPARAM	T	5.00000E+000	0.00000E+000	Init. De&lay	Time(s)	Stab.(mV/s)
SPEED	SELECTOR	1	&Optimize for:
ZGUESS	QUANT	1.00000E+005	E&stimated Z (ohms)
OCVCURVE	TABLE	19
	Pt	T	Vf	Vm	Ach	Over
	#	s	V vs. Ref.	V	V	bits
	0	0.258333	6.74596E-003	6.74596E-003	5.64966E-004	...........
	1	0.516667	6.74465E-003	6.67769E-003	5.65332E-004	...........
	2	0.775	6.73735E-003	6.64992E-003	5.71366E-004	...........
	3	1.03333	6.71898E-003	6.62046E-003	5.66199E-004	...........
	4	1.29167	6.69077E-003	6.61017E-003	5.75932E-004	...........
	5	1.55	6.66019E-003	6.60532E-003	5.56832E-004	...........
	6	1.80833	6.63463E-003	6.60062E-003	5.69599E-004	...........
	7	2.06667	6.61735E-003	6.60428E-003	5.66199E-004	...........
	8	2.325	6.60795E-003	6.61141E-003	5.63866E-004	...........
	9	2.58333	6.60518E-003	6.63698E-003	5.63266E-004	...........
	10	2.84167	6.60874E-003	6.65122E-003	5.77732E-004	...........
	11	3.1	6.61872E-003	6.68099E-003	5.65032E-004	...........
	12	3.35833	6.63447E-003	6.70514E-003	5.66732E-004	...........
	13	3.61667	6.65491E-003	6.73928E-003	5.70332E-004	...........
	14	3.875	6.67899E-003	6.75958E-003	5.62366E-004	...........
	15	4.13333	6.70537E-003	6.78902E-003	5.64566E-004	...........
	16	4.39167	6.73244E-003	6.81119E-003	5.65332E-004	...........
	17	4.65	6.75924E-003	6.84651E-003	5.57732E-004	...........
	18	4.90833	6.78602E-003	6.87113E-003	5.63666E-004	...........
EOC	QUANT	0.006786	Open Circuit (V)
PSTATMODEL	IQUANT	4	Pstat Model
PSTATSECTION	LABEL	REF600-11020	Pstat Section
PSTATSERIALNO	LABEL	11020	Pstat Serial Number
CTRLMODE	IQUANT	1	Control Mode
IESTAB	IQUANT	0	I/E Stability
CASPEED	IQUANT	1	Control Amp Speed
CONVENTION	IQUANT	1	Current Convention
ICHRANGE	IQUANT	2	Ich Range
ICHRANGEMODE	TOGGLE	F	Ich Auto Range
ICHOFFSETENABLE	TOGGLE	T	Ich Offset Enable
ICHOFFSET	QUANT	0	Ich Offset (V)
ICHFILTER	IQUANT	3	Ich Filter
VCHRANGE	IQUANT	2	Vch Range
VCHRANGEMODE	TOGGLE	F	Vch Auto Range
VCHOFFSETENABLE	TOGGLE	T	Vch Offset Enable
VCHOFFSET	QUANT	0	Vch Offset (V)
VCHFILTER	IQUANT	3	Vch Filter
ACHRANGE	IQUANT	2	Ach Range
ACHOFFSETENABLE	TOGGLE	F	Ach Offset Enable
ACHOFFSET	QUANT	0	Ach Offset (V)
ACHFILTER	IQUANT	3	Ach Filter
IERANGELOWERLIMIT	IQUANT	1	I/E Range Lower Limit
IERANGEMODE	TOGGLE	F	I/E AutoRange
IERANGE	IQUANT	5	I/E Range
POSFEEDENABLE	TOGGLE	F	Positive Feedback IR Comp
POSFEEDRESISTANCE	QUANT	0	Positive Feedback Resistance (ohm)
ACHSELECT	IQUANT	0	Ach Select
CABLEID	IQUANT	14	Cable ID
DCCALDATE	LABEL	8/19/2019	DC Calibration Date
ACCALDATE	LABEL	8/19/2019	AC Calibration Date
THERMOSELECT	IQUANT	1	Thermo Select
FRAMEWORKVERSION	QUANT	6.33	Framework Version
INSTRUMENTVERSION	LABEL	3.50	Instrument Version
ZCURVE	TABLE
	Pt	Time	Freq	Zreal	Zimag	Zsig	Zmod	Zphz	Idc	Vdc	IERange
	#	s	Hz	ohm	ohm	V	ohm	°	A	V	#
	0	1	1000078	2203.907	-1843.71	1	2873.407	-39.91465	-1.654599E-006	0.0097775	8
	1	2	794390.6	2592.046	-1835.566	1	3176.162	-35.30435	-3.034061E-006	0.0093372	8
	2	3	630984.4	2953.725	-1753.753	1	3435.134	-30.69942	-2.343066E-006	0.008391	8
	3	5	501234.4	3279.023	-1626.857	1	3660.417	-26.38788	-1.989865E-006	0.0085584	8
	4	6	398109.4	3546.917	-1483.927	1	3844.823	-22.70302	-2.717711E-006	0.0089057	8
	5	7	316265.6	3769.859	-1317.749	1	3993.532	-19.267	-2.320838E-007	0.0087738	8
	6	9	251203.1	3946.347	-1158.901	1	4112.993	-16.36563	-1.768243E-007	0.0080094	8
	7	10	199546.9	4082.187	-1008.502	1	4204.917	-13.87703	-2.513996E-006	0.0082312	8
	8	12	158578.1	4185.807	-849.6254	1	4271.164	-11.47389	-3.290285E-007	0.0087473	8
	9	13	125953.1	4292.366	-700.0598	1	4349.08	-9.263049	-3.205533E-006	0.0123068	7
	10	14	100078.1	4354.058	-625.6226	1	4398.775	-8.176707	-6.549573E-007	0.0099338	7
	11	16	79453.13	4410.4	-561.8286	1	4446.041	-7.25965	-6.548197E-007	0.0099351	7
	12	17	63140.62	4464.68	-514.8484	1	4494.267	-6.578056	1.137306E-006	0.0067413	7
	13	18	50203.12	4496.047	-476.5046	1	4521.227	-6.049796	-1.278808E-006	0.0097611	7
	14	20	39890.62	4533.683	-455.0574	1	4556.463	-5.731729	-1.269267E-006	0.0093781	7
	15	21	31640.63	4569.344	-444.9633	1	4590.958	-5.561933	-1.27935E-006	0.0097562	7
	16	22	25171.88	4606.379	-448.0251	1	4628.116	-5.555222	-3.078209E-007	0.0096681	7
	17	24	20015.62	4647.364	-461.0817	1	4670.181	-5.665977	1.058268E-006	0.0075139	7
	18	25	15890.62	4672.058	-489.5786	1	4697.639	-5.982115	-3.140452E-007	0.007352	7
	19	26	12609.37	4714.308	-534.1764	1	4744.475	-6.464591	1.059912E-006	0.00751	7
	20	28	10078.13	4739.98	-592.1746	1	4776.828	-7.121173	1.151628E-006	0.0070614	7
	21	29	8015.625	4769.763	-669.0106	1	4816.452	-7.984264	-1.277572E-006	0.0097478	7
	22	30	6328.125	4814.908	-782.8517	1	4878.134	-9.234862	1.15268E-006	0.0070632	7
	23	32	5015.625	4854.71	-919.54	1	4941.029	-10.72544	8.21719E-007	0.006383	7
	24	33	3984.375	4888.851	-1085.27	1	5007.861	-12.51607	-3.069942E-007	0.0096538	7
	25	34	3170.956	4951.611	-1300.667	1	5119.588	-14.71771	1.139036E-006	0.0067117	7
	26	36	2527.573	5003.26	-1558.424	1	5240.353	-17.30086	-7.549021E-007	0.0080653	7
	27	37	1976.103	5079.331	-1908.306	1	5425.978	-20.59122	-1.088071E-006	0.0087646	7
	28	38	1577.524	5170.646	-2304.33	1	5660.876	-24.02043	6.332386E-007	0.0084614	7
	29	40	1265.625	5260.607	-2788.595	1	5954.011	-27.92762	1.152911E-006	0.0070643	7
	30	41	998.264	5382.278	-3415.422	1	6374.482	-32.39791	-3.131754E-007	0.0073429	7
	31	43	796.875	5523.631	-4147.754	1	6907.559	-36.90328	4.003475E-007	0.0088006	7
	32	44	627.7902	5715.562	-5104.11	1	7662.871	-41.76548	-3.074663E-007	0.0096492	7
	33	46	505.5147	5913.885	-6185.748	1	8557.892	-46.28714	5.110362E-007	0.0064876	7
	34	47	397.9953	6189.853	-7624.262	1	9820.57	-50.92815	7.059996E-009	0.0082625	7
	35	49	315.5048	6528.726	-9362.507	1	11414.06	-55.11091	1.009744E-009	0.0082049	6
	36	50	252.4038	6932.801	-11410.8	1	13351.78	-58.71861	3.347301E-010	0.0082138	6
	37	51	198.6229	7489.231	-14122.33	1	15985.27	-62.06248	1.092053E-009	0.0082055	6
	38	53	158.3615	8166.406	-17277.6	1	19110.35	-64.70184	4.211515E-010	0.0082037	6
	39	54	125.558	9081.684	-21227.74	1	23088.83	-66.83772	6.151143E-010	0.0081989	6
	40	55	100.4464	10253.83	-25882.75	1	27839.85	-68.38829	-1.430223E-010	0.0082101	6
	41	57	79.00281	11860.7	-31895.28	1	34029.18	-69.60165	7.881985E-010	0.0082049	6
	42	58	63.3446	13630.79	-38912.73	1	41231.05	-70.6951	4.888906E-010	0.0082058	6
	43	59	49.86702	16911.63	-47207.59	1	50145.39	-70.29046	7.802562E-010	0.0082056	6
	44	61	39.72458	20740.88	-57549.93	1	61173.35	-70.18095	1.09553E-009	0.0082019	6
	45	62	31.6723	25661.07	-69048.93	1	73663.05	-69.61312	1.146703E-010	0.0082026	6
	46	64	24.93351	32637.3	-83579.76	1	89726.08	-68.66971	9.650873E-010	0.0081927	6
	47	65	19.86229	40928.96	-99348.5	1	107449	-67.60963	9.593545E-010	0.0082026	5
	48	66	15.83615	52109.47	-117718.1	1	128736	-66.12279	-1.079592E-009	0.0081972	5
	49	68	12.40079	64517.74	-139025.2	1	153266.2	-65.10529	6.718908E-010	0.0082032	5
	50	69	9.93114	80692.48	-159822.8	1	179038	-63.21138	-2.878337E-010	0.0082011	5
	51	71	7.944915	98942.8	-184411.9	1	209278.3	-61.78505	3.147681E-010	0.0082075	5
	52	72	6.317385	118944.1	-211720.6	1	242844.3	-60.67284	3.555988E-010	0.0082236	5
	53	74	5.008013	142710.1	-243386.8	1	282140.6	-59.61472	4.267341E-010	0.0082147	5
	54	77	3.945707	170667	-280687.4	1	328500.6	-58.69904	-9.266834E-011	0.0082025	5
	55	80	3.158693	200255.1	-320232.4	1	377691.5	-57.98048	2.348028E-010	0.0082271	5
	56	83	2.504006	235941.7	-367843.2	1	437009.3	-57.3231	-3.153618E-010	0.0082078	5
	57	86	1.998082	274961.8	-419146.4	1	501286.1	-56.73495	-3.175454E-012	0.0081729	5
	58	89	1.584686	319529.5	-479976.3	1	576607.6	-56.34752	2.572787E-011	0.0082044	5
	59	92	1.266892	369800.3	-546614.9	1	659954.7	-55.92055	4.318898E-012	0.0081695	5
	60	97	0.999041	427690.8	-628265.9	1	760024.6	-55.755	-4.617738E-011	0.0082409	5
