EXPLAIN
TAG	EISPOT
TITLE	LABEL	Potentiostatic EIS	Test &Identifier
DATE	LABEL	10/16/2019	Date
TIME	LABEL	9:52:08	Time
NOTES	NOTES	1	&Notes...
	
PSTAT	PSTAT	REF600-11020	Potentiostat
VDC	POTEN	0.00000E+000	T	DC &Voltage (V)
FREQINIT	QUANT	1.00000E+006	Initial Fre&q. (Hz)
FREQFINAL	QUANT	1.00000E+000	Final Fre&q. (Hz)
PTSPERDEC	QUANT	1.00000E+001	Points/&decade
VAC	QUANT	2.50000E+001	AC &Voltage (mV rms)
AREA	QUANT	1.00000E-002	&Area (cm^2)
CONDIT	TWOPARAM	T	5.00000E+000	0.00000E+000	Conditionin&g	Time(s)	E(V)
DELAY	TWOPARAM	T	5.00000E+000	0.00000E+000	Init. De&lay	Time(s)	Stab.(mV/s)
SPEED	SELECTOR	0	&Optimize for:
ZGUESS	QUANT	1.00000E+005	E&stimated Z (ohms)
OCVCURVE	TABLE	19
	Pt	T	Vf	Vm	Ach	Over
	#	s	V vs. Ref.	V	V	bits
	0	0.258333	6.90979E-003	6.90979E-003	5.67232E-004	...........
	1	0.516667	6.91549E-003	7.20842E-003	5.67032E-004	...........
	2	0.775	6.93989E-003	6.93478E-003	5.65199E-004	...........
	3	1.03333	6.97024E-003	6.49816E-003	5.61332E-004	...........
	4	1.29167	6.94505E-003	6.26123E-003	5.58066E-004	...........
	5	1.55	6.81879E-003	6.40582E-003	5.61666E-004	...........
	6	1.80833	6.63891E-003	6.62005E-003	5.58799E-004	...........
	7	2.06667	6.51086E-003	6.75451E-003	5.60532E-004	...........
	8	2.325	6.49944E-003	6.97441E-003	5.63466E-004	...........
	9	2.58333	6.59271E-003	7.02657E-003	5.62466E-004	...........
	10	2.84167	6.73778E-003	7.10950E-003	5.64366E-004	...........
	11	3.1	6.88355E-003	7.17417E-003	5.62366E-004	...........
	12	3.35833	7.00337E-003	7.24540E-003	5.58099E-004	...........
	13	3.61667	7.09599E-003	7.30412E-003	5.56966E-004	...........
	14	3.875	7.17248E-003	7.43518E-003	5.54099E-004	...........
	15	4.13333	7.24461E-003	7.43384E-003	5.59399E-004	...........
	16	4.39167	7.31627E-003	7.49056E-003	5.59666E-004	...........
	17	4.65	7.38184E-003	7.51176E-003	5.57399E-004	...........
	18	4.90833	7.43596E-003	7.57094E-003	5.57499E-004	...........
EOC	QUANT	0.007436	Open Circuit (V)
PSTATMODEL	IQUANT	4	Pstat Model
PSTATSECTION	LABEL	REF600-11020	Pstat Section
PSTATSERIALNO	LABEL	11020	Pstat Serial Number
CTRLMODE	IQUANT	1	Control Mode
IESTAB	IQUANT	0	I/E Stability
CASPEED	IQUANT	1	Control Amp Speed
CONVENTION	IQUANT	1	Current Convention
ICHRANGE	IQUANT	2	Ich Range
ICHRANGEMODE	TOGGLE	F	Ich Auto Range
ICHOFFSETENABLE	TOGGLE	T	Ich Offset Enable
ICHOFFSET	QUANT	0	Ich Offset (V)
ICHFILTER	IQUANT	3	Ich Filter
VCHRANGE	IQUANT	2	Vch Range
VCHRANGEMODE	TOGGLE	F	Vch Auto Range
VCHOFFSETENABLE	TOGGLE	T	Vch Offset Enable
VCHOFFSET	QUANT	0	Vch Offset (V)
VCHFILTER	IQUANT	3	Vch Filter
ACHRANGE	IQUANT	2	Ach Range
ACHOFFSETENABLE	TOGGLE	F	Ach Offset Enable
ACHOFFSET	QUANT	0	Ach Offset (V)
ACHFILTER	IQUANT	3	Ach Filter
IERANGELOWERLIMIT	IQUANT	1	I/E Range Lower Limit
IERANGEMODE	TOGGLE	F	I/E AutoRange
IERANGE	IQUANT	5	I/E Range
POSFEEDENABLE	TOGGLE	F	Positive Feedback IR Comp
POSFEEDRESISTANCE	QUANT	0	Positive Feedback Resistance (ohm)
ACHSELECT	IQUANT	0	Ach Select
CABLEID	IQUANT	14	Cable ID
DCCALDATE	LABEL	8/19/2019	DC Calibration Date
ACCALDATE	LABEL	8/19/2019	AC Calibration Date
THERMOSELECT	IQUANT	1	Thermo Select
FRAMEWORKVERSION	QUANT	6.33	Framework Version
INSTRUMENTVERSION	LABEL	3.50	Instrument Version
ZCURVE	TABLE
	Pt	Time	Freq	Zreal	Zimag	Zsig	Zmod	Zphz	Idc	Vdc	IERange
	#	s	Hz	ohm	ohm	V	ohm	°	A	V	#
	0	1	1000078	2163.218	-1287.224	1	2517.232	-30.75479	-4.603303E-006	0.0100849	8
	1	2	794390.6	2420.405	-1228.331	1	2714.25	-26.90734	3.67515E-006	0.0089332	8
	2	2	630984.4	2633.713	-1135.812	1	2868.19	-23.32854	-3.626476E-006	0.0098272	8
	3	2	501234.4	2812.233	-1013.651	1	2989.338	-19.82136	1.260182E-006	0.0089563	8
	4	3	398109.4	2965.549	-895.1655	1	3097.709	-16.7967	6.366628E-008	0.0091447	8
	5	3	316265.6	3079.208	-783.1504	1	3177.239	-14.26977	2.607557E-006	0.0086358	8
	6	3	251203.1	3162.651	-687.2764	1	3236.466	-12.26034	4.476736E-008	0.0091142	8
	7	4	199546.9	3235.675	-590.2788	1	3289.076	-10.33868	-5.308573E-007	0.0090368	8
	8	4	158578.1	3289.298	-514.2933	1	3329.261	-8.886448	3.111294E-006	0.0084338	8
	9	4	125953.1	3346.918	-414.5295	1	3372.491	-7.060361	2.812049E-007	0.0079189	7
	10	5	100078.1	3381.693	-372.1585	1	3402.109	-6.280183	3.173478E-008	0.0090243	7
	11	5	79453.13	3412.838	-349.0259	1	3430.639	-5.839254	-4.627114E-008	0.0091198	7
	12	5	63140.62	3442.359	-334.3424	1	3458.558	-5.547506	7.184963E-008	0.0090006	7
	13	6	50203.12	3471.018	-326.2949	1	3486.321	-5.370338	-5.134842E-008	0.009148	7
	14	6	39890.62	3501.22	-325.131	1	3516.284	-5.305397	5.945574E-008	0.0089327	7
	15	6	31640.63	3531.635	-332.8213	1	3547.283	-5.383654	3.068466E-008	0.0090158	7
	16	7	25171.88	3564.983	-346.7594	1	3581.807	-5.55558	-7.461177E-009	0.0090958	7
	17	7	20015.62	3597.419	-365.138	1	3615.902	-5.795672	-3.723715E-008	0.0091362	7
	18	7	15890.62	3640.816	-394.4555	1	3662.122	-6.183455	2.992827E-008	0.0090074	7
	19	7	12609.37	3683.993	-427.7616	1	3708.744	-6.623159	-4.759007E-008	0.009109	7
	20	8	10078.13	3730.647	-465.5711	1	3759.586	-7.113525	6.404743E-009	0.0089852	7
	21	8	8015.625	3779.656	-507.2012	1	3813.536	-7.642999	-5.093674E-009	0.0090502	7
	22	8	6328.125	3831.111	-564.3318	1	3872.451	-8.379547	4.992948E-008	0.0089586	7
	23	9	5015.625	3884.066	-630.5002	1	3934.908	-9.220393	3.276929E-008	0.0089354	7
	24	9	3984.375	3933.012	-706.1784	1	3995.907	-10.17908	3.245052E-008	0.0090017	7
	25	9	3170.956	3988.884	-802.0776	1	4068.725	-11.36932	-3.341785E-008	0.0091195	7
	26	10	2527.573	4039.75	-920.253	1	4143.241	-12.83296	-1.254778E-008	0.0090239	7
	27	10	1976.103	4094.615	-1084.087	1	4235.695	-14.82934	7.247036E-009	0.0091193	7
	28	10	1577.524	4144.704	-1254.83	1	4330.493	-16.84396	3.321625E-008	0.0089324	7
	29	11	1265.625	4203.292	-1503.421	1	4464.072	-19.68096	7.401083E-008	0.0089845	7
	30	11	998.264	4268.55	-1812.569	1	4637.449	-23.0077	-1.740073E-008	0.009076	7
	31	11	796.875	4341.229	-2188.342	1	4861.595	-26.75193	5.090531E-009	0.0091158	7
	32	12	627.7902	4427.872	-2679.387	1	5175.438	-31.17891	7.275563E-008	0.00898	7
	33	12	505.5147	4523.735	-3235.055	1	5561.453	-35.56966	9.522311E-008	0.0088964	7
	34	12	397.9953	4654.129	-3989.218	1	6129.827	-40.60104	2.836668E-009	0.0090571	7
	35	13	315.5048	4811.561	-4902.873	1	6869.445	-45.53854	1.851919E-009	0.0090547	7
	36	13	252.4038	5005.359	-5983.072	1	7800.691	-50.08459	1.683381E-009	0.009055	7
	37	13	198.6229	5272.895	-7413.933	1	9097.792	-54.57902	2.428396E-009	0.009052	7
	38	14	158.3615	5601.84	-9076.054	1	10665.62	-58.31666	-1.861168E-010	0.0089919	6
	39	14	125.558	6034.125	-11160.11	1	12686.95	-61.60049	5.968813E-010	0.0089935	6
	40	14	100.4464	6563.619	-13601.83	1	15102.67	-64.24017	7.165069E-010	0.0089911	6
	41	14	79.00281	7305.884	-16811.89	1	18330.73	-66.51185	5.837946E-010	0.0089869	6
	42	15	63.3446	8235.955	-20227.68	1	21840.1	-67.84568	2.870231E-010	0.0089891	6
	43	15	49.86702	9438.846	-24938.68	1	26665.14	-69.26924	2.262865E-010	0.0089864	6
	44	16	39.72458	10782.88	-30375.04	1	32232.19	-70.45557	1.323241E-010	0.0089936	6
	45	16	31.6723	12511.23	-36931.2	1	38992.87	-71.28509	6.068503E-010	0.0089898	6
	46	16	24.93351	14922.69	-45149.69	1	47551.88	-71.71046	1.860381E-010	0.0089906	6
	47	17	19.86229	17680.22	-54700.32	1	57486.66	-72.08815	-1.711184E-011	0.0089853	6
	48	17	15.83615	21577.63	-66314.14	1	69736.35	-71.97589	2.373037E-009	0.0089883	6
	49	17	12.40079	26330.23	-80785.16	1	84967.77	-71.94771	1.098295E-009	0.0089909	6
	50	17	9.93114	31865.43	-97315.2	1	102399.5	-71.86919	-2.882596E-010	0.0089902	6
	51	18	7.944915	39004.62	-116695.3	1	123041.2	-71.51814	-3.152264E-010	0.0089936	5
	52	19	6.317385	48245.48	-140043.3	1	148120.8	-70.99097	-3.586013E-010	0.0089998	5
	53	19	5.008013	60232.37	-168177.2	1	178638	-70.2951	-3.433421E-010	0.0089866	5
	54	20	3.945707	75774.45	-202362.2	1	216083.8	-69.4716	1.496451E-010	0.0089917	5
	55	22	3.158693	93687.84	-239175	1	256869.8	-68.6091	-6.12327E-011	0.0090079	5
	56	23	2.504006	116961.5	-284004.9	1	307146.2	-67.61671	-2.922569E-010	0.0089977	5
	57	25	1.998082	144258.6	-333059.6	1	362959	-66.58104	-5.964014E-012	0.0090228	5
	58	26	1.584686	177861.9	-392531.6	1	430947.7	-65.62401	2.3977E-011	0.0090383	5
	59	28	1.266892	215622.9	-457058.9	1	505367.3	-64.74385	-2.052093E-011	0.0090039	5
	60	31	0.999041	263995.3	-535207.6	1	596775.2	-63.74482	-4.535198E-011	0.0089704	5
