EXPLAIN
TAG	EISPOT
TITLE	LABEL	Potentiostatic IDE	Test &Identifier
DATE	LABEL	9/6/2019	Date
TIME	LABEL	7:43:04	Time
NOTES	NOTES	1	&Notes...
	
PSTAT	PSTAT	REF600-11020	Potentiostat
VDC	POTEN	0.00000E+000	T	DC &Voltage (V)
FREQINIT	QUANT	1.00000E+006	Initial Fre&q. (Hz)
FREQFINAL	QUANT	1.00000E+000	Final Fre&q. (Hz)
PTSPERDEC	QUANT	1.00000E+001	Points/&decade
VAC	QUANT	2.50000E+001	AC &Voltage (mV rms)
AREA	QUANT	1.00000E-002	&Area (cm^2)
CONDIT	TWOPARAM	T	5.00000E+000	0.00000E+000	Conditionin&g	Time(s)	E(V)
DELAY	TWOPARAM	T	5.00000E+000	0.00000E+000	Init. De&lay	Time(s)	Stab.(mV/s)
SPEED	SELECTOR	1	&Optimize for:
ZGUESS	QUANT	1.00000E+007	E&stimated Z (ohms)
OCVCURVE	TABLE	19
	Pt	T	Vf	Vm	Ach	Over
	#	s	V vs. Ref.	V	V	bits
	0	0.258333	6.07660E-003	6.07660E-003	5.61466E-004	...........
	1	0.516667	6.07118E-003	5.79307E-003	5.66266E-004	...........
	2	0.775	6.03882E-003	5.57118E-003	5.67466E-004	...........
	3	1.03333	5.95096E-003	5.39602E-003	5.64232E-004	...........
	4	1.29167	5.80209E-003	5.19742E-003	5.64066E-004	...........
	5	1.55	5.61571E-003	5.03885E-003	5.62932E-004	...........
	6	1.80833	5.42063E-003	4.89576E-003	5.66966E-004	...........
	7	2.06667	5.23522E-003	4.76637E-003	5.65299E-004	...........
	8	2.325	5.06730E-003	4.64520E-003	5.65766E-004	...........
	9	2.58333	4.91745E-003	4.52843E-003	5.66799E-004	...........
	10	2.84167	4.78257E-003	4.42965E-003	5.65299E-004	...........
	11	3.1	4.65945E-003	4.33284E-003	5.65632E-004	...........
	12	3.35833	4.54613E-003	4.23840E-003	5.62732E-004	...........
	13	3.61667	4.44111E-003	4.15301E-003	5.64599E-004	...........
	14	3.875	4.34290E-003	4.07319E-003	5.58232E-004	...........
	15	4.13333	4.25057E-003	3.99421E-003	5.56499E-004	...........
	16	4.39167	4.16361E-003	3.92120E-003	5.57866E-004	...........
	17	4.65	4.08142E-003	3.85019E-003	5.60666E-004	...........
	18	4.90833	4.00338E-003	3.78241E-003	5.62232E-004	...........
EOC	QUANT	0.0040034	Open Circuit (V)
PSTATMODEL	IQUANT	4	Pstat Model
PSTATSECTION	LABEL	REF600-11020	Pstat Section
PSTATSERIALNO	LABEL	11020	Pstat Serial Number
CTRLMODE	IQUANT	1	Control Mode
IESTAB	IQUANT	0	I/E Stability
CASPEED	IQUANT	1	Control Amp Speed
CONVENTION	IQUANT	1	Current Convention
ICHRANGE	IQUANT	2	Ich Range
ICHRANGEMODE	TOGGLE	F	Ich Auto Range
ICHOFFSETENABLE	TOGGLE	T	Ich Offset Enable
ICHOFFSET	QUANT	0	Ich Offset (V)
ICHFILTER	IQUANT	3	Ich Filter
VCHRANGE	IQUANT	2	Vch Range
VCHRANGEMODE	TOGGLE	F	Vch Auto Range
VCHOFFSETENABLE	TOGGLE	T	Vch Offset Enable
VCHOFFSET	QUANT	0	Vch Offset (V)
VCHFILTER	IQUANT	3	Vch Filter
ACHRANGE	IQUANT	2	Ach Range
ACHOFFSETENABLE	TOGGLE	F	Ach Offset Enable
ACHOFFSET	QUANT	0	Ach Offset (V)
ACHFILTER	IQUANT	3	Ach Filter
IERANGELOWERLIMIT	IQUANT	1	I/E Range Lower Limit
IERANGEMODE	TOGGLE	F	I/E AutoRange
IERANGE	IQUANT	2	I/E Range
POSFEEDENABLE	TOGGLE	F	Positive Feedback IR Comp
POSFEEDRESISTANCE	QUANT	0	Positive Feedback Resistance (ohm)
ACHSELECT	IQUANT	0	Ach Select
CABLEID	IQUANT	14	Cable ID
DCCALDATE	LABEL	8/19/2019	DC Calibration Date
ACCALDATE	LABEL	8/19/2019	AC Calibration Date
THERMOSELECT	IQUANT	1	Thermo Select
FRAMEWORKVERSION	QUANT	6.33	Framework Version
INSTRUMENTVERSION	LABEL	3.50	Instrument Version
ZCURVE	TABLE
	Pt	Time	Freq	Zreal	Zimag	Zsig	Zmod	Zphz	Idc	Vdc	IERange
	#	s	Hz	ohm	ohm	V	ohm	°	A	V	#
	0	2	1000078	2555.379	-1631.333	1	3031.701	-32.55384	-2.875745E-007	0.0066149	8
	1	3	794390.6	2841.961	-1506.144	1	3216.397	-27.92208	-3.88723E-006	0.0069106	8
	2	5	630984.4	3086.949	-1370.17	1	3377.368	-23.93447	-3.080971E-008	0.0060707	8
	3	6	501234.4	3301.925	-1202.096	1	3513.936	-20.00449	-7.250462E-007	0.0059424	8
	4	7	398109.4	3459.311	-1049.432	1	3614.989	-16.87593	1.340349E-006	0.005464	8
	5	9	316265.6	3581.42	-893.9208	1	3691.296	-14.01465	9.432418E-007	0.0054243	8
	6	10	251203.1	3656.094	-793.1129	1	3741.13	-12.23948	-9.01153E-007	0.0057936	8
	7	11	199546.9	3725.54	-697.4023	1	3790.253	-10.60277	3.312529E-006	0.005082	8
	8	13	158578.1	3781.231	-626.0818	1	3832.712	-9.401522	9.206314E-008	0.0056218	8
	9	14	125953.1	3831.784	-535.5814	1	3869.033	-7.956874	-6.220746E-007	0.0072547	7
	10	16	100078.1	3870.849	-498.8691	1	3902.863	-7.343712	-8.101886E-009	0.0056565	7
	11	17	79453.13	3909.999	-487.7231	1	3940.3	-7.110201	-1.382139E-008	0.0056066	7
	12	18	63140.62	3949.697	-487.0057	1	3979.608	-7.029208	1.509191E-008	0.0055535	7
	13	20	50203.12	3989.07	-498.2507	1	4020.066	-7.119599	-2.349147E-008	0.0056257	7
	14	21	39890.62	4031.989	-522.7773	1	4065.739	-7.387609	-1.621552E-008	0.0055989	7
	15	22	31640.63	4076.863	-560.956	1	4115.275	-7.834418	-1.491846E-008	0.0056952	7
	16	24	25171.88	4126.868	-612.9135	1	4172.134	-8.447694	-2.645129E-008	0.005644	7
	17	25	20015.62	4175.573	-678.509	1	4230.341	-9.229597	4.96544E-008	0.0055176	7
	18	26	15890.62	4233.102	-763.5359	1	4301.411	-10.22466	-1.45215E-008	0.0056012	7
	19	27	12609.37	4299.068	-868.754	1	4385.969	-11.42446	5.228288E-008	0.0055015	7
	20	29	10078.13	4368.659	-992.179	1	4479.911	-12.79556	-1.044703E-009	0.0056243	7
	21	30	8015.625	4445.041	-1146.632	1	4590.551	-14.46455	1.743439E-008	0.0055928	7
	22	31	6328.125	4535.538	-1340.856	1	4729.588	-16.46943	3.923188E-009	0.0055568	7
	23	33	5015.625	4637.261	-1571.356	1	4896.259	-18.71918	-2.299769E-008	0.0056213	7
	24	34	3984.375	4754.997	-1851.351	1	5102.695	-21.27337	-4.293579E-009	0.0056258	7
	25	35	3170.956	4889.337	-2183.394	1	5354.702	-24.06374	-1.832048E-008	0.0056667	7
	26	37	2527.573	5047.513	-2579.24	1	5668.321	-27.06668	1.653897E-008	0.005547	7
	27	38	1976.103	5247.757	-3099.686	1	6094.834	-30.56902	5.250167E-008	0.0055199	7
	28	39	1577.524	5465.473	-3673.981	1	6585.555	-33.90965	8.115246E-008	0.005485	7
	29	41	1265.625	5719.575	-4340.547	1	7180.104	-37.19462	-8.823569E-009	0.0056345	7
	30	42	998.264	6055.357	-5206.194	1	7985.725	-40.68784	-1.478111E-008	0.0055896	7
	31	43	796.875	6422.438	-6179.141	1	8912.323	-43.89393	-1.002045E-008	0.0056327	7
	32	45	627.7902	6887.786	-7409.142	1	10116.17	-47.08844	1.740571E-009	0.0055601	6
	33	46	505.5147	7394.474	-8742.015	1	11449.94	-49.77363	5.349817E-009	0.0054311	6
	34	47	397.9953	8033.918	-10510.98	1	13229.69	-52.60804	7.384043E-010	0.0055523	6
	35	49	315.5048	8774.339	-12566.43	1	15326.59	-55.07586	5.963059E-010	0.0055546	6
	36	50	252.4038	9606.36	-14933.31	1	17756.29	-57.24746	8.857755E-010	0.0055507	6
	37	51	198.6229	10660.98	-17992.23	1	20913.56	-59.35189	7.775494E-010	0.0055483	6
	38	53	158.3615	11837.42	-21480.44	1	24526.19	-61.14176	5.282859E-010	0.0055521	6
	39	54	125.558	13277.62	-25791.72	1	29008.76	-62.76052	8.104257E-010	0.0055534	6
	40	55	100.4464	14929.63	-30791.72	1	34220.23	-64.13318	7.843272E-010	0.0055565	6
	41	57	79.00281	17027.89	-37265.89	1	40971.89	-65.44293	5.537965E-010	0.0055499	6
	42	58	63.3446	19546.02	-44376.86	1	48490.74	-66.22866	6.098424E-010	0.0055503	6
	43	59	49.86702	22471.75	-53951.89	1	58444.72	-67.38756	5.075632E-010	0.0055528	6
	44	61	39.72458	26241.91	-64637.75	1	69761.56	-67.90363	8.001811E-010	0.0055543	6
	45	62	31.6723	30661.35	-77540.41	1	83382.45	-68.42496	4.389736E-010	0.0055542	6
	46	64	24.93351	36485.53	-93812.41	1	100657.6	-68.74794	4.628342E-010	0.0055524	6
	47	65	19.86229	43348.88	-112401.4	1	120470.8	-68.9103	3.714024E-010	0.0055527	5
	48	66	15.83615	51649.98	-134323.3	1	143911.3	-68.96725	3.549519E-010	0.0055565	5
	49	68	12.40079	63292.83	-162873.5	1	174739.1	-68.76382	2.975278E-010	0.0055651	5
	50	69	9.93114	76128	-193771.9	1	208189.9	-68.55141	4.827554E-010	0.0055527	5
	51	70	7.944915	92064.47	-230133.2	1	247865.2	-68.19619	2.256505E-010	0.0055624	5
	52	72	6.317385	112412.4	-273686.2	1	295872.7	-67.67036	5.778637E-011	0.0055704	5
	53	74	5.008013	137733.6	-325258.3	1	353218.8	-67.04933	3.731527E-010	0.0055654	5
	54	77	3.945707	170428.1	-387542.8	1	423361.7	-66.26174	1.695836E-010	0.0055616	5
	55	79	3.158693	207413.4	-454857.9	1	499916.1	-65.4872	2.927094E-010	0.0055701	5
	56	82	2.504006	255153	-535920.9	1	593560.6	-64.54079	-4.064203E-011	0.0055589	5
	57	85	1.998082	309926.3	-623076.3	1	695901.2	-63.55365	3.087191E-010	0.0055288	5
	58	88	1.584686	379325.9	-728869	1	821667.9	-62.50614	1.036666E-010	0.0055006	5
	59	92	1.266892	456245.8	-842877.4	1	958438	-61.57351	3.890948E-010	0.0055539	5
	60	96	0.999041	556497.2	-981060	1	1127905	-60.43634	-1.006802E-010	0.0055286	4
