EXPLAIN
TAG	EISPOT
TITLE	LABEL	Potentiostatic EIS	Test &Identifier
DATE	LABEL	11/22/2019	Date
TIME	LABEL	10:03:03	Time
NOTES	NOTES	4	&Notes...
	
	
	
	
PSTAT	PSTAT	REF600-11020	Potentiostat
VDC	POTEN	0.00000E+000	T	DC &Voltage (V)
FREQINIT	QUANT	1.00000E+006	Initial Fre&q. (Hz)
FREQFINAL	QUANT	1.00000E+000	Final Fre&q. (Hz)
PTSPERDEC	QUANT	1.00000E+001	Points/&decade
VAC	QUANT	2.50000E+001	AC &Voltage (mV rms)
AREA	QUANT	1.00000E-002	&Area (cm^2)
CONDIT	TWOPARAM	T	5.00000E+000	0.00000E+000	Conditionin&g	Time(s)	E(V)
DELAY	TWOPARAM	T	5.00000E+000	0.00000E+000	Init. De&lay	Time(s)	Stab.(mV/s)
SPEED	SELECTOR	0	&Optimize for:
ZGUESS	QUANT	1.00000E+005	E&stimated Z (ohms)
OCVCURVE	TABLE	19
	Pt	T	Vf	Vm	Ach	Over
	#	s	V vs. Ref.	V	V	bits
	0	0.258333	-5.13550E-003	-5.13550E-003	5.37499E-004	...........
	1	0.516667	-5.14940E-003	-5.86337E-003	5.41266E-004	...........
	2	0.775	-5.23476E-003	-6.55197E-003	5.35933E-004	...........
	3	1.03333	-5.47570E-003	-7.18904E-003	5.41699E-004	...........
	4	1.29167	-5.90454E-003	-7.79648E-003	5.46933E-004	...........
	5	1.55	-6.47027E-003	-8.37128E-003	5.42699E-004	...........
	6	1.80833	-7.09143E-003	-8.92310E-003	5.42399E-004	...........
	7	2.06667	-7.70993E-003	-9.45002E-003	5.42133E-004	...........
	8	2.325	-8.30122E-003	-9.95817E-003	5.43866E-004	...........
	9	2.58333	-8.86155E-003	-1.04455E-002	5.44999E-004	...........
	10	2.84167	-9.39459E-003	-1.09136E-002	5.39899E-004	...........
	11	3.1	-9.90450E-003	-1.13672E-002	5.39633E-004	...........
	12	3.35833	-1.03942E-002	-1.18039E-002	5.39233E-004	...........
	13	3.61667	-1.08657E-002	-1.22311E-002	5.36199E-004	...........
	14	3.875	-1.13209E-002	-1.26424E-002	5.39533E-004	...........
	15	4.13333	-1.17612E-002	-1.30443E-002	5.43566E-004	...........
	16	4.39167	-1.21880E-002	-1.34350E-002	5.43466E-004	...........
	17	4.65	-1.26023E-002	-1.38132E-002	5.43933E-004	...........
	18	4.90833	-1.30048E-002	-1.41810E-002	5.39066E-004	...........
EOC	QUANT	-0.0130048	Open Circuit (V)
PSTATMODEL	IQUANT	4	Pstat Model
PSTATSECTION	LABEL	REF600-11020	Pstat Section
PSTATSERIALNO	LABEL	11020	Pstat Serial Number
CTRLMODE	IQUANT	1	Control Mode
IESTAB	IQUANT	0	I/E Stability
CASPEED	IQUANT	1	Control Amp Speed
CONVENTION	IQUANT	1	Current Convention
ICHRANGE	IQUANT	2	Ich Range
ICHRANGEMODE	TOGGLE	F	Ich Auto Range
ICHOFFSETENABLE	TOGGLE	T	Ich Offset Enable
ICHOFFSET	QUANT	0	Ich Offset (V)
ICHFILTER	IQUANT	3	Ich Filter
VCHRANGE	IQUANT	2	Vch Range
VCHRANGEMODE	TOGGLE	F	Vch Auto Range
VCHOFFSETENABLE	TOGGLE	T	Vch Offset Enable
VCHOFFSET	QUANT	0	Vch Offset (V)
VCHFILTER	IQUANT	3	Vch Filter
ACHRANGE	IQUANT	2	Ach Range
ACHOFFSETENABLE	TOGGLE	F	Ach Offset Enable
ACHOFFSET	QUANT	0	Ach Offset (V)
ACHFILTER	IQUANT	3	Ach Filter
IERANGELOWERLIMIT	IQUANT	1	I/E Range Lower Limit
IERANGEMODE	TOGGLE	F	I/E AutoRange
IERANGE	IQUANT	5	I/E Range
POSFEEDENABLE	TOGGLE	F	Positive Feedback IR Comp
POSFEEDRESISTANCE	QUANT	0	Positive Feedback Resistance (ohm)
ACHSELECT	IQUANT	0	Ach Select
CABLEID	IQUANT	14	Cable ID
DCCALDATE	LABEL	8/19/2019	DC Calibration Date
ACCALDATE	LABEL	8/19/2019	AC Calibration Date
THERMOSELECT	IQUANT	1	Thermo Select
FRAMEWORKVERSION	QUANT	6.33	Framework Version
INSTRUMENTVERSION	LABEL	3.50	Instrument Version
ZCURVE	TABLE
	Pt	Time	Freq	Zreal	Zimag	Zsig	Zmod	Zphz	Idc	Vdc	IERange
	#	s	Hz	ohm	ohm	V	ohm	°	A	V	#
	0	1	1000078	2107.943	-1061.305	1	2360.041	-26.72429	1.231394E-005	-0.01192	8
	1	1	794390.6	2243.813	-1049.308	1	2477.043	-25.06291	-7.630073E-006	-0.0112364	8
	2	2	630984.4	2366.561	-1056.067	1	2591.503	-24.0486	4.387776E-006	-0.0118877	8
	3	2	501234.4	2470.188	-1069.316	1	2691.703	-23.40724	-7.189463E-007	-0.0117216	8
	4	2	398109.4	2584.833	-1118.148	1	2816.312	-23.39237	-4.573013E-008	-0.0117615	8
	5	3	316265.6	2714.765	-1198.764	1	2967.657	-23.82491	1.937949E-006	-0.0111812	8
	6	3	251203.1	2857.258	-1303.803	1	3140.673	-24.52782	-1.493813E-006	-0.0110578	8
	7	3	199546.9	3035.196	-1437.146	1	3358.244	-25.33726	-6.608139E-007	-0.0117766	8
	8	4	158578.1	3245.1	-1529.993	1	3587.694	-25.24284	-3.0566E-007	-0.0117466	8
	9	4	125953.1	3549.954	-1658.793	1	3918.388	-25.04535	-2.800098E-006	-0.0090979	7
	10	4	100078.1	3851.244	-1803.508	1	4252.614	-25.09333	1.348098E-007	-0.0106329	7
	11	5	79453.13	4208.577	-1905.522	1	4619.863	-24.35965	7.135292E-007	-0.0132507	7
	12	5	63140.62	4586.464	-1941.086	1	4980.308	-22.93908	-1.225824E-006	-0.0103698	7
	13	5	50203.12	4991.079	-1933.108	1	5352.362	-21.17201	6.626223E-007	-0.011429	7
	14	5	39890.62	5353.118	-1829.605	1	5657.148	-18.86956	-7.740516E-007	-0.0115903	7
	15	6	31640.63	5696.858	-1706.865	1	5947.065	-16.67902	1.349395E-007	-0.0106399	7
	16	6	25171.88	5965.903	-1542.925	1	6162.192	-14.50034	1.340331E-007	-0.0106405	7
	17	7	20015.62	6180.081	-1368.258	1	6329.734	-12.4838	1.028741E-006	-0.0123328	7
	18	7	15890.62	6316.816	-1204.469	1	6430.623	-10.79537	-3.6586E-007	-0.0122831	7
	19	7	12609.37	6440.79	-1068.321	1	6528.789	-9.417798	-1.066119E-006	-0.0098929	7
	20	8	10078.13	6530.028	-969.538	1	6601.611	-8.445222	-8.456263E-007	-0.0098595	7
	21	8	8015.625	6597.944	-904.709	1	6659.682	-7.807698	-8.450702E-007	-0.009859	7
	22	8	6328.125	6642.949	-860.3776	1	6698.435	-7.37972	-1.070861E-006	-0.0109329	7
	23	9	5015.625	6703.408	-862.5989	1	6758.68	-7.332563	7.154185E-007	-0.0132611	7
	24	9	3984.375	6736.032	-857.9743	1	6790.452	-7.258729	9.275516E-007	-0.0132117	7
	25	9	3170.956	6802.692	-968.201	1	6871.247	-8.100281	8.657578E-007	-0.0118503	7
	26	10	2527.573	6837.235	-1071.395	1	6920.67	-8.905831	4.556366E-007	-0.0111049	7
	27	10	1976.103	6856.703	-1236.728	1	6967.343	-10.22438	-3.722111E-007	-0.0122894	7
	28	11	1577.524	6894.61	-1467.551	1	7049.067	-12.01635	-7.750652E-007	-0.0116007	7
	29	11	1265.625	6955.062	-1684.432	1	7156.13	-13.61421	-1.22601E-006	-0.010384	7
	30	11	998.264	7048.719	-2043.484	1	7338.955	-16.16733	1.0279E-006	-0.0123326	7
	31	12	796.875	7119.003	-2447.479	1	7527.972	-18.97272	9.273473E-007	-0.0132181	7
	32	12	627.7902	7220.486	-2990.594	1	7815.31	-22.49845	-2.25082E-007	-0.0102326	7
	33	12	505.5147	7342.785	-3604.858	1	8179.945	-26.14821	6.634832E-007	-0.0114399	7
	34	13	397.9953	7483.06	-4425.222	1	8693.605	-30.5986	5.74978E-009	-0.011519	7
	35	13	315.5048	7674.396	-5423.02	1	9397.1	-35.24648	5.156411E-009	-0.0115181	7
	36	13	252.4038	7909.042	-6596.406	1	10298.81	-39.82924	2.527349E-009	-0.0115789	6
	37	14	198.6229	8233.075	-8150.341	1	11584.97	-44.71067	1.426443E-009	-0.0115748	6
	38	14	158.3615	8626.003	-9952.05	1	13170.08	-49.08267	1.784269E-009	-0.0115725	6
	39	14	125.558	9145.328	-12211.34	1	15256.27	-53.16969	1.482607E-009	-0.0115694	6
	40	14	100.4464	9794	-14865.59	1	17801.92	-56.62162	1.269701E-009	-0.0115815	6
	41	15	79.00281	10702.29	-18330.49	1	21226.07	-59.72141	7.767724E-010	-0.011579	6
	42	15	63.3446	11819.29	-22008.03	1	24980.97	-61.76221	5.217234E-010	-0.0115822	6
	43	16	49.86702	13474.97	-27065.79	1	30234.61	-63.53313	-1.237669E-010	-0.011584	6
	44	16	39.72458	15441.72	-32891.84	1	36336.21	-64.85137	1.598328E-009	-0.0115699	6
	45	16	31.6723	18110.56	-39692.13	1	43628.63	-65.47393	4.208903E-010	-0.0115886	6
	46	16	24.93351	21665.32	-48204.29	1	52849.22	-65.79856	3.988799E-010	-0.011592	6
	47	17	19.86229	26104.31	-57746.82	1	63372.95	-65.67477	-1.529803E-009	-0.0115841	6
	48	17	15.83615	31866.64	-67994.32	1	75091.34	-64.8891	2.550693E-009	-0.0115801	6
	49	17	12.40079	39690.73	-81716.26	1	90845.48	-64.09351	8.115689E-010	-0.0115758	6
	50	18	9.93114	48211.15	-95699.2	1	107157.1	-63.26204	4.03182E-010	-0.0115795	5
	51	18	7.944915	58658.28	-111509.6	1	125996.8	-62.25394	5.606776E-011	-0.0115734	5
	52	19	6.317385	71794.03	-129056.6	1	147682.1	-60.91288	4.809167E-010	-0.0115762	5
	53	19	5.008013	87532.13	-148713.7	1	172562	-59.51915	1.195861E-009	-0.0115779	5
	54	21	3.945707	106220.1	-170968.5	1	201278.2	-58.14794	6.771682E-010	-0.0115919	5
	55	22	3.158693	126209.8	-193492.4	1	231015.6	-56.88469	1.136942E-009	-0.0115893	5
	56	24	2.504006	148960.5	-219628.8	1	265379	-55.8534	1.205156E-009	-0.0115819	5
	57	25	1.998082	173168.8	-246929.5	1	301598.4	-54.95848	8.134652E-010	-0.0116211	5
	58	26	1.584686	199688.6	-279930.7	1	343855.7	-54.49782	7.611377E-010	-0.0116269	5
	59	28	1.266892	226293.4	-316058.4	1	388717.9	-54.39786	8.017489E-010	-0.011603	5
	60	31	0.999041	257017.4	-360944.2	1	443101.2	-54.54649	8.496355E-010	-0.0115691	5
