EXPLAIN
TAG	EISPOT
TITLE	LABEL	Potentiostatic EIS	Test &Identifier
DATE	LABEL	11/22/2019	Date
TIME	LABEL	0:01:26	Time
NOTES	NOTES	4	&Notes...
	
	
	
	
PSTAT	PSTAT	REF600-11020	Potentiostat
VDC	POTEN	0.00000E+000	T	DC &Voltage (V)
FREQINIT	QUANT	1.00000E+006	Initial Fre&q. (Hz)
FREQFINAL	QUANT	1.00000E+000	Final Fre&q. (Hz)
PTSPERDEC	QUANT	1.00000E+001	Points/&decade
VAC	QUANT	2.50000E+001	AC &Voltage (mV rms)
AREA	QUANT	1.00000E-002	&Area (cm^2)
CONDIT	TWOPARAM	T	5.00000E+000	0.00000E+000	Conditionin&g	Time(s)	E(V)
DELAY	TWOPARAM	T	5.00000E+000	0.00000E+000	Init. De&lay	Time(s)	Stab.(mV/s)
SPEED	SELECTOR	1	&Optimize for:
ZGUESS	QUANT	1.00000E+005	E&stimated Z (ohms)
OCVCURVE	TABLE	19
	Pt	T	Vf	Vm	Ach	Over
	#	s	V vs. Ref.	V	V	bits
	0	0.258333	2.22031E-003	2.22031E-003	5.33500E-004	...........
	1	0.516667	2.21271E-003	1.82260E-003	5.35799E-004	...........
	2	0.775	2.16716E-003	1.50312E-003	5.31333E-004	...........
	3	1.03333	2.04266E-003	1.23447E-003	5.31200E-004	...........
	4	1.29167	1.82964E-003	9.50265E-004	5.27833E-004	...........
	5	1.55	1.55850E-003	6.33487E-004	5.31766E-004	...........
	6	1.80833	1.26652E-003	4.58510E-004	5.35399E-004	...........
	7	2.06667	9.80358E-004	2.69495E-004	5.35533E-004	...........
	8	2.325	7.19019E-004	9.42181E-005	5.29566E-004	...........
	9	2.58333	4.90990E-004	-6.77484E-005	5.36899E-004	...........
	10	2.84167	2.92312E-004	-2.22642E-004	5.32933E-004	...........
	11	3.1	1.14263E-004	-3.63334E-004	5.35133E-004	...........
	12	3.35833	-4.97763E-005	-5.01245E-004	5.31700E-004	...........
	13	3.61667	-2.03465E-004	-6.38267E-004	5.30233E-004	...........
	14	3.875	-3.49055E-004	-7.60027E-004	5.29499E-004	...........
	15	4.13333	-4.88022E-004	-8.84531E-004	5.37533E-004	...........
	16	4.39167	-6.22291E-004	-1.06634E-003	5.43766E-004	...........
	17	4.65	-7.55566E-004	-1.14232E-003	5.39833E-004	...........
	18	4.90833	-8.88746E-004	-1.25057E-003	5.36799E-004	...........
EOC	QUANT	-0.0008887	Open Circuit (V)
PSTATMODEL	IQUANT	4	Pstat Model
PSTATSECTION	LABEL	REF600-11020	Pstat Section
PSTATSERIALNO	LABEL	11020	Pstat Serial Number
CTRLMODE	IQUANT	1	Control Mode
IESTAB	IQUANT	0	I/E Stability
CASPEED	IQUANT	1	Control Amp Speed
CONVENTION	IQUANT	1	Current Convention
ICHRANGE	IQUANT	2	Ich Range
ICHRANGEMODE	TOGGLE	F	Ich Auto Range
ICHOFFSETENABLE	TOGGLE	T	Ich Offset Enable
ICHOFFSET	QUANT	0	Ich Offset (V)
ICHFILTER	IQUANT	3	Ich Filter
VCHRANGE	IQUANT	2	Vch Range
VCHRANGEMODE	TOGGLE	F	Vch Auto Range
VCHOFFSETENABLE	TOGGLE	T	Vch Offset Enable
VCHOFFSET	QUANT	0	Vch Offset (V)
VCHFILTER	IQUANT	3	Vch Filter
ACHRANGE	IQUANT	2	Ach Range
ACHOFFSETENABLE	TOGGLE	F	Ach Offset Enable
ACHOFFSET	QUANT	0	Ach Offset (V)
ACHFILTER	IQUANT	3	Ach Filter
IERANGELOWERLIMIT	IQUANT	1	I/E Range Lower Limit
IERANGEMODE	TOGGLE	F	I/E AutoRange
IERANGE	IQUANT	4	I/E Range
POSFEEDENABLE	TOGGLE	F	Positive Feedback IR Comp
POSFEEDRESISTANCE	QUANT	0	Positive Feedback Resistance (ohm)
ACHSELECT	IQUANT	0	Ach Select
CABLEID	IQUANT	14	Cable ID
DCCALDATE	LABEL	8/19/2019	DC Calibration Date
ACCALDATE	LABEL	8/19/2019	AC Calibration Date
THERMOSELECT	IQUANT	1	Thermo Select
FRAMEWORKVERSION	QUANT	6.33	Framework Version
INSTRUMENTVERSION	LABEL	3.50	Instrument Version
ZCURVE	TABLE
	Pt	Time	Freq	Zreal	Zimag	Zsig	Zmod	Zphz	Idc	Vdc	IERange
	#	s	Hz	ohm	ohm	V	ohm	°	A	V	#
	0	2	1000078	2299.025	-1489.428	1	2739.327	-32.93726	1.15171E-005	-0.0001221	8
	1	3	794390.6	2594.602	-1373.605	1	2935.77	-27.89714	-4.974947E-006	0.0003899	8
	2	4	630984.4	2830.489	-1250.282	1	3094.329	-23.83198	-7.177851E-007	0.0003715	8
	3	6	501234.4	3031.047	-1101.879	1	3225.117	-19.97777	6.670498E-006	-0.0002054	8
	4	7	398109.4	3179.323	-977.837	1	3326.298	-17.09587	-6.285931E-007	0.0001895	8
	5	8	316265.6	3301.738	-849.8889	1	3409.367	-14.43494	6.129506E-006	-0.0002189	8
	6	10	251203.1	3379.199	-742.4183	1	3459.793	-12.39116	-8.967265E-007	0.000211	8
	7	11	199546.9	3452.793	-653.0012	1	3513.999	-10.70944	-6.522262E-007	0.0002172	8
	8	12	158578.1	3533.616	-590.2581	1	3582.576	-9.483177	-1.516317E-006	0.0002817	8
	9	14	125953.1	3576.692	-476.1629	1	3608.249	-7.583163	5.52122E-007	0.0027467	7
	10	15	100078.1	3604.396	-442.2932	1	3631.432	-6.995756	8.270072E-007	0.0002564	7
	11	16	79453.13	3642.329	-430.935	1	3667.733	-6.747471	8.264649E-007	0.0002563	7
	12	18	63140.62	3677.48	-426.175	1	3702.092	-6.610393	-1.10294E-006	0.0020773	7
	13	19	50203.12	3715.352	-434.154	1	3740.632	-6.665019	6.076211E-007	0.0006724	7
	14	21	39890.62	3754.856	-449.6699	1	3781.686	-6.829042	6.48205E-008	0.0014242	7
	15	22	31640.63	3795.061	-476.4949	1	3824.857	-7.156415	-6.292694E-007	0.0020592	7
	16	23	25171.88	3842.673	-514.4648	1	3876.959	-7.62553	8.320501E-007	0.0002418	7
	17	25	20015.62	3891.586	-561.6353	1	3931.905	-8.212249	1.108638E-006	-0.0006749	7
	18	26	15890.62	3942.465	-622.2719	1	3991.272	-8.96947	-2.980273E-007	0.0018248	7
	19	27	12609.37	4002.962	-697.0152	1	4063.192	-9.87759	-6.300663E-007	0.0020658	7
	20	29	10078.13	4069.246	-776.7773	1	4142.722	-10.80716	1.021377E-006	-0.0002509	7
	21	30	8015.625	4138.992	-884.7303	1	4232.493	-12.06568	1.021067E-006	-0.0002506	7
	22	32	6328.125	4223.128	-1015.405	1	4343.485	-13.51952	1.094495E-006	-0.0010013	7
	23	33	5015.625	4304.261	-1166.791	1	4459.604	-15.16713	-1.044382E-006	0.0009546	7
	24	34	3984.375	4404.149	-1347.078	1	4605.557	-17.00707	6.090181E-007	0.0006654	7
	25	36	3170.956	4505.024	-1564.686	1	4769.013	-19.15315	5.021207E-007	-0.0012246	7
	26	37	2527.573	4616.339	-1822.092	1	4962.923	-21.53939	8.291731E-007	0.0002471	7
	27	38	1976.103	4750.401	-2164.97	1	5220.48	-24.50088	6.387353E-008	0.0014188	7
	28	40	1577.524	4868.159	-2545.622	1	5493.557	-27.60563	3.857299E-007	0.0009866	7
	29	41	1265.625	5039.786	-3011.315	1	5870.9	-30.85868	1.106739E-006	-0.0006758	7
	30	42	998.264	5225.916	-3604.374	1	6348.362	-34.59447	-1.104301E-006	0.0020697	7
	31	44	796.875	5430.555	-4300.003	1	6926.829	-38.37276	-2.989353E-007	0.0018082	7
	32	45	627.7902	5677.561	-5189.153	1	7691.684	-42.42656	-1.104024E-006	0.0020745	7
	33	46	505.5147	5935.69	-6182.544	1	8570.664	-46.16698	-1.049458E-006	0.0009563	7
	34	48	397.9953	6265.994	-7510.725	1	9781.29	-50.16267	3.660937E-009	0.000478	7
	35	49	315.5048	6642.084	-9097.868	1	11264.48	-53.86792	8.092518E-010	0.0004161	6
	36	50	252.4038	7056.893	-10971.63	1	13045.17	-57.2511	1.730399E-009	0.0004025	6
	37	52	198.6229	7585.494	-13448.74	1	15440.48	-60.5757	4.990185E-010	0.0004184	6
	38	53	158.3615	8194.18	-16338.96	1	18278.57	-63.3657	1.163433E-009	0.0004137	6
	39	54	125.558	8957.301	-19992.33	1	21907.23	-65.86586	7.828489E-010	0.0004232	6
	40	56	100.4464	9901.21	-24300.65	1	26240.34	-67.83174	1.220779E-009	0.0004234	6
	41	57	79.00281	11159.6	-29947.32	1	31959.02	-69.56255	-2.006482E-012	0.0004197	6
	42	58	63.3446	12389.91	-36513.29	1	38558.14	-71.25659	9.839517E-010	0.0004119	6
	43	60	49.86702	15005.4	-44669.18	1	47122.15	-71.43162	2.024486E-010	0.0004223	6
	44	61	39.72458	17606.08	-54679.42	1	57444	-72.1521	6.862987E-010	0.0004268	6
	45	63	31.6723	21141.95	-66242.4	1	69534.44	-72.29897	2.835973E-010	0.0004222	6
	46	64	24.93351	25921.29	-81236.21	1	85271.54	-72.30287	6.093536E-010	0.0004156	6
	47	65	19.86229	31945.64	-98137.5	1	103206.1	-71.96894	4.4152E-010	0.000406	6
	48	67	15.83615	39115.41	-118524.8	1	124812.5	-71.73615	-4.163241E-010	0.0004153	5
	49	68	12.40079	51267.5	-143672.5	1	152545.5	-70.36177	-7.463656E-010	0.0004208	5
	50	69	9.93114	62465.32	-171088	1	182134.6	-69.94254	2.473436E-010	0.0004219	5
	51	71	7.944915	76886.32	-203003.4	1	217075.8	-69.25612	6.69124E-010	0.0004086	5
	52	73	6.317385	96932.5	-239932.1	1	258772.8	-68.0013	4.964186E-010	0.0003954	5
	53	75	5.008013	121301.4	-284163.8	1	308971	-66.88374	8.719235E-011	0.0004165	5
	54	77	3.945707	151378.8	-336366	1	368859.9	-65.77026	3.435184E-010	0.0004236	5
	55	80	3.158693	185707.7	-392823.8	1	434508.8	-64.69753	5.264973E-011	0.0003934	5
	56	83	2.504006	229401.2	-459381.6	1	513474.8	-63.46385	5.163171E-010	0.0004133	5
	57	86	1.998082	280546.2	-531830	1	601289.7	-62.18786	1.779058E-010	0.0004561	5
	58	89	1.584686	341017.1	-615663.6	1	703799.9	-61.01786	2.765174E-010	0.0004374	5
	59	93	1.266892	413008.2	-704915.6	1	816995.6	-59.63408	5.803261E-011	0.0004605	5
	60	97	0.999041	498202.2	-809980.3	1	950933	-58.40519	2.494707E-010	0.0003876	5
