EXPLAIN
TAG	EISPOT
TITLE	LABEL	Potentiostatic EIS	Test &Identifier
DATE	LABEL	10/4/2019	Date
TIME	LABEL	9:19:29	Time
NOTES	NOTES	2	&Notes...
	
	
PSTAT	PSTAT	REF600-11020	Potentiostat
VDC	POTEN	0.00000E+000	T	DC &Voltage (V)
FREQINIT	QUANT	1.00000E+006	Initial Fre&q. (Hz)
FREQFINAL	QUANT	1.00000E+000	Final Fre&q. (Hz)
PTSPERDEC	QUANT	1.00000E+001	Points/&decade
VAC	QUANT	2.50000E+001	AC &Voltage (mV rms)
AREA	QUANT	1.00000E-002	&Area (cm^2)
CONDIT	TWOPARAM	T	5.00000E+000	0.00000E+000	Conditionin&g	Time(s)	E(V)
DELAY	TWOPARAM	T	5.00000E+000	0.00000E+000	Init. De&lay	Time(s)	Stab.(mV/s)
SPEED	SELECTOR	1	&Optimize for:
ZGUESS	QUANT	1.00000E+004	E&stimated Z (ohms)
OCVCURVE	TABLE	19
	Pt	T	Vf	Vm	Ach	Over
	#	s	V vs. Ref.	V	V	bits
	0	0.258333	4.31174E-003	4.31174E-003	5.62766E-004	...........
	1	0.516667	4.31076E-003	4.26024E-003	5.64532E-004	...........
	2	0.775	4.30487E-003	4.21922E-003	5.64866E-004	...........
	3	1.03333	4.28887E-003	4.18893E-003	5.62632E-004	...........
	4	1.29167	4.26212E-003	4.16851E-003	5.63299E-004	...........
	5	1.55	4.23008E-003	4.14630E-003	5.63932E-004	...........
	6	1.80833	4.19921E-003	4.13074E-003	5.68299E-004	...........
	7	2.06667	4.17287E-003	4.12034E-003	5.69332E-004	...........
	8	2.325	4.15172E-003	4.11185E-003	5.67832E-004	...........
	9	2.58333	4.13540E-003	4.10769E-003	5.67132E-004	...........
	10	2.84167	4.12326E-003	4.10139E-003	5.62032E-004	...........
	11	3.1	4.11451E-003	4.10273E-003	5.66499E-004	...........
	12	3.35833	4.10835E-003	4.09634E-003	5.63666E-004	...........
	13	3.61667	4.10415E-003	4.10211E-003	5.68432E-004	...........
	14	3.875	4.10149E-003	4.09815E-003	5.65932E-004	...........
	15	4.13333	4.10002E-003	4.09586E-003	5.60799E-004	...........
	16	4.39167	4.09908E-003	4.09520E-003	5.59032E-004	...........
	17	4.65	4.09806E-003	4.09714E-003	5.58932E-004	...........
	18	4.90833	4.09710E-003	4.09816E-003	5.57532E-004	...........
EOC	QUANT	0.0040971	Open Circuit (V)
PSTATMODEL	IQUANT	4	Pstat Model
PSTATSECTION	LABEL	REF600-11020	Pstat Section
PSTATSERIALNO	LABEL	11020	Pstat Serial Number
CTRLMODE	IQUANT	1	Control Mode
IESTAB	IQUANT	0	I/E Stability
CASPEED	IQUANT	1	Control Amp Speed
CONVENTION	IQUANT	1	Current Convention
ICHRANGE	IQUANT	2	Ich Range
ICHRANGEMODE	TOGGLE	F	Ich Auto Range
ICHOFFSETENABLE	TOGGLE	T	Ich Offset Enable
ICHOFFSET	QUANT	0	Ich Offset (V)
ICHFILTER	IQUANT	3	Ich Filter
VCHRANGE	IQUANT	2	Vch Range
VCHRANGEMODE	TOGGLE	F	Vch Auto Range
VCHOFFSETENABLE	TOGGLE	T	Vch Offset Enable
VCHOFFSET	QUANT	0	Vch Offset (V)
VCHFILTER	IQUANT	3	Vch Filter
ACHRANGE	IQUANT	2	Ach Range
ACHOFFSETENABLE	TOGGLE	F	Ach Offset Enable
ACHOFFSET	QUANT	0	Ach Offset (V)
ACHFILTER	IQUANT	3	Ach Filter
IERANGELOWERLIMIT	IQUANT	1	I/E Range Lower Limit
IERANGEMODE	TOGGLE	F	I/E AutoRange
IERANGE	IQUANT	5	I/E Range
POSFEEDENABLE	TOGGLE	F	Positive Feedback IR Comp
POSFEEDRESISTANCE	QUANT	0	Positive Feedback Resistance (ohm)
ACHSELECT	IQUANT	0	Ach Select
CABLEID	IQUANT	14	Cable ID
DCCALDATE	LABEL	8/19/2019	DC Calibration Date
ACCALDATE	LABEL	8/19/2019	AC Calibration Date
THERMOSELECT	IQUANT	1	Thermo Select
FRAMEWORKVERSION	QUANT	6.33	Framework Version
INSTRUMENTVERSION	LABEL	3.50	Instrument Version
ZCURVE	TABLE
	Pt	Time	Freq	Zreal	Zimag	Zsig	Zmod	Zphz	Idc	Vdc	IERange
	#	s	Hz	ohm	ohm	V	ohm	°	A	V	#
	0	2	1000078	1632.872	-2683.263	1	3141.046	-58.67783	5.083426E-006	0.0048611	8
	1	3	794390.6	1806.566	-3138.069	1	3620.933	-60.07125	3.345564E-006	0.0050013	8
	2	5	630984.4	1995.063	-3707.03	1	4209.792	-61.71159	-1.948766E-006	0.0062169	8
	3	6	501234.4	2208.928	-4434.123	1	4953.868	-63.51908	-6.259274E-007	0.0057827	8
	4	8	398109.4	2478.688	-5316.367	1	5865.803	-65.00332	-7.639554E-007	0.0057125	8
	5	9	316265.6	2741.966	-6366.446	1	6931.811	-66.69893	4.092246E-006	0.0048492	8
	6	11	251203.1	3200.966	-7718.454	1	8355.879	-67.47543	3.834019E-006	0.0048461	8
	7	13	199546.9	3750.318	-9265.058	1	9995.31	-67.96284	-2.477853E-006	0.0060644	8
	8	15	158578.1	4376.423	-11128.79	1	11958.39	-68.53265	-3.809355E-006	0.0062524	8
	9	16	125953.1	5483.009	-13419.16	1	14496.11	-67.77528	-4.75546E-007	0.0061304	7
	10	18	100078.1	6636.06	-16176.31	1	17484.57	-67.69493	-6.311282E-008	0.0057473	7
	11	19	79453.13	8189.197	-19422.89	1	21078.71	-67.13845	-5.422115E-008	0.0055733	7
	12	21	63140.62	10173.71	-23216.11	1	25347.43	-66.33611	-5.428286E-008	0.0055668	7
	13	22	50203.12	12769.32	-27538.05	1	30354.57	-65.12298	-5.41455E-008	0.0055685	7
	14	24	39890.62	16045.09	-32539.9	1	36280.71	-63.75257	-5.687963E-008	0.0056576	7
	15	25	31640.63	20547.64	-38150.54	1	43332.08	-61.69337	9.420144E-008	0.0053008	7
	16	26	25171.88	26131.03	-43872.57	1	51064.99	-59.22146	-9.3797E-008	0.0056352	7
	17	28	20015.62	33156.23	-50106.88	1	60083.56	-56.50699	-1.298373E-008	0.0055262	7
	18	29	15890.62	41923.12	-56074.24	1	70013.34	-53.21688	-1.921027E-008	0.0055472	7
	19	31	12609.37	52914.39	-61075.75	1	80809.53	-49.09522	-9.762573E-009	0.0056183	6
	20	32	10078.13	64163.99	-65269.35	1	91526.53	-45.4893	4.269698E-009	0.0055675	6
	21	34	8015.625	76512.51	-68106.42	1	102433.6	-41.67338	3.588879E-009	0.0053087	6
	22	35	6328.125	89602.44	-69488.59	1	113389.9	-37.79434	-9.557652E-009	0.0056861	6
	23	36	5015.625	102132.4	-69280.91	1	123413.4	-34.15078	-3.498295E-009	0.0056186	6
	24	38	3984.375	113864.7	-67812.48	1	132528.1	-30.77605	3.774277E-009	0.0052395	6
	25	40	3170.956	124808.4	-66211.61	1	141283.8	-27.94623	4.268365E-009	0.0054834	6
	26	41	2527.573	134305.5	-63671.3	1	148633.8	-25.3646	3.886371E-009	0.0052335	6
	27	43	1976.103	143961.1	-61430.23	1	156519.9	-23.10862	-1.050642E-008	0.0056905	6
	28	44	1577.524	152263.4	-60084.03	1	163689.5	-21.53448	1.714749E-008	0.0051181	6
	29	46	1265.625	160582.5	-56084.84	1	170094.9	-19.2522	-5.637555E-010	0.0056783	5
	30	47	998.264	167592.8	-55916.91	1	176675	-18.45114	7.069155E-010	0.0055415	5
	31	49	796.875	174286.9	-56470.68	1	183207.2	-17.95284	-1.321315E-009	0.0056267	5
	32	50	627.7902	181532	-57548.9	1	190435.6	-17.58955	-1.50084E-009	0.0056181	5
	33	51	505.5147	188242.7	-59080.14	1	197296.2	-17.42451	3.747012E-010	0.005548	5
	34	53	397.9953	195888.1	-61503.31	1	205316.3	-17.43081	3.982948E-010	0.0054719	5
	35	54	315.5048	203680.9	-64506.27	1	213651.5	-17.57313	-4.276559E-010	0.0054649	5
	36	55	252.4038	211372.2	-67835.01	1	221990.6	-17.79283	4.43998E-010	0.0054647	5
	37	57	198.6229	219834.7	-72612.7	1	231516.5	-18.27869	1.146493E-010	0.0054655	5
	38	58	158.3615	228693	-77777.11	1	241557	-18.78286	5.485046E-011	0.005463	5
	39	60	125.558	237587.3	-84218.27	1	252072.3	-19.51804	9.830171E-011	0.0054668	5
	40	61	100.4464	246882.8	-91302.12	1	263224.6	-20.29539	4.129061E-011	0.0054639	5
	41	63	79.00281	258759.3	-100345.4	1	277534.8	-21.196	2.524741E-010	0.0054627	5
	42	64	63.3446	270722.1	-98908.9	1	288224.6	-20.06989	-3.369331E-010	0.0054603	5
	43	66	49.86702	281985	-124707.7	1	308330.3	-23.85738	3.622899E-011	0.0054612	5
	44	67	39.72458	295072.9	-139603.8	1	326431.1	-25.31959	2.765118E-010	0.0054652	5
	45	69	31.6723	308438.1	-160623.3	1	347755.5	-27.50885	-1.992309E-010	0.0054658	5
	46	70	24.93351	329190.6	-180964.4	1	375652.2	-28.79871	-1.960839E-010	0.0054643	5
	47	72	19.86229	351039	-205727.3	1	406881	-30.37254	-4.506239E-010	0.0054698	5
	48	73	15.83615	380967	-230339.6	1	445187.8	-31.15792	2.132678E-010	0.0054693	5
	49	74	12.40079	413147.6	-264445.4	1	490532.7	-32.62228	-1.019912E-010	0.0054729	5
	50	76	9.93114	445212.2	-291136.8	1	531953.6	-33.1818	3.667373E-010	0.0054656	5
	51	77	7.944915	481353.9	-326695	1	581748.4	-34.16475	-2.798675E-010	0.0054726	5
	52	79	6.317385	524331.5	-355209.2	1	633322.3	-34.11574	-2.453815E-010	0.0054806	5
	53	81	5.008013	572783.4	-393146.1	1	694726.4	-34.46486	1.982847E-010	0.0054661	6
	54	84	3.945707	622827.2	-433870.7	1	759050.4	-34.86164	4.708919E-010	0.0054703	6
	55	87	3.158693	674306.9	-477496.4	1	826252.2	-35.30342	3.924658E-010	0.0054779	6
	56	91	2.504006	732163.1	-528895.5	1	903212.8	-35.84336	-2.108147E-010	0.0054699	5
	57	93	1.998082	790653.1	-584643.6	1	983331	-36.48085	8.24054E-011	0.0054234	4
	58	96	1.584686	854782.6	-654449.6	1	1076549	-37.43885	-8.01014E-011	0.0054624	4
	59	100	1.266892	923018.8	-730302.1	1	1176990	-38.35141	6.377659E-011	0.0054233	4
	60	104	0.999041	1001210	-827508.3	1	1298919	-39.57402	4.634808E-011	0.0055013	4
