EXPLAIN
TAG	EISPOT
TITLE	LABEL	Potentiostatic EIS	Test &Identifier
DATE	LABEL	10/24/2019	Date
TIME	LABEL	9:53:26	Time
NOTES	NOTES	1	&Notes...
	
PSTAT	PSTAT	REF600-11020	Potentiostat
VDC	POTEN	0.00000E+000	T	DC &Voltage (V)
FREQINIT	QUANT	1.00000E+006	Initial Fre&q. (Hz)
FREQFINAL	QUANT	1.00000E+000	Final Fre&q. (Hz)
PTSPERDEC	QUANT	1.00000E+001	Points/&decade
VAC	QUANT	2.50000E+001	AC &Voltage (mV rms)
AREA	QUANT	1.00000E-002	&Area (cm^2)
CONDIT	TWOPARAM	T	5.00000E+000	0.00000E+000	Conditionin&g	Time(s)	E(V)
DELAY	TWOPARAM	T	5.00000E+000	0.00000E+000	Init. De&lay	Time(s)	Stab.(mV/s)
SPEED	SELECTOR	1	&Optimize for:
ZGUESS	QUANT	1.00000E+005	E&stimated Z (ohms)
OCVCURVE	TABLE	19
	Pt	T	Vf	Vm	Ach	Over
	#	s	V vs. Ref.	V	V	bits
	0	0.258333	5.15959E-003	5.15959E-003	5.53966E-004	...........
	1	0.516667	5.15869E-003	5.11210E-003	5.52066E-004	...........
	2	0.775	5.15301E-003	5.06171E-003	5.47166E-004	...........
	3	1.03333	5.13707E-003	5.03688E-003	5.40099E-004	...........
	4	1.29167	5.10984E-003	5.01296E-003	5.44199E-004	...........
	5	1.55	5.07702E-003	4.99426E-003	5.45499E-004	...........
	6	1.80833	5.04585E-003	4.98922E-003	5.49799E-004	...........
	7	2.06667	5.02037E-003	4.96611E-003	5.47733E-004	...........
	8	2.325	4.99923E-003	4.87847E-003	5.44366E-004	...........
	9	2.58333	4.97613E-003	4.89714E-003	5.47366E-004	...........
	10	2.84167	4.94816E-003	4.90087E-003	5.43799E-004	...........
	11	3.1	4.92238E-003	4.92087E-003	5.39366E-004	...........
	12	3.35833	4.90813E-003	4.92794E-003	5.39466E-004	...........
	13	3.61667	4.90702E-003	4.92868E-003	5.47366E-004	...........
	14	3.875	4.91347E-003	4.92608E-003	5.39766E-004	...........
	15	4.13333	4.92074E-003	4.92597E-003	5.47933E-004	...........
	16	4.39167	4.92521E-003	4.92723E-003	5.47233E-004	...........
	17	4.65	4.92703E-003	4.93622E-003	5.46999E-004	...........
	18	4.90833	4.92838E-003	4.94529E-003	5.45899E-004	...........
EOC	QUANT	0.0049284	Open Circuit (V)
PSTATMODEL	IQUANT	4	Pstat Model
PSTATSECTION	LABEL	REF600-11020	Pstat Section
PSTATSERIALNO	LABEL	11020	Pstat Serial Number
CTRLMODE	IQUANT	1	Control Mode
IESTAB	IQUANT	0	I/E Stability
CASPEED	IQUANT	1	Control Amp Speed
CONVENTION	IQUANT	1	Current Convention
ICHRANGE	IQUANT	2	Ich Range
ICHRANGEMODE	TOGGLE	F	Ich Auto Range
ICHOFFSETENABLE	TOGGLE	T	Ich Offset Enable
ICHOFFSET	QUANT	0	Ich Offset (V)
ICHFILTER	IQUANT	3	Ich Filter
VCHRANGE	IQUANT	2	Vch Range
VCHRANGEMODE	TOGGLE	F	Vch Auto Range
VCHOFFSETENABLE	TOGGLE	T	Vch Offset Enable
VCHOFFSET	QUANT	0	Vch Offset (V)
VCHFILTER	IQUANT	3	Vch Filter
ACHRANGE	IQUANT	2	Ach Range
ACHOFFSETENABLE	TOGGLE	F	Ach Offset Enable
ACHOFFSET	QUANT	0	Ach Offset (V)
ACHFILTER	IQUANT	3	Ach Filter
IERANGELOWERLIMIT	IQUANT	1	I/E Range Lower Limit
IERANGEMODE	TOGGLE	F	I/E AutoRange
IERANGE	IQUANT	4	I/E Range
POSFEEDENABLE	TOGGLE	F	Positive Feedback IR Comp
POSFEEDRESISTANCE	QUANT	0	Positive Feedback Resistance (ohm)
ACHSELECT	IQUANT	0	Ach Select
CABLEID	IQUANT	14	Cable ID
DCCALDATE	LABEL	8/19/2019	DC Calibration Date
ACCALDATE	LABEL	8/19/2019	AC Calibration Date
THERMOSELECT	IQUANT	1	Thermo Select
FRAMEWORKVERSION	QUANT	6.33	Framework Version
INSTRUMENTVERSION	LABEL	3.50	Instrument Version
ZCURVE	TABLE
	Pt	Time	Freq	Zreal	Zimag	Zsig	Zmod	Zphz	Idc	Vdc	IERange
	#	s	Hz	ohm	ohm	V	ohm	°	A	V	#
	0	1	1000078	2128.302	-1246.799	1	2466.613	-30.36256	2.162779E-006	0.0072162	8
	1	2	794390.6	2339.295	-1198.345	1	2628.371	-27.12461	9.475162E-007	0.0066525	8
	2	4	630984.4	2543.317	-1130.259	1	2783.154	-23.96052	-2.978443E-006	0.0073608	8
	3	5	501234.4	2714.45	-1067.696	1	2916.884	-21.47159	-2.262675E-006	0.0072423	8
	4	7	398109.4	2880.099	-982.644	1	3043.116	-18.83883	1.41522E-006	0.006326	8
	5	8	316265.6	3004.378	-905.0425	1	3137.737	-16.76447	-3.686699E-007	0.0067331	8
	6	9	251203.1	3122.031	-832.8275	1	3231.204	-14.93631	-7.012966E-007	0.0067134	8
	7	11	199546.9	3219.366	-783.1823	1	3313.26	-13.67287	-7.362747E-007	0.0067241	8
	8	12	158578.1	3307.699	-728.9838	1	3387.077	-12.42873	-1.525289E-007	0.0066864	8
	9	13	125953.1	3400.555	-651.1354	1	3462.333	-10.83974	1.489002E-007	0.0063468	7
	10	15	100078.1	3474.812	-635.2739	1	3532.406	-10.36054	-4.721504E-008	0.0065798	7
	11	16	79453.13	3544.944	-631.7032	1	3600.789	-10.10396	-1.16447E-010	0.0064983	7
	12	17	63140.62	3615.946	-636.4683	1	3671.533	-9.98278	-3.240294E-009	0.0065524	7
	13	19	50203.12	3690.823	-649.9305	1	3747.61	-9.98703	6.185139E-008	0.0063962	7
	14	20	39890.62	3767.209	-670.5496	1	3826.421	-10.09274	4.805257E-010	0.0064971	7
	15	22	31640.63	3848.465	-699.1407	1	3911.455	-10.29648	-3.622136E-008	0.0065579	7
	16	23	25171.88	3933.557	-736.0069	1	4001.821	-10.59805	6.27515E-008	0.0063858	7
	17	24	20015.62	4022.143	-779.6824	1	4097.016	-10.97058	-9.665546E-010	0.0064887	7
	18	26	15890.62	4119.093	-834.0634	1	4202.688	-11.44689	-2.373527E-008	0.0065119	7
	19	27	12609.37	4221.729	-896.2639	1	4315.818	-11.98582	6.138728E-008	0.006379	7
	20	28	10078.13	4328.529	-966.039	1	4435.02	-12.58107	-1.98488E-008	0.0065675	7
	21	30	8015.625	4441.35	-1043.331	1	4562.25	-13.21983	3.230204E-008	0.0064101	7
	22	31	6328.125	4566.565	-1142.959	1	4707.427	-14.0518	-4.404741E-008	0.006586	7
	23	33	5015.625	4691.146	-1250.422	1	4854.937	-14.92514	3.122848E-008	0.0064105	7
	24	34	3984.375	4813.253	-1382.774	1	5007.941	-16.02855	2.320472E-010	0.006486	7
	25	35	3170.956	4942.104	-1527.763	1	5172.857	-17.17806	5.427066E-008	0.0064218	7
	26	37	2527.573	5060.767	-1713.008	1	5342.823	-18.70033	5.265639E-008	0.0064224	7
	27	38	1976.103	5189.28	-1966.747	1	5549.479	-20.7568	-3.634637E-008	0.0065517	7
	28	39	1577.524	5279.56	-2227.799	1	5730.344	-22.87813	6.334845E-008	0.0063809	7
	29	41	1265.625	5431.353	-2642.378	1	6040.013	-25.94314	1.216022E-008	0.0065825	7
	30	42	998.264	5575.98	-3147.775	1	6403.128	-29.44577	1.212377E-008	0.0065744	7
	31	44	796.875	5736.68	-3752.043	1	6854.73	-33.18646	-4.857478E-008	0.0066641	7
	32	45	627.7902	5944.893	-4547.447	1	7484.72	-37.41358	7.025636E-008	0.0064535	7
	33	46	505.5147	6183.774	-5442.443	1	8237.673	-41.35155	-4.088868E-009	0.0065165	7
	34	48	397.9953	6523.374	-6646.85	1	9313.163	-45.53716	5.3655E-009	0.0065293	7
	35	49	315.5048	6952.469	-8081.002	1	10660.18	-49.29303	1.016598E-009	0.0064698	6
	36	50	252.4038	7484.11	-9745.62	1	12287.76	-52.4777	1.265687E-009	0.0064665	6
	37	52	198.6229	8234.149	-11899.53	1	14470.66	-55.31783	1.014317E-009	0.00647	6
	38	53	158.3615	9161.001	-14339.26	1	17015.83	-57.42649	1.53023E-009	0.006465	6
	39	55	125.558	10406.32	-17295.13	1	20184.47	-58.96507	6.191094E-010	0.0064652	6
	40	56	100.4464	11930.9	-20619.02	1	23822.06	-59.9448	-8.964567E-011	0.0064634	6
	41	57	79.00281	14154.77	-24788.59	1	28545.26	-60.27279	6.21253E-010	0.0064635	6
	42	59	63.3446	16699.52	-29429.55	1	33837.45	-60.42767	2.507353E-010	0.0064632	6
	43	60	49.86702	19811.01	-34566.26	1	39840.96	-60.18162	-2.233883E-010	0.0064598	6
	44	62	39.72458	23905.76	-40079.4	1	46667.37	-59.18561	5.017063E-010	0.0064673	6
	45	63	31.6723	28659.7	-46102.59	1	54284.68	-58.13282	3.789224E-010	0.0064658	6
	46	64	24.93351	34006.91	-53184.95	1	63127.72	-57.4048	7.892631E-012	0.006465	6
	47	66	19.86229	39748.7	-60445.3	1	72343.59	-56.67117	1.545254E-009	0.0064686	6
	48	67	15.83615	46172.61	-69170.6	1	83165.39	-56.27618	-8.296988E-010	0.0064608	6
	49	68	12.40079	52729.13	-78862.35	1	94866.39	-56.23243	9.155123E-010	0.0064633	6
	50	70	9.93114	59664.9	-90383.85	1	108301.2	-56.57009	2.724532E-010	0.0064711	5
	51	71	7.944915	66876.15	-103609.7	1	123318.3	-57.15929	1.110812E-009	0.0064707	5
	52	73	6.317385	74894.63	-120668.8	1	142021.7	-58.17366	6.570788E-010	0.0064713	5
	53	75	5.008013	84265.13	-141716.7	1	164876.4	-59.26417	3.850278E-010	0.0064852	5
	54	78	3.945707	95516.8	-168090.7	1	193333.7	-60.39279	8.340406E-012	0.006471	5
	55	80	3.158693	107836.2	-197709	1	225205.5	-61.39067	2.730386E-010	0.0064905	5
	56	84	2.504006	123376.5	-235143.8	1	265545.5	-62.31466	3.151119E-011	0.006461	5
	57	86	1.998082	141555.1	-278061.8	1	312019.6	-63.02036	-2.222359E-010	0.0064708	5
	58	90	1.584686	165345.4	-330664.6	1	369700.1	-63.43314	1.480407E-010	0.0065265	5
	59	93	1.266892	192161.8	-389624.8	1	434434.8	-63.74762	-8.821259E-011	0.0065012	5
	60	98	0.999041	225784.1	-462712.1	1	514860.2	-63.98956	2.669976E-010	0.0064624	5
