EXPLAIN
TAG	EISPOT
TITLE	LABEL	Potentiostatic EIS	Test &Identifier
DATE	LABEL	10/26/2019	Date
TIME	LABEL	10:37:42	Time
NOTES	NOTES	1	&Notes...
	
PSTAT	PSTAT	REF600-11020	Potentiostat
VDC	POTEN	0.00000E+000	T	DC &Voltage (V)
FREQINIT	QUANT	1.00000E+006	Initial Fre&q. (Hz)
FREQFINAL	QUANT	1.00000E+000	Final Fre&q. (Hz)
PTSPERDEC	QUANT	1.00000E+001	Points/&decade
VAC	QUANT	2.50000E+001	AC &Voltage (mV rms)
AREA	QUANT	1.00000E-002	&Area (cm^2)
CONDIT	TWOPARAM	T	5.00000E+000	0.00000E+000	Conditionin&g	Time(s)	E(V)
DELAY	TWOPARAM	T	5.00000E+000	0.00000E+000	Init. De&lay	Time(s)	Stab.(mV/s)
SPEED	SELECTOR	0	&Optimize for:
ZGUESS	QUANT	1.00000E+005	E&stimated Z (ohms)
OCVCURVE	TABLE	19
	Pt	T	Vf	Vm	Ach	Over
	#	s	V vs. Ref.	V	V	bits
	0	0.258333	8.51422E-003	8.51422E-003	5.51899E-004	...........
	1	0.516667	8.51597E-003	8.60568E-003	5.47099E-004	...........
	2	0.775	8.52658E-003	8.68619E-003	5.48133E-004	...........
	3	1.03333	8.55704E-003	8.80750E-003	5.49699E-004	...........
	4	1.29167	8.61722E-003	9.06822E-003	5.51433E-004	...........
	5	1.55	8.71565E-003	9.22576E-003	5.48699E-004	...........
	6	1.80833	8.85420E-003	9.36164E-003	5.48199E-004	...........
	7	2.06667	9.01827E-003	9.49156E-003	5.51299E-004	...........
	8	2.325	9.18484E-003	9.63860E-003	5.54799E-004	...........
	9	2.58333	9.34119E-003	9.79587E-003	5.47966E-004	...........
	10	2.84167	9.48889E-003	9.93523E-003	5.47499E-004	...........
	11	3.1	9.63400E-003	1.00828E-002	5.46866E-004	...........
	12	3.35833	9.77748E-003	1.01265E-002	5.43666E-004	...........
	13	3.61667	9.91265E-003	1.02428E-002	5.50099E-004	...........
	14	3.875	1.00320E-002	1.03266E-002	5.52666E-004	...........
	15	4.13333	1.01386E-002	1.05626E-002	5.46733E-004	...........
	16	4.39167	1.02483E-002	1.06873E-002	5.48599E-004	...........
	17	4.65	1.03745E-002	1.07710E-002	5.47066E-004	...........
	18	4.90833	1.05110E-002	1.08282E-002	5.49766E-004	...........
EOC	QUANT	0.010511	Open Circuit (V)
PSTATMODEL	IQUANT	4	Pstat Model
PSTATSECTION	LABEL	REF600-11020	Pstat Section
PSTATSERIALNO	LABEL	11020	Pstat Serial Number
CTRLMODE	IQUANT	1	Control Mode
IESTAB	IQUANT	0	I/E Stability
CASPEED	IQUANT	1	Control Amp Speed
CONVENTION	IQUANT	1	Current Convention
ICHRANGE	IQUANT	2	Ich Range
ICHRANGEMODE	TOGGLE	F	Ich Auto Range
ICHOFFSETENABLE	TOGGLE	T	Ich Offset Enable
ICHOFFSET	QUANT	0	Ich Offset (V)
ICHFILTER	IQUANT	3	Ich Filter
VCHRANGE	IQUANT	2	Vch Range
VCHRANGEMODE	TOGGLE	F	Vch Auto Range
VCHOFFSETENABLE	TOGGLE	T	Vch Offset Enable
VCHOFFSET	QUANT	0	Vch Offset (V)
VCHFILTER	IQUANT	3	Vch Filter
ACHRANGE	IQUANT	2	Ach Range
ACHOFFSETENABLE	TOGGLE	F	Ach Offset Enable
ACHOFFSET	QUANT	0	Ach Offset (V)
ACHFILTER	IQUANT	3	Ach Filter
IERANGELOWERLIMIT	IQUANT	1	I/E Range Lower Limit
IERANGEMODE	TOGGLE	F	I/E AutoRange
IERANGE	IQUANT	5	I/E Range
POSFEEDENABLE	TOGGLE	F	Positive Feedback IR Comp
POSFEEDRESISTANCE	QUANT	0	Positive Feedback Resistance (ohm)
ACHSELECT	IQUANT	0	Ach Select
CABLEID	IQUANT	14	Cable ID
DCCALDATE	LABEL	8/19/2019	DC Calibration Date
ACCALDATE	LABEL	8/19/2019	AC Calibration Date
THERMOSELECT	IQUANT	1	Thermo Select
FRAMEWORKVERSION	QUANT	6.33	Framework Version
INSTRUMENTVERSION	LABEL	3.50	Instrument Version
ZCURVE	TABLE
	Pt	Time	Freq	Zreal	Zimag	Zsig	Zmod	Zphz	Idc	Vdc	IERange
	#	s	Hz	ohm	ohm	V	ohm	°	A	V	#
	0	1	1000078	2090.129	-1332.142	1	2478.556	-32.51136	-2.140746E-006	0.013453	8
	1	1	794390.6	2345.229	-1286.787	1	2675.055	-28.75282	4.526821E-007	0.0125653	8
	2	2	630984.4	2570.529	-1209.356	1	2840.803	-25.19556	-3.765628E-007	0.0123941	8
	3	2	501234.4	2782.414	-1112.775	1	2996.681	-21.79802	-2.268638E-007	0.0121627	8
	4	2	398109.4	2955.645	-1002.532	1	3121.043	-18.73655	-1.972456E-006	0.0126567	8
	5	2	316265.6	3092.191	-887.1542	1	3216.938	-16.00826	-8.455422E-007	0.0124247	8
	6	3	251203.1	3199.893	-772.5629	1	3291.834	-13.57339	1.025833E-006	0.0119796	8
	7	3	199546.9	3297.156	-682.756	1	3367.104	-11.69913	2.024242E-007	0.0121083	8
	8	3	158578.1	3368.7	-597.7668	1	3421.325	-10.06224	-1.215014E-006	0.0123528	8
	9	4	125953.1	3435.774	-489.3045	1	3470.441	-8.105254	2.936037E-007	0.0109348	7
	10	4	100078.1	3477.53	-433.5821	1	3504.456	-7.107022	-1.474967E-008	0.0120731	7
	11	4	79453.13	3515.203	-400.0343	1	3537.892	-6.492396	-9.242675E-009	0.0120251	7
	12	5	63140.62	3549.448	-376.1588	1	3569.324	-6.049438	-5.577088E-008	0.0121325	7
	13	5	50203.12	3581.775	-360.4988	1	3599.871	-5.747355	-3.297091E-008	0.0120364	7
	14	5	39890.62	3614.184	-353.5146	1	3631.432	-5.586508	5.178053E-009	0.0119757	7
	15	6	31640.63	3646.313	-355.3589	1	3663.588	-5.566299	8.084649E-009	0.0119745	7
	16	6	25171.88	3681.188	-364.6343	1	3699.203	-5.65689	9.238838E-008	0.011886	7
	17	6	20015.62	3716.002	-386.2136	1	3736.018	-5.933593	2.984859E-008	0.011995	7
	18	7	15890.62	3758.58	-404.5601	1	3780.29	-6.14346	-2.266749E-009	0.0120201	7
	19	7	12609.37	3801.924	-434.7607	1	3826.701	-6.523596	-1.18149E-008	0.0120632	7
	20	7	10078.13	3847.301	-468.5764	1	3875.73	-6.944056	7.66956E-008	0.0119587	7
	21	8	8015.625	3895.269	-513.9224	1	3929.024	-7.515912	-1.371986E-008	0.012057	7
	22	8	6328.125	3948.26	-563.8553	1	3988.32	-8.127515	7.787386E-008	0.0119593	7
	23	8	5015.625	3998.618	-625.57	1	4047.256	-8.891652	4.651027E-008	0.0119473	7
	24	9	3984.375	4045.302	-704.2978	1	4106.154	-9.87635	-4.831985E-008	0.0120809	7
	25	9	3170.956	4099.261	-797.0934	1	4176.039	-11.00374	-8.573836E-009	0.0120141	7
	26	9	2527.573	4148.979	-914.1938	1	4248.503	-12.4261	3.367725E-008	0.0119128	7
	27	9	1976.103	4201.423	-1078.635	1	4337.673	-14.39863	4.477561E-008	0.0119463	7
	28	10	1577.524	4244.497	-1286.676	1	4435.233	-16.86415	-8.769165E-009	0.0120118	7
	29	10	1265.625	4306.855	-1501.68	1	4561.145	-19.22224	3.598848E-008	0.0119112	7
	30	10	998.264	4373.466	-1817.981	1	4736.271	-22.57189	9.437799E-010	0.0120143	7
	31	11	796.875	4442.093	-2192.968	1	4953.917	-26.27459	7.489279E-009	0.0120968	7
	32	11	627.7902	4530.036	-2685.028	1	5265.985	-30.65593	3.621943E-008	0.0119059	7
	33	11	505.5147	4625.549	-3244.189	1	5649.82	-35.0444	8.937915E-009	0.0119583	7
	34	12	397.9953	4756.445	-4006.35	1	6218.892	-40.10741	1.404168E-009	0.0120486	7
	35	12	315.5048	4915.439	-4923.943	1	6957.497	-45.04951	8.085135E-010	0.0120481	7
	36	12	252.4038	5113.388	-6010.857	1	7891.586	-49.61245	1.45796E-009	0.01205	7
	37	13	198.6229	5383.636	-7448.373	1	9190.31	-54.14084	1.656021E-009	0.0120468	7
	38	13	158.3615	5719.724	-9115.364	1	10761.28	-57.89248	8.992977E-010	0.0119857	6
	39	13	125.558	6158.003	-11205.18	1	12785.82	-61.20824	4.454612E-011	0.0119846	6
	40	14	100.4464	6704.146	-13655.89	1	15212.79	-63.85199	1.041551E-009	0.0119843	6
	41	14	79.00281	7423.354	-16853.52	1	18415.96	-66.22828	8.528238E-010	0.011983	6
	42	14	63.3446	8428.378	-20292.45	1	21973.19	-67.44466	-5.768383E-010	0.0119849	6
	43	15	49.86702	9625.91	-25014.79	1	26802.94	-68.95284	-1.107872E-009	0.0119843	6
	44	15	39.72458	10943.57	-30462.14	1	32368.25	-70.2391	-3.332311E-011	0.0119918	6
	45	15	31.6723	12666.19	-37037.78	1	39143.7	-71.12033	-6.363884E-010	0.0119866	6
	46	16	24.93351	15132.8	-45287.18	1	47748.62	-71.52284	-2.730805E-010	0.0119846	6
	47	16	19.86229	18009.53	-54833.24	1	57715.05	-71.81766	-9.867657E-010	0.0119865	6
	48	16	15.83615	20926.77	-66292.78	1	69517.35	-72.48055	-1.484484E-009	0.0119836	6
	49	17	12.40079	26703.95	-81016.44	1	85303.95	-71.75719	8.702717E-010	0.0119817	6
	50	17	9.93114	32615.11	-97498.1	1	102808.6	-71.50385	-2.818905E-010	0.0119853	6
	51	17	7.944915	39897.32	-116760.8	1	123389.1	-71.13463	-2.592712E-010	0.0119818	5
	52	18	6.317385	49395.46	-139816.8	1	148285.7	-70.54235	-5.305833E-010	0.0119942	5
	53	19	5.008013	61533.54	-167743.9	1	178674	-69.85543	-5.543663E-010	0.0119828	5
	54	20	3.945707	77324.2	-200865.9	1	215235.1	-68.94557	-9.331759E-011	0.0119901	5
	55	21	3.158693	95757.1	-237240.1	1	255836.5	-68.01954	-2.203988E-010	0.0119999	5
	56	23	2.504006	118965.1	-281132.7	1	305267.6	-67.06369	-3.902251E-010	0.0119877	5
	57	24	1.998082	146221.3	-328989.2	1	360020.2	-66.03696	-8.678232E-011	0.0120126	5
	58	26	1.584686	179438.5	-387193.4	1	426751.6	-65.1354	-6.122017E-011	0.0120308	5
	59	28	1.266892	216633.5	-450096.2	1	499516.4	-64.29826	-1.179634E-010	0.0119974	5
	60	30	0.999041	264735.5	-526218.9	1	589059.6	-63.29349	-1.575404E-010	0.0119694	5
