EXPLAIN
TAG	EISPOT
TITLE	LABEL	Potentiostatic IDE	Test &Identifier
DATE	LABEL	9/18/2019	Date
TIME	LABEL	9:30:12	Time
NOTES	NOTES	1	&Notes...
	
PSTAT	PSTAT	REF600-11020	Potentiostat
VDC	POTEN	0.00000E+000	T	DC &Voltage (V)
FREQINIT	QUANT	1.00000E+006	Initial Fre&q. (Hz)
FREQFINAL	QUANT	1.00000E+000	Final Fre&q. (Hz)
PTSPERDEC	QUANT	1.00000E+001	Points/&decade
VAC	QUANT	2.50000E+001	AC &Voltage (mV rms)
AREA	QUANT	1.00000E-002	&Area (cm^2)
CONDIT	TWOPARAM	T	5.00000E+000	0.00000E+000	Conditionin&g	Time(s)	E(V)
DELAY	TWOPARAM	T	5.00000E+000	0.00000E+000	Init. De&lay	Time(s)	Stab.(mV/s)
SPEED	SELECTOR	1	&Optimize for:
ZGUESS	QUANT	1.00000E+007	E&stimated Z (ohms)
OCVCURVE	TABLE	19
	Pt	T	Vf	Vm	Ach	Over
	#	s	V vs. Ref.	V	V	bits
	0	0.258333	1.40443E-003	1.40443E-003	5.69532E-004	...........
	1	0.516667	1.40682E-003	1.52956E-003	5.71132E-004	...........
	2	0.775	1.40302E-003	6.80727E-004	5.65299E-004	...........
	3	1.03333	1.33731E-003	2.04973E-004	5.65066E-004	...........
	4	1.29167	1.14764E-003	7.22261E-004	5.67399E-004	...........
	5	1.55	8.60315E-004	-6.32628E-004	5.64932E-004	...........
	6	1.80833	5.23546E-004	-1.14050E-003	5.62832E-004	...........
	7	2.06667	1.05380E-004	-1.58402E-003	5.60066E-004	...........
	8	2.325	-3.89494E-004	-7.31985E-004	5.68532E-004	...........
	9	2.58333	-8.18154E-004	-1.14922E-003	5.67966E-004	...........
	10	2.84167	-1.02681E-003	8.95269E-005	5.68066E-004	...........
	11	3.1	-9.46794E-004	1.33490E-003	5.67766E-004	...........
	12	3.35833	-5.90162E-004	-3.16883E-004	5.62999E-004	...........
	13	3.61667	-1.16345E-004	1.00043E-003	5.64399E-004	...........
	14	3.875	2.67669E-004	1.16304E-003	5.68599E-004	...........
	15	4.13333	5.36832E-004	1.07829E-003	5.71932E-004	...........
	16	4.39167	7.60666E-004	8.85698E-004	5.67099E-004	...........
	17	4.65	9.15323E-004	5.08136E-004	5.69332E-004	...........
	18	4.90833	9.30723E-004	1.04298E-004	5.67399E-004	...........
EOC	QUANT	0.0009307	Open Circuit (V)
PSTATMODEL	IQUANT	4	Pstat Model
PSTATSECTION	LABEL	REF600-11020	Pstat Section
PSTATSERIALNO	LABEL	11020	Pstat Serial Number
CTRLMODE	IQUANT	1	Control Mode
IESTAB	IQUANT	0	I/E Stability
CASPEED	IQUANT	1	Control Amp Speed
CONVENTION	IQUANT	1	Current Convention
ICHRANGE	IQUANT	2	Ich Range
ICHRANGEMODE	TOGGLE	F	Ich Auto Range
ICHOFFSETENABLE	TOGGLE	T	Ich Offset Enable
ICHOFFSET	QUANT	0	Ich Offset (V)
ICHFILTER	IQUANT	3	Ich Filter
VCHRANGE	IQUANT	2	Vch Range
VCHRANGEMODE	TOGGLE	F	Vch Auto Range
VCHOFFSETENABLE	TOGGLE	T	Vch Offset Enable
VCHOFFSET	QUANT	0	Vch Offset (V)
VCHFILTER	IQUANT	3	Vch Filter
ACHRANGE	IQUANT	2	Ach Range
ACHOFFSETENABLE	TOGGLE	F	Ach Offset Enable
ACHOFFSET	QUANT	0	Ach Offset (V)
ACHFILTER	IQUANT	3	Ach Filter
IERANGELOWERLIMIT	IQUANT	1	I/E Range Lower Limit
IERANGEMODE	TOGGLE	F	I/E AutoRange
IERANGE	IQUANT	2	I/E Range
POSFEEDENABLE	TOGGLE	F	Positive Feedback IR Comp
POSFEEDRESISTANCE	QUANT	0	Positive Feedback Resistance (ohm)
ACHSELECT	IQUANT	0	Ach Select
CABLEID	IQUANT	14	Cable ID
DCCALDATE	LABEL	8/19/2019	DC Calibration Date
ACCALDATE	LABEL	8/19/2019	AC Calibration Date
THERMOSELECT	IQUANT	1	Thermo Select
FRAMEWORKVERSION	QUANT	6.33	Framework Version
INSTRUMENTVERSION	LABEL	3.50	Instrument Version
ZCURVE	TABLE
	Pt	Time	Freq	Zreal	Zimag	Zsig	Zmod	Zphz	Idc	Vdc	IERange
	#	s	Hz	ohm	ohm	V	ohm	°	A	V	#
	0	2	1000078	2308.714	-1808.738	1	2932.864	-38.07655	7.758862E-007	0.00309	8
	1	3	794390.6	2682.413	-1752.132	1	3203.952	-33.15227	-4.709862E-007	0.0030495	8
	2	5	630984.4	3006.374	-1623.988	1	3416.96	-28.3771	-4.665107E-007	0.0028936	8
	3	6	501234.4	3289.27	-1469.594	1	3602.639	-24.07434	3.764205E-006	0.0019392	8
	4	7	398109.4	3514.146	-1304.447	1	3748.44	-20.36487	2.205201E-006	0.0021446	8
	5	9	316265.6	3689.62	-1145.088	1	3863.227	-17.24194	-1.790695E-006	0.0030643	8
	6	10	251203.1	3812.908	-992.418	1	3939.945	-14.58917	-3.921326E-007	0.0026328	8
	7	12	199546.9	3921.944	-847.612	1	4012.492	-12.19522	6.493058E-007	0.0025108	8
	8	13	158578.1	3990.669	-767.8386	1	4063.867	-10.8911	-1.06792E-006	0.0029322	8
	9	14	125953.1	4069.831	-649.0657	1	4121.263	-9.061349	-1.745187E-007	0.0028181	7
	10	16	100078.1	4120.047	-589.8519	1	4162.056	-8.147462	-4.029455E-009	0.0025673	7
	11	17	79453.13	4167.301	-553.3021	1	4203.873	-7.563056	-1.85236E-010	0.0025312	7
	12	18	63140.62	4213.547	-531.2983	1	4246.912	-7.186662	-4.152047E-008	0.0026364	7
	13	19	50203.12	4259.219	-521.7178	1	4291.053	-6.983453	-1.331201E-008	0.0025455	7
	14	21	39890.62	4300.194	-525.0419	1	4332.128	-6.961202	6.993102E-010	0.0025139	7
	15	22	31640.63	4350.899	-540.1109	1	4384.295	-7.076369	5.561929E-008	0.0025231	7
	16	23	25171.88	4398.099	-568.1343	1	4434.642	-7.360551	1.43222E-009	0.0025131	7
	17	25	20015.62	4450.09	-609.1865	1	4491.593	-7.794944	-2.296798E-008	0.0026145	7
	18	26	15890.62	4499.361	-665.5084	1	4548.313	-8.413715	1.00562E-009	0.0026262	7
	19	27	12609.37	4562.924	-737.7476	1	4622.18	-9.184278	-2.960567E-009	0.0025391	7
	20	29	10078.13	4624.75	-825.3475	1	4697.819	-10.11866	-3.462205E-009	0.0025907	7
	21	30	8015.625	4692.408	-934.1832	1	4784.495	-11.25946	-5.737516E-009	0.0025893	7
	22	31	6328.125	4768.882	-1072.356	1	4887.963	-12.67304	-4.131111E-008	0.0026272	7
	23	33	5015.625	4851.874	-1239.132	1	5007.607	-14.32666	-1.320728E-008	0.0025475	7
	24	34	3984.375	4942.618	-1440.311	1	5148.2	-16.24646	4.65962E-008	0.0024572	7
	25	35	3170.956	5043.999	-1685.947	1	5318.303	-18.48211	5.900725E-008	0.0024625	7
	26	37	2527.573	5154.935	-1979.558	1	5521.957	-21.0074	3.6051E-008	0.0025114	7
	27	38	1976.103	5292.934	-2371.771	1	5800.039	-24.13722	-3.361318E-008	0.0025863	7
	28	39	1577.524	5433.868	-2807.842	1	6116.445	-27.32675	5.850249E-008	0.0024564	7
	29	41	1265.625	5591.246	-3323.415	1	6504.392	-30.72709	1.415321E-009	0.0025126	7
	30	42	998.264	5781.707	-4008.776	1	7035.511	-34.7357	2.687604E-009	0.0026204	7
	31	43	796.875	5994.211	-4792.395	1	7674.478	-38.64247	3.549247E-008	0.002504	7
	32	45	627.7902	6251.812	-5821.518	1	8542.553	-42.95884	-2.203903E-008	0.0026097	7
	33	46	505.5147	6526.12	-6951.065	1	9534.54	-46.80598	-1.049848E-008	0.0025444	7
	34	47	397.9953	6878.4	-8484.638	1	10922.52	-50.96871	9.151204E-010	0.0025186	6
	35	49	315.5048	7281.211	-10318.43	1	12628.78	-54.79126	9.677082E-010	0.0025198	6
	36	50	252.4038	7738.475	-12475.23	1	14680.44	-58.18837	1.494462E-009	0.0025201	6
	37	51	198.6229	8326.563	-15328.05	1	17443.65	-61.48814	1.127217E-009	0.0025198	6
	38	53	158.3615	9007.717	-18651.33	1	20712.58	-64.22163	1.408328E-009	0.0025132	6
	39	54	125.558	9857.48	-22841.11	1	24877.42	-66.65655	1.000049E-009	0.0025173	6
	40	55	100.4464	10875.02	-27761.75	1	29815.78	-68.60838	1.569246E-009	0.0025196	6
	41	57	79.00281	12263.03	-34358.69	1	36481.52	-70.3579	1.445316E-009	0.0025225	6
	42	58	63.3446	14129.9	-41448.95	1	43791.21	-71.17582	9.817644E-010	0.0025187	6
	43	60	49.86702	16294.54	-51733.21	1	54238.71	-72.517	1.323683E-009	0.0025142	6
	44	61	39.72458	19199.05	-62813.78	1	65682.38	-73.00421	1.245938E-009	0.0025154	6
	45	62	31.6723	23180.86	-76694.02	1	80120.7	-73.1825	1.185454E-009	0.0025173	6
	46	64	24.93351	28526.2	-94298.37	1	98518.7	-73.16891	6.785492E-010	0.0025176	6
	47	65	19.86229	35395.07	-114428.5	1	119777.6	-72.81209	1.236395E-009	0.0025333	5
	48	66	15.83615	44708.95	-139421.4	1	146414.5	-72.22025	1.680509E-009	0.0025244	5
	49	68	12.40079	57496.08	-169703.5	1	179178.9	-71.28346	6.163153E-010	0.0025273	5
	50	69	9.93114	74153	-201427.5	1	214643.2	-69.78945	7.030514E-011	0.0025207	5
	51	71	7.944915	95796.6	-239000	1	257484	-68.15797	1.144068E-010	0.0025238	5
	52	72	6.317385	123490.3	-282263.9	1	308095.4	-66.37064	-1.422492E-011	0.0025238	5
	53	74	5.008013	159886.3	-330440.7	1	367089.5	-64.17963	3.939E-010	0.0025171	5
	54	77	3.945707	200575.3	-382410	1	431819.2	-62.32285	7.060828E-011	0.0025118	5
	55	79	3.158693	255290.8	-436517.1	1	505688.2	-59.67937	4.45905E-010	0.0025354	5
	56	83	2.504006	316255.7	-493739.3	1	586341.3	-57.35915	-2.212865E-011	0.0025307	5
	57	85	1.998082	379277.3	-549114.9	1	667366.8	-55.36691	5.191209E-010	0.0024938	5
	58	88	1.584686	452708.3	-611839.7	1	761112.8	-53.50177	1.277602E-010	0.00247	5
	59	92	1.266892	523116.4	-675084.4	1	854043.2	-52.22824	4.350083E-010	0.0025047	5
	60	96	0.999041	605458.2	-754526.1	1	967414	-51.25522	-6.094165E-011	0.0025153	5
