EXPLAIN
TAG	EISPOT
TITLE	LABEL	Potentiostatic EIS	Test &Identifier
DATE	LABEL	9/22/2019	Date
TIME	LABEL	11:07:19	Time
NOTES	NOTES	1	&Notes...
	
PSTAT	PSTAT	REF600-11020	Potentiostat
VDC	POTEN	0.00000E+000	T	DC &Voltage (V)
FREQINIT	QUANT	1.00000E+006	Initial Fre&q. (Hz)
FREQFINAL	QUANT	1.00000E+000	Final Fre&q. (Hz)
PTSPERDEC	QUANT	1.00000E+001	Points/&decade
VAC	QUANT	2.50000E+001	AC &Voltage (mV rms)
AREA	QUANT	1.00000E-002	&Area (cm^2)
CONDIT	TWOPARAM	T	5.00000E+000	0.00000E+000	Conditionin&g	Time(s)	E(V)
DELAY	TWOPARAM	T	5.00000E+000	0.00000E+000	Init. De&lay	Time(s)	Stab.(mV/s)
SPEED	SELECTOR	1	&Optimize for:
ZGUESS	QUANT	1.00000E+004	E&stimated Z (ohms)
OCVCURVE	TABLE	19
	Pt	T	Vf	Vm	Ach	Over
	#	s	V vs. Ref.	V	V	bits
	0	0.258333	4.02196E-003	4.02196E-003	5.42266E-004	...........
	1	0.516667	4.02000E-003	3.91933E-003	5.43599E-004	...........
	2	0.775	4.00793E-003	3.82014E-003	5.45799E-004	...........
	3	1.03333	3.97386E-003	3.73637E-003	5.43633E-004	...........
	4	1.29167	3.91374E-003	3.66145E-003	5.44633E-004	...........
	5	1.55	3.83612E-003	3.59813E-003	5.42333E-004	...........
	6	1.80833	3.75420E-003	3.53703E-003	5.43799E-004	...........
	7	2.06667	3.67697E-003	3.48052E-003	5.43366E-004	...........
	8	2.325	3.60738E-003	3.42760E-003	5.38766E-004	...........
	9	2.58333	3.54476E-003	3.38215E-003	5.43166E-004	...........
	10	2.84167	3.48767E-003	3.33089E-003	5.42433E-004	...........
	11	3.1	3.43461E-003	3.27759E-003	5.41033E-004	...........
	12	3.35833	3.38379E-003	3.23369E-003	5.43266E-004	...........
	13	3.61667	3.33401E-003	3.18894E-003	5.36433E-004	...........
	14	3.875	3.28539E-003	3.14598E-003	5.40099E-004	...........
	15	4.13333	3.23856E-003	3.10703E-003	5.45066E-004	...........
	16	4.39167	3.19402E-003	3.07537E-003	5.43433E-004	...........
	17	4.65	3.15213E-003	3.03197E-003	5.41799E-004	...........
	18	4.90833	3.11262E-003	2.99599E-003	5.45299E-004	...........
EOC	QUANT	0.0031126	Open Circuit (V)
PSTATMODEL	IQUANT	4	Pstat Model
PSTATSECTION	LABEL	REF600-11020	Pstat Section
PSTATSERIALNO	LABEL	11020	Pstat Serial Number
CTRLMODE	IQUANT	1	Control Mode
IESTAB	IQUANT	0	I/E Stability
CASPEED	IQUANT	1	Control Amp Speed
CONVENTION	IQUANT	1	Current Convention
ICHRANGE	IQUANT	2	Ich Range
ICHRANGEMODE	TOGGLE	F	Ich Auto Range
ICHOFFSETENABLE	TOGGLE	T	Ich Offset Enable
ICHOFFSET	QUANT	0	Ich Offset (V)
ICHFILTER	IQUANT	3	Ich Filter
VCHRANGE	IQUANT	2	Vch Range
VCHRANGEMODE	TOGGLE	F	Vch Auto Range
VCHOFFSETENABLE	TOGGLE	T	Vch Offset Enable
VCHOFFSET	QUANT	0	Vch Offset (V)
VCHFILTER	IQUANT	3	Vch Filter
ACHRANGE	IQUANT	2	Ach Range
ACHOFFSETENABLE	TOGGLE	F	Ach Offset Enable
ACHOFFSET	QUANT	0	Ach Offset (V)
ACHFILTER	IQUANT	3	Ach Filter
IERANGELOWERLIMIT	IQUANT	1	I/E Range Lower Limit
IERANGEMODE	TOGGLE	F	I/E AutoRange
IERANGE	IQUANT	5	I/E Range
POSFEEDENABLE	TOGGLE	F	Positive Feedback IR Comp
POSFEEDRESISTANCE	QUANT	0	Positive Feedback Resistance (ohm)
ACHSELECT	IQUANT	0	Ach Select
CABLEID	IQUANT	14	Cable ID
DCCALDATE	LABEL	8/19/2019	DC Calibration Date
ACCALDATE	LABEL	8/19/2019	AC Calibration Date
THERMOSELECT	IQUANT	1	Thermo Select
FRAMEWORKVERSION	QUANT	6.33	Framework Version
INSTRUMENTVERSION	LABEL	3.50	Instrument Version
ZCURVE	TABLE
	Pt	Time	Freq	Zreal	Zimag	Zsig	Zmod	Zphz	Idc	Vdc	IERange
	#	s	Hz	ohm	ohm	V	ohm	°	A	V	#
	0	1	1000078	2294.273	-1692.778	1	2851.173	-36.42093	1.609455E-006	0.0053932	8
	1	3	794390.6	2633.06	-1653.02	1	3108.936	-32.12036	1.068464E-007	0.0048404	8
	2	4	630984.4	2945.238	-1561.749	1	3333.69	-27.93532	-3.364839E-006	0.005389	8
	3	5	501234.4	3209.949	-1476.487	1	3533.24	-24.70111	-2.748701E-006	0.0052364	8
	4	7	398109.4	3455.173	-1300.895	1	3691.957	-20.63168	3.973272E-006	0.003767	8
	5	8	316265.6	3633.714	-1158.867	1	3814.033	-17.68856	6.442077E-007	0.0045427	8
	6	9	251203.1	3802.744	-1020	1	3937.165	-15.01486	4.431927E-007	0.0045838	8
	7	11	199546.9	3919.18	-897.7967	1	4020.698	-12.90256	3.554517E-006	0.0037807	8
	8	12	158578.1	4013.418	-780.5328	1	4088.613	-11.00555	7.70569E-007	0.0045407	8
	9	14	125953.1	4102.208	-634.1348	1	4150.933	-8.787441	-1.262703E-006	0.0073183	7
	10	15	100078.1	4152.659	-559.2339	1	4190.146	-7.669814	-6.06028E-008	0.0046517	7
	11	16	79453.13	4200.402	-508.0918	1	4231.021	-6.897141	1.507627E-008	0.0044675	7
	12	18	63140.62	4241.842	-470.1534	1	4267.817	-6.324682	-4.659932E-008	0.0045733	7
	13	19	50203.12	4281.681	-441.5329	1	4304.386	-5.887609	2.935542E-009	0.0045064	7
	14	20	39890.62	4318.168	-425.0678	1	4339.039	-5.621916	6.562377E-008	0.0044486	7
	15	22	31640.63	4352.917	-419.5356	1	4373.088	-5.505183	-6.024494E-008	0.0046518	7
	16	23	25171.88	4388.141	-425.5649	1	4408.728	-5.539262	8.847064E-008	0.0044876	7
	17	25	20015.62	4424.203	-440.0148	1	4446.03	-5.679748	-9.059841E-009	0.0045689	7
	18	26	15890.62	4460.669	-466.9681	1	4485.045	-5.976278	8.823778E-008	0.004491	7
	19	27	12609.37	4499.345	-500.682	1	4527.117	-6.349686	1.213993E-008	0.0046418	7
	20	29	10078.13	4538.213	-554.0906	1	4571.914	-6.961043	1.192702E-007	0.0043837	7
	21	30	8015.625	4579.289	-618.6478	1	4620.888	-7.693901	8.781432E-008	0.0044881	7
	22	31	6328.125	4624.066	-704.8265	1	4677.474	-8.666641	-4.25644E-008	0.0046468	7
	23	33	5015.625	4672.825	-810.7526	1	4742.638	-9.84304	8.10243E-008	0.0043772	7
	24	34	3984.375	4725.555	-942.6395	1	4818.655	-11.28112	1.368545E-008	0.0044581	7
	25	36	3170.956	4783.307	-1105.073	1	4909.299	-13.00864	-5.691792E-008	0.0047294	7
	26	37	2527.573	4847.382	-1302.595	1	5019.35	-15.04127	-4.104232E-008	0.004647	7
	27	38	1976.103	4927.789	-1570.112	1	5171.881	-17.67313	1.056316E-008	0.0046325	7
	28	40	1577.524	5013.704	-1868.712	1	5350.637	-20.44147	-6.356883E-008	0.0046222	7
	29	41	1265.625	5107.651	-2220.167	1	5569.313	-23.49337	-5.508018E-008	0.0046167	7
	30	42	998.264	5226.969	-2690.006	1	5878.549	-27.23215	8.334042E-008	0.0043773	7
	31	44	796.875	5355.83	-3232.776	1	6255.857	-31.11516	6.874293E-008	0.0044331	7
	32	45	627.7902	5511.843	-3940.959	1	6775.808	-35.56471	-5.465216E-008	0.0047255	7
	33	46	505.5147	5675.159	-4725.58	1	7385.021	-39.78341	-5.949954E-008	0.0046348	7
	34	48	397.9953	5889.943	-5793.013	1	8261.382	-44.52465	4.655694E-009	0.004565	7
	35	49	315.5048	6138.156	-7079.027	1	9369.61	-49.07176	4.663391E-009	0.0045671	7
	36	51	252.4038	6430.136	-8599.126	1	10737.39	-53.2121	7.200888E-010	0.004499	6
	37	52	198.6229	6814.061	-10616.05	1	12614.75	-57.30505	7.947321E-010	0.0044995	6
	38	53	158.3615	7271.589	-12969.26	1	14868.69	-60.72158	3.791956E-010	0.0045027	6
	39	55	125.558	7865.895	-15933.33	1	17769.17	-63.72557	6.849264E-010	0.0045058	6
	40	56	100.4464	8593.873	-19412.12	1	21229.35	-66.12072	1.559464E-009	0.0045025	6
	41	58	79.00281	9617.16	-23989.87	1	25845.76	-68.15494	1.511486E-009	0.0044976	6
	42	59	63.3446	10955.55	-29015.97	1	31015.33	-69.31498	6.64223E-010	0.0045007	6
	43	60	49.86702	12637.95	-36139.42	1	38285.45	-70.72528	2.735508E-010	0.0045004	6
	44	62	39.72458	14806.33	-43887.81	1	46318.11	-71.35727	5.93124E-010	0.0044975	6
	45	63	31.6723	17639.43	-53349.62	1	56190.13	-71.70413	9.129191E-010	0.0044968	6
	46	65	24.93351	21534.61	-65263.92	1	68724.95	-71.73907	4.616998E-010	0.0045015	6
	47	66	19.86229	26402.93	-78879.92	1	83181.47	-71.49342	7.443317E-010	0.0045055	6
	48	67	15.83615	33181.34	-94728.38	1	100371.6	-70.69572	1.488644E-009	0.0045016	6
	49	69	12.40079	41117.38	-115903.4	1	122980.6	-70.46757	4.043575E-010	0.0045039	5
	50	70	9.93114	51931.07	-137499.6	1	146979.5	-69.30937	4.485879E-010	0.0045015	5
	51	72	7.944915	65321.52	-162899.4	1	175508.2	-68.14956	5.211293E-010	0.004503	5
	52	73	6.317385	82225.7	-192783.1	1	209586.2	-66.90082	7.646546E-010	0.0045113	5
	53	76	5.008013	103723.4	-227497.6	1	250027.4	-65.49026	5.565621E-010	0.0045029	5
	54	78	3.945707	130859.1	-267438.5	1	297737.3	-63.92725	7.06793E-010	0.0045093	5
	55	81	3.158693	162235.9	-309519	1	349460.3	-62.3385	1.433531E-010	0.0045006	5
	56	84	2.504006	201068.3	-357213.8	1	409914.8	-60.62574	7.779752E-010	0.0044953	5
	57	87	1.998082	245622.8	-407549.2	1	475843.4	-58.92336	2.120927E-010	0.0045486	5
	58	90	1.584686	297614.3	-462847.2	1	550274.3	-57.25867	4.844968E-010	0.0045073	5
	59	94	1.266892	356085	-520752.9	1	630856.6	-55.63612	2.454909E-010	0.0045455	5
	60	98	0.999041	424228.1	-585590	1	723107.9	-54.07872	5.880645E-011	0.0044671	5
