EXPLAIN
TAG	EISPOT
TITLE	LABEL	Potentiostatic EIS	Test &Identifier
DATE	LABEL	10/26/2019	Date
TIME	LABEL	10:43:40	Time
NOTES	NOTES	1	&Notes...
	
PSTAT	PSTAT	REF600-11020	Potentiostat
VDC	POTEN	0.00000E+000	T	DC &Voltage (V)
FREQINIT	QUANT	1.00000E+006	Initial Fre&q. (Hz)
FREQFINAL	QUANT	1.00000E+000	Final Fre&q. (Hz)
PTSPERDEC	QUANT	1.00000E+001	Points/&decade
VAC	QUANT	2.50000E+001	AC &Voltage (mV rms)
AREA	QUANT	1.00000E-002	&Area (cm^2)
CONDIT	TWOPARAM	T	5.00000E+000	0.00000E+000	Conditionin&g	Time(s)	E(V)
DELAY	TWOPARAM	T	5.00000E+000	0.00000E+000	Init. De&lay	Time(s)	Stab.(mV/s)
SPEED	SELECTOR	0	&Optimize for:
ZGUESS	QUANT	1.00000E+005	E&stimated Z (ohms)
OCVCURVE	TABLE	19
	Pt	T	Vf	Vm	Ach	Over
	#	s	V vs. Ref.	V	V	bits
	0	0.258333	6.62559E-003	6.62559E-003	5.35366E-004	...........
	1	0.516667	6.62165E-003	6.41940E-003	5.45233E-004	...........
	2	0.775	6.59898E-003	6.30308E-003	5.37233E-004	...........
	3	1.03333	6.53904E-003	6.14865E-003	5.34000E-004	...........
	4	1.29167	6.43786E-003	5.99565E-003	5.44033E-004	...........
	5	1.55	6.30871E-003	5.91632E-003	5.44233E-004	...........
	6	1.80833	6.17119E-003	5.81861E-003	5.35466E-004	...........
	7	2.06667	6.04200E-003	5.72558E-003	5.41066E-004	...........
	8	2.325	5.92862E-003	5.66216E-003	5.40366E-004	...........
	9	2.58333	5.83089E-003	5.61425E-003	5.39666E-004	...........
	10	2.84167	5.74754E-003	5.55653E-003	5.30333E-004	...........
	11	3.1	5.67740E-003	5.51323E-003	5.38466E-004	...........
	12	3.35833	5.61766E-003	5.46450E-003	5.38099E-004	...........
	13	3.61667	5.56482E-003	5.42286E-003	5.36166E-004	...........
	14	3.875	5.51609E-003	5.37175E-003	5.36333E-004	...........
	15	4.13333	5.46972E-003	5.34487E-003	5.36399E-004	...........
	16	4.39167	5.42551E-003	5.30975E-003	5.34566E-004	...........
	17	4.65	5.38468E-003	5.28501E-003	5.34400E-004	...........
	18	4.90833	5.34812E-003	5.25027E-003	5.36633E-004	...........
EOC	QUANT	0.0053481	Open Circuit (V)
PSTATMODEL	IQUANT	4	Pstat Model
PSTATSECTION	LABEL	REF600-11020	Pstat Section
PSTATSERIALNO	LABEL	11020	Pstat Serial Number
CTRLMODE	IQUANT	1	Control Mode
IESTAB	IQUANT	0	I/E Stability
CASPEED	IQUANT	1	Control Amp Speed
CONVENTION	IQUANT	1	Current Convention
ICHRANGE	IQUANT	2	Ich Range
ICHRANGEMODE	TOGGLE	F	Ich Auto Range
ICHOFFSETENABLE	TOGGLE	T	Ich Offset Enable
ICHOFFSET	QUANT	0	Ich Offset (V)
ICHFILTER	IQUANT	3	Ich Filter
VCHRANGE	IQUANT	2	Vch Range
VCHRANGEMODE	TOGGLE	F	Vch Auto Range
VCHOFFSETENABLE	TOGGLE	T	Vch Offset Enable
VCHOFFSET	QUANT	0	Vch Offset (V)
VCHFILTER	IQUANT	3	Vch Filter
ACHRANGE	IQUANT	2	Ach Range
ACHOFFSETENABLE	TOGGLE	F	Ach Offset Enable
ACHOFFSET	QUANT	0	Ach Offset (V)
ACHFILTER	IQUANT	3	Ach Filter
IERANGELOWERLIMIT	IQUANT	1	I/E Range Lower Limit
IERANGEMODE	TOGGLE	F	I/E AutoRange
IERANGE	IQUANT	5	I/E Range
POSFEEDENABLE	TOGGLE	F	Positive Feedback IR Comp
POSFEEDRESISTANCE	QUANT	0	Positive Feedback Resistance (ohm)
ACHSELECT	IQUANT	0	Ach Select
CABLEID	IQUANT	14	Cable ID
DCCALDATE	LABEL	8/19/2019	DC Calibration Date
ACCALDATE	LABEL	8/19/2019	AC Calibration Date
THERMOSELECT	IQUANT	1	Thermo Select
FRAMEWORKVERSION	QUANT	6.33	Framework Version
INSTRUMENTVERSION	LABEL	3.50	Instrument Version
ZCURVE	TABLE
	Pt	Time	Freq	Zreal	Zimag	Zsig	Zmod	Zphz	Idc	Vdc	IERange
	#	s	Hz	ohm	ohm	V	ohm	°	A	V	#
	0	2	1000078	2486.886	-1906.002	1	3133.281	-37.46732	7.556901E-006	0.0064588	8
	1	2	794390.6	2858.75	-1876.455	1	3419.581	-33.28051	-3.347121E-006	0.0072488	8
	2	2	630984.4	3201.963	-1805.796	1	3676.067	-29.42149	5.031056E-007	0.0070077	8
	3	3	501234.4	3524.018	-1689.913	1	3908.262	-25.61965	1.798191E-006	0.0065018	8
	4	3	398109.4	3790.537	-1553.007	1	4096.339	-22.27922	-5.905302E-007	0.0067712	8
	5	3	316265.6	4015.298	-1400.859	1	4252.649	-19.23288	-3.695081E-007	0.0067469	8
	6	4	251203.1	4200.143	-1275.757	1	4389.619	-16.8957	2.867588E-006	0.0063319	8
	7	4	199546.9	4382.493	-1157.5	1	4532.775	-14.79505	3.171374E-006	0.0061493	8
	8	4	158578.1	4484.734	-1038.966	1	4603.509	-13.04346	-2.450084E-006	0.0073148	8
	9	5	125953.1	4624.463	-895.4212	1	4710.354	-10.95841	1.174061E-006	0.0043449	7
	10	5	100078.1	4699.478	-845.3587	1	4774.906	-10.19751	-3.823206E-009	0.0067799	7
	11	5	79453.13	4778.735	-813.8221	1	4847.537	-9.66479	-2.703414E-008	0.0067975	7
	12	5	63140.62	4854.262	-799.3049	1	4919.629	-9.350444	7.326773E-009	0.0068726	7
	13	6	50203.12	4928.778	-805.1245	1	4994.104	-9.277427	-1.04272E-008	0.0067573	7
	14	6	39890.62	5006.965	-829.3671	1	5075.19	-9.405228	-4.795577E-008	0.0068529	7
	15	6	31640.63	5087.855	-869.8065	1	5161.669	-9.70135	6.804598E-008	0.006652	7
	16	7	25171.88	5174.909	-929.6583	1	5257.751	-10.1844	-1.01084E-008	0.0067601	7
	17	7	20015.62	5277.238	-1001.126	1	5371.359	-10.74173	-3.280938E-009	0.0067646	7
	18	7	15890.62	5376.211	-1103.258	1	5488.245	-11.59673	-6.270935E-008	0.0068704	7
	19	8	12609.37	5493.349	-1224.058	1	5628.072	-12.56174	-4.731352E-008	0.0068488	7
	20	8	10078.13	5619.562	-1363.96	1	5782.721	-13.64281	-6.21999E-008	0.0069695	7
	21	8	8015.625	5760.082	-1530.117	1	5959.849	-14.87657	-6.438615E-008	0.0068671	7
	22	9	6328.125	5932.552	-1726.348	1	6178.628	-16.22478	6.737478E-008	0.0066444	7
	23	9	5015.625	6117.215	-1956.708	1	6422.541	-17.73787	6.743917E-008	0.006647	7
	24	9	3984.375	6320.002	-2215.006	1	6696.916	-19.31431	-9.657128E-009	0.0068282	7
	25	10	3170.956	6556.285	-2529.28	1	7027.242	-21.09559	-6.326772E-008	0.0069785	7
	26	10	2527.573	6816.242	-2875.181	1	7397.826	-22.87066	3.404008E-008	0.0067442	7
	27	10	1976.103	7139.974	-3312.158	1	7870.808	-24.88608	-8.451186E-009	0.0068287	7
	28	11	1577.524	7497.344	-3841.741	1	8424.318	-27.13122	-1.510411E-008	0.0068196	7
	29	11	1265.625	7825.508	-4288.399	1	8923.505	-28.72286	-6.260309E-008	0.0069711	7
	30	11	998.264	8251.578	-4923.304	1	9608.72	-30.82242	4.620103E-009	0.0066248	6
	31	12	796.875	8679.833	-5632.749	1	10347.34	-32.98142	1.652106E-012	0.0067249	6
	32	12	627.7902	9162.123	-6524.344	1	11247.74	-35.45465	-1.233263E-009	0.006628	6
	33	12	505.5147	9611.72	-7482.349	1	12180.75	-37.89935	4.594553E-009	0.0065514	6
	34	13	397.9953	10123.52	-8780.258	1	13400.7	-40.93551	6.159983E-010	0.0067486	6
	35	13	315.5048	10632.91	-10342.34	1	14833.17	-44.20632	4.888621E-011	0.0067473	6
	36	13	252.4038	11146.52	-12214.49	1	16535.98	-47.61752	-3.926987E-010	0.0067454	6
	37	13	198.6229	11741.16	-14728.96	1	18836.06	-51.43997	5.095578E-010	0.0067449	6
	38	14	158.3615	12378.16	-17725.07	1	21619.36	-55.07178	-4.334299E-010	0.0067423	6
	39	14	125.558	13150.78	-21538.9	1	25236.23	-58.59345	-6.396897E-011	0.0067448	6
	40	14	100.4464	14019.64	-26066.98	1	29597.94	-61.72725	-2.517395E-010	0.0067427	6
	41	15	79.00281	15407.17	-32181.63	1	35679.66	-64.41692	9.155594E-010	0.0067399	6
	42	15	63.3446	16236.68	-39212.59	1	42441.21	-67.50711	-4.899846E-010	0.0067372	6
	43	15	49.86702	18394.25	-48286.53	1	51671.44	-69.14619	-7.02356E-010	0.0067374	6
	44	16	39.72458	21558.37	-59125.16	1	62932.89	-69.967	-6.867854E-011	0.0067425	6
	45	16	31.6723	25418.18	-72033.96	1	76387.01	-70.5639	-7.180021E-010	0.0067383	6
	46	17	24.93351	30038.18	-88614.95	1	93567.63	-71.27467	1.546709E-010	0.0067379	6
	47	17	19.86229	36483.2	-107857.6	1	113860.8	-71.31171	-8.999343E-010	0.0067397	5
	48	17	15.83615	43452.17	-129250.7	1	136359.2	-71.41812	-9.14274E-010	0.0067422	5
	49	17	12.40079	58415.38	-158581.6	1	168998.5	-69.77814	-9.187935E-010	0.0067505	5
	50	18	9.93114	72787.82	-190290.1	1	203736.1	-69.06767	6.015811E-010	0.0067463	5
	51	18	7.944915	92048.18	-225417.8	1	243487.2	-67.78761	2.208528E-010	0.0067516	5
	52	19	6.317385	117327.1	-265767.2	1	290513.1	-66.18018	3.950762E-010	0.0067415	5
	53	20	5.008013	149528.8	-311320.8	1	345368.6	-64.34482	3.218391E-010	0.0067537	5
	54	21	3.945707	190076.2	-363096.9	1	409839.3	-62.36857	-1.024048E-010	0.0067394	5
	55	22	3.158693	233654	-413768.7	1	475182.8	-60.54671	5.24079E-011	0.0067254	5
	56	24	2.504006	285638.4	-471139.3	1	550964.2	-58.77275	2.461898E-010	0.0067331	5
	57	25	1.998082	340193.4	-529506.8	1	629371.9	-57.28038	2.705545E-011	0.0067049	5
	58	27	1.584686	400566.8	-598772.6	1	720404.3	-56.21828	-1.236044E-011	0.0066909	5
	59	29	1.266892	460156.7	-673611.2	1	815779.5	-55.66227	2.848075E-011	0.0067204	5
	60	31	0.999041	528800.8	-766239.8	1	930996.1	-55.38949	4.949353E-011	0.0067475	5
