EXPLAIN
TAG	EISPOT
TITLE	LABEL	Potentiostatic EIS	Test &Identifier
DATE	LABEL	11/20/2019	Date
TIME	LABEL	10:49:24	Time
NOTES	NOTES	4	&Notes...
	
	
	
	
PSTAT	PSTAT	REF600-11020	Potentiostat
VDC	POTEN	0.00000E+000	T	DC &Voltage (V)
FREQINIT	QUANT	1.00000E+006	Initial Fre&q. (Hz)
FREQFINAL	QUANT	1.00000E+000	Final Fre&q. (Hz)
PTSPERDEC	QUANT	1.00000E+001	Points/&decade
VAC	QUANT	2.50000E+001	AC &Voltage (mV rms)
AREA	QUANT	1.00000E-002	&Area (cm^2)
CONDIT	TWOPARAM	T	5.00000E+000	0.00000E+000	Conditionin&g	Time(s)	E(V)
DELAY	TWOPARAM	T	5.00000E+000	0.00000E+000	Init. De&lay	Time(s)	Stab.(mV/s)
SPEED	SELECTOR	0	&Optimize for:
ZGUESS	QUANT	1.00000E+005	E&stimated Z (ohms)
OCVCURVE	TABLE	19
	Pt	T	Vf	Vm	Ach	Over
	#	s	V vs. Ref.	V	V	bits
	0	0.258333	3.00751E-003	3.00751E-003	5.30800E-004	...........
	1	0.516667	3.00325E-003	2.78458E-003	5.31933E-004	...........
	2	0.775	2.97748E-003	2.59356E-003	5.30099E-004	...........
	3	1.03333	2.90585E-003	2.40834E-003	5.31000E-004	...........
	4	1.29167	2.77996E-003	2.22660E-003	5.32533E-004	...........
	5	1.55	2.61502E-003	2.06102E-003	5.32000E-004	...........
	6	1.80833	2.43439E-003	1.91442E-003	5.33466E-004	...........
	7	2.06667	2.25597E-003	1.78732E-003	5.34333E-004	...........
	8	2.325	2.08986E-003	1.66804E-003	5.31500E-004	...........
	9	2.58333	1.93988E-003	1.56206E-003	5.32933E-004	...........
	10	2.84167	1.80538E-003	1.44428E-003	5.33400E-004	...........
	11	3.1	1.68216E-003	1.30677E-003	5.26466E-004	...........
	12	3.35833	1.56359E-003	1.19210E-003	5.29800E-004	...........
	13	3.61667	1.44444E-003	1.07790E-003	5.32433E-004	...........
	14	3.875	1.32478E-003	9.97218E-004	5.33800E-004	...........
	15	4.13333	1.20923E-003	9.05506E-004	5.34366E-004	...........
	16	4.39167	1.10274E-003	8.42121E-004	5.35499E-004	...........
	17	4.65	1.00739E-003	7.60524E-004	5.30866E-004	...........
	18	4.90833	9.21745E-004	6.74903E-004	5.31033E-004	...........
EOC	QUANT	0.0009217	Open Circuit (V)
PSTATMODEL	IQUANT	4	Pstat Model
PSTATSECTION	LABEL	REF600-11020	Pstat Section
PSTATSERIALNO	LABEL	11020	Pstat Serial Number
CTRLMODE	IQUANT	1	Control Mode
IESTAB	IQUANT	0	I/E Stability
CASPEED	IQUANT	1	Control Amp Speed
CONVENTION	IQUANT	1	Current Convention
ICHRANGE	IQUANT	2	Ich Range
ICHRANGEMODE	TOGGLE	F	Ich Auto Range
ICHOFFSETENABLE	TOGGLE	T	Ich Offset Enable
ICHOFFSET	QUANT	0	Ich Offset (V)
ICHFILTER	IQUANT	3	Ich Filter
VCHRANGE	IQUANT	2	Vch Range
VCHRANGEMODE	TOGGLE	F	Vch Auto Range
VCHOFFSETENABLE	TOGGLE	T	Vch Offset Enable
VCHOFFSET	QUANT	0	Vch Offset (V)
VCHFILTER	IQUANT	3	Vch Filter
ACHRANGE	IQUANT	2	Ach Range
ACHOFFSETENABLE	TOGGLE	F	Ach Offset Enable
ACHOFFSET	QUANT	0	Ach Offset (V)
ACHFILTER	IQUANT	3	Ach Filter
IERANGELOWERLIMIT	IQUANT	1	I/E Range Lower Limit
IERANGEMODE	TOGGLE	F	I/E AutoRange
IERANGE	IQUANT	4	I/E Range
POSFEEDENABLE	TOGGLE	F	Positive Feedback IR Comp
POSFEEDRESISTANCE	QUANT	0	Positive Feedback Resistance (ohm)
ACHSELECT	IQUANT	0	Ach Select
CABLEID	IQUANT	14	Cable ID
DCCALDATE	LABEL	8/19/2019	DC Calibration Date
ACCALDATE	LABEL	8/19/2019	AC Calibration Date
THERMOSELECT	IQUANT	1	Thermo Select
FRAMEWORKVERSION	QUANT	6.33	Framework Version
INSTRUMENTVERSION	LABEL	3.50	Instrument Version
ZCURVE	TABLE
	Pt	Time	Freq	Zreal	Zimag	Zsig	Zmod	Zphz	Idc	Vdc	IERange
	#	s	Hz	ohm	ohm	V	ohm	°	A	V	#
	0	2	1000078	2142.745	-1871.541	1	2844.999	-41.13498	-7.513439E-006	0.0038893	8
	1	2	794390.6	2541.911	-1865.023	1	3152.717	-36.26782	7.366481E-006	0.0029167	8
	2	2	630984.4	2925.104	-1799.691	1	3434.403	-31.6022	2.797103E-007	0.0031189	8
	3	2	501234.4	3264.14	-1668.428	1	3665.824	-27.07333	1.788379E-006	0.0029898	8
	4	3	398109.4	3564.541	-1498.595	1	3866.748	-22.80273	-3.621074E-006	0.0031729	8
	5	3	316265.6	3789.942	-1322.414	1	4014.031	-19.23527	-2.058977E-006	0.0025127	8
	6	3	251203.1	3966.695	-1144.369	1	4128.469	-16.09255	-1.348923E-006	0.0023874	8
	7	4	199546.9	4097.721	-977.344	1	4212.662	-13.41494	6.882282E-007	0.0029275	8
	8	4	158578.1	4204.195	-843.7068	1	4288.018	-11.34751	1.625113E-006	0.0022073	8
	9	4	125953.1	4298.899	-660.9011	1	4349.405	-8.740068	-6.218415E-007	0.005517	7
	10	5	100078.1	4345.61	-570.1055	1	4382.847	-7.474014	7.783178E-007	0.0023455	7
	11	5	79453.13	4390.316	-495.692	1	4418.211	-6.441743	-9.822566E-007	0.0030344	7
	12	5	63140.62	4426.838	-438.1058	1	4448.464	-5.651921	-1.148162E-006	0.0039001	7
	13	6	50203.12	4458.963	-396.3795	1	4476.547	-5.079955	9.205465E-007	0.0009566	7
	14	6	39890.62	4482.691	-363.3281	1	4497.392	-4.63377	-8.441549E-007	0.0041151	7
	15	6	31640.63	4509.001	-344.4319	1	4522.138	-4.368206	7.804056E-007	0.0023327	7
	16	7	25171.88	4527.538	-334.2108	1	4539.856	-4.221765	-1.143708E-006	0.0035522	7
	17	7	20015.62	4545.954	-335.7237	1	4558.334	-4.223689	-1.143607E-006	0.0035519	7
	18	7	15890.62	4569.772	-349.5504	1	4583.122	-4.374144	-2.790482E-007	0.0038094	7
	19	8	12609.37	4589.542	-376.3566	1	4604.948	-4.687941	-2.886104E-007	0.0017393	7
	20	8	10078.13	4612.978	-411.6584	1	4631.309	-5.099521	-9.833723E-007	0.0030172	7
	21	8	8015.625	4637.383	-468.6172	1	4661	-5.77027	-9.823284E-007	0.0030132	7
	22	9	6328.125	4652.767	-537.4151	1	4683.701	-6.588718	-1.030138E-006	0.0040515	7
	23	9	5015.625	4676.719	-631.1158	1	4719.111	-7.685546	-1.030211E-006	0.004047	7
	24	9	3984.375	4707.111	-759.3076	1	4767.96	-9.163486	9.51046E-007	0.0018636	7
	25	9	3170.956	4735.579	-894.9825	1	4819.409	-10.70217	-1.030962E-006	0.004044	7
	26	10	2527.573	4772.883	-1079.354	1	4893.405	-12.7427	7.798055E-007	0.0023193	7
	27	10	1976.103	4820.262	-1324.999	1	4999.055	-15.36991	-1.143535E-006	0.0035404	7
	28	10	1577.524	4871.378	-1611.491	1	5131.006	-18.30463	7.816807E-007	0.0023196	7
	29	11	1265.625	4933.313	-1949.657	1	5304.596	-21.56405	5.955734E-008	0.003426	7
	30	11	998.264	5015.621	-2405.232	1	5562.517	-25.61996	1.031581E-006	0.0014576	7
	31	11	796.875	5112.271	-2936.194	1	5895.468	-29.87058	7.331819E-007	0.0008556	7
	32	12	627.7902	5243.396	-3621.589	1	6372.528	-34.63266	-2.790058E-007	0.0037989	7
	33	12	505.5147	5388.993	-4400.215	1	6957.236	-39.23229	1.030646E-006	0.0014616	7
	34	13	397.9953	5599.414	-5437.569	1	7805.165	-44.15988	2.895743E-009	0.0025468	7
	35	13	315.5048	5864.181	-6683.792	1	8891.664	-48.73715	1.909416E-009	0.002554	7
	36	13	252.4038	6195.471	-8143.777	1	10232.54	-52.73752	1.084003E-009	0.002483	6
	37	14	198.6229	6653.677	-10058	1	12059.64	-56.51415	1.010952E-009	0.002481	6
	38	14	158.3615	7220.551	-12262.61	1	14230.53	-59.50928	1.324859E-009	0.0024856	6
	39	14	125.558	7974.439	-14999.43	1	16987.48	-62.00267	5.418609E-010	0.0024901	6
	40	15	100.4464	8923.08	-18153.2	1	20227.71	-63.8239	8.388372E-010	0.0024782	6
	41	15	79.00281	10264.82	-22270.4	1	24522.18	-65.2542	1.141764E-010	0.002478	6
	42	15	63.3446	11655.23	-26843.43	1	29264.56	-66.52985	7.479865E-010	0.0024753	6
	43	16	49.86702	13904.62	-32618.85	1	35458.82	-66.91262	1.843687E-011	0.0024832	6
	44	16	39.72458	16766.97	-39209.12	1	42643.71	-66.84702	8.622961E-010	0.0024803	6
	45	16	31.6723	20347.71	-46821.38	1	51051.65	-66.51112	8.153609E-010	0.0024868	6
	46	17	24.93351	24930.85	-56216.75	1	61496.91	-66.0838	-3.524663E-010	0.002483	6
	47	17	19.86229	30453.54	-66518.51	1	73158.25	-65.40073	-1.384652E-009	0.0024839	6
	48	17	15.83615	37849.38	-78550.6	1	87193.88	-64.27304	2.937071E-009	0.0024785	6
	49	17	12.40079	46829.95	-92535.15	1	103710.2	-63.15706	4.954139E-011	0.0024841	6
	50	18	9.93114	56404.29	-106633.4	1	120632.2	-62.12317	2.321767E-010	0.0024734	5
	51	18	7.944915	67467.61	-122500.5	1	139850.8	-61.15607	1.48715E-009	0.0024866	5
	52	19	6.317385	80849.68	-140961.3	1	162501.6	-60.16317	9.684447E-010	0.0024692	5
	53	19	5.008013	95903	-162159.1	1	188395.8	-59.39937	4.603464E-010	0.002487	5
	54	21	3.945707	112347.8	-187062.6	1	218207.3	-59.01142	3.520711E-010	0.0024845	5
	55	22	3.158693	129589.2	-214178.5	1	250331.3	-58.82385	-6.918459E-013	0.0024755	5
	56	23	2.504006	149324.3	-247463.8	1	289026.1	-58.89243	3.369335E-010	0.0024734	5
	57	25	1.998082	169942.2	-286099.6	1	332766.2	-59.28983	2.904734E-010	0.002492	5
	58	26	1.584686	195136	-333056.6	1	386011.4	-59.6342	1.062505E-010	0.002445	5
	59	28	1.266892	222867.6	-388614.4	1	447985.6	-60.16603	8.473981E-011	0.0024351	5
	60	31	0.999041	256331.5	-458403.8	1	525204.6	-60.78683	9.828724E-011	0.0024478	5
