EXPLAIN
TAG	EISPOT
TITLE	LABEL	Potentiostatic EIS	Test &Identifier
DATE	LABEL	11/15/2019	Date
TIME	LABEL	12:35:15	Time
NOTES	NOTES	4	&Notes...
	
	
	
	
PSTAT	PSTAT	REF600-11020	Potentiostat
VDC	POTEN	0.00000E+000	T	DC &Voltage (V)
FREQINIT	QUANT	1.00000E+006	Initial Fre&q. (Hz)
FREQFINAL	QUANT	1.00000E+000	Final Fre&q. (Hz)
PTSPERDEC	QUANT	1.00000E+001	Points/&decade
VAC	QUANT	2.50000E+001	AC &Voltage (mV rms)
AREA	QUANT	1.00000E-002	&Area (cm^2)
CONDIT	TWOPARAM	T	5.00000E+000	0.00000E+000	Conditionin&g	Time(s)	E(V)
DELAY	TWOPARAM	T	5.00000E+000	0.00000E+000	Init. De&lay	Time(s)	Stab.(mV/s)
SPEED	SELECTOR	0	&Optimize for:
ZGUESS	QUANT	1.00000E+005	E&stimated Z (ohms)
OCVCURVE	TABLE	19
	Pt	T	Vf	Vm	Ach	Over
	#	s	V vs. Ref.	V	V	bits
	0	0.258333	5.98541E-003	5.98541E-003	5.45266E-004	...........
	1	0.516667	5.98503E-003	5.96552E-003	5.45666E-004	...........
	2	0.775	5.98282E-003	5.95291E-003	5.42333E-004	...........
	3	1.03333	5.97723E-003	5.95526E-003	5.45233E-004	...........
	4	1.29167	5.96944E-003	5.97041E-003	5.45033E-004	...........
	5	1.55	5.96386E-003	5.98840E-003	5.49099E-004	...........
	6	1.80833	5.96459E-003	5.99863E-003	5.41833E-004	...........
	7	2.06667	5.97205E-003	6.00648E-003	5.48299E-004	...........
	8	2.325	5.98372E-003	6.04012E-003	5.45866E-004	...........
	9	2.58333	5.99837E-003	6.07930E-003	5.40399E-004	...........
	10	2.84167	6.01811E-003	6.12935E-003	5.46499E-004	...........
	11	3.1	6.04567E-003	6.16293E-003	5.46099E-004	...........
	12	3.35833	6.08089E-003	6.21384E-003	5.46366E-004	...........
	13	3.61667	6.12088E-003	6.24103E-003	5.43266E-004	...........
	14	3.875	6.16236E-003	6.28842E-003	5.45466E-004	...........
	15	4.13333	6.20325E-003	6.32316E-003	5.43799E-004	...........
	16	4.39167	6.24333E-003	6.37312E-003	5.49033E-004	...........
	17	4.65	6.28352E-003	6.41058E-003	5.45766E-004	...........
	18	4.90833	6.32462E-003	6.45630E-003	5.45466E-004	...........
EOC	QUANT	0.0063246	Open Circuit (V)
PSTATMODEL	IQUANT	4	Pstat Model
PSTATSECTION	LABEL	REF600-11020	Pstat Section
PSTATSERIALNO	LABEL	11020	Pstat Serial Number
CTRLMODE	IQUANT	1	Control Mode
IESTAB	IQUANT	0	I/E Stability
CASPEED	IQUANT	1	Control Amp Speed
CONVENTION	IQUANT	1	Current Convention
ICHRANGE	IQUANT	2	Ich Range
ICHRANGEMODE	TOGGLE	F	Ich Auto Range
ICHOFFSETENABLE	TOGGLE	T	Ich Offset Enable
ICHOFFSET	QUANT	0	Ich Offset (V)
ICHFILTER	IQUANT	3	Ich Filter
VCHRANGE	IQUANT	2	Vch Range
VCHRANGEMODE	TOGGLE	F	Vch Auto Range
VCHOFFSETENABLE	TOGGLE	T	Vch Offset Enable
VCHOFFSET	QUANT	0	Vch Offset (V)
VCHFILTER	IQUANT	3	Vch Filter
ACHRANGE	IQUANT	2	Ach Range
ACHOFFSETENABLE	TOGGLE	F	Ach Offset Enable
ACHOFFSET	QUANT	0	Ach Offset (V)
ACHFILTER	IQUANT	3	Ach Filter
IERANGELOWERLIMIT	IQUANT	1	I/E Range Lower Limit
IERANGEMODE	TOGGLE	F	I/E AutoRange
IERANGE	IQUANT	5	I/E Range
POSFEEDENABLE	TOGGLE	F	Positive Feedback IR Comp
POSFEEDRESISTANCE	QUANT	0	Positive Feedback Resistance (ohm)
ACHSELECT	IQUANT	0	Ach Select
CABLEID	IQUANT	14	Cable ID
DCCALDATE	LABEL	8/19/2019	DC Calibration Date
ACCALDATE	LABEL	8/19/2019	AC Calibration Date
THERMOSELECT	IQUANT	1	Thermo Select
FRAMEWORKVERSION	QUANT	6.33	Framework Version
INSTRUMENTVERSION	LABEL	3.50	Instrument Version
ZCURVE	TABLE
	Pt	Time	Freq	Zreal	Zimag	Zsig	Zmod	Zphz	Idc	Vdc	IERange
	#	s	Hz	ohm	ohm	V	ohm	°	A	V	#
	0	2	1000078	2208.997	-1735.344	1	2809.108	-38.15246	-7.279679E-006	0.0090249	8
	1	2	794390.6	2571.363	-1722.449	1	3094.954	-33.81648	1.079175E-005	0.0066218	8
	2	2	630984.4	2899.739	-1663.172	1	3342.846	-29.83682	2.369229E-006	0.0079592	8
	3	3	501234.4	3207.04	-1545.049	1	3559.815	-25.72328	-4.440956E-006	0.0085454	8
	4	3	398109.4	3457.894	-1423.972	1	3739.616	-22.38202	-1.26901E-006	0.0076274	8
	5	3	316265.6	3673.976	-1279.319	1	3890.342	-19.19868	7.46474E-006	0.007006	8
	6	4	251203.1	3845.762	-1130.276	1	4008.417	-16.37816	-3.09811E-006	0.0083961	8
	7	4	199546.9	3995.244	-988.338	1	4115.676	-13.89479	4.095052E-006	0.0078033	8
	8	4	158578.1	4119.338	-878.3314	1	4211.937	-12.03645	-7.347901E-007	0.0075548	8
	9	5	125953.1	4229.677	-725.387	1	4291.428	-9.73152	2.190694E-006	0.0078823	7
	10	5	100078.1	4277.208	-638.6515	1	4324.625	-8.492381	6.439416E-007	0.0080407	7
	11	5	79453.13	4338.468	-580.3648	1	4377.114	-7.619328	5.222157E-007	0.0060232	7
	12	6	63140.62	4389.27	-537.0569	1	4422.004	-6.975853	5.201732E-007	0.0060232	7
	13	6	50203.12	4437.379	-508.4723	1	4466.417	-6.536921	6.46392E-007	0.0080382	7
	14	6	39890.62	4475.176	-488.3115	1	4501.739	-6.227226	-6.678121E-007	0.0095117	7
	15	7	31640.63	4523.343	-482.5087	1	4549.005	-6.088763	5.231908E-007	0.0060166	7
	16	7	25171.88	4572.055	-489.5275	1	4598.187	-6.111347	1.175089E-006	0.0065912	7
	17	7	20015.62	4609.028	-503.7781	1	4636.479	-6.237807	-6.681731E-007	0.0095083	7
	18	8	15890.62	4659.723	-531.2666	1	4689.911	-6.504348	-3.138248E-007	0.0092492	7
	19	8	12609.37	4718.005	-568.2927	1	4752.107	-6.868297	1.049314E-006	0.0059953	7
	20	8	10078.13	4767.938	-613.4225	1	4807.236	-7.331158	1.049014E-006	0.0059971	7
	21	8	8015.625	4822.258	-671.2491	1	4868.752	-7.924542	8.357412E-007	0.0059025	7
	22	9	6328.125	4878.476	-745.3864	1	4935.091	-8.687086	4.097269E-007	0.0083677	7
	23	9	5015.625	4935.707	-841.5656	1	5006.939	-9.6762	5.224173E-007	0.0060053	7
	24	9	3984.375	4988.677	-961.936	1	5080.573	-10.91404	-7.762425E-007	0.007621	7
	25	10	3170.956	5044.853	-1109.591	1	5165.437	-12.40442	-1.309185E-006	0.0093391	7
	26	10	2527.573	5115.777	-1299.334	1	5278.205	-14.25097	1.175611E-006	0.0065859	7
	27	10	1976.103	5181.778	-1550.583	1	5408.802	-16.65916	-1.116206E-006	0.0083372	7
	28	11	1577.524	5262.245	-1844.425	1	5576.121	-19.31565	-3.156719E-007	0.0092378	7
	29	11	1265.625	5345.213	-2203.816	1	5781.705	-22.40622	1.175984E-006	0.0065849	7
	30	11	998.264	5447.449	-2676.434	1	6069.431	-26.16575	1.161565E-006	0.0062339	7
	31	12	796.875	5563.042	-3226.53	1	6431.014	-30.11347	-7.764957E-007	0.0076139	7
	32	12	627.7902	5714.12	-3946.304	1	6944.385	-34.62986	-1.172029E-006	0.0095177	7
	33	12	505.5147	5881.517	-4760.078	1	7566.411	-38.98423	-1.121226E-006	0.0083389	7
	34	13	397.9953	6120.633	-5872.519	1	8482.253	-43.81483	3.878351E-009	0.0078115	7
	35	13	315.5048	6410.762	-7190.436	1	9633.29	-48.28083	1.700003E-009	0.007815	7
	36	13	252.4038	6769.238	-8733.713	1	11049.9	-52.22181	-2.064015E-010	0.007754	6
	37	14	198.6229	7255.697	-10757.45	1	12975.67	-56.00109	3.692974E-010	0.0077503	6
	38	14	158.3615	7856.31	-13092.12	1	15268.43	-59.03289	1.755905E-010	0.0077569	6
	39	14	125.558	8623.718	-15982.12	1	18160.3	-61.64935	6.427425E-010	0.0077438	6
	40	15	100.4464	9561.26	-19349.83	1	21583.18	-63.7048	-5.346813E-011	0.0077461	6
	41	15	79.00281	10917.4	-23686.14	1	26081.08	-65.25412	-3.528233E-010	0.0077454	6
	42	15	63.3446	12307.33	-28750.64	1	31274.11	-66.82562	8.540463E-011	0.0077352	6
	43	16	49.86702	14323.64	-34892.08	1	37717.69	-67.68122	-5.706974E-010	0.0077503	6
	44	16	39.72458	16956.53	-41900.02	1	45201.05	-67.96731	6.040606E-010	0.007741	6
	45	16	31.6723	20173.07	-50376.29	1	54265.3	-68.17648	-4.80786E-010	0.0077426	6
	46	17	24.93351	24320.84	-61195.52	1	65851.3	-68.32571	-1.618159E-010	0.0077466	6
	47	17	19.86229	29493.24	-73277.21	1	78989.88	-68.07578	-1.89706E-009	0.0077457	6
	48	17	15.83615	36077.09	-87871.13	1	94988.9	-67.6785	-2.436832E-010	0.00774	6
	49	18	12.40079	45080.62	-105839.3	1	115040.1	-66.92917	-1.044626E-009	0.0077511	5
	50	18	9.93114	56149.54	-123557.7	1	135717.6	-65.56106	-7.495018E-010	0.0077454	5
	51	19	7.944915	68635.91	-144646.4	1	160104.5	-64.61527	-1.268344E-009	0.0077598	5
	52	19	6.317385	85080.69	-168596	1	188847.4	-63.22256	-6.115245E-010	0.0077597	5
	53	20	5.008013	104614.8	-195659.6	1	221871.4	-61.86759	-1.445549E-010	0.0077478	5
	54	21	3.945707	127636	-226417.7	1	259915.2	-60.58921	-1.732464E-010	0.0077459	5
	55	22	3.158693	152155.1	-258102.2	1	299612.9	-59.48002	5.781457E-011	0.0077386	5
	56	24	2.504006	180014.3	-295522.9	1	346033.2	-58.65281	7.546137E-011	0.0077528	5
	57	25	1.998082	209906.7	-336486.1	1	396590.1	-58.04326	-2.090695E-010	0.0077033	5
	58	27	1.584686	241984.3	-386405.3	1	455922.7	-57.94336	-1.645075E-010	0.0077198	5
	59	29	1.266892	276491.1	-441769.5	1	521159.9	-57.95871	-1.41853E-010	0.0077502	5
	60	31	0.999041	318289.1	-513168.7	1	603862.6	-58.19104	-3.5029E-011	0.0077714	5
