EXPLAIN
TAG	EISPOT
TITLE	LABEL	Potentiostatic EIS	Test &Identifier
DATE	LABEL	9/20/2019	Date
TIME	LABEL	12:30:41	Time
NOTES	NOTES	1	&Notes...
	
PSTAT	PSTAT	REF600-11020	Potentiostat
VDC	POTEN	0.00000E+000	T	DC &Voltage (V)
FREQINIT	QUANT	1.00000E+006	Initial Fre&q. (Hz)
FREQFINAL	QUANT	1.00000E+000	Final Fre&q. (Hz)
PTSPERDEC	QUANT	1.00000E+001	Points/&decade
VAC	QUANT	2.50000E+001	AC &Voltage (mV rms)
AREA	QUANT	1.00000E-002	&Area (cm^2)
CONDIT	TWOPARAM	T	5.00000E+000	0.00000E+000	Conditionin&g	Time(s)	E(V)
DELAY	TWOPARAM	T	5.00000E+000	0.00000E+000	Init. De&lay	Time(s)	Stab.(mV/s)
SPEED	SELECTOR	1	&Optimize for:
ZGUESS	QUANT	1.00000E+004	E&stimated Z (ohms)
OCVCURVE	TABLE	19
	Pt	T	Vf	Vm	Ach	Over
	#	s	V vs. Ref.	V	V	bits
	0	0.258333	6.93834E-003	6.93834E-003	5.61399E-004	...........
	1	0.516667	6.93695E-003	6.86519E-003	5.66232E-004	...........
	2	0.775	6.92863E-003	6.80969E-003	5.71366E-004	...........
	3	1.03333	6.90830E-003	6.87789E-003	5.73199E-004	...........
	4	1.29167	6.88350E-003	6.92996E-003	5.70132E-004	...........
	5	1.55	6.86914E-003	6.78447E-003	5.77332E-004	...........
	6	1.80833	6.86245E-003	6.71290E-003	5.74299E-004	...........
	7	2.06667	6.84103E-003	6.60853E-003	5.70532E-004	...........
	8	2.325	6.79103E-003	6.58055E-003	5.75465E-004	...........
	9	2.58333	6.72236E-003	6.59036E-003	5.74699E-004	...........
	10	2.84167	6.65755E-003	6.58239E-003	5.73532E-004	...........
	11	3.1	6.61300E-003	6.57558E-003	5.73099E-004	...........
	12	3.35833	6.58988E-003	6.57308E-003	5.67432E-004	...........
	13	3.61667	6.58040E-003	6.59157E-003	5.72132E-004	...........
	14	3.875	6.57862E-003	6.61456E-003	5.68432E-004	...........
	15	4.13333	6.58591E-003	6.76033E-003	5.73965E-004	...........
	16	4.39167	6.60932E-003	6.73806E-003	5.72432E-004	...........
	17	4.65	6.65331E-003	6.93844E-003	5.71799E-004	...........
	18	4.90833	6.71533E-003	6.89609E-003	5.70832E-004	...........
EOC	QUANT	0.0067153	Open Circuit (V)
PSTATMODEL	IQUANT	4	Pstat Model
PSTATSECTION	LABEL	REF600-11020	Pstat Section
PSTATSERIALNO	LABEL	11020	Pstat Serial Number
CTRLMODE	IQUANT	1	Control Mode
IESTAB	IQUANT	0	I/E Stability
CASPEED	IQUANT	1	Control Amp Speed
CONVENTION	IQUANT	1	Current Convention
ICHRANGE	IQUANT	2	Ich Range
ICHRANGEMODE	TOGGLE	F	Ich Auto Range
ICHOFFSETENABLE	TOGGLE	T	Ich Offset Enable
ICHOFFSET	QUANT	0	Ich Offset (V)
ICHFILTER	IQUANT	3	Ich Filter
VCHRANGE	IQUANT	2	Vch Range
VCHRANGEMODE	TOGGLE	F	Vch Auto Range
VCHOFFSETENABLE	TOGGLE	T	Vch Offset Enable
VCHOFFSET	QUANT	0	Vch Offset (V)
VCHFILTER	IQUANT	3	Vch Filter
ACHRANGE	IQUANT	2	Ach Range
ACHOFFSETENABLE	TOGGLE	F	Ach Offset Enable
ACHOFFSET	QUANT	0	Ach Offset (V)
ACHFILTER	IQUANT	3	Ach Filter
IERANGELOWERLIMIT	IQUANT	1	I/E Range Lower Limit
IERANGEMODE	TOGGLE	F	I/E AutoRange
IERANGE	IQUANT	6	I/E Range
POSFEEDENABLE	TOGGLE	F	Positive Feedback IR Comp
POSFEEDRESISTANCE	QUANT	0	Positive Feedback Resistance (ohm)
ACHSELECT	IQUANT	0	Ach Select
CABLEID	IQUANT	14	Cable ID
DCCALDATE	LABEL	8/19/2019	DC Calibration Date
ACCALDATE	LABEL	8/19/2019	AC Calibration Date
THERMOSELECT	IQUANT	1	Thermo Select
FRAMEWORKVERSION	QUANT	6.33	Framework Version
INSTRUMENTVERSION	LABEL	3.50	Instrument Version
ZCURVE	TABLE
	Pt	Time	Freq	Zreal	Zimag	Zsig	Zmod	Zphz	Idc	Vdc	IERange
	#	s	Hz	ohm	ohm	V	ohm	°	A	V	#
	0	2	1000078	2275.292	-1726.495	1	2856.175	-37.19128	3.953821E-006	0.007841	8
	1	3	794390.6	2623.843	-1664.072	1	3107.038	-32.38335	2.864872E-006	0.0078478	8
	2	5	630984.4	2940.308	-1589.616	1	3342.498	-28.39695	3.594083E-006	0.0077883	8
	3	6	501234.4	3202.197	-1460.526	1	3519.546	-24.51779	-9.602117E-007	0.0087528	8
	4	8	398109.4	3443.175	-1325.349	1	3689.445	-21.05274	1.376354E-006	0.0083796	8
	5	9	316265.6	3635.649	-1185.122	1	3823.932	-18.05455	1.170461E-006	0.0081523	8
	6	10	251203.1	3799.843	-1061.306	1	3945.273	-15.60519	1.212785E-006	0.0081377	8
	7	12	199546.9	3899.176	-931.3453	1	4008.862	-13.43379	3.220803E-006	0.0077071	8
	8	13	158578.1	4007.172	-838.8329	1	4094.028	-11.82317	4.240425E-006	0.0075725	8
	9	15	125953.1	4110.31	-720.7985	1	4173.032	-9.94645	-1.465477E-006	0.0112977	7
	10	16	100078.1	4165.147	-664.5585	1	4217.83	-9.065259	8.135405E-008	0.0081726	7
	11	18	79453.13	4224.645	-631.8085	1	4271.628	-8.505719	-1.095695E-008	0.0084798	7
	12	19	63140.62	4282.098	-616.4396	1	4326.241	-8.191872	-1.786574E-008	0.0083883	7
	13	20	50203.12	4338.13	-614.0349	1	4381.371	-8.056337	-5.390658E-008	0.0085056	7
	14	22	39890.62	4404.357	-626.8538	1	4448.742	-8.100267	8.303083E-008	0.0081622	7
	15	23	31640.63	4459.907	-649.9942	1	4507.023	-8.292002	6.731307E-008	0.008224	7
	16	24	25171.88	4525.973	-686.9343	1	4577.806	-8.63026	-7.712067E-008	0.0084593	7
	17	26	20015.62	4598.151	-738.0083	1	4657	-9.118268	-1.379798E-008	0.0082985	7
	18	27	15890.62	4677.104	-799.4137	1	4744.93	-9.69931	4.235185E-008	0.0082841	7
	19	29	12609.37	4764.399	-880.7078	1	4845.116	-10.47301	-2.69565E-010	0.0083446	7
	20	30	10078.13	4857.319	-969.92	1	4953.211	-11.29242	-5.416599E-008	0.0085026	7
	21	31	8015.625	4964.355	-1078.939	1	5080.25	-12.26182	1.435117E-008	0.0082535	7
	22	33	6328.125	5087.79	-1210.495	1	5229.809	-13.38308	4.17846E-008	0.0081987	7
	23	34	5015.625	5224.885	-1361.198	1	5399.285	-14.60223	1.362381E-007	0.0081247	7
	24	35	3984.375	5378.684	-1531.13	1	5592.37	-15.88987	-8.848883E-009	0.0084633	7
	25	37	3170.956	5548.707	-1727.376	1	5811.366	-17.29197	9.235085E-008	0.0082759	7
	26	38	2527.573	5742.602	-1944.258	1	6062.806	-18.70443	-9.466142E-009	0.0084617	7
	27	39	1976.103	5971.585	-2210.521	1	6367.592	-20.3132	3.959581E-008	0.0081992	7
	28	41	1577.524	6198.933	-2487.205	1	6679.293	-21.86219	6.442282E-008	0.0082163	7
	29	42	1265.625	6442.234	-2805.411	1	7026.572	-23.53177	-2.939577E-008	0.0083412	7
	30	43	998.264	6726.347	-3173.998	1	7437.607	-25.26147	4.212248E-008	0.0082748	7
	31	45	796.875	6993.251	-3598.735	1	7864.887	-27.2304	1.371176E-007	0.008115	7
	32	46	627.7902	7272.917	-4137.603	1	8367.501	-29.63579	6.595108E-008	0.0082194	7
	33	48	505.5147	7525.635	-4739.241	1	8893.57	-32.20052	-5.206088E-008	0.0085036	7
	34	49	397.9953	7807.004	-5570.068	1	9590.36	-35.50674	1.100016E-009	0.0082858	6
	35	50	315.5048	8080.353	-6597.446	1	10431.61	-39.23095	5.190423E-010	0.0082888	6
	36	52	252.4038	8361.604	-7840.002	1	11462.2	-43.15603	1.201401E-009	0.008282	6
	37	53	198.6229	8700.718	-9520.1	1	12897.09	-47.57484	9.773732E-010	0.008289	6
	38	54	158.3615	9075.604	-11514.69	1	14661.34	-51.75567	1.212783E-009	0.0082867	6
	39	56	125.558	9545.22	-14060.98	1	16994.78	-55.82958	6.196429E-010	0.0082922	6
	40	57	100.4464	10114.14	-17088.11	1	19856.97	-59.37947	1.458782E-009	0.0082862	6
	41	59	79.00281	10859.71	-21142.15	1	23768.13	-62.8126	1.255733E-009	0.0082856	6
	42	60	63.3446	11750.52	-25836.66	1	28383.22	-65.54395	2.547998E-010	0.0082891	6
	43	61	49.86702	13022.21	-31659.5	1	34233.05	-67.64161	2.81157E-012	0.0082841	6
	44	63	39.72458	14660.16	-38812.66	1	41489.06	-69.30766	5.724179E-010	0.0082901	6
	45	64	31.6723	16820.82	-47426.63	1	50321.22	-70.47191	3.691004E-010	0.0082911	6
	46	66	24.93351	19610.11	-58434.67	1	61637.38	-71.44875	8.980029E-010	0.0082862	6
	47	67	19.86229	23161.41	-71163.7	1	74837.98	-71.97166	9.390063E-010	0.0082925	6
	48	68	15.83615	27859.67	-86437.29	1	90816.11	-72.13531	2.606362E-010	0.008284	6
	49	70	12.40079	34386.68	-105727.6	1	111179	-71.98349	1.09816E-009	0.0082907	5
	50	71	9.93114	42016.23	-127719.5	1	134453	-71.7902	8.048259E-010	0.0082853	5
	51	73	7.944915	52010.49	-153680.5	1	162243	-71.30251	-8.711191E-011	0.0082881	5
	52	74	6.317385	64960.68	-184411.7	1	195518.8	-70.59473	1.131571E-010	0.0082804	5
	53	76	5.008013	81819.1	-221339.5	1	235977.8	-69.71294	1.909668E-010	0.0082951	5
	54	79	3.945707	103867	-264997.6	1	284626.2	-68.59708	-7.96624E-011	0.0082821	5
	55	82	3.158693	129370.3	-312258.6	1	337997.2	-67.49553	3.499906E-010	0.0083062	5
	56	85	2.504006	162314.8	-368551.8	1	402711.5	-66.23072	-1.75082E-010	0.0082915	5
	57	88	1.998082	200642.9	-429590.2	1	474136.3	-64.96477	5.760533E-011	0.008257	5
	58	91	1.584686	247353.4	-498903.7	1	556855.9	-63.62807	9.822892E-011	0.0083297	5
	59	94	1.266892	298941.7	-576733.9	1	649606.2	-62.60069	3.234669E-011	0.0082689	5
	60	99	0.999041	362088.5	-667985	1	759810.5	-61.53962	2.736881E-010	0.0083296	5
