EXPLAIN
TAG	EISPOT
TITLE	LABEL	Potentiostatic EIS	Test &Identifier
DATE	LABEL	10/30/2019	Date
TIME	LABEL	8:48:40	Time
NOTES	NOTES	1	&Notes...
	
PSTAT	PSTAT	REF600-11020	Potentiostat
VDC	POTEN	0.00000E+000	T	DC &Voltage (V)
FREQINIT	QUANT	1.00000E+006	Initial Fre&q. (Hz)
FREQFINAL	QUANT	1.00000E+000	Final Fre&q. (Hz)
PTSPERDEC	QUANT	1.00000E+001	Points/&decade
VAC	QUANT	2.50000E+001	AC &Voltage (mV rms)
AREA	QUANT	1.00000E-002	&Area (cm^2)
CONDIT	TWOPARAM	T	5.00000E+000	0.00000E+000	Conditionin&g	Time(s)	E(V)
DELAY	TWOPARAM	T	5.00000E+000	0.00000E+000	Init. De&lay	Time(s)	Stab.(mV/s)
SPEED	SELECTOR	0	&Optimize for:
ZGUESS	QUANT	1.00000E+005	E&stimated Z (ohms)
OCVCURVE	TABLE	19
	Pt	T	Vf	Vm	Ach	Over
	#	s	V vs. Ref.	V	V	bits
	0	0.258333	1.24709E-003	1.24709E-003	5.88012E-004	...........
	1	0.516667	1.24375E-003	1.07206E-003	5.85079E-004	...........
	2	0.775	1.22356E-003	9.24062E-004	5.87179E-004	...........
	3	1.03333	1.16752E-003	7.79198E-004	5.91679E-004	...........
	4	1.29167	1.06967E-003	6.62601E-004	5.87379E-004	...........
	5	1.55	9.43549E-004	5.38821E-004	5.82579E-004	...........
	6	1.80833	8.08932E-004	4.36249E-004	5.82012E-004	...........
	7	2.06667	6.78915E-004	3.27538E-004	5.88179E-004	...........
	8	2.325	5.57998E-004	2.29300E-004	5.90312E-004	...........
	9	2.58333	4.45691E-004	1.34531E-004	5.87579E-004	...........
	10	2.84167	3.40247E-004	4.70639E-005	5.92379E-004	...........
	11	3.1	2.40541E-004	-3.90635E-005	5.89879E-004	...........
	12	3.35833	1.45725E-004	-1.35513E-004	5.94379E-004	...........
	13	3.61667	5.41598E-005	-2.24028E-004	5.87979E-004	...........
	14	3.875	-3.59190E-005	-2.98152E-004	5.93145E-004	...........
	15	4.13333	-1.24321E-004	-3.70088E-004	5.93012E-004	...........
	16	4.39167	-2.09179E-004	-4.51487E-004	5.87879E-004	...........
	17	4.65	-2.89965E-004	-5.34303E-004	5.85279E-004	...........
	18	4.90833	-3.68003E-004	-5.80864E-004	5.92145E-004	...........
EOC	QUANT	-0.000368	Open Circuit (V)
PSTATMODEL	IQUANT	4	Pstat Model
PSTATSECTION	LABEL	REF600-11020	Pstat Section
PSTATSERIALNO	LABEL	11020	Pstat Serial Number
CTRLMODE	IQUANT	1	Control Mode
IESTAB	IQUANT	0	I/E Stability
CASPEED	IQUANT	1	Control Amp Speed
CONVENTION	IQUANT	1	Current Convention
ICHRANGE	IQUANT	2	Ich Range
ICHRANGEMODE	TOGGLE	F	Ich Auto Range
ICHOFFSETENABLE	TOGGLE	T	Ich Offset Enable
ICHOFFSET	QUANT	0	Ich Offset (V)
ICHFILTER	IQUANT	3	Ich Filter
VCHRANGE	IQUANT	2	Vch Range
VCHRANGEMODE	TOGGLE	F	Vch Auto Range
VCHOFFSETENABLE	TOGGLE	T	Vch Offset Enable
VCHOFFSET	QUANT	0	Vch Offset (V)
VCHFILTER	IQUANT	3	Vch Filter
ACHRANGE	IQUANT	2	Ach Range
ACHOFFSETENABLE	TOGGLE	F	Ach Offset Enable
ACHOFFSET	QUANT	0	Ach Offset (V)
ACHFILTER	IQUANT	1	Ach Filter
IERANGELOWERLIMIT	IQUANT	1	I/E Range Lower Limit
IERANGEMODE	TOGGLE	F	I/E AutoRange
IERANGE	IQUANT	3	I/E Range
POSFEEDENABLE	TOGGLE	F	Positive Feedback IR Comp
POSFEEDRESISTANCE	QUANT	0	Positive Feedback Resistance (ohm)
ACHSELECT	IQUANT	0	Ach Select
CABLEID	IQUANT	14	Cable ID
DCCALDATE	LABEL	8/19/2019	DC Calibration Date
ACCALDATE	LABEL	8/19/2019	AC Calibration Date
THERMOSELECT	IQUANT	1	Thermo Select
FRAMEWORKVERSION	QUANT	6.33	Framework Version
INSTRUMENTVERSION	LABEL	3.50	Instrument Version
ZCURVE	TABLE
	Pt	Time	Freq	Zreal	Zimag	Zsig	Zmod	Zphz	Idc	Vdc	IERange
	#	s	Hz	ohm	ohm	V	ohm	°	A	V	#
	0	1	1000078	1139.346	-1473.432	1	1862.554	-52.28666	-5.364533E-006	0.0028562	8
	1	1	794390.6	1226.986	-1760.265	1	2145.699	-55.12171	1.66033E-006	0.0016826	8
	2	2	630984.4	1323.72	-2114.239	1	2494.442	-57.94942	-1.433791E-007	0.0016132	8
	3	2	501234.4	1474.595	-2544.655	1	2941.037	-59.90826	-7.580105E-007	0.00154	8
	4	2	398109.4	1638.745	-3076.659	1	3485.874	-61.95854	-6.955575E-007	0.0014675	8
	5	2	316265.6	1872.27	-3714.401	1	4159.588	-63.24929	-2.921072E-006	0.0020205	8
	6	3	251203.1	2195.418	-4493.965	1	5001.558	-63.96329	-8.546473E-007	0.001633	8
	7	3	199546.9	2661.122	-5404.199	1	6023.864	-63.78356	-2.672546E-007	0.0013325	8
	8	3	158578.1	3266.313	-6455.465	1	7234.765	-63.16166	1.379929E-006	0.0010382	8
	9	4	125953.1	4244.52	-7674.372	1	8769.944	-61.05402	8.262151E-008	0.000675	7
	10	4	100078.1	5213.353	-8968.238	1	10373.44	-59.83001	-2.674055E-008	0.0013637	7
	11	5	79453.13	6549.118	-10427.46	1	12313.52	-57.86852	2.452144E-008	0.0013232	7
	12	5	63140.62	8243.845	-11882.82	1	14462.45	-55.24857	6.481641E-009	0.0012593	7
	13	5	50203.12	10277.91	-13281.77	1	16794.07	-52.26602	2.578241E-008	0.0011211	7
	14	6	39890.62	12558.41	-14587.9	1	19248.91	-49.27555	-3.171605E-008	0.0014043	7
	15	6	31640.63	15150.11	-15701.26	1	21818.7	-46.02346	-3.321625E-008	0.0014084	7
	16	6	25171.88	17878.97	-16518.82	1	24341.92	-42.73561	-1.959595E-008	0.0011862	7
	17	6	20015.62	20743.75	-17277.06	1	26996.3	-39.79025	1.249453E-007	0.0010663	7
	18	7	15890.62	23383.61	-17595.74	1	29264.37	-36.96079	-4.620271E-008	0.0012493	7
	19	7	12609.37	26585.08	-17730.08	1	31955	-33.70005	1.206474E-009	0.0010921	6
	20	7	10078.13	29338.73	-18085.89	1	34465.35	-31.65181	5.100245E-009	0.0012215	6
	21	8	8015.625	31726.86	-18435.67	1	36694.24	-30.15978	5.137907E-009	0.0012159	6
	22	8	6328.125	34382.39	-18992.23	1	39279.18	-28.91549	6.32446E-009	0.0009966	6
	23	8	5015.625	37027.61	-19565.91	1	41879.22	-27.8526	8.178735E-011	0.0010368	6
	24	9	3984.375	39528.17	-20496.41	1	44526.16	-27.40794	-6.838311E-009	0.0013183	6
	25	9	3170.956	42399.67	-21178.87	1	47394.89	-26.54238	-5.098093E-009	0.0011993	6
	26	9	2527.573	45226.36	-22180.24	1	50372.48	-26.12459	3.311257E-009	0.001221	6
	27	10	1976.103	48441.86	-23088.94	1	53662.96	-25.48396	-5.541122E-009	0.0013178	6
	28	10	1577.524	51799.39	-22733.57	1	56568.47	-23.69558	6.723246E-010	0.0010364	6
	29	10	1265.625	54769.02	-25953.24	1	60607.07	-25.35474	-4.977301E-009	0.0013128	6
	30	11	998.264	58428.46	-27757.21	1	64686.54	-25.41067	-2.943186E-008	0.0013771	7
	31	11	796.875	62435.75	-29693.5	1	69137.02	-25.43505	-2.622279E-008	0.0013267	7
	32	11	627.7902	66581.74	-31284.68	1	73565.34	-25.16736	5.192304E-009	0.0012375	7
	33	12	505.5147	70404.62	-33032.84	1	77768.75	-25.1353	-1.128576E-008	0.0012913	6
	34	12	397.9953	75033.89	-35319.71	1	82931.1	-25.20716	3.027006E-010	0.0011974	6
	35	13	315.5048	79552.24	-37764.2	1	88060.74	-25.39413	4.424105E-010	0.0011975	6
	36	13	252.4038	84203.82	-39972.83	1	93210.03	-25.3944	3.776751E-010	0.0011996	5
	37	13	198.6229	89164.43	-43570.82	1	99240.7	-26.04277	-2.307275E-010	0.0012019	5
	38	14	158.3615	94173.63	-47723.23	1	105575.5	-26.87397	-4.485424E-010	0.0012024	5
	39	14	125.558	99464.8	-52321.9	1	112387	-27.74591	-3.44002E-010	0.001199	5
	40	14	100.4464	105797.8	-58207.32	1	120752.9	-28.8185	6.563168E-010	0.001198	5
	41	15	79.00281	111816.4	-66220.7	1	129954.2	-30.63516	7.480412E-010	0.0011965	5
	42	15	63.3446	117121.6	-66986.05	1	134924.4	-29.76679	-3.923706E-010	0.0011938	5
	43	15	49.86702	127390.8	-78330.42	1	149546.2	-31.58665	-1.021778E-009	0.0011927	5
	44	16	39.72458	134648.4	-92734.45	1	163492.8	-34.55578	-3.758961E-010	0.0011969	5
	45	16	31.6723	144611.9	-107024	1	179907.6	-36.5043	-7.368419E-010	0.0011949	5
	46	16	24.93351	157140.6	-120501.9	1	198024.9	-37.48246	-3.472153E-010	0.0011922	5
	47	17	19.86229	169434.3	-137241	1	218043.7	-39.0073	-9.547859E-010	0.0011915	5
	48	17	15.83615	183098.2	-156179.4	1	240659.4	-40.46356	4.566744E-010	0.0011943	5
	49	17	12.40079	202719.2	-183930.5	1	273725.3	-42.21799	-2.594722E-010	0.0012006	5
	50	18	9.93114	222943.3	-207294.7	1	304425.3	-42.91696	-1.445006E-010	0.0012049	5
	51	18	7.944915	245280.5	-240464.2	1	343490.3	-44.4319	9.689284E-010	0.0011928	5
	52	19	6.317385	275697.6	-274052.8	1	388734	-44.82858	6.091026E-010	0.0011835	5
	53	20	5.008013	311726.8	-313008.4	1	441755.4	-45.11755	1.704319E-010	0.001194	5
	54	21	3.945707	355869	-355708.5	1	503161.3	-44.98708	7.373841E-011	0.0011957	5
	55	22	3.158693	402901.3	-399092.8	1	567101.9	-44.72792	-1.749446E-010	0.001187	5
	56	24	2.504006	458395.3	-445257.1	1	639046.3	-44.16704	1.454088E-011	0.0011876	5
	57	25	1.998082	516775.4	-493218.1	1	714367.4	-43.66386	1.577622E-010	0.0012242	5
	58	27	1.584686	580315.7	-544054.4	1	795463.1	-43.15284	2.554911E-011	0.0011749	5
	59	29	1.266892	648582.9	-599207.7	1	883011.7	-42.73398	-6.59141E-011	0.0011497	5
	60	31	0.999041	725761.5	-667286.2	1	985901	-42.59633	-5.968493E-011	0.0011554	4
