EXPLAIN
TAG	EISPOT
TITLE	LABEL	Potentiostatic IDE	Test &Identifier
DATE	LABEL	9/12/2019	Date
TIME	LABEL	10:59:44	Time
NOTES	NOTES	1	&Notes...
	
PSTAT	PSTAT	REF600-11020	Potentiostat
VDC	POTEN	0.00000E+000	T	DC &Voltage (V)
FREQINIT	QUANT	1.00000E+006	Initial Fre&q. (Hz)
FREQFINAL	QUANT	1.00000E+000	Final Fre&q. (Hz)
PTSPERDEC	QUANT	1.00000E+001	Points/&decade
VAC	QUANT	2.50000E+001	AC &Voltage (mV rms)
AREA	QUANT	1.00000E-002	&Area (cm^2)
CONDIT	TWOPARAM	T	5.00000E+000	0.00000E+000	Conditionin&g	Time(s)	E(V)
DELAY	TWOPARAM	T	5.00000E+000	0.00000E+000	Init. De&lay	Time(s)	Stab.(mV/s)
SPEED	SELECTOR	1	&Optimize for:
ZGUESS	QUANT	1.00000E+007	E&stimated Z (ohms)
OCVCURVE	TABLE	19
	Pt	T	Vf	Vm	Ach	Over
	#	s	V vs. Ref.	V	V	bits
	0	0.258333	-2.23226E-003	-2.23226E-003	5.63299E-004	...........
	1	0.516667	-2.24341E-003	-2.81552E-003	5.65632E-004	...........
	2	0.775	-2.31211E-003	-3.38300E-003	5.67899E-004	...........
	3	1.03333	-2.50894E-003	-4.00940E-003	5.64699E-004	...........
	4	1.29167	-2.86570E-003	-4.39972E-003	5.65832E-004	...........
	5	1.55	-3.33916E-003	-4.84894E-003	5.70032E-004	...........
	6	1.80833	-3.85002E-003	-5.28017E-003	5.69732E-004	...........
	7	2.06667	-4.34253E-003	-5.67441E-003	5.71699E-004	...........
	8	2.325	-4.80139E-003	-6.08912E-003	5.66866E-004	...........
	9	2.58333	-5.23354E-003	-6.51898E-003	5.69999E-004	...........
	10	2.84167	-5.65091E-003	-6.88770E-003	5.73266E-004	...........
	11	3.1	-6.05747E-003	-7.09996E-003	5.73432E-004	...........
	12	3.35833	-6.43790E-003	-7.23393E-003	5.67499E-004	...........
	13	3.61667	-6.76990E-003	-7.68256E-003	5.69066E-004	...........
	14	3.875	-7.05812E-003	-7.94994E-003	5.69232E-004	...........
	15	4.13333	-7.33503E-003	-8.23764E-003	5.66499E-004	...........
	16	4.39167	-7.62214E-003	-8.51353E-003	5.63166E-004	...........
	17	4.65	-7.91535E-003	-8.77088E-003	5.68266E-004	...........
	18	4.90833	-8.20311E-003	-9.01176E-003	5.72132E-004	...........
EOC	QUANT	-0.0082031	Open Circuit (V)
PSTATMODEL	IQUANT	4	Pstat Model
PSTATSECTION	LABEL	REF600-11020	Pstat Section
PSTATSERIALNO	LABEL	11020	Pstat Serial Number
CTRLMODE	IQUANT	1	Control Mode
IESTAB	IQUANT	0	I/E Stability
CASPEED	IQUANT	1	Control Amp Speed
CONVENTION	IQUANT	1	Current Convention
ICHRANGE	IQUANT	2	Ich Range
ICHRANGEMODE	TOGGLE	F	Ich Auto Range
ICHOFFSETENABLE	TOGGLE	T	Ich Offset Enable
ICHOFFSET	QUANT	0	Ich Offset (V)
ICHFILTER	IQUANT	3	Ich Filter
VCHRANGE	IQUANT	2	Vch Range
VCHRANGEMODE	TOGGLE	F	Vch Auto Range
VCHOFFSETENABLE	TOGGLE	T	Vch Offset Enable
VCHOFFSET	QUANT	0	Vch Offset (V)
VCHFILTER	IQUANT	3	Vch Filter
ACHRANGE	IQUANT	2	Ach Range
ACHOFFSETENABLE	TOGGLE	F	Ach Offset Enable
ACHOFFSET	QUANT	0	Ach Offset (V)
ACHFILTER	IQUANT	3	Ach Filter
IERANGELOWERLIMIT	IQUANT	1	I/E Range Lower Limit
IERANGEMODE	TOGGLE	F	I/E AutoRange
IERANGE	IQUANT	3	I/E Range
POSFEEDENABLE	TOGGLE	F	Positive Feedback IR Comp
POSFEEDRESISTANCE	QUANT	0	Positive Feedback Resistance (ohm)
ACHSELECT	IQUANT	0	Ach Select
CABLEID	IQUANT	14	Cable ID
DCCALDATE	LABEL	8/19/2019	DC Calibration Date
ACCALDATE	LABEL	8/19/2019	AC Calibration Date
THERMOSELECT	IQUANT	1	Thermo Select
FRAMEWORKVERSION	QUANT	6.33	Framework Version
INSTRUMENTVERSION	LABEL	3.50	Instrument Version
ZCURVE	TABLE
	Pt	Time	Freq	Zreal	Zimag	Zsig	Zmod	Zphz	Idc	Vdc	IERange
	#	s	Hz	ohm	ohm	V	ohm	°	A	V	#
	0	3	1000078	2746.251	-1718.464	1	3239.601	-32.03623	4.255204E-006	-0.006848	8
	1	4	794390.6	3051.312	-1603.931	1	3447.188	-27.72879	-6.193014E-006	-0.0052584	8
	2	6	630984.4	3324.8	-1447.168	1	3626.099	-23.5218	-4.639302E-006	-0.0050104	8
	3	7	501234.4	3563.268	-1299.225	1	3792.739	-20.03267	8.937009E-007	-0.0066118	8
	4	8	398109.4	3745.701	-1115.183	1	3908.185	-16.57951	1.657289E-007	-0.0066786	8
	5	10	316265.6	3876.053	-936.9721	1	3987.694	-13.58961	-8.931676E-007	-0.0063511	8
	6	11	251203.1	3963.749	-831.2501	1	4049.973	-11.84404	-1.276227E-006	-0.0061783	8
	7	13	199546.9	4015.019	-709.1899	1	4077.171	-10.01707	-8.396553E-007	-0.0063724	8
	8	14	158578.1	4090.636	-610.7487	1	4135.978	-8.491767	4.493428E-006	-0.0074687	8
	9	16	125953.1	4140.569	-487.8689	1	4169.212	-6.71998	6.065264E-007	-0.0082774	7
	10	17	100078.1	4177.84	-449.669	1	4201.97	-6.143207	-5.084057E-008	-0.0066228	7
	11	18	79453.13	4208.083	-429.0752	1	4229.902	-5.822016	-5.619751E-008	-0.0065522	7
	12	19	63140.62	4241.597	-418.5967	1	4262.202	-5.636182	-2.199598E-008	-0.0066794	7
	13	21	50203.12	4274.77	-420.2384	1	4295.376	-5.614518	8.028359E-008	-0.0068093	7
	14	22	39890.62	4309.385	-433.6204	1	4331.146	-5.745895	-4.739944E-008	-0.006629	7
	15	23	31640.63	4345.996	-454.0409	1	4369.649	-5.964248	-4.408805E-008	-0.006642	7
	16	25	25171.88	4385.049	-487.9102	1	4412.11	-6.349001	-7.446094E-008	-0.0065678	7
	17	26	20015.62	4428.697	-532.1344	1	4460.552	-6.851583	-1.973471E-008	-0.0065204	7
	18	28	15890.62	4470.83	-587.1464	1	4509.219	-7.48174	5.066392E-008	-0.0068345	7
	19	29	12609.37	4530.504	-663.8489	1	4578.882	-8.336152	-5.377687E-008	-0.0065666	7
	20	30	10078.13	4587.038	-752.5813	1	4648.364	-9.317335	8.036015E-008	-0.0067108	7
	21	32	8015.625	4648.74	-857.0362	1	4727.081	-10.44569	-3.398667E-008	-0.0066707	7
	22	33	6328.125	4724.612	-991.11	1	4827.449	-11.84748	-3.465706E-008	-0.0066715	7
	23	34	5015.625	4808.178	-1149.269	1	4943.622	-13.44284	-2.065673E-008	-0.0065245	7
	24	36	3984.375	4900.398	-1336.384	1	5079.353	-15.25416	-9.647426E-009	-0.0066271	7
	25	37	3170.956	5006.121	-1558.049	1	5242.973	-17.28765	3.629635E-008	-0.0067111	7
	26	38	2527.573	5124.088	-1823.559	1	5438.901	-19.58961	-6.084435E-009	-0.0066389	7
	27	40	1976.103	5270.803	-2169.789	1	5699.943	-22.3751	-3.835133E-008	-0.0066264	7
	28	41	1577.524	5419.871	-2553.058	1	5991.085	-25.22302	3.674328E-008	-0.0067145	7
	29	42	1265.625	5590.978	-2997.581	1	6343.857	-28.19781	7.972177E-008	-0.0068271	7
	30	44	998.264	5794.462	-3576.816	1	6809.508	-31.68628	2.550218E-008	-0.0067737	7
	31	45	796.875	6014.996	-4244.803	1	7361.964	-35.21075	7.985788E-008	-0.0068181	7
	32	46	627.7902	6286.248	-5107.312	1	8099.478	-39.0924	-5.208862E-008	-0.0065649	7
	33	48	505.5147	6573.02	-6039.125	1	8926.12	-42.57601	7.852037E-008	-0.0068279	7
	34	49	397.9953	6926.099	-7313.766	1	10072.84	-46.55944	1.149517E-009	-0.0067263	6
	35	50	315.5048	7331.805	-8825.385	1	11473.57	-50.28144	8.425291E-010	-0.0067332	6
	36	51	252.4038	7786.576	-10594.45	1	13148.12	-53.68533	1.888431E-009	-0.0067356	6
	37	53	198.6229	8370.861	-12919.62	1	15394.41	-57.06005	1.600715E-009	-0.0067329	6
	38	54	158.3615	9031.353	-15606.09	1	18030.96	-59.94174	1.839639E-009	-0.0067336	6
	39	55	125.558	9846.27	-18976.5	1	21378.88	-62.57671	1.216583E-009	-0.0067292	6
	40	57	100.4464	10820.72	-22936.11	1	25360.46	-64.74316	1.683566E-009	-0.0067363	6
	41	58	79.00281	12086.67	-28048.85	1	30542.2	-66.68807	1.537514E-009	-0.0067418	6
	42	59	63.3446	13379.2	-34256.9	1	36776.87	-68.66663	5.779646E-010	-0.0067413	6
	43	61	49.86702	15428.63	-41398.1	1	44179.69	-69.5601	1.31431E-009	-0.0067375	6
	44	62	39.72458	17715.54	-50676.2	1	53683.5	-70.73125	1.662008E-009	-0.0067371	6
	45	64	31.6723	20632.48	-61272.5	1	64653.07	-71.38992	7.410213E-010	-0.0067355	6
	46	65	24.93351	24763.59	-75394.23	1	79356.95	-71.81699	8.090051E-010	-0.0067352	6
	47	66	19.86229	29755.78	-91540.7	1	96255.4	-71.99298	1.361675E-009	-0.0067374	6
	48	68	15.83615	36341.36	-110297	1	116129.7	-71.76364	5.908264E-010	-0.0067324	5
	49	69	12.40079	44650.79	-135554.1	1	142718.6	-71.76839	5.649599E-010	-0.0067323	5
	50	70	9.93114	56322.8	-162652.7	1	172128.3	-70.90023	4.299925E-010	-0.0067311	5
	51	72	7.944915	70015.02	-193582.3	1	205854.8	-70.11591	-8.550792E-011	-0.0067279	5
	52	74	6.317385	89077.89	-232300.6	1	248794	-69.0202	3.077291E-010	-0.0067374	5
	53	76	5.008013	113476.4	-277018.2	1	299359.3	-67.72427	1.282507E-010	-0.006737	5
	54	78	3.945707	145869	-328734.6	1	359644.5	-66.07176	5.466403E-010	-0.0067277	5
	55	81	3.158693	183121.8	-383507.2	1	424983.9	-64.47587	1.647035E-010	-0.0067477	5
	56	84	2.504006	230803.8	-446016.8	1	502196.5	-62.63944	7.079613E-010	-0.0067283	5
	57	87	1.998082	286180.4	-511822.9	1	586397.4	-60.78872	5.808194E-010	-0.0067062	5
	58	90	1.584686	351840.7	-582662.3	1	680652.1	-58.87431	4.533015E-010	-0.0067469	5
	59	94	1.266892	426405.4	-658233.2	1	784278.3	-57.06472	3.47904E-010	-0.0066885	5
	60	98	0.999041	511235.1	-741348.5	1	900532.6	-55.40979	2.737778E-010	-0.0067652	5
