EXPLAIN
TAG	EISPOT
TITLE	LABEL	Potentiostatic EIS	Test &Identifier
DATE	LABEL	10/10/2019	Date
TIME	LABEL	9:13:38	Time
NOTES	NOTES	1	&Notes...
	
PSTAT	PSTAT	REF600-11020	Potentiostat
VDC	POTEN	0.00000E+000	T	DC &Voltage (V)
FREQINIT	QUANT	1.00000E+006	Initial Fre&q. (Hz)
FREQFINAL	QUANT	1.00000E+000	Final Fre&q. (Hz)
PTSPERDEC	QUANT	1.00000E+001	Points/&decade
VAC	QUANT	2.50000E+001	AC &Voltage (mV rms)
AREA	QUANT	1.00000E-002	&Area (cm^2)
CONDIT	TWOPARAM	T	5.00000E+000	0.00000E+000	Conditionin&g	Time(s)	E(V)
DELAY	TWOPARAM	T	5.00000E+000	0.00000E+000	Init. De&lay	Time(s)	Stab.(mV/s)
SPEED	SELECTOR	1	&Optimize for:
ZGUESS	QUANT	1.00000E+004	E&stimated Z (ohms)
OCVCURVE	TABLE	19
	Pt	T	Vf	Vm	Ach	Over
	#	s	V vs. Ref.	V	V	bits
	0	0.258333	5.60590E-003	5.60590E-003	5.36566E-004	...........
	1	0.516667	5.60462E-003	5.53908E-003	5.35666E-004	...........
	2	0.775	5.59491E-003	5.37748E-003	5.35200E-004	...........
	3	1.03333	5.56309E-003	5.32195E-003	5.34833E-004	...........
	4	1.29167	5.50129E-003	5.21222E-003	5.34766E-004	...........
	5	1.55	5.41559E-003	5.06898E-003	5.35033E-004	...........
	6	1.80833	5.32130E-003	5.26829E-003	5.31733E-004	...........
	7	2.06667	5.24050E-003	5.08683E-003	5.37533E-004	...........
	8	2.325	5.18729E-003	5.05661E-003	5.38599E-004	...........
	9	2.58333	5.15244E-003	5.12259E-003	5.38733E-004	...........
	10	2.84167	5.12606E-003	5.18169E-003	5.42766E-004	...........
	11	3.1	5.11689E-003	5.22816E-003	5.41633E-004	...........
	12	3.35833	5.13376E-003	5.26806E-003	5.43233E-004	...........
	13	3.61667	5.17082E-003	5.30538E-003	5.37666E-004	...........
	14	3.875	5.21562E-003	5.33525E-003	5.40466E-004	...........
	15	4.13333	5.25920E-003	5.37127E-003	5.41233E-004	...........
	16	4.39167	5.29839E-003	5.39748E-003	5.36466E-004	...........
	17	4.65	5.33340E-003	5.42348E-003	5.30766E-004	...........
	18	4.90833	5.36505E-003	5.44709E-003	5.28733E-004	...........
EOC	QUANT	0.005365	Open Circuit (V)
PSTATMODEL	IQUANT	4	Pstat Model
PSTATSECTION	LABEL	REF600-11020	Pstat Section
PSTATSERIALNO	LABEL	11020	Pstat Serial Number
CTRLMODE	IQUANT	1	Control Mode
IESTAB	IQUANT	0	I/E Stability
CASPEED	IQUANT	1	Control Amp Speed
CONVENTION	IQUANT	1	Current Convention
ICHRANGE	IQUANT	2	Ich Range
ICHRANGEMODE	TOGGLE	F	Ich Auto Range
ICHOFFSETENABLE	TOGGLE	T	Ich Offset Enable
ICHOFFSET	QUANT	0	Ich Offset (V)
ICHFILTER	IQUANT	3	Ich Filter
VCHRANGE	IQUANT	2	Vch Range
VCHRANGEMODE	TOGGLE	F	Vch Auto Range
VCHOFFSETENABLE	TOGGLE	T	Vch Offset Enable
VCHOFFSET	QUANT	0	Vch Offset (V)
VCHFILTER	IQUANT	3	Vch Filter
ACHRANGE	IQUANT	2	Ach Range
ACHOFFSETENABLE	TOGGLE	F	Ach Offset Enable
ACHOFFSET	QUANT	0	Ach Offset (V)
ACHFILTER	IQUANT	3	Ach Filter
IERANGELOWERLIMIT	IQUANT	1	I/E Range Lower Limit
IERANGEMODE	TOGGLE	F	I/E AutoRange
IERANGE	IQUANT	6	I/E Range
POSFEEDENABLE	TOGGLE	F	Positive Feedback IR Comp
POSFEEDRESISTANCE	QUANT	0	Positive Feedback Resistance (ohm)
ACHSELECT	IQUANT	0	Ach Select
CABLEID	IQUANT	14	Cable ID
DCCALDATE	LABEL	8/19/2019	DC Calibration Date
ACCALDATE	LABEL	8/19/2019	AC Calibration Date
THERMOSELECT	IQUANT	1	Thermo Select
FRAMEWORKVERSION	QUANT	6.33	Framework Version
INSTRUMENTVERSION	LABEL	3.50	Instrument Version
ZCURVE	TABLE
	Pt	Time	Freq	Zreal	Zimag	Zsig	Zmod	Zphz	Idc	Vdc	IERange
	#	s	Hz	ohm	ohm	V	ohm	°	A	V	#
	0	1	1000078	2711.973	-1484.147	1	3091.519	-28.69	9.669443E-007	0.007801	8
	1	3	794390.6	2969.831	-1347.898	1	3261.4	-24.41157	8.802721E-007	0.007046	8
	2	4	630984.4	3198.377	-1201.847	1	3416.731	-20.5946	-3.285629E-006	0.0076827	8
	3	6	501234.4	3346.702	-1049.922	1	3507.528	-17.4176	1.391541E-006	0.0068223	8
	4	7	398109.4	3486.602	-895.8549	1	3599.854	-14.40998	-2.141996E-007	0.0068798	8
	5	8	316265.6	3580.737	-769.0501	1	3662.392	-12.12152	4.228109E-006	0.0061539	8
	6	10	251203.1	3656.55	-659.15	1	3715.486	-10.21871	1.488424E-006	0.0064288	8
	7	11	199546.9	3703.287	-570.7142	1	3747.005	-8.760941	3.996831E-006	0.0061741	8
	8	13	158578.1	3758.461	-505.5721	1	3792.313	-7.661195	-3.176192E-007	0.0067085	8
	9	14	125953.1	3808.214	-411.2841	1	3830.358	-6.164008	-6.284579E-007	0.0086384	7
	10	16	100078.1	3828.78	-374.2794	1	3847.03	-5.583165	4.659621E-008	0.0067716	7
	11	17	79453.13	3857.08	-360.6179	1	3873.902	-5.341344	-2.6009E-008	0.0068657	7
	12	18	63140.62	3886.059	-354.7874	1	3902.221	-5.216499	1.290308E-007	0.0066265	7
	13	20	50203.12	3916.03	-358.5749	1	3932.412	-5.231751	9.936536E-009	0.0067318	7
	14	21	39890.62	3948.583	-371.3574	1	3966.007	-5.372766	5.090772E-008	0.0067567	7
	15	22	31640.63	3981.733	-395.2374	1	4001.301	-5.668762	-6.867892E-008	0.0069349	7
	16	24	25171.88	4017.994	-425.2649	1	4040.437	-6.041698	1.109919E-008	0.0067304	7
	17	25	20015.62	4064.485	-461.2672	1	4090.575	-6.474638	-3.879983E-008	0.0068139	7
	18	26	15890.62	4106.212	-516.1437	1	4138.524	-7.164404	-6.775533E-008	0.0070279	7
	19	28	12609.37	4155.405	-576.1539	1	4195.158	-7.893828	4.645554E-008	0.0066628	7
	20	29	10078.13	4211	-646.676	1	4260.365	-8.730608	4.854017E-008	0.006754	7
	21	31	8015.625	4270.523	-742.9908	1	4334.674	-9.8696	-3.699803E-008	0.0068159	7
	22	32	6328.125	4348.749	-836.5592	1	4428.481	-10.88885	4.53132E-008	0.0066601	7
	23	33	5015.625	4429.753	-957.745	1	4532.106	-12.19998	-3.589005E-008	0.0068141	7
	24	35	3984.375	4519.935	-1093.725	1	4650.381	-13.60284	-2.082395E-008	0.0068528	7
	25	36	3170.956	4616.664	-1263.064	1	4786.326	-15.30101	1.010302E-007	0.006726	7
	26	37	2527.573	4722.95	-1450.992	1	4940.813	-17.07809	1.093508E-008	0.0068983	7
	27	39	1976.103	4852.315	-1704.493	1	5142.982	-19.35506	1.334008E-008	0.0069005	7
	28	40	1577.524	4980.456	-1969.487	1	5355.728	-21.57597	4.893868E-008	0.0067456	7
	29	42	1265.625	5113.899	-2297.643	1	5606.347	-24.19409	-6.420488E-008	0.0069125	7
	30	43	998.264	5273.658	-2716.045	1	5931.979	-27.24942	1.321336E-007	0.0066146	7
	31	44	796.875	5434.104	-3195.448	1	6303.996	-30.45706	6.546045E-008	0.0066964	7
	32	46	627.7902	5630.167	-3818.014	1	6802.647	-34.14257	-5.389755E-008	0.0068743	7
	33	47	505.5147	5813.775	-4516.512	1	7361.988	-37.84234	5.141026E-008	0.006749	7
	34	48	397.9953	6041.111	-5468.125	1	8148.338	-42.14989	5.114972E-009	0.0068209	7
	35	50	315.5048	6294.602	-6616.989	1	9132.719	-46.43031	6.110614E-009	0.0068178	7
	36	51	252.4038	6580.935	-7979.15	1	10342.9	-50.48534	1.690373E-010	0.0067582	6
	37	53	198.6229	6947.426	-9796.15	1	12009.64	-54.65576	9.379018E-010	0.0067567	6
	38	54	158.3615	7379.396	-11925.13	1	14023.7	-58.25034	6.453028E-010	0.0067553	6
	39	55	125.558	7926.87	-14610.81	1	16622.61	-61.51864	7.830353E-010	0.0067565	6
	40	57	100.4464	8585.965	-17781.15	1	19745.58	-64.22555	1.314791E-009	0.0067556	6
	41	58	79.00281	9510.2	-21962.41	1	23933.06	-66.58636	1.271615E-009	0.0067546	6
	42	59	63.3446	10604.35	-26463.74	1	28509.32	-68.16341	9.511373E-010	0.0067481	6
	43	61	49.86702	12492.74	-32924.38	1	35214.82	-69.22139	1.134988E-009	0.0067498	6
	44	62	39.72458	14380.74	-40073.48	1	42575.7	-70.25901	2.026418E-010	0.0067565	6
	45	64	31.6723	17095.84	-48820.78	1	51727.52	-70.701	4.927746E-010	0.006753	6
	46	65	24.93351	20824.58	-59641.14	1	63172.22	-70.7526	3.304323E-010	0.0067554	6
	47	66	19.86229	25490.01	-72028.07	1	76405.39	-70.51164	1.521561E-011	0.0067643	6
	48	68	15.83615	31864.05	-86059.91	1	91769.41	-69.68271	1.102656E-009	0.0067537	6
	49	69	12.40079	40266	-104902.2	1	112364.7	-69.00105	2.694598E-010	0.0067584	5
	50	71	9.93114	50356.91	-123981.4	1	133817.8	-67.89472	9.634804E-010	0.0067586	5
	51	72	7.944915	62538.99	-146754.7	1	159524.5	-66.9189	-8.442541E-011	0.0067645	5
	52	74	6.317385	78907.26	-171755.2	1	189013.7	-65.32514	-8.104122E-011	0.0067705	5
	53	76	5.008013	98438.7	-200535.2	1	223393.3	-63.85451	3.128284E-010	0.0067577	5
	54	78	3.945707	122019.8	-233538.8	1	263494.3	-62.41376	2.177378E-010	0.0067554	5
	55	81	3.158693	147667.9	-267515.4	1	305565.5	-61.1014	2.259036E-010	0.006775	5
	56	84	2.504006	177479.3	-307491	1	355034.7	-60.00708	-2.180954E-011	0.0067507	5
	57	87	1.998082	209507	-350795.9	1	408596.3	-59.15295	-1.383619E-010	0.006749	5
	58	90	1.584686	247686.5	-401280.8	1	471566.4	-58.31546	6.331781E-011	0.0068055	5
	59	94	1.266892	283960.9	-458173.1	1	539032.8	-58.2107	-2.471715E-010	0.0067412	5
	60	98	0.999041	328119.4	-527625.6	1	621330.1	-58.12337	4.716391E-010	0.0067848	5
