EXPLAIN
TAG	EISPOT
TITLE	LABEL	Potentiostatic EIS	Test &Identifier
DATE	LABEL	10/4/2019	Date
TIME	LABEL	8:57:51	Time
NOTES	NOTES	2	&Notes...
	
	
PSTAT	PSTAT	REF600-11020	Potentiostat
VDC	POTEN	0.00000E+000	T	DC &Voltage (V)
FREQINIT	QUANT	1.00000E+006	Initial Fre&q. (Hz)
FREQFINAL	QUANT	1.00000E+000	Final Fre&q. (Hz)
PTSPERDEC	QUANT	1.00000E+001	Points/&decade
VAC	QUANT	2.50000E+001	AC &Voltage (mV rms)
AREA	QUANT	1.00000E-002	&Area (cm^2)
CONDIT	TWOPARAM	T	5.00000E+000	0.00000E+000	Conditionin&g	Time(s)	E(V)
DELAY	TWOPARAM	T	5.00000E+000	0.00000E+000	Init. De&lay	Time(s)	Stab.(mV/s)
SPEED	SELECTOR	1	&Optimize for:
ZGUESS	QUANT	1.00000E+004	E&stimated Z (ohms)
OCVCURVE	TABLE	19
	Pt	T	Vf	Vm	Ach	Over
	#	s	V vs. Ref.	V	V	bits
	0	0.258333	5.59889E-003	5.59889E-003	5.67532E-004	...........
	1	0.516667	5.59825E-003	5.56515E-003	5.68932E-004	...........
	2	0.775	5.59446E-003	5.54242E-003	5.68866E-004	...........
	3	1.03333	5.58472E-003	5.53977E-003	5.68299E-004	...........
	4	1.29167	5.57033E-003	5.55324E-003	5.68666E-004	...........
	5	1.55	5.55668E-003	5.52477E-003	5.68832E-004	...........
	6	1.80833	5.54616E-003	5.48604E-003	5.73565E-004	...........
	7	2.06667	5.53424E-003	5.44952E-003	5.69599E-004	...........
	8	2.325	5.51597E-003	5.46566E-003	5.64599E-004	...........
	9	2.58333	5.49454E-003	5.49709E-003	5.68266E-004	...........
	10	2.84167	5.47835E-003	5.42252E-003	5.63566E-004	...........
	11	3.1	5.46579E-003	5.28024E-003	5.66766E-004	...........
	12	3.35833	5.44141E-003	5.28730E-003	5.68432E-004	...........
	13	3.61667	5.39614E-003	5.22760E-003	5.72466E-004	...........
	14	3.875	5.33797E-003	5.11246E-003	5.64566E-004	...........
	15	4.13333	5.27852E-003	5.22777E-003	5.67499E-004	...........
	16	4.39167	5.23914E-003	5.74098E-003	5.69099E-004	...........
	17	4.65	5.26482E-003	5.77300E-003	5.69466E-004	...........
	18	4.90833	5.37895E-003	5.72831E-003	5.72366E-004	...........
EOC	QUANT	0.0053789	Open Circuit (V)
PSTATMODEL	IQUANT	4	Pstat Model
PSTATSECTION	LABEL	REF600-11020	Pstat Section
PSTATSERIALNO	LABEL	11020	Pstat Serial Number
CTRLMODE	IQUANT	1	Control Mode
IESTAB	IQUANT	0	I/E Stability
CASPEED	IQUANT	1	Control Amp Speed
CONVENTION	IQUANT	1	Current Convention
ICHRANGE	IQUANT	2	Ich Range
ICHRANGEMODE	TOGGLE	F	Ich Auto Range
ICHOFFSETENABLE	TOGGLE	T	Ich Offset Enable
ICHOFFSET	QUANT	0	Ich Offset (V)
ICHFILTER	IQUANT	3	Ich Filter
VCHRANGE	IQUANT	2	Vch Range
VCHRANGEMODE	TOGGLE	F	Vch Auto Range
VCHOFFSETENABLE	TOGGLE	T	Vch Offset Enable
VCHOFFSET	QUANT	0	Vch Offset (V)
VCHFILTER	IQUANT	3	Vch Filter
ACHRANGE	IQUANT	2	Ach Range
ACHOFFSETENABLE	TOGGLE	F	Ach Offset Enable
ACHOFFSET	QUANT	0	Ach Offset (V)
ACHFILTER	IQUANT	3	Ach Filter
IERANGELOWERLIMIT	IQUANT	1	I/E Range Lower Limit
IERANGEMODE	TOGGLE	F	I/E AutoRange
IERANGE	IQUANT	6	I/E Range
POSFEEDENABLE	TOGGLE	F	Positive Feedback IR Comp
POSFEEDRESISTANCE	QUANT	0	Positive Feedback Resistance (ohm)
ACHSELECT	IQUANT	0	Ach Select
CABLEID	IQUANT	14	Cable ID
DCCALDATE	LABEL	8/19/2019	DC Calibration Date
ACCALDATE	LABEL	8/19/2019	AC Calibration Date
THERMOSELECT	IQUANT	1	Thermo Select
FRAMEWORKVERSION	QUANT	6.33	Framework Version
INSTRUMENTVERSION	LABEL	3.50	Instrument Version
ZCURVE	TABLE
	Pt	Time	Freq	Zreal	Zimag	Zsig	Zmod	Zphz	Idc	Vdc	IERange
	#	s	Hz	ohm	ohm	V	ohm	°	A	V	#
	0	1	1000078	2412.596	-1261.789	1	2722.633	-27.6096	-3.540466E-007	0.0084887	8
	1	3	794390.6	2633.265	-1128.6	1	2864.93	-23.19965	-3.945561E-006	0.0083729	8
	2	4	630984.4	2807.308	-992.188	1	2977.485	-19.46496	2.175776E-006	0.0072319	8
	3	5	501234.4	2940.804	-864.1193	1	3065.132	-16.37478	-1.183066E-006	0.0071611	8
	4	7	398109.4	3045.468	-739.0988	1	3133.87	-13.64127	4.218699E-006	0.0064155	8
	5	8	316265.6	3119.281	-634.8458	1	3183.229	-11.5039	-2.219757E-007	0.0071743	8
	6	10	251203.1	3185.465	-549.0294	1	3232.433	-9.77911	-3.818412E-006	0.0077693	8
	7	11	199546.9	3216.586	-469.1124	1	3250.614	-8.297616	-6.029342E-007	0.007173	8
	8	12	158578.1	3267.969	-408.9593	1	3293.458	-7.133012	-2.392332E-006	0.0077059	8
	9	14	125953.1	3301.727	-325.5439	1	3317.738	-5.631052	-1.0988E-006	0.0087611	7
	10	15	100078.1	3323.582	-296.2309	1	3336.757	-5.093316	-1.118045E-008	0.0069965	7
	11	16	79453.13	3346.261	-281.746	1	3358.101	-4.812797	1.414209E-010	0.0070138	7
	12	18	63140.62	3368.488	-275.0168	1	3379.696	-4.667504	1.178606E-007	0.0068491	7
	13	19	50203.12	3392.326	-273.1251	1	3403.303	-4.603105	9.713274E-008	0.006944	7
	14	20	39890.62	3416.178	-278.2337	1	3427.49	-4.656228	-1.059287E-008	0.0069829	7
	15	22	31640.63	3440.97	-289.9501	1	3453.164	-4.816597	4.187835E-008	0.0069828	7
	16	23	25171.88	3466.872	-308.716	1	3480.59	-5.088619	-5.793525E-008	0.0071306	7
	17	24	20015.62	3492.579	-333.0518	1	3508.423	-5.447246	8.243389E-008	0.0068497	7
	18	26	15890.62	3521.229	-367.7022	1	3540.376	-5.961471	-1.139295E-008	0.007078	7
	19	27	12609.37	3552.244	-410.2924	1	3575.86	-6.588601	1.242277E-008	0.0071123	7
	20	29	10078.13	3582.989	-463.253	1	3612.812	-7.367037	-6.91055E-008	0.0071182	7
	21	30	8015.625	3615.007	-531.5597	1	3653.879	-8.364971	-4.269254E-008	0.0071208	7
	22	31	6328.125	3652.553	-616.2397	1	3704.173	-9.57646	4.444122E-008	0.0069687	7
	23	33	5015.625	3691.556	-722.5712	1	3761.608	-11.07484	1.184028E-007	0.0068455	7
	24	34	3984.375	3735.758	-854.3398	1	3832.203	-12.88159	8.043361E-008	0.0068505	7
	25	35	3170.956	3781.629	-1013.665	1	3915.129	-15.00538	-4.971698E-008	0.0070839	7
	26	37	2527.573	3836.159	-1209.033	1	4022.173	-17.49316	1.171245E-007	0.0068506	7
	27	38	1976.103	3903.924	-1472.564	1	4172.417	-20.66653	1.543255E-008	0.0069437	7
	28	40	1577.524	3975.206	-1769.201	1	4351.13	-23.99188	-6.367817E-008	0.0072225	7
	29	41	1265.625	4055.67	-2121.248	1	4576.915	-27.61103	8.229947E-008	0.0068589	7
	30	42	998.264	4155.295	-2588.789	1	4895.743	-31.9233	5.711462E-008	0.0069322	7
	31	44	796.875	4270.859	-3132.922	1	5296.739	-36.2622	-1.029905E-008	0.0070761	7
	32	45	627.7902	4411.931	-3845.181	1	5852.396	-41.0735	-3.951486E-008	0.0070355	7
	33	46	505.5147	4572.652	-4630.819	1	6507.966	-45.36211	-3.007466E-009	0.0070138	7
	34	48	397.9953	4768.42	-5714.99	1	7443.047	-50.15937	4.350638E-009	0.0070471	7
	35	49	315.5048	5013.181	-7012.209	1	8619.923	-54.4382	4.338821E-009	0.0070469	7
	36	50	252.4038	5306.609	-8544.903	1	10058.6	-58.15863	3.991492E-009	0.0070468	7
	37	52	198.6229	5708.227	-10574.01	1	12016.38	-61.63824	8.646542E-010	0.006985	6
	38	53	158.3615	6196.551	-12936.09	1	14343.63	-64.40498	1.284893E-009	0.0069812	6
	39	55	125.558	6845.392	-15905.53	1	17316.04	-66.71401	8.861746E-010	0.0069823	6
	40	56	100.4464	7673.32	-19384.81	1	20848.28	-68.40427	1.353411E-009	0.0069815	6
	41	57	79.00281	8852.598	-23955.34	1	25538.73	-69.71841	4.82703E-010	0.0069801	6
	42	59	63.3446	10181.71	-28911.06	1	30651.53	-70.59909	4.654486E-010	0.00698	6
	43	60	49.86702	12387.14	-35721.02	1	37807.83	-70.87476	8.329965E-010	0.0069802	6
	44	61	39.72458	14863.69	-43341.2	1	45819.09	-71.0708	1.016027E-009	0.0069842	6
	45	63	31.6723	18136.82	-52299.12	1	55354.69	-70.87396	4.112914E-010	0.0069844	6
	46	64	24.93351	22777.91	-63589.43	1	67545.9	-70.29234	8.258071E-010	0.006976	6
	47	66	19.86229	28481.18	-76153.06	1	81304.77	-69.49425	3.547504E-010	0.0069811	6
	48	67	15.83615	35381.14	-90873.16	1	97518	-68.72672	1.72434E-009	0.0069822	6
	49	68	12.40079	45195	-108661.1	1	117685.3	-67.4163	1.092378E-009	0.0069876	5
	50	70	9.93114	56003.97	-127040.8	1	138837.3	-66.21046	-2.016051E-010	0.0069942	5
	51	71	7.944915	68953.06	-147952.9	1	163231.7	-65.01225	1.262439E-009	0.0069853	5
	52	73	6.317385	84789.81	-172978.1	1	192641.5	-63.88699	2.471124E-010	0.0070019	5
	53	75	5.008013	103677	-201252	1	226387.5	-62.74428	3.300599E-010	0.0069872	5
	54	78	3.945707	125904.3	-234075.4	1	265787.9	-61.72511	4.513831E-010	0.0069859	5
	55	80	3.158693	150433.5	-269312	1	308478.8	-60.81295	4.278471E-011	0.0069855	5
	56	83	2.504006	179142.2	-310906.9	1	358824.5	-60.04979	4.461912E-010	0.006974	5
	57	86	1.998082	210868.7	-356957.3	1	414589.1	-59.42799	1.716648E-011	0.0070217	5
	58	89	1.584686	246690.8	-411420.5	1	479711.6	-59.05279	2.50306E-010	0.0069846	5
	59	93	1.266892	288329.4	-472596.9	1	553607.8	-58.61281	6.972701E-011	0.0070265	5
	60	97	0.999041	336730.2	-546897.8	1	642249.5	-58.37899	4.630535E-011	0.00694	5
