EXPLAIN
TAG	EISPOT
TITLE	LABEL	Potentiostatic EIS	Test &Identifier
DATE	LABEL	11/27/2019	Date
TIME	LABEL	12:15:47	Time
NOTES	NOTES	3	&Notes...
	
	
	
PSTAT	PSTAT	REF600-11020	Potentiostat
VDC	POTEN	0.00000E+000	T	DC &Voltage (V)
FREQINIT	QUANT	1.00000E+006	Initial Fre&q. (Hz)
FREQFINAL	QUANT	1.00000E+000	Final Fre&q. (Hz)
PTSPERDEC	QUANT	1.00000E+001	Points/&decade
VAC	QUANT	2.50000E+001	AC &Voltage (mV rms)
AREA	QUANT	1.00000E-002	&Area (cm^2)
CONDIT	TWOPARAM	T	5.00000E+000	0.00000E+000	Conditionin&g	Time(s)	E(V)
DELAY	TWOPARAM	T	5.00000E+000	0.00000E+000	Init. De&lay	Time(s)	Stab.(mV/s)
SPEED	SELECTOR	0	&Optimize for:
ZGUESS	QUANT	1.00000E+005	E&stimated Z (ohms)
OCVCURVE	TABLE	19
	Pt	T	Vf	Vm	Ach	Over
	#	s	V vs. Ref.	V	V	bits
	0	0.258333	-3.19824E-003	-3.19824E-003	5.76132E-004	...........
	1	0.516667	-3.20006E-003	-3.29326E-003	5.71466E-004	...........
	2	0.775	-3.22857E-003	-4.29203E-003	5.70966E-004	...........
	3	1.03333	-3.36347E-003	-5.07088E-003	5.81699E-004	...........
	4	1.29167	-3.70071E-003	-5.77237E-003	5.79566E-004	...........
	5	1.55	-4.25205E-003	-6.36388E-003	5.85399E-004	...........
	6	1.80833	-4.92750E-003	-6.93277E-003	5.80099E-004	...........
	7	2.06667	-5.61964E-003	-7.47525E-003	5.87532E-004	...........
	8	2.325	-6.26876E-003	-7.97394E-003	5.82232E-004	...........
	9	2.58333	-6.86240E-003	-8.45204E-003	5.80266E-004	...........
	10	2.84167	-7.40862E-003	-8.90271E-003	5.82399E-004	...........
	11	3.1	-7.91800E-003	-9.33982E-003	5.82432E-004	...........
	12	3.35833	-8.39826E-003	-9.74149E-003	5.79799E-004	...........
	13	3.61667	-8.85394E-003	-1.01435E-002	5.76799E-004	...........
	14	3.875	-9.28747E-003	-1.05042E-002	5.73666E-004	...........
	15	4.13333	-9.70033E-003	-1.08719E-002	5.80065E-004	...........
	16	4.39167	-1.00939E-002	-1.12114E-002	5.83365E-004	...........
	17	4.65	-1.04701E-002	-1.15477E-002	5.84365E-004	...........
	18	4.90833	-1.08305E-002	-1.18534E-002	5.81899E-004	...........
EOC	QUANT	-0.0108305	Open Circuit (V)
PSTATMODEL	IQUANT	4	Pstat Model
PSTATSECTION	LABEL	REF600-11020	Pstat Section
PSTATSERIALNO	LABEL	11020	Pstat Serial Number
CTRLMODE	IQUANT	1	Control Mode
IESTAB	IQUANT	0	I/E Stability
CASPEED	IQUANT	1	Control Amp Speed
CONVENTION	IQUANT	1	Current Convention
ICHRANGE	IQUANT	2	Ich Range
ICHRANGEMODE	TOGGLE	F	Ich Auto Range
ICHOFFSETENABLE	TOGGLE	T	Ich Offset Enable
ICHOFFSET	QUANT	0	Ich Offset (V)
ICHFILTER	IQUANT	3	Ich Filter
VCHRANGE	IQUANT	2	Vch Range
VCHRANGEMODE	TOGGLE	F	Vch Auto Range
VCHOFFSETENABLE	TOGGLE	T	Vch Offset Enable
VCHOFFSET	QUANT	0	Vch Offset (V)
VCHFILTER	IQUANT	3	Vch Filter
ACHRANGE	IQUANT	2	Ach Range
ACHOFFSETENABLE	TOGGLE	F	Ach Offset Enable
ACHOFFSET	QUANT	0	Ach Offset (V)
ACHFILTER	IQUANT	3	Ach Filter
IERANGELOWERLIMIT	IQUANT	1	I/E Range Lower Limit
IERANGEMODE	TOGGLE	F	I/E AutoRange
IERANGE	IQUANT	5	I/E Range
POSFEEDENABLE	TOGGLE	F	Positive Feedback IR Comp
POSFEEDRESISTANCE	QUANT	0	Positive Feedback Resistance (ohm)
ACHSELECT	IQUANT	0	Ach Select
CABLEID	IQUANT	14	Cable ID
DCCALDATE	LABEL	8/19/2019	DC Calibration Date
ACCALDATE	LABEL	8/19/2019	AC Calibration Date
THERMOSELECT	IQUANT	1	Thermo Select
FRAMEWORKVERSION	QUANT	6.33	Framework Version
INSTRUMENTVERSION	LABEL	3.50	Instrument Version
ZCURVE	TABLE
	Pt	Time	Freq	Zreal	Zimag	Zsig	Zmod	Zphz	Idc	Vdc	IERange
	#	s	Hz	ohm	ohm	V	ohm	°	A	V	#
	0	2	1000078	1939.94	-1305.743	1	2338.446	-33.94386	-4.817791E-006	-0.0089241	8
	1	2	794390.6	2194.032	-1256.457	1	2528.331	-29.79848	-2.556968E-006	-0.0081775	8
	2	2	630984.4	2435.249	-1168.113	1	2700.912	-25.62558	-1.73596E-006	-0.0088326	8
	3	3	501234.4	2632.428	-1055.472	1	2836.142	-21.84832	-5.651825E-007	-0.0086664	8
	4	3	398109.4	2780.516	-951.484	1	2938.808	-18.89079	5.582549E-006	-0.0098495	8
	5	3	316265.6	2923.211	-814.2299	1	3034.49	-15.56462	-2.593442E-006	-0.0092782	8
	6	4	251203.1	3013.079	-716.0784	1	3097	-13.36872	-1.896863E-007	-0.0087854	8
	7	4	199546.9	3097.927	-623.1136	1	3159.972	-11.37266	1.763636E-006	-0.0096206	8
	8	4	158578.1	3135.859	-529.5501	1	3180.257	-9.58506	1.627394E-006	-0.0089421	8
	9	5	125953.1	3219.735	-446.2684	1	3250.515	-7.891153	1.370816E-006	-0.0139696	7
	10	5	100078.1	3241.485	-392.293	1	3265.137	-6.900526	-6.469108E-007	-0.0093604	7
	11	5	79453.13	3270.153	-364.2787	1	3290.38	-6.356259	-2.359611E-007	-0.008072	7
	12	6	63140.62	3299.676	-345.3074	1	3317.695	-5.974194	9.478049E-007	-0.010533	7
	13	6	50203.12	3325.637	-330.6346	1	3342.033	-5.677685	9.659309E-007	-0.0102546	7
	14	6	39890.62	3355.233	-327.7584	1	3371.204	-5.579278	5.37835E-007	-0.0090908	7
	15	7	31640.63	3381.043	-329.1658	1	3397.029	-5.560579	-7.681055E-007	-0.0077851	7
	16	7	25171.88	3406.244	-343.7549	1	3423.546	-5.762725	-1.072499E-006	-0.0082819	7
	17	7	20015.62	3444.173	-370.0297	1	3463.993	-6.132133	3.532708E-007	-0.0087993	7
	18	8	15890.62	3469.494	-397.4006	1	3492.179	-6.534261	8.897596E-007	-0.0098822	7
	19	8	12609.37	3500.894	-437.051	1	3528.07	-7.115979	8.770336E-008	-0.0104238	7
	20	8	10078.13	3540.042	-485.4164	1	3573.167	-7.807801	3.503329E-007	-0.0087987	7
	21	8	8015.625	3567.348	-553.9227	1	3610.097	-8.826162	-1.067963E-006	-0.0079589	7
	22	9	6328.125	3603.196	-636.3223	1	3658.952	-10.01514	-2.786106E-007	-0.0099732	7
	23	9	5015.625	3654.145	-748.907	1	3730.099	-11.58223	9.646526E-007	-0.0102572	7
	24	9	3984.375	3697.145	-870.7814	1	3798.308	-13.25322	-6.459638E-007	-0.0093733	7
	25	10	3170.956	3748.138	-1034.499	1	3888.281	-15.42968	8.478756E-007	-0.0107147	7
	26	10	2527.573	3798.978	-1228.254	1	3992.599	-17.91663	-5.246801E-007	-0.0078602	7
	27	10	1976.103	3876.606	-1492.043	1	4153.826	-21.05091	9.465954E-007	-0.0105316	7
	28	11	1577.524	3952.01	-1790.686	1	4338.771	-24.37565	3.552086E-007	-0.0088149	7
	29	11	1265.625	4035.088	-2130.569	1	4563.032	-27.83452	6.741348E-007	-0.0107907	7
	30	11	998.264	4148.422	-2579.995	1	4885.262	-31.87839	7.576648E-008	-0.0084408	7
	31	12	796.875	4270.164	-3112.749	1	5284.27	-36.09029	9.626929E-007	-0.0102539	7
	32	12	627.7902	4418.225	-3804.418	1	5830.464	-40.73088	3.623385E-007	-0.0088146	7
	33	12	505.5147	4570.904	-4578.832	1	6469.843	-45.04965	8.934038E-007	-0.0098982	7
	34	13	397.9953	4771.68	-5611.554	1	7366.035	-49.62444	4.470952E-009	-0.0092277	7
	35	13	315.5048	5004.535	-6865.24	1	8495.698	-53.90918	7.603417E-010	-0.0092198	7
	36	13	252.4038	5277.599	-8354.501	1	9881.84	-57.7191	2.656541E-009	-0.0092229	7
	37	14	198.6229	5641.067	-10331.13	1	11770.89	-61.3643	8.839793E-010	-0.0092838	6
	38	14	158.3615	6074.311	-12625.66	1	14010.88	-64.30741	1.573315E-009	-0.0092981	6
	39	14	125.558	6642.868	-15540.97	1	16901.17	-66.85609	1.170934E-009	-0.0092945	6
	40	15	100.4464	7371.118	-18992.71	1	20372.93	-68.78864	1.931386E-009	-0.00929	6
	41	15	79.00281	8321.057	-23556.72	1	24983.18	-70.545	2.172252E-009	-0.0092892	6
	42	15	63.3446	9590.46	-28274.61	1	29856.83	-71.2636	3.082419E-010	-0.0092987	6
	43	16	49.86702	11426.9	-35085.1	1	36899.03	-71.96004	-4.519347E-010	-0.0092976	6
	44	16	39.72458	13463.99	-43094.09	1	45148.42	-72.64951	7.570115E-010	-0.00929	6
	45	16	31.6723	16392.35	-52613.99	1	55108.45	-72.69512	-5.279962E-012	-0.0093001	6
	46	17	24.93351	20666.39	-64234.57	1	67477.25	-72.16529	1.393694E-009	-0.0092982	6
	47	17	19.86229	25989.98	-77575.75	1	81813.67	-71.47775	9.958873E-010	-0.0092963	6
	48	17	15.83615	32479.93	-93029.95	1	98536.9	-70.75417	1.205639E-009	-0.0092904	6
	49	18	12.40079	42401.5	-112312.3	1	120049.7	-69.31686	-6.16122E-010	-0.0092868	5
	50	18	9.93114	53778.82	-132716.3	1	143198.4	-67.94141	1.447103E-009	-0.0092884	5
	51	18	7.944915	67928.66	-155448.1	1	169642	-66.39534	1.594732E-009	-0.0092884	5
	52	19	6.317385	85421.57	-181860.9	1	200923.5	-64.84017	1.26281E-009	-0.0093059	5
	53	20	5.008013	106803.6	-211813.6	1	237217.2	-63.24122	1.182795E-009	-0.0092907	5
	54	21	3.945707	131375.7	-244618.3	1	277664.8	-61.76135	7.337127E-010	-0.0092864	5
	55	22	3.158693	158747.1	-279108.2	1	321095	-60.37028	5.438513E-010	-0.0093094	5
	56	24	2.504006	189992.4	-319193.5	1	371458.8	-59.23777	8.079239E-010	-0.0093047	5
	57	25	1.998082	222283.5	-363074.3	1	425714.6	-58.52394	6.29573E-010	-0.0093011	5
	58	27	1.584686	259606.3	-415755.1	1	490150.7	-58.01847	3.833441E-010	-0.0093475	5
	59	29	1.266892	299149.8	-475793.1	1	562022.9	-57.84081	4.706913E-010	-0.0093391	5
	60	31	0.999041	344478.2	-550041.9	1	649007.9	-57.94206	4.619902E-010	-0.0093207	5
