EXPLAIN
TAG	EISPOT
TITLE	LABEL	Potentiostatic EIS	Test &Identifier
DATE	LABEL	10/12/2019	Date
TIME	LABEL	9:33:06	Time
NOTES	NOTES	1	&Notes...
	
PSTAT	PSTAT	REF600-11020	Potentiostat
VDC	POTEN	0.00000E+000	T	DC &Voltage (V)
FREQINIT	QUANT	1.00000E+006	Initial Fre&q. (Hz)
FREQFINAL	QUANT	1.00000E+000	Final Fre&q. (Hz)
PTSPERDEC	QUANT	1.00000E+001	Points/&decade
VAC	QUANT	2.50000E+001	AC &Voltage (mV rms)
AREA	QUANT	1.00000E-002	&Area (cm^2)
CONDIT	TWOPARAM	T	5.00000E+000	0.00000E+000	Conditionin&g	Time(s)	E(V)
DELAY	TWOPARAM	T	5.00000E+000	0.00000E+000	Init. De&lay	Time(s)	Stab.(mV/s)
SPEED	SELECTOR	1	&Optimize for:
ZGUESS	QUANT	1.00000E+004	E&stimated Z (ohms)
OCVCURVE	TABLE	19
	Pt	T	Vf	Vm	Ach	Over
	#	s	V vs. Ref.	V	V	bits
	0	0.258333	8.67882E-003	8.67882E-003	5.61366E-004	...........
	1	0.516667	8.68279E-003	8.88655E-003	5.56066E-004	...........
	2	0.775	8.70723E-003	9.08750E-003	5.58466E-004	...........
	3	1.03333	8.77927E-003	9.41752E-003	5.54899E-004	...........
	4	1.29167	8.91920E-003	9.68861E-003	5.53666E-004	...........
	5	1.55	9.12709E-003	1.00012E-002	5.51166E-004	...........
	6	1.80833	9.39067E-003	1.05698E-002	5.56999E-004	...........
	7	2.06667	9.71867E-003	1.16173E-002	5.53166E-004	...........
	8	2.325	1.01557E-002	1.21433E-002	5.53066E-004	...........
	9	2.58333	1.07151E-002	1.21808E-002	5.53766E-004	...........
	10	2.84167	1.13010E-002	1.20761E-002	5.54066E-004	...........
	11	3.1	1.17576E-002	1.19011E-002	5.57333E-004	...........
	12	3.35833	1.19933E-002	1.17429E-002	5.56832E-004	...........
	13	3.61667	1.20234E-002	1.14951E-002	5.52366E-004	...........
	14	3.875	1.19145E-002	1.11596E-002	5.49966E-004	...........
	15	4.13333	1.17194E-002	1.07471E-002	5.59666E-004	...........
	16	4.39167	1.14674E-002	1.08221E-002	5.58499E-004	...........
	17	4.65	1.12050E-002	1.09425E-002	5.54666E-004	...........
	18	4.90833	1.10128E-002	1.13906E-002	5.57499E-004	...........
EOC	QUANT	0.0110128	Open Circuit (V)
PSTATMODEL	IQUANT	4	Pstat Model
PSTATSECTION	LABEL	REF600-11020	Pstat Section
PSTATSERIALNO	LABEL	11020	Pstat Serial Number
CTRLMODE	IQUANT	1	Control Mode
IESTAB	IQUANT	0	I/E Stability
CASPEED	IQUANT	1	Control Amp Speed
CONVENTION	IQUANT	1	Current Convention
ICHRANGE	IQUANT	2	Ich Range
ICHRANGEMODE	TOGGLE	F	Ich Auto Range
ICHOFFSETENABLE	TOGGLE	T	Ich Offset Enable
ICHOFFSET	QUANT	0	Ich Offset (V)
ICHFILTER	IQUANT	3	Ich Filter
VCHRANGE	IQUANT	2	Vch Range
VCHRANGEMODE	TOGGLE	F	Vch Auto Range
VCHOFFSETENABLE	TOGGLE	T	Vch Offset Enable
VCHOFFSET	QUANT	0	Vch Offset (V)
VCHFILTER	IQUANT	3	Vch Filter
ACHRANGE	IQUANT	2	Ach Range
ACHOFFSETENABLE	TOGGLE	F	Ach Offset Enable
ACHOFFSET	QUANT	0	Ach Offset (V)
ACHFILTER	IQUANT	3	Ach Filter
IERANGELOWERLIMIT	IQUANT	1	I/E Range Lower Limit
IERANGEMODE	TOGGLE	F	I/E AutoRange
IERANGE	IQUANT	6	I/E Range
POSFEEDENABLE	TOGGLE	F	Positive Feedback IR Comp
POSFEEDRESISTANCE	QUANT	0	Positive Feedback Resistance (ohm)
ACHSELECT	IQUANT	0	Ach Select
CABLEID	IQUANT	14	Cable ID
DCCALDATE	LABEL	8/19/2019	DC Calibration Date
ACCALDATE	LABEL	8/19/2019	AC Calibration Date
THERMOSELECT	IQUANT	1	Thermo Select
FRAMEWORKVERSION	QUANT	6.33	Framework Version
INSTRUMENTVERSION	LABEL	3.50	Instrument Version
ZCURVE	TABLE
	Pt	Time	Freq	Zreal	Zimag	Zsig	Zmod	Zphz	Idc	Vdc	IERange
	#	s	Hz	ohm	ohm	V	ohm	°	A	V	#
	0	1	1000078	2397.045	-1890.691	1	3052.956	-38.26492	-1.789989E-006	0.0130646	8
	1	3	794390.6	2785.969	-1824.613	1	3330.291	-33.22197	-1.252062E-006	0.0132478	8
	2	4	630984.4	3144.31	-1697.379	1	3573.203	-28.36131	-1.977503E-006	0.0133352	8
	3	6	501234.4	3425.963	-1518.228	1	3747.298	-23.9007	8.419053E-007	0.0127202	8
	4	7	398109.4	3683.332	-1354.079	1	3924.342	-20.18461	4.184832E-007	0.0126186	8
	5	8	316265.6	3854.334	-1172.714	1	4028.79	-16.92283	1.69598E-006	0.012205	8
	6	10	251203.1	3983.796	-1002.34	1	4107.958	-14.12273	-8.232022E-007	0.0128839	8
	7	11	199546.9	4101.049	-861.5704	1	4190.573	-11.86446	-1.896239E-006	0.0129778	8
	8	12	158578.1	4169.598	-738.2894	1	4234.456	-10.041	3.024392E-006	0.0120354	8
	9	14	125953.1	4256.859	-587.3486	1	4297.188	-7.855898	4.099882E-007	0.0122977	7
	10	15	100078.1	4281.508	-522.5313	1	4313.276	-6.958181	7.624557E-008	0.0123967	7
	11	16	79453.13	4319.703	-474.628	1	4345.699	-6.270231	-7.478442E-008	0.0126454	7
	12	18	63140.62	4354.985	-440.4445	1	4377.201	-5.775013	5.719137E-008	0.0124542	7
	13	19	50203.12	4388.988	-416.6845	1	4408.723	-5.423328	-7.351236E-008	0.0126355	7
	14	21	39890.62	4421.739	-405.1771	1	4440.264	-5.235562	1.494189E-008	0.012465	7
	15	22	31640.63	4454.548	-405.6527	1	4472.98	-5.203279	-4.38693E-008	0.0126427	7
	16	23	25171.88	4487.507	-414.7443	1	4506.632	-5.280389	-5.079364E-008	0.012606	7
	17	25	20015.62	4497.95	-437.2475	1	4519.152	-5.552299	-3.766933E-009	0.0124807	7
	18	26	15890.62	4556.227	-464.5746	1	4579.851	-5.82203	1.006208E-007	0.0124515	7
	19	27	12609.37	4588.201	-508.5436	1	4616.298	-6.324692	4.587578E-008	0.0124835	7
	20	29	10078.13	4626.126	-567.6025	1	4660.817	-6.994944	-7.230597E-008	0.0127593	7
	21	30	8015.625	4674.508	-632.7973	1	4717.146	-7.709376	-6.436581E-008	0.012656	7
	22	31	6328.125	4704.396	-744.1422	1	4762.886	-8.988583	5.951199E-008	0.0124389	7
	23	33	5015.625	4748.605	-868.4639	1	4827.368	-10.36418	-3.517902E-008	0.012538	7
	24	34	3984.375	4807.235	-1021.188	1	4914.502	-11.99291	-7.473598E-008	0.0127613	7
	25	35	3170.956	4850.985	-1218.381	1	5001.651	-14.09887	9.688026E-009	0.0125107	7
	26	37	2527.573	4911.1	-1453.474	1	5121.668	-16.48648	1.586544E-008	0.0124583	7
	27	38	1976.103	4987.182	-1771.092	1	5292.33	-19.55141	-4.328795E-008	0.0126328	7
	28	39	1577.524	5113.741	-2142.887	1	5544.575	-22.73587	4.697434E-008	0.0124875	7
	29	41	1265.625	5163.364	-2560.07	1	5763.184	-26.37288	-5.193754E-008	0.0125978	7
	30	42	998.264	5279.297	-3131.991	1	6138.432	-30.67892	4.722438E-008	0.0124794	7
	31	43	796.875	5408.182	-3795.137	1	6606.928	-35.05888	1.535691E-008	0.012623	7
	32	45	627.7902	5577.652	-4668.019	1	7273.28	-39.92645	9.802113E-009	0.0125066	7
	33	46	505.5147	5760.633	-5639.127	1	8061.306	-44.38933	5.812494E-008	0.0124356	7
	34	48	397.9953	6002.599	-6953.021	1	9185.624	-49.19569	6.245661E-009	0.012545	7
	35	49	315.5048	6300.372	-8538.637	1	10611.46	-53.57764	1.318049E-009	0.0124799	6
	36	50	252.4038	6653.185	-10414.96	1	12358.65	-57.42914	6.310287E-010	0.0124794	6
	37	52	198.6229	7136.984	-12895.67	1	14738.89	-61.03808	1.150858E-009	0.0124819	6
	38	53	158.3615	7733.015	-15786.13	1	17578.43	-63.90155	1.407444E-009	0.0124878	6
	39	54	125.558	8521.857	-19422.34	1	21209.65	-66.30978	1.302882E-009	0.012477	6
	40	56	100.4464	9519.13	-23707.99	1	25547.66	-68.12377	-2.624794E-011	0.0124822	6
	41	57	79.00281	11001.9	-29247.03	1	31247.88	-69.38513	1.388272E-009	0.0124789	6
	42	58	63.3446	12534.04	-35267.16	1	37428.26	-70.43465	9.005054E-010	0.012478	6
	43	60	49.86702	15571.27	-43788.45	1	46474.64	-70.4245	7.888497E-010	0.012479	6
	44	61	39.72458	18646.92	-53145.16	1	56321.54	-70.66567	1.02013E-009	0.0124771	6
	45	63	31.6723	23194.71	-64050.69	1	68121.11	-70.09313	4.697814E-010	0.0124781	6
	46	64	24.93351	29103.99	-77786.39	1	83052.78	-69.48653	2.003007E-010	0.0124812	6
	47	65	19.86229	36498.7	-92859.96	1	99775.4	-68.54264	-8.163287E-011	0.0124769	6
	48	67	15.83615	45780.41	-109313.3	1	118512.7	-67.27607	-1.124453E-010	0.0124819	5
	49	68	12.40079	58419.57	-130101.1	1	142615.3	-65.81839	6.868933E-010	0.0124805	5
	50	69	9.93114	73183.91	-151849.8	1	168565.3	-64.2683	4.801368E-011	0.0124867	5
	51	71	7.944915	90047.62	-174228.8	1	196123	-62.66848	9.514484E-010	0.012483	5
	52	73	6.317385	109944.1	-201524.8	1	229564.7	-61.38483	-7.917177E-011	0.0124972	5
	53	75	5.008013	132766.9	-231394.9	1	266778.2	-60.15419	5.742916E-011	0.0124836	5
	54	77	3.945707	158566.1	-266601.1	1	310192.4	-59.25712	9.122368E-012	0.0124807	5
	55	80	3.158693	185565.8	-303664.5	1	355874.7	-58.57138	1.182715E-010	0.0125026	5
	56	83	2.504006	216792.2	-349193.7	1	411017.1	-58.16647	-5.237925E-010	0.0124749	5
	57	86	1.998082	251056.8	-399906.7	1	472180.9	-57.87988	-9.220097E-011	0.0124654	5
	58	89	1.584686	290554.5	-461336.8	1	545209.6	-57.79687	1.550933E-010	0.0125268	5
	59	93	1.266892	334881.8	-531409.6	1	628125.8	-57.78183	-1.828767E-010	0.0124709	5
	60	97	0.999041	389212	-616428.3	1	729019.7	-57.73174	1.478747E-010	0.0125239	5
