EXPLAIN
TAG	EISPOT
TITLE	LABEL	Potentiostatic EIS	Test &Identifier
DATE	LABEL	9/24/2019	Date
TIME	LABEL	9:27:54	Time
NOTES	NOTES	1	&Notes...
	
PSTAT	PSTAT	REF600-11020	Potentiostat
VDC	POTEN	0.00000E+000	T	DC &Voltage (V)
FREQINIT	QUANT	1.00000E+006	Initial Fre&q. (Hz)
FREQFINAL	QUANT	1.00000E+000	Final Fre&q. (Hz)
PTSPERDEC	QUANT	1.00000E+001	Points/&decade
VAC	QUANT	2.50000E+001	AC &Voltage (mV rms)
AREA	QUANT	1.00000E-002	&Area (cm^2)
CONDIT	TWOPARAM	T	5.00000E+000	0.00000E+000	Conditionin&g	Time(s)	E(V)
DELAY	TWOPARAM	T	5.00000E+000	0.00000E+000	Init. De&lay	Time(s)	Stab.(mV/s)
SPEED	SELECTOR	1	&Optimize for:
ZGUESS	QUANT	1.00000E+004	E&stimated Z (ohms)
OCVCURVE	TABLE	19
	Pt	T	Vf	Vm	Ach	Over
	#	s	V vs. Ref.	V	V	bits
	0	0.258333	-3.84712E-003	-3.84712E-003	5.69199E-004	...........
	1	0.516667	-3.86236E-003	-4.64509E-003	5.68132E-004	...........
	2	0.775	-3.95602E-003	-5.40405E-003	5.74366E-004	...........
	3	1.03333	-4.22078E-003	-6.11396E-003	5.70666E-004	...........
	4	1.29167	-4.69301E-003	-6.78264E-003	5.75066E-004	...........
	5	1.55	-5.31724E-003	-7.41740E-003	5.70032E-004	...........
	6	1.80833	-6.00341E-003	-8.02425E-003	5.73932E-004	...........
	7	2.06667	-6.68653E-003	-8.60382E-003	5.64999E-004	...........
	8	2.325	-7.33882E-003	-9.15995E-003	5.69966E-004	...........
	9	2.58333	-7.95588E-003	-9.69559E-003	5.74999E-004	...........
	10	2.84167	-8.54183E-003	-1.02074E-002	5.69732E-004	...........
	11	3.1	-9.10165E-003	-1.07094E-002	5.69299E-004	...........
	12	3.35833	-9.63894E-003	-1.11791E-002	5.67166E-004	...........
	13	3.61667	-1.01559E-002	-1.16462E-002	5.65366E-004	...........
	14	3.875	-1.06538E-002	-1.20956E-002	5.70166E-004	...........
	15	4.13333	-1.11344E-002	-1.25303E-002	5.69599E-004	...........
	16	4.39167	-1.15994E-002	-1.29493E-002	5.69666E-004	...........
	17	4.65	-1.20496E-002	-1.33553E-002	5.71466E-004	...........
	18	4.90833	-1.24853E-002	-1.37514E-002	5.74532E-004	...........
EOC	QUANT	-0.0124853	Open Circuit (V)
PSTATMODEL	IQUANT	4	Pstat Model
PSTATSECTION	LABEL	REF600-11020	Pstat Section
PSTATSERIALNO	LABEL	11020	Pstat Serial Number
CTRLMODE	IQUANT	1	Control Mode
IESTAB	IQUANT	0	I/E Stability
CASPEED	IQUANT	1	Control Amp Speed
CONVENTION	IQUANT	1	Current Convention
ICHRANGE	IQUANT	2	Ich Range
ICHRANGEMODE	TOGGLE	F	Ich Auto Range
ICHOFFSETENABLE	TOGGLE	T	Ich Offset Enable
ICHOFFSET	QUANT	0	Ich Offset (V)
ICHFILTER	IQUANT	3	Ich Filter
VCHRANGE	IQUANT	2	Vch Range
VCHRANGEMODE	TOGGLE	F	Vch Auto Range
VCHOFFSETENABLE	TOGGLE	T	Vch Offset Enable
VCHOFFSET	QUANT	0	Vch Offset (V)
VCHFILTER	IQUANT	3	Vch Filter
ACHRANGE	IQUANT	2	Ach Range
ACHOFFSETENABLE	TOGGLE	F	Ach Offset Enable
ACHOFFSET	QUANT	0	Ach Offset (V)
ACHFILTER	IQUANT	3	Ach Filter
IERANGELOWERLIMIT	IQUANT	1	I/E Range Lower Limit
IERANGEMODE	TOGGLE	F	I/E AutoRange
IERANGE	IQUANT	6	I/E Range
POSFEEDENABLE	TOGGLE	F	Positive Feedback IR Comp
POSFEEDRESISTANCE	QUANT	0	Positive Feedback Resistance (ohm)
ACHSELECT	IQUANT	0	Ach Select
CABLEID	IQUANT	14	Cable ID
DCCALDATE	LABEL	8/19/2019	DC Calibration Date
ACCALDATE	LABEL	8/19/2019	AC Calibration Date
THERMOSELECT	IQUANT	1	Thermo Select
FRAMEWORKVERSION	QUANT	6.33	Framework Version
INSTRUMENTVERSION	LABEL	3.50	Instrument Version
ZCURVE	TABLE
	Pt	Time	Freq	Zreal	Zimag	Zsig	Zmod	Zphz	Idc	Vdc	IERange
	#	s	Hz	ohm	ohm	V	ohm	°	A	V	#
	0	2	1000078	2149.338	-1798.203	1	2802.354	-39.9169	3.072998E-006	-0.0105457	8
	1	3	794390.6	2516.782	-1786.625	1	3086.457	-35.37036	5.461038E-007	-0.0111751	8
	2	5	630984.4	2868.557	-1724.594	1	3347.065	-31.01454	-3.827101E-006	-0.0099951	8
	3	6	501234.4	3201.791	-1606.897	1	3582.399	-26.6509	3.234722E-007	-0.0107494	8
	4	8	398109.4	3482.297	-1470.327	1	3779.981	-22.89088	1.130158E-006	-0.0113093	8
	5	9	316265.6	3696.703	-1281.63	1	3912.568	-19.1212	3.582509E-006	-0.0116058	8
	6	10	251203.1	3863.855	-1134.011	1	4026.83	-16.35655	-2.911761E-007	-0.010847	8
	7	12	199546.9	4000.398	-971.544	1	4116.684	-13.65068	1.037713E-006	-0.0113093	8
	8	13	158578.1	4096.279	-836.3242	1	4180.783	-11.5393	1.490298E-006	-0.0112577	8
	9	14	125953.1	4207.692	-696.0905	1	4264.882	-9.393525	-6.232239E-007	-0.0089358	7
	10	16	100078.1	4254.978	-601.4009	1	4297.269	-8.044927	-2.739669E-008	-0.0109794	7
	11	17	79453.13	4302.145	-539.8035	1	4335.878	-7.151705	3.897019E-008	-0.0111101	7
	12	18	63140.62	4342.989	-494.3267	1	4371.031	-6.493562	-4.148926E-008	-0.0108337	7
	13	20	50203.12	4379.252	-461.15	1	4403.465	-6.011285	-4.231438E-008	-0.0108361	7
	14	21	39890.62	4414.202	-443.8894	1	4436.465	-5.742323	-6.018087E-008	-0.0108861	7
	15	22	31640.63	4447.972	-437.5271	1	4469.438	-5.617857	-3.159884E-008	-0.0109749	7
	16	24	25171.88	4481.396	-443.6795	1	4503.305	-5.654129	-2.788898E-008	-0.0109821	7
	17	25	20015.62	4515.488	-462.1587	1	4539.077	-5.843855	-1.010998E-008	-0.0109508	7
	18	27	15890.62	4554.469	-493.072	1	4581.082	-6.178842	4.057975E-008	-0.0110318	7
	19	28	12609.37	4593.436	-536.7228	1	4624.687	-6.664539	-3.786691E-008	-0.0109349	7
	20	29	10078.13	4634.127	-593.2496	1	4671.946	-7.295185	-3.855603E-008	-0.0109026	7
	21	31	8015.625	4678.439	-664.181	1	4725.35	-8.08008	1.428396E-008	-0.011053	7
	22	32	6328.125	4727.349	-759.7344	1	4788.009	-9.129962	-5.814933E-008	-0.0108909	7
	23	33	5015.625	4780.578	-875.8613	1	4860.15	-10.38216	-3.148479E-008	-0.0109743	7
	24	35	3984.375	4838.197	-1018.922	1	4944.325	-11.89267	-3.78372E-008	-0.0109055	7
	25	36	3170.956	4900.088	-1196.067	1	5043.951	-13.71715	-3.829506E-008	-0.0109069	7
	26	37	2527.573	4970.722	-1408.759	1	5166.496	-15.82333	4.086729E-008	-0.0111189	7
	27	39	1976.103	5059.621	-1697.131	1	5336.667	-18.54282	-4.29754E-008	-0.0109552	7
	28	40	1577.524	5152.2	-2025.372	1	5536	-21.46019	7.019003E-008	-0.0111026	7
	29	41	1265.625	5264.631	-2402.196	1	5786.785	-24.52671	-6.190297E-008	-0.0108962	7
	30	43	998.264	5392.114	-2914.927	1	6129.576	-28.39524	7.14256E-008	-0.0111067	7
	31	44	796.875	5538.312	-3498.164	1	6550.576	-32.27774	-2.608981E-009	-0.0109551	7
	32	46	627.7902	5725.258	-4258.536	1	7135.384	-36.64244	-4.194698E-008	-0.0109568	7
	33	47	505.5147	5922.899	-5098.968	1	7815.383	-40.72485	2.037604E-009	-0.0108867	7
	34	48	397.9953	6178.363	-6226.949	1	8771.947	-45.2244	5.548872E-009	-0.010969	7
	35	50	315.5048	6469.968	-7577.696	1	9964.03	-49.50873	2.345825E-009	-0.0110266	6
	36	51	252.4038	6800.558	-9169.947	1	11416.46	-53.43887	1.041622E-009	-0.0110325	6
	37	52	198.6229	7226.574	-11278.32	1	13394.92	-57.35032	1.18641E-009	-0.0110252	6
	38	54	158.3615	7721.606	-13737.09	1	15758.52	-60.65969	9.145178E-010	-0.0110316	6
	39	55	125.558	8350.372	-16839.69	1	18796.38	-63.62437	1.631232E-009	-0.011032	6
	40	57	100.4464	9130.756	-20501.78	1	22443.12	-65.99352	7.390393E-010	-0.0110346	6
	41	58	79.00281	10109.1	-25341.85	1	27283.75	-68.25248	9.468151E-010	-0.0110261	6
	42	59	63.3446	11169.61	-30946.86	1	32900.89	-70.15404	1.525587E-009	-0.0110326	6
	43	61	49.86702	13202.62	-37732.61	1	39975.73	-70.7151	3.262902E-010	-0.011032	6
	44	62	39.72458	15421.46	-46261.83	1	48764.52	-71.5641	1.648336E-009	-0.0110297	6
	45	63	31.6723	18360.39	-56509.66	1	59417.55	-72.00065	2.170666E-009	-0.0110267	6
	46	65	24.93351	22386.71	-69114.32	1	72649.53	-72.05242	1.342166E-009	-0.011033	6
	47	66	19.86229	27437.58	-83626.48	1	88012.55	-71.8355	1.936163E-009	-0.011031	6
	48	68	15.83615	33181.32	-100940.6	1	106254.5	-71.80322	-3.538578E-010	-0.0110299	5
	49	69	12.40079	44422.95	-123084.5	1	130855.6	-70.15476	2.473548E-009	-0.0110298	5
	50	70	9.93114	54401.01	-146725.7	1	156486.1	-69.65689	1.199867E-009	-0.0110247	5
	51	72	7.944915	68261.97	-174851	1	187703.5	-68.67429	8.261944E-010	-0.0110256	5
	52	74	6.317385	86612.41	-206025	1	223490.5	-67.19823	1.054928E-009	-0.011041	5
	53	76	5.008013	109861.2	-242929.4	1	266616.2	-65.66585	6.788639E-010	-0.0110264	5
	54	78	3.945707	139338.8	-285447.5	1	317640.7	-63.98107	2.983606E-010	-0.0110333	5
	55	81	3.158693	172477.2	-329309.2	1	371743.1	-62.3565	7.746476E-010	-0.0110161	5
	56	84	2.504006	213595.2	-379680.5	1	435637.7	-60.63939	1.091771E-010	-0.0110219	5
	57	87	1.998082	259343.5	-431325.8	1	503290.2	-58.98275	4.167953E-010	-0.0110639	5
	58	90	1.584686	311704.5	-488582.2	1	579544.9	-57.46304	3.614122E-010	-0.0109946	5
	59	94	1.266892	368461.8	-551001	1	662847.1	-56.22882	3.297607E-010	-0.0110589	5
	60	98	0.999041	433792.4	-622473.6	1	758715.5	-55.12794	6.261248E-010	-0.0109857	5
