EXPLAIN
TAG	EISPOT
TITLE	LABEL	Potentiostatic IDE	Test &Identifier
DATE	LABEL	9/12/2019	Date
TIME	LABEL	9:35:29	Time
NOTES	NOTES	1	&Notes...
	
PSTAT	PSTAT	REF600-11020	Potentiostat
VDC	POTEN	0.00000E+000	T	DC &Voltage (V)
FREQINIT	QUANT	1.00000E+006	Initial Fre&q. (Hz)
FREQFINAL	QUANT	1.00000E+000	Final Fre&q. (Hz)
PTSPERDEC	QUANT	1.00000E+001	Points/&decade
VAC	QUANT	2.50000E+001	AC &Voltage (mV rms)
AREA	QUANT	1.00000E-002	&Area (cm^2)
CONDIT	TWOPARAM	T	5.00000E+000	0.00000E+000	Conditionin&g	Time(s)	E(V)
DELAY	TWOPARAM	T	5.00000E+000	0.00000E+000	Init. De&lay	Time(s)	Stab.(mV/s)
SPEED	SELECTOR	1	&Optimize for:
ZGUESS	QUANT	1.00000E+007	E&stimated Z (ohms)
OCVCURVE	TABLE	19
	Pt	T	Vf	Vm	Ach	Over
	#	s	V vs. Ref.	V	V	bits
	0	0.258333	7.16940E-003	7.16940E-003	5.59766E-004	...........
	1	0.516667	7.16872E-003	7.13389E-003	5.56633E-004	...........
	2	0.775	7.16481E-003	7.11326E-003	5.57066E-004	...........
	3	1.03333	7.15482E-003	7.10757E-003	5.55733E-004	...........
	4	1.29167	7.13990E-003	7.11073E-003	5.56333E-004	...........
	5	1.55	7.12543E-003	7.11795E-003	5.56799E-004	...........
	6	1.80833	7.11657E-003	7.13116E-003	5.58032E-004	...........
	7	2.06667	7.11530E-003	7.14611E-003	5.63666E-004	...........
	8	2.325	7.12082E-003	7.15796E-003	5.56333E-004	...........
	9	2.58333	7.13109E-003	7.17547E-003	5.59766E-004	...........
	10	2.84167	7.14416E-003	7.19478E-003	5.64532E-004	...........
	11	3.1	7.15909E-003	7.21451E-003	5.60699E-004	...........
	12	3.35833	7.17575E-003	7.23622E-003	5.61799E-004	...........
	13	3.61667	7.19396E-003	7.25046E-003	5.62399E-004	...........
	14	3.875	7.21299E-003	7.27101E-003	5.57499E-004	...........
	15	4.13333	7.23202E-003	7.29006E-003	5.59532E-004	...........
	16	4.39167	7.25079E-003	7.30788E-003	5.55899E-004	...........
	17	4.65	7.26944E-003	7.32593E-003	5.56599E-004	...........
	18	4.90833	7.28796E-003	7.34242E-003	5.58032E-004	...........
EOC	QUANT	0.007288	Open Circuit (V)
PSTATMODEL	IQUANT	4	Pstat Model
PSTATSECTION	LABEL	REF600-11020	Pstat Section
PSTATSERIALNO	LABEL	11020	Pstat Serial Number
CTRLMODE	IQUANT	1	Control Mode
IESTAB	IQUANT	0	I/E Stability
CASPEED	IQUANT	1	Control Amp Speed
CONVENTION	IQUANT	1	Current Convention
ICHRANGE	IQUANT	2	Ich Range
ICHRANGEMODE	TOGGLE	F	Ich Auto Range
ICHOFFSETENABLE	TOGGLE	T	Ich Offset Enable
ICHOFFSET	QUANT	0	Ich Offset (V)
ICHFILTER	IQUANT	3	Ich Filter
VCHRANGE	IQUANT	2	Vch Range
VCHRANGEMODE	TOGGLE	F	Vch Auto Range
VCHOFFSETENABLE	TOGGLE	T	Vch Offset Enable
VCHOFFSET	QUANT	0	Vch Offset (V)
VCHFILTER	IQUANT	3	Vch Filter
ACHRANGE	IQUANT	2	Ach Range
ACHOFFSETENABLE	TOGGLE	F	Ach Offset Enable
ACHOFFSET	QUANT	0	Ach Offset (V)
ACHFILTER	IQUANT	3	Ach Filter
IERANGELOWERLIMIT	IQUANT	1	I/E Range Lower Limit
IERANGEMODE	TOGGLE	F	I/E AutoRange
IERANGE	IQUANT	3	I/E Range
POSFEEDENABLE	TOGGLE	F	Positive Feedback IR Comp
POSFEEDRESISTANCE	QUANT	0	Positive Feedback Resistance (ohm)
ACHSELECT	IQUANT	0	Ach Select
CABLEID	IQUANT	14	Cable ID
DCCALDATE	LABEL	8/19/2019	DC Calibration Date
ACCALDATE	LABEL	8/19/2019	AC Calibration Date
THERMOSELECT	IQUANT	1	Thermo Select
FRAMEWORKVERSION	QUANT	6.33	Framework Version
INSTRUMENTVERSION	LABEL	3.50	Instrument Version
ZCURVE	TABLE
	Pt	Time	Freq	Zreal	Zimag	Zsig	Zmod	Zphz	Idc	Vdc	IERange
	#	s	Hz	ohm	ohm	V	ohm	°	A	V	#
	0	2	1000078	2540.055	-1582.204	1	2992.532	-31.91884	-4.979126E-007	0.0100045	8
	1	3	794390.6	2831.82	-1478.892	1	3194.734	-27.5754	-9.774736E-007	0.0095358	8
	2	4	630984.4	3076.777	-1345.144	1	3357.971	-23.61459	-8.433708E-007	0.009453	8
	3	6	501234.4	3295.468	-1180.709	1	3500.597	-19.71172	6.064325E-006	0.0079464	8
	4	7	398109.4	3425.103	-1017.257	1	3572.974	-16.54144	-4.306565E-006	0.0097455	8
	5	9	316265.6	3571.344	-902.3866	1	3683.585	-14.18036	-1.608714E-006	0.0092586	8
	6	10	251203.1	3647.928	-774.0383	1	3729.144	-11.97967	-3.540129E-006	0.0096798	8
	7	11	199546.9	3714.343	-676.2962	1	3775.41	-10.3192	1.702939E-006	0.0084908	8
	8	13	158578.1	3772.251	-586.6724	1	3817.599	-8.840003	2.034014E-006	0.0084935	8
	9	14	125953.1	3852.37	-488.383	1	3883.204	-7.225111	-3.651402E-007	0.0097037	7
	10	15	100078.1	3879.259	-450.9355	1	3905.38	-6.630459	-2.231788E-008	0.0090289	7
	11	17	79453.13	3915.027	-434.9613	1	3939.115	-6.33959	-2.791775E-009	0.008816	7
	12	18	63140.62	3950.928	-429.0592	1	3974.157	-6.197865	-4.376615E-008	0.0090148	7
	13	19	50203.12	3987.693	-433.8777	1	4011.227	-6.209595	1.380852E-007	0.0086704	7
	14	21	39890.62	4027.677	-447.8646	1	4052.501	-6.345038	-1.284627E-008	0.0089235	7
	15	22	31640.63	4070.732	-473.154	1	4098.138	-6.629919	4.704313E-008	0.0087205	7
	16	23	25171.88	4117.22	-507.6265	1	4148.396	-7.028725	8.119465E-008	0.0087247	7
	17	25	20015.62	4168.839	-551.3115	1	4205.136	-7.533412	-4.164083E-008	0.0090064	7
	18	26	15890.62	4225.349	-604.5169	1	4268.374	-8.142004	-8.833254E-009	0.0089057	7
	19	27	12609.37	4286.185	-671.2895	1	4338.434	-8.901185	8.194162E-008	0.0087263	7
	20	29	10078.13	4350.295	-746.4612	1	4413.873	-9.73649	-4.339736E-008	0.0088984	7
	21	30	8015.625	4422.066	-838.6078	1	4500.881	-10.73815	2.10005E-008	0.0087767	7
	22	31	6328.125	4502.036	-952.534	1	4601.7	-11.94637	1.396526E-007	0.0086591	7
	23	33	5015.625	4587.116	-1086.656	1	4714.07	-13.3273	2.221789E-008	0.0087718	7
	24	34	3984.375	4678.631	-1248.178	1	4842.266	-14.93763	-9.014531E-009	0.0088933	7
	25	35	3170.956	4775.967	-1439.652	1	4988.232	-16.77474	7.961162E-008	0.0088459	7
	26	37	2527.573	4881.135	-1671.183	1	5159.296	-18.89997	-7.892076E-011	0.0088053	7
	27	38	1976.103	5005.72	-1977.045	1	5382.001	-21.55189	-4.356768E-008	0.008992	7
	28	39	1577.524	5130.312	-2321.14	1	5630.967	-24.34373	-5.415036E-008	0.0089669	7
	29	41	1265.625	5263.403	-2719.015	1	5924.226	-27.32037	-1.60259E-009	0.0088013	7
	30	42	998.264	5433.785	-3262.175	1	6337.808	-30.97852	9.070516E-008	0.0086852	7
	31	43	796.875	5608.412	-3891	1	6825.992	-34.75211	-8.751234E-009	0.0088908	7
	32	45	627.7902	5825.935	-4696.532	1	7483.244	-38.87375	4.807191E-008	0.0087083	7
	33	46	505.5147	6047.239	-5605.296	1	8245.511	-42.828	4.720328E-008	0.0087061	7
	34	47	397.9953	6335.175	-6819.689	1	9308.201	-47.10934	6.1078E-009	0.0088719	7
	35	49	315.5048	6668.155	-8281.835	1	10632.64	-51.16057	1.301485E-009	0.0088052	6
	36	50	252.4038	7048.733	-10002.53	1	12236.64	-54.82785	3.552128E-010	0.0088044	6
	37	51	198.6229	7543.086	-12274.66	1	14407.13	-58.42823	1.163952E-009	0.0088081	6
	38	53	158.3615	8107.446	-14908.8	1	16970.65	-61.46253	5.477461E-010	0.0088041	6
	39	54	125.558	8821.519	-18216.87	1	20240.39	-64.16142	9.481473E-010	0.0088023	6
	40	55	100.4464	9682.92	-22088.29	1	24117.45	-66.32863	4.988143E-011	0.0088119	6
	41	57	79.00281	10835.61	-27202.97	1	29281.6	-68.28139	1.5758E-009	0.0088036	6
	42	58	63.3446	11751.98	-33008.77	1	35038.38	-70.40294	1.176477E-009	0.0088011	6
	43	59	49.86702	13972.28	-40418.86	1	42765.74	-70.93039	1.389706E-009	0.0088072	6
	44	61	39.72458	15902.06	-49550.56	1	52039.73	-72.20721	8.929656E-010	0.008813	6
	45	62	31.6723	18661.36	-60220.36	1	63045.52	-72.7826	6.568587E-010	0.0088078	6
	46	64	24.93351	22310.59	-74228.69	1	77509.1	-73.27103	1.005405E-009	0.0088098	6
	47	65	19.86229	26827.86	-90179.02	1	94085.02	-73.4325	1.218533E-009	0.0088135	6
	48	66	15.83615	33615.14	-109508.6	1	114551.8	-72.93543	1.970836E-009	0.0088133	5
	49	67	12.40079	41360.61	-134178	1	140408.1	-72.86799	-1.869698E-010	0.0088189	5
	50	69	9.93114	51966.32	-162174.6	1	170297.1	-72.23275	7.414631E-010	0.0088102	5
	51	70	7.944915	64628.73	-194599	1	205050.3	-71.62804	1.144269E-010	0.0088129	5
	52	72	6.317385	82223.14	-233431.1	1	247488.9	-70.59584	8.923878E-011	0.008813	5
	53	74	5.008013	105313.3	-279536.7	1	298716.7	-69.35648	3.11417E-010	0.0088115	5
	54	77	3.945707	135563.5	-334204	1	360651.9	-67.92099	3.196E-010	0.0088078	5
	55	79	3.158693	170600	-391972.8	1	427489.3	-66.47967	3.787999E-010	0.0088283	5
	56	83	2.504006	216421.5	-460903.1	1	509185.5	-64.84715	-4.318066E-011	0.0088069	5
	57	85	1.998082	270544.2	-534368.5	1	598952.3	-63.14747	6.051434E-011	0.0087724	5
	58	88	1.584686	336975.4	-615608.4	1	701802.1	-61.30432	7.048364E-011	0.0088279	5
	59	92	1.266892	413566.6	-703193.8	1	815793.4	-59.53911	8.278391E-011	0.0087731	5
	60	96	0.999041	512977.1	-800040.4	1	950374	-57.33245	9.002969E-011	0.0088542	5
