EXPLAIN
TAG	EISPOT
TITLE	LABEL	Potentiostatic EIS	Test &Identifier
DATE	LABEL	11/15/2019	Date
TIME	LABEL	10:26:09	Time
NOTES	NOTES	4	&Notes...
	
	
	
	
PSTAT	PSTAT	REF600-11020	Potentiostat
VDC	POTEN	0.00000E+000	T	DC &Voltage (V)
FREQINIT	QUANT	1.00000E+006	Initial Fre&q. (Hz)
FREQFINAL	QUANT	1.00000E+000	Final Fre&q. (Hz)
PTSPERDEC	QUANT	1.00000E+001	Points/&decade
VAC	QUANT	2.50000E+001	AC &Voltage (mV rms)
AREA	QUANT	1.00000E-002	&Area (cm^2)
CONDIT	TWOPARAM	T	5.00000E+000	0.00000E+000	Conditionin&g	Time(s)	E(V)
DELAY	TWOPARAM	T	5.00000E+000	0.00000E+000	Init. De&lay	Time(s)	Stab.(mV/s)
SPEED	SELECTOR	0	&Optimize for:
ZGUESS	QUANT	1.00000E+005	E&stimated Z (ohms)
OCVCURVE	TABLE	19
	Pt	T	Vf	Vm	Ach	Over
	#	s	V vs. Ref.	V	V	bits
	0	0.258333	3.78064E-003	3.78064E-003	5.79099E-004	...........
	1	0.516667	3.77885E-003	3.68691E-003	5.74565E-004	...........
	2	0.775	3.76813E-003	3.61250E-003	5.82132E-004	...........
	3	1.03333	3.73856E-003	3.53276E-003	5.84399E-004	...........
	4	1.29167	3.68715E-003	3.47753E-003	5.79232E-004	...........
	5	1.55	3.62176E-003	3.44093E-003	5.82765E-004	...........
	6	1.80833	3.55506E-003	3.40546E-003	5.85232E-004	...........
	7	2.06667	3.49668E-003	3.38185E-003	5.83832E-004	...........
	8	2.325	3.45005E-003	3.36022E-003	5.78099E-004	...........
	9	2.58333	3.41403E-003	3.33879E-003	5.87399E-004	...........
	10	2.84167	3.38563E-003	3.31654E-003	5.83299E-004	...........
	11	3.1	3.36175E-003	3.29962E-003	5.86099E-004	...........
	12	3.35833	3.34031E-003	3.28657E-003	5.74832E-004	...........
	13	3.61667	3.32091E-003	3.27801E-003	5.77732E-004	...........
	14	3.875	3.30414E-003	3.26955E-003	5.77499E-004	...........
	15	4.13333	3.29050E-003	3.26411E-003	5.73232E-004	...........
	16	4.39167	3.27988E-003	3.26197E-003	5.78999E-004	...........
	17	4.65	3.27189E-003	3.25624E-003	5.77066E-004	...........
	18	4.90833	3.26596E-003	3.25516E-003	5.71266E-004	...........
EOC	QUANT	0.003266	Open Circuit (V)
PSTATMODEL	IQUANT	4	Pstat Model
PSTATSECTION	LABEL	REF600-11020	Pstat Section
PSTATSERIALNO	LABEL	11020	Pstat Serial Number
CTRLMODE	IQUANT	1	Control Mode
IESTAB	IQUANT	0	I/E Stability
CASPEED	IQUANT	1	Control Amp Speed
CONVENTION	IQUANT	1	Current Convention
ICHRANGE	IQUANT	2	Ich Range
ICHRANGEMODE	TOGGLE	F	Ich Auto Range
ICHOFFSETENABLE	TOGGLE	T	Ich Offset Enable
ICHOFFSET	QUANT	0	Ich Offset (V)
ICHFILTER	IQUANT	3	Ich Filter
VCHRANGE	IQUANT	2	Vch Range
VCHRANGEMODE	TOGGLE	F	Vch Auto Range
VCHOFFSETENABLE	TOGGLE	T	Vch Offset Enable
VCHOFFSET	QUANT	0	Vch Offset (V)
VCHFILTER	IQUANT	3	Vch Filter
ACHRANGE	IQUANT	2	Ach Range
ACHOFFSETENABLE	TOGGLE	F	Ach Offset Enable
ACHOFFSET	QUANT	0	Ach Offset (V)
ACHFILTER	IQUANT	3	Ach Filter
IERANGELOWERLIMIT	IQUANT	1	I/E Range Lower Limit
IERANGEMODE	TOGGLE	F	I/E AutoRange
IERANGE	IQUANT	4	I/E Range
POSFEEDENABLE	TOGGLE	F	Positive Feedback IR Comp
POSFEEDRESISTANCE	QUANT	0	Positive Feedback Resistance (ohm)
ACHSELECT	IQUANT	0	Ach Select
CABLEID	IQUANT	14	Cable ID
DCCALDATE	LABEL	8/19/2019	DC Calibration Date
ACCALDATE	LABEL	8/19/2019	AC Calibration Date
THERMOSELECT	IQUANT	1	Thermo Select
FRAMEWORKVERSION	QUANT	6.33	Framework Version
INSTRUMENTVERSION	LABEL	3.50	Instrument Version
ZCURVE	TABLE
	Pt	Time	Freq	Zreal	Zimag	Zsig	Zmod	Zphz	Idc	Vdc	IERange
	#	s	Hz	ohm	ohm	V	ohm	°	A	V	#
	0	1	1000078	1925.858	-983.91	1	2162.639	-27.06224	-4.063841E-006	0.0051632	8
	1	2	794390.6	2093.012	-929.0014	1	2289.922	-23.93446	-6.264939E-007	0.004882	8
	2	2	630984.4	2243.215	-873.5346	1	2407.297	-21.27653	-7.326057E-006	0.0061206	8
	3	2	501234.4	2380.248	-808.1161	1	2513.689	-18.75282	-3.896871E-006	0.0052918	8
	4	3	398109.4	2502.036	-743.2626	1	2610.1	-16.54474	2.656109E-006	0.0043529	8
	5	3	316265.6	2605.931	-674.1763	1	2691.726	-14.50488	-3.105933E-006	0.0054218	8
	6	3	251203.1	2695.546	-607.8333	1	2763.229	-12.7074	-7.818948E-007	0.005284	8
	7	4	199546.9	2776.588	-542.9927	1	2829.184	-11.06518	6.95751E-007	0.0052298	8
	8	4	158578.1	2831.523	-471.2268	1	2870.466	-9.448666	2.191331E-006	0.0043399	8
	9	4	125953.1	2903.385	-397.7491	1	2930.503	-7.800675	-1.449722E-006	0.008587	7
	10	4	100078.1	2943.366	-352.9016	1	2964.447	-6.836972	7.922243E-007	0.0045799	7
	11	5	79453.13	2975.111	-322.2217	1	2992.509	-6.18137	-6.94061E-007	0.0046553	7
	12	5	63140.62	3005.054	-301.2727	1	3020.119	-5.725077	-1.164663E-006	0.005841	7
	13	5	50203.12	3035.527	-288.3469	1	3049.192	-5.426284	9.630523E-007	0.0041067	7
	14	6	39890.62	3059.136	-277.2702	1	3071.676	-5.178953	1.019162E-007	0.0035085	7
	15	6	31640.63	3085.415	-275.091	1	3097.654	-5.094934	5.913392E-007	0.0049632	7
	16	6	25171.88	3104.862	-276.8914	1	3117.184	-5.096152	-1.176524E-006	0.0061966	7
	17	7	20015.62	3132.456	-288.6271	1	3145.725	-5.264416	9.21692E-007	0.0031972	7
	18	7	15890.62	3157.513	-306.471	1	3172.351	-5.543815	1.045859E-006	0.003708	7
	19	7	12609.37	3178.16	-332.4102	1	3195.497	-5.970972	1.021194E-007	0.0035055	7
	20	8	10078.13	3203.543	-365.2727	1	3224.301	-6.504856	-8.514825E-007	0.006389	7
	21	8	8015.625	3229.358	-410.6795	1	3255.366	-7.247438	-1.045948E-006	0.0063305	7
	22	8	6328.125	3261.819	-469.9492	1	3295.499	-8.198519	7.60346E-008	0.0056877	7
	23	9	5015.625	3295.194	-542.9908	1	3339.632	-9.357263	1.044367E-006	0.003696	7
	24	9	3984.375	3328.512	-633.6015	1	3388.28	-10.77764	7.93598E-007	0.004561	7
	25	9	3170.956	3362	-742.3445	1	3442.982	-12.45137	-1.176596E-006	0.0061864	7
	26	10	2527.573	3407.206	-879.507	1	3518.889	-14.47389	1.026492E-006	0.0033954	7
	27	10	1976.103	3456.975	-1062.007	1	3616.426	-17.07732	7.299862E-007	0.0031103	7
	28	10	1577.524	3505.946	-1268.117	1	3728.24	-19.88529	4.515154E-007	0.0032157	7
	29	11	1265.625	3565.828	-1518.258	1	3875.595	-23.06333	4.523483E-007	0.0032152	7
	30	11	998.264	3636.236	-1844.929	1	4077.496	-26.90202	-1.000924E-006	0.0052838	7
	31	11	796.875	3719.329	-2234.851	1	4339.12	-31.0006	-2.694406E-007	0.006056	7
	32	11	627.7902	3825.876	-2737.616	1	4704.452	-35.58572	-1.043895E-006	0.0063248	7
	33	12	505.5147	3945.528	-3304.151	1	5146.32	-39.94422	-6.972974E-007	0.0046324	7
	34	12	397.9953	4108.017	-4074.801	1	5786.174	-44.76742	2.84359E-009	0.0048027	7
	35	12	315.5048	4309.307	-4992.851	1	6595.354	-49.20267	9.853691E-010	0.0048033	7
	36	13	252.4038	4554.389	-6070.085	1	7588.702	-53.11908	-7.778794E-011	0.0048027	7
	37	13	198.6229	4897.065	-7487.838	1	8947.009	-56.81521	3.789523E-009	0.0048014	7
	38	13	158.3615	5321.551	-9121.776	1	10560.57	-59.74115	2.090241E-010	0.0047442	6
	39	14	125.558	5887.402	-11152.98	1	12611.52	-62.17146	2.683588E-010	0.0047429	6
	40	14	100.4464	6601.242	-13500.87	1	15028.3	-63.94371	-5.238192E-010	0.0047345	6
	41	14	79.00281	7621.957	-16547.58	1	18218.58	-65.26881	2.910394E-010	0.0047463	6
	42	15	63.3446	8702.149	-20004.71	1	21815.49	-66.49072	3.382779E-010	0.0047432	6
	43	15	49.86702	10434.88	-24286.14	1	26432.99	-66.74855	7.318192E-010	0.0047317	6
	44	16	39.72458	12639.13	-29071.9	1	31700.52	-66.50282	8.088598E-012	0.004734	6
	45	16	31.6723	15346	-34600.71	1	37851.14	-66.08191	-5.223119E-010	0.004745	6
	46	16	24.93351	18889.88	-41432.45	1	45535.43	-65.49081	1.716634E-010	0.0047422	6
	47	16	19.86229	23137.16	-48898.93	1	54096.53	-64.67822	-1.372754E-009	0.0047345	6
	48	17	15.83615	28738.14	-56822.34	1	63676.2	-63.1718	4.176392E-009	0.0047319	6
	49	17	12.40079	35225.12	-67133.93	1	75814.07	-62.31404	3.69183E-009	0.0047309	6
	50	17	9.93114	42284.02	-77568.77	1	88345.07	-61.40446	1.497804E-009	0.004741	6
	51	18	7.944915	50504.34	-89134.26	1	102448.1	-60.46368	9.281499E-010	0.0047366	5
	52	18	6.317385	60129.96	-102339.4	1	118697	-59.56346	5.796179E-010	0.0047289	5
	53	19	5.008013	71114.84	-117487.9	1	137334.4	-58.81369	5.166739E-010	0.0047427	5
	54	20	3.945707	83451.45	-135067	1	158767.9	-58.29007	-2.135514E-010	0.0047347	5
	55	21	3.158693	96058.8	-153893.2	1	181412.2	-58.02795	1.33417E-010	0.0047309	5
	56	23	2.504006	109784	-177099.7	1	208367.1	-58.20524	2.566081E-010	0.0047291	5
	57	24	1.998082	123936.2	-203480	1	238252.6	-58.65512	-1.534374E-010	0.0046938	5
	58	26	1.584686	139081.4	-237338.6	1	275087.7	-59.62952	-1.237613E-010	0.0046873	5
	59	28	1.266892	154757.4	-276402.9	1	316778.2	-60.75562	5.374066E-012	0.0047205	5
	60	30	0.999041	174192.1	-327468.3	1	370915.5	-61.98989	2.627214E-011	0.0047464	5
