EXPLAIN
TAG	EISPOT
TITLE	LABEL	Potentiostatic EIS	Test &Identifier
DATE	LABEL	11/13/2019	Date
TIME	LABEL	8:10:07	Time
NOTES	NOTES	4	&Notes...
	
	
	
	
PSTAT	PSTAT	REF600-11020	Potentiostat
VDC	POTEN	0.00000E+000	T	DC &Voltage (V)
FREQINIT	QUANT	1.00000E+006	Initial Fre&q. (Hz)
FREQFINAL	QUANT	1.00000E+000	Final Fre&q. (Hz)
PTSPERDEC	QUANT	1.00000E+001	Points/&decade
VAC	QUANT	2.50000E+001	AC &Voltage (mV rms)
AREA	QUANT	1.00000E-002	&Area (cm^2)
CONDIT	TWOPARAM	T	5.00000E+000	0.00000E+000	Conditionin&g	Time(s)	E(V)
DELAY	TWOPARAM	T	5.00000E+000	0.00000E+000	Init. De&lay	Time(s)	Stab.(mV/s)
SPEED	SELECTOR	0	&Optimize for:
ZGUESS	QUANT	1.00000E+005	E&stimated Z (ohms)
OCVCURVE	TABLE	19
	Pt	T	Vf	Vm	Ach	Over
	#	s	V vs. Ref.	V	V	bits
	0	0.258333	-8.71073E-003	-8.71073E-003	5.67732E-004	...........
	1	0.516667	-8.70948E-003	-8.64548E-003	5.60799E-004	...........
	2	0.775	-8.71324E-003	-9.18073E-003	5.67499E-004	...........
	3	1.03333	-8.75031E-003	-9.09491E-003	5.71866E-004	...........
	4	1.29167	-8.84885E-003	-9.47120E-003	5.64066E-004	...........
	5	1.55	-8.99989E-003	-9.39256E-003	5.71266E-004	...........
	6	1.80833	-9.17199E-003	-9.86869E-003	5.74032E-004	...........
	7	2.06667	-9.34868E-003	-9.81749E-003	5.70999E-004	...........
	8	2.325	-9.52596E-003	-9.95239E-003	5.72866E-004	...........
	9	2.58333	-9.68884E-003	-9.97426E-003	5.75632E-004	...........
	10	2.84167	-9.82052E-003	-1.01540E-002	5.68632E-004	...........
	11	3.1	-9.92499E-003	-1.01940E-002	5.73232E-004	...........
	12	3.35833	-1.00206E-002	-1.04131E-002	5.66966E-004	...........
	13	3.61667	-1.01189E-002	-1.02705E-002	5.66099E-004	...........
	14	3.875	-1.02170E-002	-1.06412E-002	5.67766E-004	...........
	15	4.13333	-1.03103E-002	-1.04508E-002	5.71466E-004	...........
	16	4.39167	-1.04003E-002	-1.07837E-002	5.72399E-004	...........
	17	4.65	-1.04855E-002	-1.04873E-002	5.68599E-004	...........
	18	4.90833	-1.05603E-002	-1.09915E-002	5.66732E-004	...........
EOC	QUANT	-0.0105603	Open Circuit (V)
PSTATMODEL	IQUANT	4	Pstat Model
PSTATSECTION	LABEL	REF600-11020	Pstat Section
PSTATSERIALNO	LABEL	11020	Pstat Serial Number
CTRLMODE	IQUANT	1	Control Mode
IESTAB	IQUANT	0	I/E Stability
CASPEED	IQUANT	1	Control Amp Speed
CONVENTION	IQUANT	1	Current Convention
ICHRANGE	IQUANT	2	Ich Range
ICHRANGEMODE	TOGGLE	F	Ich Auto Range
ICHOFFSETENABLE	TOGGLE	T	Ich Offset Enable
ICHOFFSET	QUANT	0	Ich Offset (V)
ICHFILTER	IQUANT	3	Ich Filter
VCHRANGE	IQUANT	2	Vch Range
VCHRANGEMODE	TOGGLE	F	Vch Auto Range
VCHOFFSETENABLE	TOGGLE	T	Vch Offset Enable
VCHOFFSET	QUANT	0	Vch Offset (V)
VCHFILTER	IQUANT	3	Vch Filter
ACHRANGE	IQUANT	2	Ach Range
ACHOFFSETENABLE	TOGGLE	F	Ach Offset Enable
ACHOFFSET	QUANT	0	Ach Offset (V)
ACHFILTER	IQUANT	3	Ach Filter
IERANGELOWERLIMIT	IQUANT	1	I/E Range Lower Limit
IERANGEMODE	TOGGLE	F	I/E AutoRange
IERANGE	IQUANT	5	I/E Range
POSFEEDENABLE	TOGGLE	F	Positive Feedback IR Comp
POSFEEDRESISTANCE	QUANT	0	Positive Feedback Resistance (ohm)
ACHSELECT	IQUANT	0	Ach Select
CABLEID	IQUANT	14	Cable ID
DCCALDATE	LABEL	8/19/2019	DC Calibration Date
ACCALDATE	LABEL	8/19/2019	AC Calibration Date
THERMOSELECT	IQUANT	1	Thermo Select
FRAMEWORKVERSION	QUANT	6.33	Framework Version
INSTRUMENTVERSION	LABEL	3.50	Instrument Version
ZCURVE	TABLE
	Pt	Time	Freq	Zreal	Zimag	Zsig	Zmod	Zphz	Idc	Vdc	IERange
	#	s	Hz	ohm	ohm	V	ohm	°	A	V	#
	0	2	1000078	916.8387	-8359.798	1	8409.924	-83.74125	-3.479602E-008	-0.0087893	8
	1	2	794390.6	1107.75	-10314.71	1	10374.02	-83.87021	-1.049181E-006	-0.0081063	8
	2	3	630984.4	1302.088	-12962.55	1	13027.78	-84.26388	1.106517E-007	-0.0090936	8
	3	3	501234.4	1598.103	-16109.02	1	16188.09	-84.33448	-5.056071E-007	-0.0084013	8
	4	3	398109.4	2177.939	-20313.53	1	20429.95	-83.88034	1.688258E-006	-0.0086221	8
	5	4	316265.6	2905.525	-24842.6	1	25011.93	-83.32914	-2.053547E-006	-0.0090561	8
	6	5	251203.1	3751.148	-30717.46	1	30945.65	-83.03764	-7.141078E-007	-0.0092362	8
	7	6	199546.9	5720.457	-38957.15	1	39374.9	-81.6464	-4.643882E-007	-0.0092345	8
	8	6	158578.1	5950.656	-44811.39	1	45204.77	-82.43575	-1.155574E-006	-0.0086194	8
	9	7	125953.1	10987.18	-56975.49	1	58025.21	-79.08504	-1.069665E-006	-0.0049816	7
	10	7	100078.1	12299.26	-71853.3	1	72898.35	-80.28671	7.036948E-007	-0.0110913	7
	11	8	79453.13	16402.03	-87450.16	1	88975.03	-79.37711	1.299179E-006	-0.0102	7
	12	8	63140.62	21298.84	-107657.8	1	109744.4	-78.8092	-1.137635E-006	-0.0070414	7
	13	9	50203.12	27238.36	-130252.2	1	133069.7	-78.18851	1.158357E-006	-0.0096679	7
	14	9	39890.62	34581	-159208.3	1	162920.6	-77.74536	-1.442012E-006	-0.0074449	7
	15	9	31640.63	42169.89	-190863	1	195466.1	-77.54105	-1.135423E-006	-0.0070524	7
	16	10	25171.88	50358.86	-231326.2	1	236744.2	-77.71854	3.205009E-007	-0.0081735	7
	17	10	20015.62	58811.79	-295280	1	301079.9	-78.73564	9.091448E-007	-0.009072	7
	18	11	15890.62	63692.35	-345149.2	1	350976.7	-79.5445	9.1239E-007	-0.0090735	7
	19	11	12609.37	86791.27	-420908.1	1	429763.1	-78.3489	1.570627E-007	-0.0084816	6
	20	12	10078.13	101693.9	-516862.8	1	526772	-78.8691	7.664582E-008	-0.0072108	6
	21	12	8015.625	181528.7	-621137.3	1	647119.9	-73.70889	2.209372E-007	-0.0097948	6
	22	12	6328.125	156927.2	-797434.2	1	812728.4	-78.86702	-2.138766E-007	-0.008751	6
	23	13	5015.625	189260.3	-974064	1	992280	-79.00445	7.702037E-008	-0.0072118	6
	24	13	3984.375	252076	-1163478	1	1190471	-77.77539	-2.135981E-007	-0.0087559	6
	25	14	3170.956	294451.6	-1445142	1	1474835	-78.48347	2.678381E-007	-0.0125695	6
	26	14	2527.573	413972.4	-1769473	1	1817253	-76.83234	7.666416E-008	-0.0072129	6
	27	14	1976.103	289923.9	-2444020	1	2461157	-83.23486	1.575939E-007	-0.008483	6
	28	15	1577.524	1533567	-2782389	1	3177029	-61.13781	-2.597965E-007	-0.004515	6
	29	15	1265.625	942726.1	-3309994	1	3441626	-74.10241	-5.244594E-009	-0.0055803	5
	30	16	998.264	1331887	-3977224	1	4194310	-71.4854	2.768767E-008	-0.0123269	5
	31	16	796.875	1834222	-4838049	1	5174079	-69.23707	2.159915E-008	-0.0132689	5
	32	17	627.7902	2302537	-5577505	1	6034090	-67.56791	1.242408E-008	-0.0078749	5
	33	17	505.5147	2944426	-6649505	1	7272246	-66.11606	1.571612E-008	-0.01319	5
	34	18	397.9953	4043004	-7272896	1	8321112	-60.93031	3.018766E-010	-0.0090389	5
	35	18	315.5048	4927324	-9045866	1	1.030079E+007	-61.42267	-3.434494E-010	-0.0090507	5
	36	18	252.4038	6456045	-9263841	1	1.129156E+007	-55.12705	3.644271E-010	-0.009057	5
	37	19	198.6229	8339734	-1.039319E+007	1	1.332552E+007	-51.25565	-2.415581E-011	-0.0090575	5
	38	19	158.3615	1.23272E+007	-1.154893E+007	1	1.689194E+007	-43.13305	3.818373E-010	-0.009043	5
	39	20	125.558	1.192705E+007	-1.36308E+007	1	1.811224E+007	-48.81384	-1.053677E-010	-0.0090529	4
	40	20	100.4464	3.389978E+007	-2.59206E+007	1	4.267403E+007	-37.40241	-4.626113E-010	-0.0090412	4
	41	21	79.00281	1.138417E+007	-2149602	1	1.158534E+007	-10.6929	2.434738E-010	-0.0090474	4
	42	21	63.3446	3252481	-4789760	1	5789683	-55.82158	-1.799799E-010	-0.0090525	4
	43	22	49.86702	2.256938E+007	-3.32156E+007	1	4.015785E+007	-55.80462	-7.568102E-011	-0.0090667	4
	44	22	39.72458	1.872912E+007	-9364003	1	2.093954E+007	-26.56369	1.253346E-010	-0.0090634	4
	45	23	31.6723	580888.8	-3.95807E+007	1	3.958496E+007	-89.15919	-3.536607E-010	-0.0090567	4
	46	23	24.93351	2.491573E+007	-9.822335E+006	1	2.678194E+007	-21.51546	-1.347354E-011	-0.0090674	4
	47	24	19.86229	3.085536E+007	-1.735154E+007	1	3.539956E+007	-29.35126	-4.094342E-011	-0.0090586	4
	48	24	15.83615	3.862922E+007	-4.77524E+007	1	6.142074E+007	-51.02893	-1.451271E-010	-0.0090542	4
	49	25	12.40079	-3.189402E+007	-4.783968E+007	1	5.749663E+007	-123.6908	7.284433E-010	-0.0090492	5
	50	26	9.93114	2.753744E+007	-605127.3	1	2.754408E+007	-1.258856	1.63461E-010	-0.0090675	4
	51	26	7.944915	2.495765E+007	-8477666	1	2.635821E+007	-18.7617	-3.668067E-011	-0.0090555	4
	52	27	6.317385	3.469424E+007	-5747750	1	3.516712E+007	-9.406681	2.013115E-010	-0.0090438	4
	53	28	5.008013	3.585012E+007	-6186351	1	3.637997E+007	-9.79063	1.085172E-010	-0.0090553	4
	54	30	3.945707	3.616472E+007	-4421384	1	3.643398E+007	-6.970211	8.486502E-011	-0.0090662	4
	55	31	3.158693	3.405738E+007	-6416059	1	3.465647E+007	-10.66889	-1.86458E-010	-0.0090688	4
	56	34	2.504006	6.094605E+007	-8062513	1	6.147703E+007	-7.535864	4.885036E-011	-0.0090797	3
	57	36	1.998082	6.998244E+007	-7733411	1	7.040843E+007	-6.305886	-2.453769E-011	-0.0090554	3
	58	39	1.584686	7.656557E+007	-8801888	1	7.706983E+007	-6.557868	5.525007E-011	-0.0091248	3
	59	43	1.266892	7.757653E+007	-8531389	1	7.804423E+007	-6.275818	5.404016E-011	-0.0091044	3
	60	45	0.999041	7.887434E+007	-8633807	1	7.934548E+007	-6.246886	5.444074E-011	-0.0090728	3
