EXPLAIN
TAG	EISPOT
TITLE	LABEL	Potentiostatic EIS	Test &Identifier
DATE	LABEL	11/12/2019	Date
TIME	LABEL	23:23:01	Time
NOTES	NOTES	3	&Notes...
	
	
	
PSTAT	PSTAT	REF600-11020	Potentiostat
VDC	POTEN	0.00000E+000	T	DC &Voltage (V)
FREQINIT	QUANT	1.00000E+006	Initial Fre&q. (Hz)
FREQFINAL	QUANT	1.00000E+000	Final Fre&q. (Hz)
PTSPERDEC	QUANT	1.00000E+001	Points/&decade
VAC	QUANT	2.50000E+001	AC &Voltage (mV rms)
AREA	QUANT	1.00000E-002	&Area (cm^2)
CONDIT	TWOPARAM	T	5.00000E+000	0.00000E+000	Conditionin&g	Time(s)	E(V)
DELAY	TWOPARAM	T	5.00000E+000	0.00000E+000	Init. De&lay	Time(s)	Stab.(mV/s)
SPEED	SELECTOR	1	&Optimize for:
ZGUESS	QUANT	1.00000E+005	E&stimated Z (ohms)
OCVCURVE	TABLE	19
	Pt	T	Vf	Vm	Ach	Over
	#	s	V vs. Ref.	V	V	bits
	0	0.258333	7.21629E-003	7.21629E-003	5.84699E-004	...........
	1	0.516667	7.21679E-003	7.24221E-003	5.81065E-004	...........
	2	0.775	7.22019E-003	7.28601E-003	5.84232E-004	...........
	3	1.03333	7.23095E-003	7.32249E-003	5.83299E-004	...........
	4	1.29167	7.24587E-003	7.03163E-003	5.89365E-004	...........
	5	1.55	7.24644E-003	7.21060E-003	5.83265E-004	...........
	6	1.80833	7.22469E-003	7.29071E-003	5.81532E-004	...........
	7	2.06667	7.20810E-003	7.40554E-003	5.80199E-004	...........
	8	2.325	7.23915E-003	7.96942E-003	5.79599E-004	...........
	9	2.58333	7.33984E-003	7.49302E-003	5.79332E-004	...........
	10	2.84167	7.48177E-003	7.81080E-003	5.83932E-004	...........
	11	3.1	7.60770E-003	7.89759E-003	5.81532E-004	...........
	12	3.35833	7.70181E-003	8.00688E-003	5.78232E-004	...........
	13	3.61667	7.79114E-003	8.16162E-003	5.80499E-004	...........
	14	3.875	7.89514E-003	8.30336E-003	5.84032E-004	...........
	15	4.13333	8.01492E-003	8.38918E-003	5.82532E-004	...........
	16	4.39167	8.14023E-003	8.38647E-003	5.90365E-004	...........
	17	4.65	8.25331E-003	8.49292E-003	5.92899E-004	...........
	18	4.90833	8.34347E-003	8.55389E-003	5.91765E-004	...........
EOC	QUANT	0.0083435	Open Circuit (V)
PSTATMODEL	IQUANT	4	Pstat Model
PSTATSECTION	LABEL	REF600-11020	Pstat Section
PSTATSERIALNO	LABEL	11020	Pstat Serial Number
CTRLMODE	IQUANT	1	Control Mode
IESTAB	IQUANT	0	I/E Stability
CASPEED	IQUANT	1	Control Amp Speed
CONVENTION	IQUANT	1	Current Convention
ICHRANGE	IQUANT	2	Ich Range
ICHRANGEMODE	TOGGLE	F	Ich Auto Range
ICHOFFSETENABLE	TOGGLE	T	Ich Offset Enable
ICHOFFSET	QUANT	0	Ich Offset (V)
ICHFILTER	IQUANT	3	Ich Filter
VCHRANGE	IQUANT	2	Vch Range
VCHRANGEMODE	TOGGLE	F	Vch Auto Range
VCHOFFSETENABLE	TOGGLE	T	Vch Offset Enable
VCHOFFSET	QUANT	0	Vch Offset (V)
VCHFILTER	IQUANT	3	Vch Filter
ACHRANGE	IQUANT	2	Ach Range
ACHOFFSETENABLE	TOGGLE	F	Ach Offset Enable
ACHOFFSET	QUANT	0	Ach Offset (V)
ACHFILTER	IQUANT	3	Ach Filter
IERANGELOWERLIMIT	IQUANT	1	I/E Range Lower Limit
IERANGEMODE	TOGGLE	F	I/E AutoRange
IERANGE	IQUANT	5	I/E Range
POSFEEDENABLE	TOGGLE	F	Positive Feedback IR Comp
POSFEEDRESISTANCE	QUANT	0	Positive Feedback Resistance (ohm)
ACHSELECT	IQUANT	0	Ach Select
CABLEID	IQUANT	14	Cable ID
DCCALDATE	LABEL	8/19/2019	DC Calibration Date
ACCALDATE	LABEL	8/19/2019	AC Calibration Date
THERMOSELECT	IQUANT	1	Thermo Select
FRAMEWORKVERSION	QUANT	6.33	Framework Version
INSTRUMENTVERSION	LABEL	3.50	Instrument Version
ZCURVE	TABLE
	Pt	Time	Freq	Zreal	Zimag	Zsig	Zmod	Zphz	Idc	Vdc	IERange
	#	s	Hz	ohm	ohm	V	ohm	°	A	V	#
	0	1	1000078	1970.943	-1383.141	1	2407.841	-35.05988	5.509005E-006	0.0102841	8
	1	2	794390.6	2233.917	-1324.563	1	2597.085	-30.6651	3.485855E-007	0.0095113	8
	2	4	630984.4	2470.775	-1258.118	1	2772.65	-26.98518	-2.451468E-006	0.0101132	8
	3	5	501234.4	2681.116	-1166.152	1	2923.746	-23.50664	9.043448E-008	0.0095672	8
	4	7	398109.4	2858.471	-1051.277	1	3045.659	-20.19231	1.882127E-006	0.0093468	8
	5	8	316265.6	3002.749	-954.103	1	3150.685	-17.6273	5.40206E-006	0.009106	8
	6	9	251203.1	3114.734	-869.8802	1	3233.923	-15.60394	1.56712E-006	0.0100267	8
	7	11	199546.9	3218.876	-790.7904	1	3314.591	-13.80266	-7.601122E-008	0.0094936	8
	8	12	158578.1	3313.65	-712.3375	1	3389.352	-12.13227	-2.404952E-007	0.0095371	8
	9	13	125953.1	3392.371	-640.5433	1	3452.315	-10.69263	-1.493628E-006	0.0127526	7
	10	15	100078.1	3452.336	-603.8455	1	3504.747	-9.9212	-2.939674E-007	0.0090126	7
	11	16	79453.13	3515.054	-590.6185	1	3564.328	-9.53805	8.34981E-008	0.0105802	7
	12	18	63140.62	3574.438	-586.2611	1	3622.197	-9.31443	-1.100626E-006	0.0110565	7
	13	19	50203.12	3636.966	-594.1862	1	3685.184	-9.278676	-2.417353E-007	0.0109382	7
	14	20	39890.62	3700.075	-611.1885	1	3750.215	-9.379576	8.514051E-008	0.0105716	7
	15	22	31640.63	3768.24	-639.2104	1	3822.07	-9.6275	7.64469E-007	0.009501	7
	16	23	25171.88	3833.954	-675.0502	1	3892.929	-9.98581	8.383091E-008	0.0085236	7
	17	25	20015.62	3908.382	-726.3972	1	3975.312	-10.52865	4.188219E-007	0.0082487	7
	18	26	15890.62	3981.327	-785.346	1	4058.046	-11.15875	-9.796046E-007	0.0111998	7
	19	27	12609.37	4070.615	-865.0002	1	4161.506	-11.99682	9.924375E-007	0.0086839	7
	20	29	10078.13	4153.74	-957.398	1	4262.647	-12.97946	-1.100887E-006	0.0107303	7
	21	30	8015.625	4248.346	-1059.672	1	4378.51	-14.00559	-1.100126E-006	0.0110504	7
	22	31	6328.125	4353.026	-1190.999	1	4513.017	-15.30179	4.177968E-007	0.0082432	7
	23	33	5015.625	4458.904	-1344.393	1	4657.168	-16.77845	-1.100657E-006	0.0110536	7
	24	34	3984.375	4577.982	-1532.497	1	4827.677	-18.50817	5.710614E-007	0.009885	7
	25	36	3170.956	4698.978	-1756.269	1	5016.46	-20.49351	9.695516E-007	0.0084036	7
	26	37	2527.573	4823.917	-2025.061	1	5231.735	-22.77246	9.921954E-007	0.0086896	7
	27	38	1976.103	4967.017	-2381.213	1	5508.306	-25.6133	5.702504E-007	0.0098912	7
	28	40	1577.524	5084.144	-2796.11	1	5802.305	-28.80933	-7.935386E-007	0.0112496	7
	29	41	1265.625	5263.626	-3292.969	1	6208.817	-32.03044	-2.930532E-007	0.008998	7
	30	43	998.264	5440.388	-3950.953	1	6723.679	-35.98814	4.194349E-007	0.0082487	7
	31	44	796.875	5635.239	-4719.908	1	7350.745	-39.94854	4.127619E-007	0.0082495	7
	32	46	627.7902	5876.618	-5732.216	1	8209.32	-44.28734	5.710165E-007	0.0098882	7
	33	47	505.5147	6144.755	-6851.658	1	9203.436	-48.11337	-5.368865E-007	0.0111642	7
	34	48	397.9953	6495.323	-8387.639	1	10608.57	-52.24607	5.42816E-009	0.0097626	7
	35	50	315.5048	6918.627	-10217.63	1	12339.67	-55.89704	-4.710073E-011	0.009702	6
	36	51	252.4038	7414.237	-12368.04	1	14420.1	-59.05868	6.785413E-010	0.0096955	6
	37	53	198.6229	8075.571	-15190.84	1	17203.96	-62.00453	3.105128E-010	0.0096981	6
	38	54	158.3615	8848.432	-18464.45	1	20475.13	-64.39559	8.035621E-010	0.0096908	6
	39	55	125.558	9854.55	-22551.88	1	24610.96	-66.39599	5.559028E-010	0.009688	6
	40	57	100.4464	11093.92	-27321.9	1	29488.32	-67.90064	-7.091604E-011	0.0096935	6
	41	58	79.00281	12723.63	-33569.28	1	35899.68	-69.242	9.225909E-010	0.0096844	6
	42	60	63.3446	14905.16	-41007.67	1	43632.48	-70.02518	9.370744E-010	0.0096829	6
	43	61	49.86702	17310.63	-49944.46	1	52859.32	-70.8838	7.697062E-010	0.009681	6
	44	62	39.72458	21165.29	-60599	1	64188.85	-70.74733	2.351893E-011	0.0096918	6
	45	64	31.6723	26002.47	-73095.91	1	77583.13	-70.41796	-8.522176E-011	0.0096831	6
	46	65	24.93351	32454.15	-89160.95	1	94883.86	-69.99874	5.702562E-010	0.0096938	6
	47	67	19.86229	40714.66	-106936.2	1	114424.8	-69.15627	4.674189E-011	0.0097023	5
	48	68	15.83615	52485.44	-126796.8	1	137230.3	-67.5137	-2.064847E-011	0.0096993	5
	49	69	12.40079	68473.84	-152761.5	1	167405.9	-65.85616	-1.089347E-009	0.0096896	5
	50	71	9.93114	84695.88	-178461.9	1	197540	-64.61155	4.689404E-010	0.0096887	5
	51	73	7.944915	107715.6	-206102.4	1	232552.9	-62.40702	-7.778836E-011	0.0096895	5
	52	74	6.317385	134229	-236943.5	1	272322.7	-60.46836	-6.559937E-011	0.0097087	5
	53	76	5.008013	166528.9	-269887.8	1	317129.8	-58.32417	-9.377792E-011	0.009679	5
	54	79	3.945707	203907	-304467.3	1	366440.2	-56.1891	3.42726E-010	0.0096907	5
	55	81	3.158693	242663.5	-338784.6	1	416726.1	-54.38686	-2.263859E-010	0.0096836	5
	56	85	2.504006	285635	-376876.4	1	472888.1	-52.84148	7.463314E-011	0.0096978	5
	57	88	1.998082	328838.1	-417228.7	1	531238.4	-51.75664	2.564247E-010	0.0096559	5
	58	91	1.584686	375863.2	-465782.9	1	598520.6	-51.09823	-1.666443E-010	0.0096652	5
	59	94	1.266892	423220.1	-518567.7	1	669348.7	-50.78099	2.31574E-011	0.0096526	5
	60	99	0.999041	476000.1	-586789.4	1	755577.9	-50.95124	-4.780519E-011	0.0097392	5
