EXPLAIN
TAG	EISPOT
TITLE	LABEL	Potentiostatic IDE	Test &Identifier
DATE	LABEL	9/18/2019	Date
TIME	LABEL	8:58:25	Time
NOTES	NOTES	1	&Notes...
	
PSTAT	PSTAT	REF600-11020	Potentiostat
VDC	POTEN	0.00000E+000	T	DC &Voltage (V)
FREQINIT	QUANT	1.00000E+006	Initial Fre&q. (Hz)
FREQFINAL	QUANT	1.00000E+000	Final Fre&q. (Hz)
PTSPERDEC	QUANT	1.00000E+001	Points/&decade
VAC	QUANT	2.50000E+001	AC &Voltage (mV rms)
AREA	QUANT	1.00000E-002	&Area (cm^2)
CONDIT	TWOPARAM	T	5.00000E+000	0.00000E+000	Conditionin&g	Time(s)	E(V)
DELAY	TWOPARAM	T	5.00000E+000	0.00000E+000	Init. De&lay	Time(s)	Stab.(mV/s)
SPEED	SELECTOR	1	&Optimize for:
ZGUESS	QUANT	1.00000E+007	E&stimated Z (ohms)
OCVCURVE	TABLE	19
	Pt	T	Vf	Vm	Ach	Over
	#	s	V vs. Ref.	V	V	bits
	0	0.258333	3.11523E-003	3.11523E-003	5.64732E-004	...........
	1	0.516667	3.10959E-003	2.81988E-003	5.65666E-004	...........
	2	0.775	3.07434E-003	2.50882E-003	5.71766E-004	...........
	3	1.03333	2.97331E-003	2.24359E-003	5.68032E-004	...........
	4	1.29167	2.79509E-003	2.17672E-003	5.66966E-004	...........
	5	1.55	2.57423E-003	2.00412E-003	5.71799E-004	...........
	6	1.80833	2.36256E-003	1.97409E-003	5.73366E-004	...........
	7	2.06667	2.19213E-003	1.93796E-003	5.71966E-004	...........
	8	2.325	2.07018E-003	1.87937E-003	5.70799E-004	...........
	9	2.58333	1.99469E-003	2.16441E-003	5.69866E-004	...........
	10	2.84167	1.97060E-003	2.16822E-003	5.70466E-004	...........
	11	3.1	2.00163E-003	2.19472E-003	5.76499E-004	...........
	12	3.35833	2.06422E-003	2.05908E-003	5.69432E-004	...........
	13	3.61667	2.11176E-003	1.92217E-003	5.78466E-004	...........
	14	3.875	2.10728E-003	1.79750E-003	5.76932E-004	...........
	15	4.13333	2.04372E-003	1.66649E-003	5.78832E-004	...........
	16	4.39167	1.93876E-003	1.57307E-003	5.70032E-004	...........
	17	4.65	1.81660E-003	1.44743E-003	5.70632E-004	...........
	18	4.90833	1.69317E-003	1.31835E-003	5.74899E-004	...........
EOC	QUANT	0.0016932	Open Circuit (V)
PSTATMODEL	IQUANT	4	Pstat Model
PSTATSECTION	LABEL	REF600-11020	Pstat Section
PSTATSERIALNO	LABEL	11020	Pstat Serial Number
CTRLMODE	IQUANT	1	Control Mode
IESTAB	IQUANT	0	I/E Stability
CASPEED	IQUANT	1	Control Amp Speed
CONVENTION	IQUANT	1	Current Convention
ICHRANGE	IQUANT	2	Ich Range
ICHRANGEMODE	TOGGLE	F	Ich Auto Range
ICHOFFSETENABLE	TOGGLE	T	Ich Offset Enable
ICHOFFSET	QUANT	0	Ich Offset (V)
ICHFILTER	IQUANT	3	Ich Filter
VCHRANGE	IQUANT	2	Vch Range
VCHRANGEMODE	TOGGLE	F	Vch Auto Range
VCHOFFSETENABLE	TOGGLE	T	Vch Offset Enable
VCHOFFSET	QUANT	0	Vch Offset (V)
VCHFILTER	IQUANT	3	Vch Filter
ACHRANGE	IQUANT	2	Ach Range
ACHOFFSETENABLE	TOGGLE	F	Ach Offset Enable
ACHOFFSET	QUANT	0	Ach Offset (V)
ACHFILTER	IQUANT	3	Ach Filter
IERANGELOWERLIMIT	IQUANT	1	I/E Range Lower Limit
IERANGEMODE	TOGGLE	F	I/E AutoRange
IERANGE	IQUANT	2	I/E Range
POSFEEDENABLE	TOGGLE	F	Positive Feedback IR Comp
POSFEEDRESISTANCE	QUANT	0	Positive Feedback Resistance (ohm)
ACHSELECT	IQUANT	0	Ach Select
CABLEID	IQUANT	14	Cable ID
DCCALDATE	LABEL	8/19/2019	DC Calibration Date
ACCALDATE	LABEL	8/19/2019	AC Calibration Date
THERMOSELECT	IQUANT	1	Thermo Select
FRAMEWORKVERSION	QUANT	6.33	Framework Version
INSTRUMENTVERSION	LABEL	3.50	Instrument Version
ZCURVE	TABLE
	Pt	Time	Freq	Zreal	Zimag	Zsig	Zmod	Zphz	Idc	Vdc	IERange
	#	s	Hz	ohm	ohm	V	ohm	°	A	V	#
	0	2	1000078	2165.711	-1759.003	1	2790.053	-39.0837	3.619671E-007	0.0039204	8
	1	3	794390.6	2542.092	-1707.881	1	3062.53	-33.89482	6.937577E-007	0.0038106	8
	2	5	630984.4	2878.768	-1600.849	1	3293.937	-29.07792	-1.480551E-006	0.0038524	8
	3	6	501234.4	3158.675	-1455.654	1	3477.953	-24.74229	1.345761E-006	0.0033182	8
	4	7	398109.4	3377.189	-1295.793	1	3617.249	-20.9913	5.086698E-007	0.0034529	8
	5	9	316265.6	3556.521	-1123.143	1	3729.651	-17.52602	-1.123949E-006	0.0036256	8
	6	10	251203.1	3695.086	-974.94	1	3821.54	-14.78053	4.103708E-006	0.002505	8
	7	11	199546.9	3796.837	-837.5036	1	3888.108	-12.43907	4.330072E-007	0.0032742	8
	8	13	158578.1	3874.079	-725.8669	1	3941.493	-10.61218	4.080493E-008	0.0033516	8
	9	14	125953.1	3955.757	-604.7454	1	4001.716	-8.691927	-1.083138E-007	0.003471	7
	10	15	100078.1	3992.895	-533.8962	1	4028.431	-7.615935	-3.295683E-008	0.003369	7
	11	17	79453.13	4034.902	-486.026	1	4064.069	-6.868498	-4.343554E-009	0.0032867	7
	12	18	63140.62	4071.805	-452.0575	1	4096.822	-6.335114	1.865018E-008	0.003289	7
	13	19	50203.12	4105.206	-431.2527	1	4127.795	-5.996938	7.990074E-008	0.0031795	7
	14	21	39890.62	4139.239	-417.7258	1	4160.264	-5.762694	-1.809388E-008	0.0033195	7
	15	22	31640.63	4172.649	-422.822	1	4194.017	-5.786134	4.979814E-008	0.0032827	7
	16	23	25171.88	4206.189	-435.8969	1	4228.715	-5.916572	3.949693E-009	0.0033242	7
	17	25	20015.62	4242.74	-459.9025	1	4267.594	-6.186565	2.678568E-008	0.0032727	7
	18	26	15890.62	4283.366	-492.498	1	4311.586	-6.55902	-1.745786E-008	0.0033463	7
	19	27	12609.37	4320.475	-545.3715	1	4354.76	-7.194369	-2.589807E-008	0.0034014	7
	20	29	10078.13	4362.347	-605.7949	1	4404.209	-7.906046	-1.616705E-008	0.0033174	7
	21	30	8015.625	4409.651	-686.1107	1	4462.709	-8.843907	-1.69781E-008	0.0033164	7
	22	31	6328.125	4460.505	-787.5599	1	4529.499	-10.01311	-2.398221E-008	0.0034015	7
	23	33	5015.625	4516.49	-912.2025	1	4607.689	-11.41851	-2.563553E-008	0.0033537	7
	24	34	3984.375	4577.806	-1062.034	1	4699.385	-13.06135	-1.590076E-009	0.0032721	7
	25	35	3170.956	4646.838	-1248.823	1	4811.721	-15.04264	-2.229446E-008	0.0033661	7
	26	37	2527.573	4723.059	-1473.828	1	4947.672	-17.3305	-2.523549E-008	0.0034006	7
	27	38	1976.103	4816.182	-1771.435	1	5131.627	-20.19398	-1.776414E-008	0.0033149	7
	28	39	1577.524	4915.068	-2107.125	1	5347.698	-23.20516	2.095362E-008	0.0033281	7
	29	41	1265.625	5025.465	-2506.462	1	5615.84	-26.50783	1.741876E-008	0.0032465	7
	30	42	998.264	5159.525	-3025.564	1	5981.199	-30.38751	7.949948E-009	0.0032859	7
	31	43	796.875	5300.366	-3634.937	1	6427.025	-34.44193	-1.731364E-008	0.0033482	7
	32	45	627.7902	5473.57	-4420.663	1	7035.782	-38.92566	-4.955409E-008	0.0034001	7
	33	46	505.5147	5651.818	-5300.487	1	7748.433	-43.16268	-4.056055E-009	0.0032695	7
	34	47	397.9953	5877.578	-6501.69	1	8764.582	-47.88618	6.111806E-009	0.0033338	7
	35	49	315.5048	6134.546	-7945.845	1	10038.38	-52.33026	7.795388E-010	0.0032756	6
	36	50	252.4038	6424.927	-9660.64	1	11602.05	-56.37361	1.403969E-009	0.0032743	6
	37	51	198.6229	6800.646	-11943.02	1	13743.53	-60.34177	1.379795E-009	0.0032771	6
	38	53	158.3615	7238.061	-14622.82	1	16316.14	-63.66533	6.952986E-010	0.0032756	6
	39	54	125.558	7805.934	-18017.77	1	19636.01	-66.57604	1.1329E-009	0.0032699	6
	40	55	100.4464	8497.33	-22047.67	1	23628.46	-68.92297	1.630447E-009	0.003271	6
	41	57	79.00281	9497.532	-27367.7	1	28968.85	-70.86147	1.447917E-009	0.003276	6
	42	58	63.3446	10489.12	-33577.17	1	35177.38	-72.65179	8.454982E-010	0.003273	6
	43	60	49.86702	12372.28	-41316.52	1	43129.2	-73.32961	4.216161E-010	0.0032731	6
	44	61	39.72458	14467.03	-50887.63	1	52904.12	-74.12988	1.34244E-009	0.0032775	6
	45	62	31.6723	17235.71	-62130.84	1	64477.21	-74.49546	9.555561E-010	0.0032729	6
	46	64	24.93351	21267.42	-76730.1	1	79622.94	-74.50813	1.268719E-009	0.0032729	6
	47	65	19.86229	26316.28	-93591.62	1	97221.1	-74.29497	5.931008E-010	0.0032711	6
	48	66	15.83615	32462.36	-113084.4	1	117651.6	-73.98318	1.136273E-009	0.0032774	5
	49	68	12.40079	42390.61	-139710.1	1	145999.5	-73.12124	5.42016E-010	0.0032764	5
	50	69	9.93114	54523.57	-166882.1	1	175563.3	-71.9068	4.112941E-010	0.0032886	5
	51	71	7.944915	68910.34	-198943.3	1	210540	-70.89485	1.176248E-009	0.003275	5
	52	72	6.317385	88674.8	-237812	1	253806.6	-69.55064	7.745761E-010	0.0032605	5
	53	74	5.008013	113897.2	-283139.9	1	305189.7	-68.08682	9.883125E-011	0.0032714	5
	54	77	3.945707	146598.1	-335480.7	1	366112.4	-66.39567	5.56822E-010	0.0032826	5
	55	79	3.158693	184962.8	-391097.2	1	432629.5	-64.68898	1.868257E-010	0.0032857	5
	56	83	2.504006	233400.8	-454805.8	1	511198.8	-62.83366	4.961797E-010	0.0032676	5
	57	85	1.998082	289403.3	-522376.9	1	597186.6	-61.013	-7.15847E-011	0.0032905	5
	58	88	1.584686	358318.9	-597865.6	1	697019.2	-59.06447	3.689979E-010	0.0033277	5
	59	92	1.266892	432941.5	-674854.4	1	801789.8	-57.31848	-3.567856E-011	0.0032967	5
	60	96	0.999041	522727.1	-760813.7	1	923082.4	-55.50848	4.303921E-010	0.0032681	5
