EXPLAIN
TAG	EISPOT
TITLE	LABEL	Potentiostatic EIS	Test &Identifier
DATE	LABEL	11/5/2019	Date
TIME	LABEL	9:02:04	Time
NOTES	NOTES	2	&Notes...
	
	
PSTAT	PSTAT	REF600-11020	Potentiostat
VDC	POTEN	0.00000E+000	T	DC &Voltage (V)
FREQINIT	QUANT	1.00000E+006	Initial Fre&q. (Hz)
FREQFINAL	QUANT	1.00000E+000	Final Fre&q. (Hz)
PTSPERDEC	QUANT	1.00000E+001	Points/&decade
VAC	QUANT	2.50000E+001	AC &Voltage (mV rms)
AREA	QUANT	1.00000E-002	&Area (cm^2)
CONDIT	TWOPARAM	T	5.00000E+000	0.00000E+000	Conditionin&g	Time(s)	E(V)
DELAY	TWOPARAM	T	5.00000E+000	0.00000E+000	Init. De&lay	Time(s)	Stab.(mV/s)
SPEED	SELECTOR	1	&Optimize for:
ZGUESS	QUANT	1.00000E+005	E&stimated Z (ohms)
OCVCURVE	TABLE	19
	Pt	T	Vf	Vm	Ach	Over
	#	s	V vs. Ref.	V	V	bits
	0	0.258333	3.79394E-003	3.79394E-003	5.85532E-004	...........
	1	0.516667	3.79090E-003	3.63466E-003	5.92732E-004	...........
	2	0.775	3.77244E-003	3.49528E-003	5.91199E-004	...........
	3	1.03333	3.72140E-003	3.38556E-003	5.90932E-004	...........
	4	1.29167	3.63352E-003	3.28029E-003	5.94832E-004	...........
	5	1.55	3.52283E-003	3.19004E-003	5.96399E-004	...........
	6	1.80833	3.40794E-003	3.10246E-003	5.94132E-004	...........
	7	2.06667	3.30027E-003	3.03220E-003	5.93765E-004	...........
	8	2.325	3.20349E-003	2.95542E-003	5.88465E-004	...........
	9	2.58333	3.11689E-003	2.88896E-003	5.98332E-004	...........
	10	2.84167	3.03771E-003	2.80205E-003	5.95365E-004	...........
	11	3.1	2.96276E-003	2.75663E-003	6.00265E-004	...........
	12	3.35833	2.89073E-003	2.69425E-003	5.98465E-004	...........
	13	3.61667	2.82310E-003	2.65824E-003	5.95898E-004	...........
	14	3.875	2.76189E-003	2.60280E-003	5.94232E-004	...........
	15	4.13333	2.70706E-003	2.55560E-003	5.97498E-004	...........
	16	4.39167	2.65632E-003	2.50099E-003	5.95265E-004	...........
	17	4.65	2.60706E-003	2.46327E-003	5.94932E-004	...........
	18	4.90833	2.55837E-003	2.41600E-003	5.98699E-004	...........
EOC	QUANT	0.0025584	Open Circuit (V)
PSTATMODEL	IQUANT	4	Pstat Model
PSTATSECTION	LABEL	REF600-11020	Pstat Section
PSTATSERIALNO	LABEL	11020	Pstat Serial Number
CTRLMODE	IQUANT	1	Control Mode
IESTAB	IQUANT	0	I/E Stability
CASPEED	IQUANT	1	Control Amp Speed
CONVENTION	IQUANT	1	Current Convention
ICHRANGE	IQUANT	2	Ich Range
ICHRANGEMODE	TOGGLE	F	Ich Auto Range
ICHOFFSETENABLE	TOGGLE	T	Ich Offset Enable
ICHOFFSET	QUANT	0	Ich Offset (V)
ICHFILTER	IQUANT	3	Ich Filter
VCHRANGE	IQUANT	2	Vch Range
VCHRANGEMODE	TOGGLE	F	Vch Auto Range
VCHOFFSETENABLE	TOGGLE	T	Vch Offset Enable
VCHOFFSET	QUANT	0	Vch Offset (V)
VCHFILTER	IQUANT	3	Vch Filter
ACHRANGE	IQUANT	2	Ach Range
ACHOFFSETENABLE	TOGGLE	F	Ach Offset Enable
ACHOFFSET	QUANT	0	Ach Offset (V)
ACHFILTER	IQUANT	3	Ach Filter
IERANGELOWERLIMIT	IQUANT	1	I/E Range Lower Limit
IERANGEMODE	TOGGLE	F	I/E AutoRange
IERANGE	IQUANT	4	I/E Range
POSFEEDENABLE	TOGGLE	F	Positive Feedback IR Comp
POSFEEDRESISTANCE	QUANT	0	Positive Feedback Resistance (ohm)
ACHSELECT	IQUANT	0	Ach Select
CABLEID	IQUANT	14	Cable ID
DCCALDATE	LABEL	8/19/2019	DC Calibration Date
ACCALDATE	LABEL	8/19/2019	AC Calibration Date
THERMOSELECT	IQUANT	1	Thermo Select
FRAMEWORKVERSION	QUANT	6.33	Framework Version
INSTRUMENTVERSION	LABEL	3.50	Instrument Version
ZCURVE	TABLE
	Pt	Time	Freq	Zreal	Zimag	Zsig	Zmod	Zphz	Idc	Vdc	IERange
	#	s	Hz	ohm	ohm	V	ohm	°	A	V	#
	0	2	1000078	2329.449	-1347.429	1	2691.077	-30.04649	-6.206865E-006	0.0043009	8
	1	3	794390.6	2581.247	-1259.068	1	2871.948	-26.00196	7.418451E-006	0.004381	8
	2	4	630984.4	2783.127	-1128.083	1	3003.06	-22.06416	5.572974E-006	0.002928	8
	3	6	501234.4	2960.513	-1011.771	1	3128.629	-18.86814	1.888916E-006	0.0035571	8
	4	7	398109.4	3082.397	-852.8403	1	3198.204	-15.46575	-1.901513E-006	0.0038558	8
	5	8	316265.6	3173.928	-741.7447	1	3259.449	-13.1539	-2.026628E-006	0.0041958	8
	6	10	251203.1	3248.401	-645.8444	1	3311.981	-11.24486	-6.120147E-007	0.0037468	8
	7	11	199546.9	3301.587	-564.189	1	3349.445	-9.69728	-1.395712E-006	0.0044541	8
	8	12	158578.1	3347.463	-468.0866	1	3380.032	-7.960239	-2.032967E-006	0.0041896	8
	9	14	125953.1	3408.858	-392.0129	1	3431.324	-6.560102	-1.713469E-006	0.0036363	7
	10	15	100078.1	3438.496	-368.1824	1	3458.152	-6.111749	-7.212147E-007	0.0038228	7
	11	17	79453.13	3461.266	-350.1439	1	3478.932	-5.776427	-3.057799E-007	0.0053831	7
	12	18	63140.62	3490.26	-349.2132	1	3507.687	-5.713635	5.042086E-007	0.0023053	7
	13	19	50203.12	3520.323	-356.2079	1	3538.299	-5.777873	1.098243E-006	0.0025342	7
	14	21	39890.62	3551.583	-370.9004	1	3570.898	-5.961924	1.109121E-006	0.0028624	7
	15	22	31640.63	3584.72	-393.0525	1	3606.205	-6.257293	-1.229826E-006	0.0050839	7
	16	23	25171.88	3621.743	-426.0432	1	3646.716	-6.709147	1.017943E-006	0.0032945	7
	17	25	20015.62	3661.761	-467.6346	1	3691.501	-7.277709	-1.116008E-006	0.0056341	7
	18	26	15890.62	3709.307	-518.4058	1	3745.357	-7.956018	-2.91192E-007	0.003111	7
	19	27	12609.37	3762.745	-584.0577	1	3807.804	-8.823108	5.062948E-007	0.0023044	7
	20	29	10078.13	3819.563	-654.1787	1	3875.179	-9.71878	7.970641E-007	0.002204	7
	21	30	8015.625	3880.583	-740.386	1	3950.582	-10.80178	-1.114875E-006	0.0056254	7
	22	32	6328.125	3955.996	-847.0107	1	4045.656	-12.08503	-1.245059E-006	0.0054549	7
	23	33	5015.625	4038.745	-969.461	1	4153.47	-13.49791	-2.920906E-007	0.0031046	7
	24	34	3984.375	4128.65	-1111.705	1	4275.704	-15.07036	3.861815E-007	0.0045356	7
	25	36	3170.956	4227.602	-1277.187	1	4416.313	-16.80992	7.972985E-007	0.0022	7
	26	37	2527.573	4333.126	-1472.318	1	4576.429	-18.76684	5.06576E-007	0.0022992	7
	27	38	1976.103	4457.62	-1726.188	1	4780.178	-21.16861	7.984111E-007	0.0022062	7
	28	40	1577.524	4574.759	-2012.182	1	4997.729	-23.74202	3.866504E-007	0.0045334	7
	29	41	1265.625	4707.631	-2329.643	1	5252.526	-26.3292	-6.370517E-007	0.0056077	7
	30	43	998.264	4855.863	-2765.919	1	5588.355	-29.66601	-2.914572E-007	0.0031003	7
	31	44	796.875	5007.88	-3268.049	1	5979.884	-33.12771	-2.920734E-007	0.0031024	7
	32	45	627.7902	5183.054	-3932.734	1	6506.185	-37.19006	1.111741E-006	0.0028515	7
	33	47	505.5147	5362.118	-4672.181	1	7112.073	-41.06665	1.360099E-007	0.0025846	7
	34	48	397.9953	5578.758	-5676.061	1	7958.656	-45.49533	4.17732E-009	0.0040157	7
	35	50	315.5048	5828.475	-6899.449	1	9031.806	-49.80975	3.287721E-009	0.0040181	7
	36	51	252.4038	6118.261	-8350.683	1	10352.15	-53.77104	3.307701E-010	0.003954	6
	37	52	198.6229	6495.92	-10286.13	1	12165.59	-57.72669	3.767012E-010	0.0039522	6
	38	54	158.3615	6950.088	-12550.98	1	14346.81	-61.02457	6.218674E-010	0.003945	6
	39	55	125.558	7536.867	-15407.06	1	17151.73	-63.93292	1.162599E-009	0.0039477	6
	40	56	100.4464	8285.947	-18758.36	1	20506.9	-66.16798	2.943484E-010	0.0039433	6
	41	58	79.00281	9348.568	-23232.77	1	25043.11	-68.08078	8.05932E-010	0.0039395	6
	42	59	63.3446	10350.94	-28339.22	1	30170.41	-69.9352	2.507346E-010	0.0039392	6
	43	61	49.86702	12335.38	-34583.25	1	36717.34	-70.36937	3.677021E-010	0.0039462	6
	44	62	39.72458	14616.19	-42289.07	1	44743.7	-70.93353	4.354845E-010	0.0039457	6
	45	63	31.6723	17748.35	-51352.89	1	54333.44	-70.93407	3.228871E-010	0.0039483	6
	46	65	24.93351	21886.3	-62765.91	1	66472.33	-70.77647	7.039165E-010	0.0039445	6
	47	66	19.86229	27226.56	-75515.84	1	80274.09	-70.17368	1.4956E-009	0.0039454	6
	48	68	15.83615	34099.55	-90295.22	1	96519.5	-69.3112	-2.152838E-010	0.0039541	6
	49	69	12.40079	43895.85	-109206.6	1	117698.4	-68.10222	6.849701E-010	0.0039582	5
	50	70	9.93114	54888.3	-128795.7	1	140003.8	-66.91796	5.889718E-010	0.0039452	5
	51	72	7.944915	68777.11	-149936.3	1	164958.1	-65.35866	-5.686083E-010	0.0039557	5
	52	74	6.317385	85847.24	-175263.1	1	195158.6	-63.90349	1.672548E-010	0.003948	5
	53	76	5.008013	106728	-203389.3	1	229691.3	-62.31187	-1.285039E-010	0.0039577	5
	54	78	3.945707	130931.6	-234858.7	1	268889.8	-60.86073	-3.003776E-010	0.0039586	5
	55	81	3.158693	157002	-267309.5	1	310006.4	-59.57251	4.21151E-010	0.0039697	5
	56	84	2.504006	187132.6	-305557.4	1	358307.1	-58.51544	-2.359233E-010	0.0039551	5
	57	87	1.998082	218952.9	-347178	1	410454.6	-57.76182	-1.640572E-011	0.0039332	5
	58	90	1.584686	255182.2	-395585.5	1	470750.3	-57.17496	8.493491E-011	0.004011	5
	59	94	1.266892	292020.7	-451413.6	1	537634	-57.10106	-1.113217E-010	0.0039614	5
	60	98	0.999041	336242.2	-522073.9	1	620983.1	-57.2164	3.668678E-010	0.0039723	5
