EXPLAIN
TAG	EISPOT
TITLE	LABEL	Potentiostatic EIS	Test &Identifier
DATE	LABEL	10/24/2019	Date
TIME	LABEL	9:09:28	Time
NOTES	NOTES	1	&Notes...
	
PSTAT	PSTAT	REF600-11020	Potentiostat
VDC	POTEN	0.00000E+000	T	DC &Voltage (V)
FREQINIT	QUANT	1.00000E+006	Initial Fre&q. (Hz)
FREQFINAL	QUANT	1.00000E+000	Final Fre&q. (Hz)
PTSPERDEC	QUANT	1.00000E+001	Points/&decade
VAC	QUANT	2.50000E+001	AC &Voltage (mV rms)
AREA	QUANT	1.00000E-002	&Area (cm^2)
CONDIT	TWOPARAM	T	5.00000E+000	0.00000E+000	Conditionin&g	Time(s)	E(V)
DELAY	TWOPARAM	T	5.00000E+000	0.00000E+000	Init. De&lay	Time(s)	Stab.(mV/s)
SPEED	SELECTOR	1	&Optimize for:
ZGUESS	QUANT	1.00000E+005	E&stimated Z (ohms)
OCVCURVE	TABLE	19
	Pt	T	Vf	Vm	Ach	Over
	#	s	V vs. Ref.	V	V	bits
	0	0.258333	3.81248E-003	3.81248E-003	5.79365E-004	...........
	1	0.516667	3.81048E-003	3.70767E-003	5.79299E-004	...........
	2	0.775	3.79912E-003	3.65715E-003	5.79799E-004	...........
	3	1.03333	3.77044E-003	3.62778E-003	5.76566E-004	...........
	4	1.29167	3.72267E-003	3.38733E-003	5.79532E-004	...........
	5	1.55	3.65706E-003	3.50147E-003	5.72432E-004	...........
	6	1.80833	3.58306E-003	3.49699E-003	5.77699E-004	...........
	7	2.06667	3.52337E-003	3.48230E-003	5.78865E-004	...........
	8	2.325	3.49233E-003	3.47494E-003	5.81365E-004	...........
	9	2.58333	3.48183E-003	3.45450E-003	5.76699E-004	...........
	10	2.84167	3.47713E-003	3.45937E-003	5.79599E-004	...........
	11	3.1	3.47083E-003	3.43143E-003	5.81032E-004	...........
	12	3.35833	3.46307E-003	3.49027E-003	5.78099E-004	...........
	13	3.61667	3.46047E-003	3.58780E-003	5.82532E-004	...........
	14	3.875	3.47053E-003	3.42833E-003	5.81665E-004	...........
	15	4.13333	3.48172E-003	3.20703E-003	5.82532E-004	...........
	16	4.39167	3.46028E-003	3.13888E-003	5.79799E-004	...........
	17	4.65	3.39826E-003	3.65792E-003	5.75365E-004	...........
	18	4.90833	3.34752E-003	3.42506E-003	5.77166E-004	...........
EOC	QUANT	0.0033475	Open Circuit (V)
PSTATMODEL	IQUANT	4	Pstat Model
PSTATSECTION	LABEL	REF600-11020	Pstat Section
PSTATSERIALNO	LABEL	11020	Pstat Serial Number
CTRLMODE	IQUANT	1	Control Mode
IESTAB	IQUANT	0	I/E Stability
CASPEED	IQUANT	1	Control Amp Speed
CONVENTION	IQUANT	1	Current Convention
ICHRANGE	IQUANT	2	Ich Range
ICHRANGEMODE	TOGGLE	F	Ich Auto Range
ICHOFFSETENABLE	TOGGLE	T	Ich Offset Enable
ICHOFFSET	QUANT	0	Ich Offset (V)
ICHFILTER	IQUANT	3	Ich Filter
VCHRANGE	IQUANT	2	Vch Range
VCHRANGEMODE	TOGGLE	F	Vch Auto Range
VCHOFFSETENABLE	TOGGLE	T	Vch Offset Enable
VCHOFFSET	QUANT	0	Vch Offset (V)
VCHFILTER	IQUANT	3	Vch Filter
ACHRANGE	IQUANT	2	Ach Range
ACHOFFSETENABLE	TOGGLE	F	Ach Offset Enable
ACHOFFSET	QUANT	0	Ach Offset (V)
ACHFILTER	IQUANT	3	Ach Filter
IERANGELOWERLIMIT	IQUANT	1	I/E Range Lower Limit
IERANGEMODE	TOGGLE	F	I/E AutoRange
IERANGE	IQUANT	4	I/E Range
POSFEEDENABLE	TOGGLE	F	Positive Feedback IR Comp
POSFEEDRESISTANCE	QUANT	0	Positive Feedback Resistance (ohm)
ACHSELECT	IQUANT	0	Ach Select
CABLEID	IQUANT	14	Cable ID
DCCALDATE	LABEL	8/19/2019	DC Calibration Date
ACCALDATE	LABEL	8/19/2019	AC Calibration Date
THERMOSELECT	IQUANT	1	Thermo Select
FRAMEWORKVERSION	QUANT	6.33	Framework Version
INSTRUMENTVERSION	LABEL	3.50	Instrument Version
ZCURVE	TABLE
	Pt	Time	Freq	Zreal	Zimag	Zsig	Zmod	Zphz	Idc	Vdc	IERange
	#	s	Hz	ohm	ohm	V	ohm	°	A	V	#
	0	1	1000078	1467.382	-2792.27	1	3154.359	-62.27737	2.838281E-006	0.0047389	8
	1	3	794390.6	1657.356	-3287.608	1	3681.739	-63.24631	-4.035491E-006	0.005987	8
	2	4	630984.4	1843.588	-3927.229	1	4338.427	-64.85289	5.275027E-007	0.0050539	8
	3	6	501234.4	2105.49	-4706.768	1	5156.234	-65.89948	-4.506956E-008	0.00492	8
	4	7	398109.4	2353.417	-5658.912	1	6128.773	-67.41865	8.298098E-007	0.0048437	8
	5	9	316265.6	2698.688	-6816.829	1	7331.581	-68.40208	1.132177E-007	0.0048289	8
	6	11	251203.1	3209.427	-8216.762	1	8821.314	-68.66463	3.098718E-007	0.0048417	8
	7	13	199546.9	3777.303	-9858.53	1	10557.4	-69.03562	8.690358E-007	0.0046225	8
	8	14	158578.1	4520.344	-12064.24	1	12883.3	-69.45956	1.109089E-006	0.0047599	8
	9	16	125953.1	5697.799	-14361.35	1	15450.35	-68.35954	3.516866E-007	0.0041896	7
	10	18	100078.1	6854.015	-17226.77	1	18540.2	-68.30387	9.080462E-008	0.0047299	7
	11	19	79453.13	8546.693	-20654.33	1	22352.79	-67.52039	-3.074914E-008	0.0047978	7
	12	21	63140.62	10631.54	-24601.57	1	26800.5	-66.62846	-3.662296E-008	0.0048986	7
	13	22	50203.12	13353.2	-29172.16	1	32083.06	-65.40464	-4.303672E-008	0.0049593	7
	14	24	39890.62	16889.65	-34265.13	1	38201.57	-63.76082	4.046959E-009	0.0047346	7
	15	26	31640.63	21475.86	-40012.16	1	45411.29	-61.77607	1.590526E-009	0.0047236	7
	16	27	25171.88	26943.94	-46419.13	1	53672.26	-59.86702	9.453336E-008	0.0047089	7
	17	29	20015.62	34143.71	-52751.2	1	62836.95	-57.08665	-3.49893E-008	0.0048889	7
	18	30	15890.62	42434.09	-59990.84	1	73481.65	-54.72659	9.063907E-008	0.0047129	7
	19	32	12609.37	53672.32	-65733.2	1	84862.07	-50.76775	-7.837994E-010	0.0046895	6
	20	34	10078.13	64971.04	-71677.36	1	96741.3	-47.80966	1.85036E-009	0.0046198	6
	21	35	8015.625	78310.79	-76668.52	1	109593.1	-44.39288	1.176883E-008	0.0046456	6
	22	37	6328.125	92971.66	-79770.89	1	122503.6	-40.63002	-4.103787E-009	0.0048741	6
	23	39	5015.625	107930.5	-81054.23	1	134976.9	-36.90602	-5.615761E-009	0.0048651	6
	24	40	3984.375	120828.2	-82706.35	1	146423.3	-34.39146	2.002919E-009	0.0046135	6
	25	42	3170.956	136377.7	-79897.28	1	158058.4	-30.36403	5.601597E-009	0.0047708	6
	26	43	2527.573	148843.9	-77214.6	1	167680.1	-27.41858	5.1946E-009	0.0047791	6
	27	45	1976.103	160797.9	-74533.66	1	177232.1	-24.86885	1.672967E-008	0.0044933	6
	28	47	1577.524	163367.5	-77955.1	1	181013.6	-25.50937	-3.734316E-009	0.0048656	6
	29	48	1265.625	181054.9	-67305.45	1	193160.3	-20.39214	6.723142E-010	0.0047637	5
	30	50	998.264	189895.4	-66254.17	1	201121.5	-19.23379	-3.532808E-010	0.0047364	5
	31	51	796.875	197980.8	-65931.95	1	208670.6	-18.41888	-8.705015E-011	0.0048627	5
	32	52	627.7902	206319	-66654.45	1	216818.7	-17.90383	-3.323418E-010	0.0047477	5
	33	54	505.5147	213931.1	-68008.49	1	224480.9	-17.63541	5.790527E-010	0.0045771	5
	34	55	397.9953	222419.1	-70314.39	1	233268.9	-17.54355	4.732283E-010	0.0047407	5
	35	56	315.5048	231741.2	-73361.65	1	243076	-17.56607	-1.385353E-010	0.0047412	5
	36	58	252.4038	240520.3	-76206.88	1	252304.4	-17.58038	7.975463E-010	0.004738	5
	37	59	198.6229	249608.4	-80436.05	1	262248.6	-17.86148	8.234389E-011	0.0047384	5
	38	61	158.3615	259290.7	-86503.34	1	273339.5	-18.44949	-2.951059E-010	0.0047388	5
	39	62	125.558	269403	-93261.42	1	285088.9	-19.09473	-5.856218E-011	0.0047375	5
	40	63	100.4464	279709.3	-100206.4	1	297117.2	-19.71016	2.139535E-010	0.0047337	5
	41	65	79.00281	294928.8	-110619.1	1	314991.4	-20.55959	-2.786523E-010	0.0047369	5
	42	67	63.3446	283281.7	-119127.2	1	307310.6	-22.808	2.376386E-012	0.00474	5
	43	68	49.86702	315525.6	-134447.9	1	342976.1	-23.07923	8.884862E-011	0.0047396	5
	44	70	39.72458	332680.1	-147576.9	1	363943.7	-23.92207	3.497564E-010	0.0047422	5
	45	71	31.6723	347668.8	-168427	1	386317.5	-25.84771	-8.13805E-011	0.0047385	5
	46	73	24.93351	372888.9	-191190.8	1	419046.6	-27.14551	2.596209E-010	0.004739	5
	47	74	19.86229	395286.1	-214548.8	1	449758	-28.49171	1.029122E-010	0.0047434	5
	48	75	15.83615	419725.8	-259855	1	493654.1	-31.76192	1.33706E-009	0.004738	5
	49	77	12.40079	445272.1	-263812.1	1	517555.8	-30.64563	-8.981409E-010	0.0047443	5
	50	78	9.93114	490031.1	-300168.6	1	574657.9	-31.48955	-2.251467E-010	0.0047376	5
	51	80	7.944915	525785.3	-326658.6	1	618996	-31.85176	-4.665203E-010	0.0047381	5
	52	81	6.317385	574289.1	-360427.3	1	678023.4	-32.11263	4.517518E-010	0.0047378	6
	53	84	5.008013	620968	-397811.9	1	737465.7	-32.64492	4.137028E-010	0.0047377	6
	54	87	3.945707	670035	-436935.1	1	799911.9	-33.10868	4.312211E-010	0.0047441	6
	55	90	3.158693	723172.8	-484014.1	1	870200.3	-33.79409	3.559232E-010	0.0047254	6
	56	94	2.504006	779878.5	-537513.8	1	947170.3	-34.57568	2.095723E-010	0.0047457	5
	57	96	1.998082	843776.4	-597913	1	1034146	-35.32198	2.609408E-010	0.0047574	4
	58	99	1.584686	909314.3	-666265.2	1	1127281	-36.23067	1.200741E-010	0.0047045	4
	59	103	1.266892	984995	-746455.5	1	1235884	-37.15583	1.853281E-010	0.0047667	4
	60	107	0.999041	1068105	-841790.3	1	1359948	-38.24221	-8.786188E-011	0.0047007	4
