EXPLAIN
TAG	EISPOT
TITLE	LABEL	Potentiostatic EIS	Test &Identifier
DATE	LABEL	11/15/2019	Date
TIME	LABEL	10:21:06	Time
NOTES	NOTES	4	&Notes...
	
	
	
	
PSTAT	PSTAT	REF600-11020	Potentiostat
VDC	POTEN	0.00000E+000	T	DC &Voltage (V)
FREQINIT	QUANT	1.00000E+006	Initial Fre&q. (Hz)
FREQFINAL	QUANT	1.00000E+000	Final Fre&q. (Hz)
PTSPERDEC	QUANT	1.00000E+001	Points/&decade
VAC	QUANT	2.50000E+001	AC &Voltage (mV rms)
AREA	QUANT	1.00000E-002	&Area (cm^2)
CONDIT	TWOPARAM	T	5.00000E+000	0.00000E+000	Conditionin&g	Time(s)	E(V)
DELAY	TWOPARAM	T	5.00000E+000	0.00000E+000	Init. De&lay	Time(s)	Stab.(mV/s)
SPEED	SELECTOR	0	&Optimize for:
ZGUESS	QUANT	1.00000E+005	E&stimated Z (ohms)
OCVCURVE	TABLE	19
	Pt	T	Vf	Vm	Ach	Over
	#	s	V vs. Ref.	V	V	bits
	0	0.258333	5.07085E-003	5.07085E-003	5.53299E-004	...........
	1	0.516667	5.06850E-003	4.94821E-003	5.50266E-004	...........
	2	0.775	5.05445E-003	4.84939E-003	5.51399E-004	...........
	3	1.03333	5.01570E-003	4.74950E-003	5.50666E-004	...........
	4	1.29167	4.94854E-003	4.67664E-003	5.53366E-004	...........
	5	1.55	4.86330E-003	4.61774E-003	5.50166E-004	...........
	6	1.80833	4.77559E-003	4.56513E-003	5.58066E-004	...........
	7	2.06667	4.69663E-003	4.52472E-003	5.53733E-004	...........
	8	2.325	4.63031E-003	4.48169E-003	5.59599E-004	...........
	9	2.58333	4.57546E-003	4.44937E-003	5.60766E-004	...........
	10	2.84167	4.52903E-003	4.40744E-003	5.61466E-004	...........
	11	3.1	4.48800E-003	4.38075E-003	5.60166E-004	...........
	12	3.35833	4.45041E-003	4.34973E-003	5.57499E-004	...........
	13	3.61667	4.41583E-003	4.33419E-003	5.57899E-004	...........
	14	3.875	4.38498E-003	4.31635E-003	5.59199E-004	...........
	15	4.13333	4.35862E-003	4.29640E-003	5.58599E-004	...........
	16	4.39167	4.33629E-003	4.27541E-003	5.56366E-004	...........
	17	4.65	4.31622E-003	4.25418E-003	5.56099E-004	...........
	18	4.90833	4.29666E-003	4.23652E-003	5.56099E-004	...........
EOC	QUANT	0.0042967	Open Circuit (V)
PSTATMODEL	IQUANT	4	Pstat Model
PSTATSECTION	LABEL	REF600-11020	Pstat Section
PSTATSERIALNO	LABEL	11020	Pstat Serial Number
CTRLMODE	IQUANT	1	Control Mode
IESTAB	IQUANT	0	I/E Stability
CASPEED	IQUANT	1	Control Amp Speed
CONVENTION	IQUANT	1	Current Convention
ICHRANGE	IQUANT	2	Ich Range
ICHRANGEMODE	TOGGLE	F	Ich Auto Range
ICHOFFSETENABLE	TOGGLE	T	Ich Offset Enable
ICHOFFSET	QUANT	0	Ich Offset (V)
ICHFILTER	IQUANT	3	Ich Filter
VCHRANGE	IQUANT	2	Vch Range
VCHRANGEMODE	TOGGLE	F	Vch Auto Range
VCHOFFSETENABLE	TOGGLE	T	Vch Offset Enable
VCHOFFSET	QUANT	0	Vch Offset (V)
VCHFILTER	IQUANT	3	Vch Filter
ACHRANGE	IQUANT	2	Ach Range
ACHOFFSETENABLE	TOGGLE	F	Ach Offset Enable
ACHOFFSET	QUANT	0	Ach Offset (V)
ACHFILTER	IQUANT	3	Ach Filter
IERANGELOWERLIMIT	IQUANT	1	I/E Range Lower Limit
IERANGEMODE	TOGGLE	F	I/E AutoRange
IERANGE	IQUANT	4	I/E Range
POSFEEDENABLE	TOGGLE	F	Positive Feedback IR Comp
POSFEEDRESISTANCE	QUANT	0	Positive Feedback Resistance (ohm)
ACHSELECT	IQUANT	0	Ach Select
CABLEID	IQUANT	14	Cable ID
DCCALDATE	LABEL	8/19/2019	DC Calibration Date
ACCALDATE	LABEL	8/19/2019	AC Calibration Date
THERMOSELECT	IQUANT	1	Thermo Select
FRAMEWORKVERSION	QUANT	6.33	Framework Version
INSTRUMENTVERSION	LABEL	3.50	Instrument Version
ZCURVE	TABLE
	Pt	Time	Freq	Zreal	Zimag	Zsig	Zmod	Zphz	Idc	Vdc	IERange
	#	s	Hz	ohm	ohm	V	ohm	°	A	V	#
	0	1	1000078	1887.174	-1948.295	1	2712.431	-45.91296	-1.649712E-006	0.0058971	8
	1	2	794390.6	2233.912	-2098.646	1	3065.074	-43.21176	1.000158E-005	0.0050493	8
	2	2	630984.4	2603.809	-2245.298	1	3438.195	-40.77163	-3.028022E-006	0.0056125	8
	3	2	501234.4	3028.577	-2333.616	1	3823.355	-37.61542	-2.957091E-007	0.00557	8
	4	3	398109.4	3481.654	-2392.633	1	4224.524	-34.4973	-1.704347E-007	0.0055327	8
	5	3	316265.6	3950.343	-2398.009	1	4621.218	-31.25935	-3.792914E-006	0.0064009	8
	6	3	251203.1	4406.969	-2342.976	1	4991.083	-27.99745	-6.244186E-006	0.0067635	8
	7	4	199546.9	4853.865	-2210.139	1	5333.359	-24.48148	-6.151563E-006	0.0067495	8
	8	4	158578.1	5189.981	-2020.412	1	5569.377	-21.2705	6.037011E-006	0.005129	8
	9	4	125953.1	5608.967	-1747.422	1	5874.861	-17.30394	1.729605E-006	-0.0002322	7
	10	5	100078.1	5850.333	-1552.581	1	6052.843	-14.86275	4.414312E-007	0.0064011	7
	11	5	79453.13	6026.824	-1347.637	1	6175.656	-12.60436	-6.964457E-007	0.007589	7
	12	5	63140.62	6187.623	-1141.261	1	6291.991	-10.45033	1.103236E-007	0.004255	7
	13	6	50203.12	6306.377	-1003.682	1	6385.747	-9.042983	-3.234355E-007	0.0073081	7
	14	6	39890.62	6405.276	-855.152	1	6462.108	-7.604445	8.741996E-007	0.0037615	7
	15	7	31640.63	6486.23	-749.7054	1	6529.414	-6.593226	1.235844E-006	0.0040962	7
	16	7	25171.88	6488.988	-658.2252	1	6522.287	-5.792115	-3.675868E-007	0.004841	7
	17	7	20015.62	6528.249	-586.2312	1	6554.518	-5.131349	-3.752832E-007	0.0048382	7
	18	8	15890.62	6558.542	-557.3696	1	6582.184	-4.857539	-8.374805E-007	0.0056174	7
	19	8	12609.37	6627.303	-548.5552	1	6649.966	-4.7317	8.739386E-007	0.0037591	7
	20	9	10078.13	6641.391	-553.2875	1	6664.397	-4.762256	8.687572E-008	0.0068613	7
	21	9	8015.625	6633.816	-576.0321	1	6658.778	-4.962699	-1.384802E-006	0.0074213	7
	22	9	6328.125	6666.111	-627.7902	1	6695.607	-5.38004	-1.005713E-006	0.0076641	7
	23	10	5015.625	6683.116	-701.8395	1	6719.867	-5.995046	-8.432676E-007	0.0056116	7
	24	10	3984.375	6708.225	-814.8558	1	6757.534	-6.925853	-8.422395E-007	0.0056076	7
	25	10	3170.956	6767.416	-955.966	1	6834.603	-8.040405	-3.166935E-007	0.0072872	7
	26	11	2527.573	6830.443	-1143.293	1	6925.465	-9.50219	6.987929E-007	0.0059957	7
	27	11	1976.103	6834.423	-1374.073	1	6971.185	-11.36786	-1.008229E-006	0.0076649	7
	28	11	1577.524	6866.018	-1624.714	1	7055.628	-13.31309	-1.191421E-006	0.0063644	7
	29	12	1265.625	6943.74	-1999.045	1	7225.767	-16.06067	-1.235557E-006	0.0076002	7
	30	12	998.264	7044.399	-2467.765	1	7464.143	-19.30617	1.142092E-007	0.0042394	7
	31	12	796.875	7146.855	-3003.496	1	7752.324	-22.79479	1.071424E-007	0.004238	7
	32	13	627.7902	7324.52	-3741.81	1	8224.946	-27.06071	1.23725E-006	0.0040878	7
	33	13	505.5147	7489.67	-4536.446	1	8756.397	-31.20302	9.560617E-007	0.0055045	7
	34	13	397.9953	7697.014	-5561.023	1	9495.735	-35.84777	4.660493E-010	0.0057942	7
	35	14	315.5048	8003.761	-6821.026	1	10516.02	-40.43855	9.506627E-010	0.005732	6
	36	14	252.4038	8378.657	-8293.559	1	11789.19	-44.70755	-3.134343E-010	0.0057339	6
	37	14	198.6229	8907.279	-10212.29	1	13551.03	-48.90468	7.740475E-010	0.0057174	6
	38	15	158.3615	9568.95	-12405.62	1	15667.3	-52.35557	3.809783E-010	0.00573	6
	39	15	125.558	10466.44	-15111.3	1	18381.99	-55.29262	3.352264E-010	0.0057185	6
	40	15	100.4464	11579.36	-18170.63	1	21546.54	-57.4924	9.058032E-010	0.0057175	6
	41	16	79.00281	13113.78	-22115.35	1	25711.08	-59.33326	1.154744E-010	0.0057226	6
	42	16	63.3446	15183	-26159.99	1	30246.8	-59.86954	9.273843E-010	0.0057169	6
	43	16	49.86702	17719.84	-31541.41	1	36178.08	-60.6729	1.528396E-009	0.0057174	6
	44	17	39.72458	20553.16	-37496.43	1	42759.96	-61.27124	1.762718E-010	0.0057171	6
	45	17	31.6723	24119.81	-44138.07	1	50298.45	-61.34504	2.57254E-010	0.0057224	6
	46	17	24.93351	28770.18	-51988.73	1	59418.44	-61.04018	8.336219E-010	0.0057116	6
	47	18	19.86229	33722.77	-60513.03	1	69275.19	-60.8699	1.765049E-009	0.0057273	6
	48	18	15.83615	38610.11	-70386.46	1	80280.73	-61.25327	8.858726E-010	0.0057251	6
	49	18	12.40079	45759.94	-82700.18	1	94516.09	-61.04322	5.221811E-010	0.0057286	6
	50	19	9.93114	53088	-95935.6	1	109644.8	-61.04112	5.53909E-010	0.005724	5
	51	19	7.944915	60778.16	-111675.8	1	127143.5	-61.44332	-1.702999E-010	0.0057271	5
	52	20	6.317385	69741.86	-131064.3	1	148464.7	-61.98169	-2.387087E-010	0.0057365	5
	53	21	5.008013	80290.53	-154649.7	1	174250.1	-62.5627	1.401555E-010	0.0057293	5
	54	22	3.945707	93299.92	-183552.1	1	205903.5	-63.05568	-2.814573E-011	0.0057211	5
	55	23	3.158693	107834.5	-216280	1	241671.9	-63.49974	1.715163E-010	0.0057271	5
	56	25	2.504006	125787.1	-256543.2	1	285721.6	-63.88057	1.589448E-010	0.0057254	5
	57	26	1.998082	147201.5	-302359.4	1	336287.8	-64.0412	-7.479475E-011	0.0056831	5
	58	27	1.584686	172711.7	-358625.2	1	398047	-64.28482	-5.206589E-011	0.0056868	5
	59	29	1.266892	202535.2	-420835.6	1	467036.5	-64.29992	3.348853E-011	0.005724	5
	60	32	0.999041	240924.9	-498716.3	1	553861.8	-64.21527	6.53449E-011	0.0057517	5
