EXPLAIN
TAG	EISPOT
TITLE	LABEL	Potentiostatic EIS	Test &Identifier
DATE	LABEL	10/28/2019	Date
TIME	LABEL	11:58:10	Time
NOTES	NOTES	1	&Notes...
	
PSTAT	PSTAT	REF600-11020	Potentiostat
VDC	POTEN	0.00000E+000	T	DC &Voltage (V)
FREQINIT	QUANT	1.00000E+006	Initial Fre&q. (Hz)
FREQFINAL	QUANT	1.00000E+000	Final Fre&q. (Hz)
PTSPERDEC	QUANT	1.00000E+001	Points/&decade
VAC	QUANT	2.50000E+001	AC &Voltage (mV rms)
AREA	QUANT	1.00000E-002	&Area (cm^2)
CONDIT	TWOPARAM	T	5.00000E+000	0.00000E+000	Conditionin&g	Time(s)	E(V)
DELAY	TWOPARAM	T	5.00000E+000	0.00000E+000	Init. De&lay	Time(s)	Stab.(mV/s)
SPEED	SELECTOR	1	&Optimize for:
ZGUESS	QUANT	1.00000E+005	E&stimated Z (ohms)
OCVCURVE	TABLE	19
	Pt	T	Vf	Vm	Ach	Over
	#	s	V vs. Ref.	V	V	bits
	0	0.258333	1.27252E-002	1.27252E-002	5.56366E-004	...........
	1	0.516667	1.26224E-002	7.34350E-003	5.62299E-004	...........
	2	0.775	1.21239E-002	9.19122E-003	5.58332E-004	...........
	3	1.03333	1.11466E-002	1.05414E-002	5.59366E-004	...........
	4	1.29167	1.01894E-002	1.03788E-002	5.64299E-004	...........
	5	1.55	9.75476E-003	8.99574E-003	5.57999E-004	...........
	6	1.80833	9.73424E-003	1.00644E-002	5.58266E-004	...........
	7	2.06667	9.67964E-003	4.70963E-003	5.58432E-004	...........
	8	2.325	9.17317E-003	4.53953E-003	5.60766E-004	...........
	9	2.58333	8.01664E-003	3.35394E-003	5.58932E-004	...........
	10	2.84167	6.49573E-003	5.20413E-003	5.59099E-004	...........
	11	3.1	5.20860E-003	3.58942E-003	5.57966E-004	...........
	12	3.35833	4.47554E-003	3.95747E-003	5.61532E-004	...........
	13	3.61667	4.11965E-003	1.84802E-003	5.57732E-004	...........
	14	3.875	3.80971E-003	3.80122E-003	5.58932E-004	...........
	15	4.13333	3.42363E-003	1.07252E-003	5.60966E-004	...........
	16	4.39167	3.00587E-003	2.42408E-003	5.57499E-004	...........
	17	4.65	2.57057E-003	2.36534E-004	5.62132E-004	...........
	18	4.90833	2.15698E-003	4.29859E-003	5.55899E-004	...........
EOC	QUANT	0.002157	Open Circuit (V)
PSTATMODEL	IQUANT	4	Pstat Model
PSTATSECTION	LABEL	REF600-11020	Pstat Section
PSTATSERIALNO	LABEL	11020	Pstat Serial Number
CTRLMODE	IQUANT	1	Control Mode
IESTAB	IQUANT	0	I/E Stability
CASPEED	IQUANT	1	Control Amp Speed
CONVENTION	IQUANT	1	Current Convention
ICHRANGE	IQUANT	2	Ich Range
ICHRANGEMODE	TOGGLE	F	Ich Auto Range
ICHOFFSETENABLE	TOGGLE	T	Ich Offset Enable
ICHOFFSET	QUANT	0	Ich Offset (V)
ICHFILTER	IQUANT	3	Ich Filter
VCHRANGE	IQUANT	2	Vch Range
VCHRANGEMODE	TOGGLE	F	Vch Auto Range
VCHOFFSETENABLE	TOGGLE	T	Vch Offset Enable
VCHOFFSET	QUANT	0	Vch Offset (V)
VCHFILTER	IQUANT	3	Vch Filter
ACHRANGE	IQUANT	2	Ach Range
ACHOFFSETENABLE	TOGGLE	F	Ach Offset Enable
ACHOFFSET	QUANT	0	Ach Offset (V)
ACHFILTER	IQUANT	3	Ach Filter
IERANGELOWERLIMIT	IQUANT	1	I/E Range Lower Limit
IERANGEMODE	TOGGLE	F	I/E AutoRange
IERANGE	IQUANT	4	I/E Range
POSFEEDENABLE	TOGGLE	F	Positive Feedback IR Comp
POSFEEDRESISTANCE	QUANT	0	Positive Feedback Resistance (ohm)
ACHSELECT	IQUANT	0	Ach Select
CABLEID	IQUANT	14	Cable ID
DCCALDATE	LABEL	8/19/2019	DC Calibration Date
ACCALDATE	LABEL	8/19/2019	AC Calibration Date
THERMOSELECT	IQUANT	1	Thermo Select
FRAMEWORKVERSION	QUANT	6.33	Framework Version
INSTRUMENTVERSION	LABEL	3.50	Instrument Version
ZCURVE	TABLE
	Pt	Time	Freq	Zreal	Zimag	Zsig	Zmod	Zphz	Idc	Vdc	IERange
	#	s	Hz	ohm	ohm	V	ohm	°	A	V	#
	0	1	1000078	928.485	-8819.642	1	8868.38	-83.99034	4.636261E-006	0.0034881	8
	1	3	794390.6	970.199	-10965.28	1	11008.12	-84.94369	-1.452176E-006	0.0048031	8
	2	5	630984.4	1156.421	-13582.48	1	13631.62	-85.13354	8.151635E-008	0.0040752	8
	3	7	501234.4	1316.224	-17280.01	1	17330.07	-85.64417	2.008517E-007	0.0039674	8
	4	9	398109.4	1831.609	-21187.11	1	21266.13	-85.0591	1.700103E-006	0.0034907	8
	5	11	316265.6	1348.638	-26520.48	1	26554.75	-87.08886	5.294193E-006	0.0028231	8
	6	13	251203.1	2521.793	-33215.69	1	33311.29	-85.65833	2.370731E-007	0.0038212	8
	7	15	199546.9	2580.17	-40316.94	1	40399.41	-86.33823	1.619383E-007	0.0038116	8
	8	17	158578.1	1933.919	-47920.2	1	47959.21	-87.68896	7.019943E-007	0.0034236	8
	9	18	125953.1	2702.878	-64739.21	1	64795.61	-87.60928	1.396447E-006	0.0006903	7
	10	20	100078.1	5626.476	-81500.78	1	81694.77	-86.0508	-9.573009E-008	0.0040912	7
	11	22	79453.13	7128.409	-101255.6	1	101506.2	-85.97301	-3.9808E-008	0.0037565	7
	12	23	63140.62	8368.374	-126520.6	1	126797	-86.21584	1.59789E-008	0.003929	7
	13	25	50203.12	8990.34	-157928.8	1	158184.5	-86.74187	-3.69909E-008	0.0038022	7
	14	27	39890.62	12322.68	-197083.3	1	197468.2	-86.42223	1.161869E-007	0.0035454	7
	15	28	31640.63	15989.25	-246448.8	1	246966.9	-86.28793	-3.225573E-008	0.0037722	7
	16	30	25171.88	12504.88	-314375.1	1	314623.7	-87.72215	8.998633E-008	0.0036447	7
	17	32	20015.62	56632.91	-314684.4	1	319739.8	-79.79784	6.976185E-009	0.0038284	7
	18	34	15890.62	21376.27	-484241.1	1	484712.7	-87.47238	3.661123E-009	0.0037114	7
	19	35	12609.37	51486.08	-600152.8	1	602357.2	-85.0967	6.714708E-009	0.0038172	6
	20	37	10078.13	51218.47	-751468.7	1	753212.1	-86.10088	1.255075E-009	0.0038677	6
	21	39	8015.625	-22409.63	-836267.2	1	836567.4	-91.535	-9.185034E-009	0.0039993	6
	22	40	6328.125	89918.51	-1157431	1	1160919	-85.55773	-9.342258E-009	0.0037629	6
	23	42	5015.625	117226.3	-1463976	1	1468662	-85.42188	2.891925E-011	0.0036424	6
	24	44	3984.375	316838.6	-1451231	1	1485415	-77.6842	2.120848E-008	0.0035779	6
	25	45	3170.956	180331.4	-2271980	1	2279125	-85.46184	-9.621785E-009	0.0037498	6
	26	47	2527.573	254258.3	-2806049	1	2817545	-84.82253	6.484202E-009	0.0038612	6
	27	49	1976.103	-342653.4	-3299420	1	3317165	-95.9291	-7.653792E-009	0.0036243	6
	28	51	1577.524	-578691.8	-1395862	1	1511064	-112.5178	-1.303384E-008	0.004003	6
	29	52	1265.625	686810.6	-5848809	1	5888996	-83.30257	-1.398833E-009	0.0038531	5
	30	54	998.264	837627.9	-6963086	1	7013286	-83.14053	-4.266514E-010	0.003873	5
	31	55	796.875	1090799	-8204632	1	8276826	-82.42698	-1.172183E-008	0.0038038	6
	32	57	627.7902	-1864630	-1.369992E+007	1	1.382623E+007	-97.7506	9.223497E-009	0.0034656	6
	33	59	505.5147	1390402	-1.252313E+007	1	1.260008E+007	-83.66458	2.228224E-009	0.0035269	5
	34	60	397.9953	-991535	-1.482612E+007	1	1.485924E+007	-93.82611	-4.921926E-011	0.0037372	5
	35	62	315.5048	9.657488E+006	-2.456317E+007	1	2.63935E+007	-68.53677	5.248351E-010	0.0037338	5
	36	63	252.4038	936203.7	-2.267398E+007	1	2.26933E+007	-87.63561	1.073299E-009	0.0037282	5
	37	65	198.6229	5635532	-2.917656E+007	1	2.971583E+007	-79.06779	-1.817459E-010	0.0037259	5
	38	67	158.3615	1.205152E+007	-2.581321E+007	1	2.84879E+007	-64.97334	-1.829636E-010	0.0037253	5
	39	69	125.558	2.52917E+007	-2.848872E+007	1	3.809564E+007	-48.40199	-1.015999E-010	0.0037259	4
	40	70	100.4464	1.617829E+007	-3.718742E+007	1	4.055417E+007	-66.48868	9.968545E-012	0.0037261	4
	41	72	79.00281	1.45297E+007	-9.625107E+006	1	1.742856E+007	-33.52223	-3.036979E-010	0.0037274	4
	42	74	63.3446	2055747	3062474	1	3688475	56.12772	-5.087422E-010	0.0037237	4
	43	76	49.86702	2.257508E+007	2.320817E+007	1	3.237674E+007	45.79223	-6.855928E-011	0.003722	4
	44	77	39.72458	-6890408	-2.403586E+007	1	2.500401E+007	-105.9961	3.739402E-010	0.0037278	4
	45	79	31.6723	-2.770975E+007	-8778081	1	2.90669E+007	-162.4225	4.086791E-010	0.0037231	4
	46	80	24.93351	5.184268E+007	-4.888438E+007	1	7.12555E+007	-43.31773	1.646602E-010	0.003721	4
	47	82	19.86229	3.711983E+007	-2075226	1	3.717779E+007	-3.199855	4.459305E-010	0.0037191	5
	48	84	15.83615	-7449096	3078627	1	8060209	157.5452	-2.061376E-009	0.003733	4
	49	85	12.40079	8980327	-7869524	1	1.194051E+007	-41.22831	1.42726E-009	0.0037222	5
	50	87	9.93114	-4.340952E+007	-6.538272E+007	1	7.848113E+007	-123.5814	-1.841737E-010	0.0037232	4
	51	89	7.944915	3.890917E+007	-6.497028E+007	1	7.573018E+007	-59.0836	-1.109438E-010	0.0037241	5
	52	92	6.317385	4.518204E+008	-3.599234E+008	1	5.77656E+008	-38.54108	5.814212E-011	0.003721	5
	53	95	5.008013	2.419561E+008	5.088297E+007	1	2.472485E+008	11.87615	7.97066E-011	0.0037222	4
	54	98	3.945707	5.63124E+008	-3.635497E+008	1	6.702813E+008	-32.84606	4.221128E-011	0.0037304	4
	55	101	3.158693	2.209035E+008	-1.553993E+008	1	2.700876E+008	-35.12529	8.000686E-011	0.0037131	5
	56	108	2.504006	2.08053E+009	-7.86094E+008	1	2.224084E+009	-20.69824	5.745587E-011	0.0037212	3
	57	112	1.998082	2.485815E+009	-1.386699E+009	1	2.846438E+009	-29.15474	5.708951E-011	0.003691	3
	58	118	1.584686	2.283985E+009	-6.861409E+008	1	2.384822E+009	-16.721	5.716761E-011	0.0037044	3
	59	124	1.266892	2.425818E+010	-1.057773E+010	1	2.646408E+010	-23.55951	-1.684465E-012	0.0036873	2
	60	131	0.999041	2.422363E+010	-8.354088E+009	1	2.562372E+010	-19.02796	-1.830022E-012	0.0037627	2
