EXPLAIN
TAG	EISPOT
TITLE	LABEL	Potentiostatic EIS	Test &Identifier
DATE	LABEL	11/12/2019	Date
TIME	LABEL	23:20:26	Time
NOTES	NOTES	3	&Notes...
	
	
	
PSTAT	PSTAT	REF600-11020	Potentiostat
VDC	POTEN	0.00000E+000	T	DC &Voltage (V)
FREQINIT	QUANT	1.00000E+006	Initial Fre&q. (Hz)
FREQFINAL	QUANT	1.00000E+000	Final Fre&q. (Hz)
PTSPERDEC	QUANT	1.00000E+001	Points/&decade
VAC	QUANT	2.50000E+001	AC &Voltage (mV rms)
AREA	QUANT	1.00000E-002	&Area (cm^2)
CONDIT	TWOPARAM	T	5.00000E+000	0.00000E+000	Conditionin&g	Time(s)	E(V)
DELAY	TWOPARAM	T	5.00000E+000	0.00000E+000	Init. De&lay	Time(s)	Stab.(mV/s)
SPEED	SELECTOR	1	&Optimize for:
ZGUESS	QUANT	1.00000E+005	E&stimated Z (ohms)
OCVCURVE	TABLE	19
	Pt	T	Vf	Vm	Ach	Over
	#	s	V vs. Ref.	V	V	bits
	0	0.258333	1.05408E-002	1.05408E-002	5.23200E-004	...........
	1	0.516667	1.05525E-002	1.11560E-002	5.17433E-004	...........
	2	0.775	1.06159E-002	1.12777E-002	5.23100E-004	...........
	3	1.03333	1.07458E-002	1.03462E-002	5.23533E-004	...........
	4	1.29167	1.08507E-002	1.03209E-002	5.22766E-004	...........
	5	1.55	1.08132E-002	1.02700E-002	5.21533E-004	...........
	6	1.80833	1.06454E-002	1.02406E-002	5.14033E-004	...........
	7	2.06667	1.04538E-002	1.00384E-002	5.17900E-004	...........
	8	2.325	1.02983E-002	9.79438E-003	5.21433E-004	...........
	9	2.58333	1.01777E-002	1.05126E-002	5.19500E-004	...........
	10	2.84167	1.01186E-002	1.06407E-002	5.12067E-004	...........
	11	3.1	1.01635E-002	1.01351E-002	5.15466E-004	...........
	12	3.35833	1.02702E-002	1.04599E-002	5.17800E-004	...........
	13	3.61667	1.03405E-002	9.92992E-003	5.15633E-004	...........
	14	3.875	1.03561E-002	1.15853E-002	5.16066E-004	...........
	15	4.13333	1.04181E-002	1.10884E-002	5.17933E-004	...........
	16	4.39167	1.06051E-002	1.08612E-002	5.16966E-004	...........
	17	4.65	1.08308E-002	1.08597E-002	5.17000E-004	...........
	18	4.90833	1.09551E-002	1.08180E-002	5.17233E-004	...........
EOC	QUANT	0.0109551	Open Circuit (V)
PSTATMODEL	IQUANT	4	Pstat Model
PSTATSECTION	LABEL	REF600-11020	Pstat Section
PSTATSERIALNO	LABEL	11020	Pstat Serial Number
CTRLMODE	IQUANT	1	Control Mode
IESTAB	IQUANT	0	I/E Stability
CASPEED	IQUANT	1	Control Amp Speed
CONVENTION	IQUANT	1	Current Convention
ICHRANGE	IQUANT	2	Ich Range
ICHRANGEMODE	TOGGLE	F	Ich Auto Range
ICHOFFSETENABLE	TOGGLE	T	Ich Offset Enable
ICHOFFSET	QUANT	0	Ich Offset (V)
ICHFILTER	IQUANT	3	Ich Filter
VCHRANGE	IQUANT	2	Vch Range
VCHRANGEMODE	TOGGLE	F	Vch Auto Range
VCHOFFSETENABLE	TOGGLE	T	Vch Offset Enable
VCHOFFSET	QUANT	0	Vch Offset (V)
VCHFILTER	IQUANT	3	Vch Filter
ACHRANGE	IQUANT	2	Ach Range
ACHOFFSETENABLE	TOGGLE	F	Ach Offset Enable
ACHOFFSET	QUANT	0	Ach Offset (V)
ACHFILTER	IQUANT	3	Ach Filter
IERANGELOWERLIMIT	IQUANT	1	I/E Range Lower Limit
IERANGEMODE	TOGGLE	F	I/E AutoRange
IERANGE	IQUANT	5	I/E Range
POSFEEDENABLE	TOGGLE	F	Positive Feedback IR Comp
POSFEEDRESISTANCE	QUANT	0	Positive Feedback Resistance (ohm)
ACHSELECT	IQUANT	0	Ach Select
CABLEID	IQUANT	14	Cable ID
DCCALDATE	LABEL	8/19/2019	DC Calibration Date
ACCALDATE	LABEL	8/19/2019	AC Calibration Date
THERMOSELECT	IQUANT	1	Thermo Select
FRAMEWORKVERSION	QUANT	6.33	Framework Version
INSTRUMENTVERSION	LABEL	3.50	Instrument Version
ZCURVE	TABLE
	Pt	Time	Freq	Zreal	Zimag	Zsig	Zmod	Zphz	Idc	Vdc	IERange
	#	s	Hz	ohm	ohm	V	ohm	°	A	V	#
	0	2	1000078	2189.274	-1807.274	1	2838.865	-39.54011	-2.713715E-006	0.0137117	8
	1	3	794390.6	2583.741	-1769.276	1	3131.462	-34.40229	5.665443E-006	0.0129154	8
	2	5	630984.4	2909.78	-1709.636	1	3374.859	-30.4363	-2.968592E-006	0.012541	8
	3	6	501234.4	3205.1	-1617.364	1	3590.06	-26.77652	2.56188E-007	0.0123722	8
	4	7	398109.4	3471.542	-1494.164	1	3779.436	-23.28722	-2.082721E-006	0.0127584	8
	5	9	316265.6	3680.987	-1378.391	1	3930.601	-20.52903	-2.28812E-006	0.013049	8
	6	10	251203.1	3856.14	-1257.952	1	4056.139	-18.06739	-6.919232E-007	0.0129512	8
	7	11	199546.9	4001.041	-1161.733	1	4166.287	-16.19106	7.111549E-007	0.0128846	8
	8	13	158578.1	4153.855	-1072.028	1	4289.96	-14.47114	6.163314E-006	0.0118763	8
	9	14	125953.1	4284.219	-969.181	1	4392.476	-12.74696	-1.458199E-006	0.0162236	7
	10	16	100078.1	4370.415	-934.0932	1	4469.123	-12.06437	-5.805284E-007	0.0140099	7
	11	17	79453.13	4466.236	-923.2028	1	4560.655	-11.67896	-1.144699E-006	0.0135302	7
	12	18	63140.62	4559.684	-931.694	1	4653.898	-11.54845	-2.908998E-007	0.0116994	7
	13	20	50203.12	4651.949	-955.848	1	4749.134	-11.61111	-9.864071E-007	0.0129819	7
	14	21	39890.62	4759.25	-1001.477	1	4863.478	-11.88324	9.255269E-007	0.0109021	7
	15	22	31640.63	4855.813	-1063.301	1	4970.868	-12.35139	-1.150017E-006	0.0138602	7
	16	24	25171.88	4971.152	-1147.146	1	5101.793	-12.99415	-2.690765E-007	0.0137674	7
	17	25	20015.62	5098.338	-1248.676	1	5249.023	-13.76188	5.802408E-007	0.0126875	7
	18	27	15890.62	5226.635	-1375.043	1	5404.485	-14.7396	-5.800345E-007	0.0139992	7
	19	28	12609.37	5374.822	-1525.479	1	5587.11	-15.84498	-1.029368E-006	0.0140194	7
	20	29	10078.13	5568.528	-1691.882	1	5819.877	-16.90032	7.91743E-007	0.0122798	7
	21	31	8015.625	5731.194	-1909.345	1	6040.876	-18.42547	9.257128E-007	0.0109024	7
	22	32	6328.125	5939.929	-2157.979	1	6319.781	-19.96611	1.026138E-006	0.0111097	7
	23	34	5015.625	6176.808	-2446.736	1	6643.754	-21.60933	1.025798E-006	0.0111075	7
	24	35	3984.375	6429.941	-2774.82	1	7003.125	-23.34246	-5.805721E-007	0.013997	7
	25	37	3170.956	6739.323	-3156.335	1	7441.836	-25.09586	-2.911483E-007	0.0116986	7
	26	38	2527.573	7092.159	-3592.476	1	7950.132	-26.86413	9.628307E-007	0.0118149	7
	27	40	1976.103	7526.298	-4115.938	1	8578.234	-28.67311	-5.76689E-007	0.0139937	7
	28	41	1577.524	7988.58	-4686.662	1	9261.868	-30.39888	1.041272E-006	0.0114131	7
	29	42	1265.625	8499.496	-5289.512	1	10011.01	-31.89534	1.024385E-007	0.0111931	7
	30	44	998.264	9095.067	-5990.56	1	10890.69	-33.37131	-1.870055E-007	0.0139815	6
	31	45	796.875	9721.03	-6760.51	1	11840.73	-34.81676	1.620985E-007	0.0111617	6
	32	46	627.7902	10404.76	-7698.21	1	12943	-36.49678	1.696737E-007	0.0105858	6
	33	48	505.5147	11043.64	-8676.537	1	14044.37	-38.15526	-4.559609E-008	0.0111306	6
	34	49	397.9953	11765.56	-9985.75	1	15431.9	-40.32219	1.047304E-009	0.0124558	6
	35	51	315.5048	12469.45	-11540.08	1	16990.02	-42.78328	9.342238E-011	0.0124532	6
	36	52	252.4038	13153.34	-13394.17	1	18772.7	-45.51977	5.345602E-010	0.0124424	6
	37	53	198.6229	13917.16	-15886.9	1	21120.63	-48.78117	2.589337E-010	0.0124517	6
	38	55	158.3615	14690.11	-18865.99	1	23910.77	-52.09368	3.238052E-010	0.0124462	6
	39	56	125.558	15570.9	-22676.07	1	27507.4	-55.52392	-6.763416E-011	0.0124482	6
	40	58	100.4464	16583.26	-27282.21	1	31926.84	-58.70702	9.499747E-010	0.0124411	6
	41	59	79.00281	17868.11	-33452.38	1	37925.34	-61.89174	9.06705E-010	0.0124403	6
	42	60	63.3446	19401.35	-40010.97	1	44466.73	-64.13123	4.164788E-011	0.0124464	6
	43	62	49.86702	21777.06	-49836.46	1	54386.71	-66.3961	-1.198604E-010	0.0124386	6
	44	63	39.72458	24223.6	-60600.53	1	65262.6	-68.21213	6.144129E-010	0.0124442	6
	45	65	31.6723	27700.43	-73664.37	1	78700.4	-69.39194	-2.341446E-010	0.0124373	6
	46	66	24.93351	32490.66	-90883.73	1	96516.8	-70.32819	3.265982E-010	0.0124401	6
	47	67	19.86229	38491.48	-110412.6	1	116929.6	-70.78069	1.033384E-011	0.0124499	5
	48	69	15.83615	46847.71	-133781.7	1	141747.2	-70.70076	4.062823E-010	0.0124518	5
	49	70	12.40079	59154.61	-163510.6	1	173882.1	-70.11097	-7.673048E-010	0.0124547	5
	50	72	9.93114	71521.62	-195669.3	1	208331	-69.92148	4.527947E-010	0.0124542	5
	51	73	7.944915	88942.42	-233654	1	250009.9	-69.16023	-3.789145E-010	0.012446	5
	52	75	6.317385	111530.9	-279016.9	1	300482.2	-68.21203	3.588246E-010	0.012448	5
	53	77	5.008013	141319.3	-331922.2	1	360754	-66.93761	1.668869E-010	0.0124524	5
	54	80	3.945707	179270.8	-393762.1	1	432650.7	-65.52132	2.396512E-010	0.0124529	5
	55	82	3.158693	223652.9	-458600.8	1	510230.6	-64.00219	-1.884754E-010	0.012443	5
	56	86	2.504006	279312.3	-532957.2	1	601713.1	-62.34186	2.894688E-010	0.0124545	5
	57	88	1.998082	343288.4	-611292.2	1	701088.5	-60.68238	1.901033E-010	0.0124547	5
	58	92	1.584686	421768.3	-698372.1	1	815850.6	-58.87094	-2.566512E-011	0.0123965	5
	59	95	1.266892	504710.1	-789417.6	1	936969.9	-57.40739	1.551786E-010	0.0124222	5
	60	100	0.999041	605215.9	-896909.5	1	1082004	-55.98934	-1.710719E-010	0.012466	4
