EXPLAIN
TAG	EISPOT
TITLE	LABEL	Potentiostatic IDE	Test &Identifier
DATE	LABEL	9/4/2019	Date
TIME	LABEL	12:57:32	Time
NOTES	NOTES	1	&Notes...
	
PSTAT	PSTAT	REF600-11020	Potentiostat
VDC	POTEN	0.00000E+000	T	DC &Voltage (V)
FREQINIT	QUANT	1.00000E+006	Initial Fre&q. (Hz)
FREQFINAL	QUANT	1.00000E+000	Final Fre&q. (Hz)
PTSPERDEC	QUANT	1.00000E+001	Points/&decade
VAC	QUANT	2.50000E+001	AC &Voltage (mV rms)
AREA	QUANT	1.00000E-002	&Area (cm^2)
CONDIT	TWOPARAM	T	5.00000E+000	0.00000E+000	Conditionin&g	Time(s)	E(V)
DELAY	TWOPARAM	T	5.00000E+000	0.00000E+000	Init. De&lay	Time(s)	Stab.(mV/s)
SPEED	SELECTOR	1	&Optimize for:
ZGUESS	QUANT	1.00000E+007	E&stimated Z (ohms)
OCVCURVE	TABLE	19
	Pt	T	Vf	Vm	Ach	Over
	#	s	V vs. Ref.	V	V	bits
	0	0.258333	6.01735E-002	6.01735E-002	5.54466E-004	...........
	1	0.516667	6.01701E-002	5.99936E-002	5.44266E-004	...........
	2	0.775	6.01511E-002	5.99354E-002	5.49699E-004	...........
	3	1.03333	6.01063E-002	5.99673E-002	5.50366E-004	...........
	4	1.29167	6.00483E-002	6.00564E-002	5.44599E-004	...........
	5	1.55	6.00100E-002	6.01718E-002	5.45266E-004	...........
	6	1.80833	6.00181E-002	6.03307E-002	5.54799E-004	...........
	7	2.06667	6.00795E-002	6.05029E-002	5.47733E-004	...........
	8	2.325	6.01874E-002	6.06903E-002	5.46466E-004	...........
	9	2.58333	6.03302E-002	6.08738E-002	5.48699E-004	...........
	10	2.84167	6.04962E-002	6.10769E-002	5.54399E-004	...........
	11	3.1	6.06771E-002	6.12999E-002	5.49833E-004	...........
	12	3.35833	6.08732E-002	6.17225E-002	5.56099E-004	...........
	13	3.61667	6.11044E-002	6.23674E-002	5.54366E-004	...........
	14	3.875	6.14085E-002	6.28642E-002	5.55833E-004	...........
	15	4.13333	6.18300E-002	6.44720E-002	5.53399E-004	...........
	16	4.39167	6.24041E-002	6.42807E-002	5.59432E-004	...........
	17	4.65	6.30876E-002	6.45688E-002	5.44066E-004	...........
	18	4.90833	6.37147E-002	6.38687E-002	5.51799E-004	...........
EOC	QUANT	0.0637147	Open Circuit (V)
PSTATMODEL	IQUANT	4	Pstat Model
PSTATSECTION	LABEL	REF600-11020	Pstat Section
PSTATSERIALNO	LABEL	11020	Pstat Serial Number
CTRLMODE	IQUANT	1	Control Mode
IESTAB	IQUANT	0	I/E Stability
CASPEED	IQUANT	1	Control Amp Speed
CONVENTION	IQUANT	1	Current Convention
ICHRANGE	IQUANT	2	Ich Range
ICHRANGEMODE	TOGGLE	F	Ich Auto Range
ICHOFFSETENABLE	TOGGLE	T	Ich Offset Enable
ICHOFFSET	QUANT	0	Ich Offset (V)
ICHFILTER	IQUANT	3	Ich Filter
VCHRANGE	IQUANT	2	Vch Range
VCHRANGEMODE	TOGGLE	F	Vch Auto Range
VCHOFFSETENABLE	TOGGLE	T	Vch Offset Enable
VCHOFFSET	QUANT	0	Vch Offset (V)
VCHFILTER	IQUANT	3	Vch Filter
ACHRANGE	IQUANT	2	Ach Range
ACHOFFSETENABLE	TOGGLE	F	Ach Offset Enable
ACHOFFSET	QUANT	0	Ach Offset (V)
ACHFILTER	IQUANT	3	Ach Filter
IERANGELOWERLIMIT	IQUANT	1	I/E Range Lower Limit
IERANGEMODE	TOGGLE	F	I/E AutoRange
IERANGE	IQUANT	4	I/E Range
POSFEEDENABLE	TOGGLE	F	Positive Feedback IR Comp
POSFEEDRESISTANCE	QUANT	0	Positive Feedback Resistance (ohm)
ACHSELECT	IQUANT	0	Ach Select
CABLEID	IQUANT	14	Cable ID
DCCALDATE	LABEL	8/19/2019	DC Calibration Date
ACCALDATE	LABEL	8/19/2019	AC Calibration Date
THERMOSELECT	IQUANT	1	Thermo Select
FRAMEWORKVERSION	QUANT	6.33	Framework Version
INSTRUMENTVERSION	LABEL	3.50	Instrument Version
ZCURVE	TABLE
	Pt	Time	Freq	Zreal	Zimag	Zsig	Zmod	Zphz	Idc	Vdc	IERange
	#	s	Hz	ohm	ohm	V	ohm	°	A	V	#
	0	2	1000078	2392.122	-2236.784	1	3274.973	-43.07797	1.245889E-005	0.0646563	8
	1	3	794390.6	2826.334	-2150.527	1	3551.468	-37.26711	8.258199E-006	0.065338	8
	2	5	630984.4	3228.234	-2037.554	1	3817.476	-32.25876	9.672744E-006	0.0653431	8
	3	6	501234.4	3572.724	-1896.285	1	4044.781	-27.95789	9.386894E-006	0.0655804	8
	4	8	398109.4	3870.149	-1740.044	1	4243.325	-24.20899	1.245296E-005	0.0645076	8
	5	10	316265.6	4115.01	-1587.856	1	4410.736	-21.10007	9.172315E-006	0.0651149	8
	6	11	251203.1	4287.618	-1438.228	1	4522.407	-18.54339	1.278885E-005	0.0643487	8
	7	13	199546.9	4431.626	-1352.966	1	4633.555	-16.97732	1.218937E-005	0.064497	8
	8	14	158578.1	4573.608	-1330.15	1	4763.107	-16.2161	1.057449E-005	0.0649329	8
	9	16	125953.1	4678.198	-1246.372	1	4841.382	-14.9183	6.00423E-007	0.0650241	7
	10	17	100078.1	4777.671	-1231.147	1	4933.748	-14.45005	9.715785E-007	0.0649858	7
	11	19	79453.13	4884.758	-1261.289	1	5044.969	-14.47806	9.178211E-007	0.0650562	7
	12	20	63140.62	4988.914	-1323.669	1	5161.527	-14.85947	9.366112E-007	0.0650707	7
	13	21	50203.12	5109.711	-1421.797	1	5303.834	-15.54943	9.170429E-007	0.0650549	7
	14	23	39890.62	5235.353	-1564.233	1	5464.041	-16.63524	9.222296E-007	0.0650412	7
	15	24	31640.63	5370.147	-1727.394	1	5641.132	-17.83122	9.107561E-007	0.0650646	7
	16	25	25171.88	5524.311	-1944.4	1	5856.509	-19.39061	9.481863E-007	0.0649926	7
	17	27	20015.62	5688.234	-2207.937	1	6101.721	-21.21416	9.155912E-007	0.0651398	7
	18	28	15890.62	5884.234	-2531.561	1	6405.702	-23.27872	9.46822E-007	0.0649964	7
	19	29	12609.37	6116.186	-2921.438	1	6778.092	-25.53179	9.718317E-007	0.0649739	7
	20	31	10078.13	6366.339	-3376.55	1	7206.342	-27.94038	9.197149E-007	0.065092	7
	21	32	8015.625	6650.709	-3912.605	1	7716.244	-30.46825	8.995948E-007	0.0651268	7
	22	33	6328.125	7014.522	-4583.6	1	8379.314	-33.16238	9.175961E-007	0.0650927	7
	23	34	5015.625	7417.895	-5368.364	1	9156.664	-35.89343	9.242443E-007	0.065115	7
	24	36	3984.375	7879.062	-6280.531	1	10075.95	-38.55893	9.166163E-007	0.0650909	7
	25	37	3170.956	8437.362	-7364.626	1	11199.41	-41.11637	1.000765E-006	0.0649633	7
	26	38	2527.573	9033.484	-8605.601	1	12476.39	-43.61041	9.325577E-007	0.0650623	7
	27	40	1976.103	9838.49	-10229.71	1	14193.06	-46.11681	8.686858E-008	0.0650425	6
	28	41	1577.524	10710.95	-11984.2	1	16073.13	-48.21106	8.882493E-008	0.0649903	6
	29	42	1265.625	11730.13	-14011.74	1	18273.61	-50.06513	8.991382E-008	0.0650063	6
	30	44	998.264	12962.37	-16566.61	1	21035.1	-51.95895	8.639746E-008	0.0650349	6
	31	45	796.875	14399.28	-19426.28	1	24180.98	-53.45317	9.321378E-008	0.0648857	6
	32	46	627.7902	16144.07	-23006.21	1	28105.46	-54.94163	9.744716E-008	0.0649359	6
	33	48	505.5147	18076.54	-26780.48	1	32310.3	-55.98106	8.893826E-008	0.0649728	6
	34	49	397.9953	20578.58	-31748.35	1	37834.32	-57.04958	9.345381E-008	0.06463	6
	35	51	315.5048	23455.02	-37394.18	1	44141.39	-57.90254	9.339868E-008	0.0646265	6
	36	52	252.4038	26727.39	-43747.59	1	51266.02	-58.57735	9.299961E-008	0.0646277	6
	37	53	198.6229	30887.54	-51759.25	1	60274.87	-59.17319	9.337543E-008	0.0646221	6
	38	55	158.3615	35557.77	-60586.92	1	70250.48	-59.59181	9.325458E-008	0.0646231	6
	39	56	125.558	41166.93	-71199.55	1	82244.09	-59.96389	9.315121E-008	0.0646219	6
	40	57	100.4464	47512.77	-82894.99	1	95546	-60.18004	9.285613E-008	0.0646246	6
	41	59	79.00281	55718.7	-98149.1	1	112862	-60.41667	9.279297E-008	0.0646209	6
	42	60	63.3446	64019.19	-111845	1	128871.1	-60.21351	9.437777E-009	0.0646312	5
	43	61	49.86702	74256.01	-135142.1	1	154199	-61.2127	9.418648E-009	0.0646279	5
	44	63	39.72458	86348.18	-156238.5	1	178511.9	-61.07194	9.414411E-009	0.0646353	5
	45	64	31.6723	99740.3	-182251.2	1	207758.6	-61.30949	9.482513E-009	0.0646352	5
	46	66	24.93351	116475.6	-215431.4	1	244902.6	-61.60159	9.495871E-009	0.0646314	5
	47	67	19.86229	133642	-252018.7	1	285260.7	-62.06361	9.620337E-009	0.064639	5
	48	68	15.83615	154573.1	-298583.1	1	336221.3	-62.62991	9.115513E-009	0.0646254	5
	49	70	12.40079	178956.5	-351864.4	1	394758.2	-63.04233	9.318385E-009	0.0646334	5
	50	71	9.93114	207297.3	-414746.5	1	463666.8	-63.44335	9.488653E-009	0.0646353	5
	51	73	7.944915	239090.9	-486277.4	1	541876.5	-63.81776	9.439599E-009	0.0646283	5
	52	74	6.317385	276642.7	-575952.1	1	638945.9	-64.34399	9.456905E-009	0.0646235	5
	53	76	5.008013	322544.2	-686015.6	1	758058.2	-64.81848	9.316772E-008	0.0646242	6
	54	79	3.945707	381089.9	-818141.8	1	902543.9	-65.02393	9.421014E-009	0.0646382	5
	55	82	3.158693	445832.8	-968255	1	1065967	-65.27631	9.377171E-009	0.0646232	5
	56	85	2.504006	531267.8	-1150472	1	1267214	-65.21333	9.380889E-009	0.064915	5
	57	88	1.998082	630706.7	-1358711	1	1497961	-65.09952	9.52354E-010	0.0649548	4
	58	91	1.584686	757252.3	-1614552	1	1783314	-64.87263	1.004191E-009	0.0649664	4
	59	95	1.266892	904725.1	-1895707	1	2100531	-64.48721	9.293084E-010	0.0649371	4
	60	99	0.999041	1098938	-2247491	1	2501775	-63.94311	1.03392E-009	0.0649272	4
