EXPLAIN
TAG	EISPOT
TITLE	LABEL	Potentiostatic EIS	Test &Identifier
DATE	LABEL	11/22/2019	Date
TIME	LABEL	0:15:29	Time
NOTES	NOTES	4	&Notes...
	
	
	
	
PSTAT	PSTAT	REF600-11020	Potentiostat
VDC	POTEN	0.00000E+000	T	DC &Voltage (V)
FREQINIT	QUANT	1.00000E+006	Initial Fre&q. (Hz)
FREQFINAL	QUANT	1.00000E+000	Final Fre&q. (Hz)
PTSPERDEC	QUANT	1.00000E+001	Points/&decade
VAC	QUANT	2.50000E+001	AC &Voltage (mV rms)
AREA	QUANT	1.00000E-002	&Area (cm^2)
CONDIT	TWOPARAM	T	5.00000E+000	0.00000E+000	Conditionin&g	Time(s)	E(V)
DELAY	TWOPARAM	T	5.00000E+000	0.00000E+000	Init. De&lay	Time(s)	Stab.(mV/s)
SPEED	SELECTOR	1	&Optimize for:
ZGUESS	QUANT	1.00000E+005	E&stimated Z (ohms)
OCVCURVE	TABLE	19
	Pt	T	Vf	Vm	Ach	Over
	#	s	V vs. Ref.	V	V	bits
	0	0.258333	5.69110E-003	5.69110E-003	5.52666E-004	...........
	1	0.516667	5.68936E-003	5.59994E-003	5.40799E-004	...........
	2	0.775	5.67887E-003	5.52407E-003	5.43733E-004	...........
	3	1.03333	5.65021E-003	5.47011E-003	5.42866E-004	...........
	4	1.29167	5.60190E-003	5.42252E-003	5.48166E-004	...........
	5	1.55	5.54335E-003	5.39787E-003	5.48199E-004	...........
	6	1.80833	5.48670E-003	5.36415E-003	5.49099E-004	...........
	7	2.06667	5.43914E-003	5.35049E-003	5.38899E-004	...........
	8	2.325	5.40201E-003	5.32900E-003	5.44666E-004	...........
	9	2.58333	5.37386E-003	5.33242E-003	5.39566E-004	...........
	10	2.84167	5.35303E-003	5.30864E-003	5.43066E-004	...........
	11	3.1	5.33765E-003	5.30516E-003	5.50833E-004	...........
	12	3.35833	5.32541E-003	5.29440E-003	5.42199E-004	...........
	13	3.61667	5.31486E-003	5.29716E-003	5.46866E-004	...........
	14	3.875	5.30622E-003	5.29477E-003	5.48566E-004	...........
	15	4.13333	5.30026E-003	5.29610E-003	5.47233E-004	...........
	16	4.39167	5.29699E-003	5.29410E-003	5.50666E-004	...........
	17	4.65	5.29565E-003	5.29962E-003	5.52466E-004	...........
	18	4.90833	5.29566E-003	5.30376E-003	5.52432E-004	...........
EOC	QUANT	0.0052957	Open Circuit (V)
PSTATMODEL	IQUANT	4	Pstat Model
PSTATSECTION	LABEL	REF600-11020	Pstat Section
PSTATSERIALNO	LABEL	11020	Pstat Serial Number
CTRLMODE	IQUANT	1	Control Mode
IESTAB	IQUANT	0	I/E Stability
CASPEED	IQUANT	1	Control Amp Speed
CONVENTION	IQUANT	1	Current Convention
ICHRANGE	IQUANT	2	Ich Range
ICHRANGEMODE	TOGGLE	F	Ich Auto Range
ICHOFFSETENABLE	TOGGLE	T	Ich Offset Enable
ICHOFFSET	QUANT	0	Ich Offset (V)
ICHFILTER	IQUANT	3	Ich Filter
VCHRANGE	IQUANT	2	Vch Range
VCHRANGEMODE	TOGGLE	F	Vch Auto Range
VCHOFFSETENABLE	TOGGLE	T	Vch Offset Enable
VCHOFFSET	QUANT	0	Vch Offset (V)
VCHFILTER	IQUANT	3	Vch Filter
ACHRANGE	IQUANT	2	Ach Range
ACHOFFSETENABLE	TOGGLE	F	Ach Offset Enable
ACHOFFSET	QUANT	0	Ach Offset (V)
ACHFILTER	IQUANT	3	Ach Filter
IERANGELOWERLIMIT	IQUANT	1	I/E Range Lower Limit
IERANGEMODE	TOGGLE	F	I/E AutoRange
IERANGE	IQUANT	4	I/E Range
POSFEEDENABLE	TOGGLE	F	Positive Feedback IR Comp
POSFEEDRESISTANCE	QUANT	0	Positive Feedback Resistance (ohm)
ACHSELECT	IQUANT	0	Ach Select
CABLEID	IQUANT	14	Cable ID
DCCALDATE	LABEL	8/19/2019	DC Calibration Date
ACCALDATE	LABEL	8/19/2019	AC Calibration Date
THERMOSELECT	IQUANT	1	Thermo Select
FRAMEWORKVERSION	QUANT	6.33	Framework Version
INSTRUMENTVERSION	LABEL	3.50	Instrument Version
ZCURVE	TABLE
	Pt	Time	Freq	Zreal	Zimag	Zsig	Zmod	Zphz	Idc	Vdc	IERange
	#	s	Hz	ohm	ohm	V	ohm	°	A	V	#
	0	1	1000078	2185.861	-1528.664	1	2667.358	-34.96671	-1.957669E-006	0.0070382	8
	1	3	794390.6	2492.625	-1455.306	1	2886.364	-30.2783	5.843329E-006	0.0070958	8
	2	4	630984.4	2762.439	-1347.739	1	3073.674	-26.00683	5.74891E-006	0.0056809	8
	3	5	501234.4	2990.832	-1220.053	1	3230.11	-22.19207	-3.24521E-006	0.007089	8
	4	7	398109.4	3166.723	-1076.629	1	3344.737	-18.77711	6.586945E-006	0.0056626	8
	5	8	316265.6	3316.428	-939.3905	1	3446.904	-15.81497	1.608547E-006	0.0070769	8
	6	9	251203.1	3430.706	-809.6142	1	3524.942	-13.27832	-2.901697E-007	0.0065154	8
	7	11	199546.9	3512.962	-706.9224	1	3583.384	-11.37782	-1.257299E-006	0.0071786	8
	8	12	158578.1	3566.981	-613.668	1	3619.384	-9.76168	3.887018E-006	0.0067594	8
	9	13	125953.1	3652.583	-506.2208	1	3687.496	-7.890504	1.996082E-006	0.0068163	7
	10	15	100078.1	3680.018	-442.4961	1	3706.526	-6.856494	1.011209E-006	0.0060396	7
	11	16	79453.13	3715.644	-409.2041	1	3738.109	-6.28466	1.133522E-007	0.0053985	7
	12	17	63140.62	3748.576	-388.335	1	3768.637	-5.914478	8.349396E-007	0.0065194	7
	13	19	50203.12	3776.633	-371.5627	1	3794.867	-5.618941	-1.215279E-006	0.0078425	7
	14	20	39890.62	3808.112	-367.4745	1	3825.801	-5.511852	-1.044938E-006	0.0072759	7
	15	21	31640.63	3841.989	-374.3189	1	3860.18	-5.564675	1.081828E-006	0.005294	7
	16	23	25171.88	3867.638	-387.9586	1	3887.047	-5.728117	-1.046045E-006	0.0072746	7
	17	24	20015.62	3902.971	-416.1775	1	3925.097	-6.086505	8.350614E-007	0.0065145	7
	18	25	15890.62	3929.156	-447.1114	1	3954.514	-6.491947	-1.218951E-006	0.0081979	7
	19	27	12609.37	3964.906	-496.055	1	3995.817	-7.131301	8.360866E-007	0.0065112	7
	20	28	10078.13	3994.201	-555.9886	1	4032.712	-7.924592	-6.147408E-007	0.0083273	7
	21	29	8015.625	4029.476	-638.4189	1	4079.737	-9.00295	-1.215187E-006	0.0078316	7
	22	31	6328.125	4068.833	-740.5255	1	4135.672	-10.3149	-1.219741E-006	0.0081883	7
	23	32	5015.625	4111.504	-870.8857	1	4202.727	-11.95944	-8.889688E-007	0.0084114	7
	24	34	3984.375	4155.195	-1033.561	1	4281.81	-13.96824	-1.213797E-006	0.0078285	7
	25	35	3170.956	4211.64	-1232.105	1	4388.165	-16.30671	-7.284032E-007	0.0065824	7
	26	36	2527.573	4274.684	-1477.909	1	4522.957	-19.07207	1.150524E-007	0.0053781	7
	27	38	1976.103	4359.27	-1806.447	1	4718.738	-22.50873	1.082976E-006	0.0052776	7
	28	39	1577.524	4444.414	-2193.876	1	4956.401	-26.27212	6.147064E-007	0.0069359	7
	29	40	1265.625	4549.08	-2615.844	1	5247.549	-29.90007	-6.112106E-007	0.0083204	7
	30	42	998.264	4687.261	-3195.08	1	5672.649	-34.28036	8.343143E-007	0.0065048	7
	31	43	796.875	4846.611	-3859.387	1	6195.523	-38.53053	-7.281563E-007	0.006585	7
	32	44	627.7902	5047.594	-4718.836	1	6909.82	-43.07204	-7.343908E-007	0.0065879	7
	33	46	505.5147	5266.583	-5672.094	1	7740.126	-47.12305	6.187911E-007	0.0069344	7
	34	47	397.9953	5552.092	-6946.352	1	8892.555	-51.3653	3.597893E-009	0.0067692	7
	35	48	315.5048	5883.433	-8467.875	1	10311.14	-55.20864	1.088173E-009	0.0067039	6
	36	50	252.4038	6258.497	-10259.66	1	12017.88	-58.61638	7.59553E-010	0.0067092	6
	37	51	198.6229	6749.278	-12628.73	1	14319.13	-61.87825	9.088327E-010	0.0067081	6
	38	52	158.3615	7323.809	-15391.82	1	17045.42	-64.55373	7.825745E-011	0.006707	6
	39	54	125.558	8057.142	-18865.98	1	20514.45	-66.874	3.077912E-010	0.0067068	6
	40	55	100.4464	8976.034	-22977.8	1	24668.78	-68.66243	1.135955E-009	0.0066956	6
	41	57	79.00281	10168.44	-28349.32	1	30117.79	-70.26791	1.179392E-009	0.0067048	6
	42	58	63.3446	11557.1	-34629.95	1	36507.53	-71.54453	-2.015107E-010	0.0067056	6
	43	59	49.86702	13763.82	-42190.1	1	44378.46	-71.93195	2.598775E-010	0.0066937	6
	44	61	39.72458	16546.35	-51500.03	1	54092.84	-72.18841	5.38624E-010	0.0067064	6
	45	62	31.6723	19909.97	-62370.63	1	65471.38	-72.29586	8.653676E-010	0.0067081	6
	46	63	24.93351	24815.17	-76440.24	1	80367.3	-72.01476	1.337144E-011	0.006697	6
	47	65	19.86229	30568.16	-92220.62	1	97154.8	-71.6613	1.423285E-009	0.0066985	6
	48	66	15.83615	37307.38	-110165	1	116310.6	-71.29133	1.569063E-009	0.0067046	5
	49	67	12.40079	49018.1	-135272.5	1	143879.9	-70.08122	1.517705E-009	0.0066991	5
	50	69	9.93114	61170.3	-159449.1	1	170780	-69.01142	8.198904E-010	0.0066988	5
	51	70	7.944915	76070.34	-187571.6	1	202410	-67.92481	-5.196905E-010	0.0067078	5
	52	72	6.317385	95860.6	-222535.6	1	242304.2	-66.6953	3.722624E-010	0.0066877	5
	53	74	5.008013	120725.9	-262190.5	1	288649.6	-65.27625	5.674637E-011	0.0067016	5
	54	77	3.945707	151505.8	-307581.9	1	342871.2	-63.7765	1.667785E-010	0.0067128	5
	55	79	3.158693	185906.6	-355105.8	1	400825.9	-62.36685	-5.51727E-011	0.0067004	5
	56	83	2.504006	228335.7	-409904.9	1	469211.3	-60.88021	3.860714E-010	0.0067127	5
	57	85	1.998082	276349.4	-468661.8	1	544070.6	-59.474	3.382896E-010	0.0067291	5
	58	88	1.584686	333414.8	-533535.5	1	629146.7	-57.99808	1.431929E-010	0.0066633	5
	59	92	1.266892	394388	-605509.5	1	722622.8	-56.92249	2.433942E-010	0.0067247	5
	60	96	0.999041	468767.8	-689141.3	1	833462	-55.77568	-1.306477E-010	0.0066672	5
