EXPLAIN
TAG	EISPOT
TITLE	LABEL	Potentiostatic EIS	Test &Identifier
DATE	LABEL	10/31/2019	Date
TIME	LABEL	23:49:11	Time
NOTES	NOTES	1	&Notes...
	
PSTAT	PSTAT	REF600-11020	Potentiostat
VDC	POTEN	0.00000E+000	T	DC &Voltage (V)
FREQINIT	QUANT	1.00000E+006	Initial Fre&q. (Hz)
FREQFINAL	QUANT	1.00000E+000	Final Fre&q. (Hz)
PTSPERDEC	QUANT	1.00000E+001	Points/&decade
VAC	QUANT	2.50000E+001	AC &Voltage (mV rms)
AREA	QUANT	1.00000E-002	&Area (cm^2)
CONDIT	TWOPARAM	T	5.00000E+000	0.00000E+000	Conditionin&g	Time(s)	E(V)
DELAY	TWOPARAM	T	5.00000E+000	0.00000E+000	Init. De&lay	Time(s)	Stab.(mV/s)
SPEED	SELECTOR	0	&Optimize for:
ZGUESS	QUANT	1.00000E+005	E&stimated Z (ohms)
OCVCURVE	TABLE	19
	Pt	T	Vf	Vm	Ach	Over
	#	s	V vs. Ref.	V	V	bits
	0	0.258333	7.87732E-003	7.87732E-003	5.30666E-004	...........
	1	0.516667	7.87888E-003	7.95931E-003	5.25200E-004	...........
	2	0.775	7.89074E-003	8.15399E-003	5.23533E-004	...........
	3	1.03333	7.93089E-003	8.29847E-003	5.29166E-004	...........
	4	1.29167	8.01259E-003	8.38600E-003	5.27233E-004	...........
	5	1.55	8.12948E-003	8.59190E-003	5.27666E-004	...........
	6	1.80833	8.26818E-003	8.87009E-003	5.26200E-004	...........
	7	2.06667	8.42878E-003	9.06265E-003	5.29033E-004	...........
	8	2.325	8.61695E-003	9.29029E-003	5.38866E-004	...........
	9	2.58333	8.82696E-003	9.49308E-003	5.30133E-004	...........
	10	2.84167	9.04481E-003	9.66848E-003	5.22233E-004	...........
	11	3.1	9.25867E-003	9.86413E-003	5.33300E-004	...........
	12	3.35833	9.46278E-003	1.00449E-002	5.29766E-004	...........
	13	3.61667	9.65733E-003	1.02212E-002	5.27233E-004	...........
	14	3.875	9.84477E-003	1.03886E-002	5.29033E-004	...........
	15	4.13333	1.00261E-002	1.05431E-002	5.35466E-004	...........
	16	4.39167	1.01999E-002	1.06493E-002	5.34366E-004	...........
	17	4.65	1.03611E-002	1.07335E-002	5.21500E-004	...........
	18	4.90833	1.05037E-002	1.08501E-002	5.27000E-004	...........
EOC	QUANT	0.0105037	Open Circuit (V)
PSTATMODEL	IQUANT	4	Pstat Model
PSTATSECTION	LABEL	REF600-11020	Pstat Section
PSTATSERIALNO	LABEL	11020	Pstat Serial Number
CTRLMODE	IQUANT	1	Control Mode
IESTAB	IQUANT	0	I/E Stability
CASPEED	IQUANT	1	Control Amp Speed
CONVENTION	IQUANT	1	Current Convention
ICHRANGE	IQUANT	2	Ich Range
ICHRANGEMODE	TOGGLE	F	Ich Auto Range
ICHOFFSETENABLE	TOGGLE	T	Ich Offset Enable
ICHOFFSET	QUANT	0	Ich Offset (V)
ICHFILTER	IQUANT	3	Ich Filter
VCHRANGE	IQUANT	2	Vch Range
VCHRANGEMODE	TOGGLE	F	Vch Auto Range
VCHOFFSETENABLE	TOGGLE	T	Vch Offset Enable
VCHOFFSET	QUANT	0	Vch Offset (V)
VCHFILTER	IQUANT	3	Vch Filter
ACHRANGE	IQUANT	2	Ach Range
ACHOFFSETENABLE	TOGGLE	F	Ach Offset Enable
ACHOFFSET	QUANT	0	Ach Offset (V)
ACHFILTER	IQUANT	3	Ach Filter
IERANGELOWERLIMIT	IQUANT	1	I/E Range Lower Limit
IERANGEMODE	TOGGLE	F	I/E AutoRange
IERANGE	IQUANT	5	I/E Range
POSFEEDENABLE	TOGGLE	F	Positive Feedback IR Comp
POSFEEDRESISTANCE	QUANT	0	Positive Feedback Resistance (ohm)
ACHSELECT	IQUANT	0	Ach Select
CABLEID	IQUANT	14	Cable ID
DCCALDATE	LABEL	8/19/2019	DC Calibration Date
ACCALDATE	LABEL	8/19/2019	AC Calibration Date
THERMOSELECT	IQUANT	1	Thermo Select
FRAMEWORKVERSION	QUANT	6.33	Framework Version
INSTRUMENTVERSION	LABEL	3.50	Instrument Version
ZCURVE	TABLE
	Pt	Time	Freq	Zreal	Zimag	Zsig	Zmod	Zphz	Idc	Vdc	IERange
	#	s	Hz	ohm	ohm	V	ohm	°	A	V	#
	0	1	1000078	1987.018	-1226.105	1	2334.861	-31.67699	1.000135E-005	0.0116457	8
	1	2	794390.6	2224.274	-1170.046	1	2513.246	-27.74594	-4.407225E-006	0.0120549	8
	2	2	630984.4	2437.992	-1080.827	1	2666.832	-23.90899	8.729282E-007	0.0119222	8
	3	2	501234.4	2619.512	-969.692	1	2793.232	-20.31356	-5.205823E-006	0.0125884	8
	4	3	398109.4	2763.559	-845.4294	1	2889.984	-17.00995	-2.093346E-006	0.0120063	8
	5	3	316265.6	2874.2	-735.1548	1	2966.729	-14.34735	8.77757E-007	0.0124721	8
	6	3	251203.1	2957.345	-632.9197	1	3024.314	-12.07999	-1.990531E-006	0.0122054	8
	7	4	199546.9	3021.343	-540.8983	1	3069.379	-10.1499	-1.573643E-006	0.0118735	8
	8	4	158578.1	3083.063	-436.3557	1	3113.79	-8.055748	-7.713792E-008	0.011787	8
	9	4	125953.1	3128.061	-346.9206	1	3147.24	-6.328581	2.543884E-006	0.0066477	7
	10	5	100078.1	3141.576	-299.2719	1	3155.799	-5.441672	-2.76429E-007	0.0133298	7
	11	5	79453.13	3167.893	-266.8388	1	3179.111	-4.814787	1.040813E-006	0.0109578	7
	12	5	63140.62	3181.783	-244.3819	1	3191.155	-4.392069	-2.74321E-007	0.0133215	7
	13	6	50203.12	3196.051	-226.741	1	3204.084	-4.057999	-1.045087E-006	0.0135768	7
	14	6	39890.62	3214.138	-217.6654	1	3221.5	-3.874226	1.075029E-007	0.0107382	7
	15	6	31640.63	3224.615	-215.0792	1	3231.78	-3.815929	-1.150962E-006	0.013054	7
	16	6	25171.88	3240.712	-222.1046	1	3248.314	-3.920678	7.823683E-007	0.0118172	7
	17	7	20015.62	3247.038	-234.7384	1	3255.512	-4.134895	-1.036097E-006	0.0135565	7
	18	7	15890.62	3259.474	-255.3938	1	3269.465	-4.480216	-1.151845E-006	0.0130531	7
	19	7	12609.37	3273.269	-287.5624	1	3285.876	-5.020645	-1.03507E-006	0.0135507	7
	20	8	10078.13	3289.923	-336.3021	1	3307.067	-5.836609	3.723796E-007	0.0125123	7
	21	8	8015.625	3301.315	-385.7674	1	3323.778	-6.664937	-5.848727E-007	0.0135286	7
	22	8	6328.125	3316.623	-460.213	1	3348.4	-7.899889	-9.923594E-007	0.012509	7
	23	9	5015.625	3335.413	-553.1803	1	3380.975	-9.416822	-1.154896E-006	0.01305	7
	24	9	3984.375	3362.353	-671.458	1	3428.742	-11.29334	3.712373E-007	0.0125056	7
	25	9	3170.956	3391.025	-816.1404	1	3487.855	-13.53238	1.035231E-006	0.0109513	7
	26	10	2527.573	3423.616	-993.445	1	3564.839	-16.18137	1.033596E-006	0.0109522	7
	27	10	1976.103	3461.822	-1229.818	1	3673.78	-19.55766	6.866169E-008	0.0129179	7
	28	10	1577.524	3514.504	-1485.459	1	3815.538	-22.91209	3.720952E-007	0.0125038	7
	29	11	1265.625	3575.004	-1823.732	1	4013.309	-27.02768	4.559442E-007	0.0104531	7
	30	11	998.264	3659.338	-2258.088	1	4299.967	-31.67772	7.318403E-007	0.0103567	7
	31	11	796.875	3760.998	-2757.099	1	4663.335	-36.24426	4.562801E-007	0.0104539	7
	32	12	627.7902	3900.283	-3396.477	1	5171.873	-41.05027	-8.448851E-007	0.0135995	7
	33	12	505.5147	4068.363	-4114.487	1	5786.241	-45.32296	-9.890075E-007	0.0125061	7
	34	12	397.9953	4307.031	-5095.72	1	6672.097	-49.79466	2.630036E-009	0.0120451	7
	35	13	315.5048	4615.167	-6243.024	1	7763.705	-53.52627	-1.715434E-009	0.0120439	7
	36	13	252.4038	5004.408	-7573.834	1	9077.834	-56.54528	-6.479983E-010	0.0120435	7
	37	13	198.6229	5557.467	-9294.904	1	10829.62	-59.1246	-2.464973E-012	0.0119801	6
	38	14	158.3615	6240.849	-11243.31	1	12859.25	-60.96656	-3.474864E-010	0.011981	6
	39	14	125.558	7160.961	-13614.4	1	15382.82	-62.25633	2.119597E-010	0.0119769	6
	40	14	100.4464	8288.968	-16268.49	1	18258.45	-63.00068	-1.288883E-009	0.0119767	6
	41	14	79.00281	9860.87	-19581.29	1	21924.05	-63.2708	2.405063E-010	0.0119681	6
	42	15	63.3446	11769.12	-23358.66	1	26156.06	-63.25903	-3.812076E-010	0.0119666	6
	43	15	49.86702	14111.49	-27666.19	1	31057.24	-62.97558	-9.797813E-011	0.0119762	6
	44	16	39.72458	16823.84	-32249.91	1	36374.42	-62.45026	-4.177474E-010	0.0119811	6
	45	16	31.6723	19957	-37502.07	1	42481.61	-61.98	-3.557709E-010	0.0119677	6
	46	16	24.93351	23711.14	-43999.05	1	49981.34	-61.67971	4.248208E-010	0.0119654	6
	47	17	19.86229	27736.48	-51129.48	1	58168.17	-61.52126	2.183951E-009	0.0119822	6
	48	17	15.83615	32488.54	-59208.51	1	67536.3	-61.24581	-2.119724E-009	0.0119693	6
	49	17	12.40079	38078.78	-69772.2	1	79486.81	-61.37611	-2.280729E-009	0.0119808	6
	50	17	9.93114	43108.45	-81204.61	1	91937.63	-62.03786	1.059434E-009	0.0119672	6
	51	18	7.944915	49387.95	-94825.58	1	106916.1	-62.48817	2.425323E-010	0.0119704	5
	52	19	6.317385	56917.14	-111881.2	1	125526.7	-63.03626	-2.988417E-010	0.011978	5
	53	19	5.008013	65849.52	-132457.2	1	147922.5	-63.56628	-3.055624E-011	0.0119829	5
	54	20	3.945707	76905.55	-157827.4	1	175567.5	-64.02113	-4.914469E-010	0.0119722	5
	55	22	3.158693	89328.67	-185887.1	1	206236.8	-64.33323	-1.815946E-010	0.0119688	5
	56	23	2.504006	104574.2	-220649.8	1	244176.4	-64.64198	-1.19857E-010	0.0119715	5
	57	25	1.998082	122578.6	-260229.5	1	287654.2	-64.77767	-4.317513E-010	0.0119311	5
	58	26	1.584686	143536.2	-308731.9	1	340467.4	-65.06525	-3.644594E-010	0.0119319	5
	59	28	1.266892	167782.7	-362814.3	1	399731.5	-65.18192	-2.610522E-010	0.0119662	5
	60	31	0.999041	198754.5	-431388.8	1	474973.3	-65.26298	-2.399463E-010	0.0119937	5
