EXPLAIN
TAG	EISPOT
TITLE	LABEL	Potentiostatic EIS	Test &Identifier
DATE	LABEL	11/15/2019	Date
TIME	LABEL	12:52:51	Time
NOTES	NOTES	4	&Notes...
	
	
	
	
PSTAT	PSTAT	REF600-11020	Potentiostat
VDC	POTEN	0.00000E+000	T	DC &Voltage (V)
FREQINIT	QUANT	1.00000E+006	Initial Fre&q. (Hz)
FREQFINAL	QUANT	1.00000E+000	Final Fre&q. (Hz)
PTSPERDEC	QUANT	1.00000E+001	Points/&decade
VAC	QUANT	2.50000E+001	AC &Voltage (mV rms)
AREA	QUANT	1.00000E-002	&Area (cm^2)
CONDIT	TWOPARAM	T	5.00000E+000	0.00000E+000	Conditionin&g	Time(s)	E(V)
DELAY	TWOPARAM	T	5.00000E+000	0.00000E+000	Init. De&lay	Time(s)	Stab.(mV/s)
SPEED	SELECTOR	0	&Optimize for:
ZGUESS	QUANT	1.00000E+005	E&stimated Z (ohms)
OCVCURVE	TABLE	19
	Pt	T	Vf	Vm	Ach	Over
	#	s	V vs. Ref.	V	V	bits
	0	0.258333	7.37951E-003	7.37951E-003	5.92232E-004	...........
	1	0.516667	7.38334E-003	7.58002E-003	5.93399E-004	...........
	2	0.775	7.40445E-003	7.64396E-003	5.82432E-004	...........
	3	1.03333	7.45556E-003	7.67347E-003	5.81932E-004	...........
	4	1.29167	7.53217E-003	7.87618E-003	5.94199E-004	...........
	5	1.55	7.61975E-003	7.79109E-003	5.88699E-004	...........
	6	1.80833	7.70702E-003	8.00479E-003	5.86399E-004	...........
	7	2.06667	7.79087E-003	8.10563E-003	5.88465E-004	...........
	8	2.325	7.87622E-003	8.05112E-003	5.94565E-004	...........
	9	2.58333	7.96340E-003	8.29001E-003	5.87599E-004	...........
	10	2.84167	8.04786E-003	8.26469E-003	5.82332E-004	...........
	11	3.1	8.12962E-003	8.34424E-003	5.84832E-004	...........
	12	3.35833	8.21008E-003	8.56350E-003	5.93899E-004	...........
	13	3.61667	8.29209E-003	8.45448E-003	5.81732E-004	...........
	14	3.875	8.37591E-003	8.64160E-003	5.82099E-004	...........
	15	4.13333	8.45585E-003	8.69543E-003	5.80499E-004	...........
	16	4.39167	8.53063E-003	8.69767E-003	5.87099E-004	...........
	17	4.65	8.60404E-003	8.95152E-003	5.89232E-004	...........
	18	4.90833	8.68156E-003	8.90845E-003	5.81732E-004	...........
EOC	QUANT	0.0086816	Open Circuit (V)
PSTATMODEL	IQUANT	4	Pstat Model
PSTATSECTION	LABEL	REF600-11020	Pstat Section
PSTATSERIALNO	LABEL	11020	Pstat Serial Number
CTRLMODE	IQUANT	1	Control Mode
IESTAB	IQUANT	0	I/E Stability
CASPEED	IQUANT	1	Control Amp Speed
CONVENTION	IQUANT	1	Current Convention
ICHRANGE	IQUANT	2	Ich Range
ICHRANGEMODE	TOGGLE	F	Ich Auto Range
ICHOFFSETENABLE	TOGGLE	T	Ich Offset Enable
ICHOFFSET	QUANT	0	Ich Offset (V)
ICHFILTER	IQUANT	3	Ich Filter
VCHRANGE	IQUANT	2	Vch Range
VCHRANGEMODE	TOGGLE	F	Vch Auto Range
VCHOFFSETENABLE	TOGGLE	T	Vch Offset Enable
VCHOFFSET	QUANT	0	Vch Offset (V)
VCHFILTER	IQUANT	3	Vch Filter
ACHRANGE	IQUANT	2	Ach Range
ACHOFFSETENABLE	TOGGLE	F	Ach Offset Enable
ACHOFFSET	QUANT	0	Ach Offset (V)
ACHFILTER	IQUANT	3	Ach Filter
IERANGELOWERLIMIT	IQUANT	1	I/E Range Lower Limit
IERANGEMODE	TOGGLE	F	I/E AutoRange
IERANGE	IQUANT	5	I/E Range
POSFEEDENABLE	TOGGLE	F	Positive Feedback IR Comp
POSFEEDRESISTANCE	QUANT	0	Positive Feedback Resistance (ohm)
ACHSELECT	IQUANT	0	Ach Select
CABLEID	IQUANT	14	Cable ID
DCCALDATE	LABEL	8/19/2019	DC Calibration Date
ACCALDATE	LABEL	8/19/2019	AC Calibration Date
THERMOSELECT	IQUANT	1	Thermo Select
FRAMEWORKVERSION	QUANT	6.33	Framework Version
INSTRUMENTVERSION	LABEL	3.50	Instrument Version
ZCURVE	TABLE
	Pt	Time	Freq	Zreal	Zimag	Zsig	Zmod	Zphz	Idc	Vdc	IERange
	#	s	Hz	ohm	ohm	V	ohm	°	A	V	#
	0	1	1000078	2378.264	-1814.078	1	2991.157	-37.33546	1.354045E-005	0.0098801	8
	1	1	794390.6	2741.788	-1758.437	1	3257.224	-32.67395	-6.513155E-006	0.0111489	8
	2	2	630984.4	3078.773	-1639.894	1	3488.28	-28.04178	6.308688E-006	0.010449	8
	3	2	501234.4	3361.901	-1498.365	1	3680.69	-24.02205	-3.874418E-006	0.0103346	8
	4	2	398109.4	3582.769	-1341.648	1	3825.735	-20.52954	6.578529E-006	0.0096174	8
	5	3	316265.6	3775.705	-1160.621	1	3950.062	-17.087	-3.20176E-006	0.0108866	8
	6	3	251203.1	3908.937	-1009.188	1	4037.109	-14.47621	4.188373E-006	0.0102834	8
	7	3	199546.9	4013.821	-881.9874	1	4109.582	-12.39308	-1.404359E-006	0.0107157	8
	8	4	158578.1	4098.516	-759.6364	1	4168.319	-10.50029	-1.567511E-007	0.0100352	8
	9	4	125953.1	4178.178	-626.1786	1	4224.839	-8.523416	-1.623509E-006	0.0145058	7
	10	4	100078.1	4226.923	-577.4213	1	4266.181	-7.778775	1.079288E-006	0.0095438	7
	11	4	79453.13	4274.479	-538.2287	1	4308.232	-7.17673	8.400621E-007	0.0083919	7
	12	5	63140.62	4315.031	-514.0788	1	4345.546	-6.79401	-1.309214E-006	0.0118281	7
	13	5	50203.12	4360.956	-510.5125	1	4390.735	-6.676905	1.173236E-006	0.0090786	7
	14	5	39890.62	4403.288	-513.056	1	4433.077	-6.645941	5.306919E-007	0.0084891	7
	15	6	31640.63	4451.727	-530.5676	1	4483.232	-6.796591	1.161719E-006	0.0087312	7
	16	6	25171.88	4497.245	-557.6907	1	4531.691	-7.069001	6.467368E-008	0.0113185	7
	17	6	20015.62	4548.03	-599.4008	1	4587.358	-7.507941	-6.737504E-007	0.0119888	7
	18	7	15890.62	4608.12	-652.7466	1	4654.121	-8.062388	4.046825E-007	0.0108613	7
	19	7	12609.37	4664.375	-719.9528	1	4719.61	-8.77444	-1.116143E-006	0.0108226	7
	20	7	10078.13	4732.478	-803.3962	1	4800.187	-9.63481	6.428759E-007	0.0105242	7
	21	8	8015.625	4802.441	-894.5555	1	4885.046	-10.55161	-3.219337E-007	0.0093632	7
	22	8	6328.125	4881.998	-1027.951	1	4989.047	-11.89047	-9.646712E-007	0.0120732	7
	23	8	5015.625	4972.936	-1181.161	1	5111.285	-13.36119	1.175523E-006	0.0090813	7
	24	9	3984.375	5063.65	-1355.426	1	5241.92	-14.98549	-9.642243E-007	0.0120694	7
	25	9	3170.956	5161.632	-1582.405	1	5398.746	-17.044	1.176117E-006	0.0090761	7
	26	9	2527.573	5264.229	-1846.915	1	5578.817	-19.33304	6.412515E-008	0.011317	7
	27	10	1976.103	5388.971	-2202.436	1	5821.661	-22.2295	-1.299653E-006	0.0114327	7
	28	10	1577.524	5532.193	-2609.299	1	6116.666	-25.25125	6.357656E-008	0.0113149	7
	29	10	1265.625	5672.789	-3077.119	1	6453.619	-28.47695	1.352629E-007	0.008797	7
	30	11	998.264	5851.112	-3700.782	1	6923.243	-32.31303	1.081157E-006	0.0095298	7
	31	11	796.875	6050.266	-4415.511	1	7490.157	-36.12213	-1.17655E-006	0.0119996	7
	32	12	627.7902	6286.735	-5357.556	1	8259.931	-40.43764	1.300404E-007	0.0087971	7
	33	12	505.5147	6525.319	-6411.125	1	9147.804	-44.49424	1.052172E-006	0.008475	7
	34	12	397.9953	6857.23	-7800.75	1	10386.21	-48.68299	5.125713E-010	0.0103039	7
	35	13	315.5048	7223.975	-9484.395	1	11922.23	-52.70458	-3.195247E-011	0.0102393	6
	36	13	252.4038	7639.866	-11477.27	1	13787.51	-56.35021	6.437667E-010	0.010235	6
	37	13	198.6229	8176.264	-14114.42	1	16311.59	-59.91695	4.679522E-010	0.0102384	6
	38	14	158.3615	8819.964	-17203.65	1	19332.8	-62.8567	7.993239E-010	0.0102281	6
	39	14	125.558	9624.53	-21087.27	1	23179.83	-65.46738	5.271331E-011	0.0102382	6
	40	14	100.4464	10663.35	-25677.48	1	27803.6	-67.44785	-2.108812E-010	0.0102251	6
	41	15	79.00281	12028.73	-31638.67	1	33848.12	-69.18365	-2.200008E-010	0.0102213	6
	42	15	63.3446	13751.96	-38983.36	1	41337.86	-70.56895	-2.640183E-010	0.0102268	6
	43	15	49.86702	16037.14	-47764.99	1	50385.36	-71.44048	3.430918E-010	0.0102252	6
	44	16	39.72458	19232.91	-57774.94	1	60892.11	-71.58772	-2.042451E-010	0.0102367	6
	45	16	31.6723	23179.18	-69971.03	1	73710.38	-71.6716	-4.559385E-010	0.0102306	6
	46	16	24.93351	28639.04	-85688.11	1	90347.37	-71.51912	2.299311E-010	0.0102329	6
	47	17	19.86229	35376.95	-103510	1	109388.5	-71.13094	1.635473E-009	0.0102317	5
	48	17	15.83615	44393.96	-123623.2	1	131352.6	-70.24643	1.344771E-010	0.010232	5
	49	17	12.40079	56837.45	-149844.4	1	160261.8	-69.22777	-1.348888E-009	0.0102413	5
	50	18	9.93114	72272.09	-178029.6	1	192140.1	-67.90504	-1.576453E-010	0.0102451	5
	51	18	7.944915	90796.98	-209587.5	1	228409.8	-66.5769	4.811906E-010	0.0102279	5
	52	19	6.317385	115057.5	-245964.8	1	271545.4	-64.93073	6.643273E-010	0.0102168	5
	53	20	5.008013	146217.9	-288301.2	1	323260.3	-63.10722	2.226642E-010	0.0102328	5
	54	21	3.945707	183267.4	-334510.7	1	381424.1	-61.28312	4.29737E-011	0.010234	5
	55	22	3.158693	225630.1	-381496.7	1	443225.3	-59.39848	-2.647689E-010	0.0102143	5
	56	24	2.504006	276149.5	-432747.5	1	513350.7	-57.4568	-6.761552E-011	0.0102159	5
	57	25	1.998082	331007.8	-486280.3	1	588247.2	-55.75714	9.60492E-011	0.0102575	5
	58	27	1.584686	392381.7	-542716.6	1	669704.9	-54.13324	-5.702121E-011	0.010216	5
	59	29	1.266892	458162.6	-603237.3	1	757501.3	-52.7831	-1.527045E-010	0.0101818	5
	60	31	0.999041	532135.8	-675149.4	1	859648.3	-51.75571	-2.031345E-010	0.0101782	5
