EXPLAIN
TAG	EISPOT
TITLE	LABEL	Potentiostatic IDE	Test &Identifier
DATE	LABEL	9/14/2019	Date
TIME	LABEL	11:38:52	Time
NOTES	NOTES	1	&Notes...
	
PSTAT	PSTAT	REF600-11020	Potentiostat
VDC	POTEN	0.00000E+000	T	DC &Voltage (V)
FREQINIT	QUANT	1.00000E+006	Initial Fre&q. (Hz)
FREQFINAL	QUANT	1.00000E+000	Final Fre&q. (Hz)
PTSPERDEC	QUANT	1.00000E+001	Points/&decade
VAC	QUANT	2.50000E+001	AC &Voltage (mV rms)
AREA	QUANT	1.00000E-002	&Area (cm^2)
CONDIT	TWOPARAM	T	5.00000E+000	0.00000E+000	Conditionin&g	Time(s)	E(V)
DELAY	TWOPARAM	T	5.00000E+000	0.00000E+000	Init. De&lay	Time(s)	Stab.(mV/s)
SPEED	SELECTOR	1	&Optimize for:
ZGUESS	QUANT	1.00000E+007	E&stimated Z (ohms)
OCVCURVE	TABLE	19
	Pt	T	Vf	Vm	Ach	Over
	#	s	V vs. Ref.	V	V	bits
	0	0.258333	1.57658E-003	1.57658E-003	5.52333E-004	...........
	1	0.516667	1.56986E-003	1.22528E-003	5.56233E-004	...........
	2	0.775	1.52887E-003	9.03776E-004	5.46766E-004	...........
	3	1.03333	1.41385E-003	6.06148E-004	5.49533E-004	...........
	4	1.29167	1.21066E-003	3.34936E-004	5.48833E-004	...........
	5	1.55	9.45417E-004	8.01924E-005	5.44833E-004	...........
	6	1.80833	6.58469E-004	-1.54899E-004	5.43733E-004	...........
	7	2.06667	3.78150E-004	-3.84713E-004	5.46199E-004	...........
	8	2.325	1.15635E-004	-5.95306E-004	5.54233E-004	...........
	9	2.58333	-1.28400E-004	-7.96996E-004	5.51366E-004	...........
	10	2.84167	-3.56546E-004	-9.89904E-004	5.46066E-004	...........
	11	3.1	-5.71329E-004	-1.17139E-003	5.46199E-004	...........
	12	3.35833	-7.74621E-004	-1.34632E-003	5.54133E-004	...........
	13	3.61667	-9.67746E-004	-1.51422E-003	5.50099E-004	...........
	14	3.875	-1.15185E-003	-1.67895E-003	5.43999E-004	...........
	15	4.13333	-1.32807E-003	-1.83079E-003	5.49299E-004	...........
	16	4.39167	-1.49726E-003	-1.98341E-003	5.53399E-004	...........
	17	4.65	-1.65974E-003	-2.12077E-003	5.53099E-004	...........
	18	4.90833	-1.81553E-003	-2.25979E-003	5.45633E-004	...........
EOC	QUANT	-0.0018155	Open Circuit (V)
PSTATMODEL	IQUANT	4	Pstat Model
PSTATSECTION	LABEL	REF600-11020	Pstat Section
PSTATSERIALNO	LABEL	11020	Pstat Serial Number
CTRLMODE	IQUANT	1	Control Mode
IESTAB	IQUANT	0	I/E Stability
CASPEED	IQUANT	1	Control Amp Speed
CONVENTION	IQUANT	1	Current Convention
ICHRANGE	IQUANT	2	Ich Range
ICHRANGEMODE	TOGGLE	F	Ich Auto Range
ICHOFFSETENABLE	TOGGLE	T	Ich Offset Enable
ICHOFFSET	QUANT	0	Ich Offset (V)
ICHFILTER	IQUANT	3	Ich Filter
VCHRANGE	IQUANT	2	Vch Range
VCHRANGEMODE	TOGGLE	F	Vch Auto Range
VCHOFFSETENABLE	TOGGLE	T	Vch Offset Enable
VCHOFFSET	QUANT	0	Vch Offset (V)
VCHFILTER	IQUANT	3	Vch Filter
ACHRANGE	IQUANT	2	Ach Range
ACHOFFSETENABLE	TOGGLE	F	Ach Offset Enable
ACHOFFSET	QUANT	0	Ach Offset (V)
ACHFILTER	IQUANT	3	Ach Filter
IERANGELOWERLIMIT	IQUANT	1	I/E Range Lower Limit
IERANGEMODE	TOGGLE	F	I/E AutoRange
IERANGE	IQUANT	2	I/E Range
POSFEEDENABLE	TOGGLE	F	Positive Feedback IR Comp
POSFEEDRESISTANCE	QUANT	0	Positive Feedback Resistance (ohm)
ACHSELECT	IQUANT	0	Ach Select
CABLEID	IQUANT	14	Cable ID
DCCALDATE	LABEL	8/19/2019	DC Calibration Date
ACCALDATE	LABEL	8/19/2019	AC Calibration Date
THERMOSELECT	IQUANT	1	Thermo Select
FRAMEWORKVERSION	QUANT	6.33	Framework Version
INSTRUMENTVERSION	LABEL	3.50	Instrument Version
ZCURVE	TABLE
	Pt	Time	Freq	Zreal	Zimag	Zsig	Zmod	Zphz	Idc	Vdc	IERange
	#	s	Hz	ohm	ohm	V	ohm	°	A	V	#
	0	2	1000078	2522.434	-1505.089	1	2937.34	-30.82372	6.774429E-006	0.0001647	8
	1	4	794390.6	2783.296	-1380.095	1	3106.67	-26.37447	-1.14421E-007	-0.0002742	8
	2	5	630984.4	3026.99	-1233.98	1	3268.849	-22.17871	9.994023E-007	-0.0001377	8
	3	7	501234.4	3195.084	-1082.819	1	3373.582	-18.72161	-1.902001E-006	0.0003232	8
	4	8	398109.4	3342.141	-929.98	1	3469.116	-15.54969	-9.900499E-007	0.0002593	8
	5	9	316265.6	3429.603	-810.944	1	3524.175	-13.30348	-3.648721E-006	0.000664	8
	6	11	251203.1	3514.607	-696.2147	1	3582.901	-11.20477	-1.493931E-006	0.0001656	8
	7	12	199546.9	3568.04	-599.9152	1	3618.122	-9.5442	-1.167633E-006	0.0002987	8
	8	13	158578.1	3616.044	-528.9745	1	3654.53	-8.322508	-3.516182E-006	0.0006105	8
	9	15	125953.1	3686.871	-448.9693	1	3714.107	-6.943017	-1.148151E-006	0.0026395	7
	10	16	100078.1	3710.967	-407.9294	1	3733.32	-6.273074	-1.240875E-008	-0.0001286	7
	11	18	79453.13	3743.403	-394.2536	1	3764.107	-6.012203	2.478537E-008	-0.0002568	7
	12	19	63140.62	3777.296	-389.6264	1	3797.338	-5.889206	-2.877757E-009	-0.0001446	7
	13	20	50203.12	3812.815	-393.5351	1	3833.07	-5.892848	-6.438144E-008	-7.983525E-005	7
	14	22	39890.62	3849.833	-402.5305	1	3870.819	-5.969039	3.037523E-008	-0.000198	7
	15	23	31640.63	3887.757	-427.5149	1	3911.192	-6.275284	-4.123264E-009	-0.0001479	7
	16	24	25171.88	3930.323	-455.8181	1	3956.666	-6.61531	-1.871271E-008	-0.0001842	7
	17	26	20015.62	3975.04	-495.2555	1	4005.773	-7.101961	4.951535E-008	-0.0003332	7
	18	27	15890.62	4026.178	-544.4704	1	4062.826	-7.701534	-1.970973E-008	-0.000199	7
	19	28	12609.37	4080.317	-603.2153	1	4124.664	-8.409433	-1.176332E-008	-0.0001475	7
	20	30	10078.13	4138.903	-671.0322	1	4192.947	-9.209122	3.532518E-009	-0.0002452	7
	21	31	8015.625	4202.879	-753.1674	1	4269.831	-10.15972	-4.255661E-008	-0.0001267	7
	22	32	6328.125	4276.574	-856.9299	1	4361.583	-11.33074	-6.411108E-008	-8.64758E-005	7
	23	34	5015.625	4355.566	-978.001	1	4464.017	-12.65533	-5.270952E-008	-7.530414E-005	7
	24	35	3984.375	4440.876	-1120.077	1	4579.952	-14.15589	-5.335338E-008	-7.367141E-005	7
	25	36	3170.956	4532.622	-1292.485	1	4713.298	-15.91559	6.683332E-008	-0.0001941	7
	26	38	2527.573	4631.269	-1492.674	1	4865.874	-17.86431	-1.571698E-008	-0.0001319	7
	27	39	1976.103	4749.262	-1760.652	1	5065.115	-20.34081	3.160036E-008	-0.0002031	7
	28	40	1577.524	4870.795	-2053.947	1	5286.146	-22.86448	8.928325E-008	-0.0003675	7
	29	42	1265.625	4999.568	-2401.448	1	5546.407	-25.65642	-2.015668E-008	-0.0001978	7
	30	43	998.264	5151.49	-2859.465	1	5891.892	-29.03357	8.271012E-008	-0.0003278	7
	31	44	796.875	5307.331	-3387.164	1	6296.082	-32.54622	2.764342E-008	-0.0002838	7
	32	46	627.7902	5486.976	-4073.813	1	6833.949	-36.5921	2.707076E-008	-0.000279	7
	33	47	505.5147	5664.73	-4844.064	1	7453.464	-40.53465	4.75149E-008	-0.0003448	7
	34	48	397.9953	5888.044	-5896.371	1	8332.842	-45.04049	7.550358E-009	-0.0001735	7
	35	50	315.5048	6135.569	-7169.889	1	9436.765	-49.44503	6.568487E-009	-0.0001685	7
	36	51	252.4038	6417.454	-8683.035	1	10797.17	-53.53265	4.565757E-010	-0.0002314	6
	37	52	198.6229	6781.993	-10703.2	1	12670.98	-57.63995	1.000623E-009	-0.0002349	6
	38	54	158.3615	7211.589	-13069.47	1	14927.09	-61.11057	4.381236E-010	-0.0002338	6
	39	55	125.558	7766.632	-16063.79	1	17842.81	-64.19685	1.056163E-009	-0.0002368	6
	40	56	100.4464	8441.009	-19620.27	1	21358.97	-66.72171	4.231553E-010	-0.0002417	6
	41	58	79.00281	9406.108	-24247.98	1	26008.45	-68.79808	1.391148E-009	-0.0002389	6
	42	59	63.3446	10782.83	-29725.23	1	31620.54	-70.06177	1.392443E-009	-0.0002466	6
	43	60	49.86702	12019.28	-36535.83	1	38462.05	-71.79022	1.470577E-009	-0.0002471	6
	44	62	39.72458	14327.84	-44658.48	1	46900.6	-72.21213	1.371738E-009	-0.0002424	6
	45	63	31.6723	17188.74	-54480.41	1	57127.64	-72.48936	1.71525E-009	-0.000243	6
	46	64	24.93351	20864.17	-66980.35	1	70154.7	-72.69836	7.667378E-010	-0.0002448	6
	47	66	19.86229	25687.54	-81277.43	1	85240.08	-72.46098	3.682295E-010	-0.0002403	6
	48	67	15.83615	32652.15	-97690	1	103002.4	-71.51818	-5.634899E-010	-0.0002432	6
	49	68	12.40079	40721.77	-118716.2	1	125506.2	-71.06712	1.818369E-009	-0.0002387	5
	50	70	9.93114	51771.79	-142442.2	1	151558.9	-70.0259	1.373514E-010	-0.0002349	5
	51	71	7.944915	65373.94	-169271.5	1	181456.9	-68.88306	6.667492E-010	-0.0002385	5
	52	73	6.317385	81912.16	-200414.5	1	216507.7	-67.76949	7.100215E-010	-0.000255	5
	53	75	5.008013	103440.9	-236516.1	1	258147	-66.37772	4.378366E-010	-0.0002324	5
	54	78	3.945707	130404.8	-278857.1	1	307842	-64.93732	-1.739053E-011	-0.0002433	5
	55	80	3.158693	160667.7	-323230.7	1	360960.1	-63.5695	3.955786E-010	-0.000235	5
	56	83	2.504006	198293.9	-375135.1	1	424319.2	-62.13937	6.097212E-011	-0.0002359	5
	57	86	1.998082	239931.4	-430304	1	492675	-60.85658	5.50858E-010	-0.0002607	5
	58	89	1.584686	292052.7	-495445.6	1	575118.4	-59.48172	1.605552E-010	-0.0002932	5
	59	93	1.266892	347096.9	-564043.3	1	662284.7	-58.39299	4.589025E-010	-0.000241	5
	60	97	0.999041	417127	-646934.5	1	769752.7	-57.1871	-8.946684E-011	-0.0002739	5
