EXPLAIN
TAG	EISPOT
TITLE	LABEL	Potentiostatic IDE	Test &Identifier
DATE	LABEL	9/4/2019	Date
TIME	LABEL	11:55:09	Time
NOTES	NOTES	1	&Notes...
	
PSTAT	PSTAT	REF600-11020	Potentiostat
VDC	POTEN	0.00000E+000	T	DC &Voltage (V)
FREQINIT	QUANT	1.00000E+006	Initial Fre&q. (Hz)
FREQFINAL	QUANT	1.00000E+000	Final Fre&q. (Hz)
PTSPERDEC	QUANT	1.00000E+001	Points/&decade
VAC	QUANT	2.50000E+001	AC &Voltage (mV rms)
AREA	QUANT	1.00000E-002	&Area (cm^2)
CONDIT	TWOPARAM	T	5.00000E+000	0.00000E+000	Conditionin&g	Time(s)	E(V)
DELAY	TWOPARAM	T	5.00000E+000	0.00000E+000	Init. De&lay	Time(s)	Stab.(mV/s)
SPEED	SELECTOR	1	&Optimize for:
ZGUESS	QUANT	1.00000E+007	E&stimated Z (ohms)
OCVCURVE	TABLE	19
	Pt	T	Vf	Vm	Ach	Over
	#	s	V vs. Ref.	V	V	bits
	0	0.258333	8.41502E-002	8.41502E-002	5.66666E-004	...........
	1	0.516667	8.41907E-002	8.62681E-002	5.64266E-004	...........
	2	0.775	8.44384E-002	8.82369E-002	5.61732E-004	...........
	3	1.03333	8.51368E-002	9.01322E-002	5.61499E-004	...........
	4	1.29167	8.63814E-002	9.19161E-002	5.59899E-004	...........
	5	1.55	8.80295E-002	9.36356E-002	5.64266E-004	...........
	6	1.80833	8.98492E-002	9.52558E-002	5.62266E-004	...........
	7	2.06667	9.16695E-002	9.67510E-002	5.63399E-004	...........
	8	2.325	9.34097E-002	9.82254E-002	5.67132E-004	...........
	9	2.58333	9.50492E-002	9.96275E-002	5.68799E-004	...........
	10	2.84167	9.65963E-002	1.00942E-001	5.67366E-004	...........
	11	3.1	9.80648E-002	1.02194E-001	5.60699E-004	...........
	12	3.35833	9.94638E-002	1.03497E-001	5.65699E-004	...........
	13	3.61667	1.00801E-001	1.04557E-001	5.60499E-004	...........
	14	3.875	1.02081E-001	1.05644E-001	5.62132E-004	...........
	15	4.13333	1.03295E-001	1.06666E-001	5.61532E-004	...........
	16	4.39167	1.04442E-001	1.07677E-001	5.62666E-004	...........
	17	4.65	1.05529E-001	1.08642E-001	5.56832E-004	...........
	18	4.90833	1.06570E-001	1.09573E-001	5.61999E-004	...........
EOC	QUANT	0.1065699	Open Circuit (V)
PSTATMODEL	IQUANT	4	Pstat Model
PSTATSECTION	LABEL	REF600-11020	Pstat Section
PSTATSERIALNO	LABEL	11020	Pstat Serial Number
CTRLMODE	IQUANT	1	Control Mode
IESTAB	IQUANT	0	I/E Stability
CASPEED	IQUANT	1	Control Amp Speed
CONVENTION	IQUANT	1	Current Convention
ICHRANGE	IQUANT	2	Ich Range
ICHRANGEMODE	TOGGLE	F	Ich Auto Range
ICHOFFSETENABLE	TOGGLE	T	Ich Offset Enable
ICHOFFSET	QUANT	0	Ich Offset (V)
ICHFILTER	IQUANT	3	Ich Filter
VCHRANGE	IQUANT	2	Vch Range
VCHRANGEMODE	TOGGLE	F	Vch Auto Range
VCHOFFSETENABLE	TOGGLE	T	Vch Offset Enable
VCHOFFSET	QUANT	0	Vch Offset (V)
VCHFILTER	IQUANT	3	Vch Filter
ACHRANGE	IQUANT	2	Ach Range
ACHOFFSETENABLE	TOGGLE	F	Ach Offset Enable
ACHOFFSET	QUANT	0	Ach Offset (V)
ACHFILTER	IQUANT	3	Ach Filter
IERANGELOWERLIMIT	IQUANT	1	I/E Range Lower Limit
IERANGEMODE	TOGGLE	F	I/E AutoRange
IERANGE	IQUANT	4	I/E Range
POSFEEDENABLE	TOGGLE	F	Positive Feedback IR Comp
POSFEEDRESISTANCE	QUANT	0	Positive Feedback Resistance (ohm)
ACHSELECT	IQUANT	0	Ach Select
CABLEID	IQUANT	14	Cable ID
DCCALDATE	LABEL	8/19/2019	DC Calibration Date
ACCALDATE	LABEL	8/19/2019	AC Calibration Date
THERMOSELECT	IQUANT	1	Thermo Select
FRAMEWORKVERSION	QUANT	6.33	Framework Version
INSTRUMENTVERSION	LABEL	3.50	Instrument Version
ZCURVE	TABLE
	Pt	Time	Freq	Zreal	Zimag	Zsig	Zmod	Zphz	Idc	Vdc	IERange
	#	s	Hz	ohm	ohm	V	ohm	°	A	V	#
	0	2	1000078	2342.708	-2295.893	1	3280.153	-44.42176	8.82587E-006	0.1084194	8
	1	3	794390.6	2837.706	-2265.166	1	3630.916	-38.59821	1.085765E-005	0.1073679	8
	2	5	630984.4	3278.332	-2221.961	1	3960.375	-34.12831	1.083013E-005	0.107286	8
	3	6	501234.4	3678.181	-2085.506	1	4228.28	-29.55297	7.573533E-006	0.1078528	8
	4	8	398109.4	4018.188	-1916.07	1	4451.647	-25.49411	9.291665E-006	0.107696	8
	5	9	316265.6	4289.834	-1722.449	1	4622.717	-21.87638	8.871591E-006	0.1076588	8
	6	11	251203.1	4482.252	-1540	1	4739.429	-18.96156	9.902985E-006	0.1074934	8
	7	13	199546.9	4673.338	-1427.92	1	4886.619	-16.99032	8.523201E-006	0.1077762	8
	8	14	158578.1	4811.138	-1304.604	1	4984.881	-15.17168	9.801716E-006	0.1074621	8
	9	16	125953.1	4933.504	-1220.407	1	5082.21	-13.8944	1.366242E-006	0.1060185	7
	10	17	100078.1	5030.893	-1174.425	1	5166.155	-13.13996	8.013318E-007	0.1077896	7
	11	19	79453.13	5127.437	-1171.162	1	5259.49	-12.86625	8.034806E-007	0.1078039	7
	12	20	63140.62	5218.934	-1202.253	1	5355.622	-12.97255	8.165246E-007	0.1077383	7
	13	21	50203.12	5317.384	-1267.943	1	5466.466	-13.41186	8.18431E-007	0.1077348	7
	14	23	39890.62	5419.221	-1365.941	1	5588.716	-14.147	8.20636E-007	0.1077812	7
	15	24	31640.63	5532.832	-1502.482	1	5733.208	-15.19271	8.327752E-007	0.1077094	7
	16	25	25171.88	5653.586	-1680.592	1	5898.087	-16.55517	8.595851E-007	0.1076862	7
	17	27	20015.62	5803.528	-1901.249	1	6107.02	-18.13891	7.864122E-007	0.107837	7
	18	28	15890.62	5966.204	-2172.989	1	6349.604	-20.01245	8.26172E-007	0.1077728	7
	19	29	12609.37	6153.186	-2506.128	1	6643.973	-22.16055	8.58371E-007	0.1076899	7
	20	31	10078.13	6370.235	-2888.999	1	6994.727	-24.39502	8.123391E-007	0.1077628	7
	21	32	8015.625	6616.389	-3360.591	1	7420.928	-26.92689	7.981196E-007	0.1078065	7
	22	33	6328.125	6916.011	-3932.382	1	7955.805	-29.62217	8.197653E-007	0.1077328	7
	23	35	5015.625	7261.923	-4603.28	1	8598.007	-32.37031	8.079215E-007	0.1077748	7
	24	36	3984.375	7658.403	-5391.193	1	9365.688	-35.14393	8.235579E-007	0.1077777	7
	25	37	3170.956	8114.456	-6321.289	1	10286.06	-37.91915	8.073927E-007	0.1077735	7
	26	39	2527.573	8636.687	-7409.61	1	11379.57	-40.62704	7.949763E-007	0.1077966	7
	27	40	1976.103	9330.187	-8804.22	1	12828.35	-43.33867	7.902432E-008	0.1076869	6
	28	41	1577.524	10071.48	-10329.23	1	14426.63	-45.72384	7.631067E-008	0.1077907	6
	29	43	1265.625	10913.16	-12064.83	1	16268.29	-47.86929	8.928842E-008	0.1075429	6
	30	44	998.264	12000.33	-14294.76	1	18664.08	-49.98684	7.740882E-008	0.107741	6
	31	45	796.875	13184.15	-16784.68	1	21343.55	-51.85082	7.455046E-008	0.1077521	6
	32	47	627.7902	14724.54	-19918.67	1	24770.25	-53.52697	7.744323E-008	0.1076949	6
	33	48	505.5147	16348.44	-23259.81	1	28430.45	-54.89807	8.020746E-008	0.1076784	6
	34	49	397.9953	18443.89	-27556.21	1	33159.04	-56.20485	8.17445E-008	0.1073464	6
	35	51	315.5048	20882.26	-32510.73	1	38639.57	-57.28659	8.224242E-008	0.1073473	6
	36	52	252.4038	23650.24	-38092.66	1	44837.32	-58.16547	8.195582E-008	0.1073518	6
	37	53	198.6229	27152	-45149.24	1	52684.77	-58.978	8.181283E-008	0.1073475	6
	38	55	158.3615	31114.9	-53006.94	1	61464.4	-59.5872	8.231078E-008	0.107344	6
	39	56	125.558	35863.74	-62433.23	1	72000.8	-60.1255	8.214853E-008	0.1073444	6
	40	57	100.4464	41316.89	-72953.23	1	83840.68	-60.47506	8.191394E-008	0.1073483	6
	41	59	79.00281	47777.93	-86307.58	1	98649.5	-61.03207	8.224255E-008	0.1073419	6
	42	60	63.3446	56567.07	-101276.3	1	116003.1	-60.81481	8.194213E-008	0.1073387	6
	43	61	49.86702	63620.83	-118748.8	1	134717.8	-61.81939	8.374666E-009	0.1073439	5
	44	63	39.72458	74934.98	-139529.5	1	158378.4	-61.76176	8.295228E-009	0.1073529	5
	45	64	31.6723	87031.71	-163532	1	185249.1	-61.9781	8.592658E-009	0.1073453	5
	46	66	24.93351	100489.7	-193219.6	1	217788.9	-62.52194	8.183603E-009	0.1073488	5
	47	67	19.86229	116095.2	-227398.6	1	255319.8	-62.95405	8.55436E-009	0.1073549	5
	48	68	15.83615	131293.3	-267282.8	1	297788.6	-63.83905	7.850934E-009	0.10735	5
	49	70	12.40079	154091.8	-316453.6	1	351976.1	-64.037	7.7851E-009	0.1073536	5
	50	71	9.93114	180439.4	-374316.8	1	415537.6	-64.26361	8.359573E-009	0.1073467	5
	51	72	7.944915	205887.1	-440558.5	1	486293.4	-64.95181	8.014807E-009	0.1073546	5
	52	74	6.317385	240841.3	-523885.6	1	576594	-65.31075	8.164876E-009	0.107351	5
	53	76	5.008013	281298.7	-625019.4	1	685403.8	-65.76921	8.261725E-009	0.1073594	5
	54	79	3.945707	331273.4	-748642.4	1	818662	-66.13067	8.207012E-009	0.1073484	5
	55	82	3.158693	388411.5	-887931.4	1	969168	-66.37379	8.251599E-009	0.1073597	5
	56	85	2.504006	462345.8	-1060741	1	1157124	-66.44904	8.049661E-009	0.1076381	5
	57	88	1.998082	551133.9	-1258767	1	1374133	-66.35445	8.000368E-010	0.1075887	4
	58	91	1.584686	660899.8	-1501117	1	1640165	-66.23745	7.694502E-010	0.1076038	4
	59	95	1.266892	801713	-1770954	1	1943970	-65.64368	8.964447E-010	0.107597	4
	60	99	0.999041	975734	-2112559	1	2327007	-65.20906	7.306669E-010	0.1076345	4
