EXPLAIN
TAG	EISPOT
TITLE	LABEL	Potentiostatic EIS	Test &Identifier
DATE	LABEL	9/20/2019	Date
TIME	LABEL	9:48:04	Time
NOTES	NOTES	1	&Notes...
	
PSTAT	PSTAT	REF600-11020	Potentiostat
VDC	POTEN	0.00000E+000	T	DC &Voltage (V)
FREQINIT	QUANT	1.00000E+006	Initial Fre&q. (Hz)
FREQFINAL	QUANT	1.00000E+000	Final Fre&q. (Hz)
PTSPERDEC	QUANT	1.00000E+001	Points/&decade
VAC	QUANT	2.50000E+001	AC &Voltage (mV rms)
AREA	QUANT	1.00000E-002	&Area (cm^2)
CONDIT	TWOPARAM	T	5.00000E+000	0.00000E+000	Conditionin&g	Time(s)	E(V)
DELAY	TWOPARAM	T	5.00000E+000	0.00000E+000	Init. De&lay	Time(s)	Stab.(mV/s)
SPEED	SELECTOR	1	&Optimize for:
ZGUESS	QUANT	1.00000E+004	E&stimated Z (ohms)
OCVCURVE	TABLE	19
	Pt	T	Vf	Vm	Ach	Over
	#	s	V vs. Ref.	V	V	bits
	0	0.258333	1.41537E-001	1.41537E-001	5.72599E-004	...........
	1	0.516667	1.41677E-001	1.48878E-001	5.70366E-004	...........
	2	0.775	1.42528E-001	1.55307E-001	5.67132E-004	...........
	3	1.03333	1.44893E-001	1.61017E-001	5.67699E-004	...........
	4	1.29167	1.49015E-001	1.66134E-001	5.71032E-004	...........
	5	1.55	1.54297E-001	1.70761E-001	5.74699E-004	...........
	6	1.80833	1.59883E-001	1.74967E-001	5.75666E-004	...........
	7	2.06667	1.65197E-001	1.78826E-001	5.70032E-004	...........
	8	2.325	1.70026E-001	1.82383E-001	5.71932E-004	...........
	9	2.58333	1.74373E-001	1.85672E-001	5.73066E-004	...........
	10	2.84167	1.78313E-001	1.88738E-001	5.69932E-004	...........
	11	3.1	1.81922E-001	1.91597E-001	5.74532E-004	...........
	12	3.35833	1.85256E-001	1.94271E-001	5.74332E-004	...........
	13	3.61667	1.88353E-001	1.96781E-001	5.70966E-004	...........
	14	3.875	1.91241E-001	1.99149E-001	5.70066E-004	...........
	15	4.13333	1.93944E-001	2.01391E-001	5.71299E-004	...........
	16	4.39167	1.96482E-001	2.03491E-001	5.68599E-004	...........
	17	4.65	1.98869E-001	2.05481E-001	5.69599E-004	...........
	18	4.90833	2.01120E-001	2.07359E-001	5.76299E-004	...........
EOC	QUANT	0.2011198	Open Circuit (V)
PSTATMODEL	IQUANT	4	Pstat Model
PSTATSECTION	LABEL	REF600-11020	Pstat Section
PSTATSERIALNO	LABEL	11020	Pstat Serial Number
CTRLMODE	IQUANT	1	Control Mode
IESTAB	IQUANT	0	I/E Stability
CASPEED	IQUANT	1	Control Amp Speed
CONVENTION	IQUANT	1	Current Convention
ICHRANGE	IQUANT	2	Ich Range
ICHRANGEMODE	TOGGLE	F	Ich Auto Range
ICHOFFSETENABLE	TOGGLE	T	Ich Offset Enable
ICHOFFSET	QUANT	0	Ich Offset (V)
ICHFILTER	IQUANT	3	Ich Filter
VCHRANGE	IQUANT	2	Vch Range
VCHRANGEMODE	TOGGLE	F	Vch Auto Range
VCHOFFSETENABLE	TOGGLE	T	Vch Offset Enable
VCHOFFSET	QUANT	0	Vch Offset (V)
VCHFILTER	IQUANT	3	Vch Filter
ACHRANGE	IQUANT	2	Ach Range
ACHOFFSETENABLE	TOGGLE	F	Ach Offset Enable
ACHOFFSET	QUANT	0	Ach Offset (V)
ACHFILTER	IQUANT	3	Ach Filter
IERANGELOWERLIMIT	IQUANT	1	I/E Range Lower Limit
IERANGEMODE	TOGGLE	F	I/E AutoRange
IERANGE	IQUANT	7	I/E Range
POSFEEDENABLE	TOGGLE	F	Positive Feedback IR Comp
POSFEEDRESISTANCE	QUANT	0	Positive Feedback Resistance (ohm)
ACHSELECT	IQUANT	0	Ach Select
CABLEID	IQUANT	14	Cable ID
DCCALDATE	LABEL	8/19/2019	DC Calibration Date
ACCALDATE	LABEL	8/19/2019	AC Calibration Date
THERMOSELECT	IQUANT	1	Thermo Select
FRAMEWORKVERSION	QUANT	6.33	Framework Version
INSTRUMENTVERSION	LABEL	3.50	Instrument Version
ZCURVE	TABLE
	Pt	Time	Freq	Zreal	Zimag	Zsig	Zmod	Zphz	Idc	Vdc	IERange
	#	s	Hz	ohm	ohm	V	ohm	°	A	V	#
	0	2	1000078	2316.051	-1144.019	1	2583.19	-26.28718	-1.346317E-006	0.2035151	8
	1	3	794390.6	2531.4	-1023.296	1	2730.407	-22.01058	4.727304E-006	0.202074	8
	2	4	630984.4	2660.916	-894.2299	1	2807.155	-18.57549	2.775638E-006	0.20202	8
	3	6	501234.4	2787.151	-773.8492	1	2892.586	-15.51725	-6.321568E-007	0.2026033	8
	4	7	398109.4	2873.985	-654.2252	1	2947.508	-12.82411	4.566522E-006	0.2017495	8
	5	9	316265.6	2940.531	-584.6379	1	2998.087	-11.24494	-4.805974E-007	0.2025355	8
	6	10	251203.1	2990.702	-510.1019	1	3033.892	-9.67937	1.669751E-007	0.2024612	8
	7	11	199546.9	3031.746	-452.1284	1	3065.274	-8.482086	3.232567E-006	0.2019785	8
	8	13	158578.1	3068.204	-396.0507	1	3093.66	-7.355197	-3.03209E-006	0.2032094	8
	9	14	125953.1	3112.078	-334.6255	1	3130.017	-6.137136	4.424286E-007	0.2013804	7
	10	15	100078.1	3132.985	-313.0783	1	3148.589	-5.706605	-6.362509E-008	0.2025914	7
	11	17	79453.13	3158.559	-311.6202	1	3173.894	-5.634509	-7.233561E-008	0.202679	7
	12	18	63140.62	3186.822	-316.7549	1	3202.525	-5.676283	-6.408764E-008	0.2025831	7
	13	19	50203.12	3218.195	-328.5949	1	3234.927	-5.830002	3.376476E-008	0.2024302	7
	14	21	39890.62	3250.635	-343.6433	1	3268.749	-6.034653	-3.819504E-008	0.2025806	7
	15	22	31640.63	3287.464	-370.1203	1	3308.233	-6.423617	-6.084659E-008	0.2025483	7
	16	23	25171.88	3326.783	-401.2647	1	3350.896	-6.877587	-6.754126E-008	0.2026269	7
	17	25	20015.62	3368.313	-439.1111	1	3396.815	-7.427493	-3.877168E-008	0.2025763	7
	18	26	15890.62	3415.754	-489.121	1	3450.596	-8.149106	4.237216E-008	0.2024938	7
	19	27	12609.37	3465.716	-540.4209	1	3507.597	-8.862952	-1.216806E-008	0.2024631	7
	20	29	10078.13	3517.857	-603.338	1	3569.221	-9.73196	-6.270467E-008	0.2025736	7
	21	30	8015.625	3575.611	-680.1813	1	3639.731	-10.77057	-4.453811E-008	0.2026613	7
	22	31	6328.125	3640.116	-776.5535	1	3722.026	-12.04251	-5.776958E-008	0.2025546	7
	23	33	5015.625	3706.762	-889.2366	1	3811.932	-13.49009	4.266752E-008	0.2024992	7
	24	34	3984.375	3778.221	-1025.831	1	3915.008	-15.19027	-5.805557E-008	0.2025478	7
	25	36	3170.956	3854.735	-1190.949	1	4034.519	-17.16892	4.503659E-008	0.2023751	7
	26	37	2527.573	3939.325	-1389.099	1	4177.066	-19.42385	3.259055E-009	0.2024881	7
	27	38	1976.103	4043.864	-1654.897	1	4369.384	-22.25617	-5.701792E-008	0.202546	7
	28	40	1577.524	4150.674	-1953.296	1	4587.315	-25.20155	-5.761334E-008	0.2025429	7
	29	41	1265.625	4254.549	-2298.485	1	4835.723	-28.37977	-4.052817E-008	0.2025016	7
	30	42	998.264	4418.299	-2768.137	1	5213.823	-32.06782	3.452474E-008	0.2024134	7
	31	44	796.875	4584.854	-3307.971	1	5653.632	-35.81044	-4.307384E-008	0.2026558	7
	32	45	627.7902	4792.833	-4000.441	1	6242.978	-39.85079	-6.190681E-008	0.2025393	7
	33	46	505.5147	5018.961	-4779.779	1	6930.819	-43.60172	-6.960219E-008	0.2026605	7
	34	48	397.9953	5330.342	-5814.372	1	7887.932	-47.48687	-2.160412E-008	0.2025505	7
	35	49	315.5048	5713.281	-7050.686	1	9074.896	-50.98161	-2.095792E-008	0.2025505	7
	36	50	252.4038	6186.783	-8487.761	1	10503.25	-53.91145	-2.650388E-008	0.2024841	6
	37	52	198.6229	6843.39	-10352.75	1	12410.13	-56.53443	-2.587722E-008	0.2024882	6
	38	53	158.3615	7657.083	-12466.8	1	14630.51	-58.44183	-2.6038E-008	0.2024809	6
	39	54	125.558	8751.808	-15040.1	1	17401.11	-59.80494	-2.506627E-008	0.2024902	6
	40	56	100.4464	10122.51	-17944.46	1	20602.64	-60.57255	-2.650192E-008	0.2024816	6
	41	57	79.00281	12046.97	-21568.09	1	24704.5	-60.81422	-2.639753E-008	0.2024812	6
	42	58	63.3446	14244.64	-25139.21	1	28894.46	-60.4628	-2.544065E-008	0.2024847	6
	43	60	49.86702	17436.38	-30129.44	1	34811.07	-59.94136	-2.633062E-008	0.2024827	6
	44	61	39.72458	20869.85	-35009.02	1	40757.61	-59.19966	-2.505955E-008	0.2024838	6
	45	63	31.6723	25289.11	-40396.06	1	47659	-57.95223	-2.559559E-008	0.2024856	6
	46	64	24.93351	30677.02	-46587.59	1	55780.67	-56.63588	-2.514249E-008	0.2024902	6
	47	65	19.86229	36748.79	-52956.79	1	64458.48	-55.24171	-2.398227E-008	0.2024878	6
	48	67	15.83615	43660.95	-59621.76	1	73898.8	-53.78472	-2.626856E-008	0.2024822	6
	49	68	12.40079	52250	-67815.58	1	85609.66	-52.38676	-2.469142E-008	0.2024808	6
	50	69	9.93114	60903.68	-75196.52	1	96766.6	-50.99506	-2.505405E-008	0.2024855	6
	51	71	7.944915	70514.98	-83530.67	1	109314.8	-49.82959	-2.545638E-008	0.2025021	5
	52	73	6.317385	81338.85	-92737.45	1	123354.1	-48.74641	-2.628329E-008	0.2025175	5
	53	75	5.008013	93532	-103069.4	1	139181.7	-47.77731	-2.541372E-008	0.202501	5
	54	77	3.945707	107401.9	-114998.4	1	157352.4	-46.95628	-2.581254E-008	0.2024968	5
	55	80	3.158693	121651.6	-127291.8	1	176074.7	-46.29789	-2.535186E-008	0.2025196	5
	56	83	2.504006	138429.5	-141780.6	1	198152.6	-45.68518	-2.612814E-008	0.2024893	5
	57	86	1.998082	156580.9	-157177.5	1	221861.1	-45.10893	-2.486546E-008	0.2024828	5
	58	89	1.584686	177445.4	-174083.3	1	248579.7	-44.45203	-2.434706E-008	0.2025369	5
	59	93	1.266892	200443.5	-193179.5	1	278380.9	-43.94279	-2.459569E-008	0.202472	5
	60	97	0.999041	227893.2	-214196.5	1	312754.6	-43.22544	-2.342509E-008	0.202535	5
