EXPLAIN
TAG	EISPOT
TITLE	LABEL	Potentiostatic EIS	Test &Identifier
DATE	LABEL	10/8/2019	Date
TIME	LABEL	8:17:29	Time
NOTES	NOTES	2	&Notes...
	
	
PSTAT	PSTAT	REF600-11020	Potentiostat
VDC	POTEN	0.00000E+000	T	DC &Voltage (V)
FREQINIT	QUANT	1.00000E+006	Initial Fre&q. (Hz)
FREQFINAL	QUANT	1.00000E+000	Final Fre&q. (Hz)
PTSPERDEC	QUANT	1.00000E+001	Points/&decade
VAC	QUANT	2.50000E+001	AC &Voltage (mV rms)
AREA	QUANT	1.00000E-002	&Area (cm^2)
CONDIT	TWOPARAM	T	5.00000E+000	0.00000E+000	Conditionin&g	Time(s)	E(V)
DELAY	TWOPARAM	T	5.00000E+000	0.00000E+000	Init. De&lay	Time(s)	Stab.(mV/s)
SPEED	SELECTOR	1	&Optimize for:
ZGUESS	QUANT	1.00000E+004	E&stimated Z (ohms)
OCVCURVE	TABLE	19
	Pt	T	Vf	Vm	Ach	Over
	#	s	V vs. Ref.	V	V	bits
	0	0.258333	6.69851E-003	6.69851E-003	5.72132E-004	...........
	1	0.516667	6.69568E-003	6.55054E-003	5.79532E-004	...........
	2	0.775	6.68275E-003	6.64205E-003	5.68032E-004	...........
	3	1.03333	6.66123E-003	6.74806E-003	5.77832E-004	...........
	4	1.29167	6.65211E-003	6.81608E-003	5.68199E-004	...........
	5	1.55	6.67575E-003	6.87754E-003	5.67532E-004	...........
	6	1.80833	6.72979E-003	6.93348E-003	5.71666E-004	...........
	7	2.06667	6.79713E-003	6.98393E-003	5.74999E-004	...........
	8	2.325	6.86427E-003	7.06160E-003	5.68266E-004	...........
	9	2.58333	6.92814E-003	7.14491E-003	5.64266E-004	...........
	10	2.84167	6.99291E-003	7.22435E-003	5.77666E-004	...........
	11	3.1	7.06268E-003	7.29420E-003	5.65532E-004	...........
	12	3.35833	7.13647E-003	7.33481E-003	5.67832E-004	...........
	13	3.61667	7.20842E-003	7.37123E-003	5.66199E-004	...........
	14	3.875	7.27225E-003	7.42399E-003	5.71832E-004	...........
	15	4.13333	7.32724E-003	7.51286E-003	5.75299E-004	...........
	16	4.39167	7.38125E-003	7.64966E-003	5.68399E-004	...........
	17	4.65	7.44600E-003	7.71159E-003	5.70999E-004	...........
	18	4.90833	7.52629E-003	7.80553E-003	5.69899E-004	...........
EOC	QUANT	0.0075263	Open Circuit (V)
PSTATMODEL	IQUANT	4	Pstat Model
PSTATSECTION	LABEL	REF600-11020	Pstat Section
PSTATSERIALNO	LABEL	11020	Pstat Serial Number
CTRLMODE	IQUANT	1	Control Mode
IESTAB	IQUANT	0	I/E Stability
CASPEED	IQUANT	1	Control Amp Speed
CONVENTION	IQUANT	1	Current Convention
ICHRANGE	IQUANT	2	Ich Range
ICHRANGEMODE	TOGGLE	F	Ich Auto Range
ICHOFFSETENABLE	TOGGLE	T	Ich Offset Enable
ICHOFFSET	QUANT	0	Ich Offset (V)
ICHFILTER	IQUANT	3	Ich Filter
VCHRANGE	IQUANT	2	Vch Range
VCHRANGEMODE	TOGGLE	F	Vch Auto Range
VCHOFFSETENABLE	TOGGLE	T	Vch Offset Enable
VCHOFFSET	QUANT	0	Vch Offset (V)
VCHFILTER	IQUANT	3	Vch Filter
ACHRANGE	IQUANT	2	Ach Range
ACHOFFSETENABLE	TOGGLE	F	Ach Offset Enable
ACHOFFSET	QUANT	0	Ach Offset (V)
ACHFILTER	IQUANT	3	Ach Filter
IERANGELOWERLIMIT	IQUANT	1	I/E Range Lower Limit
IERANGEMODE	TOGGLE	F	I/E AutoRange
IERANGE	IQUANT	6	I/E Range
POSFEEDENABLE	TOGGLE	F	Positive Feedback IR Comp
POSFEEDRESISTANCE	QUANT	0	Positive Feedback Resistance (ohm)
ACHSELECT	IQUANT	0	Ach Select
CABLEID	IQUANT	14	Cable ID
DCCALDATE	LABEL	8/19/2019	DC Calibration Date
ACCALDATE	LABEL	8/19/2019	AC Calibration Date
THERMOSELECT	IQUANT	1	Thermo Select
FRAMEWORKVERSION	QUANT	6.33	Framework Version
INSTRUMENTVERSION	LABEL	3.50	Instrument Version
ZCURVE	TABLE
	Pt	Time	Freq	Zreal	Zimag	Zsig	Zmod	Zphz	Idc	Vdc	IERange
	#	s	Hz	ohm	ohm	V	ohm	°	A	V	#
	0	1	1000078	2147.802	-1191.409	1	2456.117	-29.01761	-2.595091E-006	0.0099634	8
	1	3	794390.6	2382.555	-1127.76	1	2635.984	-25.3301	-1.97363E-006	0.0097293	8
	2	4	630984.4	2562.17	-1033.159	1	2762.631	-21.96106	8.907336E-007	0.0090746	8
	3	5	501234.4	2717.407	-922.4582	1	2869.709	-18.75043	-6.103699E-007	0.0091878	8
	4	7	398109.4	2851.877	-829.7446	1	2970.132	-16.22219	-2.213735E-006	0.0093721	8
	5	8	316265.6	2943.111	-719.5975	1	3029.805	-13.7394	-4.784864E-006	0.0102087	8
	6	9	251203.1	3033.164	-646.9045	1	3101.381	-12.0395	2.421355E-006	0.0086219	8
	7	11	199546.9	3105.494	-569.6667	1	3157.311	-10.39468	-1.019897E-006	0.0093922	8
	8	12	158578.1	3156.209	-500.951	1	3195.717	-9.018712	2.232073E-006	0.0086314	8
	9	13	125953.1	3211.763	-406.2672	1	3237.356	-7.209255	-9.095943E-007	0.0117336	7
	10	15	100078.1	3246.163	-381.948	1	3268.556	-6.710647	-4.595168E-009	0.0090652	7
	11	16	79453.13	3280.831	-363.722	1	3300.931	-6.326135	7.010409E-008	0.0089215	7
	12	17	63140.62	3315.717	-351.7678	1	3334.324	-6.055915	7.135582E-008	0.0089142	7
	13	19	50203.12	3348.569	-346.8337	1	3366.483	-5.91342	-7.775291E-009	0.0090763	7
	14	20	39890.62	3381.944	-348.5679	1	3399.859	-5.884544	-4.423494E-008	0.0091765	7
	15	21	31640.63	3415.999	-358.7746	1	3434.788	-5.995664	-2.006135E-008	0.0090209	7
	16	23	25171.88	3449.947	-376.1676	1	3470.394	-6.222706	4.444433E-008	0.0088925	7
	17	24	20015.62	3487.143	-399.2996	1	3509.93	-6.532273	-4.254252E-008	0.0090807	7
	18	25	15890.62	3521.208	-436.4134	1	3548.15	-7.065126	-1.435899E-008	0.0091646	7
	19	27	12609.37	3560.205	-481.9802	1	3592.682	-7.709823	4.633206E-008	0.0088893	7
	20	28	10078.13	3598.983	-538.0474	1	3638.98	-8.502737	-7.912816E-009	0.0090751	7
	21	29	8015.625	3640.062	-612.2729	1	3691.196	-9.548	-3.844825E-008	0.0090659	7
	22	31	6328.125	3684.284	-703.8163	1	3750.907	-10.81503	-1.958837E-009	0.0090507	7
	23	32	5015.625	3731.77	-819.2983	1	3820.649	-12.38265	7.854899E-008	0.0088736	7
	24	33	3984.375	3783.401	-961.184	1	3903.588	-14.25458	-4.037037E-008	0.0090828	7
	25	35	3170.956	3840.596	-1136.228	1	4005.146	-16.48068	-4.814956E-008	0.0091318	7
	26	36	2527.573	3904.817	-1350.317	1	4131.7	-19.07579	-4.31051E-008	0.0090794	7
	27	37	1976.103	3986.475	-1634.256	1	4308.454	-22.29118	-4.254876E-008	0.0090777	7
	28	39	1577.524	4071.062	-1956.237	1	4516.681	-25.66533	7.441871E-008	0.0089944	7
	29	40	1265.625	4168.319	-2335.553	1	4778.042	-29.26237	3.438983E-008	0.0089871	7
	30	41	998.264	4287.015	-2838.327	1	5141.458	-33.50756	1.323436E-007	0.0088303	7
	31	43	796.875	4416.673	-3420.363	1	5586.223	-37.75494	-3.941711E-008	0.0090452	7
	32	44	627.7902	4573.431	-4189.793	1	6202.47	-42.4933	-3.961403E-009	0.0090444	7
	33	45	505.5147	4739.502	-5034.967	1	6914.75	-46.73142	-3.971029E-008	0.0090402	7
	34	47	397.9953	4951.868	-6199.19	1	7934.164	-51.3824	4.677247E-009	0.00904	7
	35	48	315.5048	5206.081	-7601.491	1	9213.356	-55.59368	5.645233E-009	0.0090409	7
	36	49	252.4038	5508.437	-9262.876	1	10777	-59.26094	9.566311E-010	0.0089815	6
	37	51	198.6229	5915.278	-11471.17	1	12906.52	-62.72144	6.624951E-010	0.0089899	6
	38	52	158.3615	6413.121	-14048.58	1	15443.15	-65.46349	4.477277E-010	0.0089803	6
	39	53	125.558	7071.657	-17296.48	1	18686.27	-67.76283	9.389493E-010	0.0089775	6
	40	55	100.4464	7896.038	-21126.04	1	22553.42	-69.50634	1.092209E-009	0.0089756	6
	41	56	79.00281	9070.882	-26121.92	1	27652.05	-70.85036	1.037973E-009	0.0089772	6
	42	58	63.3446	10388.67	-31899.24	1	33548.27	-71.96106	3.710663E-010	0.008974	6
	43	59	49.86702	12659.18	-39056.19	1	41056.56	-72.04108	7.001687E-010	0.0089741	6
	44	60	39.72458	15209.89	-47724.93	1	50090.02	-72.32297	6.898147E-010	0.008979	6
	45	62	31.6723	18542.92	-57870.75	1	60768.93	-72.23352	5.242536E-010	0.0089759	6
	46	63	24.93351	23433.55	-70689	1	74471.91	-71.65954	3.359125E-010	0.0089757	6
	47	64	19.86229	29428.86	-85168.62	1	90109.66	-70.9381	1.150634E-009	0.0089813	6
	48	66	15.83615	36976.27	-101945.3	1	108444	-70.06394	7.726691E-010	0.0089811	5
	49	67	12.40079	48501.7	-123563.4	1	132741.6	-68.56876	2.249486E-010	0.0089802	5
	50	68	9.93114	61029.05	-145316.6	1	157611.7	-67.2189	-3.685656E-010	0.0089826	5
	51	70	7.944915	76865.98	-170319	1	186860.8	-65.71006	5.046287E-010	0.0089751	5
	52	72	6.317385	97542.4	-198596.9	1	221258.3	-63.84169	1.619149E-010	0.0089707	5
	53	74	5.008013	122763.9	-230233	1	260918.1	-61.93275	-2.811303E-010	0.0089729	5
	54	76	3.945707	153315.5	-265095	1	306236.8	-59.95741	3.565641E-010	0.0089836	5
	55	79	3.158693	186819.7	-300129.2	1	353523.8	-58.09921	-6.557865E-011	0.0089887	5
	56	82	2.504006	225211	-338831.4	1	406849.7	-56.38922	1.302454E-011	0.0089696	5
	57	85	1.998082	265589.4	-379966.5	1	463586.4	-55.04718	-3.918697E-010	0.0089879	5
	58	88	1.584686	311841.1	-425235.7	1	527323.7	-53.74602	1.015561E-011	0.0090359	5
	59	92	1.266892	357464.2	-476527.8	1	595700.8	-53.12484	-3.362044E-010	0.0089723	5
	60	96	0.999041	410651.5	-538060.4	1	676863.1	-52.64887	2.355813E-010	0.0090055	5
