EXPLAIN
TAG	EISPOT
TITLE	LABEL	Potentiostatic IDE	Test &Identifier
DATE	LABEL	9/16/2019	Date
TIME	LABEL	8:00:24	Time
NOTES	NOTES	1	&Notes...
	
PSTAT	PSTAT	REF600-11020	Potentiostat
VDC	POTEN	0.00000E+000	T	DC &Voltage (V)
FREQINIT	QUANT	1.00000E+006	Initial Fre&q. (Hz)
FREQFINAL	QUANT	1.00000E+000	Final Fre&q. (Hz)
PTSPERDEC	QUANT	1.00000E+001	Points/&decade
VAC	QUANT	2.50000E+001	AC &Voltage (mV rms)
AREA	QUANT	1.00000E-002	&Area (cm^2)
CONDIT	TWOPARAM	T	5.00000E+000	0.00000E+000	Conditionin&g	Time(s)	E(V)
DELAY	TWOPARAM	T	5.00000E+000	0.00000E+000	Init. De&lay	Time(s)	Stab.(mV/s)
SPEED	SELECTOR	1	&Optimize for:
ZGUESS	QUANT	1.00000E+007	E&stimated Z (ohms)
OCVCURVE	TABLE	19
	Pt	T	Vf	Vm	Ach	Over
	#	s	V vs. Ref.	V	V	bits
	0	0.258333	5.62717E-003	5.62717E-003	5.41966E-004	...........
	1	0.516667	5.62946E-003	5.74730E-003	5.47566E-004	...........
	2	0.775	5.64370E-003	5.86868E-003	5.40866E-004	...........
	3	1.03333	5.68465E-003	5.99573E-003	5.39299E-004	...........
	4	1.29167	5.75970E-003	6.11654E-003	5.46699E-004	...........
	5	1.55	5.86258E-003	6.23767E-003	5.51799E-004	...........
	6	1.80833	5.98059E-003	6.35699E-003	5.51899E-004	...........
	7	2.06667	6.10341E-003	6.47511E-003	5.47433E-004	...........
	8	2.325	6.22581E-003	6.58969E-003	5.52532E-004	...........
	9	2.58333	6.34596E-003	6.69774E-003	5.46333E-004	...........
	10	2.84167	6.46324E-003	6.80806E-003	5.43833E-004	...........
	11	3.1	6.57749E-003	6.91656E-003	5.45066E-004	...........
	12	3.35833	6.68917E-003	7.02603E-003	5.53166E-004	...........
	13	3.61667	6.79902E-003	7.12408E-003	5.41366E-004	...........
	14	3.875	6.90698E-003	7.22055E-003	5.44066E-004	...........
	15	4.13333	7.01218E-003	7.31935E-003	5.36333E-004	...........
	16	4.39167	7.11412E-003	7.41576E-003	5.37733E-004	...........
	17	4.65	7.21328E-003	7.50302E-003	5.47566E-004	...........
	18	4.90833	7.31018E-003	7.60181E-003	5.42333E-004	...........
EOC	QUANT	0.0073102	Open Circuit (V)
PSTATMODEL	IQUANT	4	Pstat Model
PSTATSECTION	LABEL	REF600-11020	Pstat Section
PSTATSERIALNO	LABEL	11020	Pstat Serial Number
CTRLMODE	IQUANT	1	Control Mode
IESTAB	IQUANT	0	I/E Stability
CASPEED	IQUANT	1	Control Amp Speed
CONVENTION	IQUANT	1	Current Convention
ICHRANGE	IQUANT	2	Ich Range
ICHRANGEMODE	TOGGLE	F	Ich Auto Range
ICHOFFSETENABLE	TOGGLE	T	Ich Offset Enable
ICHOFFSET	QUANT	0	Ich Offset (V)
ICHFILTER	IQUANT	3	Ich Filter
VCHRANGE	IQUANT	2	Vch Range
VCHRANGEMODE	TOGGLE	F	Vch Auto Range
VCHOFFSETENABLE	TOGGLE	T	Vch Offset Enable
VCHOFFSET	QUANT	0	Vch Offset (V)
VCHFILTER	IQUANT	3	Vch Filter
ACHRANGE	IQUANT	2	Ach Range
ACHOFFSETENABLE	TOGGLE	F	Ach Offset Enable
ACHOFFSET	QUANT	0	Ach Offset (V)
ACHFILTER	IQUANT	3	Ach Filter
IERANGELOWERLIMIT	IQUANT	1	I/E Range Lower Limit
IERANGEMODE	TOGGLE	F	I/E AutoRange
IERANGE	IQUANT	3	I/E Range
POSFEEDENABLE	TOGGLE	F	Positive Feedback IR Comp
POSFEEDRESISTANCE	QUANT	0	Positive Feedback Resistance (ohm)
ACHSELECT	IQUANT	0	Ach Select
CABLEID	IQUANT	14	Cable ID
DCCALDATE	LABEL	8/19/2019	DC Calibration Date
ACCALDATE	LABEL	8/19/2019	AC Calibration Date
THERMOSELECT	IQUANT	1	Thermo Select
FRAMEWORKVERSION	QUANT	6.33	Framework Version
INSTRUMENTVERSION	LABEL	3.50	Instrument Version
ZCURVE	TABLE
	Pt	Time	Freq	Zreal	Zimag	Zsig	Zmod	Zphz	Idc	Vdc	IERange
	#	s	Hz	ohm	ohm	V	ohm	°	A	V	#
	0	2	1000078	2056.597	-1046.235	1	2307.423	-26.96341	3.08944E-007	0.0091064	8
	1	4	794390.6	2248.978	-940.296	1	2437.633	-22.68977	-2.82219E-006	0.0097926	8
	2	5	630984.4	2381.682	-849.1167	1	2528.519	-19.62215	7.021487E-006	0.0079365	8
	3	6	501234.4	2501.201	-723.5369	1	2603.75	-16.13387	1.49718E-006	0.0085059	8
	4	8	398109.4	2583.299	-623.3535	1	2657.443	-13.56622	-2.312026E-006	0.0093548	8
	5	9	316265.6	2650.634	-546.9641	1	2706.479	-11.65946	-5.321675E-007	0.0092158	8
	6	10	251203.1	2699.804	-478.0116	1	2741.794	-10.04041	4.482985E-007	0.0087399	8
	7	12	199546.9	2730.446	-417.4829	1	2762.178	-8.693151	-9.000648E-007	0.0091846	8
	8	13	158578.1	2771.608	-373.53	1	2796.665	-7.675513	-5.349822E-009	0.0087829	8
	9	14	125953.1	2817.829	-306.9594	1	2834.499	-6.216984	8.025148E-007	0.0077264	7
	10	16	100078.1	2838.799	-283.5168	1	2852.922	-5.703336	2.845623E-008	0.0088298	7
	11	17	79453.13	2862.267	-278.2601	1	2875.761	-5.552658	-4.588528E-008	0.0089972	7
	12	18	63140.62	2887.684	-278.9288	1	2901.124	-5.517231	-3.311157E-008	0.0088562	7
	13	20	50203.12	2914.429	-284.6372	1	2928.295	-5.578093	-2.18022E-008	0.0089965	7
	14	21	39890.62	2942.935	-298.874	1	2958.072	-5.798873	3.050185E-008	0.0088212	7
	15	22	31640.63	2974.068	-312.5194	1	2990.443	-5.998711	-6.894297E-008	0.0089554	7
	16	24	25171.88	3007.613	-335.0704	1	3026.22	-6.356961	-3.899359E-008	0.008876	7
	17	25	20015.62	3043.103	-363.4178	1	3064.726	-6.810205	1.862831E-008	0.008768	7
	18	26	15890.62	3079.32	-395.6382	1	3104.632	-7.321384	-4.492255E-008	0.0089778	7
	19	28	12609.37	3125.379	-440.0363	1	3156.205	-8.014254	-4.15283E-008	0.008897	7
	20	29	10078.13	3171.109	-489.3821	1	3208.649	-8.772975	-6.323535E-009	0.0088662	7
	21	30	8015.625	3222.177	-547.1393	1	3268.3	-9.63714	8.37825E-008	0.0086773	7
	22	32	6328.125	3280.137	-617.0509	1	3337.671	-10.65383	-3.901858E-008	0.0088727	7
	23	33	5015.625	3341.968	-699.6278	1	3414.415	-11.82389	-4.333012E-008	0.0088742	7
	24	34	3984.375	3408.571	-795.9065	1	3500.26	-13.14316	-4.524834E-009	0.0088669	7
	25	36	3170.956	3480.823	-907.5114	1	3597.18	-14.61272	3.306308E-008	0.008823	7
	26	37	2527.573	3558.056	-1040.865	1	3707.177	-16.30618	-1.411679E-008	0.0088298	7
	27	38	1976.103	3648.698	-1213.38	1	3845.164	-18.39462	-1.441993E-008	0.0088328	7
	28	40	1577.524	3738.142	-1406.734	1	3994.072	-20.62228	7.133861E-008	0.0088201	7
	29	41	1265.625	3837.818	-1633.616	1	4171.037	-23.05765	3.116752E-008	0.0088141	7
	30	42	998.264	3941.264	-1926.688	1	4386.991	-26.05171	-1.91058E-008	0.0088167	7
	31	44	796.875	4050.885	-2271.411	1	4644.241	-29.28021	-4.140414E-009	0.0088701	7
	32	45	627.7902	4177.583	-2721.489	1	4985.85	-33.08226	3.283527E-008	0.0088178	7
	33	46	505.5147	4303.641	-3229.207	1	5380.437	-36.88247	-1.580697E-009	0.0088694	7
	34	48	397.9953	4461.504	-3919.227	1	5938.465	-41.29782	5.567921E-009	0.0088669	7
	35	49	315.5048	4638.113	-4756.428	1	6643.47	-45.72154	5.680425E-009	0.0088658	7
	36	50	252.4038	4842.878	-5753.545	1	7520.422	-49.91199	5.004928E-009	0.0088626	7
	37	52	198.6229	5115.104	-7080.346	1	8734.734	-54.15426	5.291672E-009	0.0088624	7
	38	53	158.3615	5442.451	-8630.642	1	10203.34	-57.76462	1.983116E-010	0.0087985	6
	39	54	125.558	5875.285	-10585.35	1	12106.56	-60.96801	3.681911E-010	0.0087959	6
	40	56	100.4464	6407.096	-12881.92	1	14387.31	-63.55557	-4.907904E-010	0.0087948	6
	41	57	79.00281	7179.639	-15921.64	1	17465.56	-65.72768	-2.517333E-010	0.0087942	6
	42	58	63.3446	8188.239	-19185.83	1	20860.09	-66.8879	5.964352E-010	0.0087924	6
	43	60	49.86702	9401.693	-23765.05	1	25557.18	-68.41576	6.658075E-010	0.0087875	6
	44	61	39.72458	11083.54	-28710.06	1	30775.19	-68.89088	8.521416E-010	0.0087923	6
	45	62	31.6723	13231.19	-34734.08	1	37168.81	-69.14676	4.668784E-010	0.0087868	6
	46	64	24.93351	16119.33	-42201.13	1	45174.86	-69.09492	1.114282E-009	0.0087912	6
	47	65	19.86229	19763.93	-50634.69	1	54355.17	-68.67811	6.333618E-010	0.0087993	6
	48	66	15.83615	23962.7	-60398.2	1	64978.09	-68.35954	4.692761E-010	0.0087899	6
	49	68	12.40079	30723.33	-72712.4	1	78936.78	-67.09438	-1.165766E-009	0.0087938	6
	50	69	9.93114	37424.96	-85664.23	1	93482.55	-66.40046	-6.112859E-010	0.0087931	6
	51	71	7.944915	46338.34	-100477.3	1	110647.8	-65.24169	-6.332985E-010	0.0088027	5
	52	72	6.317385	57000.3	-117766.3	1	130835.5	-64.17246	-7.341895E-010	0.0088142	5
	53	74	5.008013	70265.03	-137456	1	154374	-62.92471	3.094725E-010	0.0088007	5
	54	77	3.945707	86503.94	-160358.6	1	182202.7	-61.65577	-5.18134E-010	0.0087918	5
	55	79	3.158693	104435.7	-184384.3	1	211906.5	-60.47269	1.176227E-010	0.0088033	5
	56	83	2.504006	126086.8	-212141.8	1	246783.4	-59.27481	-4.871146E-010	0.0088076	5
	57	85	1.998082	149420.8	-241968	1	284385.4	-58.30371	3.035373E-010	0.0087858	5
	58	89	1.584686	178119.2	-277264.8	1	329548.6	-57.28268	-3.892413E-010	0.00875	5
	59	92	1.266892	208343.3	-314361.4	1	377133.9	-56.46554	8.028449E-011	0.008768	5
	60	96	0.999041	244193.5	-360603.8	1	435506.1	-55.89495	-6.31469E-010	0.0087954	5
