EXPLAIN
TAG	EISPOT
TITLE	LABEL	Potentiostatic EIS	Test &Identifier
DATE	LABEL	10/28/2019	Date
TIME	LABEL	9:33:59	Time
NOTES	NOTES	1	&Notes...
	
PSTAT	PSTAT	REF600-11020	Potentiostat
VDC	POTEN	0.00000E+000	T	DC &Voltage (V)
FREQINIT	QUANT	1.00000E+006	Initial Fre&q. (Hz)
FREQFINAL	QUANT	1.00000E+000	Final Fre&q. (Hz)
PTSPERDEC	QUANT	1.00000E+001	Points/&decade
VAC	QUANT	2.50000E+001	AC &Voltage (mV rms)
AREA	QUANT	1.00000E-002	&Area (cm^2)
CONDIT	TWOPARAM	T	5.00000E+000	0.00000E+000	Conditionin&g	Time(s)	E(V)
DELAY	TWOPARAM	T	5.00000E+000	0.00000E+000	Init. De&lay	Time(s)	Stab.(mV/s)
SPEED	SELECTOR	1	&Optimize for:
ZGUESS	QUANT	1.00000E+005	E&stimated Z (ohms)
OCVCURVE	TABLE	19
	Pt	T	Vf	Vm	Ach	Over
	#	s	V vs. Ref.	V	V	bits
	0	0.258333	4.36156E-003	4.36156E-003	6.28565E-004	...........
	1	0.516667	4.36149E-003	4.35811E-003	6.30731E-004	...........
	2	0.775	4.36122E-003	4.36179E-003	6.38865E-004	...........
	3	1.03333	4.36105E-003	4.37326E-003	6.35865E-004	...........
	4	1.29167	4.36240E-003	4.39243E-003	6.32998E-004	...........
	5	1.55	4.36752E-003	4.41548E-003	6.35998E-004	...........
	6	1.80833	4.37820E-003	4.44560E-003	6.31998E-004	...........
	7	2.06667	4.39507E-003	4.47767E-003	6.30565E-004	...........
	8	2.325	4.41776E-003	4.51129E-003	6.31598E-004	...........
	9	2.58333	4.44507E-003	4.53776E-003	6.31465E-004	...........
	10	2.84167	4.47515E-003	4.57335E-003	6.30331E-004	...........
	11	3.1	4.50638E-003	4.60566E-003	6.24698E-004	...........
	12	3.35833	4.53813E-003	4.63775E-003	6.25465E-004	...........
	13	3.61667	4.57009E-003	4.65828E-003	6.33598E-004	...........
	14	3.875	4.60135E-003	4.69030E-003	6.31931E-004	...........
	15	4.13333	4.63114E-003	4.72188E-003	6.30631E-004	...........
	16	4.39167	4.66015E-003	4.75671E-003	6.34798E-004	...........
	17	4.65	4.68978E-003	4.78565E-003	6.35631E-004	...........
	18	4.90833	4.72058E-003	4.81635E-003	6.27298E-004	...........
EOC	QUANT	0.0047206	Open Circuit (V)
PSTATMODEL	IQUANT	4	Pstat Model
PSTATSECTION	LABEL	REF600-11020	Pstat Section
PSTATSERIALNO	LABEL	11020	Pstat Serial Number
CTRLMODE	IQUANT	1	Control Mode
IESTAB	IQUANT	0	I/E Stability
CASPEED	IQUANT	1	Control Amp Speed
CONVENTION	IQUANT	1	Current Convention
ICHRANGE	IQUANT	2	Ich Range
ICHRANGEMODE	TOGGLE	F	Ich Auto Range
ICHOFFSETENABLE	TOGGLE	T	Ich Offset Enable
ICHOFFSET	QUANT	0	Ich Offset (V)
ICHFILTER	IQUANT	3	Ich Filter
VCHRANGE	IQUANT	2	Vch Range
VCHRANGEMODE	TOGGLE	F	Vch Auto Range
VCHOFFSETENABLE	TOGGLE	T	Vch Offset Enable
VCHOFFSET	QUANT	0	Vch Offset (V)
VCHFILTER	IQUANT	3	Vch Filter
ACHRANGE	IQUANT	2	Ach Range
ACHOFFSETENABLE	TOGGLE	F	Ach Offset Enable
ACHOFFSET	QUANT	0	Ach Offset (V)
ACHFILTER	IQUANT	3	Ach Filter
IERANGELOWERLIMIT	IQUANT	1	I/E Range Lower Limit
IERANGEMODE	TOGGLE	F	I/E AutoRange
IERANGE	IQUANT	4	I/E Range
POSFEEDENABLE	TOGGLE	F	Positive Feedback IR Comp
POSFEEDRESISTANCE	QUANT	0	Positive Feedback Resistance (ohm)
ACHSELECT	IQUANT	0	Ach Select
CABLEID	IQUANT	14	Cable ID
DCCALDATE	LABEL	8/19/2019	DC Calibration Date
ACCALDATE	LABEL	8/19/2019	AC Calibration Date
THERMOSELECT	IQUANT	1	Thermo Select
FRAMEWORKVERSION	QUANT	6.33	Framework Version
INSTRUMENTVERSION	LABEL	3.50	Instrument Version
ZCURVE	TABLE
	Pt	Time	Freq	Zreal	Zimag	Zsig	Zmod	Zphz	Idc	Vdc	IERange
	#	s	Hz	ohm	ohm	V	ohm	°	A	V	#
	0	2	1000078	2351.608	-1055.172	1	2577.489	-24.16589	-6.951855E-007	0.0073779	8
	1	3	794390.6	2526.78	-1039.19	1	2732.129	-22.35591	6.643565E-007	0.0067799	8
	2	4	630984.4	2670.683	-993.918	1	2849.635	-20.41319	-2.609743E-006	0.007023	8
	3	6	501234.4	2819.647	-944.0049	1	2973.476	-18.51031	5.405537E-006	0.0055368	8
	4	7	398109.4	2956.474	-895.6559	1	3089.165	-16.85404	-5.103849E-006	0.0071948	8
	5	9	316265.6	3072.767	-860.7242	1	3191.041	-15.64829	-3.204915E-006	0.0070243	8
	6	10	251203.1	3212.81	-811.2915	1	3313.66	-14.17193	-4.330426E-006	0.007115	8
	7	12	199546.9	3338.973	-781.7559	1	3429.269	-13.17734	-4.542916E-007	0.0061625	8
	8	13	158578.1	3430.968	-709.3458	1	3503.528	-11.68121	-1.056237E-006	0.0067002	8
	9	15	125953.1	3585.186	-617.765	1	3638.021	-9.77666	-1.548966E-006	0.0096561	7
	10	16	100078.1	3669.646	-560.1578	1	3712.153	-8.678991	8.833241E-009	0.0063901	7
	11	18	79453.13	3750.042	-517.6578	1	3785.602	-7.859471	8.459821E-008	0.0061043	7
	12	19	63140.62	3817.128	-472.0303	1	3846.203	-7.049471	-1.979569E-008	0.0063271	7
	13	21	50203.12	3872.849	-429.9824	1	3896.646	-6.335308	5.226258E-008	0.006119	7
	14	22	39890.62	3917.428	-392.0254	1	3936.995	-5.714684	5.211411E-008	0.0061132	7
	15	23	31640.63	3954.255	-363.092	1	3970.89	-5.246365	-6.379542E-008	0.0063475	7
	16	25	25171.88	3985.738	-343.226	1	4000.489	-4.9218	-6.497999E-008	0.0063489	7
	17	26	20015.62	3999.869	-320.1429	1	4012.66	-4.576105	9.433312E-009	0.0062466	7
	18	27	15890.62	4035.884	-334.584	1	4049.729	-4.739113	8.334752E-009	0.0063746	7
	19	29	12609.37	4057.884	-348.4679	1	4072.818	-4.908194	-3.756374E-008	0.0063531	7
	20	30	10078.13	4078.237	-372.4193	1	4095.206	-5.217705	4.250653E-008	0.0062123	7
	21	31	8015.625	4108.304	-398.6689	1	4127.602	-5.542616	1.057605E-007	0.006177	7
	22	33	6328.125	4119.732	-461.0463	1	4145.45	-6.3855	-3.036119E-008	0.0062471	7
	23	34	5015.625	4143.222	-531.9506	1	4177.231	-7.316211	8.602655E-008	0.0060867	7
	24	36	3984.375	4165.725	-621.8087	1	4211.877	-8.489734	1.068606E-007	0.0061805	7
	25	37	3170.956	4199.184	-736.5031	1	4263.283	-9.94803	-2.746392E-008	0.0062459	7
	26	38	2527.573	4232.667	-879.4028	1	4323.057	-11.73711	1.106632E-008	0.0061822	7
	27	40	1976.103	4273.208	-1068.169	1	4404.69	-14.03457	-1.080227E-008	0.0062142	7
	28	41	1577.524	4352.334	-1289.788	1	4539.423	-16.50688	-7.598928E-008	0.0064944	7
	29	42	1265.625	4368.048	-1555.965	1	4636.903	-19.60667	-3.915611E-008	0.0062557	7
	30	44	998.264	4434.087	-1903.933	1	4825.566	-23.23799	5.250116E-008	0.0061113	7
	31	45	796.875	4505.945	-2317.776	1	5067.112	-27.22047	1.396049E-008	0.0061767	7
	32	46	627.7902	4603.882	-2855.687	1	5417.627	-31.81042	-2.608769E-008	0.0062476	7
	33	48	505.5147	4707.307	-3456.871	1	5840.265	-36.29217	-3.989217E-008	0.0062641	7
	34	49	397.9953	4846.393	-4279.305	1	6465.29	-41.44411	5.389093E-009	0.0062839	7
	35	51	315.5048	5017.253	-5265.092	1	7272.828	-46.38075	5.418346E-009	0.0062809	7
	36	52	252.4038	5223.748	-6429.992	1	8284.463	-50.90947	5.949187E-009	0.0062789	7
	37	53	198.6229	5507.142	-7974.556	1	9691.34	-55.37146	4.878913E-009	0.0062804	7
	38	55	158.3615	5855.472	-9771.69	1	11391.77	-59.06876	1.791249E-010	0.0062152	6
	39	56	125.558	6311.053	-12032.71	1	13587.32	-62.32336	1.203229E-009	0.0062146	6
	40	57	100.4464	6896.296	-14702.59	1	16239.61	-64.87092	1.744546E-009	0.0062196	6
	41	59	79.00281	7701.059	-18225.13	1	19785.38	-67.09343	1.991064E-011	0.006215	6
	42	60	63.3446	8599.018	-22304.85	1	23905.01	-68.91724	9.633494E-010	0.0062141	6
	43	62	49.86702	10038.8	-27157.72	1	28953.75	-69.71326	1.161551E-009	0.0062123	6
	44	63	39.72458	11907.98	-33205.29	1	35275.93	-70.27131	8.046738E-010	0.0062159	6
	45	64	31.6723	14290.44	-40223.84	1	42686.93	-70.44125	1.415661E-009	0.0062086	6
	46	66	24.93351	17570.92	-49284.85	1	52323.36	-70.37794	1.13741E-009	0.0062133	6
	47	67	19.86229	21731.37	-59434.91	1	63283.19	-69.91592	-2.023279E-011	0.0062115	6
	48	68	15.83615	26994.63	-71470.18	1	76398.27	-69.30821	2.461661E-009	0.006215	6
	49	70	12.40079	34906.81	-85869.76	1	92693.59	-67.87782	3.34917E-010	0.0062168	6
	50	71	9.93114	43665.02	-101127.8	1	110152	-66.64625	-6.560057E-010	0.0062246	5
	51	73	7.944915	54574.28	-118312	1	130292.3	-65.23734	1.328952E-009	0.0062172	5
	52	75	6.317385	68300.13	-138426.9	1	154359.7	-63.73817	1.837514E-010	0.0062316	5
	53	77	5.008013	85112.23	-160581.1	1	181742.6	-62.07523	4.459265E-010	0.0062175	5
	54	79	3.945707	105434.6	-185653.2	1	213503	-60.40726	4.688602E-010	0.006221	5
	55	82	3.158693	127661.3	-211192.6	1	246778.7	-58.84796	-1.113441E-010	0.0062206	5
	56	85	2.504006	153549	-240077.6	1	284981.7	-57.39779	7.054684E-010	0.006218	5
	57	88	1.998082	181483.2	-270330.9	1	325599.4	-56.12507	3.385178E-011	0.0062664	5
	58	91	1.584686	211551	-304785.6	1	371009.6	-55.23557	2.639602E-010	0.0062112	5
	59	95	1.266892	244205.6	-342824.6	1	420909.8	-54.53643	1.346858E-010	0.0062551	5
	60	99	0.999041	280429.7	-388412	1	479066.5	-54.17108	-1.994249E-010	0.006174	5
