EXPLAIN
TAG	EISPOT
TITLE	LABEL	Potentiostatic EIS	Test &Identifier
DATE	LABEL	10/20/2019	Date
TIME	LABEL	10:49:30	Time
NOTES	NOTES	1	&Notes...
	
PSTAT	PSTAT	REF600-11020	Potentiostat
VDC	POTEN	0.00000E+000	T	DC &Voltage (V)
FREQINIT	QUANT	1.00000E+006	Initial Fre&q. (Hz)
FREQFINAL	QUANT	1.00000E+000	Final Fre&q. (Hz)
PTSPERDEC	QUANT	1.00000E+001	Points/&decade
VAC	QUANT	2.50000E+001	AC &Voltage (mV rms)
AREA	QUANT	1.00000E-002	&Area (cm^2)
CONDIT	TWOPARAM	T	5.00000E+000	0.00000E+000	Conditionin&g	Time(s)	E(V)
DELAY	TWOPARAM	T	5.00000E+000	0.00000E+000	Init. De&lay	Time(s)	Stab.(mV/s)
SPEED	SELECTOR	1	&Optimize for:
ZGUESS	QUANT	1.00000E+005	E&stimated Z (ohms)
OCVCURVE	TABLE	19
	Pt	T	Vf	Vm	Ach	Over
	#	s	V vs. Ref.	V	V	bits
	0	0.258333	4.79871E-003	4.79871E-003	5.60766E-004	...........
	1	0.516667	4.80028E-003	4.88076E-003	5.58399E-004	...........
	2	0.775	4.81266E-003	5.10280E-003	5.61166E-004	...........
	3	1.03333	4.84921E-003	4.91621E-003	5.55666E-004	...........
	4	1.29167	4.90177E-003	4.88084E-003	5.56199E-004	...........
	5	1.55	4.93958E-003	5.00724E-003	5.58899E-004	...........
	6	1.80833	4.95192E-003	4.99720E-003	5.62232E-004	...........
	7	2.06667	4.95801E-003	5.00244E-003	5.67632E-004	...........
	8	2.325	4.96909E-003	4.90306E-003	5.61166E-004	...........
	9	2.58333	4.97290E-003	4.82808E-003	5.58632E-004	...........
	10	2.84167	4.95337E-003	4.79037E-003	5.52432E-004	...........
	11	3.1	4.91217E-003	4.88041E-003	5.55866E-004	...........
	12	3.35833	4.87170E-003	4.90799E-003	5.62932E-004	...........
	13	3.61667	4.85711E-003	5.02249E-003	5.63532E-004	...........
	14	3.875	4.87646E-003	4.97526E-003	5.68199E-004	...........
	15	4.13333	4.91495E-003	4.91329E-003	5.61699E-004	...........
	16	4.39167	4.94615E-003	4.94041E-003	5.59266E-004	...........
	17	4.65	4.95623E-003	4.97819E-003	5.59899E-004	...........
	18	4.90833	4.95529E-003	5.01369E-003	5.56466E-004	...........
EOC	QUANT	0.0049553	Open Circuit (V)
PSTATMODEL	IQUANT	4	Pstat Model
PSTATSECTION	LABEL	REF600-11020	Pstat Section
PSTATSERIALNO	LABEL	11020	Pstat Serial Number
CTRLMODE	IQUANT	1	Control Mode
IESTAB	IQUANT	0	I/E Stability
CASPEED	IQUANT	1	Control Amp Speed
CONVENTION	IQUANT	1	Current Convention
ICHRANGE	IQUANT	2	Ich Range
ICHRANGEMODE	TOGGLE	F	Ich Auto Range
ICHOFFSETENABLE	TOGGLE	T	Ich Offset Enable
ICHOFFSET	QUANT	0	Ich Offset (V)
ICHFILTER	IQUANT	3	Ich Filter
VCHRANGE	IQUANT	2	Vch Range
VCHRANGEMODE	TOGGLE	F	Vch Auto Range
VCHOFFSETENABLE	TOGGLE	T	Vch Offset Enable
VCHOFFSET	QUANT	0	Vch Offset (V)
VCHFILTER	IQUANT	3	Vch Filter
ACHRANGE	IQUANT	2	Ach Range
ACHOFFSETENABLE	TOGGLE	F	Ach Offset Enable
ACHOFFSET	QUANT	0	Ach Offset (V)
ACHFILTER	IQUANT	3	Ach Filter
IERANGELOWERLIMIT	IQUANT	1	I/E Range Lower Limit
IERANGEMODE	TOGGLE	F	I/E AutoRange
IERANGE	IQUANT	4	I/E Range
POSFEEDENABLE	TOGGLE	F	Positive Feedback IR Comp
POSFEEDRESISTANCE	QUANT	0	Positive Feedback Resistance (ohm)
ACHSELECT	IQUANT	0	Ach Select
CABLEID	IQUANT	14	Cable ID
DCCALDATE	LABEL	8/19/2019	DC Calibration Date
ACCALDATE	LABEL	8/19/2019	AC Calibration Date
THERMOSELECT	IQUANT	1	Thermo Select
FRAMEWORKVERSION	QUANT	6.33	Framework Version
INSTRUMENTVERSION	LABEL	3.50	Instrument Version
ZCURVE	TABLE
	Pt	Time	Freq	Zreal	Zimag	Zsig	Zmod	Zphz	Idc	Vdc	IERange
	#	s	Hz	ohm	ohm	V	ohm	°	A	V	#
	0	2	1000078	2690.528	-1673.179	1	3168.354	-31.87655	8.357688E-006	0.0062542	8
	1	4	794390.6	3020.401	-1601.942	1	3418.923	-27.94031	-5.598072E-006	0.0074898	8
	2	5	630984.4	3294.44	-1504.074	1	3621.543	-24.53903	6.320974E-006	0.0059526	8
	3	6	501234.4	3558.798	-1387.426	1	3819.685	-21.29872	3.837066E-006	0.0058987	8
	4	8	398109.4	3764.528	-1251.547	1	3967.119	-18.38979	-3.653926E-006	0.0071054	8
	5	10	316265.6	3903.124	-1088.383	1	4052.031	-15.58109	-4.116541E-008	0.0065515	8
	6	11	251203.1	4057.92	-979.254	1	4174.404	-13.56718	3.005939E-006	0.0059771	8
	7	12	199546.9	4160.627	-874.0677	1	4251.449	-11.86421	1.345527E-006	0.0062808	8
	8	14	158578.1	4275.425	-786.0501	1	4347.083	-10.41767	1.386327E-006	0.0062766	8
	9	16	125953.1	4364.81	-614.5463	1	4407.86	-8.014318	-6.499971E-007	0.0076178	7
	10	17	100078.1	4422.008	-558.438	1	4457.13	-7.197557	-8.624851E-008	0.0066745	7
	11	18	79453.13	4474.525	-516.5208	1	4504.239	-6.584843	-3.877795E-008	0.0065633	7
	12	20	63140.62	4522.362	-485.2511	1	4548.322	-6.124425	-4.98482E-008	0.0066293	7
	13	21	50203.12	4566.601	-464.1219	1	4590.126	-5.803272	-8.838312E-008	0.0066639	7
	14	22	39890.62	4609.19	-450.4096	1	4631.145	-5.581218	1.44072E-007	0.0062989	7
	15	24	31640.63	4651.337	-449.938	1	4673.049	-5.525204	-5.206725E-008	0.0066244	7
	16	25	25171.88	4690.997	-457.4487	1	4713.248	-5.569663	-1.688902E-008	0.0064919	7
	17	27	20015.62	4726.235	-476.9182	1	4750.236	-5.762137	-4.601329E-008	0.0065533	7
	18	28	15890.62	4770.677	-503.3538	1	4797.158	-6.02299	3.996563E-008	0.0063831	7
	19	29	12609.37	4808.974	-546.0734	1	4839.879	-6.478357	9.669362E-008	0.0064548	7
	20	31	10078.13	4847.37	-599.7393	1	4884.331	-7.053058	4.373484E-008	0.0063838	7
	21	32	8015.625	4899.075	-671.3011	1	4944.854	-7.802427	-4.892098E-009	0.0065409	7
	22	33	6328.125	4935.402	-773.2812	1	4995.614	-8.904735	-4.757447E-008	0.0065557	7
	23	35	5015.625	4982.659	-898.6952	1	5063.057	-10.22421	-1.702342E-008	0.0066823	7
	24	36	3984.375	5029.502	-1072.748	1	5142.633	-12.04026	-6.468459E-008	0.0067097	7
	25	38	3170.956	5087.45	-1247.057	1	5238.063	-13.77302	-4.847302E-008	0.0066213	7
	26	39	2527.573	5152.226	-1484.653	1	5361.868	-16.07474	6.882266E-008	0.0064092	7
	27	40	1976.103	5228.677	-1805.485	1	5531.622	-19.05002	-4.715408E-008	0.0066203	7
	28	42	1577.524	5246.813	-2222.485	1	5698.113	-22.95691	-3.485665E-009	0.0065346	7
	29	43	1265.625	5415.597	-2595.855	1	6005.594	-25.60977	-4.472563E-008	0.0065538	7
	30	44	998.264	5540.932	-3170.156	1	6383.715	-29.77535	4.507358E-008	0.0064741	7
	31	46	796.875	5674.043	-3841.798	1	6852.312	-34.10126	-4.13013E-009	0.0065405	7
	32	47	627.7902	5855.253	-4716.085	1	7518.341	-38.84953	1.555638E-008	0.0064415	7
	33	48	505.5147	6055.626	-5699.425	1	8315.892	-43.26435	-5.969505E-008	0.0067064	7
	34	50	397.9953	6330.96	-7017.303	1	9451.116	-47.94345	3.272513E-009	0.0065396	7
	35	51	315.5048	6672.655	-8602.763	1	10887.23	-52.20138	2.042824E-009	0.006481	6
	36	53	252.4038	7084.814	-10470.09	1	12641.89	-55.91489	1.982963E-009	0.0064797	6
	37	54	198.6229	7662.555	-12927.53	1	15027.83	-59.34344	9.658745E-010	0.0064771	6
	38	55	158.3615	8366.635	-15770.69	1	17852.6	-62.05325	-2.628568E-010	0.0064736	6
	39	57	125.558	9329.812	-19311.52	1	21447.15	-64.21381	8.111495E-010	0.0064784	6
	40	58	100.4464	10515.14	-23443.6	1	25693.79	-65.84237	2.020439E-009	0.0064775	6
	41	60	79.00281	12303.58	-28686.1	1	31213.31	-66.78532	2.152078E-010	0.0064731	6
	42	61	63.3446	14942.93	-34375.2	1	37482.61	-66.50537	1.003018E-009	0.006478	6
	43	62	49.86702	17509.77	-42733.21	1	46181.38	-67.71883	7.990098E-010	0.0064764	6
	44	64	39.72458	21448.49	-50893.12	1	55228.14	-67.14741	5.202632E-010	0.0064794	6
	45	65	31.6723	26561.63	-60722.3	1	66277.59	-66.37408	8.055713E-011	0.0064791	6
	46	67	24.93351	33266.63	-72220.26	1	79513.73	-65.26791	1.872058E-010	0.0064767	6
	47	68	19.86229	41671.61	-84712.23	1	94407.02	-63.80652	2.588004E-010	0.0064693	6
	48	69	15.83615	49977.36	-98832.9	1	110750.6	-63.17541	-1.954896E-009	0.0064743	5
	49	71	12.40079	63410.27	-116081.9	1	132272	-61.35423	-4.913272E-010	0.0064753	5
	50	72	9.93114	78172.99	-130875.4	1	152444.7	-59.14977	-1.737926E-011	0.0064764	5
	51	74	7.944915	93125.99	-147247.1	1	174224.4	-57.68881	1.684683E-009	0.0064766	5
	52	76	6.317385	111998	-167675.2	1	201639.6	-56.2592	-4.928735E-011	0.0064898	5
	53	78	5.008013	131978.5	-189338.6	1	230797.4	-55.12157	1.383724E-010	0.0064719	5
	54	80	3.945707	154123.1	-214235.4	1	263914.3	-54.26838	5.197289E-010	0.0064817	5
	55	83	3.158693	176633.5	-241103.3	1	298881.5	-53.7733	-2.160461E-010	0.0064684	5
	56	86	2.504006	201665.5	-273198.5	1	339567.9	-53.56657	5.859069E-010	0.0064844	5
	57	89	1.998082	228219.9	-309725.9	1	384726.5	-53.61555	3.539699E-010	0.0065055	5
	58	92	1.584686	258159.5	-353138.1	1	437438.9	-53.83155	1.058157E-010	0.0064356	5
	59	96	1.266892	289257.6	-404629	1	497387.7	-54.44012	2.961635E-010	0.0064918	5
	60	100	0.999041	327519.7	-469385.5	1	572356.4	-55.0941	-2.32207E-010	0.0064641	5
