EXPLAIN
TAG	EISPOT
TITLE	LABEL	Potentiostatic IDE	Test &Identifier
DATE	LABEL	9/16/2019	Date
TIME	LABEL	7:55:46	Time
NOTES	NOTES	1	&Notes...
	
PSTAT	PSTAT	REF600-11020	Potentiostat
VDC	POTEN	0.00000E+000	T	DC &Voltage (V)
FREQINIT	QUANT	1.00000E+006	Initial Fre&q. (Hz)
FREQFINAL	QUANT	1.00000E+000	Final Fre&q. (Hz)
PTSPERDEC	QUANT	1.00000E+001	Points/&decade
VAC	QUANT	2.50000E+001	AC &Voltage (mV rms)
AREA	QUANT	1.00000E-002	&Area (cm^2)
CONDIT	TWOPARAM	T	5.00000E+000	0.00000E+000	Conditionin&g	Time(s)	E(V)
DELAY	TWOPARAM	T	5.00000E+000	0.00000E+000	Init. De&lay	Time(s)	Stab.(mV/s)
SPEED	SELECTOR	1	&Optimize for:
ZGUESS	QUANT	1.00000E+007	E&stimated Z (ohms)
OCVCURVE	TABLE	19
	Pt	T	Vf	Vm	Ach	Over
	#	s	V vs. Ref.	V	V	bits
	0	0.258333	1.43440E-002	1.43440E-002	5.66666E-004	...........
	1	0.516667	1.43578E-002	1.50649E-002	5.63032E-004	...........
	2	0.775	1.44423E-002	1.57438E-002	5.64899E-004	...........
	3	1.03333	1.46809E-002	1.63895E-002	5.65199E-004	...........
	4	1.29167	1.51065E-002	1.69986E-002	5.63332E-004	...........
	5	1.55	1.56703E-002	1.75841E-002	5.62799E-004	...........
	6	1.80833	1.62916E-002	1.81009E-002	5.69766E-004	...........
	7	2.06667	1.69095E-002	1.86089E-002	5.69599E-004	...........
	8	2.325	1.74943E-002	1.90749E-002	5.71966E-004	...........
	9	2.58333	1.80398E-002	1.95804E-002	5.66266E-004	...........
	10	2.84167	1.85545E-002	2.00822E-002	5.63999E-004	...........
	11	3.1	1.90526E-002	2.05665E-002	5.69366E-004	...........
	12	3.35833	1.95447E-002	2.10080E-002	5.70432E-004	...........
	13	3.61667	2.00302E-002	2.14127E-002	5.68266E-004	...........
	14	3.875	2.05001E-002	2.17999E-002	5.65899E-004	...........
	15	4.13333	2.09459E-002	2.21869E-002	5.62632E-004	...........
	16	4.39167	2.13659E-002	2.25473E-002	5.61799E-004	...........
	17	4.65	2.17645E-002	2.29253E-002	5.61566E-004	...........
	18	4.90833	2.21478E-002	2.32688E-002	5.60399E-004	...........
EOC	QUANT	0.0221478	Open Circuit (V)
PSTATMODEL	IQUANT	4	Pstat Model
PSTATSECTION	LABEL	REF600-11020	Pstat Section
PSTATSERIALNO	LABEL	11020	Pstat Serial Number
CTRLMODE	IQUANT	1	Control Mode
IESTAB	IQUANT	0	I/E Stability
CASPEED	IQUANT	1	Control Amp Speed
CONVENTION	IQUANT	1	Current Convention
ICHRANGE	IQUANT	2	Ich Range
ICHRANGEMODE	TOGGLE	F	Ich Auto Range
ICHOFFSETENABLE	TOGGLE	T	Ich Offset Enable
ICHOFFSET	QUANT	0	Ich Offset (V)
ICHFILTER	IQUANT	3	Ich Filter
VCHRANGE	IQUANT	2	Vch Range
VCHRANGEMODE	TOGGLE	F	Vch Auto Range
VCHOFFSETENABLE	TOGGLE	T	Vch Offset Enable
VCHOFFSET	QUANT	0	Vch Offset (V)
VCHFILTER	IQUANT	3	Vch Filter
ACHRANGE	IQUANT	2	Ach Range
ACHOFFSETENABLE	TOGGLE	F	Ach Offset Enable
ACHOFFSET	QUANT	0	Ach Offset (V)
ACHFILTER	IQUANT	3	Ach Filter
IERANGELOWERLIMIT	IQUANT	1	I/E Range Lower Limit
IERANGEMODE	TOGGLE	F	I/E AutoRange
IERANGE	IQUANT	3	I/E Range
POSFEEDENABLE	TOGGLE	F	Positive Feedback IR Comp
POSFEEDRESISTANCE	QUANT	0	Positive Feedback Resistance (ohm)
ACHSELECT	IQUANT	0	Ach Select
CABLEID	IQUANT	14	Cable ID
DCCALDATE	LABEL	8/19/2019	DC Calibration Date
ACCALDATE	LABEL	8/19/2019	AC Calibration Date
THERMOSELECT	IQUANT	1	Thermo Select
FRAMEWORKVERSION	QUANT	6.33	Framework Version
INSTRUMENTVERSION	LABEL	3.50	Instrument Version
ZCURVE	TABLE
	Pt	Time	Freq	Zreal	Zimag	Zsig	Zmod	Zphz	Idc	Vdc	IERange
	#	s	Hz	ohm	ohm	V	ohm	°	A	V	#
	0	2	1000078	2229.543	-1306.656	1	2584.224	-30.37306	2.229886E-006	0.0241635	8
	1	3	794390.6	2471.791	-1206.674	1	2750.602	-26.02063	4.691444E-006	0.0233208	8
	2	4	630984.4	2672.698	-1071.146	1	2879.353	-21.8396	-5.604071E-006	0.0251447	8
	3	6	501234.4	2835.302	-947.9822	1	2989.583	-18.48734	1.280214E-006	0.023863	8
	4	7	398109.4	2963.028	-833.0237	1	3077.899	-15.70276	-2.966849E-006	0.024353	8
	5	8	316265.6	3055.491	-706.8814	1	3136.193	-13.02609	6.066419E-007	0.0237648	8
	6	10	251203.1	3124.389	-620.3023	1	3185.37	-11.22923	-1.216169E-006	0.0241642	8
	7	11	199546.9	3179.229	-553.6349	1	3227.074	-9.8785	1.884904E-006	0.0235166	8
	8	12	158578.1	3224.858	-486.0489	1	3261.281	-8.571076	2.997217E-006	0.0233089	8
	9	14	125953.1	3277.575	-392.5889	1	3301.003	-6.830363	1.364694E-006	0.0214222	7
	10	15	100078.1	3304.025	-361.2394	1	3323.714	-6.239544	7.354203E-008	0.0237297	7
	11	16	79453.13	3333.152	-348.0311	1	3351.272	-5.960939	-4.999906E-009	0.0238836	7
	12	18	63140.62	3363.513	-343.855	1	3381.043	-5.837122	3.473827E-008	0.0238246	7
	13	19	50203.12	3394.882	-347.0834	1	3412.578	-5.837482	-4.019378E-008	0.0238848	7
	14	20	39890.62	3428.115	-358.4157	1	3446.801	-5.968694	-8.547274E-009	0.0238945	7
	15	22	31640.63	3465.329	-373.5812	1	3485.407	-6.153033	-7.434216E-008	0.023969	7
	16	23	25171.88	3503.157	-397.6806	1	3525.657	-6.476527	8.817995E-008	0.0236742	7
	17	25	20015.62	3544.782	-429.8227	1	3570.746	-6.913652	-5.151716E-008	0.0239614	7
	18	26	15890.62	3593.162	-470.9403	1	3623.892	-7.46695	-3.799346E-008	0.0238659	7
	19	27	12609.37	3641.958	-516.2573	1	3678.366	-8.068078	-5.222039E-008	0.023959	7
	20	28	10078.13	3696.324	-570.7936	1	3740.136	-8.778386	2.010508E-008	0.02377	7
	21	30	8015.625	3755.777	-636.592	1	3809.345	-9.62002	2.122242E-008	0.0237683	7
	22	31	6328.125	3822.781	-716.4501	1	3889.339	-10.615	4.300821E-008	0.0237108	7
	23	32	5015.625	3894.616	-809.2818	1	3977.81	-11.73872	4.497409E-008	0.0237072	7
	24	34	3984.375	3970.155	-918.3887	1	4074.993	-13.02474	-3.505557E-008	0.0238633	7
	25	35	3170.956	4050.443	-1046.531	1	4183.458	-14.48694	-4.061255E-008	0.0238817	7
	26	37	2527.573	4134.585	-1200.081	1	4305.229	-16.1856	-8.952005E-009	0.0238866	7
	27	38	1976.103	4232.814	-1400.731	1	4458.561	-18.31051	7.374518E-008	0.0237155	7
	28	39	1577.524	4329.72	-1626.274	1	4625.067	-20.58653	-4.120016E-008	0.0239057	7
	29	41	1265.625	4429.098	-1892.109	1	4816.325	-23.13216	-6.890801E-009	0.0238109	7
	30	42	998.264	4546.372	-2253.757	1	5074.339	-26.36883	-1.749103E-008	0.0240121	7
	31	43	796.875	4668.492	-2668.245	1	5377.207	-29.74984	3.570721E-008	0.0238218	7
	32	45	627.7902	4809.859	-3217.045	1	5786.546	-33.77634	-3.382485E-008	0.0238636	7
	33	46	505.5147	4957.256	-3828.96	1	6263.811	-37.68232	-1.695621E-008	0.0239037	7
	34	47	397.9953	5145.487	-4663.769	1	6944.55	-42.18855	4.931274E-009	0.0238742	7
	35	48	315.5048	5363.673	-5674.542	1	7808.292	-46.61319	3.986268E-009	0.023874	7
	36	50	252.4038	5619.132	-6872.014	1	8876.893	-50.7277	4.837138E-009	0.0238724	7
	37	51	198.6229	5968.747	-8461.325	1	10354.71	-54.80028	1.244914E-010	0.0238108	6
	38	52	158.3615	6388.48	-10312.71	1	12131.15	-58.22276	-7.589433E-010	0.0238134	6
	39	54	125.558	6951.259	-12634.32	1	14420.33	-61.18091	1.466699E-010	0.0238109	6
	40	55	100.4464	7652.299	-15337.62	1	17140.6	-63.48431	-3.005843E-010	0.0238111	6
	41	56	79.00281	8669.255	-18879.48	1	20774.76	-65.33591	2.068691E-011	0.0238138	6
	42	58	63.3446	9988.87	-22988.32	1	25064.72	-66.51412	1.113574E-010	0.0238065	6
	43	59	49.86702	11489.06	-27988.09	1	30254.45	-67.68193	-1.073889E-009	0.0238071	6
	44	61	39.72458	13830.55	-33831.63	1	36549.47	-67.76499	-1.808614E-011	0.0238085	6
	45	62	31.6723	16532.37	-40697.28	1	43927.07	-67.89165	1.081308E-010	0.0238063	6
	46	63	24.93351	20455.27	-49110.89	1	53200.54	-67.38769	-9.180733E-011	0.0238086	6
	47	65	19.86229	25123.2	-58456	1	63626.09	-66.74295	7.306378E-010	0.0238186	6
	48	66	15.83615	30616.86	-69308.7	1	75769.96	-66.16673	-7.337099E-010	0.0238119	6
	49	67	12.40079	38895.29	-81986.86	1	90745.19	-64.61993	-2.283696E-009	0.0238077	6
	50	69	9.93114	47250.57	-96038.6	1	107032.8	-63.80301	-9.23789E-010	0.023811	5
	51	70	7.944915	57687.15	-111259.8	1	125325.7	-62.59368	7.581837E-011	0.0238137	5
	52	72	6.317385	70079.59	-129157.9	1	146945.2	-61.51624	-4.963191E-010	0.0237996	5
	53	74	5.008013	84929.44	-149527	1	171963.2	-60.40398	-1.384717E-009	0.0238034	5
	54	76	3.945707	102736.5	-172862.5	1	201087.6	-59.27593	-4.517539E-010	0.0238151	5
	55	79	3.158693	122208.4	-197806.6	1	232513.1	-58.2915	-1.267445E-009	0.0238024	5
	56	82	2.504006	145384.8	-226570.5	1	269204.3	-57.31269	-2.737922E-010	0.0238022	5
	57	85	1.998082	171076.2	-257793.9	1	309394.2	-56.4311	-8.480636E-010	0.0238551	5
	58	88	1.584686	200104.8	-294076.3	1	355700.5	-55.76659	-6.562426E-010	0.023826	5
	59	92	1.266892	233193.4	-333118.4	1	406628.9	-55.00677	-9.984169E-010	0.0238525	5
	60	96	0.999041	270934.9	-380554.7	1	467148.3	-54.55113	-6.105361E-010	0.0237913	5
