EXPLAIN
TAG	EISPOT
TITLE	LABEL	Potentiostatic EIS	Test &Identifier
DATE	LABEL	11/5/2019	Date
TIME	LABEL	10:52:53	Time
NOTES	NOTES	2	&Notes...
	
	
PSTAT	PSTAT	REF600-11020	Potentiostat
VDC	POTEN	0.00000E+000	T	DC &Voltage (V)
FREQINIT	QUANT	1.00000E+006	Initial Fre&q. (Hz)
FREQFINAL	QUANT	1.00000E+000	Final Fre&q. (Hz)
PTSPERDEC	QUANT	1.00000E+001	Points/&decade
VAC	QUANT	2.50000E+001	AC &Voltage (mV rms)
AREA	QUANT	1.00000E-002	&Area (cm^2)
CONDIT	TWOPARAM	T	5.00000E+000	0.00000E+000	Conditionin&g	Time(s)	E(V)
DELAY	TWOPARAM	T	5.00000E+000	0.00000E+000	Init. De&lay	Time(s)	Stab.(mV/s)
SPEED	SELECTOR	1	&Optimize for:
ZGUESS	QUANT	1.00000E+005	E&stimated Z (ohms)
OCVCURVE	TABLE	19
	Pt	T	Vf	Vm	Ach	Over
	#	s	V vs. Ref.	V	V	bits
	0	0.258333	4.37675E-003	4.37675E-003	5.69232E-004	...........
	1	0.516667	4.36823E-003	3.93072E-003	5.60899E-004	...........
	2	0.775	4.31785E-003	3.60976E-003	5.64999E-004	...........
	3	1.03333	4.18280E-003	3.35415E-003	5.62232E-004	...........
	4	1.29167	3.95862E-003	3.13759E-003	5.66832E-004	...........
	5	1.55	3.68766E-003	2.91588E-003	5.66699E-004	...........
	6	1.80833	3.41579E-003	2.65477E-003	5.67232E-004	...........
	7	2.06667	3.16008E-003	2.39368E-003	5.68599E-004	...........
	8	2.325	2.91496E-003	2.19657E-003	5.74732E-004	...........
	9	2.58333	2.67513E-003	2.02959E-003	5.68766E-004	...........
	10	2.84167	2.44834E-003	1.95955E-003	5.70566E-004	...........
	11	3.1	2.25032E-003	1.85989E-003	5.71866E-004	...........
	12	3.35833	2.08083E-003	1.21807E-003	5.68799E-004	...........
	13	3.61667	1.90388E-003	1.20325E-003	5.70099E-004	...........
	14	3.875	1.69092E-003	1.25964E-003	5.67532E-004	...........
	15	4.13333	1.47653E-003	1.15298E-003	5.68266E-004	...........
	16	4.39167	1.31327E-003	9.41500E-004	5.68899E-004	...........
	17	4.65	1.20068E-003	9.52481E-004	5.68999E-004	...........
	18	4.90833	1.10654E-003	8.09107E-004	5.72032E-004	...........
EOC	QUANT	0.0011065	Open Circuit (V)
PSTATMODEL	IQUANT	4	Pstat Model
PSTATSECTION	LABEL	REF600-11020	Pstat Section
PSTATSERIALNO	LABEL	11020	Pstat Serial Number
CTRLMODE	IQUANT	1	Control Mode
IESTAB	IQUANT	0	I/E Stability
CASPEED	IQUANT	1	Control Amp Speed
CONVENTION	IQUANT	1	Current Convention
ICHRANGE	IQUANT	2	Ich Range
ICHRANGEMODE	TOGGLE	F	Ich Auto Range
ICHOFFSETENABLE	TOGGLE	T	Ich Offset Enable
ICHOFFSET	QUANT	0	Ich Offset (V)
ICHFILTER	IQUANT	3	Ich Filter
VCHRANGE	IQUANT	2	Vch Range
VCHRANGEMODE	TOGGLE	F	Vch Auto Range
VCHOFFSETENABLE	TOGGLE	T	Vch Offset Enable
VCHOFFSET	QUANT	0	Vch Offset (V)
VCHFILTER	IQUANT	3	Vch Filter
ACHRANGE	IQUANT	2	Ach Range
ACHOFFSETENABLE	TOGGLE	F	Ach Offset Enable
ACHOFFSET	QUANT	0	Ach Offset (V)
ACHFILTER	IQUANT	3	Ach Filter
IERANGELOWERLIMIT	IQUANT	1	I/E Range Lower Limit
IERANGEMODE	TOGGLE	F	I/E AutoRange
IERANGE	IQUANT	4	I/E Range
POSFEEDENABLE	TOGGLE	F	Positive Feedback IR Comp
POSFEEDRESISTANCE	QUANT	0	Positive Feedback Resistance (ohm)
ACHSELECT	IQUANT	0	Ach Select
CABLEID	IQUANT	14	Cable ID
DCCALDATE	LABEL	8/19/2019	DC Calibration Date
ACCALDATE	LABEL	8/19/2019	AC Calibration Date
THERMOSELECT	IQUANT	1	Thermo Select
FRAMEWORKVERSION	QUANT	6.33	Framework Version
INSTRUMENTVERSION	LABEL	3.50	Instrument Version
ZCURVE	TABLE
	Pt	Time	Freq	Zreal	Zimag	Zsig	Zmod	Zphz	Idc	Vdc	IERange
	#	s	Hz	ohm	ohm	V	ohm	°	A	V	#
	0	2	1000078	2386.575	-1985.486	1	3104.496	-39.75841	1.340765E-005	0.0018974	8
	1	3	794390.6	2781.438	-1972.648	1	3409.948	-35.34498	-4.792578E-006	0.002361	8
	2	4	630984.4	3166.576	-1896.434	1	3691.025	-30.91702	3.450771E-006	0.0030534	8
	3	6	501234.4	3519.842	-1767.011	1	3938.479	-26.6573	-1.573808E-006	0.0031275	8
	4	7	398109.4	3808.868	-1616.822	1	4137.824	-23.00068	-1.566095E-006	0.0030415	8
	5	9	316265.6	4050.485	-1449.304	1	4301.966	-19.68771	-1.574571E-006	0.0029995	8
	6	10	251203.1	4233.008	-1299.076	1	4427.861	-17.06083	3.097944E-006	0.0018523	8
	7	11	199546.9	4389.316	-1163.627	1	4540.939	-14.84782	7.343385E-006	0.0017559	8
	8	13	158578.1	4494.432	-1064.384	1	4618.748	-13.32348	-1.763243E-006	0.002299	8
	9	14	125953.1	4659.849	-874.3554	1	4741.17	-10.62718	-3.215197E-007	-8.378665E-005	7
	10	16	100078.1	4721.809	-811.8091	1	4791.086	-9.75535	-3.170628E-007	0.0014808	7
	11	17	79453.13	4794.003	-774.2516	1	4856.123	-9.174291	-1.181182E-006	0.003047	7
	12	18	63140.62	4863.634	-753.7717	1	4921.697	-8.80968	-1.387418E-006	0.0037012	7
	13	20	50203.12	4934.388	-752.2681	1	4991.401	-8.668237	-1.388123E-006	0.0036984	7
	14	21	39890.62	5004.292	-764.5721	1	5062.362	-8.686662	-1.387837E-006	0.0036968	7
	15	22	31640.63	5083.902	-794.3137	1	5145.581	-8.880153	-1.26905E-006	0.0043281	7
	16	24	25171.88	5163.9	-838.9824	1	5231.611	-9.22825	-7.352088E-007	0.0043278	7
	17	25	20015.62	5252.817	-903.4545	1	5329.946	-9.75906	4.219114E-007	0.0031371	7
	18	27	15890.62	5345.973	-978.268	1	5434.743	-10.36992	-8.1028E-007	0.0022529	7
	19	28	12609.37	5450.013	-1079.006	1	5555.798	-11.19873	-1.410667E-006	0.0041332	7
	20	29	10078.13	5565.69	-1205.87	1	5694.825	-12.22483	9.363471E-007	0.0022829	7
	21	31	8015.625	5691.712	-1319.164	1	5842.583	-13.049	-1.410992E-006	0.0041256	7
	22	32	6328.125	5843.361	-1492.057	1	6030.846	-14.32396	1.662406E-007	0.0008759	7
	23	33	5015.625	6011.047	-1681.942	1	6241.924	-15.63207	1.659156E-007	0.0008756	7
	24	35	3984.375	6178.376	-1891.99	1	6461.575	-17.02604	5.519579E-008	0.0036204	7
	25	36	3170.956	6386.895	-2137.313	1	6735.023	-18.50232	-1.269085E-006	0.0043252	7
	26	38	2527.573	6612.839	-2416.254	1	7040.449	-20.07171	-8.168415E-007	0.0022526	7
	27	39	1976.103	6892.466	-2760.77	1	7424.819	-21.82852	-8.141968E-007	0.0022513	7
	28	41	1577.524	7219.427	-3190.484	1	7892.991	-23.84209	1.15575E-006	0.001713	7
	29	42	1265.625	7436.93	-3551.894	1	8241.594	-25.52924	-1.181615E-006	0.0030371	7
	30	44	998.264	7757.015	-4095.224	1	8771.666	-27.83128	5.839573E-007	0.0005488	7
	31	45	796.875	8071	-4692.551	1	9336.01	-30.1741	1.14737E-006	0.0005477	7
	32	47	627.7902	8418.309	-5463.278	1	10035.7	-32.98259	1.626415E-007	0.0008767	7
	33	48	505.5147	8760.014	-6313.555	1	10798.09	-35.78121	1.788339E-007	0.0016027	6
	34	50	397.9953	9143.356	-7473.09	1	11808.81	-39.25997	3.246093E-010	0.0024472	6
	35	51	315.5048	9540.12	-8886.637	1	13037.87	-42.96893	1.333703E-009	0.0024505	6
	36	53	252.4038	9957.76	-10577.79	1	14527.45	-46.7294	-2.416922E-010	0.0024418	6
	37	54	198.6229	10462.03	-12843.46	1	16565.28	-50.83443	7.836185E-010	0.0024408	6
	38	55	158.3615	11024.41	-15519.35	1	19036.48	-54.61133	1.008951E-009	0.0024333	6
	39	57	125.558	11735.57	-18916.52	1	22261.14	-58.18507	5.765702E-010	0.0024445	6
	40	58	100.4464	12565.38	-22949.2	1	26163.99	-61.29796	1.110428E-010	0.0024405	6
	41	59	79.00281	13802.86	-28227.08	1	31421.13	-63.94168	2.873535E-010	0.0024382	6
	42	61	63.3446	15611.62	-34370.87	1	37750.23	-65.57195	1.395571E-009	0.002433	6
	43	62	49.86702	16968.03	-42541.38	1	45800.46	-68.25495	1.464326E-009	0.0024365	6
	44	64	39.72458	19724.99	-51596.29	1	55238.14	-69.07841	8.806602E-010	0.0024404	6
	45	65	31.6723	22867.51	-62346.32	1	66407.73	-69.85786	1.628412E-009	0.0024343	6
	46	66	24.93351	27421.16	-76571.27	1	81333.13	-70.2969	5.043407E-010	0.002438	6
	47	68	19.86229	32832	-92597.81	1	98246.1	-70.47725	2.909156E-012	0.0024384	6
	48	69	15.83615	40370.45	-111163.1	1	118266.6	-70.04079	2.566712E-010	0.0024439	5
	49	71	12.40079	49550.36	-134299.9	1	143149.2	-69.74831	-5.669557E-010	0.0024554	5
	50	72	9.93114	60665.11	-160899.9	1	171956.5	-69.34173	-1.827253E-010	0.0024495	5
	51	74	7.944915	74444.51	-191034.3	1	205027.1	-68.70955	5.076819E-010	0.0024481	5
	52	75	6.317385	90123.8	-227038.5	1	244272	-68.34921	6.472278E-011	0.0024397	5
	53	77	5.008013	110317.1	-269823.8	1	291504.3	-67.76287	-3.839258E-011	0.0024501	5
	54	80	3.945707	135359.8	-320712	1	348107	-67.11732	1.461518E-010	0.0024401	5
	55	83	3.158693	163729.1	-377726.8	1	411685.3	-66.56524	2.33914E-010	0.0024457	5
	56	86	2.504006	198355.1	-445930.2	1	488055.8	-66.01993	-5.966342E-012	0.0024502	5
	57	89	1.998082	237958.2	-522588.2	1	574214.8	-65.51807	1.636819E-010	0.0024014	5
	58	92	1.584686	285876.3	-615318.4	1	678485.1	-65.08047	8.61774E-011	0.0024421	5
	59	96	1.266892	342706.8	-721188.6	1	798474.2	-64.58306	1.157524E-010	0.0024017	5
	60	100	0.999041	414375.2	-851074	1	946590.6	-64.03925	1.697778E-010	0.0024861	5
