EXPLAIN
TAG	EISPOT
TITLE	LABEL	Potentiostatic EIS	Test &Identifier
DATE	LABEL	11/15/2019	Date
TIME	LABEL	11:21:42	Time
NOTES	NOTES	4	&Notes...
	
	
	
	
PSTAT	PSTAT	REF600-11020	Potentiostat
VDC	POTEN	0.00000E+000	T	DC &Voltage (V)
FREQINIT	QUANT	1.00000E+006	Initial Fre&q. (Hz)
FREQFINAL	QUANT	1.00000E+000	Final Fre&q. (Hz)
PTSPERDEC	QUANT	1.00000E+001	Points/&decade
VAC	QUANT	2.50000E+001	AC &Voltage (mV rms)
AREA	QUANT	1.00000E-002	&Area (cm^2)
CONDIT	TWOPARAM	T	5.00000E+000	0.00000E+000	Conditionin&g	Time(s)	E(V)
DELAY	TWOPARAM	T	5.00000E+000	0.00000E+000	Init. De&lay	Time(s)	Stab.(mV/s)
SPEED	SELECTOR	0	&Optimize for:
ZGUESS	QUANT	1.00000E+005	E&stimated Z (ohms)
OCVCURVE	TABLE	19
	Pt	T	Vf	Vm	Ach	Over
	#	s	V vs. Ref.	V	V	bits
	0	0.258333	7.14574E-003	7.14574E-003	5.59399E-004	...........
	1	0.516667	7.14645E-003	7.18274E-003	5.53466E-004	...........
	2	0.775	7.15111E-003	7.23477E-003	5.61066E-004	...........
	3	1.03333	7.16563E-003	7.29773E-003	5.58166E-004	...........
	4	1.29167	7.19494E-003	7.36670E-003	5.57032E-004	...........
	5	1.55	7.23970E-003	7.43506E-003	5.58533E-004	...........
	6	1.80833	7.29677E-003	7.51074E-003	5.62299E-004	...........
	7	2.06667	7.36202E-003	7.58805E-003	5.58166E-004	...........
	8	2.325	7.43245E-003	7.66588E-003	5.64732E-004	...........
	9	2.58333	7.50624E-003	7.73992E-003	5.62999E-004	...........
	10	2.84167	7.58197E-003	7.81910E-003	5.56333E-004	...........
	11	3.1	7.65862E-003	7.90014E-003	5.58533E-004	...........
	12	3.35833	7.73559E-003	7.95786E-003	5.60199E-004	...........
	13	3.61667	7.81158E-003	8.02706E-003	5.64199E-004	...........
	14	3.875	7.88469E-003	8.09306E-003	5.59766E-004	...........
	15	4.13333	7.95441E-003	8.16076E-003	5.56399E-004	...........
	16	4.39167	8.02190E-003	8.22439E-003	5.53499E-004	...........
	17	4.65	8.08836E-003	8.29030E-003	5.55999E-004	...........
	18	4.90833	8.15427E-003	8.35533E-003	5.62266E-004	...........
EOC	QUANT	0.0081543	Open Circuit (V)
PSTATMODEL	IQUANT	4	Pstat Model
PSTATSECTION	LABEL	REF600-11020	Pstat Section
PSTATSERIALNO	LABEL	11020	Pstat Serial Number
CTRLMODE	IQUANT	1	Control Mode
IESTAB	IQUANT	0	I/E Stability
CASPEED	IQUANT	1	Control Amp Speed
CONVENTION	IQUANT	1	Current Convention
ICHRANGE	IQUANT	2	Ich Range
ICHRANGEMODE	TOGGLE	F	Ich Auto Range
ICHOFFSETENABLE	TOGGLE	T	Ich Offset Enable
ICHOFFSET	QUANT	0	Ich Offset (V)
ICHFILTER	IQUANT	3	Ich Filter
VCHRANGE	IQUANT	2	Vch Range
VCHRANGEMODE	TOGGLE	F	Vch Auto Range
VCHOFFSETENABLE	TOGGLE	T	Vch Offset Enable
VCHOFFSET	QUANT	0	Vch Offset (V)
VCHFILTER	IQUANT	3	Vch Filter
ACHRANGE	IQUANT	2	Ach Range
ACHOFFSETENABLE	TOGGLE	F	Ach Offset Enable
ACHOFFSET	QUANT	0	Ach Offset (V)
ACHFILTER	IQUANT	3	Ach Filter
IERANGELOWERLIMIT	IQUANT	1	I/E Range Lower Limit
IERANGEMODE	TOGGLE	F	I/E AutoRange
IERANGE	IQUANT	5	I/E Range
POSFEEDENABLE	TOGGLE	F	Positive Feedback IR Comp
POSFEEDRESISTANCE	QUANT	0	Positive Feedback Resistance (ohm)
ACHSELECT	IQUANT	0	Ach Select
CABLEID	IQUANT	14	Cable ID
DCCALDATE	LABEL	8/19/2019	DC Calibration Date
ACCALDATE	LABEL	8/19/2019	AC Calibration Date
THERMOSELECT	IQUANT	1	Thermo Select
FRAMEWORKVERSION	QUANT	6.33	Framework Version
INSTRUMENTVERSION	LABEL	3.50	Instrument Version
ZCURVE	TABLE
	Pt	Time	Freq	Zreal	Zimag	Zsig	Zmod	Zphz	Idc	Vdc	IERange
	#	s	Hz	ohm	ohm	V	ohm	°	A	V	#
	0	2	1000078	1991.198	-2100.732	1	2894.468	-46.53335	5.448435E-006	0.0110341	8
	1	2	794390.6	2376.855	-2251.411	1	3273.88	-43.44744	-1.916903E-006	0.009788	8
	2	2	630984.4	2787.464	-2365.983	1	3656.204	-40.32439	-3.066792E-006	0.0107293	8
	3	2	501234.4	3226.291	-2438.651	1	4044.251	-37.08448	-1.151309E-006	0.0103963	8
	4	3	398109.4	3678.523	-2468.003	1	4429.737	-33.85854	6.768213E-006	0.0086598	8
	5	3	316265.6	4154.341	-2430.778	1	4813.235	-30.33265	-4.22214E-006	0.0104106	8
	6	3	251203.1	4591.203	-2358.589	1	5161.597	-27.19044	-2.816661E-006	0.010393	8
	7	4	199546.9	5031.257	-2247.638	1	5510.483	-24.07198	-1.423462E-007	0.0095214	8
	8	4	158578.1	5362.229	-2063.19	1	5745.455	-21.0449	-1.970758E-007	0.0095179	8
	9	4	125953.1	5780.959	-1836.833	1	6065.76	-17.62705	1.469636E-006	0.0113932	7
	10	5	100078.1	5996.065	-1613.158	1	6209.273	-15.05809	-7.156265E-007	0.0116176	7
	11	5	79453.13	6230.877	-1416.121	1	6389.775	-12.80437	8.952899E-007	0.0077182	7
	12	6	63140.62	6395.901	-1247.142	1	6516.357	-11.0337	8.914694E-007	0.0077153	7
	13	6	50203.12	6535.204	-1100.398	1	6627.199	-9.55781	1.129571E-006	0.00781	7
	14	6	39890.62	6619.098	-976.697	1	6690.77	-8.393847	-7.17447E-007	0.0116069	7
	15	7	31640.63	6696.536	-872.5466	1	6753.143	-7.423713	-1.033676E-006	0.0117006	7
	16	7	25171.88	6754.896	-791.6288	1	6801.124	-6.684195	-8.510215E-007	0.0095846	7
	17	7	20015.62	6846.401	-741.4471	1	6886.433	-6.180892	7.484373E-008	0.0108872	7
	18	8	15890.62	6877.563	-715.4651	1	6914.677	-5.939053	-1.032673E-006	0.0116951	7
	19	8	12609.37	6908.884	-697.9294	1	6944.047	-5.768401	-1.400265E-006	0.0110007	7
	20	9	10078.13	6968.377	-722.7358	1	7005.757	-5.921347	-7.174111E-007	0.0115987	7
	21	9	8015.625	7006.06	-762.2589	1	7047.405	-6.209353	-1.40303E-006	0.0109989	7
	22	9	6328.125	7051.696	-830.4833	1	7100.431	-6.716825	-7.164797E-007	0.0115913	7
	23	10	5015.625	7083.491	-928.6219	1	7144.102	-7.468692	-3.710773E-007	0.0087908	7
	24	10	3984.375	7104.703	-1061.134	1	7183.51	-8.494708	-8.506236E-007	0.0095794	7
	25	11	3170.956	7170.431	-1236.964	1	7276.343	-9.78771	-1.210997E-006	0.0103493	7
	26	11	2527.573	7272.01	-1477.944	1	7420.677	-11.48817	1.259819E-006	0.0080485	7
	27	11	1976.103	7316.533	-1776.87	1	7529.205	-13.65041	-7.171845E-007	0.0115831	7
	28	12	1577.524	7405.744	-2171.933	1	7717.664	-16.34519	7.344516E-008	0.0108651	7
	29	12	1265.625	7488.533	-2572.427	1	7918.05	-18.95839	7.841894E-008	0.0108626	7
	30	12	998.264	7615.036	-3155.316	1	8242.863	-22.50684	4.447051E-007	0.0103798	7
	31	13	796.875	7725.472	-3808.466	1	8613.207	-26.24215	-1.0293E-006	0.0116809	7
	32	13	627.7902	7896.822	-4663.372	1	9170.978	-30.56345	-1.209329E-006	0.0103465	7
	33	13	505.5147	8139.377	-5704.83	1	9939.54	-35.02633	4.423835E-007	0.0103743	7
	34	14	397.9953	8432.987	-7007.228	1	10964.33	-39.72423	1.12123E-009	0.0097069	6
	35	14	315.5048	8814.842	-8590.728	1	12308.62	-44.2623	-2.058716E-010	0.0097114	6
	36	14	252.4038	9286.702	-10442.12	1	13974.29	-48.3517	3.230272E-010	0.0097099	6
	37	15	198.6229	9955.07	-12850.34	1	16255.3	-52.23529	4.937397E-010	0.0097116	6
	38	15	158.3615	10802.42	-15615.24	1	18987.58	-55.32502	-2.898722E-010	0.0097142	6
	39	15	125.558	11927.88	-19019.93	1	22450.66	-57.90714	-4.52134E-011	0.009714	6
	40	16	100.4464	13383.95	-22941.67	1	26560.31	-59.74112	9.218578E-010	0.0097121	6
	41	16	79.00281	15441.21	-27943.04	1	31925.61	-61.07514	-8.677395E-010	0.0097128	6
	42	16	63.3446	17517.58	-33018.59	1	37377.71	-62.05241	-1.661949E-010	0.0097018	6
	43	17	49.86702	21000.98	-39845.66	1	45041.29	-62.20817	-8.801147E-010	0.0097109	6
	44	17	39.72458	25351.9	-47495.54	1	53838.14	-61.90784	2.985525E-010	0.0097077	6
	45	17	31.6723	30658.12	-55796.44	1	63664.46	-61.2128	-8.30384E-010	0.0097121	6
	46	18	24.93351	37243.95	-65350.11	1	75218.01	-60.32057	1.035562E-009	0.0097056	6
	47	18	19.86229	44670.56	-75387.45	1	87628.34	-59.35129	2.101497E-009	0.0097146	6
	48	18	15.83615	53659.79	-86094.42	1	101447.6	-58.06608	-1.755316E-009	0.0097187	5
	49	19	12.40079	63031.47	-100037.1	1	118238.7	-57.78575	-4.668976E-010	0.0097145	5
	50	19	9.93114	74194.41	-112873	1	135074.5	-56.68201	-7.665134E-010	0.0097091	5
	51	20	7.944915	85304.24	-128557	1	154284.6	-56.43367	6.967479E-011	0.009709	5
	52	20	6.317385	97069	-146509.7	1	175748.3	-56.47381	-2.915681E-010	0.0097189	5
	53	21	5.008013	110279	-168815.4	1	201643.5	-56.84535	-4.586166E-010	0.0097123	5
	54	22	3.945707	125185.3	-196272.5	1	232796.6	-57.4697	3.409787E-011	0.0097187	5
	55	23	3.158693	140896.8	-227185.3	1	267329.5	-58.19345	-2.539937E-010	0.0097302	5
	56	25	2.504006	159437.6	-266385.8	1	310454.1	-59.09858	-3.219758E-010	0.0097108	5
	57	26	1.998082	180544.5	-311298.6	1	359865.4	-59.88746	-2.265638E-011	0.0097515	5
	58	28	1.584686	205162.5	-367855.1	1	421199.4	-60.85044	-5.654356E-011	0.0097431	5
	59	30	1.266892	233692.5	-431574.2	1	490783.5	-61.56496	-1.332365E-010	0.0097075	5
	60	32	0.999041	270935.6	-512580.5	1	579780	-62.14033	-1.478625E-010	0.0096747	5
