EXPLAIN
TAG	EISPOT
TITLE	LABEL	Potentiostatic IDE	Test &Identifier
DATE	LABEL	9/18/2019	Date
TIME	LABEL	8:09:34	Time
NOTES	NOTES	1	&Notes...
	
PSTAT	PSTAT	REF600-11020	Potentiostat
VDC	POTEN	0.00000E+000	T	DC &Voltage (V)
FREQINIT	QUANT	1.00000E+006	Initial Fre&q. (Hz)
FREQFINAL	QUANT	1.00000E+000	Final Fre&q. (Hz)
PTSPERDEC	QUANT	1.00000E+001	Points/&decade
VAC	QUANT	2.50000E+001	AC &Voltage (mV rms)
AREA	QUANT	1.00000E-002	&Area (cm^2)
CONDIT	TWOPARAM	T	5.00000E+000	0.00000E+000	Conditionin&g	Time(s)	E(V)
DELAY	TWOPARAM	T	5.00000E+000	0.00000E+000	Init. De&lay	Time(s)	Stab.(mV/s)
SPEED	SELECTOR	1	&Optimize for:
ZGUESS	QUANT	1.00000E+007	E&stimated Z (ohms)
OCVCURVE	TABLE	19
	Pt	T	Vf	Vm	Ach	Over
	#	s	V vs. Ref.	V	V	bits
	0	0.258333	2.14838E-002	2.14838E-002	5.63099E-004	...........
	1	0.516667	2.15034E-002	2.25066E-002	5.62399E-004	...........
	2	0.775	2.16229E-002	2.34548E-002	5.63032E-004	...........
	3	1.03333	2.19594E-002	2.43437E-002	5.66099E-004	...........
	4	1.29167	2.25563E-002	2.51512E-002	5.66732E-004	...........
	5	1.55	2.33389E-002	2.59087E-002	5.65199E-004	...........
	6	1.80833	2.41880E-002	2.65531E-002	5.64332E-004	...........
	7	2.06667	2.50142E-002	2.71718E-002	5.67199E-004	...........
	8	2.325	2.57765E-002	2.77948E-002	5.67166E-004	...........
	9	2.58333	2.64727E-002	2.83969E-002	5.72366E-004	...........
	10	2.84167	2.71205E-002	2.89589E-002	5.63499E-004	...........
	11	3.1	2.77369E-002	2.95147E-002	5.66799E-004	...........
	12	3.35833	2.83302E-002	3.00401E-002	5.66366E-004	...........
	13	3.61667	2.89022E-002	3.05367E-002	5.69432E-004	...........
	14	3.875	2.94523E-002	3.10161E-002	5.67399E-004	...........
	15	4.13333	2.99791E-002	3.14754E-002	5.69032E-004	...........
	16	4.39167	3.04831E-002	3.19344E-002	5.66932E-004	...........
	17	4.65	3.09669E-002	3.23716E-002	5.67066E-004	...........
	18	4.90833	3.14341E-002	3.27853E-002	5.65132E-004	...........
EOC	QUANT	0.0314341	Open Circuit (V)
PSTATMODEL	IQUANT	4	Pstat Model
PSTATSECTION	LABEL	REF600-11020	Pstat Section
PSTATSERIALNO	LABEL	11020	Pstat Serial Number
CTRLMODE	IQUANT	1	Control Mode
IESTAB	IQUANT	0	I/E Stability
CASPEED	IQUANT	1	Control Amp Speed
CONVENTION	IQUANT	1	Current Convention
ICHRANGE	IQUANT	2	Ich Range
ICHRANGEMODE	TOGGLE	F	Ich Auto Range
ICHOFFSETENABLE	TOGGLE	T	Ich Offset Enable
ICHOFFSET	QUANT	0	Ich Offset (V)
ICHFILTER	IQUANT	3	Ich Filter
VCHRANGE	IQUANT	2	Vch Range
VCHRANGEMODE	TOGGLE	F	Vch Auto Range
VCHOFFSETENABLE	TOGGLE	T	Vch Offset Enable
VCHOFFSET	QUANT	0	Vch Offset (V)
VCHFILTER	IQUANT	3	Vch Filter
ACHRANGE	IQUANT	2	Ach Range
ACHOFFSETENABLE	TOGGLE	F	Ach Offset Enable
ACHOFFSET	QUANT	0	Ach Offset (V)
ACHFILTER	IQUANT	3	Ach Filter
IERANGELOWERLIMIT	IQUANT	1	I/E Range Lower Limit
IERANGEMODE	TOGGLE	F	I/E AutoRange
IERANGE	IQUANT	3	I/E Range
POSFEEDENABLE	TOGGLE	F	Positive Feedback IR Comp
POSFEEDRESISTANCE	QUANT	0	Positive Feedback Resistance (ohm)
ACHSELECT	IQUANT	0	Ach Select
CABLEID	IQUANT	14	Cable ID
DCCALDATE	LABEL	8/19/2019	DC Calibration Date
ACCALDATE	LABEL	8/19/2019	AC Calibration Date
THERMOSELECT	IQUANT	1	Thermo Select
FRAMEWORKVERSION	QUANT	6.33	Framework Version
INSTRUMENTVERSION	LABEL	3.50	Instrument Version
ZCURVE	TABLE
	Pt	Time	Freq	Zreal	Zimag	Zsig	Zmod	Zphz	Idc	Vdc	IERange
	#	s	Hz	ohm	ohm	V	ohm	°	A	V	#
	0	2	1000078	2171.881	-1456.079	1	2614.81	-33.8388	8.218965E-007	0.0337942	8
	1	4	794390.6	2464.734	-1369.668	1	2819.735	-29.06121	-1.046484E-006	0.0336485	8
	2	5	630984.4	2700.986	-1243.891	1	2973.65	-24.7276	-5.59845E-007	0.0335426	8
	3	6	501234.4	2902.542	-1097.161	1	3102.985	-20.7066	-2.992487E-007	0.0332372	8
	4	8	398109.4	3064.841	-959.349	1	3211.479	-17.38104	1.786179E-007	0.0331042	8
	5	9	316265.6	3167.237	-825.3227	1	3273.003	-14.60541	-3.42464E-007	0.0331439	8
	6	10	251203.1	3259.237	-703.0796	1	3334.209	-12.17325	2.931719E-006	0.032588	8
	7	12	199546.9	3325.576	-613.2963	1	3381.654	-10.44898	-1.124494E-006	0.0333237	8
	8	13	158578.1	3370.644	-529.0909	1	3411.917	-8.920941	2.86673E-006	0.0324662	8
	9	14	125953.1	3424.25	-446.3804	1	3453.222	-7.427116	-2.539802E-007	0.0337501	7
	10	16	100078.1	3450.569	-396.7538	1	3473.304	-6.559187	4.298945E-008	0.0330272	7
	11	17	79453.13	3480.981	-370.6457	1	3500.658	-6.077804	-3.187391E-008	0.0331348	7
	12	18	63140.62	3510.007	-354.95	1	3527.909	-5.774415	-4.283634E-008	0.0330974	7
	13	20	50203.12	3540.115	-346.8411	1	3557.065	-5.595668	-3.035494E-008	0.0330668	7
	14	21	39890.62	3571.028	-350.8017	1	3588.218	-5.610477	-6.399201E-010	0.0330109	7
	15	22	31640.63	3600.966	-355.9538	1	3618.516	-5.64532	-3.056277E-008	0.0331346	7
	16	24	25171.88	3633.563	-373.1299	1	3652.671	-5.86314	-2.568086E-008	0.0330738	7
	17	25	20015.62	3666.788	-398.7711	1	3688.408	-6.206647	3.721678E-008	0.0329481	7
	18	26	15890.62	3703.855	-428.8028	1	3728.594	-6.603849	2.429003E-008	0.0329901	7
	19	28	12609.37	3742.765	-477.1239	1	3773.054	-7.264825	-2.002075E-008	0.0330228	7
	20	29	10078.13	3782.87	-529.9302	1	3819.808	-7.974488	-3.083622E-008	0.0331264	7
	21	30	8015.625	3826.205	-598.2012	1	3872.685	-8.885873	-2.00254E-008	0.0330291	7
	22	32	6328.125	3874.131	-685.3048	1	3934.277	-10.03142	4.21956E-008	0.0330032	7
	23	33	5015.625	3924.615	-791.9197	1	4003.715	-11.40812	4.412865E-008	0.0330081	7
	24	34	3984.375	3979.447	-921.7067	1	4084.794	-13.04071	-1.420743E-008	0.0330572	7
	25	36	3170.956	4037.66	-1079.999	1	4179.604	-14.975	1.200863E-008	0.0329731	7
	26	37	2527.573	4103.499	-1272.504	1	4296.274	-17.22878	3.569001E-008	0.0329396	7
	27	38	1976.103	4183.474	-1532.022	1	4455.171	-20.11314	2.080749E-009	0.0330037	7
	28	40	1577.524	4265.967	-1822.643	1	4639.02	-23.13469	-4.149394E-008	0.0330906	7
	29	41	1265.625	4356.057	-2172.426	1	4867.716	-26.50607	2.310234E-008	0.0329935	7
	30	42	998.264	4472.42	-2630.181	1	5188.487	-30.45931	1.398548E-008	0.032967	7
	31	44	796.875	4596.607	-3164.853	1	5580.778	-34.54816	2.429315E-008	0.0329913	7
	32	45	627.7902	4750.8	-3862.844	1	6123.044	-39.11433	2.772694E-008	0.0329425	7
	33	46	505.5147	4910.051	-4638.312	1	6754.446	-43.36985	6.403916E-008	0.0329469	7
	34	48	397.9953	5129.139	-5691.542	1	7661.705	-47.97526	3.402412E-009	0.0330515	7
	35	49	315.5048	5378.895	-6956.963	1	8793.853	-52.28999	3.128025E-009	0.0330491	7
	36	50	252.4038	5672.594	-8453.787	1	10180.61	-56.13791	-1.069014E-009	0.0329845	6
	37	52	198.6229	6061.823	-10438.89	1	12071.3	-59.85644	-1.685663E-009	0.0329872	6
	38	53	158.3615	6531.734	-12757.14	1	14332.06	-62.88727	-1.102684E-009	0.0329825	6
	39	54	125.558	7151.115	-15677.82	1	17231.73	-65.48088	-1.467771E-009	0.0329882	6
	40	56	100.4464	7925.12	-19122.38	1	20699.59	-67.48882	-1.048458E-009	0.0329852	6
	41	57	79.00281	9062	-23638.06	1	25315.56	-69.02494	-1.311793E-009	0.0329846	6
	42	58	63.3446	10244.66	-28777.51	1	30546.65	-70.40451	-1.521991E-009	0.0329834	6
	43	60	49.86702	12401.42	-35251.07	1	37368.88	-70.61799	-2.057214E-009	0.0329795	6
	44	61	39.72458	14846.55	-43002.28	1	45493.04	-70.95275	-1.590949E-009	0.032992	6
	45	62	31.6723	18078.06	-52054.36	1	55104.2	-70.8483	-1.552576E-009	0.0329806	6
	46	64	24.93351	22739.16	-63337.61	1	67295.78	-70.25109	-1.940168E-009	0.0329794	6
	47	65	19.86229	28500.08	-76075.02	1	81238.3	-69.46248	-1.517518E-009	0.0329802	6
	48	66	15.83615	35647.17	-90909.56	1	97648.7	-68.58902	-2.404545E-009	0.0329822	6
	49	68	12.40079	46448.24	-109129.3	1	118602.8	-66.94414	-1.211064E-009	0.0329816	5
	50	69	9.93114	57985.3	-127690.4	1	140239.5	-65.57679	-6.340174E-010	0.0329879	5
	51	71	7.944915	72691.46	-148854	1	165654.9	-63.97186	-1.484758E-009	0.0329847	5
	52	72	6.317385	91044.71	-173037	1	195527.3	-62.24856	-1.797685E-009	0.0329723	5
	53	74	5.008013	113883.7	-199899.7	1	230063.8	-60.32966	-2.486104E-009	0.0329833	5
	54	77	3.945707	141837.3	-229553.8	1	269838.3	-58.2888	-2.534172E-009	0.0329844	5
	55	79	3.158693	172285.8	-258472.2	1	310628.9	-56.31438	-2.529848E-009	0.0329755	5
	56	83	2.504006	208414	-290538.3	1	357559.6	-54.34671	-2.163064E-009	0.03299	5
	57	85	1.998082	247585.1	-323801.8	1	407610.1	-52.59777	-1.829093E-009	0.032987	5
	58	89	1.584686	292590.2	-357740.1	1	462154.7	-50.72079	-2.249558E-009	0.0329508	5
	59	92	1.266892	340008.5	-393805.5	1	520277.4	-49.19294	-2.152053E-009	0.0330192	5
	60	96	0.999041	394446.1	-433821.4	1	586335	-47.72176	-2.621552E-009	0.0329479	5
