EXPLAIN
TAG	EISPOT
TITLE	LABEL	Potentiostatic EIS	Test &Identifier
DATE	LABEL	11/15/2019	Date
TIME	LABEL	9:46:53	Time
NOTES	NOTES	4	&Notes...
	
	
	
	
PSTAT	PSTAT	REF600-11020	Potentiostat
VDC	POTEN	0.00000E+000	T	DC &Voltage (V)
FREQINIT	QUANT	1.00000E+006	Initial Fre&q. (Hz)
FREQFINAL	QUANT	1.00000E+000	Final Fre&q. (Hz)
PTSPERDEC	QUANT	1.00000E+001	Points/&decade
VAC	QUANT	2.50000E+001	AC &Voltage (mV rms)
AREA	QUANT	1.00000E-002	&Area (cm^2)
CONDIT	TWOPARAM	T	5.00000E+000	0.00000E+000	Conditionin&g	Time(s)	E(V)
DELAY	TWOPARAM	T	5.00000E+000	0.00000E+000	Init. De&lay	Time(s)	Stab.(mV/s)
SPEED	SELECTOR	0	&Optimize for:
ZGUESS	QUANT	1.00000E+005	E&stimated Z (ohms)
OCVCURVE	TABLE	19
	Pt	T	Vf	Vm	Ach	Over
	#	s	V vs. Ref.	V	V	bits
	0	0.258333	4.33630E-003	4.33630E-003	6.01532E-004	...........
	1	0.516667	4.33455E-003	4.24452E-003	6.02065E-004	...........
	2	0.775	4.32391E-003	4.16435E-003	5.94632E-004	...........
	3	1.03333	4.29451E-003	4.10051E-003	5.99765E-004	...........
	4	1.29167	4.24380E-003	4.03762E-003	5.99965E-004	...........
	5	1.55	4.17972E-003	3.98669E-003	5.96665E-004	...........
	6	1.80833	4.11314E-003	3.94412E-003	5.96032E-004	...........
	7	2.06667	4.05136E-003	3.90275E-003	6.05365E-004	...........
	8	2.325	3.99712E-003	3.86612E-003	6.02398E-004	...........
	9	2.58333	3.95005E-003	3.83463E-003	5.96465E-004	...........
	10	2.84167	3.90878E-003	3.80829E-003	5.97965E-004	...........
	11	3.1	3.87233E-003	3.78060E-003	6.04732E-004	...........
	12	3.35833	3.84006E-003	3.76033E-003	6.06932E-004	...........
	13	3.61667	3.81124E-003	3.73304E-003	5.98265E-004	...........
	14	3.875	3.78505E-003	3.71492E-003	5.99565E-004	...........
	15	4.13333	3.76077E-003	3.69614E-003	5.97532E-004	...........
	16	4.39167	3.73822E-003	3.67899E-003	5.95465E-004	...........
	17	4.65	3.71743E-003	3.65880E-003	6.02532E-004	...........
	18	4.90833	3.69800E-003	3.63964E-003	6.04732E-004	...........
EOC	QUANT	0.003698	Open Circuit (V)
PSTATMODEL	IQUANT	4	Pstat Model
PSTATSECTION	LABEL	REF600-11020	Pstat Section
PSTATSERIALNO	LABEL	11020	Pstat Serial Number
CTRLMODE	IQUANT	1	Control Mode
IESTAB	IQUANT	0	I/E Stability
CASPEED	IQUANT	1	Control Amp Speed
CONVENTION	IQUANT	1	Current Convention
ICHRANGE	IQUANT	2	Ich Range
ICHRANGEMODE	TOGGLE	F	Ich Auto Range
ICHOFFSETENABLE	TOGGLE	T	Ich Offset Enable
ICHOFFSET	QUANT	0	Ich Offset (V)
ICHFILTER	IQUANT	3	Ich Filter
VCHRANGE	IQUANT	2	Vch Range
VCHRANGEMODE	TOGGLE	F	Vch Auto Range
VCHOFFSETENABLE	TOGGLE	T	Vch Offset Enable
VCHOFFSET	QUANT	0	Vch Offset (V)
VCHFILTER	IQUANT	3	Vch Filter
ACHRANGE	IQUANT	2	Ach Range
ACHOFFSETENABLE	TOGGLE	F	Ach Offset Enable
ACHOFFSET	QUANT	0	Ach Offset (V)
ACHFILTER	IQUANT	3	Ach Filter
IERANGELOWERLIMIT	IQUANT	1	I/E Range Lower Limit
IERANGEMODE	TOGGLE	F	I/E AutoRange
IERANGE	IQUANT	4	I/E Range
POSFEEDENABLE	TOGGLE	F	Positive Feedback IR Comp
POSFEEDRESISTANCE	QUANT	0	Positive Feedback Resistance (ohm)
ACHSELECT	IQUANT	0	Ach Select
CABLEID	IQUANT	14	Cable ID
DCCALDATE	LABEL	8/19/2019	DC Calibration Date
ACCALDATE	LABEL	8/19/2019	AC Calibration Date
THERMOSELECT	IQUANT	1	Thermo Select
FRAMEWORKVERSION	QUANT	6.33	Framework Version
INSTRUMENTVERSION	LABEL	3.50	Instrument Version
ZCURVE	TABLE
	Pt	Time	Freq	Zreal	Zimag	Zsig	Zmod	Zphz	Idc	Vdc	IERange
	#	s	Hz	ohm	ohm	V	ohm	°	A	V	#
	0	1	1000078	1993.953	-1057.044	1	2256.81	-27.92918	1.194036E-006	0.0056012	8
	1	1	794390.6	2180.909	-973.548	1	2388.338	-24.05577	-4.832029E-007	0.0052693	8
	2	2	630984.4	2341.034	-868.9796	1	2497.112	-20.36466	-7.286435E-006	0.0066166	8
	3	2	501234.4	2463.269	-762.5911	1	2578.612	-17.20174	-1.141274E-006	0.0055638	8
	4	2	398109.4	2554.824	-668.158	1	2640.75	-14.65619	-2.697699E-006	0.0053019	8
	5	3	316265.6	2623.823	-585.895	1	2688.442	-12.58754	-1.242392E-006	0.0057391	8
	6	3	251203.1	2683.336	-511.8867	1	2731.724	-10.80027	2.039343E-006	0.0055793	8
	7	3	199546.9	2728.028	-457.1982	1	2766.075	-9.51395	6.945532E-006	0.0045255	8
	8	4	158578.1	2770.349	-403.6409	1	2799.6	-8.289684	-7.86936E-007	0.0050399	8
	9	4	125953.1	2817.757	-343.9585	1	2838.673	-6.959559	-1.63663E-006	0.0049958	7
	10	4	100078.1	2844.496	-319.6638	1	2862.401	-6.411984	4.576272E-007	0.0037171	7
	11	5	79453.13	2871.025	-312.928	1	2888.029	-6.22041	-9.809033E-007	0.0057626	7
	12	5	63140.62	2899.398	-315.1923	1	2916.48	-6.204235	-9.829427E-007	0.005759	7
	13	5	50203.12	2929.418	-323.9782	1	2947.279	-6.310964	9.175008E-007	0.0036911	7
	14	6	39890.62	2959.24	-336.3366	1	2978.292	-6.484209	-1.160271E-006	0.0066492	7
	15	6	31640.63	2992.441	-357.0748	1	3013.669	-6.804679	-9.867492E-007	0.0057577	7
	16	6	25171.88	3028.941	-385.1515	1	3053.33	-7.246678	-1.150589E-006	0.0062977	7
	17	7	20015.62	3068.589	-420.0417	1	3097.204	-7.794453	-9.861914E-007	0.005759	7
	18	7	15890.62	3113.234	-464.6076	1	3147.711	-8.487968	1.110175E-007	0.0039821	7
	19	7	12609.37	3160.379	-516.179	1	3202.255	-9.276111	-6.834346E-007	0.0051159	7
	20	7	10078.13	3211.68	-576.6118	1	3263.031	-10.17821	5.793313E-007	0.0054536	7
	21	8	8015.625	3272.895	-647.9755	1	3336.422	-11.19874	9.516992E-007	0.0045977	7
	22	8	6328.125	3336.75	-734.9097	1	3416.723	-12.42092	1.033118E-006	0.0042013	7
	23	8	5015.625	3401.907	-835.8784	1	3503.094	-13.8046	-1.032627E-006	0.0067924	7
	24	9	3984.375	3473.77	-955.593	1	3602.809	-15.38095	-1.146473E-006	0.0062851	7
	25	9	3170.956	3550.509	-1099.06	1	3716.725	-17.19991	3.749347E-007	0.0057365	7
	26	9	2527.573	3631.921	-1270.268	1	3847.652	-19.27733	7.31788E-007	0.0036035	7
	27	10	1976.103	3722.835	-1498.004	1	4012.919	-21.919	5.772825E-007	0.0054469	7
	28	10	1577.524	3810.861	-1753.785	1	4195.048	-24.71222	-1.157016E-006	0.0066384	7
	29	10	1265.625	3906.087	-2065.344	1	4418.502	-27.86765	1.018196E-006	0.0038907	7
	30	11	998.264	4017.08	-2471.722	1	4716.602	-31.60412	-1.032806E-006	0.0067856	7
	31	11	796.875	4133.232	-2960.127	1	5083.892	-35.60938	7.290064E-007	0.0036061	7
	32	11	627.7902	4272.412	-3595.178	1	5583.799	-40.08017	1.157233E-007	0.0039766	7
	33	12	505.5147	4415.958	-4313.268	1	6172.922	-44.32601	9.19062E-007	0.0036811	7
	34	12	397.9953	4615.934	-5279.863	1	7013.116	-48.83834	4.839401E-009	0.0052793	7
	35	12	315.5048	4847.717	-6454.96	1	8072.6	-53.09321	2.403234E-009	0.0052818	7
	36	13	252.4038	5122.865	-7848.425	1	9372.381	-56.8665	3.915117E-009	0.0052809	7
	37	13	198.6229	5503.845	-9689.5	1	11143.55	-60.40249	2.329114E-010	0.005223	6
	38	13	158.3615	5959.849	-11837.71	1	13253.34	-63.27643	1.375961E-009	0.0052092	6
	39	14	125.558	6569.513	-14528.58	1	15944.85	-65.66854	8.597886E-010	0.0052268	6
	40	14	100.4464	7327.684	-17693.15	1	19150.52	-67.50292	-7.854766E-010	0.0052228	6
	41	14	79.00281	8428.59	-21856.94	1	23425.78	-68.9121	7.53324E-010	0.0052202	6
	42	15	63.3446	9590.89	-26261.11	1	27957.66	-69.93717	-2.033892E-010	0.0052184	6
	43	15	49.86702	11521.2	-32282.79	1	34277.05	-70.35935	7.000434E-011	0.0052104	6
	44	15	39.72458	13833.38	-39352.77	1	41713.34	-70.63228	8.322162E-010	0.0052239	6
	45	16	31.6723	16909.32	-47530.87	1	50449.07	-70.41676	8.133521E-010	0.005219	6
	46	16	24.93351	20950.15	-57663.77	1	61351.61	-70.03312	3.882544E-010	0.0052089	6
	47	16	19.86229	25932.02	-69125.55	1	73829.62	-69.43674	1.854588E-009	0.0052153	6
	48	17	15.83615	32472.62	-82602.91	1	88756.48	-68.53936	-9.072834E-010	0.0052132	6
	49	17	12.40079	40974.54	-99267.2	1	107391.3	-67.57062	5.219959E-010	0.0052113	5
	50	17	9.93114	51115.63	-116170	1	126918.4	-66.25016	-9.28883E-010	0.0052222	5
	51	18	7.944915	63035.9	-135437.7	1	149388.4	-65.04161	-6.229753E-010	0.0052192	5
	52	18	6.317385	78004.77	-158231.7	1	176414.3	-63.75771	-2.663551E-010	0.0052202	5
	53	19	5.008013	96091.5	-183911.7	1	207502	-62.41352	-3.708392E-010	0.0052141	5
	54	20	3.945707	117988.4	-213771.1	1	244170.8	-61.10403	3.761733E-010	0.0052195	5
	55	22	3.158693	141248.4	-244120.1	1	282038.5	-59.94624	1.058392E-011	0.005232	5
	56	23	2.504006	168860.4	-280339.3	1	327267.4	-58.93764	-2.400366E-010	0.0052134	5
	57	25	1.998082	198711.5	-318762.7	1	375627.3	-58.06126	1.305968E-010	0.0052462	5
	58	26	1.584686	232742.5	-365525.6	1	433333.7	-57.51372	1.84923E-010	0.0052539	5
	59	28	1.266892	268120.1	-416174	1	495064.8	-57.20834	1.033161E-010	0.0052172	5
	60	31	0.999041	310636	-478479.6	1	570471.3	-57.00778	5.173383E-011	0.0051894	5
