EXPLAIN
TAG	EISPOT
TITLE	LABEL	Potentiostatic EIS	Test &Identifier
DATE	LABEL	10/31/2019	Date
TIME	LABEL	23:35:38	Time
NOTES	NOTES	1	&Notes...
	
PSTAT	PSTAT	REF600-11020	Potentiostat
VDC	POTEN	0.00000E+000	T	DC &Voltage (V)
FREQINIT	QUANT	1.00000E+006	Initial Fre&q. (Hz)
FREQFINAL	QUANT	1.00000E+000	Final Fre&q. (Hz)
PTSPERDEC	QUANT	1.00000E+001	Points/&decade
VAC	QUANT	2.50000E+001	AC &Voltage (mV rms)
AREA	QUANT	1.00000E-002	&Area (cm^2)
CONDIT	TWOPARAM	T	5.00000E+000	0.00000E+000	Conditionin&g	Time(s)	E(V)
DELAY	TWOPARAM	T	5.00000E+000	0.00000E+000	Init. De&lay	Time(s)	Stab.(mV/s)
SPEED	SELECTOR	0	&Optimize for:
ZGUESS	QUANT	1.00000E+005	E&stimated Z (ohms)
OCVCURVE	TABLE	19
	Pt	T	Vf	Vm	Ach	Over
	#	s	V vs. Ref.	V	V	bits
	0	0.258333	5.16059E-003	5.16059E-003	4.97867E-004	...........
	1	0.516667	5.16239E-003	5.25515E-003	5.03033E-004	...........
	2	0.775	5.17536E-003	5.44300E-003	4.98333E-004	...........
	3	1.03333	5.21743E-003	5.57842E-003	4.98467E-004	...........
	4	1.29167	5.29405E-003	5.34280E-003	4.95167E-004	...........
	5	1.55	5.37611E-003	5.46030E-003	4.98933E-004	...........
	6	1.80833	5.42471E-003	5.34178E-003	5.01500E-004	...........
	7	2.06667	5.42980E-003	5.29520E-003	4.98300E-004	...........
	8	2.325	5.40191E-003	5.16892E-003	4.96733E-004	...........
	9	2.58333	5.34891E-003	5.09425E-003	4.99833E-004	...........
	10	2.84167	5.27643E-003	5.02528E-003	5.02633E-004	...........
	11	3.1	5.19444E-003	4.98440E-003	5.01233E-004	...........
	12	3.35833	5.11591E-003	4.97568E-003	4.98633E-004	...........
	13	3.61667	5.05145E-003	4.94018E-003	5.05367E-004	...........
	14	3.875	5.00420E-003	4.90958E-003	4.99633E-004	...........
	15	4.13333	4.96947E-003	4.88133E-003	4.98933E-004	...........
	16	4.39167	4.94007E-003	4.84962E-003	5.04367E-004	...........
	17	4.65	4.91147E-003	4.81762E-003	4.98967E-004	...........
	18	4.90833	4.87994E-003	4.67728E-003	5.00367E-004	...........
EOC	QUANT	0.0048799	Open Circuit (V)
PSTATMODEL	IQUANT	4	Pstat Model
PSTATSECTION	LABEL	REF600-11020	Pstat Section
PSTATSERIALNO	LABEL	11020	Pstat Serial Number
CTRLMODE	IQUANT	1	Control Mode
IESTAB	IQUANT	0	I/E Stability
CASPEED	IQUANT	1	Control Amp Speed
CONVENTION	IQUANT	1	Current Convention
ICHRANGE	IQUANT	2	Ich Range
ICHRANGEMODE	TOGGLE	F	Ich Auto Range
ICHOFFSETENABLE	TOGGLE	T	Ich Offset Enable
ICHOFFSET	QUANT	0	Ich Offset (V)
ICHFILTER	IQUANT	3	Ich Filter
VCHRANGE	IQUANT	2	Vch Range
VCHRANGEMODE	TOGGLE	F	Vch Auto Range
VCHOFFSETENABLE	TOGGLE	T	Vch Offset Enable
VCHOFFSET	QUANT	0	Vch Offset (V)
VCHFILTER	IQUANT	3	Vch Filter
ACHRANGE	IQUANT	2	Ach Range
ACHOFFSETENABLE	TOGGLE	F	Ach Offset Enable
ACHOFFSET	QUANT	0	Ach Offset (V)
ACHFILTER	IQUANT	3	Ach Filter
IERANGELOWERLIMIT	IQUANT	1	I/E Range Lower Limit
IERANGEMODE	TOGGLE	F	I/E AutoRange
IERANGE	IQUANT	4	I/E Range
POSFEEDENABLE	TOGGLE	F	Positive Feedback IR Comp
POSFEEDRESISTANCE	QUANT	0	Positive Feedback Resistance (ohm)
ACHSELECT	IQUANT	0	Ach Select
CABLEID	IQUANT	14	Cable ID
DCCALDATE	LABEL	8/19/2019	DC Calibration Date
ACCALDATE	LABEL	8/19/2019	AC Calibration Date
THERMOSELECT	IQUANT	1	Thermo Select
FRAMEWORKVERSION	QUANT	6.33	Framework Version
INSTRUMENTVERSION	LABEL	3.50	Instrument Version
ZCURVE	TABLE
	Pt	Time	Freq	Zreal	Zimag	Zsig	Zmod	Zphz	Idc	Vdc	IERange
	#	s	Hz	ohm	ohm	V	ohm	°	A	V	#
	0	1	1000078	1686.462	-585.9994	1	1785.37	-19.16095	-3.189382E-006	0.0081971	8
	1	1	794390.6	1758.956	-509.4249	1	1831.24	-16.15196	-1.473837E-006	0.0072075	8
	2	2	630984.4	1823.325	-442.3189	1	1876.209	-13.63592	1.287066E-006	0.0072237	8
	3	2	501234.4	1867.609	-386.761	1	1907.236	-11.69994	1.91344E-006	0.0062225	8
	4	2	398109.4	1905.882	-332.2519	1	1934.626	-9.88898	-1.494693E-006	0.0070675	8
	5	3	316265.6	1934.53	-293.2747	1	1956.633	-8.6204	-2.68952E-007	0.0063809	8
	6	3	251203.1	1954.642	-261.8903	1	1972.109	-7.631254	-7.153498E-007	0.0070118	8
	7	3	199546.9	1976.667	-238.8201	1	1991.042	-6.88906	-2.557077E-007	0.0070223	8
	8	4	158578.1	1997.343	-226.6319	1	2010.159	-6.473476	-1.583164E-006	0.0064162	8
	9	4	125953.1	2025.625	-189.9758	1	2034.514	-5.357884	-4.115882E-007	0.0089707	7
	10	4	100078.1	2038.569	-186.2867	1	2047.063	-5.22125	-5.875453E-007	0.006467	7
	11	5	79453.13	2055.038	-195.4218	1	2064.309	-5.43215	7.562393E-007	0.0052327	7
	12	5	63140.62	2072.991	-209.6074	1	2083.561	-5.773753	7.53886E-007	0.0052335	7
	13	5	50203.12	2093.237	-226.7711	1	2105.484	-6.183034	-2.111612E-007	0.0076209	7
	14	5	39890.62	2116.549	-249.3536	1	2131.187	-6.719123	8.096467E-007	0.0059595	7
	15	6	31640.63	2141.094	-275.1292	1	2158.698	-7.322345	-5.918818E-007	0.006459	7
	16	6	25171.88	2167.556	-306.0641	1	2189.058	-8.037169	-7.035782E-007	0.0078982	7
	17	6	20015.62	2197.967	-343.7182	1	2224.68	-8.887931	-8.474337E-007	0.0069998	7
	18	7	15890.62	2227.335	-390.3565	1	2261.283	-9.94055	5.944799E-007	0.0051759	7
	19	7	12609.37	2259.042	-446.0989	1	2302.667	-11.17063	-8.674365E-007	0.0078589	7
	20	7	10078.13	2293.094	-510.2427	1	2349.176	-12.54467	-7.014889E-007	0.0078962	7
	21	8	8015.625	2331.123	-595.3136	1	2405.937	-14.32579	7.586289E-007	0.0052289	7
	22	8	6328.125	2371.617	-696.3909	1	2471.746	-16.36411	-5.930474E-007	0.0064501	7
	23	8	5015.625	2416.806	-821.1748	1	2552.504	-18.76657	8.724696E-007	0.0056315	7
	24	9	3984.375	2466.256	-969.772	1	2650.071	-21.46556	8.429966E-008	0.0072835	7
	25	9	3170.956	2518.606	-1158.588	1	2772.31	-24.70298	7.626115E-008	0.0054829	7
	26	9	2527.573	2577.592	-1382.098	1	2924.752	-28.20008	8.434507E-008	0.0072842	7
	27	10	1976.103	2648.811	-1684.504	1	3139.069	-32.45421	-8.480132E-007	0.0069912	7
	28	10	1577.524	2717.882	-2038.441	1	3397.37	-36.87029	7.772232E-008	0.0054854	7
	29	10	1265.625	2808.28	-2439.25	1	3719.729	-40.97733	-8.708476E-007	0.0078602	7
	30	11	998.264	2911.945	-2994.532	1	4176.918	-45.80108	8.142438E-007	0.0059505	7
	31	11	796.875	3034.782	-3641.34	1	4740.175	-50.19135	7.685188E-008	0.0054812	7
	32	11	627.7902	3190.007	-4492.189	1	5509.619	-54.62056	7.628809E-007	0.0052175	7
	33	12	505.5147	3372.913	-5445.848	1	6405.764	-58.22779	5.98912E-007	0.0051596	7
	34	12	397.9953	3633.213	-6723.095	1	7642.005	-61.61287	5.489217E-011	0.0065713	7
	35	12	315.5048	3956.299	-8265.274	1	9163.354	-64.42119	1.743148E-009	0.0065669	7
	36	13	252.4038	4362.706	-10075.14	1	10979.15	-66.58658	-8.095968E-010	0.0065074	6
	37	13	198.6229	4930.49	-12453.98	1	13394.45	-68.40155	-2.996881E-011	0.0065099	6
	38	13	158.3615	5635.369	-15195.84	1	16207.13	-69.65273	-5.090888E-010	0.0065082	6
	39	13	125.558	6590.476	-18603.04	1	19735.94	-70.49235	2.423345E-010	0.0065031	6
	40	14	100.4464	7762.207	-22557.11	1	23855.3	-71.01097	9.565289E-011	0.0064994	6
	41	14	79.00281	9453.035	-27624.7	1	29197.33	-71.10931	7.574669E-010	0.0064995	6
	42	14	63.3446	11953.86	-33379.72	1	35455.61	-70.29666	-3.352765E-010	0.0064973	6
	43	15	49.86702	14762.03	-40565.95	1	43168.44	-70.00346	-3.128514E-010	0.0064912	6
	44	15	39.72458	18188.77	-48438.95	1	51741.31	-69.4189	2.735502E-010	0.0064941	6
	45	16	31.6723	22664.32	-57606.28	1	61904.4	-68.52359	-3.836745E-010	0.0064925	6
	46	16	24.93351	29023.45	-69072.46	1	74922.4	-67.20842	-1.592748E-010	0.006483	6
	47	16	19.86229	36563.02	-81321.02	1	89162.56	-65.79067	9.267384E-010	0.0064943	6
	48	16	15.83615	45666.18	-94399.17	1	104864.7	-64.18434	-1.321551E-009	0.0064957	5
	49	17	12.40079	56756.14	-111791.4	1	125373.7	-63.08323	1.118729E-010	0.0064979	5
	50	17	9.93114	70355.77	-127269.2	1	145421.4	-61.06571	-5.43479E-010	0.0064891	5
	51	18	7.944915	85274.19	-145371.9	1	168536.8	-59.60439	-3.38043E-010	0.0064996	5
	52	18	6.317385	101845	-165554.7	1	194372.7	-58.40124	-4.346324E-010	0.0065067	5
	53	19	5.008013	120923.6	-188706	1	224126	-57.34808	-5.228064E-010	0.0064962	5
	54	20	3.945707	142167.6	-214848.2	1	257626.4	-56.50693	1.009082E-010	0.006493	5
	55	22	3.158693	164402	-243452.5	1	293763.8	-55.96907	4.302828E-012	0.006514	5
	56	23	2.504006	189726.6	-278458.1	1	336949.7	-55.73155	-2.529448E-010	0.0064943	5
	57	25	1.998082	216108.9	-317070.8	1	383714.7	-55.72246	2.479148E-011	0.0065155	5
	58	26	1.584686	247430.8	-365114.7	1	441056.4	-55.8753	1.240483E-010	0.006545	5
	59	28	1.266892	279632	-419734.9	1	504352.5	-56.32801	6.677777E-011	0.0065171	5
	60	31	0.999041	318981.9	-487023.9	1	582187	-56.77674	1.138565E-011	0.0064932	5
