EXPLAIN
TAG	EISPOT
TITLE	LABEL	Potentiostatic EIS	Test &Identifier
DATE	LABEL	10/8/2019	Date
TIME	LABEL	9:59:31	Time
NOTES	NOTES	2	&Notes...
	
	
PSTAT	PSTAT	REF600-11020	Potentiostat
VDC	POTEN	0.00000E+000	T	DC &Voltage (V)
FREQINIT	QUANT	1.00000E+006	Initial Fre&q. (Hz)
FREQFINAL	QUANT	1.00000E+000	Final Fre&q. (Hz)
PTSPERDEC	QUANT	1.00000E+001	Points/&decade
VAC	QUANT	2.50000E+001	AC &Voltage (mV rms)
AREA	QUANT	1.00000E-002	&Area (cm^2)
CONDIT	TWOPARAM	T	5.00000E+000	0.00000E+000	Conditionin&g	Time(s)	E(V)
DELAY	TWOPARAM	T	5.00000E+000	0.00000E+000	Init. De&lay	Time(s)	Stab.(mV/s)
SPEED	SELECTOR	1	&Optimize for:
ZGUESS	QUANT	1.00000E+004	E&stimated Z (ohms)
OCVCURVE	TABLE	19
	Pt	T	Vf	Vm	Ach	Over
	#	s	V vs. Ref.	V	V	bits
	0	0.258333	4.86084E-003	4.86084E-003	5.07200E-004	...........
	1	0.516667	4.85654E-003	4.63610E-003	5.05633E-004	...........
	2	0.775	4.83035E-003	4.43180E-003	5.08967E-004	...........
	3	1.03333	4.75687E-003	4.24001E-003	5.10933E-004	...........
	4	1.29167	4.62680E-003	4.05327E-003	5.04267E-004	...........
	5	1.55	4.45387E-003	3.78539E-003	5.10100E-004	...........
	6	1.80833	4.25671E-003	3.62513E-003	5.05800E-004	...........
	7	2.06667	4.05061E-003	3.53843E-003	5.02067E-004	...........
	8	2.325	3.85551E-003	3.46909E-003	5.07333E-004	...........
	9	2.58333	3.69497E-003	3.53167E-003	5.10067E-004	...........
	10	2.84167	3.58154E-003	3.29954E-003	5.10367E-004	...........
	11	3.1	3.50204E-003	3.21874E-003	5.03900E-004	...........
	12	3.35833	3.42658E-003	3.15082E-003	5.05300E-004	...........
	13	3.61667	3.33960E-003	3.07969E-003	5.08367E-004	...........
	14	3.875	3.24861E-003	3.01929E-003	5.03567E-004	...........
	15	4.13333	3.16472E-003	2.96199E-003	5.04567E-004	...........
	16	4.39167	3.09113E-003	2.89835E-003	5.04600E-004	...........
	17	4.65	3.02545E-003	2.83978E-003	5.05533E-004	...........
	18	4.90833	2.96409E-003	2.79043E-003	5.02033E-004	...........
EOC	QUANT	0.0029641	Open Circuit (V)
PSTATMODEL	IQUANT	4	Pstat Model
PSTATSECTION	LABEL	REF600-11020	Pstat Section
PSTATSERIALNO	LABEL	11020	Pstat Serial Number
CTRLMODE	IQUANT	1	Control Mode
IESTAB	IQUANT	0	I/E Stability
CASPEED	IQUANT	1	Control Amp Speed
CONVENTION	IQUANT	1	Current Convention
ICHRANGE	IQUANT	2	Ich Range
ICHRANGEMODE	TOGGLE	F	Ich Auto Range
ICHOFFSETENABLE	TOGGLE	T	Ich Offset Enable
ICHOFFSET	QUANT	0	Ich Offset (V)
ICHFILTER	IQUANT	3	Ich Filter
VCHRANGE	IQUANT	2	Vch Range
VCHRANGEMODE	TOGGLE	F	Vch Auto Range
VCHOFFSETENABLE	TOGGLE	T	Vch Offset Enable
VCHOFFSET	QUANT	0	Vch Offset (V)
VCHFILTER	IQUANT	3	Vch Filter
ACHRANGE	IQUANT	2	Ach Range
ACHOFFSETENABLE	TOGGLE	F	Ach Offset Enable
ACHOFFSET	QUANT	0	Ach Offset (V)
ACHFILTER	IQUANT	3	Ach Filter
IERANGELOWERLIMIT	IQUANT	1	I/E Range Lower Limit
IERANGEMODE	TOGGLE	F	I/E AutoRange
IERANGE	IQUANT	5	I/E Range
POSFEEDENABLE	TOGGLE	F	Positive Feedback IR Comp
POSFEEDRESISTANCE	QUANT	0	Positive Feedback Resistance (ohm)
ACHSELECT	IQUANT	0	Ach Select
CABLEID	IQUANT	14	Cable ID
DCCALDATE	LABEL	8/19/2019	DC Calibration Date
ACCALDATE	LABEL	8/19/2019	AC Calibration Date
THERMOSELECT	IQUANT	1	Thermo Select
FRAMEWORKVERSION	QUANT	6.33	Framework Version
INSTRUMENTVERSION	LABEL	3.50	Instrument Version
ZCURVE	TABLE
	Pt	Time	Freq	Zreal	Zimag	Zsig	Zmod	Zphz	Idc	Vdc	IERange
	#	s	Hz	ohm	ohm	V	ohm	°	A	V	#
	0	1	1000078	2708.316	-1636.225	1	3164.207	-31.13821	-7.54512E-006	0.0070983	8
	1	2	794390.6	3012.752	-1508.703	1	3369.401	-26.60044	-1.934192E-006	0.0057149	8
	2	4	630984.4	3282.639	-1377.03	1	3559.766	-22.75751	5.716265E-006	0.0039535	8
	3	6	501234.4	3477.277	-1204.32	1	3679.924	-19.10301	-3.503288E-006	0.0052814	8
	4	7	398109.4	3624.716	-1054.186	1	3774.9	-16.21617	3.951903E-007	0.0047569	8
	5	8	316265.6	3761.349	-896.3036	1	3866.667	-13.40323	-8.541892E-007	0.004714	8
	6	10	251203.1	3838.977	-747.5881	1	3911.091	-11.01965	4.52505E-006	0.0038474	8
	7	11	199546.9	3913.461	-660.786	1	3968.856	-9.58397	1.437046E-006	0.0044558	8
	8	13	158578.1	3969.219	-575.0383	1	4010.657	-8.24334	4.33322E-006	0.0038642	8
	9	14	125953.1	4033.514	-463.3564	1	4060.041	-6.553219	7.175066E-007	0.0035708	7
	10	16	100078.1	4056.861	-409.7113	1	4077.498	-5.766873	4.490694E-008	0.0045328	7
	11	17	79453.13	4088.138	-384.6991	1	4106.198	-5.375777	-4.502411E-008	0.0045956	7
	12	18	63140.62	4117.011	-367.1185	1	4133.347	-5.095652	-5.180564E-010	0.0045787	7
	13	20	50203.12	4146.074	-359.3392	1	4161.617	-4.953434	-3.861697E-008	0.0046026	7
	14	21	39890.62	4174.55	-362.2109	1	4190.234	-4.958933	7.171212E-008	0.0044474	7
	15	22	31640.63	4203.726	-373.0935	1	4220.25	-5.071886	1.010051E-007	0.0044938	7
	16	24	25171.88	4233.785	-393.8365	1	4252.063	-5.314493	-9.413005E-009	0.004712	7
	17	25	20015.62	4268.22	-426.2361	1	4289.45	-5.702806	1.519215E-007	0.0043342	7
	18	26	15890.62	4300.883	-467.111	1	4326.174	-6.198494	-6.857964E-009	0.0046053	7
	19	28	12609.37	4339.781	-524.6743	1	4371.382	-6.893534	-9.500522E-009	0.0047045	7
	20	29	10078.13	4379.125	-591.6726	1	4418.915	-7.694754	-5.585059E-008	0.004592	7
	21	31	8015.625	4424.755	-669.4687	1	4475.114	-8.603639	-6.515344E-008	0.004758	7
	22	32	6328.125	4472.711	-785.901	1	4541.231	-9.96572	-7.228315E-009	0.0046979	7
	23	33	5015.625	4527.337	-916.5179	1	4619.176	-11.44434	-3.956558E-008	0.0045699	7
	24	35	3984.375	4583.621	-1082.184	1	4709.64	-13.28416	-5.243128E-010	0.0045695	7
	25	36	3170.956	4652.393	-1272.799	1	4823.357	-15.30056	-9.15867E-008	0.0047059	7
	26	37	2527.573	4727.537	-1509.466	1	4962.67	-17.70788	-8.05576E-010	0.0045653	7
	27	39	1976.103	4822.783	-1827.503	1	5157.422	-20.75326	-1.072567E-008	0.0047105	7
	28	40	1577.524	4928.119	-2182.277	1	5389.684	-23.88479	-4.122047E-008	0.0046455	7
	29	41	1265.625	5035.411	-2602.338	1	5668.115	-27.33026	5.433473E-008	0.0043969	7
	30	43	998.264	5182.567	-3158.033	1	6068.952	-31.35633	-5.447696E-008	0.0045977	7
	31	44	796.875	5342.696	-3800.44	1	6556.504	-35.42553	-2.328787E-009	0.0045669	7
	32	45	627.7902	5546.66	-4632.591	1	7226.779	-39.86876	-1.167669E-008	0.0045173	7
	33	47	505.5147	5765.401	-5548.705	1	8001.748	-43.90276	1.536328E-007	0.0043217	7
	34	48	397.9953	6055.763	-6786.033	1	9095.191	-48.25471	6.49917E-009	0.0045664	7
	35	49	315.5048	6395.934	-8266.09	1	10451.61	-52.26889	7.337552E-010	0.0045092	6
	36	51	252.4038	6789.988	-10005.71	1	12092.07	-55.83873	8.656317E-010	0.004501	6
	37	52	198.6229	7311.188	-12304.35	1	14312.6	-59.28142	1.345807E-009	0.0045118	6
	38	54	158.3615	7930.145	-14974.92	1	16945.07	-62.09601	1.002036E-009	0.0045086	6
	39	55	125.558	8750.066	-18321.95	1	20304.12	-64.47212	1.267288E-009	0.0045099	6
	40	56	100.4464	9753.7	-22235.43	1	24280.63	-66.31506	1.755708E-010	0.0045074	6
	41	58	79.00281	11151.2	-27387.13	1	29570.33	-67.84536	5.506685E-010	0.0045055	6
	42	59	63.3446	13114.51	-33294.32	1	35784.11	-68.5007	7.007921E-010	0.0045011	6
	43	61	49.86702	15220	-40603.01	1	43361.88	-69.45154	1.332966E-010	0.0045036	6
	44	62	39.72458	18526.25	-48956.37	1	52344.51	-69.27217	1.187728E-009	0.004508	6
	45	63	31.6723	22445.35	-58988.74	1	63114.7	-69.16807	1.552954E-009	0.0045059	6
	46	65	24.93351	28079.94	-71181.83	1	76520.16	-68.47166	5.173101E-010	0.0045049	6
	47	66	19.86229	34820.02	-84680.27	1	91559.71	-67.64783	5.148496E-010	0.0045007	6
	48	67	15.83615	42801.08	-100240.3	1	108995.7	-66.87827	6.258257E-010	0.0045075	5
	49	69	12.40079	53680.52	-118893.7	1	130450.4	-65.70081	8.35493E-010	0.0045061	5
	50	70	9.93114	65659.42	-138810.5	1	153556.2	-64.68515	7.342102E-010	0.0045039	5
	51	72	7.944915	78701.47	-161449	1	179609.8	-64.01217	-1.083206E-010	0.0045112	5
	52	73	6.317385	95616.3	-187520.6	1	210491	-62.98307	-1.707053E-011	0.0045167	5
	53	75	5.008013	114896.1	-217944	1	246375.1	-62.20263	3.999615E-010	0.0045078	5
	54	78	3.945707	137515.9	-254354.6	1	289148.6	-61.60228	1.77782E-010	0.0045084	5
	55	81	3.158693	161673.5	-293473.6	1	335059.8	-61.1498	3.343894E-010	0.0045257	5
	56	84	2.504006	190831.1	-341427.9	1	391138.8	-60.79827	-7.150148E-011	0.0044994	5
	57	87	1.998082	223026	-394978.8	1	453595.4	-60.54862	-1.058065E-011	0.0044883	5
	58	90	1.584686	262055.1	-457766.8	1	527468.8	-60.21041	1.308857E-010	0.0045489	5
	59	93	1.266892	303774.9	-530805.6	1	611583.1	-60.21791	-7.312801E-012	0.0044836	5
	60	98	0.999041	357238.1	-620024.4	1	715576.2	-60.05083	2.788249E-010	0.0045442	5
