EXPLAIN
TAG	EISPOT
TITLE	LABEL	Potentiostatic IDE	Test &Identifier
DATE	LABEL	9/18/2019	Date
TIME	LABEL	8:49:15	Time
NOTES	NOTES	1	&Notes...
	
PSTAT	PSTAT	REF600-11020	Potentiostat
VDC	POTEN	0.00000E+000	T	DC &Voltage (V)
FREQINIT	QUANT	1.00000E+006	Initial Fre&q. (Hz)
FREQFINAL	QUANT	1.00000E+000	Final Fre&q. (Hz)
PTSPERDEC	QUANT	1.00000E+001	Points/&decade
VAC	QUANT	2.50000E+001	AC &Voltage (mV rms)
AREA	QUANT	1.00000E-002	&Area (cm^2)
CONDIT	TWOPARAM	T	5.00000E+000	0.00000E+000	Conditionin&g	Time(s)	E(V)
DELAY	TWOPARAM	T	5.00000E+000	0.00000E+000	Init. De&lay	Time(s)	Stab.(mV/s)
SPEED	SELECTOR	1	&Optimize for:
ZGUESS	QUANT	1.00000E+007	E&stimated Z (ohms)
OCVCURVE	TABLE	19
	Pt	T	Vf	Vm	Ach	Over
	#	s	V vs. Ref.	V	V	bits
	0	0.258333	6.44231E-003	6.44231E-003	5.76966E-004	...........
	1	0.516667	6.44246E-003	6.44969E-003	5.70766E-004	...........
	2	0.775	6.44128E-003	6.34974E-003	5.72899E-004	...........
	3	1.03333	6.43465E-003	6.43673E-003	5.75432E-004	...........
	4	1.29167	6.42468E-003	6.50940E-003	5.71566E-004	...........
	5	1.55	6.42423E-003	6.47216E-003	5.71032E-004	...........
	6	1.80833	6.43806E-003	6.40807E-003	5.72032E-004	...........
	7	2.06667	6.45012E-003	6.34776E-003	5.73432E-004	...........
	8	2.325	6.44029E-003	6.24871E-003	5.77432E-004	...........
	9	2.58333	6.40340E-003	6.26587E-003	5.74066E-004	...........
	10	2.84167	6.35532E-003	6.45139E-003	5.71999E-004	...........
	11	3.1	6.32720E-003	6.43488E-003	5.75966E-004	...........
	12	3.35833	6.33825E-003	6.43826E-003	5.77132E-004	...........
	13	3.61667	6.37865E-003	6.63169E-003	5.72366E-004	...........
	14	3.875	6.42449E-003	6.17954E-003	5.69432E-004	...........
	15	4.13333	6.44310E-003	6.19022E-003	5.75066E-004	...........
	16	4.39167	6.41306E-003	6.55523E-003	5.79432E-004	...........
	17	4.65	6.36701E-003	6.36791E-003	5.78865E-004	...........
	18	4.90833	6.35853E-003	6.61976E-003	5.82299E-004	...........
EOC	QUANT	0.0063585	Open Circuit (V)
PSTATMODEL	IQUANT	4	Pstat Model
PSTATSECTION	LABEL	REF600-11020	Pstat Section
PSTATSERIALNO	LABEL	11020	Pstat Serial Number
CTRLMODE	IQUANT	1	Control Mode
IESTAB	IQUANT	0	I/E Stability
CASPEED	IQUANT	1	Control Amp Speed
CONVENTION	IQUANT	1	Current Convention
ICHRANGE	IQUANT	2	Ich Range
ICHRANGEMODE	TOGGLE	F	Ich Auto Range
ICHOFFSETENABLE	TOGGLE	T	Ich Offset Enable
ICHOFFSET	QUANT	0	Ich Offset (V)
ICHFILTER	IQUANT	3	Ich Filter
VCHRANGE	IQUANT	2	Vch Range
VCHRANGEMODE	TOGGLE	F	Vch Auto Range
VCHOFFSETENABLE	TOGGLE	T	Vch Offset Enable
VCHOFFSET	QUANT	0	Vch Offset (V)
VCHFILTER	IQUANT	3	Vch Filter
ACHRANGE	IQUANT	2	Ach Range
ACHOFFSETENABLE	TOGGLE	F	Ach Offset Enable
ACHOFFSET	QUANT	0	Ach Offset (V)
ACHFILTER	IQUANT	3	Ach Filter
IERANGELOWERLIMIT	IQUANT	1	I/E Range Lower Limit
IERANGEMODE	TOGGLE	F	I/E AutoRange
IERANGE	IQUANT	3	I/E Range
POSFEEDENABLE	TOGGLE	F	Positive Feedback IR Comp
POSFEEDRESISTANCE	QUANT	0	Positive Feedback Resistance (ohm)
ACHSELECT	IQUANT	0	Ach Select
CABLEID	IQUANT	14	Cable ID
DCCALDATE	LABEL	8/19/2019	DC Calibration Date
ACCALDATE	LABEL	8/19/2019	AC Calibration Date
THERMOSELECT	IQUANT	1	Thermo Select
FRAMEWORKVERSION	QUANT	6.33	Framework Version
INSTRUMENTVERSION	LABEL	3.50	Instrument Version
ZCURVE	TABLE
	Pt	Time	Freq	Zreal	Zimag	Zsig	Zmod	Zphz	Idc	Vdc	IERange
	#	s	Hz	ohm	ohm	V	ohm	°	A	V	#
	0	2	1000078	2202.197	-1525.192	1	2678.783	-34.7056	-2.247817E-007	0.0088456	8
	1	3	794390.6	2498.486	-1428.16	1	2877.86	-29.75273	1.379097E-006	0.0079925	8
	2	5	630984.4	2764.89	-1300.637	1	3055.532	-25.19285	-8.667329E-007	0.0081887	8
	3	6	501234.4	2978.106	-1139.296	1	3188.591	-20.93472	-4.159902E-007	0.0079939	8
	4	7	398109.4	3126.466	-993.623	1	3280.561	-17.63078	6.241997E-007	0.0078007	8
	5	9	316265.6	3245.313	-853.7339	1	3355.729	-14.73868	-8.320189E-007	0.0080563	8
	6	10	251203.1	3334.119	-725.6713	1	3412.177	-12.27893	4.023625E-007	0.0078103	8
	7	11	199546.9	3400.858	-624.5238	1	3457.726	-10.4057	1.015417E-006	0.0077205	8
	8	13	158578.1	3445.265	-539.75	1	3487.288	-8.90383	-9.215514E-007	0.0080632	8
	9	14	125953.1	3498.931	-453.8455	1	3528.242	-7.390559	-2.039037E-008	0.0079204	7
	10	15	100078.1	3527.008	-405.8591	1	3550.283	-6.564255	1.766879E-008	0.0078054	7
	11	17	79453.13	3555.349	-379.7906	1	3575.576	-6.097346	-2.093333E-008	0.0078606	7
	12	18	63140.62	3583.304	-364.7661	1	3601.822	-5.812462	-2.511981E-008	0.0078575	7
	13	19	50203.12	3611.296	-359.9454	1	3629.19	-5.69199	-7.231477E-009	0.007792	7
	14	21	39890.62	3639.149	-362.4959	1	3657.159	-5.688472	-1.914245E-008	0.0078582	7
	15	22	31640.63	3670.896	-377.5634	1	3690.261	-5.872405	5.065924E-008	0.0077913	7
	16	23	25171.88	3704.437	-400.7433	1	3726.05	-6.174206	-2.583869E-008	0.0078558	7
	17	25	20015.62	3739.438	-432.8343	1	3764.404	-6.602519	-2.335713E-008	0.0078573	7
	18	26	15890.62	3780.87	-477.062	1	3810.849	-7.191453	-1.891659E-009	0.0078765	7
	19	27	12609.37	3821.586	-527.8693	1	3857.871	-7.864406	-2.128807E-008	0.0078504	7
	20	29	10078.13	3866.427	-590.4134	1	3911.246	-8.682144	1.602952E-008	0.0078469	7
	21	30	8015.625	3916.006	-667.8329	1	3972.544	-9.67807	2.07645E-008	0.0077869	7
	22	31	6328.125	3971.266	-767.9219	1	4044.831	-10.94418	-1.594984E-008	0.0078171	7
	23	33	5015.625	4030.511	-886.6723	1	4126.889	-12.40687	-2.14459E-008	0.0079023	7
	24	34	3984.375	4092.253	-1030.898	1	4220.105	-14.13944	1.90674E-008	0.0077908	7
	25	35	3170.956	4161.741	-1205.634	1	4332.856	-16.15602	3.089247E-008	0.0077776	7
	26	37	2527.573	4235.53	-1418.323	1	4466.694	-18.5138	1.22587E-008	0.0078443	7
	27	38	1976.103	4327.843	-1701.581	1	4650.334	-21.46329	-4.913962E-009	0.0077867	7
	28	39	1577.524	4419.871	-2024.536	1	4861.482	-24.61029	-2.101927E-008	0.0078498	7
	29	41	1265.625	4526.125	-2407.063	1	5126.379	-28.00473	-2.526361E-008	0.0078495	7
	30	42	998.264	4658.053	-2908.873	1	5491.721	-31.98406	-2.163047E-008	0.0078854	7
	31	43	796.875	4801.877	-3491.751	1	5937.201	-36.02329	-4.173236E-009	0.0077821	7
	32	45	627.7902	4976.255	-4248.96	1	6543.453	-40.49225	2.163375E-008	0.007745	7
	33	46	505.5147	5163.201	-5093.971	1	7253.081	-44.61329	-2.922088E-008	0.0078521	7
	34	47	397.9953	5400.208	-6230.792	1	8245.303	-49.08462	5.467272E-009	0.0078402	7
	35	49	315.5048	5671.064	-7596.82	1	9480.119	-53.25848	5.971849E-009	0.0078364	7
	36	50	252.4038	5978.264	-9208.078	1	10978.54	-57.00671	5.601098E-010	0.0077773	6
	37	51	198.6229	6369.48	-11345.6	1	13011.27	-60.68992	1.188153E-009	0.0077796	6
	38	53	158.3615	6814.756	-13845.4	1	15431.65	-63.79342	6.435084E-010	0.0077782	6
	39	54	125.558	7378.651	-17006.32	1	18538.05	-66.54508	1.223021E-009	0.0077789	6
	40	55	100.4464	8055.454	-20743.11	1	22252.35	-68.77664	4.428016E-010	0.0077814	6
	41	57	79.00281	8982.476	-25701.62	1	27226.05	-70.73595	1.412499E-009	0.0077798	6
	42	58	63.3446	10011.38	-31527.68	1	33079.03	-72.38315	9.49263E-010	0.0077845	6
	43	59	49.86702	11661.17	-38699.79	1	40418.52	-73.2312	2.208097E-010	0.0077812	6
	44	61	39.72458	13676.88	-47626.59	1	49551.48	-73.97758	8.742121E-010	0.0077836	6
	45	62	31.6723	16182.17	-58157.45	1	60366.8	-74.4509	6.613235E-010	0.0077818	6
	46	63	24.93351	19925.82	-71768.62	1	74483.38	-74.48323	6.998667E-010	0.0077851	6
	47	65	19.86229	24682.89	-87498.44	1	90913.27	-74.2465	1.056208E-009	0.0077819	6
	48	66	15.83615	30426.83	-106708.6	1	110961.8	-74.08507	-4.744888E-010	0.0077862	5
	49	67	12.40079	39300.7	-129744.4	1	135566	-73.14798	-2.614261E-010	0.007795	5
	50	69	9.93114	49930.32	-156615.7	1	164382.2	-72.31731	6.922029E-010	0.0077874	5
	51	70	7.944915	63492.41	-187726.3	1	198172.7	-71.31354	2.162271E-010	0.0077928	5
	52	72	6.317385	81810.48	-224623.3	1	239057.7	-69.98777	5.770239E-011	0.007805	5
	53	74	5.008013	105826.3	-267638.1	1	287800.9	-68.42574	3.912924E-010	0.0077893	5
	54	77	3.945707	137211.8	-318469.4	1	346770.6	-66.69131	8.324999E-011	0.0077841	5
	55	79	3.158693	173849	-371157.7	1	409855.4	-64.90176	3.451347E-010	0.0078077	5
	56	83	2.504006	221543.9	-432226.9	1	485697.2	-62.86196	-2.751455E-010	0.0077897	5
	57	85	1.998082	276243.8	-493227.1	1	565317.3	-60.74794	2.283446E-010	0.0077464	5
	58	88	1.584686	342286.1	-563552	1	659356.3	-58.72665	-6.323707E-011	0.0077382	5
	59	92	1.266892	412557.5	-631278.5	1	754132.8	-56.8343	2.555081E-010	0.00776	5
	60	96	0.999041	498478.5	-712997.8	1	869969.3	-55.04143	-2.481291E-010	0.0077815	5
