EXPLAIN
TAG	EISPOT
TITLE	LABEL	Potentiostatic EIS	Test &Identifier
DATE	LABEL	11/7/2019	Date
TIME	LABEL	9:23:59	Time
NOTES	NOTES	2	&Notes...
	
	
PSTAT	PSTAT	REF600-11020	Potentiostat
VDC	POTEN	0.00000E+000	T	DC &Voltage (V)
FREQINIT	QUANT	1.00000E+006	Initial Fre&q. (Hz)
FREQFINAL	QUANT	1.00000E+000	Final Fre&q. (Hz)
PTSPERDEC	QUANT	1.00000E+001	Points/&decade
VAC	QUANT	2.50000E+001	AC &Voltage (mV rms)
AREA	QUANT	1.00000E-002	&Area (cm^2)
CONDIT	TWOPARAM	T	5.00000E+000	0.00000E+000	Conditionin&g	Time(s)	E(V)
DELAY	TWOPARAM	T	5.00000E+000	0.00000E+000	Init. De&lay	Time(s)	Stab.(mV/s)
SPEED	SELECTOR	1	&Optimize for:
ZGUESS	QUANT	1.00000E+005	E&stimated Z (ohms)
OCVCURVE	TABLE	19
	Pt	T	Vf	Vm	Ach	Over
	#	s	V vs. Ref.	V	V	bits
	0	0.258333	8.68161E-004	8.68161E-004	5.51366E-004	...........
	1	0.516667	8.66809E-004	7.97356E-004	5.48433E-004	...........
	2	0.775	8.55568E-004	5.76635E-004	5.52033E-004	...........
	3	1.03333	8.14330E-004	3.81184E-004	5.53133E-004	...........
	4	1.29167	7.22986E-004	1.91443E-004	5.48999E-004	...........
	5	1.55	5.81016E-004	3.94310E-005	5.49266E-004	...........
	6	1.80833	4.08294E-004	-1.45475E-004	5.51533E-004	...........
	7	2.06667	2.30389E-004	-1.26243E-004	5.50066E-004	...........
	8	2.325	6.82630E-005	-3.72873E-004	5.47399E-004	...........
	9	2.58333	-9.15886E-005	-1.50314E-003	5.42833E-004	...........
	10	2.84167	-3.17416E-004	-1.33021E-003	5.57566E-004	...........
	11	3.1	-6.20899E-004	-2.29834E-004	5.51366E-004	...........
	12	3.35833	-8.53895E-004	-5.81798E-004	5.44133E-004	...........
	13	3.61667	-8.76720E-004	-4.58896E-004	5.41033E-004	...........
	14	3.875	-7.46606E-004	-5.90677E-004	5.44566E-004	...........
	15	4.13333	-6.17542E-004	-8.25550E-004	5.40799E-004	...........
	16	4.39167	-5.83673E-004	-1.12403E-003	5.48799E-004	...........
	17	4.65	-6.63575E-004	-1.23356E-003	5.41199E-004	...........
	18	4.90833	-8.24634E-004	-1.26656E-003	5.44466E-004	...........
EOC	QUANT	-0.0008246	Open Circuit (V)
PSTATMODEL	IQUANT	4	Pstat Model
PSTATSECTION	LABEL	REF600-11020	Pstat Section
PSTATSERIALNO	LABEL	11020	Pstat Serial Number
CTRLMODE	IQUANT	1	Control Mode
IESTAB	IQUANT	0	I/E Stability
CASPEED	IQUANT	1	Control Amp Speed
CONVENTION	IQUANT	1	Current Convention
ICHRANGE	IQUANT	2	Ich Range
ICHRANGEMODE	TOGGLE	F	Ich Auto Range
ICHOFFSETENABLE	TOGGLE	T	Ich Offset Enable
ICHOFFSET	QUANT	0	Ich Offset (V)
ICHFILTER	IQUANT	3	Ich Filter
VCHRANGE	IQUANT	2	Vch Range
VCHRANGEMODE	TOGGLE	F	Vch Auto Range
VCHOFFSETENABLE	TOGGLE	T	Vch Offset Enable
VCHOFFSET	QUANT	0	Vch Offset (V)
VCHFILTER	IQUANT	3	Vch Filter
ACHRANGE	IQUANT	2	Ach Range
ACHOFFSETENABLE	TOGGLE	F	Ach Offset Enable
ACHOFFSET	QUANT	0	Ach Offset (V)
ACHFILTER	IQUANT	3	Ach Filter
IERANGELOWERLIMIT	IQUANT	1	I/E Range Lower Limit
IERANGEMODE	TOGGLE	F	I/E AutoRange
IERANGE	IQUANT	4	I/E Range
POSFEEDENABLE	TOGGLE	F	Positive Feedback IR Comp
POSFEEDRESISTANCE	QUANT	0	Positive Feedback Resistance (ohm)
ACHSELECT	IQUANT	0	Ach Select
CABLEID	IQUANT	14	Cable ID
DCCALDATE	LABEL	8/19/2019	DC Calibration Date
ACCALDATE	LABEL	8/19/2019	AC Calibration Date
THERMOSELECT	IQUANT	1	Thermo Select
FRAMEWORKVERSION	QUANT	6.33	Framework Version
INSTRUMENTVERSION	LABEL	3.50	Instrument Version
ZCURVE	TABLE
	Pt	Time	Freq	Zreal	Zimag	Zsig	Zmod	Zphz	Idc	Vdc	IERange
	#	s	Hz	ohm	ohm	V	ohm	°	A	V	#
	0	2	1000078	1323.839	-2851.96	1	3144.238	-65.09995	-1.395224E-005	0.0029383	8
	1	4	794390.6	1517.257	-3432.394	1	3752.785	-66.15264	8.780909E-006	0.0002663	8
	2	5	630984.4	1731.09	-4087.554	1	4439.005	-67.04721	-2.595685E-006	0.0016238	8
	3	7	501234.4	1965.226	-4915.114	1	5293.435	-68.20683	-2.01101E-007	0.0014836	8
	4	8	398109.4	2307.454	-5927.379	1	6360.674	-68.72967	-1.792825E-006	0.0005369	8
	5	10	316265.6	2690.027	-7125.179	1	7616.063	-69.31656	-6.795077E-006	0.0018125	8
	6	12	251203.1	3143.845	-8598.941	1	9155.63	-69.91717	-6.405452E-007	0.0004414	8
	7	14	199546.9	3868.865	-10382.71	1	11080.11	-69.56332	2.885075E-006	0.0001294	8
	8	16	158578.1	4743.689	-12702.79	1	13559.62	-69.52251	-4.178361E-006	0.0013951	8
	9	17	125953.1	6038.415	-14962.77	1	16135.27	-68.02283	-3.926557E-006	0.0039596	7
	10	19	100078.1	7470.395	-17861.25	1	19360.55	-67.30308	-1.289365E-006	0.0031842	7
	11	20	79453.13	9077.569	-21368.83	1	23217.01	-66.98402	1.234732E-006	0.0004067	7
	12	22	63140.62	11552.97	-25326.04	1	27836.65	-65.47896	-1.754032E-006	0.0022886	7
	13	24	50203.12	14207.86	-30167.59	1	33345.86	-64.78124	1.627914E-006	-0.0009692	7
	14	25	39890.62	17950.75	-35705.39	1	39963.79	-63.30921	1.122467E-006	-0.0018862	7
	15	27	31640.63	22855.69	-40221.63	1	46261.89	-60.39287	9.031502E-007	0.0010398	7
	16	28	25171.88	28314.53	-46945.78	1	54823.52	-58.90446	-1.086675E-006	0.0005353	7
	17	30	20015.62	34761.79	-51941.57	1	62500.47	-56.20766	5.585811E-007	0.0015544	7
	18	31	15890.62	42638.32	-62036.05	1	75276.15	-55.49867	1.12252E-006	-0.0018894	7
	19	33	12609.37	53647.57	-65356.32	1	84554.77	-50.61922	-8.634343E-008	0.0043688	6
	20	35	10078.13	64571.02	-71053.34	1	96010.4	-47.73644	-2.518111E-007	0.0052822	6
	21	37	8015.625	77517.06	-79238.01	1	110849.2	-45.629	1.719257E-007	0.0009809	6
	22	38	6328.125	91965.6	-85279.3	1	125420.2	-42.83963	2.681512E-007	-0.0014589	6
	23	40	5015.625	106202.6	-86247.95	1	136812.6	-39.08032	-1.765083E-007	0.0050483	6
	24	42	3984.375	123424.3	-87948.07	1	151553.4	-35.47241	-1.772215E-007	0.0050465	6
	25	43	3170.956	138786.8	-89328.52	1	165049.5	-32.7669	-6.390048E-008	-0.0014798	6
	26	45	2527.573	155536.2	-90602.71	1	180001	-30.22159	1.784188E-007	-0.0034759	6
	27	47	1976.103	170028.5	-87333.94	1	191146.3	-27.18697	2.725142E-007	-0.0022491	6
	28	48	1577.524	182752.4	-80636.7	1	199751.6	-23.80874	2.471125E-008	-0.0024807	6
	29	50	1265.625	195452.8	-76881.1	1	210029.7	-21.47213	4.108747E-009	0.0029721	5
	30	52	998.264	205527.6	-75800.38	1	219060	-20.24441	-7.652751E-010	-0.0020603	5
	31	53	796.875	214513.9	-74532.38	1	227093.1	-19.15967	-2.896419E-008	0.0051795	5
	32	54	627.7902	225842	-75499.23	1	238127.6	-18.48484	2.490547E-008	-0.0031736	5
	33	56	505.5147	234223.2	-76176.91	1	246299.5	-18.01619	2.029491E-008	0.0003899	5
	34	57	397.9953	243975.5	-77652.73	1	256035.2	-17.65528	3.340566E-010	0.0006867	5
	35	59	315.5048	253312	-79682.06	1	265548.9	-17.46154	-6.811961E-010	0.0006963	5
	36	60	252.4038	262553.7	-83083.53	1	275385.8	-17.55966	1.034098E-009	0.0006757	5
	37	61	198.6229	272820.8	-86586.13	1	286231.3	-17.60807	3.619445E-010	0.0006798	5
	38	63	158.3615	282314.9	-92480.15	1	297076.2	-18.13766	1.145186E-010	0.0006757	5
	39	64	125.558	294014.3	-97598.2	1	309790	-18.36362	-1.572633E-010	0.0006977	5
	40	66	100.4464	305644.5	-106074.1	1	323527.8	-19.13936	1.643088E-010	0.0006918	5
	41	67	79.00281	313364	-114759.9	1	333716.8	-20.1137	4.162306E-010	0.0006873	5
	42	69	63.3446	310477.6	-107870.7	1	328682.8	-19.159	5.661006E-010	0.000679	5
	43	70	49.86702	341639.7	-139384.3	1	368979.2	-22.19479	-2.097968E-011	0.0006675	5
	44	72	39.72458	357822.3	-155784.9	1	390263.7	-23.52684	4.55425E-010	0.0006792	5
	45	73	31.6723	377175.7	-182657.9	1	419076.8	-25.83989	4.95527E-010	0.0006764	5
	46	75	24.93351	400991.9	-201664.2	1	448846.2	-26.69844	2.097904E-010	0.0006793	5
	47	77	19.86229	427957.9	-220313.4	1	481337.7	-27.23948	8.599785E-011	0.0006833	5
	48	78	15.83615	480088.5	-244766.3	1	538883.6	-27.01411	1.87083E-009	0.0006767	5
	49	79	12.40079	487312.5	-282708.1	1	563380.3	-30.11961	4.825872E-010	0.0006732	5
	50	81	9.93114	528483.8	-313701.2	1	614575.9	-30.69283	2.454306E-010	0.0006858	5
	51	82	7.944915	573286.9	-355362.1	1	674492.5	-31.79344	8.761965E-010	0.0006792	6
	52	84	6.317385	611755.5	-377399	1	718800.9	-31.67091	3.955895E-010	0.0006812	6
	53	87	5.008013	661376.6	-417390.3	1	782070.1	-32.25575	1.026145E-009	0.0006797	6
	54	89	3.945707	712227.7	-463021	1	849503.8	-33.02799	2.035268E-010	0.0006795	6
	55	93	3.158693	767509.8	-509197.7	1	921061.1	-33.56194	3.220269E-011	0.0006813	6
	56	96	2.504006	830591.9	-566665.6	1	1005481	-34.30349	3.553439E-010	0.0006747	4
	57	99	1.998082	893409.6	-628688.3	1	1092442	-35.13388	2.482677E-012	0.0007226	4
	58	102	1.584686	967210	-704463.9	1	1196564	-36.06758	2.187325E-010	0.0007078	4
	59	106	1.266892	1042859	-784813.4	1	1305177	-36.96363	-2.032443E-011	0.0007207	4
	60	110	0.999041	1131790	-886375.4	1	1437571	-38.06672	1.836914E-010	0.0006522	4
