EXPLAIN
TAG	EISPOT
TITLE	LABEL	Potentiostatic EIS	Test &Identifier
DATE	LABEL	10/10/2019	Date
TIME	LABEL	8:04:07	Time
NOTES	NOTES	1	&Notes...
	
PSTAT	PSTAT	REF600-11020	Potentiostat
VDC	POTEN	0.00000E+000	T	DC &Voltage (V)
FREQINIT	QUANT	1.00000E+006	Initial Fre&q. (Hz)
FREQFINAL	QUANT	1.00000E+000	Final Fre&q. (Hz)
PTSPERDEC	QUANT	1.00000E+001	Points/&decade
VAC	QUANT	2.50000E+001	AC &Voltage (mV rms)
AREA	QUANT	1.00000E-002	&Area (cm^2)
CONDIT	TWOPARAM	T	5.00000E+000	0.00000E+000	Conditionin&g	Time(s)	E(V)
DELAY	TWOPARAM	T	5.00000E+000	0.00000E+000	Init. De&lay	Time(s)	Stab.(mV/s)
SPEED	SELECTOR	1	&Optimize for:
ZGUESS	QUANT	1.00000E+004	E&stimated Z (ohms)
OCVCURVE	TABLE	19
	Pt	T	Vf	Vm	Ach	Over
	#	s	V vs. Ref.	V	V	bits
	0	0.258333	4.24052E-003	4.24052E-003	5.18533E-004	...........
	1	0.516667	4.23999E-003	4.21296E-003	5.21866E-004	...........
	2	0.775	4.23436E-003	4.06150E-003	5.24700E-004	...........
	3	1.03333	4.20931E-003	3.85458E-003	5.27133E-004	...........
	4	1.29167	4.14578E-003	3.75215E-003	5.23866E-004	...........
	5	1.55	4.04282E-003	3.80753E-003	5.27633E-004	...........
	6	1.80833	3.93004E-003	3.75623E-003	5.31166E-004	...........
	7	2.06667	3.84114E-003	3.67048E-003	5.26966E-004	...........
	8	2.325	3.78014E-003	3.58388E-003	5.28966E-004	...........
	9	2.58333	3.72686E-003	3.50035E-003	5.29166E-004	...........
	10	2.84167	3.66859E-003	3.63352E-003	5.29066E-004	...........
	11	3.1	3.61583E-003	3.54999E-003	5.24133E-004	...........
	12	3.35833	3.58249E-003	3.48559E-003	5.31066E-004	...........
	13	3.61667	3.56098E-003	3.42497E-003	5.25366E-004	...........
	14	3.875	3.53222E-003	3.37405E-003	5.29766E-004	...........
	15	4.13333	3.48859E-003	3.30704E-003	5.28133E-004	...........
	16	4.39167	3.43481E-003	3.27333E-003	5.32033E-004	...........
	17	4.65	3.37678E-003	3.14332E-003	5.35099E-004	...........
	18	4.90833	3.31377E-003	3.04121E-003	5.27166E-004	...........
EOC	QUANT	0.0033138	Open Circuit (V)
PSTATMODEL	IQUANT	4	Pstat Model
PSTATSECTION	LABEL	REF600-11020	Pstat Section
PSTATSERIALNO	LABEL	11020	Pstat Serial Number
CTRLMODE	IQUANT	1	Control Mode
IESTAB	IQUANT	0	I/E Stability
CASPEED	IQUANT	1	Control Amp Speed
CONVENTION	IQUANT	1	Current Convention
ICHRANGE	IQUANT	2	Ich Range
ICHRANGEMODE	TOGGLE	F	Ich Auto Range
ICHOFFSETENABLE	TOGGLE	T	Ich Offset Enable
ICHOFFSET	QUANT	0	Ich Offset (V)
ICHFILTER	IQUANT	3	Ich Filter
VCHRANGE	IQUANT	2	Vch Range
VCHRANGEMODE	TOGGLE	F	Vch Auto Range
VCHOFFSETENABLE	TOGGLE	T	Vch Offset Enable
VCHOFFSET	QUANT	0	Vch Offset (V)
VCHFILTER	IQUANT	3	Vch Filter
ACHRANGE	IQUANT	2	Ach Range
ACHOFFSETENABLE	TOGGLE	F	Ach Offset Enable
ACHOFFSET	QUANT	0	Ach Offset (V)
ACHFILTER	IQUANT	3	Ach Filter
IERANGELOWERLIMIT	IQUANT	1	I/E Range Lower Limit
IERANGEMODE	TOGGLE	F	I/E AutoRange
IERANGE	IQUANT	5	I/E Range
POSFEEDENABLE	TOGGLE	F	Positive Feedback IR Comp
POSFEEDRESISTANCE	QUANT	0	Positive Feedback Resistance (ohm)
ACHSELECT	IQUANT	0	Ach Select
CABLEID	IQUANT	14	Cable ID
DCCALDATE	LABEL	8/19/2019	DC Calibration Date
ACCALDATE	LABEL	8/19/2019	AC Calibration Date
THERMOSELECT	IQUANT	1	Thermo Select
FRAMEWORKVERSION	QUANT	6.33	Framework Version
INSTRUMENTVERSION	LABEL	3.50	Instrument Version
ZCURVE	TABLE
	Pt	Time	Freq	Zreal	Zimag	Zsig	Zmod	Zphz	Idc	Vdc	IERange
	#	s	Hz	ohm	ohm	V	ohm	°	A	V	#
	0	1	1000078	1638.644	-2366.065	1	2878.093	-55.29504	-3.066818E-007	0.0055877	8
	1	3	794390.6	1823.245	-2790.864	1	3333.638	-56.84379	-1.003546E-006	0.0054608	8
	2	4	630984.4	2043.271	-3292.206	1	3874.736	-58.17466	-8.012092E-007	0.0052906	8
	3	6	501234.4	2290.124	-3917.851	1	4538.086	-59.69219	8.933833E-007	0.0047884	8
	4	7	398109.4	2670.432	-4619.559	1	5335.873	-59.96905	1.323468E-006	0.004645	8
	5	9	316265.6	3125.663	-5491.301	1	6318.557	-60.35136	1.099102E-006	0.0045743	8
	6	10	251203.1	3693.977	-6500.958	1	7477.16	-60.39388	8.865611E-007	0.0048584	8
	7	12	199546.9	4468.533	-7660.635	1	8868.659	-59.74452	-2.808534E-006	0.0052819	8
	8	14	158578.1	5532.259	-8919.806	1	10496.13	-58.1919	-1.883868E-007	0.0048422	8
	9	15	125953.1	6863.875	-10426.81	1	12483.23	-56.64345	3.447095E-007	0.0041168	7
	10	17	100078.1	8339.627	-11862.79	1	14500.87	-54.8925	-5.860629E-008	0.0048728	7
	11	18	79453.13	10252.31	-13465.54	1	16924.26	-52.7153	-6.192471E-008	0.0048759	7
	12	20	63140.62	12588.5	-15071.36	1	19637.12	-50.12935	5.578829E-008	0.0047522	7
	13	21	50203.12	15323.58	-16483.35	1	22505.84	-47.08825	-6.255141E-008	0.004875	7
	14	23	39890.62	18447.28	-17637.7	1	25522.36	-43.71477	-4.385816E-008	0.0048346	7
	15	24	31640.63	22053.63	-18388.63	1	28714.19	-39.82183	7.952733E-008	0.0046944	7
	16	26	25171.88	25604.88	-18634.75	1	31668.02	-36.04642	5.849228E-009	0.004949	7
	17	27	20015.62	29364.32	-18346.49	1	34624.51	-31.99667	1.538714E-007	0.0046011	7
	18	29	15890.62	32369.07	-17538.79	1	36815.29	-28.45052	-6.171062E-008	0.0048612	7
	19	30	12609.37	35636.79	-16316.6	1	39194.54	-24.60107	2.784948E-009	0.0046278	6
	20	32	10078.13	38030.11	-15277.51	1	40984.04	-21.88638	2.000409E-008	0.0043949	6
	21	33	8015.625	40329.84	-14264.25	1	42778.09	-19.47816	-1.311348E-008	0.0048612	6
	22	35	6328.125	42090.88	-13153.82	1	44098.36	-17.35455	1.205816E-008	0.0047092	6
	23	36	5015.625	43697.55	-12301.5	1	45396.06	-15.7227	7.383418E-009	0.0045615	6
	24	38	3984.375	45103.83	-11658.09	1	46586.12	-14.49219	-1.538499E-009	0.004722	6
	25	39	3170.956	46395.54	-11134.61	1	47712.95	-13.49536	2.574602E-009	0.0046266	6
	26	41	2527.573	47565.99	-10792.44	1	48774.99	-12.78363	-4.042493E-009	0.0046636	6
	27	42	1976.103	48776.54	-10809.19	1	49959.88	-12.49517	1.930376E-008	0.0043882	6
	28	43	1577.524	49881.96	-10032.87	1	50880.93	-11.3723	-6.459206E-009	0.0049055	6
	29	45	1265.625	50912	-11088.96	1	52105.63	-12.28748	-6.920986E-009	0.0048556	6
	30	46	998.264	51983.33	-11677.12	1	53278.71	-12.66031	-6.792843E-009	0.0049111	6
	31	48	796.875	52995.89	-12299.81	1	54404.5	-13.06644	-1.011436E-008	0.0049003	6
	32	49	627.7902	54107.04	-13411.57	1	55744.43	-13.92138	-1.16393E-008	0.0048558	6
	33	50	505.5147	55368.7	-14809.08	1	57314.93	-14.974	-7.219308E-009	0.0049612	6
	34	52	397.9953	56669.92	-16676.15	1	59072.61	-16.39747	1.05021E-009	0.004761	6
	35	53	315.5048	58130.82	-18946.86	1	61140.62	-18.05259	5.645262E-010	0.0047628	6
	36	55	252.4038	59634.35	-21726.73	1	63468.94	-20.01833	-1.05209E-010	0.0047627	6
	37	56	198.6229	61563.29	-25262.76	1	66545.06	-22.311	6.610047E-011	0.004762	6
	38	57	158.3615	63770.32	-29404.22	1	70222.95	-24.75423	-1.430853E-010	0.004753	6
	39	59	125.558	66383.66	-34355.98	1	74747.06	-27.36323	-6.647843E-011	0.0047507	6
	40	60	100.4464	69400.44	-39877.29	1	80041.36	-29.88155	1.094972E-009	0.0047476	6
	41	61	79.00281	73787.78	-47584.9	1	87800.68	-32.81751	1.065714E-009	0.0047551	6
	42	63	63.3446	76888.04	-56647.69	1	95502.5	-36.38114	-4.523051E-010	0.0047541	5
	43	64	49.86702	83958.64	-63274.91	1	105132.1	-37.00328	-2.684638E-010	0.0047534	5
	44	66	39.72458	90680.83	-75354.37	1	117903.7	-39.72606	3.167315E-010	0.0047591	5
	45	67	31.6723	98347.4	-87808.71	1	131843	-41.75982	8.594812E-011	0.004761	5
	46	69	24.93351	108014.2	-102226.3	1	148718.8	-43.42305	1.307706E-010	0.0047582	5
	47	70	19.86229	119681.4	-118163.6	1	168185.2	-44.63435	3.113947E-010	0.0047598	5
	48	71	15.83615	133465.1	-138740.7	1	192514.7	-46.11031	-1.531993E-009	0.0047591	5
	49	73	12.40079	147415.1	-160209.5	1	217711.5	-47.38162	-3.924719E-010	0.0047603	5
	50	74	9.93114	166349.4	-180383	1	245377.5	-47.31772	1.561645E-011	0.0047672	5
	51	76	7.944915	185388.5	-205591.1	1	276833.2	-47.95794	-1.477388E-010	0.004761	5
	52	78	6.317385	208929.2	-234105.6	1	313778.3	-48.25246	-2.206219E-010	0.0047745	5
	53	80	5.008013	235429.2	-267763.3	1	356544.7	-48.67666	1.374446E-011	0.0047581	5
	54	82	3.945707	264710.3	-306557.4	1	405029.6	-49.18961	4.127831E-010	0.0047719	5
	55	85	3.158693	296395	-349005	1	457880.4	-49.66018	-7.670412E-012	0.0047601	5
	56	88	2.504006	333234.2	-400502.1	1	521005.7	-50.23816	3.584237E-010	0.0047582	5
	57	91	1.998082	372900.3	-458295.5	1	590837.8	-50.86586	2.465837E-010	0.0048043	5
	58	94	1.584686	419259.1	-527837.2	1	674084.8	-51.54002	7.959207E-011	0.0047725	5
	59	98	1.266892	472455.2	-605874.3	1	768308.2	-52.05322	4.050169E-011	0.0048007	5
	60	102	0.999041	535734.4	-702095.6	1	883147.6	-52.65454	4.919255E-011	0.0047187	5
