EXPLAIN
TAG	EISPOT
TITLE	LABEL	Potentiostatic EIS	Test &Identifier
DATE	LABEL	10/12/2019	Date
TIME	LABEL	9:56:45	Time
NOTES	NOTES	1	&Notes...
	
PSTAT	PSTAT	REF600-11020	Potentiostat
VDC	POTEN	0.00000E+000	T	DC &Voltage (V)
FREQINIT	QUANT	1.00000E+006	Initial Fre&q. (Hz)
FREQFINAL	QUANT	1.00000E+000	Final Fre&q. (Hz)
PTSPERDEC	QUANT	1.00000E+001	Points/&decade
VAC	QUANT	2.50000E+001	AC &Voltage (mV rms)
AREA	QUANT	1.00000E-002	&Area (cm^2)
CONDIT	TWOPARAM	T	5.00000E+000	0.00000E+000	Conditionin&g	Time(s)	E(V)
DELAY	TWOPARAM	T	5.00000E+000	0.00000E+000	Init. De&lay	Time(s)	Stab.(mV/s)
SPEED	SELECTOR	1	&Optimize for:
ZGUESS	QUANT	1.00000E+004	E&stimated Z (ohms)
OCVCURVE	TABLE	19
	Pt	T	Vf	Vm	Ach	Over
	#	s	V vs. Ref.	V	V	bits
	0	0.258333	1.28990E-003	1.28990E-003	5.47933E-004	...........
	1	0.516667	1.27736E-003	6.33536E-004	5.48999E-004	...........
	2	0.775	1.20125E-003	5.79730E-005	5.49933E-004	...........
	3	1.03333	9.89565E-004	-4.60304E-004	5.47699E-004	...........
	4	1.29167	6.20084E-004	-9.21548E-004	5.41533E-004	...........
	5	1.55	1.45221E-004	-1.35080E-003	5.44266E-004	...........
	6	1.80833	-3.59160E-004	-1.73949E-003	5.45833E-004	...........
	7	2.06667	-8.41942E-004	-2.09044E-003	5.43266E-004	...........
	8	2.325	-1.28327E-003	-2.41221E-003	5.40766E-004	...........
	9	2.58333	-1.68147E-003	-2.70955E-003	5.34733E-004	...........
	10	2.84167	-2.04158E-003	-2.98784E-003	5.45666E-004	...........
	11	3.1	-2.37006E-003	-3.24825E-003	5.47133E-004	...........
	12	3.35833	-2.67260E-003	-3.48911E-003	5.36033E-004	...........
	13	3.61667	-2.95325E-003	-3.71071E-003	5.44333E-004	...........
	14	3.875	-3.21436E-003	-3.92299E-003	5.42433E-004	...........
	15	4.13333	-3.45772E-003	-4.13071E-003	5.44233E-004	...........
	16	4.39167	-3.68564E-003	-4.31372E-003	5.41366E-004	...........
	17	4.65	-3.90011E-003	-4.48827E-003	5.35933E-004	...........
	18	4.90833	-4.10174E-003	-4.65407E-003	5.41866E-004	...........
EOC	QUANT	-0.0041017	Open Circuit (V)
PSTATMODEL	IQUANT	4	Pstat Model
PSTATSECTION	LABEL	REF600-11020	Pstat Section
PSTATSERIALNO	LABEL	11020	Pstat Serial Number
CTRLMODE	IQUANT	1	Control Mode
IESTAB	IQUANT	0	I/E Stability
CASPEED	IQUANT	1	Control Amp Speed
CONVENTION	IQUANT	1	Current Convention
ICHRANGE	IQUANT	2	Ich Range
ICHRANGEMODE	TOGGLE	F	Ich Auto Range
ICHOFFSETENABLE	TOGGLE	T	Ich Offset Enable
ICHOFFSET	QUANT	0	Ich Offset (V)
ICHFILTER	IQUANT	3	Ich Filter
VCHRANGE	IQUANT	2	Vch Range
VCHRANGEMODE	TOGGLE	F	Vch Auto Range
VCHOFFSETENABLE	TOGGLE	T	Vch Offset Enable
VCHOFFSET	QUANT	0	Vch Offset (V)
VCHFILTER	IQUANT	3	Vch Filter
ACHRANGE	IQUANT	2	Ach Range
ACHOFFSETENABLE	TOGGLE	F	Ach Offset Enable
ACHOFFSET	QUANT	0	Ach Offset (V)
ACHFILTER	IQUANT	3	Ach Filter
IERANGELOWERLIMIT	IQUANT	1	I/E Range Lower Limit
IERANGEMODE	TOGGLE	F	I/E AutoRange
IERANGE	IQUANT	5	I/E Range
POSFEEDENABLE	TOGGLE	F	Positive Feedback IR Comp
POSFEEDRESISTANCE	QUANT	0	Positive Feedback Resistance (ohm)
ACHSELECT	IQUANT	0	Ach Select
CABLEID	IQUANT	14	Cable ID
DCCALDATE	LABEL	8/19/2019	DC Calibration Date
ACCALDATE	LABEL	8/19/2019	AC Calibration Date
THERMOSELECT	IQUANT	1	Thermo Select
FRAMEWORKVERSION	QUANT	6.33	Framework Version
INSTRUMENTVERSION	LABEL	3.50	Instrument Version
ZCURVE	TABLE
	Pt	Time	Freq	Zreal	Zimag	Zsig	Zmod	Zphz	Idc	Vdc	IERange
	#	s	Hz	ohm	ohm	V	ohm	°	A	V	#
	0	2	1000078	2228.665	-1648.007	1	2771.8	-36.48143	3.684971E-007	-0.0020384	8
	1	3	794390.6	2571.427	-1623.508	1	3041.055	-32.26686	-3.933244E-006	-0.0013449	8
	2	4	630984.4	2882.551	-1534.943	1	3265.755	-28.03506	1.519996E-006	-0.002473	8
	3	6	501234.4	3154.508	-1415.131	1	3457.385	-24.16129	2.831165E-007	-0.0022782	8
	4	7	398109.4	3361.317	-1272.652	1	3594.175	-20.73752	1.777419E-006	-0.0028101	8
	5	8	316265.6	3542.943	-1135.595	1	3720.487	-17.77185	-1.009225E-006	-0.0024948	8
	6	10	251203.1	3692.753	-987.247	1	3822.444	-14.96781	3.086614E-006	-0.0030051	8
	7	11	199546.9	3794.379	-887.2112	1	3896.724	-13.1606	7.158175E-007	-0.0024738	8
	8	12	158578.1	3876.164	-803.6775	1	3958.604	-11.71364	-8.185991E-007	-0.0022317	8
	9	14	125953.1	3971.153	-677.5648	1	4028.542	-9.68266	-1.697898E-008	-0.0016498	7
	10	15	100078.1	4016.125	-622.7908	1	4064.127	-8.814794	-1.383706E-008	-0.0024872	7
	11	16	79453.13	4068.422	-601.1022	1	4112.588	-8.404548	-6.826479E-008	-0.0023608	7
	12	18	63140.62	4118.947	-591.0151	1	4161.132	-8.165463	1.441526E-008	-0.0024051	7
	13	19	50203.12	4170.926	-597.4149	1	4213.493	-8.151215	-1.009278E-008	-0.0025094	7
	14	20	39890.62	4225.494	-616.4144	1	4270.218	-8.299754	4.282691E-008	-0.0025431	7
	15	22	31640.63	4282.809	-653.4833	1	4332.377	-8.675443	-6.501276E-008	-0.0023741	7
	16	23	25171.88	4345.973	-701.6726	1	4402.252	-9.17146	-3.586038E-008	-0.0024904	7
	17	24	20015.62	4406.88	-766.7241	1	4473.082	-9.86972	-6.845386E-008	-0.0024024	7
	18	26	15890.62	4492.147	-845.7465	1	4571.069	-10.66239	5.729452E-008	-0.0025914	7
	19	27	12609.37	4580.155	-944.3965	1	4676.506	-11.65071	-1.031628E-008	-0.0024994	7
	20	28	10078.13	4677.938	-1056.681	1	4795.798	-12.72869	1.003832E-007	-0.0025769	7
	21	30	8015.625	4790.686	-1186.846	1	4935.511	-13.91432	-4.090324E-008	-0.0023947	7
	22	31	6328.125	4913.982	-1354.091	1	5097.135	-15.40601	5.843216E-008	-0.0025894	7
	23	33	5015.625	5058.172	-1541.285	1	5287.784	-16.94661	1.020991E-007	-0.0025805	7
	24	34	3984.375	5219.958	-1757.953	1	5508.026	-18.61226	-9.142661E-009	-0.0024604	7
	25	35	3170.956	5401.899	-2002.26	1	5761.039	-20.33766	7.671434E-008	-0.0026546	7
	26	37	2527.573	5602.879	-2287.708	1	6051.931	-22.21065	-7.127615E-008	-0.0022784	7
	27	38	1976.103	5849.394	-2641.937	1	6418.351	-24.30679	-1.094557E-008	-0.0025032	7
	28	39	1577.524	6100.804	-3019.117	1	6806.973	-26.32952	-1.115391E-008	-0.0025018	7
	29	41	1265.625	6399.869	-3453.55	1	7272.229	-28.35255	-1.1007E-008	-0.0025082	7
	30	42	998.264	6740.877	-3995.188	1	7835.876	-30.6544	-4.002344E-008	-0.0024042	7
	31	43	796.875	7100.357	-4570.792	1	8444.359	-32.77105	-3.961277E-008	-0.0023993	7
	32	45	627.7902	7515.625	-5288.139	1	9189.616	-35.13096	4.256699E-008	-0.0026305	7
	33	46	505.5147	7905.167	-6054.177	1	9957.14	-37.44672	-9.05175E-010	-0.0026723	6
	34	47	397.9953	8344.197	-7076.07	1	10940.58	-40.29871	1.440368E-009	-0.0025518	6
	35	49	315.5048	8775.198	-8301.076	1	12079.4	-43.4096	8.917656E-010	-0.0025554	6
	36	50	252.4038	9200.254	-9760.92	1	13413.44	-46.6937	1.020167E-009	-0.002549	6
	37	51	198.6229	9685.47	-11728	1	15210.34	-50.4487	9.424335E-010	-0.0025469	6
	38	53	158.3615	10191.85	-14065.67	1	17369.99	-54.07327	1.372838E-009	-0.0025489	6
	39	54	125.558	10780.91	-17059.19	1	20180.28	-57.70831	5.977591E-010	-0.0025462	6
	40	56	100.4464	11482.2	-20660.21	1	23636.53	-60.93627	8.598114E-010	-0.0025483	6
	41	57	79.00281	12390.3	-25372.73	1	28236.41	-63.97229	3.891897E-010	-0.0025521	6
	42	58	63.3446	13183.94	-30835.61	1	33535.82	-66.8506	2.538612E-010	-0.0025537	6
	43	60	49.86702	15162.24	-38009.29	1	40921.88	-68.2525	1.315871E-009	-0.0025505	6
	44	61	39.72458	16879.48	-46665.86	1	49624.79	-70.11446	1.149832E-009	-0.002546	6
	45	62	31.6723	19349.21	-56918.94	1	60117.87	-71.22488	5.898833E-010	-0.0025517	6
	46	64	24.93351	22636.23	-70257.3	1	73813.87	-72.14156	4.112038E-010	-0.0025492	6
	47	65	19.86229	26740.75	-85520.73	1	89603.93	-72.6365	2.345796E-010	-0.002547	6
	48	67	15.83615	31277.12	-104221.7	1	108813.7	-73.29541	1.969783E-009	-0.0025457	5
	49	68	12.40079	39588.43	-126739.6	1	132778.6	-72.65327	-4.480709E-010	-0.0025431	5
	50	69	9.93114	48871.08	-153486.3	1	161078.9	-72.33817	1.53409E-011	-0.0025409	5
	51	71	7.944915	59635.52	-183720.1	1	193156.6	-72.01658	9.753336E-010	-0.0025458	5
	52	73	6.317385	75178.85	-221345.9	1	233764.6	-71.24024	4.83734E-010	-0.0025404	5
	53	75	5.008013	94024.18	-265720.1	1	281864.7	-70.51384	3.235911E-010	-0.0025372	5
	54	77	3.945707	117961.5	-319393	1	340480.2	-69.72929	7.253417E-011	-0.0025495	5
	55	80	3.158693	145734.9	-377788.4	1	404923.1	-68.90548	2.619018E-010	-0.0025461	5
	56	83	2.504006	180540.2	-448375.3	1	483358.3	-68.06761	8.436188E-011	-0.0025354	5
	57	86	1.998082	220944.1	-526845.1	1	571298.6	-67.24818	2.866982E-010	-0.0025775	5
	58	89	1.584686	270437	-623458.3	1	679585.5	-66.55029	1.488866E-010	-0.0025904	5
	59	93	1.266892	328311.4	-728290.2	1	798871.1	-65.73427	2.500094E-010	-0.0025759	5
	60	97	0.999041	400231.5	-860985.6	1	949463.8	-65.06851	6.354812E-011	-0.0025351	5
