EXPLAIN
TAG	EISPOT
TITLE	LABEL	Potentiostatic EIS	Test &Identifier
DATE	LABEL	9/20/2019	Date
TIME	LABEL	10:57:29	Time
NOTES	NOTES	1	&Notes...
	
PSTAT	PSTAT	REF600-11020	Potentiostat
VDC	POTEN	0.00000E+000	T	DC &Voltage (V)
FREQINIT	QUANT	1.00000E+006	Initial Fre&q. (Hz)
FREQFINAL	QUANT	1.00000E+000	Final Fre&q. (Hz)
PTSPERDEC	QUANT	1.00000E+001	Points/&decade
VAC	QUANT	2.50000E+001	AC &Voltage (mV rms)
AREA	QUANT	1.00000E-002	&Area (cm^2)
CONDIT	TWOPARAM	T	5.00000E+000	0.00000E+000	Conditionin&g	Time(s)	E(V)
DELAY	TWOPARAM	T	5.00000E+000	0.00000E+000	Init. De&lay	Time(s)	Stab.(mV/s)
SPEED	SELECTOR	1	&Optimize for:
ZGUESS	QUANT	1.00000E+004	E&stimated Z (ohms)
OCVCURVE	TABLE	19
	Pt	T	Vf	Vm	Ach	Over
	#	s	V vs. Ref.	V	V	bits
	0	0.258333	7.35546E-003	7.35546E-003	5.43799E-004	...........
	1	0.516667	7.35822E-003	7.49980E-003	5.41433E-004	...........
	2	0.775	7.37520E-003	7.63909E-003	5.25233E-004	...........
	3	1.03333	7.42355E-003	7.78102E-003	5.26033E-004	...........
	4	1.29167	7.51099E-003	7.91469E-003	5.36799E-004	...........
	5	1.55	7.62895E-003	8.04273E-003	5.39499E-004	...........
	6	1.80833	7.76168E-003	8.16778E-003	5.23766E-004	...........
	7	2.06667	7.89687E-003	8.29279E-003	5.24233E-004	...........
	8	2.325	8.02892E-003	8.41617E-003	5.32833E-004	...........
	9	2.58333	8.15719E-003	8.54405E-003	5.37866E-004	...........
	10	2.84167	8.28299E-003	8.66043E-003	5.17000E-004	...........
	11	3.1	8.40723E-003	8.77756E-003	5.32100E-004	...........
	12	3.35833	8.52954E-003	8.88747E-003	5.42566E-004	...........
	13	3.61667	8.64899E-003	8.99943E-003	5.37366E-004	...........
	14	3.875	8.76507E-003	9.10276E-003	5.35899E-004	...........
	15	4.13333	8.87794E-003	9.21730E-003	5.42533E-004	...........
	16	4.39167	8.98823E-003	9.31121E-003	5.50299E-004	...........
	17	4.65	9.09625E-003	9.41468E-003	5.42166E-004	...........
	18	4.90833	9.20181E-003	9.51676E-003	5.34000E-004	...........
EOC	QUANT	0.0092018	Open Circuit (V)
PSTATMODEL	IQUANT	4	Pstat Model
PSTATSECTION	LABEL	REF600-11020	Pstat Section
PSTATSERIALNO	LABEL	11020	Pstat Serial Number
CTRLMODE	IQUANT	1	Control Mode
IESTAB	IQUANT	0	I/E Stability
CASPEED	IQUANT	1	Control Amp Speed
CONVENTION	IQUANT	1	Current Convention
ICHRANGE	IQUANT	2	Ich Range
ICHRANGEMODE	TOGGLE	F	Ich Auto Range
ICHOFFSETENABLE	TOGGLE	T	Ich Offset Enable
ICHOFFSET	QUANT	0	Ich Offset (V)
ICHFILTER	IQUANT	3	Ich Filter
VCHRANGE	IQUANT	2	Vch Range
VCHRANGEMODE	TOGGLE	F	Vch Auto Range
VCHOFFSETENABLE	TOGGLE	T	Vch Offset Enable
VCHOFFSET	QUANT	0	Vch Offset (V)
VCHFILTER	IQUANT	3	Vch Filter
ACHRANGE	IQUANT	2	Ach Range
ACHOFFSETENABLE	TOGGLE	F	Ach Offset Enable
ACHOFFSET	QUANT	0	Ach Offset (V)
ACHFILTER	IQUANT	3	Ach Filter
IERANGELOWERLIMIT	IQUANT	1	I/E Range Lower Limit
IERANGEMODE	TOGGLE	F	I/E AutoRange
IERANGE	IQUANT	6	I/E Range
POSFEEDENABLE	TOGGLE	F	Positive Feedback IR Comp
POSFEEDRESISTANCE	QUANT	0	Positive Feedback Resistance (ohm)
ACHSELECT	IQUANT	0	Ach Select
CABLEID	IQUANT	14	Cable ID
DCCALDATE	LABEL	8/19/2019	DC Calibration Date
ACCALDATE	LABEL	8/19/2019	AC Calibration Date
THERMOSELECT	IQUANT	1	Thermo Select
FRAMEWORKVERSION	QUANT	6.33	Framework Version
INSTRUMENTVERSION	LABEL	3.50	Instrument Version
ZCURVE	TABLE
	Pt	Time	Freq	Zreal	Zimag	Zsig	Zmod	Zphz	Idc	Vdc	IERange
	#	s	Hz	ohm	ohm	V	ohm	°	A	V	#
	0	2	1000078	2323.449	-1695.815	1	2876.491	-36.12457	6.026475E-006	0.0109083	8
	1	3	794390.6	2664.49	-1651.577	1	3134.839	-31.79258	-2.802838E-007	0.0107643	8
	2	5	630984.4	2968.565	-1553.71	1	3350.581	-27.62701	-6.123394E-007	0.0113679	8
	3	6	501234.4	3237.024	-1383.189	1	3520.162	-23.13715	-6.393118E-007	0.0113158	8
	4	7	398109.4	3469.521	-1251.204	1	3688.237	-19.83069	-1.049982E-007	0.0108536	8
	5	9	316265.6	3640.922	-1106.795	1	3805.431	-16.90863	-3.336671E-006	0.0115971	8
	6	10	251203.1	3779.865	-973.222	1	3903.145	-14.43864	3.060063E-006	0.0102905	8
	7	11	199546.9	3883.698	-825.6323	1	3970.488	-12.00179	-3.187639E-007	0.0110147	8
	8	13	158578.1	3970.964	-719.7486	1	4035.665	-10.27349	-4.2587E-006	0.0118794	8
	9	14	125953.1	4045.216	-578.5489	1	4086.379	-8.139276	-2.27749E-007	0.011561	7
	10	16	100078.1	4084.545	-512.389	1	4116.558	-7.150164	-4.811671E-008	0.0109401	7
	11	17	79453.13	4124.162	-469.121	1	4150.757	-6.489469	-4.262223E-008	0.0108609	7
	12	18	63140.62	4160.815	-439.8922	1	4184.003	-6.03504	-4.786513E-008	0.010931	7
	13	20	50203.12	4194.357	-421.7273	1	4215.506	-5.741585	-1.321353E-008	0.0108772	7
	14	21	39890.62	4225.184	-415.2582	1	4245.541	-5.6131	6.662862E-008	0.0107135	7
	15	23	31640.63	4260.867	-420.496	1	4281.565	-5.636151	-9.120798E-009	0.0107849	7
	16	24	25171.88	4297.179	-437.2507	1	4319.367	-5.810019	-1.342291E-008	0.0108731	7
	17	25	20015.62	4333.597	-463.4733	1	4358.31	-6.104516	-1.109605E-008	0.0107778	7
	18	27	15890.62	4375.55	-502.55	1	4404.316	-6.551948	-7.426248E-008	0.0109396	7
	19	28	12609.37	4419.79	-550.8334	1	4453.982	-7.104077	8.034766E-008	0.0106582	7
	20	29	10078.13	4465.942	-612.0225	1	4507.683	-7.803332	1.40824E-008	0.0107443	7
	21	31	8015.625	4517.461	-686.3875	1	4569.309	-8.639498	3.656045E-008	0.0107775	7
	22	32	6328.125	4572.772	-783.939	1	4639.483	-9.72801	8.009919E-008	0.0106497	7
	23	33	5015.625	4631.297	-902.2222	1	4718.359	-11.02371	-1.446838E-008	0.0109566	7
	24	35	3984.375	4695.552	-1046.576	1	4810.772	-12.56508	-4.036567E-008	0.0108413	7
	25	36	3170.956	4763.313	-1222.764	1	4917.754	-14.39722	-1.624206E-008	0.0109491	7
	26	37	2527.573	4839.807	-1435.085	1	5048.089	-16.51599	6.883828E-008	0.010702	7
	27	39	1976.103	4932.633	-1724.028	1	5225.241	-19.26528	-1.19993E-008	0.0108651	7
	28	40	1577.524	5027.437	-2043.585	1	5426.911	-22.12108	-9.398953E-009	0.0107748	7
	29	42	1265.625	5132.369	-2435.811	1	5681.055	-25.38891	-4.495535E-008	0.0109129	7
	30	43	998.264	5273.805	-2935.321	1	6035.654	-29.09966	1.438137E-008	0.0107446	7
	31	44	796.875	5420.445	-3520.524	1	6463.383	-33.00331	4.016106E-008	0.0106842	7
	32	46	627.7902	5602.323	-4283.6	1	7052.322	-37.40194	-3.190168E-008	0.0108346	7
	33	47	505.5147	5792.195	-5123.593	1	7733.093	-41.49496	-1.776353E-008	0.0108011	7
	34	48	397.9953	6048.078	-6269.586	1	8711.312	-46.03024	5.433222E-009	0.0108407	7
	35	50	315.5048	6333.741	-7635.382	1	9920.45	-50.32344	4.683534E-009	0.0108424	7
	36	51	252.4038	6660.125	-9244.376	1	11393.67	-54.22908	6.18704E-010	0.0107772	6
	37	52	198.6229	7077.442	-11377.97	1	13399.57	-58.11714	1.222635E-011	0.0107804	6
	38	54	158.3615	7554.492	-13872.28	1	15795.9	-61.42841	7.915222E-010	0.0107755	6
	39	55	125.558	8168.449	-17021.3	1	18879.84	-64.36385	-1.728206E-010	0.0107754	6
	40	57	100.4464	8925.559	-20739.73	1	22578.79	-66.71487	2.362976E-010	0.0107739	6
	41	58	79.00281	9886.62	-25697.96	1	27534.16	-68.95706	-3.999756E-010	0.0107737	6
	42	59	63.3446	10937.82	-31407.44	1	33257.53	-70.79903	1.997883E-010	0.0107767	6
	43	61	49.86702	12857.82	-38460.29	1	40552.65	-71.51449	-6.308588E-010	0.0107684	6
	44	62	39.72458	15138.41	-47258	1	49623.48	-72.2379	-2.49758E-010	0.0107727	6
	45	63	31.6723	18028.16	-57525.34	1	60284.15	-72.59927	6.124631E-011	0.0107746	6
	46	65	24.93351	22067.11	-70866.43	1	74222.7	-72.70393	-2.025774E-011	0.0107715	6
	47	66	19.86229	27245.45	-86081.45	1	90290.25	-72.43701	3.085745E-010	0.0107751	6
	48	68	15.83615	33515.12	-104339	1	109589.6	-72.19226	1.389253E-009	0.0107717	5
	49	69	12.40079	43485.27	-127027.9	1	134264.9	-71.10246	-3.838751E-010	0.0107739	5
	50	70	9.93114	55478.76	-151898.6	1	161712.9	-69.93601	-3.174175E-010	0.0107769	5
	51	72	7.944915	70649.9	-180461.8	1	193798.5	-68.6199	-5.344721E-010	0.0107798	5
	52	74	6.317385	89950.76	-214056.7	1	232188.3	-67.20692	-1.005161E-009	0.010787	5
	53	76	5.008013	115644.3	-252920	1	278104.6	-65.42838	-7.232889E-010	0.0107704	5
	54	78	3.945707	148578.6	-296872.4	1	331977.2	-63.41296	-2.344373E-010	0.0107748	5
	55	81	3.158693	186797.9	-341715.3	1	389439.1	-61.33688	-6.80372E-010	0.0107781	5
	56	84	2.504006	234386.9	-391136.9	1	455988.3	-59.06805	-4.754397E-010	0.0107664	5
	57	87	1.998082	287447.5	-441669.9	1	526970.9	-56.94313	-9.852452E-010	0.0107981	5
	58	90	1.584686	351273.5	-495561.3	1	607432.4	-54.66947	-5.194145E-010	0.0108237	5
	59	94	1.266892	417413.5	-549143.1	1	689776.9	-52.76088	-1.059746E-009	0.0107965	5
	60	98	0.999041	495036	-609201.8	1	784976.1	-50.90277	-3.780927E-010	0.010788	5
