EXPLAIN
TAG	EISPOT
TITLE	LABEL	Potentiostatic EIS	Test &Identifier
DATE	LABEL	10/14/2019	Date
TIME	LABEL	9:37:16	Time
NOTES	NOTES	1	&Notes...
	
PSTAT	PSTAT	REF600-11020	Potentiostat
VDC	POTEN	0.00000E+000	T	DC &Voltage (V)
FREQINIT	QUANT	1.00000E+006	Initial Fre&q. (Hz)
FREQFINAL	QUANT	1.00000E+000	Final Fre&q. (Hz)
PTSPERDEC	QUANT	1.00000E+001	Points/&decade
VAC	QUANT	2.50000E+001	AC &Voltage (mV rms)
AREA	QUANT	1.00000E-002	&Area (cm^2)
CONDIT	TWOPARAM	T	5.00000E+000	0.00000E+000	Conditionin&g	Time(s)	E(V)
DELAY	TWOPARAM	T	5.00000E+000	0.00000E+000	Init. De&lay	Time(s)	Stab.(mV/s)
SPEED	SELECTOR	1	&Optimize for:
ZGUESS	QUANT	1.00000E+004	E&stimated Z (ohms)
OCVCURVE	TABLE	19
	Pt	T	Vf	Vm	Ach	Over
	#	s	V vs. Ref.	V	V	bits
	0	0.258333	6.10204E-003	6.10204E-003	5.46899E-004	...........
	1	0.516667	6.10218E-003	6.10935E-003	5.49699E-004	...........
	2	0.775	6.10333E-003	6.13183E-003	5.44166E-004	...........
	3	1.03333	6.10772E-003	6.16013E-003	5.45566E-004	...........
	4	1.29167	6.11815E-003	6.19357E-003	5.50733E-004	...........
	5	1.55	6.13637E-003	6.23464E-003	5.46333E-004	...........
	6	1.80833	6.16236E-003	6.27466E-003	5.45966E-004	...........
	7	2.06667	6.19485E-003	6.31597E-003	5.47299E-004	...........
	8	2.325	6.23209E-003	6.36587E-003	5.39066E-004	...........
	9	2.58333	6.27270E-003	6.40968E-003	5.46066E-004	...........
	10	2.84167	6.31568E-003	6.44686E-003	5.43733E-004	...........
	11	3.1	6.35965E-003	6.49382E-003	5.45933E-004	...........
	12	3.35833	6.40337E-003	6.53776E-003	5.45766E-004	...........
	13	3.61667	6.44677E-003	6.58252E-003	5.42799E-004	...........
	14	3.875	6.49037E-003	6.62455E-003	5.45899E-004	...........
	15	4.13333	6.53425E-003	6.66996E-003	5.51566E-004	...........
	16	4.39167	6.57814E-003	6.71093E-003	5.40533E-004	...........
	17	4.65	6.62186E-003	6.75586E-003	5.46466E-004	...........
	18	4.90833	6.66531E-003	6.79703E-003	5.48199E-004	...........
EOC	QUANT	0.0066653	Open Circuit (V)
PSTATMODEL	IQUANT	4	Pstat Model
PSTATSECTION	LABEL	REF600-11020	Pstat Section
PSTATSERIALNO	LABEL	11020	Pstat Serial Number
CTRLMODE	IQUANT	1	Control Mode
IESTAB	IQUANT	0	I/E Stability
CASPEED	IQUANT	1	Control Amp Speed
CONVENTION	IQUANT	1	Current Convention
ICHRANGE	IQUANT	2	Ich Range
ICHRANGEMODE	TOGGLE	F	Ich Auto Range
ICHOFFSETENABLE	TOGGLE	T	Ich Offset Enable
ICHOFFSET	QUANT	0	Ich Offset (V)
ICHFILTER	IQUANT	3	Ich Filter
VCHRANGE	IQUANT	2	Vch Range
VCHRANGEMODE	TOGGLE	F	Vch Auto Range
VCHOFFSETENABLE	TOGGLE	T	Vch Offset Enable
VCHOFFSET	QUANT	0	Vch Offset (V)
VCHFILTER	IQUANT	3	Vch Filter
ACHRANGE	IQUANT	2	Ach Range
ACHOFFSETENABLE	TOGGLE	F	Ach Offset Enable
ACHOFFSET	QUANT	0	Ach Offset (V)
ACHFILTER	IQUANT	3	Ach Filter
IERANGELOWERLIMIT	IQUANT	1	I/E Range Lower Limit
IERANGEMODE	TOGGLE	F	I/E AutoRange
IERANGE	IQUANT	6	I/E Range
POSFEEDENABLE	TOGGLE	F	Positive Feedback IR Comp
POSFEEDRESISTANCE	QUANT	0	Positive Feedback Resistance (ohm)
ACHSELECT	IQUANT	0	Ach Select
CABLEID	IQUANT	14	Cable ID
DCCALDATE	LABEL	8/19/2019	DC Calibration Date
ACCALDATE	LABEL	8/19/2019	AC Calibration Date
THERMOSELECT	IQUANT	1	Thermo Select
FRAMEWORKVERSION	QUANT	6.33	Framework Version
INSTRUMENTVERSION	LABEL	3.50	Instrument Version
ZCURVE	TABLE
	Pt	Time	Freq	Zreal	Zimag	Zsig	Zmod	Zphz	Idc	Vdc	IERange
	#	s	Hz	ohm	ohm	V	ohm	°	A	V	#
	0	2	1000078	2122.927	-1478.885	1	2587.261	-34.86204	-2.016748E-006	0.009976	8
	1	3	794390.6	2419.556	-1430.903	1	2811.003	-30.59968	-4.799759E-007	0.0090948	8
	2	4	630984.4	2695.116	-1362.448	1	3019.92	-26.81772	1.435776E-006	0.0082378	8
	3	6	501234.4	2919.135	-1242.969	1	3172.746	-23.06433	6.391032E-007	0.0081935	8
	4	7	398109.4	3115.9	-1120.719	1	3311.321	-19.78251	-4.705823E-007	0.0085435	8
	5	8	316265.6	3284.461	-1006.922	1	3435.343	-17.04404	-5.396392E-007	0.008544	8
	6	10	251203.1	3393.739	-891.9838	1	3509.003	-14.72611	4.086908E-006	0.0076504	8
	7	11	199546.9	3503.095	-774.0807	1	3587.6	-12.46045	3.79452E-006	0.0076002	8
	8	13	158578.1	3588.896	-687.0123	1	3654.061	-10.83687	7.308411E-007	0.0081198	8
	9	14	125953.1	3682.238	-576.7012	1	3727.125	-8.901187	4.952939E-007	0.0069838	7
	10	16	100078.1	3717.427	-512.2567	1	3752.555	-7.845874	7.721911E-008	0.0082755	7
	11	17	79453.13	3764.238	-475.68	1	3794.174	-7.202189	-5.013577E-008	0.0084657	7
	12	18	63140.62	3807.839	-448.282	1	3834.136	-6.714303	3.821066E-008	0.008181	7
	13	20	50203.12	3848.491	-430.2094	1	3872.462	-6.378416	-4.474752E-008	0.0084017	7
	14	21	39890.62	3887.157	-422.994	1	3910.104	-6.210396	-4.178776E-008	0.0083353	7
	15	22	31640.63	3926.684	-423.9303	1	3949.501	-6.161867	-1.5331E-008	0.008282	7
	16	24	25171.88	3965.048	-435.5426	1	3988.897	-6.268551	-4.973725E-008	0.0084581	7
	17	25	20015.62	4001.447	-440.5137	1	4025.622	-6.282313	-1.54107E-008	0.0082837	7
	18	26	15890.62	4045.524	-486.9041	1	4074.719	-6.862895	-4.440214E-008	0.0083946	7
	19	28	12609.37	4086.994	-531.0433	1	4121.35	-7.403245	7.914595E-008	0.008259	7
	20	29	10078.13	4129.762	-586.1174	1	4171.147	-8.077767	1.289527E-007	0.0081044	7
	21	31	8015.625	4161.753	-676.0999	1	4216.313	-9.227405	6.221862E-008	0.0081971	7
	22	32	6328.125	4224.192	-751.7751	1	4290.567	-10.09122	-3.886546E-008	0.0083298	7
	23	33	5015.625	4274.709	-868.8323	1	4362.111	-11.48884	-1.768446E-008	0.0082765	7
	24	35	3984.375	4339.234	-1017.536	1	4456.942	-13.19722	-4.045944E-008	0.0083239	7
	25	36	3170.956	4390.152	-1192.813	1	4549.312	-15.20043	7.471565E-008	0.008136	7
	26	37	2527.573	4457.156	-1412.269	1	4675.548	-17.58103	-4.659261E-009	0.0083413	7
	27	39	1976.103	4538.908	-1706.433	1	4849.082	-20.60409	3.565407E-008	0.0082605	7
	28	40	1577.524	4643.265	-2087.292	1	5090.844	-24.2054	-4.690249E-008	0.0083895	7
	29	42	1265.625	4731.196	-2432.071	1	5319.698	-27.20543	-3.983121E-008	0.0083284	7
	30	43	998.264	4856.216	-2951.076	1	5682.577	-31.28665	-5.939107E-009	0.0083409	7
	31	44	796.875	4991.643	-3557.599	1	6129.683	-35.47789	1.336877E-007	0.008102	7
	32	46	627.7902	5155.281	-4336.504	1	6736.631	-40.06978	-4.139358E-008	0.0083248	7
	33	47	505.5147	5329.843	-5220.975	1	7460.952	-44.40882	-3.62656E-008	0.008324	7
	34	48	397.9953	5550.244	-6417.342	1	8484.544	-49.14406	3.653827E-009	0.0083098	7
	35	50	315.5048	5807.41	-7862.863	1	9775	-53.5509	3.245832E-009	0.0083064	7
	36	51	252.4038	6113.354	-9573.62	1	11359.02	-57.43924	7.452914E-010	0.0082455	6
	37	52	198.6229	6518.127	-11853.03	1	13527.02	-61.19307	6.414184E-010	0.0082432	6
	38	54	158.3615	7002.648	-14518.06	1	16118.66	-64.25011	1.021682E-009	0.0082431	6
	39	55	125.558	7654.056	-17880.13	1	19449.52	-66.82539	8.788762E-010	0.0082483	6
	40	57	100.4464	8440.872	-21843.89	1	23418.03	-68.87257	1.32304E-009	0.0082416	6
	41	58	79.00281	9651.17	-27078.07	1	28746.6	-70.3829	-1.19019E-011	0.0082397	6
	42	59	63.3446	10854.25	-33198.09	1	34927.47	-71.89463	-1.483745E-010	0.0082407	6
	43	61	49.86702	12974.58	-40477.59	1	42506.18	-72.22741	-5.574142E-010	0.0082396	6
	44	62	39.72458	15556.43	-49612.95	1	51994.69	-72.59087	8.036972E-010	0.0082443	6
	45	64	31.6723	18923.3	-60572.02	1	63459.13	-72.65067	1.119639E-009	0.0082372	6
	46	65	24.93351	23564.84	-74004.49	1	77665.73	-72.33726	6.123527E-010	0.0082353	6
	47	66	19.86229	29497.18	-89437.12	1	94175.8	-71.74697	6.790111E-010	0.0082426	6
	48	68	15.83615	37414.45	-107430.5	1	113759.2	-70.79849	2.576079E-010	0.0082467	5
	49	69	12.40079	48929.7	-131416.4	1	140229.8	-69.57841	-1.282453E-009	0.0082507	5
	50	70	9.93114	61051.78	-154963.8	1	166556.6	-68.49683	4.451106E-010	0.0082487	5
	51	72	7.944915	78415.98	-182786.5	1	198896.9	-66.78051	3.783119E-010	0.0082583	5
	52	74	6.317385	98847.4	-214622.5	1	236291.4	-65.2709	-3.558556E-010	0.0082549	5
	53	76	5.008013	125870.3	-250345.4	1	280207.4	-63.30736	-2.414825E-010	0.0082476	5
	54	78	3.945707	159005.7	-289976	1	330709.6	-61.26225	2.107289E-010	0.0082578	5
	55	81	3.158693	195480.3	-329713.7	1	383306.3	-59.33719	-1.375265E-010	0.0082374	5
	56	84	2.504006	238372.7	-373731.7	1	443279.8	-57.46955	1.956818E-010	0.008256	5
	57	87	1.998082	284164.3	-419123.3	1	506373.1	-55.86285	4.110361E-010	0.0082356	5
	58	90	1.584686	337444.2	-470067.4	1	578646.6	-54.32681	-4.138636E-011	0.0081958	5
	59	94	1.266892	389357.8	-523694.3	1	652575.9	-53.36982	2.822784E-010	0.0082277	5
	60	98	0.999041	450233.8	-590389.5	1	742475.7	-52.67069	-3.088228E-010	0.0082467	5
