EXPLAIN
TAG	EISPOT
TITLE	LABEL	Potentiostatic EIS	Test &Identifier
DATE	LABEL	11/11/2019	Date
TIME	LABEL	12:04:35	Time
NOTES	NOTES	3	&Notes...
	
	
	
PSTAT	PSTAT	REF600-11020	Potentiostat
VDC	POTEN	0.00000E+000	T	DC &Voltage (V)
FREQINIT	QUANT	1.00000E+006	Initial Fre&q. (Hz)
FREQFINAL	QUANT	1.00000E+000	Final Fre&q. (Hz)
PTSPERDEC	QUANT	1.00000E+001	Points/&decade
VAC	QUANT	2.50000E+001	AC &Voltage (mV rms)
AREA	QUANT	1.00000E-002	&Area (cm^2)
CONDIT	TWOPARAM	T	5.00000E+000	0.00000E+000	Conditionin&g	Time(s)	E(V)
DELAY	TWOPARAM	T	5.00000E+000	0.00000E+000	Init. De&lay	Time(s)	Stab.(mV/s)
SPEED	SELECTOR	1	&Optimize for:
ZGUESS	QUANT	1.00000E+005	E&stimated Z (ohms)
OCVCURVE	TABLE	19
	Pt	T	Vf	Vm	Ach	Over
	#	s	V vs. Ref.	V	V	bits
	0	0.258333	6.28776E-003	6.28776E-003	6.30698E-004	...........
	1	0.516667	6.28678E-003	6.23683E-003	6.31331E-004	...........
	2	0.775	6.27668E-003	5.97241E-003	6.25665E-004	...........
	3	1.03333	6.24165E-003	6.09960E-003	6.33531E-004	...........
	4	1.29167	6.18160E-003	6.08732E-003	6.30698E-004	...........
	5	1.55	6.12342E-003	6.07991E-003	6.34665E-004	...........
	6	1.80833	6.09143E-003	6.15495E-003	6.45165E-004	...........
	7	2.06667	6.08810E-003	6.17074E-003	6.33498E-004	...........
	8	2.325	6.10521E-003	6.17967E-003	6.39365E-004	...........
	9	2.58333	6.13088E-003	6.14808E-003	6.40865E-004	...........
	10	2.84167	6.15184E-003	6.15677E-003	6.38065E-004	...........
	11	3.1	6.16269E-003	6.23460E-003	6.33365E-004	...........
	12	3.35833	6.17110E-003	6.25040E-003	6.36965E-004	...........
	13	3.61667	6.18784E-003	6.27374E-003	6.30698E-004	...........
	14	3.875	6.21361E-003	6.28152E-003	6.36298E-004	...........
	15	4.13333	6.24019E-003	6.25847E-003	6.39698E-004	...........
	16	4.39167	6.25971E-003	6.29354E-003	6.35665E-004	...........
	17	4.65	6.27120E-003	6.30952E-003	6.40698E-004	...........
	18	4.90833	6.28042E-003	6.33551E-003	6.40198E-004	...........
EOC	QUANT	0.0062804	Open Circuit (V)
PSTATMODEL	IQUANT	4	Pstat Model
PSTATSECTION	LABEL	REF600-11020	Pstat Section
PSTATSERIALNO	LABEL	11020	Pstat Serial Number
CTRLMODE	IQUANT	1	Control Mode
IESTAB	IQUANT	0	I/E Stability
CASPEED	IQUANT	1	Control Amp Speed
CONVENTION	IQUANT	1	Current Convention
ICHRANGE	IQUANT	2	Ich Range
ICHRANGEMODE	TOGGLE	F	Ich Auto Range
ICHOFFSETENABLE	TOGGLE	T	Ich Offset Enable
ICHOFFSET	QUANT	0	Ich Offset (V)
ICHFILTER	IQUANT	3	Ich Filter
VCHRANGE	IQUANT	2	Vch Range
VCHRANGEMODE	TOGGLE	F	Vch Auto Range
VCHOFFSETENABLE	TOGGLE	T	Vch Offset Enable
VCHOFFSET	QUANT	0	Vch Offset (V)
VCHFILTER	IQUANT	3	Vch Filter
ACHRANGE	IQUANT	2	Ach Range
ACHOFFSETENABLE	TOGGLE	F	Ach Offset Enable
ACHOFFSET	QUANT	0	Ach Offset (V)
ACHFILTER	IQUANT	3	Ach Filter
IERANGELOWERLIMIT	IQUANT	1	I/E Range Lower Limit
IERANGEMODE	TOGGLE	F	I/E AutoRange
IERANGE	IQUANT	5	I/E Range
POSFEEDENABLE	TOGGLE	F	Positive Feedback IR Comp
POSFEEDRESISTANCE	QUANT	0	Positive Feedback Resistance (ohm)
ACHSELECT	IQUANT	0	Ach Select
CABLEID	IQUANT	14	Cable ID
DCCALDATE	LABEL	8/19/2019	DC Calibration Date
ACCALDATE	LABEL	8/19/2019	AC Calibration Date
THERMOSELECT	IQUANT	1	Thermo Select
FRAMEWORKVERSION	QUANT	6.33	Framework Version
INSTRUMENTVERSION	LABEL	3.50	Instrument Version
ZCURVE	TABLE
	Pt	Time	Freq	Zreal	Zimag	Zsig	Zmod	Zphz	Idc	Vdc	IERange
	#	s	Hz	ohm	ohm	V	ohm	°	A	V	#
	0	1	1000078	2347.199	-1498.895	1	2784.965	-32.56184	1.144718E-005	0.0073825	8
	1	3	794390.6	2639.45	-1440.834	1	3007.108	-28.62943	-5.755032E-006	0.0086423	8
	2	4	630984.4	2906.807	-1335.56	1	3198.945	-24.67686	8.005986E-006	0.0067375	8
	3	5	501234.4	3120.189	-1204.155	1	3344.483	-21.10279	1.102389E-006	0.0073837	8
	4	7	398109.4	3315.429	-1078.158	1	3486.329	-18.01422	5.884404E-006	0.0067382	8
	5	8	316265.6	3453.858	-948.9058	1	3581.838	-15.36229	-5.29652E-007	0.0075468	8
	6	9	251203.1	3569.462	-818.9892	1	3662.213	-12.92247	6.659196E-006	0.0070979	8
	7	11	199546.9	3655.633	-707.1998	1	3723.411	-10.94889	-9.531489E-007	0.0082417	8
	8	12	158578.1	3722.569	-620.7939	1	3773.977	-9.467799	1.809317E-006	0.0080936	8
	9	13	125953.1	3821.032	-489.6246	1	3852.275	-7.302051	2.539444E-006	0.0023658	7
	10	15	100078.1	3837.719	-433.7148	1	3862.149	-6.44785	-1.171542E-006	0.0088343	7
	11	16	79453.13	3876.095	-400.5252	1	3896.734	-5.899557	-2.904529E-007	0.0069626	7
	12	17	63140.62	3905.545	-378.3231	1	3923.826	-5.532876	-1.176052E-006	0.0091783	7
	13	19	50203.12	3941.634	-367.9337	1	3958.769	-5.332849	7.996395E-007	0.0075666	7
	14	20	39890.62	3973.017	-361.5313	1	3989.432	-5.199405	9.427511E-007	0.006154	7
	15	21	31640.63	4003.465	-368.4138	1	4020.38	-5.257764	7.500843E-007	0.0060694	7
	16	23	25171.88	4036.322	-381.874	1	4054.346	-5.404632	7.504046E-007	0.006068	7
	17	24	20015.62	4072.939	-413.4841	1	4093.874	-5.796798	1.044216E-006	0.0063677	7
	18	26	15890.62	4098.679	-434.7689	1	4121.673	-6.055028	-8.605165E-007	0.0093793	7
	19	27	12609.37	4136.256	-479.5412	1	4163.961	-6.613123	-5.94624E-007	0.0092995	7
	20	28	10078.13	4172.501	-533.2812	1	4206.442	-7.283403	-1.174814E-006	0.009157	7
	21	30	8015.625	4213.641	-604.8487	1	4256.831	-8.168744	-1.176341E-006	0.009155	7
	22	31	6328.125	4262.674	-690.4462	1	4318.23	-9.200572	1.164354E-007	0.006448	7
	23	32	5015.625	4309.265	-800.067	1	4382.906	-10.51789	-2.907092E-007	0.0069467	7
	24	34	3984.375	4363.851	-933.8692	1	4462.657	-12.07917	7.9983E-007	0.0075558	7
	25	35	3170.956	4421.263	-1099.652	1	4555.963	-13.96714	9.444498E-007	0.0061497	7
	26	36	2527.573	4482.527	-1300.34	1	4667.326	-16.17695	4.706477E-007	0.0061602	7
	27	38	1976.103	4555.604	-1569.332	1	4818.333	-19.00801	-1.00174E-006	0.0082522	7
	28	39	1577.524	4650.719	-1848.592	1	5004.646	-21.67709	9.426558E-007	0.0061448	7
	29	40	1265.625	4736.19	-2236.021	1	5237.488	-25.27265	-2.900013E-007	0.0069438	7
	30	42	998.264	4858.275	-2714.175	1	5565.032	-29.1908	7.506137E-007	0.0060627	7
	31	43	796.875	4988.222	-3257.332	1	5957.564	-33.14473	-1.176024E-006	0.0091565	7
	32	44	627.7902	5147.875	-3973.826	1	6503.223	-37.66581	-2.898806E-007	0.0069433	7
	33	46	505.5147	5312.079	-4774.242	1	7142.238	-41.94769	9.763495E-007	0.0070787	7
	34	48	397.9953	5530.773	-5845.65	1	8047.427	-46.58543	6.738444E-009	0.0077936	7
	35	49	315.5048	5774.96	-7140.273	1	9183.336	-51.03452	1.711248E-009	0.0077926	7
	36	50	252.4038	6058.347	-8672.201	1	10578.78	-55.06208	5.72399E-010	0.0077259	6
	37	52	198.6229	6426.39	-10709.08	1	12489.31	-59.03253	1.329361E-009	0.0077232	6
	38	53	158.3615	6859.959	-13094.92	1	14782.96	-62.35157	1.623553E-009	0.0077239	6
	39	54	125.558	7417.455	-16104.69	1	17730.75	-65.27027	8.906795E-010	0.0077244	6
	40	56	100.4464	8122.685	-19655.74	1	21267.96	-67.54726	1.178831E-009	0.0077187	6
	41	57	79.00281	9029.199	-24367.18	1	25986.27	-69.66794	1.403912E-009	0.0077145	6
	42	58	63.3446	10000.13	-29687.55	1	31326.56	-71.38411	4.551347E-010	0.0077207	6
	43	60	49.86702	11982.08	-36606.16	1	38517.29	-71.87547	3.735639E-010	0.0077249	6
	44	61	39.72458	14061.13	-44965.36	1	47112.62	-72.635	6.128522E-010	0.0077322	6
	45	63	31.6723	16946.45	-54756.91	1	57319.3	-72.80348	1.0962E-009	0.0077224	6
	46	64	24.93351	20862.1	-67418.41	1	70572.45	-72.80573	1.273989E-009	0.0077207	6
	47	65	19.86229	25850.32	-81729.68	1	85720.36	-72.44833	1.699727E-009	0.0077258	6
	48	67	15.83615	32299.28	-99276.5	1	104398.6	-71.97788	1.74321E-009	0.0077147	6
	49	68	12.40079	43137.5	-119976.3	1	127495.7	-70.22394	1.936132E-009	0.007726	5
	50	69	9.93114	53881.09	-142384.2	1	152238.1	-69.27233	1.226652E-009	0.0077269	5
	51	71	7.944915	68062.65	-168510.7	1	181737.1	-68.00587	1.168023E-010	0.0077204	5
	52	73	6.317385	86645.91	-198397.9	1	216493.1	-66.40776	-8.534399E-011	0.0077311	5
	53	75	5.008013	109576.7	-231854.5	1	256444.1	-64.70412	2.647259E-010	0.0077278	5
	54	77	3.945707	137435	-270267.4	1	303204.3	-63.04599	7.510194E-011	0.0077252	5
	55	80	3.158693	168149.8	-309551.3	1	352273.1	-61.48898	3.562967E-010	0.0077477	5
	56	83	2.504006	201539	-354740.2	1	407993.3	-60.39774	-3.07937E-011	0.0077211	5
	57	86	1.998082	240743.9	-405182.5	1	471307.2	-59.28284	-1.01798E-010	0.0077101	5
	58	89	1.584686	284457.1	-461434.7	1	542068.1	-58.34773	8.931507E-011	0.0077702	5
	59	93	1.266892	329106.3	-526761.8	1	621119.1	-58.00399	-8.623195E-011	0.007712	5
	60	97	0.999041	382928.4	-606579.9	1	717337.7	-57.73615	2.72945E-010	0.0077613	5
