EXPLAIN
TAG	EISPOT
TITLE	LABEL	Potentiostatic EIS	Test &Identifier
DATE	LABEL	10/6/2019	Date
TIME	LABEL	9:48:24	Time
NOTES	NOTES	2	&Notes...
	
	
PSTAT	PSTAT	REF600-11020	Potentiostat
VDC	POTEN	0.00000E+000	T	DC &Voltage (V)
FREQINIT	QUANT	1.00000E+006	Initial Fre&q. (Hz)
FREQFINAL	QUANT	1.00000E+000	Final Fre&q. (Hz)
PTSPERDEC	QUANT	1.00000E+001	Points/&decade
VAC	QUANT	2.50000E+001	AC &Voltage (mV rms)
AREA	QUANT	1.00000E-002	&Area (cm^2)
CONDIT	TWOPARAM	T	5.00000E+000	0.00000E+000	Conditionin&g	Time(s)	E(V)
DELAY	TWOPARAM	T	5.00000E+000	0.00000E+000	Init. De&lay	Time(s)	Stab.(mV/s)
SPEED	SELECTOR	1	&Optimize for:
ZGUESS	QUANT	1.00000E+004	E&stimated Z (ohms)
OCVCURVE	TABLE	19
	Pt	T	Vf	Vm	Ach	Over
	#	s	V vs. Ref.	V	V	bits
	0	0.258333	1.03148E-002	1.03148E-002	5.54466E-004	...........
	1	0.516667	1.03171E-002	1.04353E-002	5.47833E-004	...........
	2	0.775	1.03314E-002	1.05582E-002	5.49666E-004	...........
	3	1.03333	1.03727E-002	1.06872E-002	5.47066E-004	...........
	4	1.29167	1.04486E-002	1.08210E-002	5.45433E-004	...........
	5	1.55	1.05538E-002	1.09475E-002	5.45433E-004	...........
	6	1.80833	1.06763E-002	1.10752E-002	5.55199E-004	...........
	7	2.06667	1.08055E-002	1.11998E-002	5.49566E-004	...........
	8	2.325	1.09353E-002	1.13263E-002	5.51166E-004	...........
	9	2.58333	1.10634E-002	1.14415E-002	5.42366E-004	...........
	10	2.84167	1.11891E-002	1.15632E-002	5.46533E-004	...........
	11	3.1	1.13122E-002	1.16772E-002	5.47766E-004	...........
	12	3.35833	1.14329E-002	1.17939E-002	5.47066E-004	...........
	13	3.61667	1.15513E-002	1.19005E-002	5.46733E-004	...........
	14	3.875	1.16673E-002	1.20073E-002	5.51699E-004	...........
	15	4.13333	1.17801E-002	1.20931E-002	5.45999E-004	...........
	16	4.39167	1.18887E-002	1.22225E-002	5.53933E-004	...........
	17	4.65	1.19944E-002	1.23205E-002	5.53633E-004	...........
	18	4.90833	1.20995E-002	1.24164E-002	5.53933E-004	...........
EOC	QUANT	0.0120995	Open Circuit (V)
PSTATMODEL	IQUANT	4	Pstat Model
PSTATSECTION	LABEL	REF600-11020	Pstat Section
PSTATSERIALNO	LABEL	11020	Pstat Serial Number
CTRLMODE	IQUANT	1	Control Mode
IESTAB	IQUANT	0	I/E Stability
CASPEED	IQUANT	1	Control Amp Speed
CONVENTION	IQUANT	1	Current Convention
ICHRANGE	IQUANT	2	Ich Range
ICHRANGEMODE	TOGGLE	F	Ich Auto Range
ICHOFFSETENABLE	TOGGLE	T	Ich Offset Enable
ICHOFFSET	QUANT	0	Ich Offset (V)
ICHFILTER	IQUANT	3	Ich Filter
VCHRANGE	IQUANT	2	Vch Range
VCHRANGEMODE	TOGGLE	F	Vch Auto Range
VCHOFFSETENABLE	TOGGLE	T	Vch Offset Enable
VCHOFFSET	QUANT	0	Vch Offset (V)
VCHFILTER	IQUANT	3	Vch Filter
ACHRANGE	IQUANT	2	Ach Range
ACHOFFSETENABLE	TOGGLE	F	Ach Offset Enable
ACHOFFSET	QUANT	0	Ach Offset (V)
ACHFILTER	IQUANT	3	Ach Filter
IERANGELOWERLIMIT	IQUANT	1	I/E Range Lower Limit
IERANGEMODE	TOGGLE	F	I/E AutoRange
IERANGE	IQUANT	6	I/E Range
POSFEEDENABLE	TOGGLE	F	Positive Feedback IR Comp
POSFEEDRESISTANCE	QUANT	0	Positive Feedback Resistance (ohm)
ACHSELECT	IQUANT	0	Ach Select
CABLEID	IQUANT	14	Cable ID
DCCALDATE	LABEL	8/19/2019	DC Calibration Date
ACCALDATE	LABEL	8/19/2019	AC Calibration Date
THERMOSELECT	IQUANT	1	Thermo Select
FRAMEWORKVERSION	QUANT	6.33	Framework Version
INSTRUMENTVERSION	LABEL	3.50	Instrument Version
ZCURVE	TABLE
	Pt	Time	Freq	Zreal	Zimag	Zsig	Zmod	Zphz	Idc	Vdc	IERange
	#	s	Hz	ohm	ohm	V	ohm	°	A	V	#
	0	2	1000078	2179.856	-1435.391	1	2610.004	-33.36411	3.896424E-006	0.0135078	8
	1	3	794390.6	2459.524	-1393.571	1	2826.889	-29.53597	-8.410714E-007	0.0139332	8
	2	4	630984.4	2702.403	-1291.651	1	2995.22	-25.54611	-4.111361E-007	0.0137667	8
	3	6	501234.4	2919.995	-1151.836	1	3138.965	-21.5275	1.447923E-006	0.013505	8
	4	7	398109.4	3078.607	-1048.714	1	3252.325	-18.81118	3.929282E-006	0.0129184	8
	5	8	316265.6	3217.054	-927.8915	1	3348.196	-16.08909	-1.013301E-006	0.0134683	8
	6	10	251203.1	3311.574	-821.4609	1	3411.938	-13.93145	2.498687E-006	0.0130674	8
	7	11	199546.9	3402.527	-725.5483	1	3479.025	-12.03735	8.053449E-007	0.0135372	8
	8	12	158578.1	3458.508	-666.7646	1	3522.194	-10.91215	-2.070205E-006	0.0139324	8
	9	14	125953.1	3541.253	-580.9722	1	3588.594	-9.316854	-4.232518E-008	0.0145123	7
	10	15	100078.1	3591.307	-547.3909	1	3632.785	-8.666381	-8.324962E-008	0.0136363	7
	11	16	79453.13	3642.451	-539.6453	1	3682.21	-8.427321	6.790771E-009	0.0134942	7
	12	18	63140.62	3694.594	-541.5195	1	3734.069	-8.338512	1.606863E-008	0.0134337	7
	13	19	50203.12	3748.481	-553.2984	1	3789.096	-8.396572	-8.252455E-008	0.0136178	7
	14	21	39890.62	3804.385	-574.9837	1	3847.59	-8.594472	1.038446E-007	0.0134073	7
	15	22	31640.63	3864.481	-609.0504	1	3912.181	-8.956267	1.217314E-007	0.0133265	7
	16	23	25171.88	3928.324	-652.4163	1	3982.132	-9.429617	7.983132E-009	0.0134836	7
	17	25	20015.62	3997.196	-707.4421	1	4059.316	-10.03654	-7.746603E-008	0.0137421	7
	18	26	15890.62	4069.751	-776.257	1	4143.12	-10.79879	-5.885725E-008	0.0135815	7
	19	27	12609.37	4152.061	-858.9593	1	4239.979	-11.68821	-4.729476E-008	0.013607	7
	20	29	10078.13	4234.871	-954.209	1	4341.042	-12.69794	8.237449E-008	0.0133384	7
	21	30	8015.625	4324.076	-1072.993	1	4455.216	-13.93611	-7.802083E-008	0.0137422	7
	22	31	6328.125	4432.018	-1215.754	1	4595.742	-15.33958	-8.106496E-008	0.0136127	7
	23	33	5015.625	4541.89	-1385.571	1	4748.533	-16.96511	-1.231966E-008	0.0135564	7
	24	34	3984.375	4661.279	-1591.471	1	4925.475	-18.85112	4.901212E-008	0.0133536	7
	25	35	3170.956	4787.731	-1828.291	1	5124.941	-20.90036	-9.992786E-009	0.0135567	7
	26	37	2527.573	4921.232	-2116.884	1	5357.213	-23.27512	5.827902E-008	0.0134006	7
	27	38	1976.103	5085.302	-2502.698	1	5667.786	-26.20381	-8.067585E-008	0.0136133	7
	28	39	1577.524	5247.041	-2929.99	1	6009.683	-29.17935	-4.099793E-009	0.0134489	7
	29	41	1265.625	5424.177	-3442.703	1	6424.477	-32.40313	5.546956E-008	0.0134035	7
	30	42	998.264	5639.362	-4116.842	1	6982.177	-36.13016	-8.068314E-008	0.0136113	7
	31	43	796.875	5870.917	-4898.237	1	7645.94	-39.839	1.405532E-008	0.0134221	7
	32	45	627.7902	6160.768	-5918.52	1	8543.064	-43.8511	-7.974965E-009	0.0135252	7
	33	46	505.5147	6472.881	-7054.377	1	9574.05	-47.46146	-5.687466E-008	0.0135738	7
	34	47	397.9953	6870.325	-8557.66	1	10974.28	-51.24154	2.342967E-010	0.0134667	6
	35	49	315.5048	7331.79	-10363.84	1	12695.05	-54.72291	1.082261E-009	0.0134647	6
	36	50	252.4038	7863.762	-12478.52	1	14749.65	-57.78153	5.502001E-010	0.0134649	6
	37	52	198.6229	8549.51	-15250.5	1	17483.48	-60.72478	8.75041E-010	0.0134696	6
	38	53	158.3615	9340.249	-18458.2	1	20686.84	-63.1596	8.973238E-010	0.0134672	6
	39	54	125.558	10320.7	-22477.71	1	24733.86	-65.33766	6.229175E-010	0.0134661	6
	40	56	100.4464	11465.11	-27198.63	1	29516.33	-67.14298	9.749777E-010	0.0134639	6
	41	57	79.00281	13037.21	-33436.76	1	35888.52	-68.69886	1.175229E-009	0.0134611	6
	42	58	63.3446	15133.47	-40171.41	1	42927.43	-69.35748	-1.086861E-010	0.0134624	6
	43	60	49.86702	17461.64	-49831.23	1	52802.09	-70.68874	4.559963E-010	0.0134585	6
	44	61	39.72458	20521.41	-60284.84	1	63681.95	-71.20104	5.444849E-010	0.0134641	6
	45	62	31.6723	24805.8	-73205.35	1	77293.93	-71.28094	7.924136E-011	0.0134618	6
	46	64	24.93351	30583.62	-89413.71	1	94499.57	-71.11694	5.854444E-010	0.0134572	6
	47	65	19.86229	38115.18	-107672.5	1	114219.7	-70.50645	4.29374E-010	0.0134687	5
	48	66	15.83615	47584.16	-129897.3	1	138338.6	-69.88114	8.798938E-010	0.0134666	5
	49	68	12.40079	61241.31	-157277.2	1	168779.8	-68.72483	2.328108E-010	0.013466	5
	50	69	9.93114	77840.59	-184971.5	1	200682.9	-67.17744	4.119854E-010	0.013466	5
	51	71	7.944915	99434.6	-216798.8	1	238514.1	-65.36147	1.06109E-011	0.0134722	5
	52	73	6.317385	124394.6	-252141.3	1	281157	-63.74045	-2.794028E-010	0.0134645	5
	53	75	5.008013	155834.7	-292206.5	1	331163.3	-61.92885	-2.230525E-010	0.013458	5
	54	77	3.945707	193660.3	-335644.4	1	387506.8	-60.01589	2.829371E-010	0.0134675	5
	55	80	3.158693	234182.6	-380352.5	1	446664.8	-58.37944	-1.788082E-010	0.0134639	5
	56	83	2.504006	280667.4	-430147.9	1	513616	-56.87594	2.696031E-010	0.0134638	5
	57	86	1.998082	328520.5	-482959.4	1	584102.3	-55.77552	-1.468435E-010	0.0135007	5
	58	89	1.584686	381633.5	-546120.9	1	666252.3	-55.05385	9.669321E-011	0.0134974	5
	59	92	1.266892	436189.7	-614175.4	1	753307.9	-54.61749	-1.468051E-010	0.0134917	5
	60	97	0.999041	497313.7	-701310.6	1	859742.7	-54.65877	8.858674E-011	0.0134424	5
