EXPLAIN
TAG	EISPOT
TITLE	LABEL	Potentiostatic EIS	Test &Identifier
DATE	LABEL	10/6/2019	Date
TIME	LABEL	9:21:31	Time
NOTES	NOTES	2	&Notes...
	
	
PSTAT	PSTAT	REF600-11020	Potentiostat
VDC	POTEN	0.00000E+000	T	DC &Voltage (V)
FREQINIT	QUANT	1.00000E+006	Initial Fre&q. (Hz)
FREQFINAL	QUANT	1.00000E+000	Final Fre&q. (Hz)
PTSPERDEC	QUANT	1.00000E+001	Points/&decade
VAC	QUANT	2.50000E+001	AC &Voltage (mV rms)
AREA	QUANT	1.00000E-002	&Area (cm^2)
CONDIT	TWOPARAM	T	5.00000E+000	0.00000E+000	Conditionin&g	Time(s)	E(V)
DELAY	TWOPARAM	T	5.00000E+000	0.00000E+000	Init. De&lay	Time(s)	Stab.(mV/s)
SPEED	SELECTOR	1	&Optimize for:
ZGUESS	QUANT	1.00000E+004	E&stimated Z (ohms)
OCVCURVE	TABLE	19
	Pt	T	Vf	Vm	Ach	Over
	#	s	V vs. Ref.	V	V	bits
	0	0.258333	3.45127E-003	3.45127E-003	5.53133E-004	...........
	1	0.516667	3.44438E-003	3.09078E-003	5.56333E-004	...........
	2	0.775	3.40262E-003	2.77648E-003	5.51266E-004	...........
	3	1.03333	3.28714E-003	2.52389E-003	5.54333E-004	...........
	4	1.29167	3.08828E-003	2.29558E-003	5.56233E-004	...........
	5	1.55	2.83804E-003	2.08660E-003	5.52932E-004	...........
	6	1.80833	2.57901E-003	1.89958E-003	5.59299E-004	...........
	7	2.06667	2.33710E-003	1.72670E-003	5.53099E-004	...........
	8	2.325	2.11981E-003	1.56446E-003	5.55599E-004	...........
	9	2.58333	1.92496E-003	1.41307E-003	5.48199E-004	...........
	10	2.84167	1.74783E-003	1.27610E-003	5.53199E-004	...........
	11	3.1	1.58515E-003	1.16830E-003	5.49366E-004	...........
	12	3.35833	1.43649E-003	1.06140E-003	5.52999E-004	...........
	13	3.61667	1.30196E-003	9.27796E-004	5.50999E-004	...........
	14	3.875	1.17801E-003	8.01565E-004	5.54699E-004	...........
	15	4.13333	1.05761E-003	6.69170E-004	5.50133E-004	...........
	16	4.39167	9.35470E-004	5.57246E-004	5.55766E-004	...........
	17	4.65	8.11163E-004	4.31914E-004	5.58999E-004	...........
	18	4.90833	6.87367E-004	3.36784E-004	5.53966E-004	...........
EOC	QUANT	0.0006874	Open Circuit (V)
PSTATMODEL	IQUANT	4	Pstat Model
PSTATSECTION	LABEL	REF600-11020	Pstat Section
PSTATSERIALNO	LABEL	11020	Pstat Serial Number
CTRLMODE	IQUANT	1	Control Mode
IESTAB	IQUANT	0	I/E Stability
CASPEED	IQUANT	1	Control Amp Speed
CONVENTION	IQUANT	1	Current Convention
ICHRANGE	IQUANT	2	Ich Range
ICHRANGEMODE	TOGGLE	F	Ich Auto Range
ICHOFFSETENABLE	TOGGLE	T	Ich Offset Enable
ICHOFFSET	QUANT	0	Ich Offset (V)
ICHFILTER	IQUANT	3	Ich Filter
VCHRANGE	IQUANT	2	Vch Range
VCHRANGEMODE	TOGGLE	F	Vch Auto Range
VCHOFFSETENABLE	TOGGLE	T	Vch Offset Enable
VCHOFFSET	QUANT	0	Vch Offset (V)
VCHFILTER	IQUANT	3	Vch Filter
ACHRANGE	IQUANT	2	Ach Range
ACHOFFSETENABLE	TOGGLE	F	Ach Offset Enable
ACHOFFSET	QUANT	0	Ach Offset (V)
ACHFILTER	IQUANT	3	Ach Filter
IERANGELOWERLIMIT	IQUANT	1	I/E Range Lower Limit
IERANGEMODE	TOGGLE	F	I/E AutoRange
IERANGE	IQUANT	5	I/E Range
POSFEEDENABLE	TOGGLE	F	Positive Feedback IR Comp
POSFEEDRESISTANCE	QUANT	0	Positive Feedback Resistance (ohm)
ACHSELECT	IQUANT	0	Ach Select
CABLEID	IQUANT	14	Cable ID
DCCALDATE	LABEL	8/19/2019	DC Calibration Date
ACCALDATE	LABEL	8/19/2019	AC Calibration Date
THERMOSELECT	IQUANT	1	Thermo Select
FRAMEWORKVERSION	QUANT	6.33	Framework Version
INSTRUMENTVERSION	LABEL	3.50	Instrument Version
ZCURVE	TABLE
	Pt	Time	Freq	Zreal	Zimag	Zsig	Zmod	Zphz	Idc	Vdc	IERange
	#	s	Hz	ohm	ohm	V	ohm	°	A	V	#
	0	1	1000078	2436.216	-1527.87	1	2875.68	-32.09383	6.345541E-006	0.0019683	8
	1	3	794390.6	2735.438	-1410.494	1	3077.68	-27.27733	-8.190385E-006	0.0037279	8
	2	4	630984.4	2974.212	-1269.013	1	3233.625	-23.10659	6.165877E-006	0.0017451	8
	3	6	501234.4	3180.107	-1126.736	1	3373.813	-19.50961	-2.280501E-006	0.0029077	8
	4	7	398109.4	3311.602	-980.206	1	3453.623	-16.4883	1.658343E-006	0.0022082	8
	5	9	316265.6	3423.494	-842.1871	1	3525.562	-13.82046	-6.496845E-007	0.002522	8
	6	10	251203.1	3519.457	-725.8403	1	3593.525	-11.6531	2.521039E-006	0.001828	8
	7	11	199546.9	3569.756	-626.976	1	3624.397	-9.96157	-1.316895E-006	0.0027666	8
	8	13	158578.1	3622.824	-550.9149	1	3664.473	-8.646599	2.36216E-006	0.0017883	8
	9	14	125953.1	3687.983	-449.39	1	3715.262	-6.947385	7.107789E-008	0.0016205	7
	10	15	100078.1	3713.894	-410.663	1	3736.529	-6.309836	1.613735E-008	0.00221	7
	11	17	79453.13	3744.367	-394.1447	1	3765.054	-6.009019	-4.383519E-010	0.0022173	7
	12	18	63140.62	3776.766	-386.4896	1	3796.49	-5.842936	5.36534E-008	0.0021303	7
	13	19	50203.12	3809.996	-387.8098	1	3829.682	-5.811975	1.495908E-008	0.0022041	7
	14	21	39890.62	3843.211	-399.129	1	3863.881	-5.929083	-2.746459E-009	0.0022287	7
	15	22	31640.63	3880.424	-418.4883	1	3902.925	-6.155332	9.008803E-008	0.0021092	7
	16	23	25171.88	3919.727	-448.2228	1	3945.271	-6.523468	-7.147926E-008	0.0024226	7
	17	25	20015.62	3969.329	-485.6013	1	3998.922	-6.974815	-8.532334E-008	0.0024035	7
	18	26	15890.62	4010.188	-535.496	1	4045.783	-7.605934	-1.252524E-009	0.0022208	7
	19	28	12609.37	4062.079	-597.6464	1	4105.809	-8.369779	-7.342016E-008	0.0024227	7
	20	29	10078.13	4115.738	-667.2466	1	4169.475	-9.208714	7.46586E-009	0.0022613	7
	21	30	8015.625	4172.979	-748.5912	1	4239.593	-10.17012	4.765569E-008	0.0022308	7
	22	32	6328.125	4243.036	-861.5408	1	4329.619	-11.47777	4.280188E-008	0.0022394	7
	23	33	5015.625	4314.979	-990.187	1	4427.134	-12.92428	-8.592657E-008	0.0023958	7
	24	34	3984.375	4386.923	-1154.377	1	4536.263	-14.74263	1.402611E-008	0.0022094	7
	25	36	3170.956	4473.473	-1331.582	1	4667.448	-16.57626	-1.063035E-008	0.002313	7
	26	37	2527.573	4562.424	-1558.554	1	4821.287	-18.86051	-4.915279E-008	0.0023967	7
	27	38	1976.103	4668.752	-1855.961	1	5024.125	-21.67922	1.667023E-008	0.0022057	7
	28	40	1577.524	4777.326	-2193.137	1	5256.681	-24.65854	5.200942E-008	0.0021251	7
	29	41	1265.625	4900.177	-2595.062	1	5544.915	-27.90504	-4.052819E-008	0.0022857	7
	30	43	998.264	5046.454	-3121.348	1	5933.76	-31.73775	6.258239E-008	0.0021856	7
	31	44	796.875	5201.844	-3732.034	1	6402.129	-35.65734	-2.663054E-009	0.0022238	7
	32	45	627.7902	5391.62	-4536.667	1	7046.341	-40.07824	-8.553051E-008	0.0025381	7
	33	47	505.5147	5585.972	-5416.516	1	7780.856	-44.11762	1.533941E-008	0.0023816	7
	34	48	397.9953	5832.76	-6629.371	1	8830.042	-48.65752	3.929211E-009	0.0023077	7
	35	49	315.5048	6118.66	-8084.928	1	10139.23	-52.88163	1.426339E-009	0.0022442	6
	36	51	252.4038	6443.177	-9813.91	1	11739.99	-56.7137	1.295757E-009	0.0022395	6
	37	52	198.6229	6874.306	-12112.19	1	13926.99	-60.4228	9.109782E-010	0.0022442	6
	38	53	158.3615	7387.571	-14796.94	1	16538.61	-63.46872	7.278982E-010	0.0022422	6
	39	55	125.558	8053.76	-18191.66	1	19894.71	-66.12021	1.111021E-009	0.0022453	6
	40	56	100.4464	8870.246	-22186.2	1	23893.7	-68.20802	2.396421E-010	0.0022384	6
	41	58	79.00281	10082.33	-27417.8	1	29212.83	-69.81004	1.13043E-009	0.0022413	6
	42	59	63.3446	11685.85	-33284.01	1	35275.83	-70.65408	1.011458E-009	0.0022356	6
	43	60	49.86702	13329.03	-41331.87	1	43427.95	-72.12611	1.040052E-009	0.0022384	6
	44	62	39.72458	15947.36	-50187.48	1	52660.25	-72.37205	8.628841E-010	0.0022412	6
	45	63	31.6723	19397.99	-60888.61	1	63903.87	-72.32908	3.347178E-010	0.0022411	6
	46	65	24.93351	23811.84	-74608.45	1	78316.19	-72.29913	7.60435E-010	0.0022444	6
	47	66	19.86229	29403.28	-90157.81	1	94831.34	-71.93724	4.375346E-010	0.0022404	6
	48	67	15.83615	36470.11	-109116.8	1	115050.2	-71.51883	2.109201E-009	0.0022478	5
	49	69	12.40079	46967.12	-132164.1	1	140261.4	-70.43633	1.1829E-009	0.0022501	5
	50	70	9.93114	58095.13	-156398.9	1	166840.3	-69.62225	2.906525E-010	0.0022545	5
	51	72	7.944915	72662.72	-184769.5	1	198543.8	-68.5322	7.426487E-010	0.0022532	5
	52	73	6.317385	90805.2	-218730.1	1	236830	-67.45435	1.702237E-010	0.0022653	5
	53	75	5.008013	113578.4	-257946.7	1	281844.9	-66.23528	2.934591E-010	0.0022488	5
	54	78	3.945707	141351.9	-304705.7	1	335895.7	-65.11358	4.801968E-010	0.0022498	5
	55	81	3.158693	172696.7	-353265.2	1	393218.1	-63.94791	1.219679E-010	0.0022468	5
	56	84	2.504006	210857.1	-411607.1	1	462472.8	-62.87495	3.181002E-010	0.0022335	5
	57	87	1.998082	253810.1	-475353.5	1	538869.7	-61.90047	1.523841E-011	0.0022698	5
	58	90	1.584686	306631.2	-550923	1	630506.8	-60.90068	2.307517E-010	0.0022916	5
	59	93	1.266892	363597.9	-632572.3	1	729624	-60.11003	-1.977457E-011	0.0022612	5
	60	98	0.999041	434479.1	-732018.9	1	851248.4	-59.30937	3.719315E-010	0.0022554	5
