EXPLAIN
TAG	EISPOT
TITLE	LABEL	Potentiostatic EIS	Test &Identifier
DATE	LABEL	10/10/2019	Date
TIME	LABEL	10:48:06	Time
NOTES	NOTES	1	&Notes...
	
PSTAT	PSTAT	REF600-11020	Potentiostat
VDC	POTEN	0.00000E+000	T	DC &Voltage (V)
FREQINIT	QUANT	1.00000E+006	Initial Fre&q. (Hz)
FREQFINAL	QUANT	1.00000E+000	Final Fre&q. (Hz)
PTSPERDEC	QUANT	1.00000E+001	Points/&decade
VAC	QUANT	2.50000E+001	AC &Voltage (mV rms)
AREA	QUANT	1.00000E-002	&Area (cm^2)
CONDIT	TWOPARAM	T	5.00000E+000	0.00000E+000	Conditionin&g	Time(s)	E(V)
DELAY	TWOPARAM	T	5.00000E+000	0.00000E+000	Init. De&lay	Time(s)	Stab.(mV/s)
SPEED	SELECTOR	1	&Optimize for:
ZGUESS	QUANT	1.00000E+004	E&stimated Z (ohms)
OCVCURVE	TABLE	19
	Pt	T	Vf	Vm	Ach	Over
	#	s	V vs. Ref.	V	V	bits
	0	0.258333	1.00740E-002	1.00740E-002	5.68432E-004	...........
	1	0.516667	1.00774E-002	1.02543E-002	5.67866E-004	...........
	2	0.775	1.00985E-002	1.04190E-002	5.71566E-004	...........
	3	1.03333	1.01579E-002	1.05920E-002	5.69499E-004	...........
	4	1.29167	1.02645E-002	1.07549E-002	5.72799E-004	...........
	5	1.55	1.04101E-002	1.10293E-002	5.71832E-004	...........
	6	1.80833	1.05792E-002	1.09801E-002	5.66966E-004	...........
	7	2.06667	1.07531E-002	1.13159E-002	5.68566E-004	...........
	8	2.325	1.09209E-002	1.14858E-002	5.70032E-004	...........
	9	2.58333	1.10908E-002	1.16859E-002	5.72732E-004	...........
	10	2.84167	1.12735E-002	1.18456E-002	5.65199E-004	...........
	11	3.1	1.14632E-002	1.19705E-002	5.67532E-004	...........
	12	3.35833	1.16458E-002	1.21306E-002	5.74399E-004	...........
	13	3.61667	1.18133E-002	1.22507E-002	5.76466E-004	...........
	14	3.875	1.19657E-002	1.23795E-002	5.73532E-004	...........
	15	4.13333	1.21067E-002	1.24883E-002	5.70999E-004	...........
	16	4.39167	1.22382E-002	1.25970E-002	5.68966E-004	...........
	17	4.65	1.23613E-002	1.27099E-002	5.69066E-004	...........
	18	4.90833	1.24777E-002	1.28170E-002	5.67032E-004	...........
EOC	QUANT	0.0124777	Open Circuit (V)
PSTATMODEL	IQUANT	4	Pstat Model
PSTATSECTION	LABEL	REF600-11020	Pstat Section
PSTATSERIALNO	LABEL	11020	Pstat Serial Number
CTRLMODE	IQUANT	1	Control Mode
IESTAB	IQUANT	0	I/E Stability
CASPEED	IQUANT	1	Control Amp Speed
CONVENTION	IQUANT	1	Current Convention
ICHRANGE	IQUANT	2	Ich Range
ICHRANGEMODE	TOGGLE	F	Ich Auto Range
ICHOFFSETENABLE	TOGGLE	T	Ich Offset Enable
ICHOFFSET	QUANT	0	Ich Offset (V)
ICHFILTER	IQUANT	3	Ich Filter
VCHRANGE	IQUANT	2	Vch Range
VCHRANGEMODE	TOGGLE	F	Vch Auto Range
VCHOFFSETENABLE	TOGGLE	T	Vch Offset Enable
VCHOFFSET	QUANT	0	Vch Offset (V)
VCHFILTER	IQUANT	3	Vch Filter
ACHRANGE	IQUANT	2	Ach Range
ACHOFFSETENABLE	TOGGLE	F	Ach Offset Enable
ACHOFFSET	QUANT	0	Ach Offset (V)
ACHFILTER	IQUANT	3	Ach Filter
IERANGELOWERLIMIT	IQUANT	1	I/E Range Lower Limit
IERANGEMODE	TOGGLE	F	I/E AutoRange
IERANGE	IQUANT	6	I/E Range
POSFEEDENABLE	TOGGLE	F	Positive Feedback IR Comp
POSFEEDRESISTANCE	QUANT	0	Positive Feedback Resistance (ohm)
ACHSELECT	IQUANT	0	Ach Select
CABLEID	IQUANT	14	Cable ID
DCCALDATE	LABEL	8/19/2019	DC Calibration Date
ACCALDATE	LABEL	8/19/2019	AC Calibration Date
THERMOSELECT	IQUANT	1	Thermo Select
FRAMEWORKVERSION	QUANT	6.33	Framework Version
INSTRUMENTVERSION	LABEL	3.50	Instrument Version
ZCURVE	TABLE
	Pt	Time	Freq	Zreal	Zimag	Zsig	Zmod	Zphz	Idc	Vdc	IERange
	#	s	Hz	ohm	ohm	V	ohm	°	A	V	#
	0	2	1000078	2583.373	-1825.608	1	3163.33	-35.24794	-1.409793E-006	0.0156629	8
	1	3	794390.6	2953.724	-1749.59	1	3433.009	-30.63968	1.17125E-006	0.0144638	8
	2	4	630984.4	3279.859	-1625.136	1	3660.402	-26.35794	-2.607052E-006	0.0147901	8
	3	6	501234.4	3556.264	-1466.33	1	3846.705	-22.40748	-1.681736E-006	0.0146328	8
	4	7	398109.4	3782.102	-1325.829	1	4007.757	-19.31829	9.566771E-007	0.0141519	8
	5	8	316265.6	3942.309	-1159.288	1	4109.228	-16.38667	2.215367E-006	0.0136413	8
	6	10	251203.1	4093.351	-1025.729	1	4219.91	-14.06775	-1.782621E-006	0.0143694	8
	7	11	199546.9	4195.001	-890.6268	1	4288.502	-11.9863	9.614705E-007	0.0140608	8
	8	13	158578.1	4276.299	-802.4045	1	4350.93	-10.6274	-5.742484E-007	0.0142686	8
	9	14	125953.1	4383.063	-647.9304	1	4430.695	-8.408903	-1.149946E-006	0.0165823	7
	10	15	100078.1	4427.178	-609.957	1	4469	-7.844572	-1.205402E-008	0.0141063	7
	11	17	79453.13	4481.465	-577.0718	1	4518.467	-7.337517	-8.145562E-008	0.0141525	7
	12	18	63140.62	4532.306	-558.8347	1	4566.628	-7.029109	1.09261E-007	0.0139452	7
	13	20	50203.12	4583.327	-548.7444	1	4616.06	-6.827309	5.08077E-008	0.0139837	7
	14	21	39890.62	4636.874	-553.3674	1	4669.776	-6.805528	-8.335743E-008	0.0141541	7
	15	22	31640.63	4690.29	-571.5916	1	4724.991	-6.948203	-9.74118E-009	0.0140176	7
	16	24	25171.88	4749.383	-598.3088	1	4786.921	-7.180076	8.552649E-008	0.0138579	7
	17	25	20015.62	4809.904	-631.2496	1	4851.15	-7.476741	1.604082E-009	0.0140236	7
	18	26	15890.62	4878.873	-686.7514	1	4926.97	-8.012328	-7.172093E-009	0.0140963	7
	19	28	12609.37	4954.391	-751.8934	1	5011.121	-8.629533	-3.376164E-008	0.0140322	7
	20	29	10078.13	5032.837	-824.2355	1	5099.883	-9.300852	-5.320236E-009	0.0140911	7
	21	30	8015.625	5121.822	-907.4394	1	5201.587	-10.0469	1.880646E-008	0.01413	7
	22	32	6328.125	5227.885	-1022.704	1	5326.979	-11.06869	5.250167E-008	0.013977	7
	23	33	5015.625	5340.956	-1143.58	1	5462.013	-12.08542	4.957627E-008	0.0139782	7
	24	34	3984.375	5464.713	-1276.649	1	5611.856	-13.14943	-4.238157E-008	0.014043	7
	25	36	3170.956	5601.873	-1439.936	1	5783.978	-14.41554	1.106799E-007	0.013937	7
	26	37	2527.573	5749.934	-1618.707	1	5973.437	-15.72284	-7.525256E-009	0.0140206	7
	27	38	1976.103	5918.653	-1845.238	1	6199.625	-17.31573	8.714295E-008	0.013862	7
	28	40	1577.524	6093.702	-2089.435	1	6441.968	-18.92604	-9.310201E-009	0.014099	7
	29	41	1265.625	6245.823	-2368.935	1	6679.982	-20.77089	-8.43595E-008	0.0142979	7
	30	43	998.264	6430.654	-2735.38	1	6988.249	-23.04324	-7.251277E-009	0.0139915	7
	31	44	796.875	6598.464	-3172.229	1	7321.391	-25.67604	-4.485301E-008	0.0140502	7
	32	45	627.7902	6782.849	-3748.799	1	7749.873	-28.9289	-8.407493E-008	0.0141504	7
	33	47	505.5147	6966.976	-4385.051	1	8232.098	-32.18653	-3.229099E-008	0.0140347	7
	34	48	397.9953	7187.124	-5286.433	1	8921.946	-36.33605	4.663688E-009	0.0140581	7
	35	49	315.5048	7431.29	-6378.523	1	9793.35	-40.64059	-1.372941E-010	0.0139995	6
	36	51	252.4038	7707.037	-7684.534	1	10883.5	-44.91623	1.997109E-010	0.0139943	6
	37	52	198.6229	8071.614	-9430.878	1	12413.4	-49.44075	3.911651E-010	0.013995	6
	38	53	158.3615	8511.685	-11473.88	1	14286.31	-53.43081	-1.51911E-010	0.0139942	6
	39	55	125.558	9083.938	-14050.88	1	16731.56	-57.11721	4.869887E-010	0.0139903	6
	40	56	100.4464	9789.01	-17066.11	1	19674.26	-60.1617	4.780743E-010	0.0139882	6
	41	57	79.00281	10779.18	-21049.42	1	23648.87	-62.88351	-2.61647E-010	0.0139904	6
	42	59	63.3446	11867.74	-25613.44	1	28229.27	-65.13981	7.901784E-010	0.0139836	6
	43	60	49.86702	13747.31	-31123	1	34023.96	-66.16852	1.120533E-009	0.013981	6
	44	62	39.72458	15943.74	-37918.5	1	41134.11	-67.19452	1.006454E-009	0.0139879	6
	45	63	31.6723	18582.16	-45772.16	1	49400.27	-67.90429	8.318813E-010	0.0139842	6
	46	64	24.93351	22482.1	-55777.09	1	60137.58	-68.0471	5.160797E-010	0.0139861	6
	47	66	19.86229	27240.54	-67060.12	1	72381.67	-67.89248	1.894957E-010	0.013992	6
	48	67	15.83615	32749.82	-79385.11	1	85875.18	-67.58172	-3.513947E-010	0.0139908	6
	49	68	12.40079	41892.41	-95920.1	1	104669.2	-66.40705	1.814403E-009	0.0139891	6
	50	70	9.93114	50745.45	-112959.6	1	123834.4	-65.80869	7.34604E-010	0.0139904	5
	51	71	7.944915	61259.7	-131729.5	1	145277.1	-65.05962	-8.094095E-010	0.0139926	5
	52	73	6.317385	75077.34	-154292.1	1	171588.6	-64.0528	-3.026956E-010	0.0139977	5
	53	75	5.008013	90792.1	-179741.4	1	201370.7	-63.20046	-1.462774E-010	0.0139858	5
	54	78	3.945707	108793.8	-209523.9	1	236085.5	-62.55973	2.549428E-010	0.0140064	5
	55	80	3.158693	127354.2	-241956	1	273426	-62.2398	-9.854194E-011	0.0139874	5
	56	84	2.504006	148703	-281606.4	1	318456.8	-62.16358	2.011787E-010	0.0139923	5
	57	86	1.998082	171200.6	-326549.8	1	368706.4	-62.33328	9.561973E-011	0.0140364	5
	58	89	1.584686	195585.2	-382963.5	1	430017	-62.94592	6.789037E-011	0.0140111	5
	59	93	1.266892	224693.6	-449310.4	1	502361.5	-63.43103	-1.047534E-011	0.0140388	5
	60	97	0.999041	258816.1	-531087	1	590795.4	-64.0185	3.169866E-010	0.0139672	5
