EXPLAIN
TAG	EISPOT
TITLE	LABEL	Potentiostatic EIS	Test &Identifier
DATE	LABEL	11/3/2019	Date
TIME	LABEL	11:14:29	Time
NOTES	NOTES	1	&Notes...
	
PSTAT	PSTAT	REF600-11020	Potentiostat
VDC	POTEN	0.00000E+000	T	DC &Voltage (V)
FREQINIT	QUANT	1.00000E+006	Initial Fre&q. (Hz)
FREQFINAL	QUANT	1.00000E+000	Final Fre&q. (Hz)
PTSPERDEC	QUANT	1.00000E+001	Points/&decade
VAC	QUANT	2.50000E+001	AC &Voltage (mV rms)
AREA	QUANT	1.00000E-002	&Area (cm^2)
CONDIT	TWOPARAM	T	5.00000E+000	0.00000E+000	Conditionin&g	Time(s)	E(V)
DELAY	TWOPARAM	T	5.00000E+000	0.00000E+000	Init. De&lay	Time(s)	Stab.(mV/s)
SPEED	SELECTOR	1	&Optimize for:
ZGUESS	QUANT	1.00000E+005	E&stimated Z (ohms)
OCVCURVE	TABLE	19
	Pt	T	Vf	Vm	Ach	Over
	#	s	V vs. Ref.	V	V	bits
	0	0.258333	6.12036E-003	6.12036E-003	5.87299E-004	...........
	1	0.516667	6.11832E-003	6.01314E-003	5.86099E-004	...........
	2	0.775	6.10606E-003	5.92833E-003	5.80765E-004	...........
	3	1.03333	6.07269E-003	5.85944E-003	5.84332E-004	...........
	4	1.29167	6.01622E-003	5.79940E-003	5.82199E-004	...........
	5	1.55	5.94664E-003	5.75212E-003	5.83099E-004	...........
	6	1.80833	5.87672E-003	5.70913E-003	5.82932E-004	...........
	7	2.06667	5.81435E-003	5.67903E-003	5.82632E-004	...........
	8	2.325	5.76189E-003	5.64315E-003	5.79732E-004	...........
	9	2.58333	5.71843E-003	5.62156E-003	5.83365E-004	...........
	10	2.84167	5.68207E-003	5.60007E-003	5.87932E-004	...........
	11	3.1	5.65136E-003	5.57981E-003	5.85665E-004	...........
	12	3.35833	5.62521E-003	5.55928E-003	5.85532E-004	...........
	13	3.61667	5.60245E-003	5.54837E-003	5.86632E-004	...........
	14	3.875	5.58222E-003	5.52799E-003	5.82032E-004	...........
	15	4.13333	5.56405E-003	5.51846E-003	5.81865E-004	...........
	16	4.39167	5.54761E-003	5.50482E-003	5.82999E-004	...........
	17	4.65	5.53275E-003	5.49814E-003	5.83899E-004	...........
	18	4.90833	5.51953E-003	5.48355E-003	5.81899E-004	...........
EOC	QUANT	0.0055195	Open Circuit (V)
PSTATMODEL	IQUANT	4	Pstat Model
PSTATSECTION	LABEL	REF600-11020	Pstat Section
PSTATSERIALNO	LABEL	11020	Pstat Serial Number
CTRLMODE	IQUANT	1	Control Mode
IESTAB	IQUANT	0	I/E Stability
CASPEED	IQUANT	1	Control Amp Speed
CONVENTION	IQUANT	1	Current Convention
ICHRANGE	IQUANT	2	Ich Range
ICHRANGEMODE	TOGGLE	F	Ich Auto Range
ICHOFFSETENABLE	TOGGLE	T	Ich Offset Enable
ICHOFFSET	QUANT	0	Ich Offset (V)
ICHFILTER	IQUANT	3	Ich Filter
VCHRANGE	IQUANT	2	Vch Range
VCHRANGEMODE	TOGGLE	F	Vch Auto Range
VCHOFFSETENABLE	TOGGLE	T	Vch Offset Enable
VCHOFFSET	QUANT	0	Vch Offset (V)
VCHFILTER	IQUANT	3	Vch Filter
ACHRANGE	IQUANT	2	Ach Range
ACHOFFSETENABLE	TOGGLE	F	Ach Offset Enable
ACHOFFSET	QUANT	0	Ach Offset (V)
ACHFILTER	IQUANT	3	Ach Filter
IERANGELOWERLIMIT	IQUANT	1	I/E Range Lower Limit
IERANGEMODE	TOGGLE	F	I/E AutoRange
IERANGE	IQUANT	5	I/E Range
POSFEEDENABLE	TOGGLE	F	Positive Feedback IR Comp
POSFEEDRESISTANCE	QUANT	0	Positive Feedback Resistance (ohm)
ACHSELECT	IQUANT	0	Ach Select
CABLEID	IQUANT	14	Cable ID
DCCALDATE	LABEL	8/19/2019	DC Calibration Date
ACCALDATE	LABEL	8/19/2019	AC Calibration Date
THERMOSELECT	IQUANT	1	Thermo Select
FRAMEWORKVERSION	QUANT	6.33	Framework Version
INSTRUMENTVERSION	LABEL	3.50	Instrument Version
ZCURVE	TABLE
	Pt	Time	Freq	Zreal	Zimag	Zsig	Zmod	Zphz	Idc	Vdc	IERange
	#	s	Hz	ohm	ohm	V	ohm	°	A	V	#
	0	2	1000078	2063.932	-1596.033	1	2609.049	-37.71469	1.865364E-006	0.0072131	8
	1	4	794390.6	2402.437	-1571.044	1	2870.52	-33.18219	-3.242847E-006	0.0075131	8
	2	5	630984.4	2708.094	-1515.604	1	3103.358	-29.23386	-3.609081E-006	0.007877	8
	3	6	501234.4	2981.435	-1415.906	1	3300.568	-25.4034	-2.597783E-006	0.0077419	8
	4	8	398109.4	3218.569	-1287.114	1	3466.389	-21.79659	9.562824E-007	0.0074871	8
	5	9	316265.6	3413.952	-1150.509	1	3602.602	-18.62392	1.822289E-006	0.0073627	8
	6	10	251203.1	3568.72	-1012.955	1	3709.695	-15.84621	1.786202E-006	0.007341	8
	7	12	199546.9	3688.418	-887.6179	1	3793.717	-13.53094	-9.119842E-007	0.0074713	8
	8	13	158578.1	3775.861	-769.8823	1	3853.55	-11.5244	6.851198E-006	0.0063026	8
	9	14	125953.1	3878.962	-616.7722	1	3927.691	-9.03465	-2.38805E-006	0.0078135	7
	10	16	100078.1	3941.195	-554.8064	1	3980.054	-8.012938	1.03359E-006	0.0062926	7
	11	17	79453.13	3979.658	-503.6544	1	4011.402	-7.212848	-1.06633E-006	0.0075333	7
	12	19	63140.62	4018.264	-469.3892	1	4045.587	-6.662748	-1.256697E-006	0.0084935	7
	13	20	50203.12	4069.051	-450.1982	1	4093.88	-6.313504	1.03557E-006	0.0062828	7
	14	21	39890.62	4103.151	-435.7455	1	4126.224	-6.061964	1.114325E-006	0.0055125	7
	15	23	31640.63	4135.746	-438.49	1	4158.926	-6.052141	1.035467E-006	0.0062831	7
	16	24	25171.88	4159.297	-449.6207	1	4183.529	-6.169725	-6.413788E-007	0.008639	7
	17	25	20015.62	4197.844	-474.4132	1	4224.566	-6.447842	1.273306E-007	0.0055987	7
	18	27	15890.62	4241.57	-515.5242	1	4272.784	-6.92979	1.128623E-006	0.0058452	7
	19	28	12609.37	4263.878	-567.1998	1	4301.438	-7.577251	-1.124588E-006	0.0086568	7
	20	29	10078.13	4317.041	-631.9678	1	4363.052	-8.328323	5.052775E-007	0.0052959	7
	21	31	8015.625	4354.631	-723.5646	1	4414.336	-9.434062	-3.045485E-007	0.0061228	7
	22	32	6328.125	4398.734	-836.5919	1	4477.583	-10.76843	-1.257807E-006	0.0084852	7
	23	34	5015.625	4453.18	-977.6	1	4559.223	-12.38165	-1.257347E-006	0.0084823	7
	24	35	3984.375	4525.471	-1160.03	1	4671.783	-14.37727	1.116859E-006	0.0055071	7
	25	36	3170.956	4583.113	-1365.131	1	4782.103	-16.58674	6.72943E-008	0.007994	7
	26	38	2527.573	4649.623	-1621.348	1	4924.202	-19.22394	-1.064619E-006	0.0075184	7
	27	39	1976.103	4739.18	-1971.105	1	5132.746	-22.58325	-1.065737E-006	0.0075149	7
	28	40	1577.524	4851.036	-2357.184	1	5393.41	-25.91574	1.037011E-006	0.0062827	7
	29	42	1265.625	4956.562	-2830.727	1	5707.935	-29.73098	6.583631E-008	0.0079938	7
	30	43	998.264	5095.818	-3449.916	1	6153.802	-34.09836	1.292199E-007	0.005595	7
	31	45	796.875	5256.038	-4161.566	1	6704.071	-38.37108	-3.039595E-007	0.0083881	7
	32	46	627.7902	5452.894	-5096.087	1	7463.521	-43.06278	3.98997E-007	0.0075486	7
	33	47	505.5147	5666.109	-6115.888	1	8337.198	-47.18621	-1.256259E-006	0.0084795	7
	34	49	397.9953	5940.087	-7525.648	1	9587.49	-51.71553	3.356726E-009	0.0070291	7
	35	50	315.5048	6264.484	-9204.606	1	11134.12	-55.76152	6.423388E-010	0.0069697	6
	36	51	252.4038	6631.091	-11189.57	1	13006.84	-59.34844	-7.939496E-011	0.006962	6
	37	53	198.6229	7113.081	-13820.14	1	15543.23	-62.76559	4.034885E-010	0.0069674	6
	38	54	158.3615	7681	-16902.03	1	18565.46	-65.56093	1.106288E-009	0.0069599	6
	39	56	125.558	8418.356	-20782.34	1	22422.63	-67.94848	8.512582E-010	0.0069536	6
	40	57	100.4464	9324.229	-25399.79	1	27057.18	-69.84189	6.646792E-010	0.006961	6
	41	58	79.00281	10633.29	-31498.63	1	33245	-71.34637	9.270197E-010	0.0069558	6
	42	60	63.3446	11745.8	-38291.46	1	40052.47	-72.94675	4.935793E-010	0.006959	6
	43	61	49.86702	14496.39	-47045.6	1	49228.39	-72.87411	1.110285E-010	0.0069541	6
	44	63	39.72458	17226.19	-57786.25	1	60299.19	-73.40058	7.048555E-010	0.006961	6
	45	64	31.6723	20873.46	-70514.4	1	73538.98	-73.51035	4.879234E-010	0.0069587	6
	46	66	24.93351	26069.98	-86447.65	1	90293.08	-73.21828	2.515277E-010	0.0069576	6
	47	67	19.86229	32585.79	-104679	1	109633.6	-72.70902	-6.412139E-011	0.0069594	5
	48	68	15.83615	42107.62	-125095.6	1	131992.3	-71.39658	1.379053E-009	0.006969	5
	49	70	12.40079	53616.73	-152566.1	1	161713.3	-70.63686	1.221651E-009	0.0069714	5
	50	71	9.93114	68782.48	-183017.4	1	195515.7	-69.40253	8.837336E-010	0.0069698	5
	51	73	7.944915	87700.62	-216554.8	1	233639.4	-67.95298	-2.232309E-010	0.0069644	5
	52	74	6.317385	113029.1	-255106.1	1	279024.5	-66.10345	1.268686E-010	0.0069479	5
	53	76	5.008013	144906.5	-298504.8	1	331817.8	-64.10615	-1.360086E-011	0.0069613	5
	54	79	3.945707	184308.8	-346610.9	1	392567	-61.99838	5.565997E-012	0.0069502	5
	55	82	3.158693	228063.2	-394320.8	1	455523.5	-59.95621	1.762612E-010	0.006952	5
	56	85	2.504006	279889.6	-447385.6	1	527723.4	-57.96943	2.263248E-011	0.0069699	5
	57	88	1.998082	334256.8	-500796.7	1	602100.4	-56.27886	4.246722E-010	0.006928	5
	58	91	1.584686	396938.9	-562566.3	1	688506.6	-54.79374	-8.171207E-011	0.0069407	5
	59	94	1.266892	460802.7	-624791.8	1	776340.1	-53.59011	1.577027E-010	0.0069201	5
	60	99	0.999041	530990.3	-701722.4	1	879980.1	-52.88536	2.803371E-011	0.0070007	5
