EXPLAIN
TAG	EISPOT
TITLE	LABEL	Potentiostatic EIS	Test &Identifier
DATE	LABEL	11/15/2019	Date
TIME	LABEL	10:41:27	Time
NOTES	NOTES	4	&Notes...
	
	
	
	
PSTAT	PSTAT	REF600-11020	Potentiostat
VDC	POTEN	0.00000E+000	T	DC &Voltage (V)
FREQINIT	QUANT	1.00000E+006	Initial Fre&q. (Hz)
FREQFINAL	QUANT	1.00000E+000	Final Fre&q. (Hz)
PTSPERDEC	QUANT	1.00000E+001	Points/&decade
VAC	QUANT	2.50000E+001	AC &Voltage (mV rms)
AREA	QUANT	1.00000E-002	&Area (cm^2)
CONDIT	TWOPARAM	T	5.00000E+000	0.00000E+000	Conditionin&g	Time(s)	E(V)
DELAY	TWOPARAM	T	5.00000E+000	0.00000E+000	Init. De&lay	Time(s)	Stab.(mV/s)
SPEED	SELECTOR	0	&Optimize for:
ZGUESS	QUANT	1.00000E+005	E&stimated Z (ohms)
OCVCURVE	TABLE	19
	Pt	T	Vf	Vm	Ach	Over
	#	s	V vs. Ref.	V	V	bits
	0	0.258333	5.96974E-003	5.96974E-003	5.56799E-004	...........
	1	0.516667	5.96823E-003	5.89068E-003	5.54366E-004	...........
	2	0.775	5.95935E-003	5.83617E-003	5.54566E-004	...........
	3	1.03333	5.93572E-003	5.79497E-003	5.52799E-004	...........
	4	1.29167	5.89709E-003	5.76584E-003	5.55733E-004	...........
	5	1.55	5.85194E-003	5.74704E-003	5.53733E-004	...........
	6	1.80833	5.81030E-003	5.74288E-003	5.50766E-004	...........
	7	2.06667	5.77837E-003	5.74461E-003	5.49966E-004	...........
	8	2.325	5.75796E-003	5.74206E-003	5.51633E-004	...........
	9	2.58333	5.74742E-003	5.74210E-003	5.54599E-004	...........
	10	2.84167	5.74349E-003	5.75652E-003	5.50599E-004	...........
	11	3.1	5.74389E-003	5.76604E-003	5.52966E-004	...........
	12	3.35833	5.74822E-003	5.78436E-003	5.58066E-004	...........
	13	3.61667	5.75622E-003	5.78403E-003	5.55266E-004	...........
	14	3.875	5.76667E-003	5.80931E-003	5.52832E-004	...........
	15	4.13333	5.77820E-003	5.81317E-003	5.54166E-004	...........
	16	4.39167	5.79037E-003	5.83424E-003	5.54666E-004	...........
	17	4.65	5.80326E-003	5.84782E-003	5.44899E-004	...........
	18	4.90833	5.81707E-003	5.86563E-003	5.50999E-004	...........
EOC	QUANT	0.0058171	Open Circuit (V)
PSTATMODEL	IQUANT	4	Pstat Model
PSTATSECTION	LABEL	REF600-11020	Pstat Section
PSTATSERIALNO	LABEL	11020	Pstat Serial Number
CTRLMODE	IQUANT	1	Control Mode
IESTAB	IQUANT	0	I/E Stability
CASPEED	IQUANT	1	Control Amp Speed
CONVENTION	IQUANT	1	Current Convention
ICHRANGE	IQUANT	2	Ich Range
ICHRANGEMODE	TOGGLE	F	Ich Auto Range
ICHOFFSETENABLE	TOGGLE	T	Ich Offset Enable
ICHOFFSET	QUANT	0	Ich Offset (V)
ICHFILTER	IQUANT	3	Ich Filter
VCHRANGE	IQUANT	2	Vch Range
VCHRANGEMODE	TOGGLE	F	Vch Auto Range
VCHOFFSETENABLE	TOGGLE	T	Vch Offset Enable
VCHOFFSET	QUANT	0	Vch Offset (V)
VCHFILTER	IQUANT	3	Vch Filter
ACHRANGE	IQUANT	2	Ach Range
ACHOFFSETENABLE	TOGGLE	F	Ach Offset Enable
ACHOFFSET	QUANT	0	Ach Offset (V)
ACHFILTER	IQUANT	3	Ach Filter
IERANGELOWERLIMIT	IQUANT	1	I/E Range Lower Limit
IERANGEMODE	TOGGLE	F	I/E AutoRange
IERANGE	IQUANT	5	I/E Range
POSFEEDENABLE	TOGGLE	F	Positive Feedback IR Comp
POSFEEDRESISTANCE	QUANT	0	Positive Feedback Resistance (ohm)
ACHSELECT	IQUANT	0	Ach Select
CABLEID	IQUANT	14	Cable ID
DCCALDATE	LABEL	8/19/2019	DC Calibration Date
ACCALDATE	LABEL	8/19/2019	AC Calibration Date
THERMOSELECT	IQUANT	1	Thermo Select
FRAMEWORKVERSION	QUANT	6.33	Framework Version
INSTRUMENTVERSION	LABEL	3.50	Instrument Version
ZCURVE	TABLE
	Pt	Time	Freq	Zreal	Zimag	Zsig	Zmod	Zphz	Idc	Vdc	IERange
	#	s	Hz	ohm	ohm	V	ohm	°	A	V	#
	0	1	1000078	2315.359	-1497.127	1	2757.223	-32.88698	-2.574108E-006	0.008684	8
	1	2	794390.6	2609.352	-1399.873	1	2961.142	-28.21281	3.503461E-006	0.0079257	8
	2	2	630984.4	2852.57	-1277.494	1	3125.563	-24.12473	7.705878E-006	0.006492	8
	3	2	501234.4	3062.359	-1143.12	1	3268.756	-20.46965	-2.84209E-006	0.0071155	8
	4	2	398109.4	3215.36	-1008.978	1	3369.952	-17.42182	-3.643003E-006	0.0079177	8
	5	3	316265.6	3340.447	-875.7404	1	3453.333	-14.69022	4.311408E-006	0.0072729	8
	6	3	251203.1	3429.04	-760.7887	1	3512.422	-12.50938	-2.166536E-006	0.0074351	8
	7	3	199546.9	3503.144	-677.0466	1	3567.969	-10.93859	-6.547717E-007	0.0070234	8
	8	4	158578.1	3550.464	-616.8927	1	3603.658	-9.85673	-1.536662E-006	0.0070888	8
	9	4	125953.1	3645.003	-502.6772	1	3679.501	-7.852052	2.770315E-006	0.0015096	7
	10	4	100078.1	3670.548	-463.7532	1	3699.729	-7.200848	1.030723E-006	0.00658	7
	11	5	79453.13	3709.179	-441.9484	1	3735.416	-6.794754	-2.928797E-007	0.0063724	7
	12	5	63140.62	3745.234	-434.0276	1	3770.299	-6.610405	-1.25119E-006	0.0083694	7
	13	5	50203.12	3782.844	-437.4549	1	3808.054	-6.596487	-1.25104E-006	0.0083697	7
	14	6	39890.62	3824.221	-451.6208	1	3850.796	-6.735142	5.689135E-008	0.0082754	7
	15	6	31640.63	3865.96	-473.8574	1	3894.892	-6.987987	-1.138464E-006	0.0089337	7
	16	6	25171.88	3913.132	-508.9738	1	3946.094	-7.410751	-2.958317E-007	0.0063661	7
	17	7	20015.62	3962.321	-549.8171	1	4000.286	-7.899994	-1.068753E-006	0.0077765	7
	18	7	15890.62	4018.948	-605.3878	1	4064.288	-8.566256	-1.139772E-006	0.0089326	7
	19	7	12609.37	4080.341	-672.1877	1	4135.337	-9.354779	-6.549259E-007	0.0089198	7
	20	8	10078.13	4152.73	-748.8881	1	4219.716	-10.22264	5.198779E-007	0.0055408	7
	21	8	8015.625	4223.923	-840.4769	1	4306.73	-11.25374	8.180466E-007	0.0054409	7
	22	8	6328.125	4299.846	-951.1	1	4403.778	-12.47265	-1.067996E-006	0.0077776	7
	23	9	5015.625	4389.262	-1084.933	1	4521.36	-13.88401	8.400293E-007	0.0070715	7
	24	9	3984.375	4476.092	-1241.281	1	4645.016	-15.49941	3.85408E-007	0.0078239	7
	25	9	3170.956	4569.441	-1430.223	1	4788.04	-17.37998	-1.251288E-006	0.0083602	7
	26	9	2527.573	4675.083	-1659.125	1	4960.756	-19.5391	-3.147265E-007	0.0086628	7
	27	10	1976.103	4798.991	-1967.087	1	5186.497	-22.28853	1.130906E-006	0.0061138	7
	28	10	1577.524	4920.984	-2308.585	1	5435.591	-25.13272	1.018999E-006	0.0055346	7
	29	10	1265.625	5045.899	-2717.633	1	5731.198	-28.30613	-1.250702E-006	0.0083575	7
	30	11	998.264	5207.498	-3261.849	1	6144.729	-32.06202	-2.926275E-007	0.0063503	7
	31	11	796.875	5379.365	-3891.777	1	6639.541	-35.88439	1.447517E-007	0.0058287	7
	32	12	627.7902	5597.544	-4703.229	1	7311.147	-40.03801	-3.106883E-007	0.0086688	7
	33	12	505.5147	5815.813	-5614.643	1	8083.805	-43.99173	6.125431E-007	0.0074984	7
	34	12	397.9953	6106.718	-6839.065	1	9168.687	-48.23779	5.033508E-009	0.0072842	7
	35	12	315.5048	6437.832	-8304.896	1	10507.95	-52.21769	-1.712794E-011	0.0072272	6
	36	13	252.4038	6809.354	-10031.18	1	12124.02	-55.8306	1.32467E-009	0.0072206	6
	37	13	198.6229	7286.874	-12314.01	1	14308.51	-59.38488	4.794792E-010	0.0072158	6
	38	13	158.3615	7826.942	-14975.05	1	16897.14	-62.40549	-7.690584E-012	0.0072181	6
	39	14	125.558	8513.562	-18335.09	1	20215.25	-65.09307	5.706716E-010	0.0072164	6
	40	14	100.4464	9360.569	-22274.14	1	24161.07	-67.20572	-1.550537E-010	0.0072291	6
	41	14	79.00281	10532.04	-27554.7	1	29498.9	-69.08199	1.041097E-009	0.007213	6
	42	15	63.3446	11568.82	-33201.9	1	35159.69	-70.7897	6.035935E-010	0.0072219	6
	43	15	49.86702	13609.95	-41021.74	1	43220.53	-71.64549	4.383417E-011	0.0072151	6
	44	16	39.72458	15965.58	-50348.05	1	52818.8	-72.40596	2.145597E-010	0.0072219	6
	45	16	31.6723	19276.23	-61337.45	1	64295.07	-72.55388	7.783023E-010	0.0072202	6
	46	16	24.93351	23253.19	-75248.55	1	78759.48	-72.82789	-5.609206E-010	0.007219	6
	47	17	19.86229	28633.42	-91202.86	1	95592	-72.57015	3.221293E-010	0.0072263	6
	48	17	15.83615	35140.54	-108877.1	1	114407.6	-72.1123	1.364212E-009	0.0072231	5
	49	17	12.40079	44638.89	-134463.9	1	141679.8	-71.63503	-7.372239E-010	0.0072272	5
	50	18	9.93114	56493.23	-160769.9	1	170406.7	-70.63895	-2.149527E-010	0.0072361	5
	51	18	7.944915	71056.33	-191494.4	1	204252.5	-69.64201	4.172507E-010	0.0072228	5
	52	19	6.317385	89732.15	-228114	1	245128.2	-68.52704	5.283402E-010	0.0072094	5
	53	19	5.008013	114009.5	-270761.5	1	293785.5	-67.1655	1.47201E-010	0.0072179	5
	54	21	3.945707	146268	-320146.5	1	351977.4	-65.44537	5.923516E-011	0.0072247	5
	55	22	3.158693	182182.7	-372699.9	1	414844.2	-63.94975	-2.01611E-010	0.0072154	5
	56	24	2.504006	228119	-431912.4	1	488453.3	-62.15876	5.563646E-012	0.007218	5
	57	25	1.998082	280237.8	-495248.4	1	569038	-60.49652	1.376879E-010	0.0072508	5
	58	26	1.584686	342492.5	-563898.6	1	659759.6	-58.72696	-5.08495E-012	0.0072042	5
	59	28	1.266892	412320.6	-636947.9	1	758756.1	-57.08348	-7.029383E-011	0.0071777	5
	60	31	0.999041	493219.7	-722241.5	1	874584.8	-55.67078	-4.915552E-011	0.0071817	5
