EXPLAIN
TAG	EISPOT
TITLE	LABEL	Potentiostatic EIS	Test &Identifier
DATE	LABEL	10/18/2019	Date
TIME	LABEL	9:45:24	Time
NOTES	NOTES	1	&Notes...
	
PSTAT	PSTAT	REF600-11020	Potentiostat
VDC	POTEN	0.00000E+000	T	DC &Voltage (V)
FREQINIT	QUANT	1.00000E+006	Initial Fre&q. (Hz)
FREQFINAL	QUANT	1.00000E+000	Final Fre&q. (Hz)
PTSPERDEC	QUANT	1.00000E+001	Points/&decade
VAC	QUANT	2.50000E+001	AC &Voltage (mV rms)
AREA	QUANT	1.00000E-002	&Area (cm^2)
CONDIT	TWOPARAM	T	5.00000E+000	0.00000E+000	Conditionin&g	Time(s)	E(V)
DELAY	TWOPARAM	T	5.00000E+000	0.00000E+000	Init. De&lay	Time(s)	Stab.(mV/s)
SPEED	SELECTOR	0	&Optimize for:
ZGUESS	QUANT	1.00000E+005	E&stimated Z (ohms)
OCVCURVE	TABLE	19
	Pt	T	Vf	Vm	Ach	Over
	#	s	V vs. Ref.	V	V	bits
	0	0.258333	4.76520E-003	4.76520E-003	5.39733E-004	...........
	1	0.516667	4.76288E-003	4.64424E-003	5.39699E-004	...........
	2	0.775	4.74888E-003	4.53934E-003	5.34566E-004	...........
	3	1.03333	4.70994E-003	4.44137E-003	5.50433E-004	...........
	4	1.29167	4.64206E-003	4.36663E-003	5.42466E-004	...........
	5	1.55	4.55571E-003	4.30615E-003	5.37833E-004	...........
	6	1.80833	4.46677E-003	4.25141E-003	5.44599E-004	...........
	7	2.06667	4.38647E-003	4.20993E-003	5.34333E-004	...........
	8	2.325	4.31828E-003	4.14531E-003	5.39266E-004	...........
	9	2.58333	4.25974E-003	4.10344E-003	5.38833E-004	...........
	10	2.84167	4.20692E-003	4.07922E-003	5.36266E-004	...........
	11	3.1	4.15909E-003	4.05863E-003	5.34233E-004	...........
	12	3.35833	4.11858E-003	4.04133E-003	5.34800E-004	...........
	13	3.61667	4.08661E-003	4.01517E-003	5.36999E-004	...........
	14	3.875	4.06132E-003	3.99916E-003	5.35966E-004	...........
	15	4.13333	4.03980E-003	3.98919E-003	5.43433E-004	...........
	16	4.39167	4.02051E-003	3.96584E-003	5.40699E-004	...........
	17	4.65	4.00328E-003	3.97336E-003	5.33566E-004	...........
	18	4.90833	3.98857E-003	3.95526E-003	5.36099E-004	...........
EOC	QUANT	0.0039886	Open Circuit (V)
PSTATMODEL	IQUANT	4	Pstat Model
PSTATSECTION	LABEL	REF600-11020	Pstat Section
PSTATSERIALNO	LABEL	11020	Pstat Serial Number
CTRLMODE	IQUANT	1	Control Mode
IESTAB	IQUANT	0	I/E Stability
CASPEED	IQUANT	1	Control Amp Speed
CONVENTION	IQUANT	1	Current Convention
ICHRANGE	IQUANT	2	Ich Range
ICHRANGEMODE	TOGGLE	F	Ich Auto Range
ICHOFFSETENABLE	TOGGLE	T	Ich Offset Enable
ICHOFFSET	QUANT	0	Ich Offset (V)
ICHFILTER	IQUANT	3	Ich Filter
VCHRANGE	IQUANT	2	Vch Range
VCHRANGEMODE	TOGGLE	F	Vch Auto Range
VCHOFFSETENABLE	TOGGLE	T	Vch Offset Enable
VCHOFFSET	QUANT	0	Vch Offset (V)
VCHFILTER	IQUANT	3	Vch Filter
ACHRANGE	IQUANT	2	Ach Range
ACHOFFSETENABLE	TOGGLE	F	Ach Offset Enable
ACHOFFSET	QUANT	0	Ach Offset (V)
ACHFILTER	IQUANT	3	Ach Filter
IERANGELOWERLIMIT	IQUANT	1	I/E Range Lower Limit
IERANGEMODE	TOGGLE	F	I/E AutoRange
IERANGE	IQUANT	4	I/E Range
POSFEEDENABLE	TOGGLE	F	Positive Feedback IR Comp
POSFEEDRESISTANCE	QUANT	0	Positive Feedback Resistance (ohm)
ACHSELECT	IQUANT	0	Ach Select
CABLEID	IQUANT	14	Cable ID
DCCALDATE	LABEL	8/19/2019	DC Calibration Date
ACCALDATE	LABEL	8/19/2019	AC Calibration Date
THERMOSELECT	IQUANT	1	Thermo Select
FRAMEWORKVERSION	QUANT	6.33	Framework Version
INSTRUMENTVERSION	LABEL	3.50	Instrument Version
ZCURVE	TABLE
	Pt	Time	Freq	Zreal	Zimag	Zsig	Zmod	Zphz	Idc	Vdc	IERange
	#	s	Hz	ohm	ohm	V	ohm	°	A	V	#
	0	2	1000078	2560.291	-1497.113	1	2965.878	-30.31668	-6.666889E-006	0.0076534	8
	1	2	794390.6	2840.997	-1384.083	1	3160.213	-25.97451	1.833795E-006	0.0059432	8
	2	2	630984.4	3078.518	-1253.106	1	3323.785	-22.1487	-4.016857E-007	0.005842	8
	3	3	501234.4	3255.171	-1087.869	1	3432.142	-18.47948	1.223121E-006	0.0056065	8
	4	3	398109.4	3398.844	-950.446	1	3529.234	-15.62301	4.261487E-006	0.0048972	8
	5	3	316265.6	3513.065	-809.6277	1	3605.152	-12.9779	1.100556E-006	0.0053347	8
	6	4	251203.1	3593.059	-685.3831	1	3657.844	-10.79954	1.123756E-006	0.0052828	8
	7	4	199546.9	3647.055	-593.0593	1	3694.96	-9.236207	1.19788E-006	0.0053562	8
	8	4	158578.1	3709.238	-510.1913	1	3744.161	-7.83167	1.167285E-006	0.0051809	8
	9	5	125953.1	3763.659	-384.4598	1	3783.244	-5.832564	-1.8496E-007	0.0060442	7
	10	5	100078.1	3787.598	-359.1599	1	3804.588	-5.41689	-7.16559E-008	0.0056798	7
	11	5	79453.13	3814.166	-335.7628	1	3828.916	-5.030807	-1.396206E-008	0.005687	7
	12	5	63140.62	3840.227	-321.2644	1	3853.641	-4.782096	-4.07126E-008	0.005631	7
	13	6	50203.12	3866.989	-314.8959	1	3879.789	-4.655427	6.65989E-008	0.0054361	7
	14	6	39890.62	3892.776	-314.8275	1	3905.486	-4.623722	1.337971E-007	0.00535	7
	15	6	31640.63	3920.152	-323.0509	1	3933.441	-4.710971	-1.107574E-008	0.0055157	7
	16	7	25171.88	3946.13	-339.399	1	3960.698	-4.915802	-1.836733E-008	0.0055297	7
	17	7	20015.62	3976.19	-355.8316	1	3992.08	-5.113811	8.136811E-008	0.0053821	7
	18	7	15890.62	4003.176	-397.4861	1	4022.861	-5.670466	-3.467894E-008	0.0055636	7
	19	8	12609.37	4028.869	-445.4843	1	4053.423	-6.309737	6.629107E-008	0.0054444	7
	20	8	10078.13	4061.847	-499.21	1	4092.409	-7.006641	-4.354266E-008	0.0055927	7
	21	8	8015.625	4086.358	-581.0784	1	4127.465	-8.093177	-2.128185E-008	0.0055205	7
	22	9	6328.125	4128.676	-669.1097	1	4182.543	-9.205546	-9.194237E-009	0.0055037	7
	23	9	5015.625	4170.08	-787.127	1	4243.717	-10.68915	-3.910928E-008	0.00557	7
	24	9	3984.375	4228.774	-935.2103	1	4330.953	-12.47047	-8.726994E-009	0.0055005	7
	25	10	3170.956	4262.504	-1114.467	1	4405.789	-14.65245	8.04211E-008	0.005375	7
	26	10	2527.573	4320.673	-1335.943	1	4522.495	-17.1815	-7.604945E-009	0.00556	7
	27	10	1976.103	4394.072	-1632.211	1	4687.428	-20.37789	-4.077197E-008	0.0055831	7
	28	11	1577.524	4428.491	-1936.791	1	4833.497	-23.62206	6.760687E-008	0.0054246	7
	29	11	1265.625	4574.625	-2354.552	1	5145.008	-27.23481	-3.765437E-008	0.0055779	7
	30	11	998.264	4693.754	-2869.372	1	5501.33	-31.43816	6.515567E-008	0.0054296	7
	31	11	796.875	4823.963	-3468.156	1	5941.273	-35.714	-8.895745E-009	0.0055845	7
	32	12	627.7902	4994.701	-4243.949	1	6554.246	-40.35424	-8.771785E-009	0.0054951	7
	33	12	505.5147	5166.071	-5108.387	1	7265.253	-44.67833	-6.967554E-009	0.0055632	7
	34	12	397.9953	5400	-6279.414	1	8281.971	-49.30602	1.604938E-009	0.0055594	7
	35	13	315.5048	5672.373	-7687.262	1	9553.52	-53.57666	4.018458E-009	0.0055579	7
	36	13	252.4038	5993.593	-9352.388	1	11108.12	-57.34572	7.155945E-010	0.0054932	6
	37	13	198.6229	6426.755	-11555	1	13221.99	-60.91769	9.539523E-010	0.0054933	6
	38	14	158.3615	6939.371	-14125.98	1	15738.43	-63.83748	1.464599E-009	0.0054879	6
	39	14	125.558	7624.147	-17357.96	1	18958.54	-66.28745	7.436146E-010	0.0054889	6
	40	14	100.4464	8493.398	-21115.39	1	22759.56	-68.08817	8.723172E-010	0.0054904	6
	41	15	79.00281	9771.81	-26133.67	1	27900.84	-69.4984	1.363534E-009	0.0054891	6
	42	15	63.3446	10674.74	-31898.64	1	33637.39	-71.49741	-2.868353E-010	0.0054837	6
	43	15	49.86702	12861.14	-39071.15	1	41133.49	-71.77989	6.5524E-010	0.0054847	6
	44	16	39.72458	15815.09	-47538.98	1	50100.61	-71.59895	8.880821E-010	0.0054868	6
	45	16	31.6723	19455.69	-57463.39	1	60667.66	-71.29516	1.674623E-009	0.0054862	6
	46	16	24.93351	23746.06	-69983.94	1	73902.82	-71.25755	-3.853647E-010	0.005485	6
	47	17	19.86229	29397.13	-84202.54	1	89186.66	-70.75468	-7.205041E-010	0.0054847	6
	48	17	15.83615	34964.59	-101067.8	1	106945	-70.91685	-1.750044E-009	0.0054903	5
	49	17	12.40079	45270.27	-122728	1	130811.1	-69.75266	7.408801E-010	0.0054925	5
	50	18	9.93114	58016.66	-144227	1	155458.6	-68.08709	3.736054E-010	0.0054918	5
	51	18	7.944915	72181.77	-169760.4	1	184469	-66.96491	5.271458E-010	0.0054876	5
	52	19	6.317385	89694.43	-199865.4	1	219069.1	-65.8307	6.625077E-010	0.005479	5
	53	20	5.008013	111909.3	-234727.5	1	260039.8	-64.50993	1.834695E-010	0.0054925	5
	54	21	3.945707	139769.6	-274548.8	1	308078.8	-63.01988	7.453672E-011	0.0054993	5
	55	22	3.158693	170219.5	-317018.2	1	359826.6	-61.7669	-1.760308E-010	0.0054896	5
	56	24	2.504006	207769.3	-365147.4	1	420119.8	-60.36007	-4.211385E-012	0.0054897	5
	57	25	1.998082	249412.7	-417505.4	1	486330.6	-59.14641	2.168371E-010	0.0055169	5
	58	27	1.584686	297709.4	-475368.1	1	560897.3	-57.94226	3.091567E-011	0.0054743	5
	59	29	1.266892	351740.2	-538936	1	643562.9	-56.86925	-5.949312E-011	0.0054498	5
	60	31	0.999041	413565.4	-615874.9	1	741847.8	-56.11829	-9.265418E-011	0.0054427	5
