EXPLAIN
TAG	EISPOT
TITLE	LABEL	Potentiostatic IDE	Test &Identifier
DATE	LABEL	9/18/2019	Date
TIME	LABEL	8:44:18	Time
NOTES	NOTES	1	&Notes...
	
PSTAT	PSTAT	REF600-11020	Potentiostat
VDC	POTEN	0.00000E+000	T	DC &Voltage (V)
FREQINIT	QUANT	1.00000E+006	Initial Fre&q. (Hz)
FREQFINAL	QUANT	1.00000E+000	Final Fre&q. (Hz)
PTSPERDEC	QUANT	1.00000E+001	Points/&decade
VAC	QUANT	2.50000E+001	AC &Voltage (mV rms)
AREA	QUANT	1.00000E-002	&Area (cm^2)
CONDIT	TWOPARAM	T	5.00000E+000	0.00000E+000	Conditionin&g	Time(s)	E(V)
DELAY	TWOPARAM	T	5.00000E+000	0.00000E+000	Init. De&lay	Time(s)	Stab.(mV/s)
SPEED	SELECTOR	1	&Optimize for:
ZGUESS	QUANT	1.00000E+007	E&stimated Z (ohms)
OCVCURVE	TABLE	19
	Pt	T	Vf	Vm	Ach	Over
	#	s	V vs. Ref.	V	V	bits
	0	0.258333	5.62386E-002	5.62386E-002	6.43665E-004	...........
	1	0.516667	5.63155E-002	6.02688E-002	6.40298E-004	...........
	2	0.775	5.67859E-002	6.39620E-002	6.39431E-004	...........
	3	1.03333	5.81055E-002	6.73552E-002	6.43265E-004	...........
	4	1.29167	6.04363E-002	7.05066E-002	6.38398E-004	...........
	5	1.55	6.34810E-002	7.34820E-002	6.39231E-004	...........
	6	1.80833	6.67838E-002	7.62666E-002	6.43198E-004	...........
	7	2.06667	7.00257E-002	7.88335E-002	6.47164E-004	...........
	8	2.325	7.30687E-002	8.11296E-002	6.42664E-004	...........
	9	2.58333	7.58778E-002	8.32641E-002	6.49331E-004	...........
	10	2.84167	7.84572E-002	8.53714E-002	6.47065E-004	...........
	11	3.1	8.08351E-002	8.74220E-002	6.41031E-004	...........
	12	3.35833	8.30579E-002	8.93319E-002	6.44998E-004	...........
	13	3.61667	8.51682E-002	9.11636E-002	6.37931E-004	...........
	14	3.875	8.71889E-002	9.30585E-002	6.43798E-004	...........
	15	4.13333	8.91351E-002	9.48219E-002	6.40565E-004	...........
	16	4.39167	9.10175E-002	9.63127E-002	6.41764E-004	...........
	17	4.65	9.28251E-002	9.77192E-002	6.40098E-004	...........
	18	4.90833	9.45281E-002	9.91631E-002	6.38331E-004	...........
EOC	QUANT	0.0945281	Open Circuit (V)
PSTATMODEL	IQUANT	4	Pstat Model
PSTATSECTION	LABEL	REF600-11020	Pstat Section
PSTATSERIALNO	LABEL	11020	Pstat Serial Number
CTRLMODE	IQUANT	1	Control Mode
IESTAB	IQUANT	0	I/E Stability
CASPEED	IQUANT	1	Control Amp Speed
CONVENTION	IQUANT	1	Current Convention
ICHRANGE	IQUANT	2	Ich Range
ICHRANGEMODE	TOGGLE	F	Ich Auto Range
ICHOFFSETENABLE	TOGGLE	T	Ich Offset Enable
ICHOFFSET	QUANT	0	Ich Offset (V)
ICHFILTER	IQUANT	3	Ich Filter
VCHRANGE	IQUANT	2	Vch Range
VCHRANGEMODE	TOGGLE	F	Vch Auto Range
VCHOFFSETENABLE	TOGGLE	T	Vch Offset Enable
VCHOFFSET	QUANT	0	Vch Offset (V)
VCHFILTER	IQUANT	3	Vch Filter
ACHRANGE	IQUANT	2	Ach Range
ACHOFFSETENABLE	TOGGLE	F	Ach Offset Enable
ACHOFFSET	QUANT	0	Ach Offset (V)
ACHFILTER	IQUANT	3	Ach Filter
IERANGELOWERLIMIT	IQUANT	1	I/E Range Lower Limit
IERANGEMODE	TOGGLE	F	I/E AutoRange
IERANGE	IQUANT	4	I/E Range
POSFEEDENABLE	TOGGLE	F	Positive Feedback IR Comp
POSFEEDRESISTANCE	QUANT	0	Positive Feedback Resistance (ohm)
ACHSELECT	IQUANT	0	Ach Select
CABLEID	IQUANT	14	Cable ID
DCCALDATE	LABEL	8/19/2019	DC Calibration Date
ACCALDATE	LABEL	8/19/2019	AC Calibration Date
THERMOSELECT	IQUANT	1	Thermo Select
FRAMEWORKVERSION	QUANT	6.33	Framework Version
INSTRUMENTVERSION	LABEL	3.50	Instrument Version
ZCURVE	TABLE
	Pt	Time	Freq	Zreal	Zimag	Zsig	Zmod	Zphz	Idc	Vdc	IERange
	#	s	Hz	ohm	ohm	V	ohm	°	A	V	#
	0	1	1000078	2105.766	-1474.038	1	2570.416	-34.99204	-1.614141E-006	0.0972867	8
	1	3	794390.6	2391.517	-1402.664	1	2772.512	-30.39232	-1.097867E-006	0.0968701	8
	2	4	630984.4	2643.402	-1287.83	1	2940.422	-25.97473	1.533776E-006	0.0962536	8
	3	6	501234.4	2862.406	-1155.87	1	3086.974	-21.98937	-1.606745E-006	0.0964767	8
	4	7	398109.4	3009.705	-1023.883	1	3179.098	-18.78799	7.200073E-007	0.0961647	8
	5	8	316265.6	3139.875	-896.8986	1	3265.462	-15.94188	1.646737E-006	0.0957244	8
	6	10	251203.1	3235.22	-794.9763	1	3331.461	-13.80551	-3.370644E-006	0.0967732	8
	7	11	199546.9	3310.159	-708.985	1	3385.234	-12.08922	-9.368179E-007	0.096272	8
	8	12	158578.1	3363.765	-634.8455	1	3423.148	-10.68776	8.377956E-007	0.0959326	8
	9	14	125953.1	3433.78	-565.9339	1	3480.104	-9.358993	-3.755223E-007	0.0966537	7
	10	15	100078.1	3478.05	-535.738	1	3519.069	-8.756678	-3.492587E-008	0.0960756	7
	11	16	79453.13	3522.964	-526.5371	1	3562.094	-8.500423	-7.117374E-009	0.0959913	7
	12	18	63140.62	3570.001	-531.0023	1	3609.275	-8.460155	2.393527E-008	0.0959916	7
	13	19	50203.12	3619.228	-547.1199	1	3660.348	-8.596334	1.794075E-008	0.0959572	7
	14	20	39890.62	3669.888	-572.8152	1	3714.323	-8.871441	-2.472758E-008	0.0960544	7
	15	22	31640.63	3729.519	-614.8207	1	3779.856	-9.36116	-3.223644E-008	0.0960653	7
	16	23	25171.88	3791.734	-666.8824	1	3849.932	-9.97505	-5.446446E-008	0.0961056	7
	17	24	20015.62	3861.966	-732.487	1	3930.816	-10.73954	9.908386E-009	0.096064	7
	18	26	15890.62	3942.214	-815.3317	1	4025.645	-11.68521	1.898307E-008	0.0960308	7
	19	27	12609.37	4028.633	-906.8006	1	4129.427	-12.68523	-4.932719E-009	0.0960365	7
	20	28	10078.13	4126.154	-1014.164	1	4248.961	-13.80895	2.512764E-008	0.0960272	7
	21	30	8015.625	4236.226	-1140.58	1	4387.086	-15.06921	-4.65301E-009	0.0959778	7
	22	31	6328.125	4364.186	-1292.984	1	4551.695	-16.50306	2.218193E-008	0.0959772	7
	23	32	5015.625	4506.45	-1466.419	1	4739.038	-18.02511	5.951565E-009	0.0959836	7
	24	34	3984.375	4663.163	-1662.714	1	4950.728	-19.62438	-4.691969E-008	0.096095	7
	25	35	3170.956	4840.856	-1890.056	1	5196.75	-21.32758	5.130151E-008	0.0959662	7
	26	36	2527.573	5036.558	-2150.892	1	5476.609	-23.12519	-2.106303E-008	0.0960925	7
	27	38	1976.103	5279.375	-2475.969	1	5831.143	-25.12606	1.971282E-008	0.0960367	7
	28	39	1577.524	5524.864	-2819.047	1	6202.511	-27.03282	4.847142E-008	0.0959773	7
	29	40	1265.625	5804.842	-3201.743	1	6629.28	-28.87956	1.768193E-008	0.0959465	7
	30	42	998.264	6104.714	-3680.153	1	7128.188	-31.08316	-3.866936E-009	0.0959741	7
	31	43	796.875	6427.27	-4211.272	1	7684.049	-33.2336	4.640926E-008	0.0959012	7
	32	44	627.7902	6786.259	-4875.868	1	8356.278	-35.69691	-2.120855E-008	0.0960559	7
	33	46	505.5147	7119.529	-5592.402	1	9053.323	-38.1497	-2.129747E-008	0.0960366	7
	34	47	397.9953	7506.664	-6546	1	9959.92	-41.08925	-6.684236E-010	0.0959734	6
	35	48	315.5048	7881.04	-7702.996	1	11020.3	-44.34544	-1.963578E-010	0.095972	6
	36	50	252.4038	8252.165	-9086.233	1	12274.28	-47.7541	-3.956695E-011	0.0959712	6
	37	51	198.6229	8674.983	-10948.27	1	13968.54	-51.60807	1.651899E-010	0.0959768	6
	38	52	158.3615	9116.533	-13162.99	1	16011.73	-55.29398	3.510625E-010	0.0959718	6
	39	54	125.558	9636.12	-15997.67	1	18675.66	-58.93756	-2.028593E-010	0.0959712	6
	40	55	100.4464	10249.43	-19390.84	1	21932.98	-62.14037	6.931344E-011	0.0959703	6
	41	56	79.00281	11008.81	-23939.38	1	26349.34	-65.3041	6.650118E-011	0.0959717	6
	42	58	63.3446	11940.17	-28944.11	1	31310.21	-67.58263	-1.196261E-010	0.0959726	6
	43	59	49.86702	13366.54	-36114.52	1	38508.74	-69.68971	-8.953477E-010	0.0959668	6
	44	61	39.72458	14872.51	-44093.64	1	46534.29	-71.36107	5.164597E-011	0.09598	6
	45	62	31.6723	17035.73	-53916.84	1	56544.16	-72.46539	-3.095137E-011	0.0959753	6
	46	63	24.93351	19931.17	-66773.41	1	69684.57	-73.38018	-2.171354E-010	0.0959645	6
	47	65	19.86229	23584.93	-81612.05	1	84951.6	-73.88132	-5.627501E-010	0.0959718	6
	48	66	15.83615	28526.73	-99250.7	1	103269	-73.96425	-8.146171E-010	0.0959715	6
	49	67	12.40079	35386.81	-122939.5	1	127931	-73.94211	-1.064346E-009	0.0959733	5
	50	69	9.93114	43755.75	-148193.9	1	154518.6	-73.55023	-7.485536E-010	0.0959827	5
	51	70	7.944915	53968.4	-178740.5	1	186710.3	-73.19898	-3.111514E-010	0.0959713	5
	52	72	6.317385	68255.89	-215379.2	1	225936	-72.41605	-6.525917E-010	0.0959704	5
	53	74	5.008013	86486.01	-259935.9	1	273946.1	-71.59666	-7.945993E-010	0.0959733	5
	54	76	3.945707	109938.9	-312765.8	1	331525.3	-70.63314	3.687522E-010	0.0959825	5
	55	79	3.158693	138403.5	-370362.4	1	395378.1	-69.50941	-3.489505E-010	0.0959873	5
	56	82	2.504006	173906.6	-439751.3	1	472889.8	-68.42289	-6.469217E-010	0.0959686	5
	57	85	1.998082	214742.6	-517154.5	1	559967.1	-67.44987	-1.573233E-009	0.0959566	5
	58	88	1.584686	271683	-609170.8	1	667008.8	-65.96369	-4.924558E-010	0.0960176	5
	59	92	1.266892	315444.1	-719268.4	1	785399.3	-66.31955	-9.943892E-010	0.0959622	5
	60	96	0.999041	410762.5	-842145.9	1	936982.1	-63.99887	-7.492033E-010	0.0960128	5
