EXPLAIN
TAG	EISPOT
TITLE	LABEL	Potentiostatic EIS	Test &Identifier
DATE	LABEL	10/20/2019	Date
TIME	LABEL	9:19:57	Time
NOTES	NOTES	1	&Notes...
	
PSTAT	PSTAT	REF600-11020	Potentiostat
VDC	POTEN	0.00000E+000	T	DC &Voltage (V)
FREQINIT	QUANT	1.00000E+006	Initial Fre&q. (Hz)
FREQFINAL	QUANT	1.00000E+000	Final Fre&q. (Hz)
PTSPERDEC	QUANT	1.00000E+001	Points/&decade
VAC	QUANT	2.50000E+001	AC &Voltage (mV rms)
AREA	QUANT	1.00000E-002	&Area (cm^2)
CONDIT	TWOPARAM	T	5.00000E+000	0.00000E+000	Conditionin&g	Time(s)	E(V)
DELAY	TWOPARAM	T	5.00000E+000	0.00000E+000	Init. De&lay	Time(s)	Stab.(mV/s)
SPEED	SELECTOR	1	&Optimize for:
ZGUESS	QUANT	1.00000E+005	E&stimated Z (ohms)
OCVCURVE	TABLE	19
	Pt	T	Vf	Vm	Ach	Over
	#	s	V vs. Ref.	V	V	bits
	0	0.258333	6.62837E-003	6.62837E-003	5.46466E-004	...........
	1	0.516667	6.62712E-003	6.56312E-003	5.46566E-004	...........
	2	0.775	6.61967E-003	6.51180E-003	5.42999E-004	...........
	3	1.03333	6.60006E-003	6.50509E-003	5.48733E-004	...........
	4	1.29167	6.56972E-003	6.49246E-003	5.48799E-004	...........
	5	1.55	6.53962E-003	6.56992E-003	5.47433E-004	...........
	6	1.80833	6.52436E-003	6.62906E-003	5.44899E-004	...........
	7	2.06667	6.53766E-003	6.86368E-003	5.44199E-004	...........
	8	2.325	6.59222E-003	7.02059E-003	5.46533E-004	...........
	9	2.58333	6.68974E-003	6.93269E-003	5.41566E-004	...........
	10	2.84167	6.80242E-003	6.88145E-003	5.47866E-004	...........
	11	3.1	6.88385E-003	6.82485E-003	5.41966E-004	...........
	12	3.35833	6.90765E-003	6.72806E-003	5.48499E-004	...........
	13	3.61667	6.88040E-003	6.68832E-003	5.44866E-004	...........
	14	3.875	6.82522E-003	6.70496E-003	5.45299E-004	...........
	15	4.13333	6.76769E-003	6.69493E-003	5.48433E-004	...........
	16	4.39167	6.72609E-003	6.69774E-003	5.39799E-004	...........
	17	4.65	6.70480E-003	6.71465E-003	5.41699E-004	...........
	18	4.90833	6.69879E-003	6.71617E-003	5.42466E-004	...........
EOC	QUANT	0.0066988	Open Circuit (V)
PSTATMODEL	IQUANT	4	Pstat Model
PSTATSECTION	LABEL	REF600-11020	Pstat Section
PSTATSERIALNO	LABEL	11020	Pstat Serial Number
CTRLMODE	IQUANT	1	Control Mode
IESTAB	IQUANT	0	I/E Stability
CASPEED	IQUANT	1	Control Amp Speed
CONVENTION	IQUANT	1	Current Convention
ICHRANGE	IQUANT	2	Ich Range
ICHRANGEMODE	TOGGLE	F	Ich Auto Range
ICHOFFSETENABLE	TOGGLE	T	Ich Offset Enable
ICHOFFSET	QUANT	0	Ich Offset (V)
ICHFILTER	IQUANT	3	Ich Filter
VCHRANGE	IQUANT	2	Vch Range
VCHRANGEMODE	TOGGLE	F	Vch Auto Range
VCHOFFSETENABLE	TOGGLE	T	Vch Offset Enable
VCHOFFSET	QUANT	0	Vch Offset (V)
VCHFILTER	IQUANT	3	Vch Filter
ACHRANGE	IQUANT	2	Ach Range
ACHOFFSETENABLE	TOGGLE	F	Ach Offset Enable
ACHOFFSET	QUANT	0	Ach Offset (V)
ACHFILTER	IQUANT	3	Ach Filter
IERANGELOWERLIMIT	IQUANT	1	I/E Range Lower Limit
IERANGEMODE	TOGGLE	F	I/E AutoRange
IERANGE	IQUANT	5	I/E Range
POSFEEDENABLE	TOGGLE	F	Positive Feedback IR Comp
POSFEEDRESISTANCE	QUANT	0	Positive Feedback Resistance (ohm)
ACHSELECT	IQUANT	0	Ach Select
CABLEID	IQUANT	14	Cable ID
DCCALDATE	LABEL	8/19/2019	DC Calibration Date
ACCALDATE	LABEL	8/19/2019	AC Calibration Date
THERMOSELECT	IQUANT	1	Thermo Select
FRAMEWORKVERSION	QUANT	6.33	Framework Version
INSTRUMENTVERSION	LABEL	3.50	Instrument Version
ZCURVE	TABLE
	Pt	Time	Freq	Zreal	Zimag	Zsig	Zmod	Zphz	Idc	Vdc	IERange
	#	s	Hz	ohm	ohm	V	ohm	°	A	V	#
	0	1	1000078	2606.608	-1372.794	1	2946.009	-27.77394	-3.99667E-006	0.009997	8
	1	3	794390.6	2839.269	-1255.276	1	3104.379	-23.85081	-2.151141E-007	0.0090298	8
	2	5	630984.4	3042.047	-1105.366	1	3236.647	-19.96926	-1.331874E-006	0.0088336	8
	3	6	501234.4	3197.382	-967.837	1	3340.652	-16.84089	-5.27237E-007	0.0085112	8
	4	7	398109.4	3308.425	-831.1071	1	3411.219	-14.10144	-3.2542E-006	0.0091139	8
	5	9	316265.6	3400.939	-710.1588	1	3474.293	-11.7946	9.291459E-007	0.0081263	8
	6	10	251203.1	3468.972	-612.0765	1	3522.557	-10.00646	-3.20847E-006	0.0089959	8
	7	12	199546.9	3528.882	-539.9466	1	3569.951	-8.699235	-5.615307E-007	0.0084097	8
	8	13	158578.1	3571.894	-468.9448	1	3602.545	-7.47944	-3.135139E-006	0.0088249	8
	9	15	125953.1	3619.231	-366.9184	1	3637.782	-5.78888	-1.469038E-006	0.0114128	7
	10	16	100078.1	3635.494	-333.5381	1	3650.762	-5.241922	-7.886152E-008	0.0084465	7
	11	18	79453.13	3661.119	-321.1393	1	3675.177	-5.012936	-4.234563E-008	0.0083954	7
	12	19	63140.62	3687.935	-317.9306	1	3701.614	-4.92719	8.406067E-008	0.0081326	7
	13	20	50203.12	3715.641	-321.1086	1	3729.49	-4.939273	-4.781038E-008	0.0083442	7
	14	22	39890.62	3743.633	-332.1115	1	3758.335	-5.069649	-6.407934E-009	0.0083485	7
	15	23	31640.63	3772.992	-351.2271	1	3789.305	-5.318326	9.315876E-008	0.008236	7
	16	24	25171.88	3805.624	-378.5621	1	3824.406	-5.680773	-3.320847E-008	0.0083202	7
	17	26	20015.62	3833.553	-427.8845	1	3857.359	-6.368745	-5.895256E-008	0.0084824	7
	18	27	15890.62	3878.961	-461.8082	1	3906.355	-6.789369	-4.965526E-009	0.00834	7
	19	29	12609.37	3918.587	-520.2834	1	3952.976	-7.563111	1.359693E-007	0.008093	7
	20	30	10078.13	3963.01	-586.5378	1	4006.18	-8.418838	-3.380385E-008	0.0083339	7
	21	31	8015.625	4020.358	-665.9581	1	4075.142	-9.405438	9.23446E-008	0.008237	7
	22	33	6328.125	4064.866	-776.3535	1	4138.34	-10.81277	-7.430792E-010	0.0083135	7
	23	34	5015.625	4122.407	-901.0898	1	4219.74	-12.32998	-5.520294E-009	0.0083436	7
	24	35	3984.375	4186.852	-1067.336	1	4320.756	-14.30155	4.186274E-008	0.0082567	7
	25	37	3170.956	4253.412	-1243.005	1	4431.317	-16.29032	-1.603111E-008	0.0082717	7
	26	38	2527.573	4326.824	-1468.911	1	4569.366	-18.75181	-1.370424E-008	0.0084467	7
	27	39	1976.103	4419.436	-1769.651	1	4760.575	-21.82239	-1.552323E-008	0.0082649	7
	28	41	1577.524	4495.83	-2149.484	1	4983.249	-25.55275	6.874451E-008	0.0081896	7
	29	42	1265.625	4620.26	-2512.58	1	5259.265	-28.53814	8.432008E-008	0.008126	7
	30	44	998.264	4753.205	-3044.285	1	5644.522	-32.63834	1.105281E-008	0.0082245	7
	31	45	796.875	4895.418	-3662.829	1	6114.036	-36.80442	1.544663E-008	0.0082194	7
	32	46	627.7902	5061.663	-4471.357	1	6753.774	-41.45664	-1.175327E-008	0.0084426	7
	33	48	505.5147	5239.356	-5376.689	1	7507.306	-45.74116	-1.803108E-008	0.0083467	7
	34	49	397.9953	5470.401	-6602.896	1	8574.586	-50.35876	4.685566E-009	0.008313	7
	35	50	315.5048	5734.788	-8086.738	1	9913.78	-54.65728	5.892446E-009	0.0083156	7
	36	52	252.4038	6051.5	-9847.53	1	11558.31	-58.42846	5.548489E-010	0.0082501	6
	37	53	198.6229	6467.725	-12181.9	1	13792.4	-62.03487	8.176209E-010	0.0082517	6
	38	55	158.3615	6963.983	-14917.55	1	16463	-64.97535	-2.030273E-010	0.0082463	6
	39	56	125.558	7627.326	-18363.35	1	19884.39	-67.44416	1.325286E-009	0.0082491	6
	40	57	100.4464	8423.667	-22445.12	1	23973.77	-69.42886	2.180736E-009	0.0082506	6
	41	59	79.00281	9554.95	-27891.43	1	29482.69	-71.08974	1.95673E-010	0.0082467	6
	42	60	63.3446	10458.97	-33737.05	1	35321.08	-72.77581	4.429503E-010	0.0082509	6
	43	61	49.86702	13341.75	-41597.06	1	43684.3	-72.21699	1.701857E-009	0.0082497	6
	44	63	39.72458	15506.68	-50951.13	1	53258.57	-73.07268	1.156866E-009	0.0082567	6
	45	64	31.6723	18347.78	-62005.18	1	64662.85	-73.51614	-1.064095E-010	0.0082563	6
	46	66	24.93351	23227.21	-76102.72	1	79568.38	-73.02736	7.847824E-010	0.0082479	6
	47	67	19.86229	28897.13	-92344.36	1	96760.1	-72.62364	5.508706E-010	0.008256	6
	48	68	15.83615	34936.5	-111854.7	1	117183.7	-72.65441	-1.057011E-009	0.0082564	5
	49	70	12.40079	47944.29	-135613	1	143838.5	-70.52958	-1.258467E-009	0.0082618	5
	50	71	9.93114	58796.76	-160773	1	171187.1	-69.91188	-1.992614E-010	0.0082579	5
	51	73	7.944915	73913.92	-189740	1	203628.4	-68.71642	9.95678E-010	0.0082585	5
	52	74	6.317385	93400.99	-225503.7	1	244081.2	-67.50124	1.811277E-010	0.0082686	5
	53	76	5.008013	117650.7	-266267.4	1	291101.4	-66.16167	6.819446E-012	0.0082444	5
	54	79	3.945707	148076.6	-312177.5	1	345516.2	-64.62339	4.284085E-010	0.0082607	5
	55	82	3.158693	181988.9	-361472.5	1	404700.3	-63.27633	-8.801445E-011	0.0082485	5
	56	85	2.504006	223123	-418322.3	1	474106.9	-61.92562	4.273171E-010	0.0082671	5
	57	88	1.998082	269037.3	-480011.2	1	550265.3	-60.73018	3.209051E-010	0.0082699	5
	58	91	1.584686	324465.1	-550867.7	1	639322.1	-59.50161	5.639731E-011	0.0082075	5
	59	95	1.266892	381530.9	-627416.2	1	734313.9	-58.69627	2.540285E-010	0.0082412	5
	60	99	0.999041	451094	-722795.6	1	852008.9	-58.03187	-1.485864E-010	0.0082441	5
