EXPLAIN
TAG	EISPOT
TITLE	LABEL	Potentiostatic EIS	Test &Identifier
DATE	LABEL	10/12/2019	Date
TIME	LABEL	10:49:55	Time
NOTES	NOTES	1	&Notes...
	
PSTAT	PSTAT	REF600-11020	Potentiostat
VDC	POTEN	0.00000E+000	T	DC &Voltage (V)
FREQINIT	QUANT	1.00000E+006	Initial Fre&q. (Hz)
FREQFINAL	QUANT	1.00000E+000	Final Fre&q. (Hz)
PTSPERDEC	QUANT	1.00000E+001	Points/&decade
VAC	QUANT	2.50000E+001	AC &Voltage (mV rms)
AREA	QUANT	1.00000E-002	&Area (cm^2)
CONDIT	TWOPARAM	T	5.00000E+000	0.00000E+000	Conditionin&g	Time(s)	E(V)
DELAY	TWOPARAM	T	5.00000E+000	0.00000E+000	Init. De&lay	Time(s)	Stab.(mV/s)
SPEED	SELECTOR	1	&Optimize for:
ZGUESS	QUANT	1.00000E+004	E&stimated Z (ohms)
OCVCURVE	TABLE	19
	Pt	T	Vf	Vm	Ach	Over
	#	s	V vs. Ref.	V	V	bits
	0	0.258333	6.73000E-003	6.73000E-003	5.54066E-004	...........
	1	0.516667	6.72904E-003	6.67958E-003	5.59332E-004	...........
	2	0.775	6.72342E-003	6.64743E-003	5.57399E-004	...........
	3	1.03333	6.70887E-003	6.63441E-003	5.57699E-004	...........
	4	1.29167	6.68632E-003	6.62621E-003	5.59999E-004	...........
	5	1.55	6.66229E-003	6.61881E-003	5.54233E-004	...........
	6	1.80833	6.64262E-003	6.60951E-003	5.50966E-004	...........
	7	2.06667	6.62868E-003	6.60554E-003	5.61032E-004	...........
	8	2.325	6.61923E-003	6.61478E-003	5.58699E-004	...........
	9	2.58333	6.61346E-003	6.61224E-003	5.56599E-004	...........
	10	2.84167	6.61110E-003	6.61259E-003	5.55966E-004	...........
	11	3.1	6.61109E-003	6.61362E-003	5.60599E-004	...........
	12	3.35833	6.61275E-003	6.65878E-003	5.61599E-004	...........
	13	3.61667	6.61802E-003	6.65927E-003	5.58399E-004	...........
	14	3.875	6.62844E-003	6.65319E-003	5.56466E-004	...........
	15	4.13333	6.64062E-003	6.64461E-003	5.61132E-004	...........
	16	4.39167	6.64894E-003	6.65313E-003	5.60999E-004	...........
	17	4.65	6.65269E-003	6.69698E-003	5.57399E-004	...........
	18	4.90833	6.65807E-003	6.74226E-003	5.62566E-004	...........
EOC	QUANT	0.0066581	Open Circuit (V)
PSTATMODEL	IQUANT	4	Pstat Model
PSTATSECTION	LABEL	REF600-11020	Pstat Section
PSTATSERIALNO	LABEL	11020	Pstat Serial Number
CTRLMODE	IQUANT	1	Control Mode
IESTAB	IQUANT	0	I/E Stability
CASPEED	IQUANT	1	Control Amp Speed
CONVENTION	IQUANT	1	Current Convention
ICHRANGE	IQUANT	2	Ich Range
ICHRANGEMODE	TOGGLE	F	Ich Auto Range
ICHOFFSETENABLE	TOGGLE	T	Ich Offset Enable
ICHOFFSET	QUANT	0	Ich Offset (V)
ICHFILTER	IQUANT	3	Ich Filter
VCHRANGE	IQUANT	2	Vch Range
VCHRANGEMODE	TOGGLE	F	Vch Auto Range
VCHOFFSETENABLE	TOGGLE	T	Vch Offset Enable
VCHOFFSET	QUANT	0	Vch Offset (V)
VCHFILTER	IQUANT	3	Vch Filter
ACHRANGE	IQUANT	2	Ach Range
ACHOFFSETENABLE	TOGGLE	F	Ach Offset Enable
ACHOFFSET	QUANT	0	Ach Offset (V)
ACHFILTER	IQUANT	3	Ach Filter
IERANGELOWERLIMIT	IQUANT	1	I/E Range Lower Limit
IERANGEMODE	TOGGLE	F	I/E AutoRange
IERANGE	IQUANT	6	I/E Range
POSFEEDENABLE	TOGGLE	F	Positive Feedback IR Comp
POSFEEDRESISTANCE	QUANT	0	Positive Feedback Resistance (ohm)
ACHSELECT	IQUANT	0	Ach Select
CABLEID	IQUANT	14	Cable ID
DCCALDATE	LABEL	8/19/2019	DC Calibration Date
ACCALDATE	LABEL	8/19/2019	AC Calibration Date
THERMOSELECT	IQUANT	1	Thermo Select
FRAMEWORKVERSION	QUANT	6.33	Framework Version
INSTRUMENTVERSION	LABEL	3.50	Instrument Version
ZCURVE	TABLE
	Pt	Time	Freq	Zreal	Zimag	Zsig	Zmod	Zphz	Idc	Vdc	IERange
	#	s	Hz	ohm	ohm	V	ohm	°	A	V	#
	0	1	1000078	2663.431	-1776.435	1	3201.498	-33.70219	-6.38739E-006	0.0095388	8
	1	3	794390.6	2997.403	-1651.473	1	3422.249	-28.85336	2.989678E-006	0.0084759	8
	2	4	630984.4	3283.762	-1500.489	1	3610.341	-24.55766	-2.209503E-006	0.0088533	8
	3	5	501234.4	3524.705	-1340.489	1	3771.002	-20.82243	-3.848262E-007	0.0087437	8
	4	7	398109.4	3714.13	-1154.513	1	3889.43	-17.26751	2.080555E-006	0.0079813	8
	5	8	316265.6	3852.111	-973.039	1	3973.105	-14.1763	-3.874413E-006	0.0090405	8
	6	10	251203.1	3937.426	-846.8778	1	4027.471	-12.13849	-2.831763E-006	0.0089433	8
	7	11	199546.9	4025.077	-732.3181	1	4091.153	-10.31154	-3.636334E-007	0.0083364	8
	8	12	158578.1	4089.311	-630.3552	1	4137.609	-8.763004	-5.565368E-007	0.0085135	8
	9	14	125953.1	4158.548	-523.0974	1	4191.318	-7.169493	-9.394502E-007	0.0103767	7
	10	15	100078.1	4180.178	-451.1312	1	4204.451	-6.159608	-1.149613E-008	0.0083394	7
	11	16	79453.13	4212.751	-417.3568	1	4233.375	-5.657825	-4.843551E-008	0.0083687	7
	12	18	63140.62	4244.659	-394.48	1	4262.95	-5.309567	2.293267E-009	0.0082474	7
	13	19	50203.12	4274.718	-381.8064	1	4291.735	-5.103962	9.322382E-009	0.0083996	7
	14	21	39890.62	4303.742	-379.2963	1	4320.423	-5.036564	-4.678997E-008	0.0083634	7
	15	22	31640.63	4336.34	-388.5334	1	4353.712	-5.119995	1.005215E-008	0.0082805	7
	16	23	25171.88	4367.375	-405.9043	1	4386.196	-5.309824	1.664054E-008	0.0082342	7
	17	25	20015.62	4402.39	-438.7669	1	4424.201	-5.691623	9.317679E-009	0.0082727	7
	18	26	15890.62	4435.963	-474.0032	1	4461.216	-6.099176	9.669271E-009	0.0082744	7
	19	27	12609.37	4474.374	-526.8975	1	4505.291	-6.716158	-7.099955E-008	0.0085158	7
	20	29	10078.13	4514.479	-591.5056	1	4553.065	-7.464607	1.155509E-007	0.0081298	7
	21	30	8015.625	4555.087	-662.7008	1	4603.042	-8.27765	-6.141072E-008	0.0084084	7
	22	31	6328.125	4608.25	-778.562	1	4673.557	-9.58954	-1.767976E-008	0.0082811	7
	23	33	5015.625	4661.784	-906.6819	1	4749.137	-11.00619	-1.867052E-008	0.0082783	7
	24	34	3984.375	4723.556	-1050.119	1	4838.877	-12.5339	7.78895E-008	0.0081463	7
	25	36	3170.956	4785.783	-1256.383	1	4947.951	-14.70959	-6.980718E-008	0.0085075	7
	26	37	2527.573	4860.525	-1487.763	1	5083.124	-17.01888	-2.912508E-008	0.0082859	7
	27	38	1976.103	4949.278	-1797.498	1	5265.582	-19.96021	-3.821069E-008	0.0083807	7
	28	40	1577.524	5050.816	-2151.117	1	5489.813	-23.06891	4.389581E-008	0.0082447	7
	29	41	1265.625	5159.977	-2564.571	1	5762.151	-26.42793	9.229927E-008	0.008216	7
	30	42	998.264	5298.921	-3112.816	1	6145.583	-30.43182	1.870661E-008	0.0082206	7
	31	44	796.875	5457.05	-3744.585	1	6618.256	-34.45761	1.180148E-007	0.0081151	7
	32	45	627.7902	5655.721	-4565.97	1	7268.787	-38.91459	-2.950446E-008	0.0082899	7
	33	47	505.5147	5866.789	-5475.399	1	8024.911	-43.02365	-1.09359E-008	0.0083196	7
	34	48	397.9953	6146.954	-6701.373	1	9093.594	-47.47084	7.406241E-009	0.0083068	7
	35	49	315.5048	6475.418	-8168.947	1	10424.14	-51.5966	1.703407E-009	0.0082392	6
	36	51	252.4038	6856.435	-9897.68	1	12040.55	-55.28844	1.698935E-009	0.0082407	6
	37	52	198.6229	7362.125	-12182.05	1	14233.88	-58.85368	1.086205E-009	0.0082471	6
	38	53	158.3615	7968.864	-14835.12	1	16839.94	-61.75699	6.999857E-010	0.0082415	6
	39	55	125.558	8758.191	-18170.33	1	20170.94	-64.26569	9.616959E-010	0.0082481	6
	40	56	100.4464	9769.62	-22065.05	1	24131.14	-66.11794	8.671745E-010	0.008246	6
	41	57	79.00281	11189.54	-27240.96	1	29449.55	-67.66902	8.567017E-010	0.0082456	6
	42	59	63.3446	13110.11	-33054.09	1	35559.07	-68.36544	7.983041E-010	0.0082451	6
	43	60	49.86702	15123.7	-40435.08	1	43170.84	-69.49299	4.266954E-010	0.0082405	6
	44	62	39.72458	18353.55	-48805.29	1	52142.2	-69.39089	1.091427E-009	0.0082458	6
	45	63	31.6723	22288.74	-58638.02	1	62731.21	-69.18784	1.18572E-009	0.0082446	6
	46	64	24.93351	27795.43	-70930.81	1	76182.45	-68.60144	5.280633E-010	0.0082434	6
	47	66	19.86229	34394.77	-84467.27	1	91201.54	-67.84402	1.642413E-009	0.0082489	6
	48	67	15.83615	43028.53	-99588.1	1	108486.1	-66.63252	1.210146E-009	0.0082476	5
	49	69	12.40079	53936.17	-119328.9	1	130952.3	-65.67723	1.681539E-009	0.0082438	5
	50	70	9.93114	64965.89	-139016.4	1	153447.5	-64.95212	1.640718E-010	0.0082509	5
	51	72	7.944915	78598.01	-161922.7	1	179990.6	-64.10786	2.756413E-010	0.008248	5
	52	73	6.317385	95084.2	-187673.3	1	210386	-63.13107	-1.213161E-010	0.0082539	5
	53	75	5.008013	114352	-218414.6	1	246538.7	-62.36549	1.467053E-011	0.0082377	5
	54	78	3.945707	136994	-254699.2	1	289204.2	-61.72571	4.441722E-010	0.0082449	5
	55	81	3.158693	161480.2	-294332.5	1	335719.3	-61.24942	-7.163539E-011	0.0082305	5
	56	84	2.504006	190700.4	-341724	1	391333.5	-60.83612	4.066701E-010	0.0082501	5
	57	87	1.998082	223023.4	-395100.1	1	453699.8	-60.55644	3.668491E-010	0.0082476	5
	58	90	1.584686	262791.1	-458962.4	1	528872	-60.20556	8.20331E-011	0.0081965	5
	59	93	1.266892	304488.1	-530058.8	1	611289.9	-60.12513	2.671416E-010	0.0082329	5
	60	98	0.999041	356708.2	-620078.3	1	715358.6	-60.08977	-1.15269E-010	0.0082447	5
