EXPLAIN
TAG	EISPOT
TITLE	LABEL	Potentiostatic EIS	Test &Identifier
DATE	LABEL	8/16/2017	Date
TIME	LABEL	16:38:36	Time
NOTES	NOTES	1	&Notes...
	
PSTAT	PSTAT	REF600-11020	Potentiostat
VDC	POTEN	0.00000E+000	T	DC &Voltage (V)
FREQINIT	QUANT	1.00000E+006	Initial Fre&q. (Hz)
FREQFINAL	QUANT	1.00000E+000	Final Fre&q. (Hz)
PTSPERDEC	QUANT	1.00000E+001	Points/&decade
VAC	QUANT	2.50000E+001	AC &Voltage (mV rms)
AREA	QUANT	1.00000E-002	&Area (cm^2)
CONDIT	TWOPARAM	T	5.00000E+000	0.00000E+000	Conditionin&g	Time(s)	E(V)
DELAY	TWOPARAM	T	5.00000E+000	0.00000E+000	Init. De&lay	Time(s)	Stab.(mV/s)
SPEED	SELECTOR	0	&Optimize for:
ZGUESS	QUANT	1.00000E+005	E&stimated Z (ohms)
OCVCURVE	TABLE	19
	Pt	T	Vf	Vm	Ach	Over
	#	s	V vs. Ref.	V	V	bits
	0	0.258333	2.77951E-003	2.77951E-003	5.48699E-004	...........
	1	0.516667	2.76713E-003	2.13119E-003	5.50733E-004	...........
	2	0.775	2.69173E-003	1.55081E-003	5.47066E-004	...........
	3	1.03333	2.48131E-003	1.03112E-003	5.51033E-004	...........
	4	1.29167	2.11249E-003	5.50487E-004	5.49533E-004	...........
	5	1.55	1.63562E-003	1.09460E-004	5.50166E-004	...........
	6	1.80833	1.12482E-003	-3.04738E-004	5.47899E-004	...........
	7	2.06667	6.30573E-004	-6.76772E-004	5.50433E-004	...........
	8	2.325	1.73219E-004	-1.01779E-003	5.44133E-004	...........
	9	2.58333	-2.44285E-004	-1.34346E-003	5.43533E-004	...........
	10	2.84167	-6.25728E-004	-1.64298E-003	5.46633E-004	...........
	11	3.1	-9.76498E-004	-1.91116E-003	5.46366E-004	...........
	12	3.35833	-1.30043E-003	-2.15783E-003	5.42333E-004	...........
	13	3.61667	-1.59908E-003	-2.39001E-003	5.47566E-004	...........
	14	3.875	-1.87387E-003	-2.61498E-003	5.47666E-004	...........
	15	4.13333	-2.12793E-003	-2.82630E-003	5.42233E-004	...........
	16	4.39167	-2.36535E-003	-3.02595E-003	5.47133E-004	...........
	17	4.65	-2.58980E-003	-3.23937E-003	5.51933E-004	...........
	18	4.90833	-2.80466E-003	-3.43420E-003	5.48999E-004	...........
EOC	QUANT	-0.0028047	Open Circuit (V)
PSTATMODEL	IQUANT	4	Pstat Model
PSTATSECTION	LABEL	REF600-11020	Pstat Section
PSTATSERIALNO	LABEL	11020	Pstat Serial Number
CTRLMODE	IQUANT	1	Control Mode
IESTAB	IQUANT	0	I/E Stability
CASPEED	IQUANT	1	Control Amp Speed
CONVENTION	IQUANT	1	Current Convention
ICHRANGE	IQUANT	2	Ich Range
ICHRANGEMODE	TOGGLE	F	Ich Auto Range
ICHOFFSETENABLE	TOGGLE	T	Ich Offset Enable
ICHOFFSET	QUANT	0	Ich Offset (V)
ICHFILTER	IQUANT	3	Ich Filter
VCHRANGE	IQUANT	2	Vch Range
VCHRANGEMODE	TOGGLE	F	Vch Auto Range
VCHOFFSETENABLE	TOGGLE	T	Vch Offset Enable
VCHOFFSET	QUANT	0	Vch Offset (V)
VCHFILTER	IQUANT	3	Vch Filter
ACHRANGE	IQUANT	2	Ach Range
ACHOFFSETENABLE	TOGGLE	F	Ach Offset Enable
ACHOFFSET	QUANT	0	Ach Offset (V)
ACHFILTER	IQUANT	3	Ach Filter
IERANGELOWERLIMIT	IQUANT	1	I/E Range Lower Limit
IERANGEMODE	TOGGLE	F	I/E AutoRange
IERANGE	IQUANT	4	I/E Range
POSFEEDENABLE	TOGGLE	F	Positive Feedback IR Comp
POSFEEDRESISTANCE	QUANT	0	Positive Feedback Resistance (ohm)
ACHSELECT	IQUANT	0	Ach Select
CABLEID	IQUANT	14	Cable ID
DCCALDATE	LABEL	8/19/2019	DC Calibration Date
ACCALDATE	LABEL	8/19/2019	AC Calibration Date
THERMOSELECT	IQUANT	1	Thermo Select
FRAMEWORKVERSION	QUANT	6.33	Framework Version
INSTRUMENTVERSION	LABEL	3.50	Instrument Version
ZCURVE	TABLE
	Pt	Time	Freq	Zreal	Zimag	Zsig	Zmod	Zphz	Idc	Vdc	IERange
	#	s	Hz	ohm	ohm	V	ohm	°	A	V	#
	0	1	1000078	2321.49	-1510.484	1	2769.635	-33.05016	-2.930463E-006	-0.0006881	8
	1	2	794390.6	2617.517	-1466.705	1	3000.436	-29.26374	9.855576E-006	-0.0019236	8
	2	2	630984.4	2885.081	-1364.533	1	3191.496	-25.31236	-5.759753E-006	-0.0003166	8
	3	2	501234.4	3113.512	-1266.712	1	3361.326	-22.13862	8.291981E-006	-0.0024719	8
	4	3	398109.4	3282.329	-1142.247	1	3475.401	-19.18784	7.530278E-006	-0.0020512	8
	5	3	316265.6	3436.009	-1025.185	1	3585.689	-16.61327	-3.317388E-006	-0.001288	8
	6	3	251203.1	3557.445	-920.9877	1	3674.729	-14.51464	-1.477047E-006	-0.0007342	8
	7	4	199546.9	3650.834	-824.5532	1	3742.791	-12.72691	-2.287964E-006	-0.001028	8
	8	4	158578.1	3757.107	-812.2651	1	3843.908	-12.19927	6.671121E-006	-0.0024176	8
	9	4	125953.1	3843.587	-644.7556	1	3897.29	-9.52262	-5.755419E-007	-0.0034746	7
	10	5	100078.1	3896.381	-617.7196	1	3945.043	-9.008513	1.234085E-006	-0.0028954	7
	11	5	79453.13	3949.826	-607.926	1	3996.336	-8.749854	-3.515815E-007	-0.0021968	7
	12	5	63140.62	4003.182	-616.3436	1	4050.351	-8.752725	-1.251042E-006	0.0006184	7
	13	5	50203.12	4062.251	-637.3608	1	4111.948	-8.916922	-1.250792E-006	0.0006137	7
	14	6	39890.62	4133.477	-671.6638	1	4187.692	-9.229531	1.113867E-006	-0.0031586	7
	15	6	31640.63	4196.917	-720.8416	1	4258.371	-9.74575	4.447567E-007	-0.0006409	7
	16	6	25171.88	4264.519	-780.8625	1	4335.42	-10.3763	-1.195161E-006	-0.0006503	7
	17	7	20015.62	4348.42	-860.8201	1	4432.806	-11.19759	-1.399395E-006	0.0004206	7
	18	7	15890.62	4444.497	-954.646	1	4545.867	-12.12254	5.531605E-007	-0.0031313	7
	19	7	12609.37	4541.166	-1065.816	1	4664.563	-13.20832	-3.304849E-007	0.0003065	7
	20	8	10078.13	4650.91	-1195.714	1	4802.155	-14.41807	-1.022324E-006	0.0006728	7
	21	8	8015.625	4776.961	-1342.18	1	4961.936	-15.69373	9.497552E-007	-0.0014935	7
	22	8	6328.125	4936.185	-1536.707	1	5169.854	-17.29213	5.533887E-007	-0.0031365	7
	23	9	5015.625	5104.462	-1748.821	1	5395.73	-18.91178	1.332033E-007	-0.0028006	7
	24	9	3984.375	5279.34	-2005	1	5647.252	-20.79589	-3.314006E-007	0.0003012	7
	25	9	3170.956	5505.057	-2256.523	1	5949.583	-22.28873	-1.022321E-006	0.0006662	7
	26	10	2527.573	5756.382	-2567.728	1	6303.107	-24.04004	8.880343E-007	-0.0032593	7
	27	10	1976.103	6047.41	-2944.624	1	6726.215	-25.96253	7.016334E-007	-0.0010162	7
	28	10	1577.524	6397.39	-3308.558	1	7202.302	-27.34679	1.25311E-006	-0.0025429	7
	29	11	1265.625	6668.276	-3769.341	1	7659.885	-29.47794	1.156068E-006	-0.002058	7
	30	11	998.264	7031.482	-4312.025	1	8248.352	-31.51852	1.229115E-006	-0.0029079	7
	31	11	796.875	7369.265	-4902.63	1	8851.093	-33.63506	-3.253849E-007	0.0002912	7
	32	12	627.7902	7735.818	-5687.887	1	9601.82	-36.32579	4.486677E-007	-0.0006519	7
	33	12	505.5147	8058.012	-6565.807	1	10394.29	-39.17374	1.251574E-006	-0.0025406	7
	34	12	397.9953	8424.664	-7751.63	1	11448.26	-42.61752	3.522506E-009	-0.0012243	7
	35	13	315.5048	8798.98	-9228.827	1	12751.21	-46.36588	9.464526E-011	-0.0012873	6
	36	13	252.4038	9186.744	-11014.41	1	14342.71	-50.16965	5.621089E-010	-0.0012898	6
	37	13	198.6229	9665.01	-13428.04	1	16544.63	-54.25505	5.046798E-010	-0.0012946	6
	38	14	158.3615	10210.79	-16279.21	1	19216.48	-57.9029	6.285393E-010	-0.0012864	6
	39	14	125.558	10909.68	-19916.74	1	22708.97	-61.28764	8.444851E-010	-0.0012921	6
	40	14	100.4464	11742.07	-24239.6	1	26933.89	-64.15367	1.933365E-009	-0.0012934	6
	41	15	79.00281	12889.34	-29905.5	1	32564.92	-66.68385	3.316286E-010	-0.0012831	6
	42	15	63.3446	14817.8	-36597.57	1	39483.54	-67.95773	5.979661E-010	-0.0012916	6
	43	15	49.86702	16686.69	-45192.5	1	48174.76	-69.73405	2.926938E-010	-0.0012911	6
	44	16	39.72458	19075.61	-54862.75	1	58084.42	-70.82759	9.709059E-010	-0.0012949	6
	45	16	31.6723	22093.19	-66808.5	1	70366.79	-71.70125	-4.763225E-010	-0.0012904	6
	46	16	24.93351	27019.98	-82092.85	1	86425.2	-71.78159	-2.274091E-010	-0.0012928	6
	47	17	19.86229	32904.2	-99445.9	1	104748.2	-71.69189	-9.059177E-010	-0.0012889	6
	48	17	15.83615	39817.27	-121297.1	1	127665.2	-71.82693	1.811728E-009	-0.0012889	5
	49	17	12.40079	51032.09	-147296.7	1	155886.5	-70.89095	5.657999E-011	-0.0012925	5
	50	18	9.93114	63740.92	-174175.2	1	185472.1	-69.89947	3.229963E-010	-0.0013004	5
	51	18	7.944915	79584.03	-206898.4	1	221676.7	-68.96062	-2.43129E-011	-0.0012852	5
	52	19	6.317385	98750.8	-245500.2	1	264616.9	-68.08788	-1.641635E-010	-0.0012661	5
	53	20	5.008013	123177.7	-290213.4	1	315272.2	-67.00178	1.566551E-010	-0.0012853	5
	54	21	3.945707	153469.2	-342659.1	1	375457.1	-65.87347	-9.819087E-010	-0.0012909	5
	55	22	3.158693	185560.1	-399040.2	1	440074.6	-65.06082	2.673992E-010	-0.0012837	5
	56	24	2.504006	224446.6	-464429.6	1	515820.8	-64.20674	1.296226E-010	-0.0012829	5
	57	25	1.998082	266239.7	-539535.8	1	601649.8	-63.73547	1.187266E-010	-0.001323	5
	58	27	1.584686	314518.7	-627990.3	1	702348.8	-63.39675	2.062233E-010	-0.0012832	5
	59	28	1.266892	369203.9	-731318.1	1	819229.9	-63.2132	2.254909E-010	-0.0012555	5
	60	31	0.999041	418711.2	-863910.5	1	960032	-64.14194	1.000877E-009	-0.001251	5
