EXPLAIN
TAG	EISPOT
TITLE	LABEL	Potentiostatic IDE	Test &Identifier
DATE	LABEL	9/10/2019	Date
TIME	LABEL	9:15:28	Time
NOTES	NOTES	1	&Notes...
	
PSTAT	PSTAT	REF600-11020	Potentiostat
VDC	POTEN	0.00000E+000	T	DC &Voltage (V)
FREQINIT	QUANT	1.00000E+006	Initial Fre&q. (Hz)
FREQFINAL	QUANT	1.00000E+000	Final Fre&q. (Hz)
PTSPERDEC	QUANT	1.00000E+001	Points/&decade
VAC	QUANT	2.50000E+001	AC &Voltage (mV rms)
AREA	QUANT	1.00000E-002	&Area (cm^2)
CONDIT	TWOPARAM	T	5.00000E+000	0.00000E+000	Conditionin&g	Time(s)	E(V)
DELAY	TWOPARAM	T	5.00000E+000	0.00000E+000	Init. De&lay	Time(s)	Stab.(mV/s)
SPEED	SELECTOR	1	&Optimize for:
ZGUESS	QUANT	1.00000E+007	E&stimated Z (ohms)
OCVCURVE	TABLE	19
	Pt	T	Vf	Vm	Ach	Over
	#	s	V vs. Ref.	V	V	bits
	0	0.258333	3.67562E-003	3.67562E-003	5.68532E-004	...........
	1	0.516667	3.66773E-003	3.26270E-003	5.64966E-004	...........
	2	0.775	3.61973E-003	2.89425E-003	5.67099E-004	...........
	3	1.03333	3.48610E-003	2.57724E-003	5.69132E-004	...........
	4	1.29167	3.25255E-003	2.25561E-003	5.64099E-004	...........
	5	1.55	2.95087E-003	1.98324E-003	5.71166E-004	...........
	6	1.80833	2.62731E-003	1.72963E-003	5.63199E-004	...........
	7	2.06667	2.31439E-003	1.49351E-003	5.68166E-004	...........
	8	2.325	2.02584E-003	1.26341E-003	5.68932E-004	...........
	9	2.58333	1.76208E-003	1.04443E-003	5.72299E-004	...........
	10	2.84167	1.51773E-003	8.34743E-004	5.67032E-004	...........
	11	3.1	1.28732E-003	6.31090E-004	5.70532E-004	...........
	12	3.35833	1.06744E-003	4.39962E-004	5.66566E-004	...........
	13	3.61667	8.56742E-004	2.63236E-004	5.71032E-004	...........
	14	3.875	6.55922E-004	1.16996E-004	5.72632E-004	...........
	15	4.13333	4.66457E-004	-8.33145E-005	5.63199E-004	...........
	16	4.39167	2.86868E-004	-2.47555E-004	5.65099E-004	...........
	17	4.65	1.14392E-004	-3.04675E-004	5.64732E-004	...........
	18	4.90833	-4.78453E-005	-4.85280E-004	5.67466E-004	...........
EOC	QUANT	-4.784531E-005	Open Circuit (V)
PSTATMODEL	IQUANT	4	Pstat Model
PSTATSECTION	LABEL	REF600-11020	Pstat Section
PSTATSERIALNO	LABEL	11020	Pstat Serial Number
CTRLMODE	IQUANT	1	Control Mode
IESTAB	IQUANT	0	I/E Stability
CASPEED	IQUANT	1	Control Amp Speed
CONVENTION	IQUANT	1	Current Convention
ICHRANGE	IQUANT	2	Ich Range
ICHRANGEMODE	TOGGLE	F	Ich Auto Range
ICHOFFSETENABLE	TOGGLE	T	Ich Offset Enable
ICHOFFSET	QUANT	0	Ich Offset (V)
ICHFILTER	IQUANT	3	Ich Filter
VCHRANGE	IQUANT	2	Vch Range
VCHRANGEMODE	TOGGLE	F	Vch Auto Range
VCHOFFSETENABLE	TOGGLE	T	Vch Offset Enable
VCHOFFSET	QUANT	0	Vch Offset (V)
VCHFILTER	IQUANT	3	Vch Filter
ACHRANGE	IQUANT	2	Ach Range
ACHOFFSETENABLE	TOGGLE	F	Ach Offset Enable
ACHOFFSET	QUANT	0	Ach Offset (V)
ACHFILTER	IQUANT	3	Ach Filter
IERANGELOWERLIMIT	IQUANT	1	I/E Range Lower Limit
IERANGEMODE	TOGGLE	F	I/E AutoRange
IERANGE	IQUANT	1	I/E Range
POSFEEDENABLE	TOGGLE	F	Positive Feedback IR Comp
POSFEEDRESISTANCE	QUANT	0	Positive Feedback Resistance (ohm)
ACHSELECT	IQUANT	0	Ach Select
CABLEID	IQUANT	14	Cable ID
DCCALDATE	LABEL	8/19/2019	DC Calibration Date
ACCALDATE	LABEL	8/19/2019	AC Calibration Date
THERMOSELECT	IQUANT	1	Thermo Select
FRAMEWORKVERSION	QUANT	6.33	Framework Version
INSTRUMENTVERSION	LABEL	3.50	Instrument Version
ZCURVE	TABLE
	Pt	Time	Freq	Zreal	Zimag	Zsig	Zmod	Zphz	Idc	Vdc	IERange
	#	s	Hz	ohm	ohm	V	ohm	°	A	V	#
	0	1	1000078	2521.245	-2106.138	1	3285.193	-39.87391	4.803485E-006	0.0015931	8
	1	3	794390.6	2931.515	-2078.417	1	3593.549	-35.33628	-2.307161E-006	0.0019314	8
	2	4	630984.4	3342.555	-1987.363	1	3888.739	-30.73419	-3.373358E-007	0.0020549	8
	3	6	501234.4	3704.804	-1836.456	1	4134.991	-26.36742	-5.167249E-008	0.0019184	8
	4	7	398109.4	3998.028	-1650.349	1	4325.261	-22.43039	-3.268217E-006	0.0023181	8
	5	8	316265.6	4253.85	-1468.768	1	4500.28	-19.04875	-2.99042E-007	0.0018976	8
	6	10	251203.1	4437.875	-1297.409	1	4623.635	-16.29624	3.136556E-006	0.0011398	8
	7	11	199546.9	4568.174	-1140.395	1	4708.366	-14.01678	-1.64609E-006	0.0019961	8
	8	12	158578.1	4683.851	-996.183	1	4788.615	-12.00702	-5.713641E-007	0.0017744	8
	9	14	125953.1	4790.383	-852.6184	1	4865.668	-10.09213	8.535807E-007	3.569217E-006	7
	10	15	100078.1	4851.979	-797.1821	1	4917.032	-9.330359	-2.034889E-008	0.0016608	7
	11	16	79453.13	4917.352	-751.5341	1	4974.45	-8.689452	5.36909E-008	0.0015328	7
	12	18	63140.62	4980.245	-733.0267	1	5033.902	-8.373067	-3.520403E-008	0.0016583	7
	13	19	50203.12	5036.531	-729.3053	1	5089.06	-8.239338	-4.037293E-009	0.001649	7
	14	20	39890.62	5104.481	-755.5128	1	5160.09	-8.419209	3.156913E-008	0.0015124	7
	15	22	31640.63	5161.874	-786.9062	1	5221.509	-8.667769	8.97708E-008	0.0014918	7
	16	23	25171.88	5235.008	-846.6665	1	5303.032	-9.186991	-5.234349E-009	0.0016212	7
	17	24	20015.62	5311.606	-923.5766	1	5391.303	-9.86391	1.519659E-008	0.001675	7
	18	26	15890.62	5398.319	-1023.262	1	5494.444	-10.73319	1.571852E-008	0.0016705	7
	19	27	12609.37	5489.71	-1146.101	1	5608.072	-11.79241	-5.126246E-008	0.0016768	7
	20	28	10078.13	5591.678	-1289.111	1	5738.351	-12.9822	3.272867E-008	0.0015173	7
	21	30	8015.625	5715.563	-1474.364	1	5902.661	-14.46446	9.16195E-008	0.0014866	7
	22	31	6328.125	5839.973	-1695.969	1	6081.25	-16.19367	-3.235648E-008	0.0016486	7
	23	32	5015.625	5992.32	-1956.302	1	6303.572	-18.08022	6.389273E-008	0.0014746	7
	24	34	3984.375	6158.461	-2264.484	1	6561.595	-20.18862	-1.236189E-008	0.0015902	7
	25	35	3170.956	6347.286	-2637.878	1	6873.604	-22.56735	-4.376256E-008	0.0016743	7
	26	36	2527.573	6558.711	-3065.187	1	7239.618	-25.04884	5.349607E-009	0.0015728	7
	27	37	1976.103	6832.607	-3624.246	1	7734.318	-27.943	-4.2543E-008	0.0016712	7
	28	39	1577.524	7095.014	-4253.501	1	8272.333	-30.94293	6.659781E-008	0.0014773	7
	29	40	1265.625	7399.889	-4969.666	1	8913.806	-33.88478	5.750781E-008	0.0015145	7
	30	42	998.264	7769.371	-5900.911	1	9756.22	-37.21701	9.121683E-010	0.0015845	6
	31	43	796.875	8176.545	-6961.237	1	10738.47	-40.40996	-1.505254E-009	0.001474	6
	32	44	627.7902	8658.14	-8320.746	1	12008.26	-43.86161	-6.83155E-009	0.0016152	6
	33	46	505.5147	9153.558	-9778.48	1	13394.26	-46.89056	-9.251924E-009	0.0016904	6
	34	47	397.9953	9784.59	-11783.7	1	15316.45	-50.29547	1.088116E-009	0.0015697	6
	35	48	315.5048	10485	-14138.32	1	17601.91	-53.43932	6.144155E-010	0.0015671	6
	36	50	252.4038	11260.6	-16892.35	1	20301.54	-56.31221	1.005514E-009	0.0015586	6
	37	51	198.6229	12237.5	-20506.13	1	23880.07	-59.17239	8.619296E-010	0.0015624	6
	38	52	158.3615	13338.04	-24691.06	1	28063.35	-61.62221	8.488482E-010	0.0015618	6
	39	53	125.558	14700.55	-29932.96	1	33347.99	-63.84361	9.064404E-010	0.0015629	6
	40	55	100.4464	16291.67	-36044.29	1	39555.14	-65.6775	6.084153E-010	0.0015592	6
	41	56	79.00281	18321.14	-44125.58	1	47777.94	-67.45155	4.313821E-010	0.0015543	6
	42	57	63.3446	21093.78	-53460.84	1	57471.8	-68.46754	5.567141E-010	0.0015543	6
	43	59	49.86702	23754.38	-65023.18	1	69226.33	-69.93165	3.876279E-010	0.0015543	6
	44	60	39.72458	28013.25	-78955.75	1	83778	-70.46548	8.506343E-010	0.001563	6
	45	62	31.6723	33055.39	-95326.8	1	100895.3	-70.87556	1.091402E-009	0.0015618	6
	46	63	24.93351	39728.59	-116673.1	1	123251.7	-71.19568	3.843152E-010	0.0015606	5
	47	64	19.86229	47761.86	-141079.6	1	148945.1	-71.29671	1.722483E-010	0.0015617	5
	48	66	15.83615	58085.39	-170750.8	1	180360	-71.21291	9.823967E-010	0.0015707	5
	49	67	12.40079	73181.58	-206562.1	1	219142.5	-70.49159	8.913785E-010	0.0015647	5
	50	68	9.93114	90798.31	-247708.7	1	263825.6	-69.86945	1.450351E-010	0.0015791	5
	51	70	7.944915	113251.1	-294060.9	1	315115.2	-68.93691	-1.483831E-012	0.0015668	5
	52	71	6.317385	142964.1	-351269.1	1	379247.6	-67.85402	1.302639E-010	0.0015765	5
	53	74	5.008013	181497	-416945.2	1	454735.6	-66.47642	6.124693E-011	0.0015587	5
	54	76	3.945707	231538.4	-492489	1	544201.7	-64.81994	4.232244E-010	0.0015771	5
	55	79	3.158693	289961	-570757.2	1	640188.4	-63.06812	2.482978E-010	0.0015824	5
	56	82	2.504006	362811.7	-660561	1	753639.9	-61.22231	2.982042E-010	0.0015601	5
	57	85	1.998082	445045.9	-755254.9	1	876627.6	-59.49061	2.873051E-011	0.0015591	5
	58	88	1.584686	547046.9	-856884.6	1	1016618	-57.44528	1.511803E-010	0.0016132	4
	59	92	1.266892	654144.8	-964404	1	1165325	-55.85139	2.626588E-011	0.0015806	4
	60	96	0.999041	782649.3	-1084907	1	1337745	-54.19341	3.664367E-010	0.0015795	4
