EXPLAIN
TAG	EISPOT
TITLE	LABEL	Potentiostatic EIS	Test &Identifier
DATE	LABEL	11/22/2019	Date
TIME	LABEL	0:50:39	Time
NOTES	NOTES	4	&Notes...
	
	
	
	
PSTAT	PSTAT	REF600-11020	Potentiostat
VDC	POTEN	0.00000E+000	T	DC &Voltage (V)
FREQINIT	QUANT	1.00000E+006	Initial Fre&q. (Hz)
FREQFINAL	QUANT	1.00000E+000	Final Fre&q. (Hz)
PTSPERDEC	QUANT	1.00000E+001	Points/&decade
VAC	QUANT	2.50000E+001	AC &Voltage (mV rms)
AREA	QUANT	1.00000E-002	&Area (cm^2)
CONDIT	TWOPARAM	T	5.00000E+000	0.00000E+000	Conditionin&g	Time(s)	E(V)
DELAY	TWOPARAM	T	5.00000E+000	0.00000E+000	Init. De&lay	Time(s)	Stab.(mV/s)
SPEED	SELECTOR	1	&Optimize for:
ZGUESS	QUANT	1.00000E+005	E&stimated Z (ohms)
OCVCURVE	TABLE	19
	Pt	T	Vf	Vm	Ach	Over
	#	s	V vs. Ref.	V	V	bits
	0	0.258333	4.54691E-003	4.54691E-003	5.65666E-004	...........
	1	0.516667	4.54453E-003	4.42240E-003	5.59732E-004	...........
	2	0.775	4.52981E-003	4.29831E-003	5.60399E-004	...........
	3	1.03333	4.48812E-003	4.19724E-003	5.59632E-004	...........
	4	1.29167	4.41473E-003	4.12356E-003	5.61966E-004	...........
	5	1.55	4.32121E-003	4.03847E-003	5.50899E-004	...........
	6	1.80833	4.22460E-003	3.99008E-003	5.59099E-004	...........
	7	2.06667	4.13581E-003	3.90680E-003	5.56133E-004	...........
	8	2.325	4.05726E-003	3.85425E-003	5.56333E-004	...........
	9	2.58333	3.98685E-003	3.81174E-003	5.56299E-004	...........
	10	2.84167	3.92335E-003	3.77624E-003	5.57333E-004	...........
	11	3.1	3.86781E-003	3.74109E-003	5.55066E-004	...........
	12	3.35833	3.82070E-003	3.70951E-003	5.56566E-004	...........
	13	3.61667	3.78055E-003	3.67850E-003	5.62732E-004	...........
	14	3.875	3.74510E-003	3.64956E-003	5.56466E-004	...........
	15	4.13333	3.71254E-003	3.62126E-003	5.59666E-004	...........
	16	4.39167	3.68198E-003	3.60243E-003	5.61399E-004	...........
	17	4.65	3.65341E-003	3.57518E-003	5.62932E-004	...........
	18	4.90833	3.62693E-003	3.55278E-003	5.55466E-004	...........
EOC	QUANT	0.0036269	Open Circuit (V)
PSTATMODEL	IQUANT	4	Pstat Model
PSTATSECTION	LABEL	REF600-11020	Pstat Section
PSTATSERIALNO	LABEL	11020	Pstat Serial Number
CTRLMODE	IQUANT	1	Control Mode
IESTAB	IQUANT	0	I/E Stability
CASPEED	IQUANT	1	Control Amp Speed
CONVENTION	IQUANT	1	Current Convention
ICHRANGE	IQUANT	2	Ich Range
ICHRANGEMODE	TOGGLE	F	Ich Auto Range
ICHOFFSETENABLE	TOGGLE	T	Ich Offset Enable
ICHOFFSET	QUANT	0	Ich Offset (V)
ICHFILTER	IQUANT	3	Ich Filter
VCHRANGE	IQUANT	2	Vch Range
VCHRANGEMODE	TOGGLE	F	Vch Auto Range
VCHOFFSETENABLE	TOGGLE	T	Vch Offset Enable
VCHOFFSET	QUANT	0	Vch Offset (V)
VCHFILTER	IQUANT	3	Vch Filter
ACHRANGE	IQUANT	2	Ach Range
ACHOFFSETENABLE	TOGGLE	F	Ach Offset Enable
ACHOFFSET	QUANT	0	Ach Offset (V)
ACHFILTER	IQUANT	3	Ach Filter
IERANGELOWERLIMIT	IQUANT	1	I/E Range Lower Limit
IERANGEMODE	TOGGLE	F	I/E AutoRange
IERANGE	IQUANT	4	I/E Range
POSFEEDENABLE	TOGGLE	F	Positive Feedback IR Comp
POSFEEDRESISTANCE	QUANT	0	Positive Feedback Resistance (ohm)
ACHSELECT	IQUANT	0	Ach Select
CABLEID	IQUANT	14	Cable ID
DCCALDATE	LABEL	8/19/2019	DC Calibration Date
ACCALDATE	LABEL	8/19/2019	AC Calibration Date
THERMOSELECT	IQUANT	1	Thermo Select
FRAMEWORKVERSION	QUANT	6.33	Framework Version
INSTRUMENTVERSION	LABEL	3.50	Instrument Version
ZCURVE	TABLE
	Pt	Time	Freq	Zreal	Zimag	Zsig	Zmod	Zphz	Idc	Vdc	IERange
	#	s	Hz	ohm	ohm	V	ohm	°	A	V	#
	0	1	1000078	2075.291	-1504.992	1	2563.559	-35.94947	1.629983E-006	0.0066939	8
	1	2	794390.6	2370.378	-1479.017	1	2793.955	-31.96245	3.688554E-007	0.0061626	8
	2	4	630984.4	2651.171	-1423.541	1	3009.182	-28.23348	6.736225E-006	0.0047076	8
	3	5	501234.4	2898.408	-1315.83	1	3183.108	-24.41727	6.666347E-006	0.0045531	8
	4	6	398109.4	3102.36	-1193.935	1	3324.172	-21.04909	5.463905E-006	0.0046261	8
	5	8	316265.6	3283.461	-1095.717	1	3461.461	-18.45426	-2.899183E-006	0.0052279	8
	6	9	251203.1	3429.95	-978.016	1	3566.661	-15.91498	-7.416899E-007	0.0057233	8
	7	10	199546.9	3551.258	-886.0624	1	3660.128	-14.00964	-6.52764E-007	0.0050139	8
	8	12	158578.1	3652.811	-802.1871	1	3739.857	-12.386	-1.491427E-006	0.0050656	8
	9	13	125953.1	3757.179	-673.7499	1	3817.11	-10.16642	1.610457E-006	-0.0001428	7
	10	14	100078.1	3825.891	-617.9982	1	3875.482	-9.175762	1.08277E-006	0.0037755	7
	11	16	79453.13	3886.687	-580.524	1	3929.802	-8.495022	9.757618E-007	0.0035489	7
	12	17	63140.62	3930.735	-553.6645	1	3969.536	-8.017663	-1.221891E-006	0.0063428	7
	13	18	50203.12	3987.73	-541.7563	1	4024.362	-7.736599	-6.106465E-007	0.0068308	7
	14	20	39890.62	4037.876	-536.7912	1	4073.4	-7.572443	-1.22543E-006	0.0067035	7
	15	21	31640.63	4092.579	-544.6085	1	4128.656	-7.579943	-1.225427E-006	0.0066963	7
	16	23	25171.88	4152.397	-563.724	1	4190.487	-7.731135	-2.774589E-007	0.0065818	7
	17	24	20015.62	4221.859	-592.164	1	4263.186	-7.984301	1.105781E-006	0.0040858	7
	18	25	15890.62	4271.577	-627.8445	1	4317.472	-8.361572	1.053183E-007	0.0038864	7
	19	27	12609.37	4339.337	-679.8809	1	4392.275	-8.904625	4.765907E-007	0.0035748	7
	20	28	10078.13	4409.292	-741.9566	1	4471.281	-9.55174	4.758859E-007	0.0035752	7
	21	29	8015.625	4476.906	-817.2565	1	4550.89	-10.3454	1.105975E-006	0.0040762	7
	22	31	6328.125	4550.222	-912.8314	1	4640.882	-11.34367	8.456785E-007	0.0049885	7
	23	32	5015.625	4613.219	-1027.722	1	4726.31	-12.55913	-1.222049E-006	0.0063292	7
	24	34	3984.375	4707.357	-1171.441	1	4850.926	-13.97438	8.44029E-008	0.0061699	7
	25	35	3170.956	4787.14	-1348.124	1	4973.343	-15.72794	4.0452E-007	0.0057385	7
	26	36	2527.573	4879.417	-1566.067	1	5124.576	-17.79422	8.447909E-007	0.0049776	7
	27	38	1976.103	4982.807	-1856.126	1	5317.29	-20.43067	9.784528E-007	0.0035297	7
	28	39	1577.524	5039.408	-2162.344	1	5483.736	-23.22354	-1.222721E-006	0.0063321	7
	29	40	1265.625	5189.234	-2579.505	1	5794.998	-26.43141	4.046622E-007	0.005745	7
	30	42	998.264	5316.983	-3097.751	1	6153.566	-30.2257	-8.872103E-007	0.0069123	7
	31	43	796.875	5463.927	-3711.615	1	6605.345	-34.18805	-1.221697E-006	0.0063319	7
	32	45	627.7902	5646.462	-4530.239	1	7239.171	-38.74059	-3.254656E-007	0.0044014	7
	33	46	505.5147	5836.166	-5456.229	1	7989.447	-43.07299	1.020301E-006	0.0045041	7
	34	47	397.9953	6093.539	-6675.438	1	9038.4	-47.60924	6.75302E-009	0.0052498	7
	35	49	315.5048	6403.218	-8160.856	1	10373.08	-51.88136	1.062081E-009	0.0051995	6
	36	50	252.4038	6769.389	-9913.35	1	12004.13	-55.67257	3.12236E-010	0.0051928	6
	37	51	198.6229	7267.869	-12226.57	1	14223.6	-59.27137	8.160546E-010	0.0051941	6
	38	53	158.3615	7869.064	-14916.02	1	16864.46	-62.18576	9.562761E-010	0.0051961	6
	39	54	125.558	8670.946	-18273.9	1	20226.73	-64.61572	1.068136E-009	0.0051956	6
	40	56	100.4464	9677.39	-22212.94	1	24229.46	-66.45895	7.48855E-010	0.0051847	6
	41	57	79.00281	11022.14	-27284.67	1	29426.87	-68.00286	2.910007E-010	0.0051916	6
	42	58	63.3446	12432.37	-33089.59	1	35348.05	-69.40788	6.451601E-010	0.005182	6
	43	60	49.86702	15130.91	-40330.48	1	43075.42	-69.43526	1.141238E-009	0.0051848	6
	44	61	39.72458	17847.84	-49070.3	1	52215.32	-70.01267	5.544458E-010	0.0051964	6
	45	62	31.6723	21509.1	-59306.45	1	63086.42	-70.06544	1.317654E-009	0.0051921	6
	46	64	24.93351	26554.19	-71889.19	1	76636.68	-69.72694	5.568159E-010	0.0051885	6
	47	65	19.86229	32700.57	-86234.27	1	92226.22	-69.23296	5.217249E-010	0.0051959	6
	48	66	15.83615	40586.56	-103552	1	111221.8	-68.59762	1.69196E-009	0.0051897	5
	49	68	12.40079	52128.99	-124730.5	1	135185.5	-67.31834	1.549867E-009	0.0052039	5
	50	69	9.93114	64630.5	-146035.3	1	159697.9	-66.12737	1.402822E-010	0.0052067	5
	51	71	7.944915	80193.95	-170090.1	1	188047.1	-64.7571	9.989451E-010	0.0051905	5
	52	73	6.317385	100046.4	-197988.3	1	221830.2	-63.19187	7.222472E-010	0.0051824	5
	53	75	5.008013	123693.5	-229478.3	1	260692.1	-61.67441	4.616886E-010	0.0052074	5
	54	77	3.945707	152014	-264461.5	1	305037.9	-60.10946	-6.466522E-011	0.0051953	5
	55	80	3.158693	181872	-300355.1	1	351127.7	-58.80411	2.760226E-010	0.0051888	5
	56	83	2.504006	216290.9	-342191.3	1	404816.8	-57.70401	-1.510358E-010	0.0051969	5
	57	86	1.998082	252030.5	-387056.9	1	461879.2	-56.93001	2.602173E-010	0.0051463	5
	58	89	1.584686	292091.4	-442032.2	1	529820.6	-56.54359	-2.235095E-011	0.0051555	5
	59	93	1.266892	334797.5	-501896.5	1	603315.4	-56.29414	2.243315E-010	0.0051452	5
	60	97	0.999041	384127.6	-578277.3	1	694232.4	-56.40543	-5.85875E-011	0.0052082	5
