EXPLAIN
TAG	EISPOT
TITLE	LABEL	Potentiostatic IDE	Test &Identifier
DATE	LABEL	9/10/2019	Date
TIME	LABEL	8:02:16	Time
NOTES	NOTES	1	&Notes...
	
PSTAT	PSTAT	REF600-11020	Potentiostat
VDC	POTEN	0.00000E+000	T	DC &Voltage (V)
FREQINIT	QUANT	1.00000E+006	Initial Fre&q. (Hz)
FREQFINAL	QUANT	1.00000E+000	Final Fre&q. (Hz)
PTSPERDEC	QUANT	1.00000E+001	Points/&decade
VAC	QUANT	2.50000E+001	AC &Voltage (mV rms)
AREA	QUANT	1.00000E-002	&Area (cm^2)
CONDIT	TWOPARAM	T	5.00000E+000	0.00000E+000	Conditionin&g	Time(s)	E(V)
DELAY	TWOPARAM	T	5.00000E+000	0.00000E+000	Init. De&lay	Time(s)	Stab.(mV/s)
SPEED	SELECTOR	1	&Optimize for:
ZGUESS	QUANT	1.00000E+007	E&stimated Z (ohms)
OCVCURVE	TABLE	19
	Pt	T	Vf	Vm	Ach	Over
	#	s	V vs. Ref.	V	V	bits
	0	0.258333	5.53744E-003	5.53744E-003	5.60532E-004	...........
	1	0.516667	5.53883E-003	5.61020E-003	5.59466E-004	...........
	2	0.775	5.54752E-003	5.68751E-003	5.58599E-004	...........
	3	1.03333	5.57278E-003	5.76859E-003	5.61366E-004	...........
	4	1.29167	5.61966E-003	5.85104E-003	5.58166E-004	...........
	5	1.55	5.68502E-003	5.93284E-003	5.55333E-004	...........
	6	1.80833	5.76152E-003	6.01272E-003	5.58032E-004	...........
	7	2.06667	5.84262E-003	6.09113E-003	5.62332E-004	...........
	8	2.325	5.92441E-003	6.17194E-003	5.55599E-004	...........
	9	2.58333	6.00541E-003	6.25018E-003	5.57532E-004	...........
	10	2.84167	6.08543E-003	6.32460E-003	5.63032E-004	...........
	11	3.1	6.16440E-003	6.39986E-003	5.63599E-004	...........
	12	3.35833	6.24215E-003	6.47793E-003	5.63666E-004	...........
	13	3.61667	6.31875E-003	6.54684E-003	5.68832E-004	...........
	14	3.875	6.39428E-003	6.61819E-003	5.66232E-004	...........
	15	4.13333	6.46841E-003	6.68643E-003	5.62066E-004	...........
	16	4.39167	6.54072E-003	6.75245E-003	5.67666E-004	...........
	17	4.65	6.61114E-003	6.81913E-003	5.61266E-004	...........
	18	4.90833	6.67987E-003	6.88681E-003	5.57166E-004	...........
EOC	QUANT	0.0066799	Open Circuit (V)
PSTATMODEL	IQUANT	4	Pstat Model
PSTATSECTION	LABEL	REF600-11020	Pstat Section
PSTATSERIALNO	LABEL	11020	Pstat Serial Number
CTRLMODE	IQUANT	1	Control Mode
IESTAB	IQUANT	0	I/E Stability
CASPEED	IQUANT	1	Control Amp Speed
CONVENTION	IQUANT	1	Current Convention
ICHRANGE	IQUANT	2	Ich Range
ICHRANGEMODE	TOGGLE	F	Ich Auto Range
ICHOFFSETENABLE	TOGGLE	T	Ich Offset Enable
ICHOFFSET	QUANT	0	Ich Offset (V)
ICHFILTER	IQUANT	3	Ich Filter
VCHRANGE	IQUANT	2	Vch Range
VCHRANGEMODE	TOGGLE	F	Vch Auto Range
VCHOFFSETENABLE	TOGGLE	T	Vch Offset Enable
VCHOFFSET	QUANT	0	Vch Offset (V)
VCHFILTER	IQUANT	3	Vch Filter
ACHRANGE	IQUANT	2	Ach Range
ACHOFFSETENABLE	TOGGLE	F	Ach Offset Enable
ACHOFFSET	QUANT	0	Ach Offset (V)
ACHFILTER	IQUANT	3	Ach Filter
IERANGELOWERLIMIT	IQUANT	1	I/E Range Lower Limit
IERANGEMODE	TOGGLE	F	I/E AutoRange
IERANGE	IQUANT	3	I/E Range
POSFEEDENABLE	TOGGLE	F	Positive Feedback IR Comp
POSFEEDRESISTANCE	QUANT	0	Positive Feedback Resistance (ohm)
ACHSELECT	IQUANT	0	Ach Select
CABLEID	IQUANT	14	Cable ID
DCCALDATE	LABEL	8/19/2019	DC Calibration Date
ACCALDATE	LABEL	8/19/2019	AC Calibration Date
THERMOSELECT	IQUANT	1	Thermo Select
FRAMEWORKVERSION	QUANT	6.33	Framework Version
INSTRUMENTVERSION	LABEL	3.50	Instrument Version
ZCURVE	TABLE
	Pt	Time	Freq	Zreal	Zimag	Zsig	Zmod	Zphz	Idc	Vdc	IERange
	#	s	Hz	ohm	ohm	V	ohm	°	A	V	#
	0	2	1000078	1739.12	-500.6745	1	1809.755	-16.06056	-3.226937E-006	0.009113	8
	1	3	794390.6	1804.368	-423.6487	1	1853.436	-13.21318	1.254949E-006	0.0088917	8
	2	4	630984.4	1847.17	-361.6364	1	1882.237	-11.07718	-1.849741E-007	0.008676	8
	3	6	501234.4	1880.327	-310.1171	1	1905.729	-9.365326	-3.989179E-007	0.0085312	8
	4	7	398109.4	1909.253	-272.2389	1	1928.564	-8.115059	-1.196557E-006	0.0088045	8
	5	8	316265.6	1930.571	-237.3238	1	1945.103	-7.008174	4.128239E-007	0.0082923	8
	6	10	251203.1	1946.616	-211.1166	1	1958.031	-6.189714	-1.011334E-006	0.0086158	8
	7	11	199546.9	1965.55	-192.5807	1	1974.961	-5.595868	-4.112987E-007	0.0083184	8
	8	12	158578.1	1981.456	-178.5405	1	1989.484	-5.14877	1.014462E-007	0.0085055	8
	9	14	125953.1	2005.777	-157.837	1	2011.977	-4.499402	-8.135767E-007	0.0101532	7
	10	15	100078.1	2020.793	-151.4539	1	2026.46	-4.286177	-4.892032E-008	0.0084346	7
	11	16	79453.13	2036.806	-158.0035	1	2042.925	-4.43579	7.785944E-008	0.0082477	7
	12	18	63140.62	2054.237	-165.0813	1	2060.86	-4.594493	-5.355217E-008	0.0085174	7
	13	19	50203.12	2073.292	-175.603	1	2080.716	-4.841262	-1.60596E-008	0.008347	7
	14	20	39890.62	2093.799	-188.1619	1	2102.236	-5.135165	-2.113211E-008	0.0083483	7
	15	22	31640.63	2114.401	-203.5769	1	2124.178	-5.499552	5.197473E-008	0.0082469	7
	16	23	25171.88	2136.176	-221.4785	1	2147.626	-5.919273	6.29965E-008	0.0083068	7
	17	24	20015.62	2158.673	-244.5268	1	2172.479	-6.462713	1.098319E-008	0.0083313	7
	18	26	15890.62	2181.682	-272.6963	1	2198.659	-7.124655	5.367967E-008	0.0082434	7
	19	27	12609.37	2206.398	-308.3948	1	2227.847	-7.956851	-4.244441E-008	0.0084348	7
	20	28	10078.13	2229.798	-349.2553	1	2256.984	-8.901963	-2.038824E-008	0.0083492	7
	21	30	8015.625	2259.223	-403.6973	1	2295.008	-10.13117	-4.003464E-008	0.0084106	7
	22	31	6328.125	2289.541	-471.5657	1	2337.599	-11.63819	5.466108E-008	0.008249	7
	23	32	5015.625	2322.588	-553.9083	1	2387.725	-13.41377	2.502737E-008	0.0083378	7
	24	34	3984.375	2359.354	-655.2676	1	2448.658	-15.52167	-4.749811E-008	0.0084208	7
	25	35	3170.956	2399.675	-777.6938	1	2522.548	-17.95662	-9.050665E-009	0.0083789	7
	26	36	2527.573	2444.837	-926.8373	1	2614.623	-20.76171	-9.328738E-009	0.0083796	7
	27	38	1976.103	2500.087	-1124.814	1	2741.467	-24.22346	-4.370522E-008	0.0084319	7
	28	39	1577.524	2556.707	-1348.616	1	2890.591	-27.81083	-1.358075E-008	0.0083434	7
	29	40	1265.625	2619.094	-1616.283	1	3077.666	-31.67937	6.400949E-008	0.0083036	7
	30	42	998.264	2697.701	-1971.805	1	3341.498	-36.16384	1.520266E-008	0.0083342	7
	31	43	796.875	2785.757	-2385.571	1	3667.613	-40.57495	5.579273E-008	0.0082425	7
	32	44	627.7902	2894.735	-2932.033	1	4120.231	-45.36676	1.417823E-008	0.0083258	7
	33	46	505.5147	3018.665	-3538.696	1	4651.312	-49.53435	4.645553E-008	0.0082649	7
	34	47	397.9953	3182.573	-4368.245	1	5404.659	-53.92404	5.158153E-009	0.0083758	7
	35	48	315.5048	3385.997	-5362.589	1	6342.108	-57.73124	6.034492E-009	0.0083731	7
	36	50	252.4038	3634.981	-6532.537	1	7475.769	-60.90657	5.546025E-009	0.0083745	7
	37	51	198.6229	3979.795	-8074.155	1	9001.708	-63.76106	5.440127E-009	0.0083729	7
	38	52	158.3615	4406.17	-9858.78	1	10798.6	-65.91876	1.309395E-009	0.0083143	6
	39	54	125.558	4973.384	-12083.82	1	13067.26	-67.62922	1.357912E-009	0.0083176	6
	40	55	100.4464	5679.854	-14677.07	1	15737.76	-68.84415	1.1342E-009	0.0083132	6
	41	56	79.00281	6673.218	-18050.63	1	19244.67	-69.71093	1.131766E-009	0.0083136	6
	42	58	63.3446	7854.322	-21701.88	1	23079.47	-70.10385	1.065552E-009	0.0083135	6
	43	59	49.86702	9604.15	-26604.72	1	28285.17	-70.15072	1.579073E-010	0.0083141	6
	44	61	39.72458	11609.56	-32025.01	1	34064.39	-70.07364	1.374863E-009	0.0083188	6
	45	62	31.6723	14261.42	-38481.92	1	41039.57	-69.66527	3.181996E-010	0.0083149	6
	46	63	24.93351	17709.76	-46421.17	1	49684.61	-69.11806	1.108969E-009	0.0083113	6
	47	65	19.86229	21887.2	-55244.23	1	59422	-68.38703	1.680762E-009	0.0083215	6
	48	66	15.83615	27029.61	-65291.51	1	70665.27	-67.51125	7.911726E-010	0.0083086	6
	49	67	12.40079	34068.83	-78492.05	1	85566.86	-66.53714	7.145491E-010	0.0083136	6
	50	69	9.93114	41522.4	-91888.93	1	100834.9	-65.68293	-2.423187E-010	0.008316	6
	51	70	7.944915	50646.41	-107262.7	1	118618.5	-64.72466	-1.758919E-010	0.0083178	5
	52	72	6.317385	61901.03	-125432.7	1	139875.3	-63.73367	-1.633076E-010	0.0083259	5
	53	74	5.008013	75275.44	-146427.5	1	164643.3	-62.79322	4.191085E-010	0.0083242	5
	54	76	3.945707	91647.13	-171121.6	1	194118	-61.82796	1.448835E-010	0.0083189	5
	55	78	3.158693	109527	-197599.7	1	225924.3	-61.00095	-2.128944E-010	0.0083024	5
	56	82	2.504006	131100	-228637.8	1	263557.3	-60.1702	7.335854E-010	0.0083172	5
	57	84	1.998082	155815.7	-262945.6	1	305645.1	-59.34996	8.220447E-011	0.0083632	5
	58	88	1.584686	183483.9	-303132	1	354337.9	-58.81374	2.704083E-010	0.0083478	5
	59	91	1.266892	215076.8	-346736.2	1	408024.5	-58.18911	-1.700204E-010	0.0083523	5
	60	95	0.999041	250822.8	-400132.3	1	472247.8	-57.91848	2.524295E-010	0.0083057	5
