EXPLAIN
TAG	EISPOT
TITLE	LABEL	Potentiostatic IDE	Test &Identifier
DATE	LABEL	9/12/2019	Date
TIME	LABEL	8:47:58	Time
NOTES	NOTES	1	&Notes...
	
PSTAT	PSTAT	REF600-11020	Potentiostat
VDC	POTEN	0.00000E+000	T	DC &Voltage (V)
FREQINIT	QUANT	1.00000E+006	Initial Fre&q. (Hz)
FREQFINAL	QUANT	1.00000E+000	Final Fre&q. (Hz)
PTSPERDEC	QUANT	1.00000E+001	Points/&decade
VAC	QUANT	2.50000E+001	AC &Voltage (mV rms)
AREA	QUANT	1.00000E-002	&Area (cm^2)
CONDIT	TWOPARAM	T	5.00000E+000	0.00000E+000	Conditionin&g	Time(s)	E(V)
DELAY	TWOPARAM	T	5.00000E+000	0.00000E+000	Init. De&lay	Time(s)	Stab.(mV/s)
SPEED	SELECTOR	1	&Optimize for:
ZGUESS	QUANT	1.00000E+007	E&stimated Z (ohms)
OCVCURVE	TABLE	19
	Pt	T	Vf	Vm	Ach	Over
	#	s	V vs. Ref.	V	V	bits
	0	0.258333	4.96744E-003	4.96744E-003	5.30900E-004	...........
	1	0.516667	4.96452E-003	4.81465E-003	5.29866E-004	...........
	2	0.775	4.94677E-003	4.67879E-003	5.31033E-004	...........
	3	1.03333	4.89749E-003	4.56779E-003	5.32733E-004	...........
	4	1.29167	4.81224E-003	4.47172E-003	5.37399E-004	...........
	5	1.55	4.70473E-003	4.38756E-003	5.36199E-004	...........
	6	1.80833	4.59388E-003	4.30998E-003	5.34500E-004	...........
	7	2.06667	4.49157E-003	4.24177E-003	5.35600E-004	...........
	8	2.325	4.40128E-003	4.18072E-003	5.34500E-004	...........
	9	2.58333	4.32205E-003	4.12298E-003	5.33700E-004	...........
	10	2.84167	4.25175E-003	4.06956E-003	5.34200E-004	...........
	11	3.1	4.18831E-003	4.01986E-003	5.39166E-004	...........
	12	3.35833	4.13010E-003	3.97115E-003	5.37633E-004	...........
	13	3.61667	4.07603E-003	3.92944E-003	5.36966E-004	...........
	14	3.875	4.02555E-003	3.89084E-003	5.37866E-004	...........
	15	4.13333	3.97866E-003	3.85359E-003	5.32033E-004	...........
	16	4.39167	3.93534E-003	3.81764E-003	5.32266E-004	...........
	17	4.65	3.89513E-003	3.78249E-003	5.31933E-004	...........
	18	4.90833	3.85729E-003	3.75095E-003	5.33033E-004	...........
EOC	QUANT	0.0038573	Open Circuit (V)
PSTATMODEL	IQUANT	4	Pstat Model
PSTATSECTION	LABEL	REF600-11020	Pstat Section
PSTATSERIALNO	LABEL	11020	Pstat Serial Number
CTRLMODE	IQUANT	1	Control Mode
IESTAB	IQUANT	0	I/E Stability
CASPEED	IQUANT	1	Control Amp Speed
CONVENTION	IQUANT	1	Current Convention
ICHRANGE	IQUANT	2	Ich Range
ICHRANGEMODE	TOGGLE	F	Ich Auto Range
ICHOFFSETENABLE	TOGGLE	T	Ich Offset Enable
ICHOFFSET	QUANT	0	Ich Offset (V)
ICHFILTER	IQUANT	3	Ich Filter
VCHRANGE	IQUANT	2	Vch Range
VCHRANGEMODE	TOGGLE	F	Vch Auto Range
VCHOFFSETENABLE	TOGGLE	T	Vch Offset Enable
VCHOFFSET	QUANT	0	Vch Offset (V)
VCHFILTER	IQUANT	3	Vch Filter
ACHRANGE	IQUANT	2	Ach Range
ACHOFFSETENABLE	TOGGLE	F	Ach Offset Enable
ACHOFFSET	QUANT	0	Ach Offset (V)
ACHFILTER	IQUANT	3	Ach Filter
IERANGELOWERLIMIT	IQUANT	1	I/E Range Lower Limit
IERANGEMODE	TOGGLE	F	I/E AutoRange
IERANGE	IQUANT	2	I/E Range
POSFEEDENABLE	TOGGLE	F	Positive Feedback IR Comp
POSFEEDRESISTANCE	QUANT	0	Positive Feedback Resistance (ohm)
ACHSELECT	IQUANT	0	Ach Select
CABLEID	IQUANT	14	Cable ID
DCCALDATE	LABEL	8/19/2019	DC Calibration Date
ACCALDATE	LABEL	8/19/2019	AC Calibration Date
THERMOSELECT	IQUANT	1	Thermo Select
FRAMEWORKVERSION	QUANT	6.33	Framework Version
INSTRUMENTVERSION	LABEL	3.50	Instrument Version
ZCURVE	TABLE
	Pt	Time	Freq	Zreal	Zimag	Zsig	Zmod	Zphz	Idc	Vdc	IERange
	#	s	Hz	ohm	ohm	V	ohm	°	A	V	#
	0	2	1000078	2374.952	-1337.274	1	2725.564	-29.38274	-6.091915E-006	0.0070959	8
	1	4	794390.6	2612.613	-1213.774	1	2880.797	-24.91876	7.496266E-006	0.0046844	8
	2	5	630984.4	2818.171	-1071.311	1	3014.929	-20.814	1.547404E-008	0.0050818	8
	3	6	501234.4	2954.783	-938.2252	1	3100.163	-17.61608	5.802134E-006	0.0044126	8
	4	8	398109.4	3084.688	-817.8984	1	3191.279	-14.85014	9.756908E-007	0.0050005	8
	5	9	316265.6	3157.625	-705.0211	1	3235.375	-12.58632	1.943804E-006	0.0048036	8
	6	11	251203.1	3232.325	-615.4072	1	3290.388	-10.77962	4.027891E-006	0.0046217	8
	7	12	199546.9	3265.254	-544.7836	1	3310.389	-9.472132	5.106998E-006	0.0044456	8
	8	14	158578.1	3318.955	-475.2065	1	3352.803	-8.148204	5.091438E-006	0.0044525	8
	9	15	125953.1	3363.497	-400.2059	1	3387.223	-6.78544	1.303631E-006	0.0023347	7
	10	17	100078.1	3397.765	-374.4569	1	3418.337	-6.289006	-1.897523E-008	0.0055065	7
	11	18	79453.13	3428.234	-370.5974	1	3448.207	-6.169803	-5.034266E-009	0.0053018	7
	12	19	63140.62	3461.308	-374.4791	1	3481.507	-6.174816	-4.162365E-008	0.0054041	7
	13	21	50203.12	3496.765	-386.0477	1	3518.01	-6.30002	-7.267428E-009	0.0053873	7
	14	22	39890.62	3532.645	-405.8436	1	3555.881	-6.553626	7.557045E-008	0.0052178	7
	15	23	31640.63	3573.772	-432.6778	1	3599.869	-6.903221	-2.02895E-008	0.0053414	7
	16	24	25171.88	3617.653	-470.0208	1	3648.059	-7.402643	-1.834391E-008	0.0054957	7
	17	26	20015.62	3665.915	-514.067	1	3701.783	-7.98247	-4.253937E-008	0.0054079	7
	18	27	15890.62	3720.24	-574.5479	1	3764.344	-8.779309	2.069579E-008	0.0052657	7
	19	28	12609.37	3777.33	-639.5999	1	3831.098	-9.61051	-4.011877E-008	0.0054885	7
	20	30	10078.13	3839.688	-715.5928	1	3905.801	-10.55696	-4.06235E-008	0.0054848	7
	21	31	8015.625	3912.126	-809.9991	1	3995.101	-11.69771	-4.174868E-008	0.005376	7
	22	32	6328.125	3993.137	-924.4897	1	4098.759	-13.03543	-6.104767E-009	0.0053739	7
	23	34	5015.625	4081.536	-1057.476	1	4216.301	-14.52525	-4.152675E-008	0.0054032	7
	24	35	3984.375	4176.96	-1213.207	1	4349.583	-16.19606	4.58992E-008	0.0051988	7
	25	36	3170.956	4283.189	-1397.948	1	4505.549	-18.07565	-3.74512E-008	0.005384	7
	26	38	2527.573	4396.17	-1613.703	1	4682.985	-20.15668	3.447734E-008	0.0053182	7
	27	39	1976.103	4531.819	-1897.719	1	4913.118	-22.72171	3.720583E-008	0.0053252	7
	28	40	1577.524	4665.478	-2210.791	1	5162.778	-25.35447	7.839898E-008	0.0053204	7
	29	42	1265.625	4811.68	-2581.162	1	5460.28	-28.21074	8.657508E-008	0.0051693	7
	30	43	998.264	4981.831	-3066.768	1	5850.103	-31.61605	-3.568968E-008	0.0054932	7
	31	44	796.875	5163.077	-3627.595	1	6310.056	-35.092	-5.348406E-009	0.0053834	7
	32	46	627.7902	5367.503	-4351.788	1	6910.003	-39.03396	-1.286922E-008	0.005407	7
	33	47	505.5147	5575.644	-5161.979	1	7598.278	-42.79378	-1.590938E-008	0.0053942	7
	34	48	397.9953	5833.071	-6259.436	1	8556.007	-47.01933	6.504206E-009	0.0053556	7
	35	50	315.5048	6116.938	-7584.56	1	9743.84	-51.11387	5.751333E-009	0.0053628	7
	36	51	252.4038	6435.865	-9154.473	1	11190.39	-54.89165	1.191633E-009	0.0053008	6
	37	52	198.6229	6835.937	-11249.75	1	13163.85	-58.71495	8.670177E-010	0.0053049	6
	38	54	158.3615	7302.304	-13710.51	1	15533.89	-61.95995	7.562488E-010	0.0052951	6
	39	55	125.558	7892.4	-16818.07	1	18577.87	-64.86022	8.156701E-010	0.0052966	6
	40	56	100.4464	8588.769	-20498.58	1	22225.18	-67.26664	1.004477E-009	0.0053002	6
	41	58	79.00281	9637.45	-25427.58	1	27192.69	-69.24252	9.051457E-010	0.005291	6
	42	59	63.3446	10555.98	-30851.25	1	32607.19	-71.11124	1.426818E-009	0.0052957	6
	43	60	49.86702	12741.08	-38209.86	1	40278.14	-71.55904	2.337005E-010	0.0052883	6
	44	62	39.72458	14634.08	-46556.25	1	48802.05	-72.55044	5.892155E-010	0.0052939	6
	45	63	31.6723	17457.96	-56949.59	1	59565.39	-72.95702	1.640022E-009	0.0052917	6
	46	65	24.93351	21382.88	-69761.53	1	72965.05	-72.95897	1.047973E-009	0.0052902	6
	47	66	19.86229	26121.75	-84644.74	1	88583.73	-72.84954	1.752546E-009	0.0052963	6
	48	67	15.83615	33041.97	-101542.1	1	106782.9	-71.97504	-5.295672E-010	0.0052945	5
	49	69	12.40079	41131.08	-125690.2	1	132249	-71.87975	2.598149E-011	0.0053	5
	50	70	9.93114	51276.86	-149065.7	1	157638.5	-71.01739	5.515869E-010	0.0053015	5
	51	72	7.944915	64705.32	-176706.7	1	188180.9	-69.88861	1.069483E-009	0.0053027	5
	52	73	6.317385	81116.02	-211404.9	1	226432.9	-69.0082	6.608558E-010	0.0053044	5
	53	75	5.008013	102154.5	-251434.1	1	271393.9	-67.88872	5.837884E-010	0.0053097	5
	54	78	3.945707	129227.2	-299004.4	1	325735.1	-66.6264	6.390843E-011	0.0052949	5
	55	80	3.158693	160310	-349421.2	1	384440.5	-65.35494	4.056907E-010	0.0053063	5
	56	84	2.504006	199655	-408795.3	1	454945.9	-63.96919	8.52699E-011	0.0053004	5
	57	86	1.998082	244121.5	-472290.9	1	531652.2	-62.6661	4.809805E-010	0.0052809	5
	58	90	1.584686	300421.6	-547504.4	1	624511.1	-61.24594	1.631558E-010	0.0052511	5
	59	93	1.266892	360825.2	-627246.4	1	723624.8	-60.09022	3.933915E-010	0.0053069	5
	60	97	0.999041	438660.6	-724033.8	1	846550.7	-58.79015	-6.773648E-011	0.0052674	5
