EXPLAIN
TAG	EISPOT
TITLE	LABEL	Potentiostatic EIS	Test &Identifier
DATE	LABEL	10/14/2019	Date
TIME	LABEL	10:14:26	Time
NOTES	NOTES	1	&Notes...
	
PSTAT	PSTAT	REF600-11020	Potentiostat
VDC	POTEN	0.00000E+000	T	DC &Voltage (V)
FREQINIT	QUANT	1.00000E+006	Initial Fre&q. (Hz)
FREQFINAL	QUANT	1.00000E+000	Final Fre&q. (Hz)
PTSPERDEC	QUANT	1.00000E+001	Points/&decade
VAC	QUANT	2.50000E+001	AC &Voltage (mV rms)
AREA	QUANT	1.00000E-002	&Area (cm^2)
CONDIT	TWOPARAM	T	5.00000E+000	0.00000E+000	Conditionin&g	Time(s)	E(V)
DELAY	TWOPARAM	T	5.00000E+000	0.00000E+000	Init. De&lay	Time(s)	Stab.(mV/s)
SPEED	SELECTOR	1	&Optimize for:
ZGUESS	QUANT	1.00000E+004	E&stimated Z (ohms)
OCVCURVE	TABLE	19
	Pt	T	Vf	Vm	Ach	Over
	#	s	V vs. Ref.	V	V	bits
	0	0.258333	1.15809E-002	1.15809E-002	5.30566E-004	...........
	1	0.516667	1.15606E-002	1.05159E-002	5.31533E-004	...........
	2	0.775	1.14231E-002	8.85209E-003	5.38033E-004	...........
	3	1.03333	1.10124E-002	8.28091E-003	5.27600E-004	...........
	4	1.29167	1.02745E-002	7.30925E-003	5.32933E-004	...........
	5	1.55	9.33739E-003	6.55664E-003	5.31500E-004	...........
	6	1.80833	8.35043E-003	4.58764E-003	5.34966E-004	...........
	7	2.06667	7.36233E-003	5.64598E-003	5.32966E-004	...........
	8	2.325	6.46302E-003	5.90179E-003	5.31566E-004	...........
	9	2.58333	5.85267E-003	5.62676E-003	5.29566E-004	...........
	10	2.84167	5.60083E-003	5.11513E-003	5.35333E-004	...........
	11	3.1	5.55518E-003	6.39298E-003	5.34433E-004	...........
	12	3.35833	5.62130E-003	7.52190E-003	5.32066E-004	...........
	13	3.61667	5.92408E-003	9.45409E-003	5.32433E-004	...........
	14	3.875	6.64917E-003	1.17989E-002	5.35933E-004	...........
	15	4.13333	7.82332E-003	1.09227E-002	5.33000E-004	...........
	16	4.39167	9.08860E-003	6.50802E-003	5.38166E-004	...........
	17	4.65	9.70219E-003	5.03503E-003	5.30933E-004	...........
	18	4.90833	9.14217E-003	4.17951E-003	5.34933E-004	...........
EOC	QUANT	0.0091422	Open Circuit (V)
PSTATMODEL	IQUANT	4	Pstat Model
PSTATSECTION	LABEL	REF600-11020	Pstat Section
PSTATSERIALNO	LABEL	11020	Pstat Serial Number
CTRLMODE	IQUANT	1	Control Mode
IESTAB	IQUANT	0	I/E Stability
CASPEED	IQUANT	1	Control Amp Speed
CONVENTION	IQUANT	1	Current Convention
ICHRANGE	IQUANT	2	Ich Range
ICHRANGEMODE	TOGGLE	F	Ich Auto Range
ICHOFFSETENABLE	TOGGLE	T	Ich Offset Enable
ICHOFFSET	QUANT	0	Ich Offset (V)
ICHFILTER	IQUANT	3	Ich Filter
VCHRANGE	IQUANT	2	Vch Range
VCHRANGEMODE	TOGGLE	F	Vch Auto Range
VCHOFFSETENABLE	TOGGLE	T	Vch Offset Enable
VCHOFFSET	QUANT	0	Vch Offset (V)
VCHFILTER	IQUANT	3	Vch Filter
ACHRANGE	IQUANT	2	Ach Range
ACHOFFSETENABLE	TOGGLE	F	Ach Offset Enable
ACHOFFSET	QUANT	0	Ach Offset (V)
ACHFILTER	IQUANT	3	Ach Filter
IERANGELOWERLIMIT	IQUANT	1	I/E Range Lower Limit
IERANGEMODE	TOGGLE	F	I/E AutoRange
IERANGE	IQUANT	6	I/E Range
POSFEEDENABLE	TOGGLE	F	Positive Feedback IR Comp
POSFEEDRESISTANCE	QUANT	0	Positive Feedback Resistance (ohm)
ACHSELECT	IQUANT	0	Ach Select
CABLEID	IQUANT	14	Cable ID
DCCALDATE	LABEL	8/19/2019	DC Calibration Date
ACCALDATE	LABEL	8/19/2019	AC Calibration Date
THERMOSELECT	IQUANT	1	Thermo Select
FRAMEWORKVERSION	QUANT	6.33	Framework Version
INSTRUMENTVERSION	LABEL	3.50	Instrument Version
ZCURVE	TABLE
	Pt	Time	Freq	Zreal	Zimag	Zsig	Zmod	Zphz	Idc	Vdc	IERange
	#	s	Hz	ohm	ohm	V	ohm	°	A	V	#
	0	2	1000078	2399.871	-1546.937	1	2855.24	-32.8055	-2.813299E-006	0.0120444	8
	1	3	794390.6	2698.45	-1483.021	1	3079.121	-28.79242	-2.146136E-006	0.0116514	8
	2	4	630984.4	2966.276	-1362.732	1	3264.327	-24.67445	-7.632887E-007	0.011443	8
	3	6	501234.4	3183.915	-1226.519	1	3411.989	-21.06785	-2.932825E-006	0.0115515	8
	4	7	398109.4	3373.887	-1077.693	1	3541.826	-17.71462	-2.641415E-006	0.0114602	8
	5	8	316265.6	3507.31	-939.9092	1	3631.068	-15.00195	-1.295844E-006	0.011122	8
	6	10	251203.1	3608.201	-818.2584	1	3699.819	-12.77728	4.278354E-006	0.0101096	8
	7	12	199546.9	3682.3	-710.3531	1	3750.191	-10.91881	-2.796492E-006	0.0113757	8
	8	13	158578.1	3747.839	-628.2512	1	3800.132	-9.51603	1.24168E-006	0.0106037	8
	9	14	125953.1	3819.302	-502.2223	1	3852.181	-7.491176	1.23829E-006	0.0080493	7
	10	16	100078.1	3853.723	-471.9044	1	3882.509	-6.981349	-4.122514E-008	0.0108436	7
	11	17	79453.13	3889.683	-447.7032	1	3915.364	-6.56586	-6.298438E-008	0.0108969	7
	12	18	63140.62	3927.652	-434.3948	1	3951.601	-6.311213	-2.684978E-008	0.0107843	7
	13	20	50203.12	3963.961	-432.3939	1	3987.475	-6.225283	-6.255306E-008	0.0108882	7
	14	21	39890.62	4004.294	-441.0459	1	4028.51	-6.285406	-4.681499E-008	0.0108258	7
	15	22	31640.63	4045.488	-458.6326	1	4071.402	-6.467946	-4.287852E-008	0.0108351	7
	16	24	25171.88	4089.672	-487.0135	1	4118.567	-6.791016	7.642369E-008	0.0106298	7
	17	25	20015.62	4149.338	-516.8801	1	4181.408	-7.100716	-5.053036E-009	0.0108956	7
	18	26	15890.62	4192.022	-571.5359	1	4230.804	-7.763778	7.559859E-008	0.0107396	7
	19	28	12609.37	4250.697	-629.1332	1	4297.003	-8.419059	7.089951E-008	0.0106664	7
	20	29	10078.13	4309.917	-698.1045	1	4366.089	-9.200651	4.301131E-008	0.0106473	7
	21	31	8015.625	4376.435	-764.8666	1	4442.77	-9.91342	7.800049E-008	0.0106222	7
	22	32	6328.125	4450.135	-884.3164	1	4537.148	-11.23922	3.713864E-008	0.0107441	7
	23	33	5015.625	4526.155	-1006.272	1	4636.665	-12.53435	-3.436798E-008	0.0107948	7
	24	35	3984.375	4596.552	-1138.383	1	4735.42	-13.91	-6.571361E-010	0.0107235	7
	25	36	3170.956	4693.607	-1332.023	1	4878.958	-15.84369	-6.226865E-008	0.0108779	7
	26	37	2527.573	4784.505	-1547.674	1	5028.597	-17.92517	3.717772E-008	0.010733	7
	27	39	1976.103	4893.19	-1836.568	1	5226.499	-20.57269	-4.72416E-008	0.0109261	7
	28	40	1577.524	5043.93	-2121.701	1	5472.006	-22.81379	-2.121931E-008	0.0108318	7
	29	42	1265.625	5118.143	-2555.09	1	5720.479	-26.52939	3.715898E-008	0.0107294	7
	30	43	998.264	5264.944	-3069.108	1	6094.182	-30.23931	1.249016E-007	0.0105898	7
	31	44	796.875	5421.686	-3670.163	1	6547.12	-34.09569	-4.769283E-009	0.0108106	7
	32	46	627.7902	5616.479	-4452.248	1	7167.102	-38.40427	6.780863E-008	0.010662	7
	33	47	505.5147	5816.544	-5321.075	1	7883.275	-42.45281	1.531431E-009	0.0107198	7
	34	48	397.9953	6075.76	-6497.54	1	8895.666	-46.92131	5.285461E-009	0.0107912	7
	35	50	315.5048	6374.675	-7904.171	1	10154.43	-51.11399	3.207366E-010	0.0107252	6
	36	51	252.4038	6709.83	-9568.88	1	11686.97	-54.96134	7.048588E-010	0.0107223	6
	37	52	198.6229	7141.137	-11769.75	1	13766.73	-58.75328	6.392764E-010	0.010729	6
	38	54	158.3615	7639.66	-14345.44	1	16252.87	-61.96247	9.388593E-010	0.0107247	6
	39	55	125.558	8264.244	-17586.44	1	19431.44	-64.83017	1.18603E-009	0.0107262	6
	40	57	100.4464	9034.797	-21437.99	1	23264.03	-67.14757	-4.318695E-010	0.010728	6
	41	58	79.00281	10025.51	-26550.45	1	28380.22	-69.31335	7.439233E-010	0.0107255	6
	42	59	63.3446	11211.46	-32539.13	1	34416.45	-70.98845	1.200856E-009	0.0107228	6
	43	61	49.86702	12943.94	-39672.17	1	41730.4	-71.92992	-6.954111E-012	0.0107254	6
	44	62	39.72458	15237.85	-48630.45	1	50961.87	-72.60216	2.700338E-010	0.010729	6
	45	64	31.6723	18273.29	-59258.75	1	62012.2	-72.86209	1.188401E-009	0.0107212	6
	46	65	24.93351	22084.26	-72927.56	1	76198.05	-73.1524	1.82157E-011	0.0107227	6
	47	66	19.86229	27066.29	-88520.24	1	92565.74	-72.99826	-4.603538E-010	0.0107303	6
	48	68	15.83615	32686.15	-107252.1	1	112122.2	-73.05087	1.606057E-009	0.0107303	5
	49	69	12.40079	42665.8	-130942.6	1	137718.3	-71.95253	5.028048E-011	0.0107345	5
	50	71	9.93114	53679.94	-157248.8	1	166158.7	-71.15166	3.178929E-010	0.0107289	5
	51	72	7.944915	67492	-187325.3	1	199112.9	-70.18626	9.641751E-012	0.0107333	5
	52	74	6.317385	85782.1	-223089	1	239013.2	-68.96727	-1.002599E-010	0.0107288	5
	53	76	5.008013	109399.6	-265196	1	286874.9	-67.5827	-1.025071E-010	0.0107253	5
	54	78	3.945707	139786.2	-314235.8	1	343924.8	-66.01835	1.441985E-010	0.0107345	5
	55	81	3.158693	174575.9	-365552.3	1	405099	-64.47237	1.2726E-011	0.0107206	5
	56	84	2.504006	218639.9	-425626.9	1	478499.4	-62.81093	2.423854E-010	0.0107441	5
	57	87	1.998082	267901.9	-487581.8	1	556333.9	-61.2134	3.955662E-010	0.0107178	5
	58	90	1.584686	328951.3	-559777.8	1	649276.6	-59.55954	1.439692E-011	0.0106832	5
	59	94	1.266892	393518.2	-632863.5	1	745233.4	-58.12642	2.633413E-010	0.0106993	5
	60	98	0.999041	470945.3	-721636.9	1	861713	-56.87125	-1.588018E-010	0.0107449	5
