EXPLAIN
TAG	EISPOT
TITLE	LABEL	Potentiostatic EIS	Test &Identifier
DATE	LABEL	11/5/2019	Date
TIME	LABEL	10:55:03	Time
NOTES	NOTES	2	&Notes...
	
	
PSTAT	PSTAT	REF600-11020	Potentiostat
VDC	POTEN	0.00000E+000	T	DC &Voltage (V)
FREQINIT	QUANT	1.00000E+006	Initial Fre&q. (Hz)
FREQFINAL	QUANT	1.00000E+000	Final Fre&q. (Hz)
PTSPERDEC	QUANT	1.00000E+001	Points/&decade
VAC	QUANT	2.50000E+001	AC &Voltage (mV rms)
AREA	QUANT	1.00000E-002	&Area (cm^2)
CONDIT	TWOPARAM	T	5.00000E+000	0.00000E+000	Conditionin&g	Time(s)	E(V)
DELAY	TWOPARAM	T	5.00000E+000	0.00000E+000	Init. De&lay	Time(s)	Stab.(mV/s)
SPEED	SELECTOR	1	&Optimize for:
ZGUESS	QUANT	1.00000E+005	E&stimated Z (ohms)
OCVCURVE	TABLE	19
	Pt	T	Vf	Vm	Ach	Over
	#	s	V vs. Ref.	V	V	bits
	0	0.258333	2.12903E-003	2.12903E-003	6.37998E-004	...........
	1	0.516667	2.12212E-003	1.76698E-003	6.29165E-004	...........
	2	0.775	2.07986E-003	1.43499E-003	6.30331E-004	...........
	3	1.03333	1.96149E-003	1.14072E-003	6.35831E-004	...........
	4	1.29167	1.75330E-003	8.67968E-004	6.30665E-004	...........
	5	1.55	1.48337E-003	6.15331E-004	6.37365E-004	...........
	6	1.80833	1.19348E-003	3.75738E-004	6.32931E-004	...........
	7	2.06667	9.11981E-004	1.57856E-004	6.35665E-004	...........
	8	2.325	6.49856E-004	-4.89333E-005	6.31331E-004	...........
	9	2.58333	4.08073E-004	-2.46569E-004	6.39765E-004	...........
	10	2.84167	1.83854E-004	-4.35794E-004	6.30298E-004	...........
	11	3.1	-2.61590E-005	-6.06921E-004	6.31065E-004	...........
	12	3.35833	-2.24282E-004	-7.78700E-004	6.31865E-004	...........
	13	3.61667	-4.11761E-004	-9.37952E-004	6.28365E-004	...........
	14	3.875	-5.89807E-004	-1.09979E-003	6.23598E-004	...........
	15	4.13333	-7.59853E-004	-1.24176E-003	6.29731E-004	...........
	16	4.39167	-9.22770E-004	-1.38593E-003	6.28398E-004	...........
	17	4.65	-1.07856E-003	-1.51622E-003	6.28931E-004	...........
	18	4.90833	-1.22704E-003	-1.64706E-003	6.30465E-004	...........
EOC	QUANT	-0.001227	Open Circuit (V)
PSTATMODEL	IQUANT	4	Pstat Model
PSTATSECTION	LABEL	REF600-11020	Pstat Section
PSTATSERIALNO	LABEL	11020	Pstat Serial Number
CTRLMODE	IQUANT	1	Control Mode
IESTAB	IQUANT	0	I/E Stability
CASPEED	IQUANT	1	Control Amp Speed
CONVENTION	IQUANT	1	Current Convention
ICHRANGE	IQUANT	2	Ich Range
ICHRANGEMODE	TOGGLE	F	Ich Auto Range
ICHOFFSETENABLE	TOGGLE	T	Ich Offset Enable
ICHOFFSET	QUANT	0	Ich Offset (V)
ICHFILTER	IQUANT	3	Ich Filter
VCHRANGE	IQUANT	2	Vch Range
VCHRANGEMODE	TOGGLE	F	Vch Auto Range
VCHOFFSETENABLE	TOGGLE	T	Vch Offset Enable
VCHOFFSET	QUANT	0	Vch Offset (V)
VCHFILTER	IQUANT	3	Vch Filter
ACHRANGE	IQUANT	2	Ach Range
ACHOFFSETENABLE	TOGGLE	F	Ach Offset Enable
ACHOFFSET	QUANT	0	Ach Offset (V)
ACHFILTER	IQUANT	3	Ach Filter
IERANGELOWERLIMIT	IQUANT	1	I/E Range Lower Limit
IERANGEMODE	TOGGLE	F	I/E AutoRange
IERANGE	IQUANT	4	I/E Range
POSFEEDENABLE	TOGGLE	F	Positive Feedback IR Comp
POSFEEDRESISTANCE	QUANT	0	Positive Feedback Resistance (ohm)
ACHSELECT	IQUANT	0	Ach Select
CABLEID	IQUANT	14	Cable ID
DCCALDATE	LABEL	8/19/2019	DC Calibration Date
ACCALDATE	LABEL	8/19/2019	AC Calibration Date
THERMOSELECT	IQUANT	1	Thermo Select
FRAMEWORKVERSION	QUANT	6.33	Framework Version
INSTRUMENTVERSION	LABEL	3.50	Instrument Version
ZCURVE	TABLE
	Pt	Time	Freq	Zreal	Zimag	Zsig	Zmod	Zphz	Idc	Vdc	IERange
	#	s	Hz	ohm	ohm	V	ohm	°	A	V	#
	0	1	1000078	1893.851	-1012.757	1	2147.638	-28.13611	1.450366E-005	-0.0003281	8
	1	3	794390.6	2067.331	-970.438	1	2283.771	-25.1461	-1.356674E-005	0.0017717	8
	2	4	630984.4	2229.971	-916.6668	1	2411.026	-22.34593	9.870156E-007	0.0001497	8
	3	5	501234.4	2369.293	-849.3091	1	2516.918	-19.72099	-1.149671E-006	0.0008471	8
	4	7	398109.4	2489.948	-779.413	1	2609.086	-17.38136	7.949775E-006	-0.0005384	8
	5	8	316265.6	2592.4	-719.1385	1	2690.297	-15.50415	6.054505E-006	-0.000919	8
	6	9	251203.1	2682.174	-660.0256	1	2762.19	-13.82458	-3.315859E-006	0.0008545	8
	7	11	199546.9	2747.778	-608.3156	1	2814.308	-12.48306	-1.927572E-006	0.0003775	8
	8	12	158578.1	2812.168	-582.8441	1	2871.932	-11.70922	2.087347E-006	0.0005439	8
	9	13	125953.1	2895.409	-508.8398	1	2939.781	-9.96739	-1.549775E-006	0.004272	7
	10	15	100078.1	2955.552	-503.3752	1	2998.112	-9.66559	1.032299E-006	-0.0005293	7
	11	16	79453.13	3006.599	-507.4191	1	3049.116	-9.57945	-1.242264E-006	0.0013355	7
	12	18	63140.62	3068.772	-521.9782	1	3112.848	-9.65325	1.073998E-007	-0.0011594	7
	13	19	50203.12	3126.182	-541.2623	1	3172.693	-9.82272	-1.070615E-006	0.0007589	7
	14	20	39890.62	3194.646	-567.7105	1	3244.697	-10.07666	1.04229E-007	-0.0011618	7
	15	22	31640.63	3265.602	-599.7386	1	3320.217	-10.4066	1.060668E-007	-0.0011576	7
	16	23	25171.88	3334.317	-637.525	1	3394.718	-10.82437	-1.071426E-006	0.0007559	7
	17	24	20015.62	3412.42	-679.1871	1	3479.354	-11.25669	-1.244133E-006	0.001332	7
	18	26	15890.62	3500.202	-731.1773	1	3575.757	-11.79917	-3.209961E-007	-0.0006388	7
	19	27	12609.37	3598.637	-789.9588	1	3684.321	-12.38097	1.038466E-006	-0.0005348	7
	20	29	10078.13	3690.157	-852.9124	1	3787.443	-13.01433	9.882401E-007	-0.0015093	7
	21	30	8015.625	3784.099	-926.9156	1	3895.969	-13.76361	9.283686E-008	0.0011655	7
	22	31	6328.125	3886.05	-1015.423	1	4016.525	-14.64394	-9.022957E-007	0.0019189	7
	23	33	5015.625	4002.174	-1121.255	1	4156.273	-15.65083	1.037991E-006	-0.0005426	7
	24	34	3984.375	4106.209	-1248.214	1	4291.735	-16.90833	1.038111E-006	-0.0005437	7
	25	35	3170.956	4207.914	-1389.166	1	4431.289	-18.2697	-1.25525E-006	0.0017059	7
	26	37	2527.573	4332.954	-1577.786	1	4611.28	-20.00841	1.03713E-006	-0.000545	7
	27	38	1976.103	4449.237	-1812.398	1	4804.216	-22.16354	-1.253665E-006	0.0017081	7
	28	40	1577.524	4574.635	-2083.313	1	5026.677	-24.48477	-3.18002E-007	-0.0006494	7
	29	41	1265.625	4697.456	-2424.449	1	5286.212	-27.29915	-1.112813E-006	0.0018597	7
	30	42	998.264	4846.083	-2874.888	1	5634.669	-30.67809	-3.184574E-007	-0.0006495	7
	31	44	796.875	5001.321	-3410.016	1	6053.216	-34.28707	9.87004E-007	-0.0015091	7
	32	45	627.7902	5175.064	-4082.598	1	6591.578	-38.26984	-1.109374E-006	0.0018553	7
	33	47	505.5147	5361.684	-4871.292	1	7244.111	-42.25634	1.062168E-007	-0.0011668	7
	34	48	397.9953	5600.291	-5934.48	1	8159.737	-46.65953	5.573364E-009	0.0002284	7
	35	50	315.5048	5881.615	-7217.937	1	9310.854	-50.82475	7.806467E-009	0.0002236	7
	36	51	252.4038	6218.851	-8735.174	1	10722.75	-54.55172	1.604969E-009	0.0001642	6
	37	52	198.6229	6669.509	-10740.38	1	12642.71	-58.16075	9.662441E-010	0.0001646	6
	38	54	158.3615	7214.402	-13063.72	1	14923.42	-61.09045	1.502772E-009	0.0001581	6
	39	55	125.558	7928.408	-15976.25	1	17835.36	-63.60653	1.48885E-009	0.0001568	6
	40	56	100.4464	8821.149	-19354.53	1	21269.95	-65.49809	2.296056E-010	0.0001666	6
	41	58	79.00281	10014.4	-23853.39	1	25870.3	-67.2258	1.446406E-010	0.0001644	6
	42	59	63.3446	11184.29	-28839.07	1	30931.87	-68.80285	7.407942E-010	0.0001578	6
	43	61	49.86702	13431.71	-34897.71	1	37393.33	-68.94888	-2.022927E-010	0.0001592	6
	44	62	39.72458	15822.73	-42398.3	1	45254.55	-69.53481	1.195151E-009	0.000161	6
	45	63	31.6723	18881.81	-51028.93	1	54410.25	-69.69444	7.599977E-010	0.000156	6
	46	65	24.93351	22871.64	-62074.35	1	66153.89	-69.7734	7.90804E-010	0.0001499	6
	47	66	19.86229	27735.16	-74275.51	1	79284.87	-69.5239	1.420276E-009	0.0001571	6
	48	68	15.83615	33577.89	-88724.45	1	94865.7	-69.27078	6.238097E-010	0.0001548	6
	49	69	12.40079	42612.15	-107342.1	1	115490.8	-68.34816	2.027725E-009	0.0001646	5
	50	71	9.93114	50659.16	-127300.5	1	137010.1	-68.29995	2.912529E-010	0.0001778	5
	51	72	7.944915	62684.33	-150200.2	1	162755.7	-67.34734	7.848157E-010	0.0001689	5
	52	74	6.317385	75842.99	-177728.8	1	193234.8	-66.89039	1.177327E-010	0.000162	5
	53	76	5.008013	92881.16	-210339.8	1	229934.2	-66.17486	3.406904E-011	0.0001707	5
	54	78	3.945707	114071.5	-248754.2	1	273662.2	-65.36517	1.399039E-010	0.0001689	5
	55	81	3.158693	138087.5	-291072.6	1	322166.8	-64.6199	3.570448E-010	0.0001836	5
	56	85	2.504006	167913.5	-341437.4	1	380492.4	-63.81277	-1.479713E-010	0.0001661	5
	57	87	1.998082	202080.9	-395762	1	444369.5	-62.95059	3.990555E-010	0.0001224	5
	58	91	1.584686	242722.1	-460405.4	1	520468.2	-62.20216	1.091355E-010	0.0001895	5
	59	94	1.266892	287981.8	-533507.3	1	606270.2	-61.64029	-2.42583E-010	0.0001385	5
	60	98	0.999041	346383.2	-619081.9	1	709396.8	-60.77251	2.962595E-010	0.0002094	5
