EXPLAIN
TAG	EISPOT
TITLE	LABEL	Potentiostatic IDE	Test &Identifier
DATE	LABEL	9/6/2019	Date
TIME	LABEL	7:22:28	Time
NOTES	NOTES	1	&Notes...
	
PSTAT	PSTAT	REF600-11020	Potentiostat
VDC	POTEN	0.00000E+000	T	DC &Voltage (V)
FREQINIT	QUANT	1.00000E+006	Initial Fre&q. (Hz)
FREQFINAL	QUANT	1.00000E+000	Final Fre&q. (Hz)
PTSPERDEC	QUANT	1.00000E+001	Points/&decade
VAC	QUANT	2.50000E+001	AC &Voltage (mV rms)
AREA	QUANT	1.00000E-002	&Area (cm^2)
CONDIT	TWOPARAM	T	5.00000E+000	0.00000E+000	Conditionin&g	Time(s)	E(V)
DELAY	TWOPARAM	T	5.00000E+000	0.00000E+000	Init. De&lay	Time(s)	Stab.(mV/s)
SPEED	SELECTOR	1	&Optimize for:
ZGUESS	QUANT	1.00000E+007	E&stimated Z (ohms)
OCVCURVE	TABLE	18
	Pt	T	Vf	Vm	Ach	Over
	#	s	V vs. Ref.	V	V	bits
	0	0.258333	7.73232E-003	7.73232E-003	4.92867E-004	...........
	1	0.516667	7.73002E-003	7.61184E-003	4.87300E-004	...........
	2	0.775	7.71639E-003	7.52388E-003	4.82567E-004	...........
	3	1.03333	7.67969E-003	7.45009E-003	4.86034E-004	...........
	4	1.29167	7.61868E-003	7.40673E-003	4.85367E-004	...........
	5	1.55	7.54587E-003	7.36157E-003	4.87434E-004	...........
	6	1.80833	7.47698E-003	7.36158E-003	4.80234E-004	...........
	7	2.06667	7.42408E-003	7.44457E-003	4.87034E-004	...........
	8	2.325	7.39475E-003	7.35266E-003	4.91600E-004	...........
	9	2.58333	7.38456E-003	7.31094E-003	4.91067E-004	...........
	10	2.84167	7.37650E-003	7.31979E-003	4.88967E-004	...........
	11	3.1	7.35966E-003	7.30406E-003	4.91167E-004	...........
	12	3.35833	7.33768E-003	7.25796E-003	4.83567E-004	...........
	13	3.61667	7.31617E-003	7.27601E-003	4.80900E-004	...........
	14	3.875	7.29731E-003	7.28526E-003	4.84100E-004	...........
	15	4.13333	7.28381E-003	7.25976E-003	4.89300E-004	...........
	16	4.39167	7.27586E-003	7.23582E-003	4.95867E-004	...........
	17	4.65	7.26877E-003	7.24274E-003	4.86134E-004	...........
EOC	QUANT	0.0072598	Open Circuit (V)
PSTATMODEL	IQUANT	4	Pstat Model
PSTATSECTION	LABEL	REF600-11020	Pstat Section
PSTATSERIALNO	LABEL	11020	Pstat Serial Number
CTRLMODE	IQUANT	1	Control Mode
IESTAB	IQUANT	0	I/E Stability
CASPEED	IQUANT	1	Control Amp Speed
CONVENTION	IQUANT	1	Current Convention
ICHRANGE	IQUANT	2	Ich Range
ICHRANGEMODE	TOGGLE	F	Ich Auto Range
ICHOFFSETENABLE	TOGGLE	T	Ich Offset Enable
ICHOFFSET	QUANT	0	Ich Offset (V)
ICHFILTER	IQUANT	3	Ich Filter
VCHRANGE	IQUANT	2	Vch Range
VCHRANGEMODE	TOGGLE	F	Vch Auto Range
VCHOFFSETENABLE	TOGGLE	T	Vch Offset Enable
VCHOFFSET	QUANT	0	Vch Offset (V)
VCHFILTER	IQUANT	3	Vch Filter
ACHRANGE	IQUANT	2	Ach Range
ACHOFFSETENABLE	TOGGLE	F	Ach Offset Enable
ACHOFFSET	QUANT	0	Ach Offset (V)
ACHFILTER	IQUANT	3	Ach Filter
IERANGELOWERLIMIT	IQUANT	1	I/E Range Lower Limit
IERANGEMODE	TOGGLE	F	I/E AutoRange
IERANGE	IQUANT	3	I/E Range
POSFEEDENABLE	TOGGLE	F	Positive Feedback IR Comp
POSFEEDRESISTANCE	QUANT	0	Positive Feedback Resistance (ohm)
ACHSELECT	IQUANT	0	Ach Select
CABLEID	IQUANT	14	Cable ID
DCCALDATE	LABEL	8/19/2019	DC Calibration Date
ACCALDATE	LABEL	8/19/2019	AC Calibration Date
THERMOSELECT	IQUANT	1	Thermo Select
FRAMEWORKVERSION	QUANT	6.33	Framework Version
INSTRUMENTVERSION	LABEL	3.50	Instrument Version
ZCURVE	TABLE
	Pt	Time	Freq	Zreal	Zimag	Zsig	Zmod	Zphz	Idc	Vdc	IERange
	#	s	Hz	ohm	ohm	V	ohm	°	A	V	#
	0	1	1000078	2340.027	-1797.218	1	2950.545	-37.52545	-2.600826E-006	0.0098679	8
	1	3	794390.6	2712.356	-1726.203	1	3215.067	-32.47356	2.550149E-006	0.0090127	8
	2	4	630984.4	3042.844	-1594.394	1	3435.257	-27.65371	-3.373618E-006	0.0097808	8
	3	5	501234.4	3310.557	-1451.826	1	3614.911	-23.67958	4.605092E-007	0.009031	8
	4	7	398109.4	3526.12	-1259.391	1	3744.274	-19.65472	8.694585E-007	0.0087925	8
	5	8	316265.6	3676.949	-1100.757	1	3838.179	-16.66597	3.128758E-006	0.0083913	8
	6	9	251203.1	3805.315	-944.8694	1	3920.868	-13.94467	1.029409E-006	0.0087238	8
	7	11	199546.9	3893.677	-805.2085	1	3976.064	-11.68401	-5.230645E-007	0.0090554	8
	8	12	158578.1	3957.734	-728.4115	1	4024.207	-10.42845	-4.996459E-007	0.0090517	8
	9	13	125953.1	4033.37	-616.757	1	4080.252	-8.693958	-8.925505E-008	0.0089598	7
	10	15	100078.1	4078.407	-560.7887	1	4116.781	-7.829183	-1.694686E-008	0.0088898	7
	11	16	79453.13	4118.966	-530.8574	1	4153.034	-7.343867	-2.664038E-008	0.0089191	7
	12	17	63140.62	4159.328	-511.4739	1	4190.658	-7.010485	-2.279203E-009	0.0089051	7
	13	19	50203.12	4199.67	-510.9134	1	4230.633	-6.936268	-3.384088E-009	0.0089046	7
	14	20	39890.62	4239.808	-521.3571	1	4271.743	-7.010305	-2.113805E-008	0.008951	7
	15	21	31640.63	4282.231	-548.6032	1	4317.229	-7.300483	4.621333E-008	0.0087917	7
	16	23	25171.88	4325.246	-588.3686	1	4365.081	-7.746468	-6.754852E-009	0.0089104	7
	17	24	20015.62	4372.783	-643.6571	1	4419.901	-8.373591	7.659401E-008	0.0087678	7
	18	25	15890.62	4425.991	-719.9885	1	4484.17	-9.239533	-2.773805E-010	0.0088914	7
	19	27	12609.37	4481.991	-814.3136	1	4555.365	-10.2975	-1.282441E-008	0.0088684	7
	20	28	10078.13	4539.838	-927.4069	1	4633.596	-11.54564	-1.937686E-008	0.008945	7
	21	30	8015.625	4609.594	-1070.504	1	4732.265	-13.07426	1.644988E-008	0.0088621	7
	22	31	6328.125	4689.904	-1252.863	1	4854.365	-14.95675	4.920592E-008	0.0087951	7
	23	32	5015.625	4780.694	-1473.724	1	5002.689	-17.13273	3.6076E-008	0.0088742	7
	24	33	3984.375	4887.524	-1738.963	1	5187.667	-19.58537	-3.542749E-008	0.0089252	7
	25	35	3170.956	5008.563	-2057.612	1	5414.746	-22.33378	-1.262283E-008	0.0088736	7
	26	36	2527.573	5150.43	-2437.219	1	5697.979	-25.32383	5.028574E-008	0.0087894	7
	27	37	1976.103	5337.404	-2938.396	1	6092.787	-28.83406	-1.22009E-008	0.0089512	7
	28	39	1577.524	5540.026	-3491.448	1	6548.442	-32.22004	-3.647579E-008	0.0089223	7
	29	40	1265.625	5777.407	-4130.091	1	7101.837	-35.55981	-1.178912E-008	0.0088667	7
	30	41	998.264	6075.432	-4961.328	1	7843.829	-39.23581	7.685204E-008	0.0087522	7
	31	43	796.875	6420.214	-5901.83	1	8720.708	-42.59101	-1.166896E-008	0.0088619	7
	32	44	627.7902	6851.787	-7087.005	1	9857.62	-45.96678	1.833956E-008	0.0088513	7
	33	45	505.5147	7306.879	-8378.33	1	11116.96	-48.90778	-1.365095E-009	0.0088145	6
	34	47	397.9953	7907.43	-10087.62	1	12817.47	-51.908	7.580122E-010	0.0088266	6
	35	48	315.5048	8584.928	-12088.37	1	14826.65	-54.61836	7.85687E-010	0.0088219	6
	36	49	252.4038	9346.959	-14398.12	1	17166	-57.0092	9.578657E-010	0.0088185	6
	37	51	198.6229	10311.53	-17396.35	1	20222.78	-59.34305	7.554843E-010	0.0088216	6
	38	52	158.3615	11394.73	-20829.87	1	23742.86	-61.31966	8.781215E-010	0.0088155	6
	39	54	125.558	12713.99	-25096.76	1	28133.48	-63.13328	8.753621E-010	0.0088155	6
	40	55	100.4464	14238.97	-30020.94	1	33226.57	-64.62495	9.557793E-010	0.0088118	6
	41	56	79.00281	16241.42	-36449.77	1	39904.5	-65.98302	5.509297E-010	0.0088149	6
	42	58	63.3446	18368.33	-43516.08	1	47233.94	-67.11517	4.80452E-010	0.0088127	6
	43	59	49.86702	21524.07	-53068.52	1	57267.39	-67.923	2.848803E-010	0.0088113	6
	44	60	39.72458	24874.26	-63830.37	1	68505.8	-68.70948	7.298582E-010	0.0088153	6
	45	62	31.6723	29201.28	-76666.59	1	82039.51	-69.14883	7.737957E-010	0.0088122	6
	46	63	24.93351	34802.02	-93115.13	1	99406.3	-69.50665	3.338185E-010	0.0088134	6
	47	64	19.86229	41483.7	-111836.1	1	119282	-69.64851	8.078634E-010	0.008821	5
	48	66	15.83615	49713.46	-133651.5	1	142597.9	-69.59665	6.382423E-010	0.0088225	5
	49	67	12.40079	61334.34	-162655.3	1	173835.2	-69.33946	8.04656E-010	0.0088209	5
	50	68	9.93114	73929.78	-193689	1	207318.7	-69.10848	6.1711E-010	0.0088183	5
	51	70	7.944915	89980.73	-230589.5	1	247523.8	-68.68326	4.903005E-010	0.0088257	5
	52	72	6.317385	110278	-274679.3	1	295989.8	-68.12556	1.284091E-010	0.0088355	5
	53	74	5.008013	135981.8	-326999.6	1	354146.6	-67.42016	4.007989E-010	0.0088334	5
	54	76	3.945707	169537.8	-390266	1	425500.4	-66.5191	1.860825E-010	0.0088186	5
	55	79	3.158693	207474.3	-457874.2	1	502687.1	-65.62353	2.568936E-010	0.0088397	5
	56	82	2.504006	256828.7	-539736.6	1	597726.2	-64.55299	-8.263738E-011	0.0088156	5
	57	85	1.998082	315375.3	-628874.6	1	703523.1	-63.36662	-1.442935E-012	0.008784	5
	58	88	1.584686	387797.3	-729830.7	1	826462.1	-62.01595	2.131977E-011	0.0088439	5
	59	91	1.266892	472297.1	-841402.7	1	964895	-60.69358	2.588915E-011	0.0087838	5
	60	96	0.999041	577888.9	-969047	1	1128276	-59.19036	8.639267E-011	0.0088612	4
