EXPLAIN
TAG	EISPOT
TITLE	LABEL	Potentiostatic EIS	Test &Identifier
DATE	LABEL	10/26/2019	Date
TIME	LABEL	9:53:44	Time
NOTES	NOTES	1	&Notes...
	
PSTAT	PSTAT	REF600-11020	Potentiostat
VDC	POTEN	0.00000E+000	T	DC &Voltage (V)
FREQINIT	QUANT	1.00000E+006	Initial Fre&q. (Hz)
FREQFINAL	QUANT	1.00000E+000	Final Fre&q. (Hz)
PTSPERDEC	QUANT	1.00000E+001	Points/&decade
VAC	QUANT	2.50000E+001	AC &Voltage (mV rms)
AREA	QUANT	1.00000E-002	&Area (cm^2)
CONDIT	TWOPARAM	T	5.00000E+000	0.00000E+000	Conditionin&g	Time(s)	E(V)
DELAY	TWOPARAM	T	5.00000E+000	0.00000E+000	Init. De&lay	Time(s)	Stab.(mV/s)
SPEED	SELECTOR	0	&Optimize for:
ZGUESS	QUANT	1.00000E+005	E&stimated Z (ohms)
OCVCURVE	TABLE	19
	Pt	T	Vf	Vm	Ach	Over
	#	s	V vs. Ref.	V	V	bits
	0	0.258333	6.82468E-003	6.82468E-003	5.52366E-004	...........
	1	0.516667	6.82713E-003	6.95307E-003	5.47199E-004	...........
	2	0.775	6.84414E-003	7.17673E-003	5.52299E-004	...........
	3	1.03333	6.89643E-003	7.27085E-003	5.48466E-004	...........
	4	1.29167	6.99170E-003	7.32106E-003	5.47166E-004	...........
	5	1.55	7.11213E-003	7.52250E-003	5.51599E-004	...........
	6	1.80833	7.23835E-003	7.69885E-003	5.52033E-004	...........
	7	2.06667	7.36972E-003	7.78218E-003	5.53833E-004	...........
	8	2.325	7.50822E-003	7.89404E-003	5.56866E-004	...........
	9	2.58333	7.64607E-003	8.07027E-003	5.53266E-004	...........
	10	2.84167	7.77881E-003	8.19235E-003	5.55299E-004	...........
	11	3.1	7.91039E-003	8.29867E-003	5.56866E-004	...........
	12	3.35833	8.04226E-003	8.43353E-003	5.51299E-004	...........
	13	3.61667	8.17173E-003	8.56488E-003	5.50766E-004	...........
	14	3.875	8.29838E-003	8.67376E-003	5.50199E-004	...........
	15	4.13333	8.42341E-003	8.79900E-003	5.45599E-004	...........
	16	4.39167	8.54670E-003	8.91615E-003	5.54866E-004	...........
	17	4.65	8.66805E-003	9.03618E-003	5.50033E-004	...........
	18	4.90833	8.78798E-003	9.14858E-003	5.45133E-004	...........
EOC	QUANT	0.008788	Open Circuit (V)
PSTATMODEL	IQUANT	4	Pstat Model
PSTATSECTION	LABEL	REF600-11020	Pstat Section
PSTATSERIALNO	LABEL	11020	Pstat Serial Number
CTRLMODE	IQUANT	1	Control Mode
IESTAB	IQUANT	0	I/E Stability
CASPEED	IQUANT	1	Control Amp Speed
CONVENTION	IQUANT	1	Current Convention
ICHRANGE	IQUANT	2	Ich Range
ICHRANGEMODE	TOGGLE	F	Ich Auto Range
ICHOFFSETENABLE	TOGGLE	T	Ich Offset Enable
ICHOFFSET	QUANT	0	Ich Offset (V)
ICHFILTER	IQUANT	3	Ich Filter
VCHRANGE	IQUANT	2	Vch Range
VCHRANGEMODE	TOGGLE	F	Vch Auto Range
VCHOFFSETENABLE	TOGGLE	T	Vch Offset Enable
VCHOFFSET	QUANT	0	Vch Offset (V)
VCHFILTER	IQUANT	3	Vch Filter
ACHRANGE	IQUANT	2	Ach Range
ACHOFFSETENABLE	TOGGLE	F	Ach Offset Enable
ACHOFFSET	QUANT	0	Ach Offset (V)
ACHFILTER	IQUANT	3	Ach Filter
IERANGELOWERLIMIT	IQUANT	1	I/E Range Lower Limit
IERANGEMODE	TOGGLE	F	I/E AutoRange
IERANGE	IQUANT	5	I/E Range
POSFEEDENABLE	TOGGLE	F	Positive Feedback IR Comp
POSFEEDRESISTANCE	QUANT	0	Positive Feedback Resistance (ohm)
ACHSELECT	IQUANT	0	Ach Select
CABLEID	IQUANT	14	Cable ID
DCCALDATE	LABEL	8/19/2019	DC Calibration Date
ACCALDATE	LABEL	8/19/2019	AC Calibration Date
THERMOSELECT	IQUANT	1	Thermo Select
FRAMEWORKVERSION	QUANT	6.33	Framework Version
INSTRUMENTVERSION	LABEL	3.50	Instrument Version
ZCURVE	TABLE
	Pt	Time	Freq	Zreal	Zimag	Zsig	Zmod	Zphz	Idc	Vdc	IERange
	#	s	Hz	ohm	ohm	V	ohm	°	A	V	#
	0	2	1000078	2112.808	-1001.318	1	2338.075	-25.35756	1.366271E-006	0.0109769	8
	1	2	794390.6	2264.872	-897.9865	1	2436.396	-21.62756	3.439486E-006	0.0100035	8
	2	2	630984.4	2402.564	-789.7587	1	2529.038	-18.19647	-1.796702E-006	0.010865	8
	3	2	501234.4	2501.061	-683.0106	1	2592.645	-15.27437	3.57824E-006	0.0098722	8
	4	3	398109.4	2589.108	-591.9454	1	2655.914	-12.87814	-3.323665E-007	0.0104085	8
	5	3	316265.6	2642.483	-509.8037	1	2691.211	-10.91969	-1.504908E-006	0.0106047	8
	6	3	251203.1	2686.211	-447.029	1	2723.153	-9.448359	-3.055812E-006	0.0108789	8
	7	4	199546.9	2725.854	-387.1113	1	2753.204	-8.082794	-1.067711E-006	0.010579	8
	8	4	158578.1	2749.055	-353.7233	1	2771.719	-7.332011	-3.809549E-007	0.0102298	8
	9	4	125953.1	2791.313	-291.0492	1	2806.446	-5.952698	3.370527E-007	0.0096902	7
	10	5	100078.1	2810.52	-266.3323	1	2823.111	-5.413334	4.330352E-008	0.0102103	7
	11	5	79453.13	2832.606	-262.2975	1	2844.724	-5.290466	-3.396336E-008	0.0103575	7
	12	5	63140.62	2854.702	-265.1197	1	2866.987	-5.30591	9.178515E-008	0.0101447	7
	13	6	50203.12	2878.779	-272.9134	1	2891.687	-5.415556	9.305094E-008	0.010141	7
	14	6	39890.62	2904.731	-285.5369	1	2918.732	-5.614173	-3.380849E-008	0.0103501	7
	15	6	31640.63	2932.167	-304.9162	1	2947.978	-5.936853	5.889163E-008	0.0101557	7
	16	7	25171.88	2960.974	-330.739	1	2979.388	-6.373485	-5.759769E-008	0.0103552	7
	17	7	20015.62	2995.03	-364.2757	1	3017.101	-6.934638	-8.622265E-009	0.0102659	7
	18	7	15890.62	3026.754	-403.1891	1	3053.49	-7.587611	-8.809807E-009	0.0102468	7
	19	8	12609.37	3063.425	-453.0709	1	3096.748	-8.412879	-2.858906E-008	0.010277	7
	20	8	10078.13	3101.167	-511.0573	1	3142.995	-9.357959	-5.06687E-008	0.0103721	7
	21	8	8015.625	3140.461	-583.2239	1	3194.158	-10.5207	-4.999666E-008	0.0103724	7
	22	9	6328.125	3186.973	-673.9606	1	3257.456	-11.94062	6.01574E-008	0.0101539	7
	23	9	5015.625	3234.742	-784.5021	1	3328.513	-13.63239	-5.079054E-008	0.0103678	7
	24	9	3984.375	3286.833	-918.4089	1	3412.733	-15.61146	-3.00752E-008	0.0102747	7
	25	9	3170.956	3340.052	-1082.363	1	3511.048	-17.95522	3.159025E-009	0.0103549	7
	26	10	2527.573	3400.331	-1282.288	1	3634.076	-20.66181	-5.881503E-008	0.0104434	7
	27	10	1976.103	3472.052	-1550.228	1	3802.414	-24.06017	-3.275683E-008	0.0103435	7
	28	10	1577.524	3541.025	-1847.775	1	3994.137	-27.55642	3.433827E-008	0.0101603	7
	29	11	1265.625	3625.957	-2220.854	1	4252.03	-31.48696	-5.713516E-008	0.0103437	7
	30	11	998.264	3727.707	-2709.539	1	4608.405	-36.01208	-1.252159E-008	0.0102968	7
	31	11	796.875	3839.79	-3280.8	1	5050.508	-40.5113	6.138571E-008	0.0101442	7
	32	12	627.7902	3984.051	-4034.094	1	5669.795	-45.35759	3.265257E-009	0.0102651	7
	33	12	505.5147	4142.492	-4874.356	1	6396.842	-49.64031	6.063402E-008	0.0101449	7
	34	12	397.9953	4366.351	-6019.2	1	7436.113	-54.04272	5.574102E-010	0.0102968	7
	35	13	315.5048	4641.284	-7395.863	1	8731.569	-57.88961	4.979867E-010	0.0102964	7
	36	13	252.4038	4984.068	-9017.061	1	10302.83	-61.06892	-6.074301E-010	0.0102354	6
	37	13	198.6229	5463.6	-11155.97	1	12422.02	-63.90685	-1.102693E-010	0.0102367	6
	38	14	158.3615	6056.079	-13632.42	1	14917.07	-66.04726	-7.126791E-010	0.0102341	6
	39	14	125.558	6864.938	-16723.29	1	18077.49	-67.68177	-5.162484E-011	0.0102358	6
	40	14	100.4464	7872.518	-20293.83	1	21767.31	-68.79739	-9.701009E-010	0.0102338	6
	41	15	79.00281	9380.473	-24936.39	1	26642.39	-69.3849	-8.953456E-010	0.0102325	6
	42	15	63.3446	11118.81	-30467.62	1	32433.07	-69.95102	5.367127E-010	0.010229	6
	43	15	49.86702	13616.75	-37021.36	1	39446.13	-69.80608	2.411252E-010	0.0102309	6
	44	16	39.72458	17021.19	-44263.7	1	47423.58	-68.96622	4.6959E-011	0.0102343	6
	45	16	31.6723	21216.31	-52723.62	1	56832.31	-68.07984	4.222319E-010	0.0102329	6
	46	16	24.93351	26832.14	-63435.04	1	68876.48	-67.07231	-9.656707E-010	0.0102336	6
	47	17	19.86229	33699.27	-75012.36	1	82234.39	-65.80802	-2.812721E-009	0.0102341	6
	48	17	15.83615	43284.09	-87345.7	1	97482.2	-63.63932	2.715521E-009	0.0102328	6
	49	17	12.40079	54529.9	-101983.6	1	115646.8	-61.86691	-2.541323E-009	0.0102413	5
	50	18	9.93114	66170.91	-117533.4	1	134880.3	-60.62063	8.17001E-010	0.0102344	5
	51	18	7.944915	80012.49	-133919.7	1	156001.5	-59.14311	-5.665031E-010	0.0102391	5
	52	19	6.317385	96223.5	-151511.5	1	179484.5	-57.58076	-3.867398E-010	0.0102343	5
	53	20	5.008013	114298	-171358.1	1	205979.7	-56.29622	5.95296E-011	0.0102387	5
	54	21	3.945707	134383.4	-193692.6	1	235745	-55.2472	-3.81382E-010	0.0102255	5
	55	22	3.158693	154598.4	-217931.4	1	267198	-54.64848	-1.158972E-010	0.0102186	5
	56	24	2.504006	176384.2	-247313.8	1	303768.8	-54.50353	-1.667787E-011	0.010224	5
	57	25	1.998082	199202.7	-280647.9	1	344158.3	-54.63303	-3.707636E-010	0.0101794	5
	58	27	1.584686	223720.9	-323132.2	1	393020.9	-55.30317	-3.408104E-010	0.0101883	5
	59	29	1.266892	250234.4	-371533.7	1	447944.8	-56.03905	-2.431519E-010	0.0102251	5
	60	31	0.999041	283422.7	-434302.2	1	518600.8	-56.87181	-1.818862E-010	0.0102545	5
