EXPLAIN
TAG	EISPOT
TITLE	LABEL	Potentiostatic EIS	Test &Identifier
DATE	LABEL	11/7/2019	Date
TIME	LABEL	10:43:12	Time
NOTES	NOTES	2	&Notes...
	
	
PSTAT	PSTAT	REF600-11020	Potentiostat
VDC	POTEN	0.00000E+000	T	DC &Voltage (V)
FREQINIT	QUANT	1.00000E+006	Initial Fre&q. (Hz)
FREQFINAL	QUANT	1.00000E+000	Final Fre&q. (Hz)
PTSPERDEC	QUANT	1.00000E+001	Points/&decade
VAC	QUANT	2.50000E+001	AC &Voltage (mV rms)
AREA	QUANT	1.00000E-002	&Area (cm^2)
CONDIT	TWOPARAM	T	5.00000E+000	0.00000E+000	Conditionin&g	Time(s)	E(V)
DELAY	TWOPARAM	T	5.00000E+000	0.00000E+000	Init. De&lay	Time(s)	Stab.(mV/s)
SPEED	SELECTOR	1	&Optimize for:
ZGUESS	QUANT	1.00000E+005	E&stimated Z (ohms)
OCVCURVE	TABLE	19
	Pt	T	Vf	Vm	Ach	Over
	#	s	V vs. Ref.	V	V	bits
	0	0.258333	5.68436E-004	5.68436E-004	5.41166E-004	...........
	1	0.516667	5.61476E-004	2.04077E-004	5.42299E-004	...........
	2	0.775	5.10773E-004	-5.58008E-004	5.38433E-004	...........
	3	1.03333	3.43818E-004	-1.13566E-003	5.37633E-004	...........
	4	1.29167	6.76714E-006	-1.68578E-003	5.36966E-004	...........
	5	1.55	-4.83159E-004	-2.46095E-003	5.42399E-004	...........
	6	1.80833	-1.06793E-003	-3.05318E-003	5.40966E-004	...........
	7	2.06667	-1.69683E-003	-3.49495E-003	5.39333E-004	...........
	8	2.325	-2.32283E-003	-3.87761E-003	5.38099E-004	...........
	9	2.58333	-2.89852E-003	-4.25963E-003	5.39533E-004	...........
	10	2.84167	-3.39995E-003	-4.63762E-003	5.31233E-004	...........
	11	3.1	-3.83645E-003	-5.01599E-003	5.38966E-004	...........
	12	3.35833	-4.23197E-003	-5.30950E-003	5.34066E-004	...........
	13	3.61667	-4.60190E-003	-5.58705E-003	5.33866E-004	...........
	14	3.875	-4.94605E-003	-5.80246E-003	5.32200E-004	...........
	15	4.13333	-5.25617E-003	-5.96016E-003	5.31966E-004	...........
	16	4.39167	-5.52682E-003	-6.23659E-003	5.42966E-004	...........
	17	4.65	-5.76591E-003	-6.50565E-003	5.35866E-004	...........
	18	4.90833	-5.99380E-003	-6.70597E-003	5.37366E-004	...........
EOC	QUANT	-0.0059938	Open Circuit (V)
PSTATMODEL	IQUANT	4	Pstat Model
PSTATSECTION	LABEL	REF600-11020	Pstat Section
PSTATSERIALNO	LABEL	11020	Pstat Serial Number
CTRLMODE	IQUANT	1	Control Mode
IESTAB	IQUANT	0	I/E Stability
CASPEED	IQUANT	1	Control Amp Speed
CONVENTION	IQUANT	1	Current Convention
ICHRANGE	IQUANT	2	Ich Range
ICHRANGEMODE	TOGGLE	F	Ich Auto Range
ICHOFFSETENABLE	TOGGLE	T	Ich Offset Enable
ICHOFFSET	QUANT	0	Ich Offset (V)
ICHFILTER	IQUANT	3	Ich Filter
VCHRANGE	IQUANT	2	Vch Range
VCHRANGEMODE	TOGGLE	F	Vch Auto Range
VCHOFFSETENABLE	TOGGLE	T	Vch Offset Enable
VCHOFFSET	QUANT	0	Vch Offset (V)
VCHFILTER	IQUANT	3	Vch Filter
ACHRANGE	IQUANT	2	Ach Range
ACHOFFSETENABLE	TOGGLE	F	Ach Offset Enable
ACHOFFSET	QUANT	0	Ach Offset (V)
ACHFILTER	IQUANT	3	Ach Filter
IERANGELOWERLIMIT	IQUANT	1	I/E Range Lower Limit
IERANGEMODE	TOGGLE	F	I/E AutoRange
IERANGE	IQUANT	5	I/E Range
POSFEEDENABLE	TOGGLE	F	Positive Feedback IR Comp
POSFEEDRESISTANCE	QUANT	0	Positive Feedback Resistance (ohm)
ACHSELECT	IQUANT	0	Ach Select
CABLEID	IQUANT	14	Cable ID
DCCALDATE	LABEL	8/19/2019	DC Calibration Date
ACCALDATE	LABEL	8/19/2019	AC Calibration Date
THERMOSELECT	IQUANT	1	Thermo Select
FRAMEWORKVERSION	QUANT	6.33	Framework Version
INSTRUMENTVERSION	LABEL	3.50	Instrument Version
ZCURVE	TABLE
	Pt	Time	Freq	Zreal	Zimag	Zsig	Zmod	Zphz	Idc	Vdc	IERange
	#	s	Hz	ohm	ohm	V	ohm	°	A	V	#
	0	2	1000078	2597.208	-1982.24	1	3267.226	-37.35158	7.586138E-007	-0.0043046	8
	1	4	794390.6	2967.047	-1986.285	1	3570.532	-33.80027	-2.646359E-006	-0.0045014	8
	2	5	630984.4	3338.246	-1938.473	1	3860.254	-30.14314	5.216657E-007	-0.0047411	8
	3	7	501234.4	3678.942	-1819.745	1	4104.399	-26.31875	-2.618116E-006	-0.0042408	8
	4	8	398109.4	3973.335	-1665.792	1	4308.393	-22.74551	-2.223108E-006	-0.0042965	8
	5	10	316265.6	4225.787	-1521.283	1	4491.278	-19.79887	6.679215E-008	-0.0048529	8
	6	11	251203.1	4427.787	-1390.42	1	4640.966	-17.4334	4.464708E-006	-0.0045201	8
	7	13	199546.9	4591.637	-1242.423	1	4756.757	-15.14075	-6.885617E-006	-0.0035163	8
	8	15	158578.1	4743.827	-1148.465	1	4880.868	-13.60927	-2.520828E-007	-0.0047859	8
	9	16	125953.1	4877.846	-970.58	1	4973.47	-11.25358	-3.431906E-006	-0.0017404	7
	10	18	100078.1	4967.189	-928.8793	1	5053.294	-10.59214	4.612058E-007	-0.0038379	7
	11	19	79453.13	5070.643	-894.5139	1	5148.939	-10.00463	1.362758E-006	-0.0059233	7
	12	20	63140.62	5148.839	-892.6036	1	5225.637	-9.83506	1.02046E-006	-0.004774	7
	13	22	50203.12	5236.923	-904.7095	1	5314.495	-9.80144	7.43999E-007	-0.0042526	7
	14	23	39890.62	5329.616	-940.7156	1	5412.001	-10.01001	1.252828E-006	-0.0053927	7
	15	24	31640.63	5416.453	-991.822	1	5506.512	-10.37664	6.210776E-007	-0.0066199	7
	16	26	25171.88	5511.955	-1059.141	1	5612.791	-10.877	1.633199E-007	-0.0062601	7
	17	27	20015.62	5617.092	-1150.447	1	5733.694	-11.57478	-8.827133E-007	-0.0047748	7
	18	29	15890.62	5752.121	-1268.716	1	5890.376	-12.43829	1.353334E-006	-0.0063451	7
	19	30	12609.37	5883.199	-1401.405	1	6047.807	-13.39843	1.363677E-006	-0.0059231	7
	20	31	10078.13	6002.03	-1528.116	1	6193.505	-14.28402	-3.752629E-007	-0.0028486	7
	21	33	8015.625	6186.384	-1757.048	1	6431.063	-15.85553	-1.119536E-006	-0.0024634	7
	22	34	6328.125	6386.35	-1998.893	1	6691.864	-17.37984	9.831253E-007	-0.0067427	7
	23	36	5015.625	6600.619	-2265.085	1	6978.451	-18.9403	4.654267E-007	-0.0038458	7
	24	37	3984.375	6847.822	-2579.112	1	7317.409	-20.638	1.566174E-007	-0.006255	7
	25	39	3170.956	7107.29	-2922.026	1	7684.518	-22.34907	-1.27963E-006	-0.0039343	7
	26	41	2527.573	7425.103	-3333.907	1	8139.231	-24.18031	-3.677E-007	-0.0056318	7
	27	42	1976.103	7820.511	-3836.865	1	8711.023	-26.13329	-7.7713E-007	-0.0025654	7
	28	44	1577.524	8260.417	-4373.491	1	9346.76	-27.89905	-3.566932E-007	-0.0056295	7
	29	45	1265.625	8688.778	-4975.301	1	10012.42	-29.79598	9.783082E-007	-0.0067509	7
	30	47	998.264	9242.521	-5670.513	1	10843.38	-31.53014	7.404837E-008	-0.0033316	7
	31	48	796.875	9847.65	-6410.5	1	11750.35	-33.06283	1.518156E-007	-0.0045377	6
	32	49	627.7902	10508.47	-7309.031	1	12800.38	-34.82006	2.204069E-007	-0.0076975	6
	33	51	505.5147	11141.39	-8250.151	1	13863.46	-36.51978	-6.036202E-008	-0.0063339	6
	34	52	397.9953	11835.72	-9477.854	1	15162.92	-38.68718	1.862642E-010	-0.004582	6
	35	54	315.5048	12509.67	-10936.42	1	16616.17	-41.16117	2.10305E-010	-0.0045714	6
	36	55	252.4038	13152.37	-12681.02	1	18270.01	-43.95473	-2.014781E-009	-0.0045797	6
	37	56	198.6229	13860.69	-15037.19	1	20450.81	-47.33134	3.429287E-010	-0.0045888	6
	38	58	158.3615	14589.08	-17846.57	1	23050.84	-50.73494	5.992872E-010	-0.0045762	6
	39	59	125.558	15402.6	-21480.15	1	26431.74	-54.35714	8.788431E-010	-0.0045868	6
	40	60	100.4464	16351.81	-25875.91	1	30609.55	-57.70991	1.354491E-009	-0.0045803	6
	41	62	79.00281	17523.93	-31568.38	1	36106.11	-60.9649	1.342436E-009	-0.0045933	6
	42	63	63.3446	19534.29	-37835.77	1	42580.91	-62.69307	3.723131E-010	-0.0045821	6
	43	65	49.86702	21249.69	-47600.01	1	52127.82	-65.94296	5.696817E-010	-0.00458	6
	44	66	39.72458	23712.42	-57656.32	1	62342.04	-67.64402	6.573903E-010	-0.0045925	6
	45	67	31.6723	26803.48	-70294.73	1	75231.48	-69.12807	1.515719E-009	-0.0045891	6
	46	69	24.93351	31730.86	-86152.75	1	91810.37	-69.78078	2.59434E-010	-0.0045871	6
	47	70	19.86229	37531.15	-104464.3	1	111001.7	-70.23803	1.62371E-010	-0.0045839	5
	48	72	15.83615	45259.81	-128076.7	1	135838.4	-70.53758	2.288658E-009	-0.0045853	5
	49	73	12.40079	56973.91	-154470.5	1	164642.6	-69.75433	6.830621E-010	-0.0045727	5
	50	74	9.93114	69508.55	-184852	1	197488.5	-69.3926	1.98969E-010	-0.0045711	5
	51	76	7.944915	85085.76	-220599.4	1	236439.6	-68.90825	-1.299364E-010	-0.0045774	5
	52	78	6.317385	108124	-260227.7	1	281796.4	-67.43723	9.14763E-011	-0.0045902	5
	53	80	5.008013	135005.4	-307681.4	1	335997.5	-66.30894	1.622339E-010	-0.0045847	5
	54	82	3.945707	168193.3	-362311.7	1	399448	-65.0982	3.744628E-010	-0.0045695	5
	55	85	3.158693	204982.8	-419659	1	467045.6	-63.96676	2.427479E-010	-0.0046078	5
	56	88	2.504006	247922.1	-487651.9	1	547055.6	-63.05123	4.199132E-010	-0.0045737	5
	57	91	1.998082	294237.6	-562366.6	1	634690.4	-62.38084	4.051107E-010	-0.0045822	5
	58	94	1.584686	349027.9	-652555	1	740032.8	-61.85929	2.535159E-010	-0.0046271	5
	59	98	1.266892	405316.8	-753458	1	855558.7	-61.72232	3.516606E-010	-0.0045947	5
	60	102	0.999041	474724.5	-884211.9	1	1003591	-61.76909	1.635816E-010	-0.00458	5
