EXPLAIN
TAG	EISPOT
TITLE	LABEL	Potentiostatic EIS	Test &Identifier
DATE	LABEL	11/7/2019	Date
TIME	LABEL	10:40:50	Time
NOTES	NOTES	2	&Notes...
	
	
PSTAT	PSTAT	REF600-11020	Potentiostat
VDC	POTEN	0.00000E+000	T	DC &Voltage (V)
FREQINIT	QUANT	1.00000E+006	Initial Fre&q. (Hz)
FREQFINAL	QUANT	1.00000E+000	Final Fre&q. (Hz)
PTSPERDEC	QUANT	1.00000E+001	Points/&decade
VAC	QUANT	2.50000E+001	AC &Voltage (mV rms)
AREA	QUANT	1.00000E-002	&Area (cm^2)
CONDIT	TWOPARAM	T	5.00000E+000	0.00000E+000	Conditionin&g	Time(s)	E(V)
DELAY	TWOPARAM	T	5.00000E+000	0.00000E+000	Init. De&lay	Time(s)	Stab.(mV/s)
SPEED	SELECTOR	1	&Optimize for:
ZGUESS	QUANT	1.00000E+005	E&stimated Z (ohms)
OCVCURVE	TABLE	19
	Pt	T	Vf	Vm	Ach	Over
	#	s	V vs. Ref.	V	V	bits
	0	0.258333	-5.52686E-003	-5.52686E-003	5.56766E-004	...........
	1	0.516667	-5.54504E-003	-6.47808E-003	5.55133E-004	...........
	2	0.775	-5.65554E-003	-7.32289E-003	5.61099E-004	...........
	3	1.03333	-5.96463E-003	-8.13955E-003	5.56733E-004	...........
	4	1.29167	-6.51093E-003	-8.91129E-003	5.63566E-004	...........
	5	1.55	-7.22900E-003	-9.64980E-003	5.53899E-004	...........
	6	1.80833	-8.01733E-003	-1.03407E-002	5.55933E-004	...........
	7	2.06667	-8.80286E-003	-1.10007E-002	5.52532E-004	...........
	8	2.325	-9.55254E-003	-1.16261E-002	5.47399E-004	...........
	9	2.58333	-1.02591E-002	-1.22288E-002	5.50866E-004	...........
	10	2.84167	-1.09259E-002	-1.27981E-002	5.53866E-004	...........
	11	3.1	-1.15586E-002	-1.33504E-002	5.49866E-004	...........
	12	3.35833	-1.21616E-002	-1.38803E-002	5.51033E-004	...........
	13	3.61667	-1.27387E-002	-1.43918E-002	5.51633E-004	...........
	14	3.875	-1.32924E-002	-1.48820E-002	5.49933E-004	...........
	15	4.13333	-1.38251E-002	-1.53654E-002	5.56533E-004	...........
	16	4.39167	-1.43387E-002	-1.58292E-002	5.47566E-004	...........
	17	4.65	-1.48352E-002	-1.62767E-002	5.50199E-004	...........
	18	4.90833	-1.53158E-002	-1.67119E-002	5.52432E-004	...........
EOC	QUANT	-0.0153158	Open Circuit (V)
PSTATMODEL	IQUANT	4	Pstat Model
PSTATSECTION	LABEL	REF600-11020	Pstat Section
PSTATSERIALNO	LABEL	11020	Pstat Serial Number
CTRLMODE	IQUANT	1	Control Mode
IESTAB	IQUANT	0	I/E Stability
CASPEED	IQUANT	1	Control Amp Speed
CONVENTION	IQUANT	1	Current Convention
ICHRANGE	IQUANT	2	Ich Range
ICHRANGEMODE	TOGGLE	F	Ich Auto Range
ICHOFFSETENABLE	TOGGLE	T	Ich Offset Enable
ICHOFFSET	QUANT	0	Ich Offset (V)
ICHFILTER	IQUANT	3	Ich Filter
VCHRANGE	IQUANT	2	Vch Range
VCHRANGEMODE	TOGGLE	F	Vch Auto Range
VCHOFFSETENABLE	TOGGLE	T	Vch Offset Enable
VCHOFFSET	QUANT	0	Vch Offset (V)
VCHFILTER	IQUANT	3	Vch Filter
ACHRANGE	IQUANT	2	Ach Range
ACHOFFSETENABLE	TOGGLE	F	Ach Offset Enable
ACHOFFSET	QUANT	0	Ach Offset (V)
ACHFILTER	IQUANT	3	Ach Filter
IERANGELOWERLIMIT	IQUANT	1	I/E Range Lower Limit
IERANGEMODE	TOGGLE	F	I/E AutoRange
IERANGE	IQUANT	5	I/E Range
POSFEEDENABLE	TOGGLE	F	Positive Feedback IR Comp
POSFEEDRESISTANCE	QUANT	0	Positive Feedback Resistance (ohm)
ACHSELECT	IQUANT	0	Ach Select
CABLEID	IQUANT	14	Cable ID
DCCALDATE	LABEL	8/19/2019	DC Calibration Date
ACCALDATE	LABEL	8/19/2019	AC Calibration Date
THERMOSELECT	IQUANT	1	Thermo Select
FRAMEWORKVERSION	QUANT	6.33	Framework Version
INSTRUMENTVERSION	LABEL	3.50	Instrument Version
ZCURVE	TABLE
	Pt	Time	Freq	Zreal	Zimag	Zsig	Zmod	Zphz	Idc	Vdc	IERange
	#	s	Hz	ohm	ohm	V	ohm	°	A	V	#
	0	2	1000078	2550.861	-1766.962	1	3103.071	-34.71005	-1.030332E-005	-0.0128917	8
	1	4	794390.6	2910.307	-1692.689	1	3366.762	-30.18309	3.144159E-006	-0.0138345	8
	2	5	630984.4	3221.954	-1558.473	1	3579.082	-25.81325	-7.639326E-007	-0.0140162	8
	3	7	501234.4	3480.135	-1396.084	1	3749.718	-21.85859	-3.947979E-007	-0.0130696	8
	4	8	398109.4	3687.272	-1212.364	1	3881.469	-18.20071	-1.896839E-006	-0.0139888	8
	5	10	316265.6	3840.612	-1069.076	1	3986.631	-15.55512	-4.167962E-006	-0.0130808	8
	6	12	251203.1	3958.863	-917.6285	1	4063.82	-13.05019	-4.026072E-006	-0.013108	8
	7	13	199546.9	4048.093	-796.4847	1	4125.705	-11.13108	5.520808E-008	-0.0141151	8
	8	15	158578.1	4117.225	-685.925	1	4173.971	-9.458542	-7.257651E-007	-0.0140887	8
	9	16	125953.1	4208.476	-533.5533	1	4242.163	-7.22545	-4.507806E-007	-0.0162797	7
	10	18	100078.1	4232.643	-463.4044	1	4257.935	-6.248056	-1.087565E-006	-0.0117678	7
	11	19	79453.13	4285.599	-431.9789	1	4307.315	-5.755847	-3.408566E-007	-0.0148484	7
	12	21	63140.62	4311.409	-406.7527	1	4330.554	-5.389523	-3.670649E-007	-0.0121476	7
	13	22	50203.12	4345.35	-392.8155	1	4363.068	-5.165444	6.28609E-008	-0.0126151	7
	14	23	39890.62	4373.431	-386.7472	1	4390.498	-5.053582	-3.439274E-007	-0.0148575	7
	15	25	31640.63	4402.08	-394.7066	1	4419.74	-5.123648	-8.504933E-007	-0.01403	7
	16	26	25171.88	4441.437	-411.7137	1	4460.479	-5.296087	9.575843E-007	-0.0159334	7
	17	27	20015.62	4472.218	-439.696	1	4493.781	-5.615116	7.22007E-007	-0.0135223	7
	18	29	15890.62	4507.239	-478.8232	1	4532.601	-6.06403	9.894575E-007	-0.0140247	7
	19	30	12609.37	4537.108	-532.7985	1	4568.285	-6.697643	1.193051E-006	-0.0158183	7
	20	32	10078.13	4568.942	-602.5389	1	4608.501	-7.51265	-1.472156E-006	-0.0120671	7
	21	33	8015.625	4613.208	-684.3713	1	4663.695	-8.438309	-1.470431E-006	-0.0120657	7
	22	34	6328.125	4669.523	-797.3772	1	4737.115	-9.69047	1.192246E-006	-0.0158171	7
	23	36	5015.625	4713.898	-931.0231	1	4804.959	-11.17247	-3.399471E-007	-0.0148563	7
	24	37	3984.375	4775.883	-1107.19	1	4902.543	-13.05227	1.311494E-006	-0.0155348	7
	25	38	3170.956	4838.116	-1304.711	1	5010.951	-15.09213	1.32485E-006	-0.0151412	7
	26	40	2527.573	4902.131	-1554.386	1	5142.665	-17.59297	4.512654E-007	-0.0131333	7
	27	41	1976.103	4985.194	-1887.477	1	5330.547	-20.7375	-1.471389E-006	-0.0120724	7
	28	43	1577.524	5079.681	-2278.417	1	5567.256	-24.15793	-8.507386E-007	-0.0140337	7
	29	44	1265.625	5203.478	-2706.77	1	5865.388	-27.48277	-3.64702E-007	-0.0121538	7
	30	45	998.264	5349.005	-3295.161	1	6282.51	-31.63442	-8.495871E-007	-0.0140322	7
	31	47	796.875	5507.469	-3982.128	1	6796.291	-35.86848	-8.568796E-007	-0.0140321	7
	32	48	627.7902	5712.123	-4876.213	1	7510.379	-40.48607	1.191872E-006	-0.015814	7
	33	49	505.5147	5928.601	-5857.745	1	8334.355	-44.65556	9.529043E-007	-0.0159355	7
	34	51	397.9953	6233.43	-7173.519	1	9503.42	-49.01099	8.087413E-009	-0.0137773	7
	35	52	315.5048	6590.397	-8754.85	1	10958.13	-53.02863	1.163963E-009	-0.013836	6
	36	54	252.4038	7004.46	-10617.56	1	12719.87	-56.58696	1.666317E-009	-0.0138248	6
	37	55	198.6229	7559.894	-13077.41	1	15105.31	-59.9683	1.775942E-009	-0.0138369	6
	38	56	158.3615	8232.155	-15930.32	1	17931.63	-62.67188	-1.527982E-010	-0.0138313	6
	39	58	125.558	9119.469	-19509.56	1	21535.73	-64.94692	1.348893E-009	-0.0138382	6
	40	59	100.4464	10272.46	-23683.97	1	25815.77	-66.55215	1.053575E-009	-0.0138425	6
	41	60	79.00281	11746.9	-29196.24	1	31470.79	-68.08296	2.160508E-009	-0.013833	6
	42	62	63.3446	13395.09	-34856.32	1	37341.55	-68.97852	1.445576E-009	-0.0138359	6
	43	63	49.86702	16865.59	-42973.01	1	46164.14	-68.57151	1.558088E-009	-0.0138485	6
	44	65	39.72458	20024.35	-51889.22	1	55618.93	-68.89811	1.585436E-009	-0.0138361	6
	45	66	31.6723	24515.1	-62525.77	1	67159.97	-68.59085	1.239295E-009	-0.0138415	6
	46	68	24.93351	30513.42	-74987.08	1	80957.59	-67.85782	1.571852E-009	-0.0138386	6
	47	69	19.86229	37629.79	-88985.11	1	96614.4	-67.0776	1.497942E-009	-0.0138406	6
	48	70	15.83615	46319.46	-103505.3	1	113396.9	-65.89111	2.427027E-009	-0.0138377	5
	49	72	12.40079	58362.84	-123998.1	1	137046.5	-64.79478	1.543123E-009	-0.0138418	5
	50	73	9.93114	71527.63	-144708.9	1	161421.4	-63.69744	1.509618E-009	-0.0138302	5
	51	75	7.944915	86871.35	-167712	1	188875.5	-62.61678	7.343983E-010	-0.0138406	5
	52	77	6.317385	103538.1	-193653	1	219594.2	-61.86845	1.132553E-009	-0.0138204	5
	53	79	5.008013	123988.7	-224339.4	1	256322.8	-61.07129	1.14084E-009	-0.013831	5
	54	81	3.945707	148389.8	-260688.8	1	299963.6	-60.35051	7.82552E-010	-0.0138259	5
	55	84	3.158693	174140.3	-299246.2	1	346227	-59.8036	7.339321E-010	-0.0138367	5
	56	87	2.504006	204470.8	-346111.4	1	401996.8	-59.42685	9.282842E-010	-0.0138414	5
	57	90	1.998082	237805.3	-398472.8	1	464038.8	-59.1716	6.355957E-010	-0.013793	5
	58	93	1.584686	275353.9	-461041.8	1	537009.6	-59.15254	7.636091E-010	-0.013838	5
	59	97	1.266892	319260.9	-532802	1	621132.4	-59.06949	6.636893E-010	-0.0137936	5
	60	101	0.999041	371333.4	-620833.4	1	723410.4	-59.11547	5.64518E-010	-0.0138749	5
