EXPLAIN
TAG	EISPOT
TITLE	LABEL	Potentiostatic EIS	Test &Identifier
DATE	LABEL	10/8/2019	Date
TIME	LABEL	8:06:40	Time
NOTES	NOTES	2	&Notes...
	
	
PSTAT	PSTAT	REF600-11020	Potentiostat
VDC	POTEN	0.00000E+000	T	DC &Voltage (V)
FREQINIT	QUANT	1.00000E+006	Initial Fre&q. (Hz)
FREQFINAL	QUANT	1.00000E+000	Final Fre&q. (Hz)
PTSPERDEC	QUANT	1.00000E+001	Points/&decade
VAC	QUANT	2.50000E+001	AC &Voltage (mV rms)
AREA	QUANT	1.00000E-002	&Area (cm^2)
CONDIT	TWOPARAM	T	5.00000E+000	0.00000E+000	Conditionin&g	Time(s)	E(V)
DELAY	TWOPARAM	T	5.00000E+000	0.00000E+000	Init. De&lay	Time(s)	Stab.(mV/s)
SPEED	SELECTOR	1	&Optimize for:
ZGUESS	QUANT	1.00000E+004	E&stimated Z (ohms)
OCVCURVE	TABLE	19
	Pt	T	Vf	Vm	Ach	Over
	#	s	V vs. Ref.	V	V	bits
	0	0.258333	6.37820E-003	6.37820E-003	5.73766E-004	...........
	1	0.516667	6.37969E-003	6.45616E-003	5.69232E-004	...........
	2	0.775	6.38914E-003	6.54591E-003	5.67232E-004	...........
	3	1.03333	6.41703E-003	6.64038E-003	5.73899E-004	...........
	4	1.29167	6.46981E-003	6.74294E-003	5.70099E-004	...........
	5	1.55	6.54507E-003	6.84194E-003	5.69466E-004	...........
	6	1.80833	6.63545E-003	6.95345E-003	5.66599E-004	...........
	7	2.06667	6.73426E-003	7.05622E-003	5.69332E-004	...........
	8	2.325	6.83747E-003	7.16559E-003	5.68532E-004	...........
	9	2.58333	6.94287E-003	7.26855E-003	5.64099E-004	...........
	10	2.84167	7.04910E-003	7.37731E-003	5.69199E-004	...........
	11	3.1	7.15547E-003	7.48158E-003	5.69999E-004	...........
	12	3.35833	7.26168E-003	7.58546E-003	5.73999E-004	...........
	13	3.61667	7.36820E-003	7.72578E-003	5.68366E-004	...........
	14	3.875	7.47601E-003	7.77799E-003	5.74466E-004	...........
	15	4.13333	7.58484E-003	7.95464E-003	5.77866E-004	...........
	16	4.39167	7.69320E-003	7.96999E-003	5.71166E-004	...........
	17	4.65	7.79842E-003	8.08780E-003	5.66199E-004	...........
	18	4.90833	7.89733E-003	8.19623E-003	5.65732E-004	...........
EOC	QUANT	0.0078973	Open Circuit (V)
PSTATMODEL	IQUANT	4	Pstat Model
PSTATSECTION	LABEL	REF600-11020	Pstat Section
PSTATSERIALNO	LABEL	11020	Pstat Serial Number
CTRLMODE	IQUANT	1	Control Mode
IESTAB	IQUANT	0	I/E Stability
CASPEED	IQUANT	1	Control Amp Speed
CONVENTION	IQUANT	1	Current Convention
ICHRANGE	IQUANT	2	Ich Range
ICHRANGEMODE	TOGGLE	F	Ich Auto Range
ICHOFFSETENABLE	TOGGLE	T	Ich Offset Enable
ICHOFFSET	QUANT	0	Ich Offset (V)
ICHFILTER	IQUANT	3	Ich Filter
VCHRANGE	IQUANT	2	Vch Range
VCHRANGEMODE	TOGGLE	F	Vch Auto Range
VCHOFFSETENABLE	TOGGLE	T	Vch Offset Enable
VCHOFFSET	QUANT	0	Vch Offset (V)
VCHFILTER	IQUANT	3	Vch Filter
ACHRANGE	IQUANT	2	Ach Range
ACHOFFSETENABLE	TOGGLE	F	Ach Offset Enable
ACHOFFSET	QUANT	0	Ach Offset (V)
ACHFILTER	IQUANT	3	Ach Filter
IERANGELOWERLIMIT	IQUANT	1	I/E Range Lower Limit
IERANGEMODE	TOGGLE	F	I/E AutoRange
IERANGE	IQUANT	6	I/E Range
POSFEEDENABLE	TOGGLE	F	Positive Feedback IR Comp
POSFEEDRESISTANCE	QUANT	0	Positive Feedback Resistance (ohm)
ACHSELECT	IQUANT	0	Ach Select
CABLEID	IQUANT	14	Cable ID
DCCALDATE	LABEL	8/19/2019	DC Calibration Date
ACCALDATE	LABEL	8/19/2019	AC Calibration Date
THERMOSELECT	IQUANT	1	Thermo Select
FRAMEWORKVERSION	QUANT	6.33	Framework Version
INSTRUMENTVERSION	LABEL	3.50	Instrument Version
ZCURVE	TABLE
	Pt	Time	Freq	Zreal	Zimag	Zsig	Zmod	Zphz	Idc	Vdc	IERange
	#	s	Hz	ohm	ohm	V	ohm	°	A	V	#
	0	1	1000078	1362.964	-2042.06	1	2455.133	-56.27904	-1.281891E-006	0.0110576	8
	1	2	794390.6	1520.786	-2435.209	1	2871.069	-58.01525	5.312915E-006	0.0089842	8
	2	4	630984.4	1730.885	-2856.755	1	3340.212	-58.78866	-4.073372E-006	0.0101222	8
	3	5	501234.4	2000.68	-3417.855	1	3960.361	-59.65695	1.945583E-006	0.0092091	8
	4	6	398109.4	2340.311	-4036.273	1	4665.678	-59.894	-2.751715E-006	0.0099215	8
	5	8	316265.6	2769.834	-4782.656	1	5526.823	-59.92309	1.450601E-006	0.0094296	8
	6	9	251203.1	3354.726	-5659.51	1	6579.076	-59.34227	2.199478E-006	0.0090891	8
	7	11	199546.9	3991.72	-6599.393	1	7712.705	-58.83186	4.300042E-006	0.0088382	8
	8	13	158578.1	4962.652	-7644.599	1	9114.154	-57.00954	-4.835827E-007	0.0097165	8
	9	14	125953.1	6193.513	-8695.524	1	10675.75	-54.53908	4.225896E-007	0.0083301	7
	10	16	100078.1	7583.315	-9894.3	1	12466.11	-52.53226	-3.710134E-008	0.0095295	7
	11	17	79453.13	9314.881	-11094.49	1	14486.36	-49.98333	-1.481079E-008	0.009566	7
	12	18	63140.62	11381.35	-12129.74	1	16633.27	-46.82319	-4.113218E-008	0.0095234	7
	13	20	50203.12	13740.15	-12969.73	1	18894.6	-43.34782	7.999964E-008	0.0093329	7
	14	21	39890.62	16348.13	-13440.82	1	21164.05	-39.42578	8.018498E-008	0.0093365	7
	15	22	31640.63	18965.3	-13550.36	1	23308.68	-35.54511	-8.164628E-008	0.0096446	7
	16	24	25171.88	21531.55	-13311.59	1	25314.15	-31.72587	6.458702E-009	0.0095295	7
	17	25	20015.62	23547.97	-12662.68	1	26736.69	-28.2687	-4.761305E-008	0.0095382	7
	18	27	15890.62	25968.06	-12034.34	1	28621.07	-24.86434	-4.833253E-008	0.0095408	7
	19	28	12609.37	28000.75	-10899	1	30047.13	-21.26795	-9.022801E-009	0.0095881	6
	20	29	10078.13	29464.78	-10136.98	1	31159.78	-18.98513	-5.658467E-009	0.0095924	6
	21	31	8015.625	30734.29	-9408.164	1	32142.03	-17.02003	1.540262E-009	0.0093378	6
	22	32	6328.125	31915.82	-8831.636	1	33115.21	-15.46765	6.258831E-009	0.0092775	6
	23	33	5015.625	32937.81	-8378.048	1	33986.63	-14.27109	1.79736E-008	0.0092102	6
	24	35	3984.375	33882.88	-7983.748	1	34810.77	-13.25863	1.820941E-008	0.009112	6
	25	36	3170.956	34743.49	-7861.894	1	35621.89	-12.75038	-5.315298E-009	0.0094468	6
	26	38	2527.573	35557.98	-7802.899	1	36404.06	-12.37689	2.376149E-009	0.0092707	6
	27	39	1976.103	36435.5	-7968.017	1	37296.58	-12.33571	-6.476074E-009	0.009587	6
	28	40	1577.524	37185.24	-8151.38	1	38068.19	-12.36424	-4.427688E-009	0.0093749	6
	29	42	1265.625	37983.89	-8586.81	1	38942.39	-12.73842	1.061297E-008	0.0094004	6
	30	43	998.264	38819.77	-9216.937	1	39898.96	-13.35636	-6.537419E-009	0.0095856	6
	31	44	796.875	39635.48	-10076.87	1	40896.39	-14.26459	-1.081507E-008	0.0095497	6
	32	46	627.7902	40567.54	-11231.4	1	42093.59	-15.47511	1.046335E-008	0.0094045	6
	33	47	505.5147	41469.87	-12481.77	1	43307.56	-16.75095	4.132461E-009	0.0095176	6
	34	48	397.9953	42611.94	-14367.17	1	44968.8	-18.63221	2.96815E-010	0.0094644	6
	35	50	315.5048	43879.27	-16561.32	1	46900.61	-20.67798	-2.351079E-013	0.0094657	6
	36	51	252.4038	45309.84	-19098.77	1	49170.57	-22.85615	4.071611E-010	0.009462	6
	37	53	198.6229	47137.23	-22391.27	1	52185.13	-25.40879	3.481691E-010	0.0094594	6
	38	54	158.3615	49209.18	-26115.52	1	55709.64	-27.95508	3.079289E-010	0.0094629	6
	39	55	125.558	51751.1	-30553.72	1	60097.47	-30.55749	-1.315365E-010	0.0094634	6
	40	57	100.4464	54603.99	-35600.12	1	65184.08	-33.10311	4.269662E-010	0.00946	6
	41	58	79.00281	58242.56	-41652.08	1	71603.72	-35.5704	2.076897E-010	0.0094618	6
	42	59	63.3446	62924	-47553.9	1	78872.06	-37.07964	7.631652E-011	0.0094595	6
	43	61	49.86702	68360.7	-57164.01	1	89111.78	-39.90276	-4.463664E-010	0.009457	6
	44	62	39.72458	73926.96	-65779.7	1	98955.4	-41.66247	5.785832E-011	0.0094691	5
	45	64	31.6723	80733.93	-75665.65	1	110649.3	-43.14392	-4.565354E-010	0.0094617	5
	46	65	24.93351	89704.04	-88155.06	1	125770.1	-44.50102	4.639741E-010	0.0094588	5
	47	66	19.86229	99518.8	-101419.3	1	142091.1	-45.5419	-5.846519E-010	0.0094662	5
	48	68	15.83615	109513.3	-116606.4	1	159969.4	-46.79671	5.974604E-010	0.0094639	5
	49	69	12.40079	125715.1	-135419	1	184777.2	-47.12816	6.946255E-010	0.0094682	5
	50	71	9.93114	139535.2	-153000.8	1	207073.2	-47.63549	-6.338227E-010	0.0094699	5
	51	72	7.944915	155805.9	-174129.9	1	233659.4	-48.17884	6.02664E-010	0.0094647	5
	52	74	6.317385	174754.2	-199044.8	1	264873.3	-48.71803	3.572286E-010	0.009457	5
	53	76	5.008013	196274	-227971.9	1	300823.3	-49.27296	2.087657E-010	0.009471	5
	54	78	3.945707	221394.5	-262335.2	1	343271.4	-49.83773	-2.242562E-010	0.0094592	5
	55	81	3.158693	247769	-299555.7	1	388745.5	-50.40511	1.459518E-011	0.0094794	5
	56	84	2.504006	279006.5	-345139.7	1	443808.5	-51.04837	-1.37493E-010	0.0094544	5
	57	87	1.998082	313677.2	-396186.9	1	505329.1	-51.62992	-3.475515E-010	0.0094976	5
	58	90	1.584686	354821.7	-458133.9	1	579469.7	-52.24245	-4.816539E-011	0.0095056	5
	59	94	1.266892	400580.3	-526306.7	1	661410.1	-52.72466	-3.222541E-010	0.0095029	5
	60	98	0.999041	456930	-611921.8	1	763697.1	-53.25082	5.06846E-011	0.0094479	5
