EXPLAIN
TAG	EISPOT
TITLE	LABEL	Potentiostatic EIS	Test &Identifier
DATE	LABEL	10/2/2019	Date
TIME	LABEL	9:22:27	Time
NOTES	NOTES	2	&Notes...
	
	
PSTAT	PSTAT	REF600-11020	Potentiostat
VDC	POTEN	0.00000E+000	T	DC &Voltage (V)
FREQINIT	QUANT	1.00000E+006	Initial Fre&q. (Hz)
FREQFINAL	QUANT	1.00000E+000	Final Fre&q. (Hz)
PTSPERDEC	QUANT	1.00000E+001	Points/&decade
VAC	QUANT	2.50000E+001	AC &Voltage (mV rms)
AREA	QUANT	1.00000E-002	&Area (cm^2)
CONDIT	TWOPARAM	T	5.00000E+000	0.00000E+000	Conditionin&g	Time(s)	E(V)
DELAY	TWOPARAM	T	5.00000E+000	0.00000E+000	Init. De&lay	Time(s)	Stab.(mV/s)
SPEED	SELECTOR	1	&Optimize for:
ZGUESS	QUANT	1.00000E+004	E&stimated Z (ohms)
OCVCURVE	TABLE	19
	Pt	T	Vf	Vm	Ach	Over
	#	s	V vs. Ref.	V	V	bits
	0	0.258333	7.72152E-003	7.72152E-003	5.45466E-004	...........
	1	0.516667	7.72299E-003	7.79858E-003	5.43333E-004	...........
	2	0.775	7.72734E-003	7.62595E-003	5.42099E-004	...........
	3	1.03333	7.72233E-003	7.37099E-003	5.42599E-004	...........
	4	1.29167	7.68531E-003	7.62858E-003	5.42566E-004	...........
	5	1.55	7.62808E-003	7.84606E-003	5.46166E-004	...........
	6	1.80833	7.61664E-003	8.38228E-003	5.44699E-004	...........
	7	2.06667	7.72000E-003	8.66094E-003	5.41533E-004	...........
	8	2.325	7.94818E-003	8.79110E-003	5.41466E-004	...........
	9	2.58333	8.23908E-003	8.79582E-003	5.44066E-004	...........
	10	2.84167	8.50745E-003	9.06791E-003	5.38099E-004	...........
	11	3.1	8.71519E-003	9.22529E-003	5.41399E-004	...........
	12	3.35833	8.88343E-003	9.39533E-003	5.42199E-004	...........
	13	3.61667	9.04606E-003	9.63897E-003	5.40233E-004	...........
	14	3.875	9.20937E-003	9.27482E-003	5.37933E-004	...........
	15	4.13333	9.33863E-003	9.24559E-003	5.44666E-004	...........
	16	4.39167	9.38942E-003	9.26361E-003	5.43599E-004	...........
	17	4.65	9.35969E-003	8.94629E-003	5.52599E-004	...........
	18	4.90833	9.28011E-003	9.00427E-003	5.46233E-004	...........
EOC	QUANT	0.0092801	Open Circuit (V)
PSTATMODEL	IQUANT	4	Pstat Model
PSTATSECTION	LABEL	REF600-11020	Pstat Section
PSTATSERIALNO	LABEL	11020	Pstat Serial Number
CTRLMODE	IQUANT	1	Control Mode
IESTAB	IQUANT	0	I/E Stability
CASPEED	IQUANT	1	Control Amp Speed
CONVENTION	IQUANT	1	Current Convention
ICHRANGE	IQUANT	2	Ich Range
ICHRANGEMODE	TOGGLE	F	Ich Auto Range
ICHOFFSETENABLE	TOGGLE	T	Ich Offset Enable
ICHOFFSET	QUANT	0	Ich Offset (V)
ICHFILTER	IQUANT	3	Ich Filter
VCHRANGE	IQUANT	2	Vch Range
VCHRANGEMODE	TOGGLE	F	Vch Auto Range
VCHOFFSETENABLE	TOGGLE	T	Vch Offset Enable
VCHOFFSET	QUANT	0	Vch Offset (V)
VCHFILTER	IQUANT	3	Vch Filter
ACHRANGE	IQUANT	2	Ach Range
ACHOFFSETENABLE	TOGGLE	F	Ach Offset Enable
ACHOFFSET	QUANT	0	Ach Offset (V)
ACHFILTER	IQUANT	3	Ach Filter
IERANGELOWERLIMIT	IQUANT	1	I/E Range Lower Limit
IERANGEMODE	TOGGLE	F	I/E AutoRange
IERANGE	IQUANT	6	I/E Range
POSFEEDENABLE	TOGGLE	F	Positive Feedback IR Comp
POSFEEDRESISTANCE	QUANT	0	Positive Feedback Resistance (ohm)
ACHSELECT	IQUANT	0	Ach Select
CABLEID	IQUANT	14	Cable ID
DCCALDATE	LABEL	8/19/2019	DC Calibration Date
ACCALDATE	LABEL	8/19/2019	AC Calibration Date
THERMOSELECT	IQUANT	1	Thermo Select
FRAMEWORKVERSION	QUANT	6.33	Framework Version
INSTRUMENTVERSION	LABEL	3.50	Instrument Version
ZCURVE	TABLE
	Pt	Time	Freq	Zreal	Zimag	Zsig	Zmod	Zphz	Idc	Vdc	IERange
	#	s	Hz	ohm	ohm	V	ohm	°	A	V	#
	0	1	1000078	2640.91	-1439.086	1	3007.553	-28.58688	-1.104942E-006	0.0119311	8
	1	2	794390.6	2888.069	-1293.839	1	3164.642	-24.13211	1.12439E-006	0.0112426	8
	2	4	630984.4	3081.323	-1139.177	1	3285.16	-20.28956	4.559481E-006	0.0101969	8
	3	5	501234.4	3241.216	-989.1	1	3388.776	-16.97025	2.069033E-007	0.0109693	8
	4	7	398109.4	3362.448	-849.3368	1	3468.058	-14.17608	-2.042026E-006	0.0112754	8
	5	8	316265.6	3453.778	-728.82	1	3529.839	-11.9158	-7.151456E-007	0.0111129	8
	6	9	251203.1	3510.141	-619.6939	1	3564.423	-10.01205	5.832816E-007	0.0108699	8
	7	11	199546.9	3550.866	-545.2237	1	3592.48	-8.729401	-2.039714E-006	0.0112052	8
	8	12	158578.1	3612.036	-483.1182	1	3644.202	-7.618227	3.355697E-006	0.010266	8
	9	13	125953.1	3656.936	-391.2011	1	3677.801	-6.106001	-8.838496E-007	0.0124965	7
	10	15	100078.1	3677.296	-362.4344	1	3695.114	-5.628894	5.286578E-008	0.010658	7
	11	16	79453.13	3707.667	-347.218	1	3723.89	-5.350068	5.509338E-009	0.0107293	7
	12	17	63140.62	3736.182	-341.9048	1	3751.793	-5.228677	2.164904E-008	0.0107128	7
	13	19	50203.12	3765.441	-343.232	1	3781.052	-5.2083	5.521766E-008	0.0107006	7
	14	20	39890.62	3797.311	-352.2331	1	3813.612	-5.29951	-4.697749E-008	0.0108929	7
	15	22	31640.63	3830.37	-370.0577	1	3848.204	-5.518304	-1.832515E-008	0.0108669	7
	16	23	25171.88	3866.746	-393.6203	1	3886.729	-5.812474	-1.260093E-008	0.0107957	7
	17	24	20015.62	3905.855	-426.377	1	3929.059	-6.229941	1.680931E-008	0.0107494	7
	18	26	15890.62	3948.299	-467.4609	1	3975.875	-6.752131	1.63327E-008	0.0107497	7
	19	27	12609.37	3993.746	-519.3718	1	4027.376	-7.409519	8.156612E-009	0.0108912	7
	20	28	10078.13	4043.165	-577.0207	1	4084.132	-8.122127	1.239552E-007	0.0106077	7
	21	30	8015.625	4096.263	-649.1047	1	4147.374	-9.004371	2.297107E-008	0.0107084	7
	22	31	6328.125	4155.079	-739.3248	1	4220.341	-10.08921	-4.596802E-008	0.0108886	7
	23	32	5015.625	4217.586	-845.192	1	4301.44	-11.33181	-8.609379E-008	0.011032	7
	24	34	3984.375	4284.677	-974.076	1	4394.005	-12.8079	-3.726994E-008	0.0107845	7
	25	35	3170.956	4355.749	-1128.414	1	4499.541	-14.52392	-1.290098E-008	0.010793	7
	26	36	2527.573	4431.341	-1315.947	1	4622.608	-16.5395	1.238395E-007	0.0106042	7
	27	38	1976.103	4523.067	-1565.187	1	4786.225	-19.08795	1.251522E-007	0.010598	7
	28	39	1577.524	4614.778	-1845.125	1	4969.976	-21.79299	1.026007E-007	0.0106973	7
	29	40	1265.625	4713.464	-2177.566	1	5192.161	-24.79639	-4.588048E-008	0.0108828	7
	30	42	998.264	4831.114	-2619.013	1	5495.352	-28.46273	5.750706E-008	0.0106925	7
	31	43	796.875	4953.583	-3138.344	1	5864.059	-32.35632	1.248631E-007	0.0106031	7
	32	44	627.7902	5103.592	-3816.846	1	6372.987	-36.79187	-3.585464E-008	0.0107828	7
	33	46	505.5147	5258.136	-4576.1	1	6970.559	-41.0327	5.26545E-008	0.0106288	7
	34	47	397.9953	5471.632	-5613.728	1	7839.177	-45.7344	5.405978E-009	0.0108095	7
	35	49	315.5048	5719.524	-6863.876	1	8934.526	-50.19627	5.954807E-009	0.0108134	7
	36	50	252.4038	6018.371	-8341.712	1	10286.15	-54.19034	9.757777E-010	0.0107447	6
	37	51	198.6229	6421.621	-10301.91	1	12139.46	-58.06295	7.001792E-010	0.0107451	6
	38	53	158.3615	6911.93	-12580.71	1	14354.41	-61.21531	3.624551E-010	0.0107442	6
	39	54	125.558	7563.99	-15443.67	1	17196.54	-63.90534	1.102351E-009	0.0107434	6
	40	55	100.4464	8386.458	-18786.66	1	20573.56	-65.94379	4.273988E-010	0.0107473	6
	41	57	79.00281	9547.39	-23176.64	1	25066.1	-67.61127	2.675807E-010	0.0107433	6
	42	58	63.3446	10984.23	-27969.78	1	30049.33	-68.55918	7.520498E-010	0.0107406	6
	43	59	49.86702	13040.45	-34590.03	1	36966.52	-69.34354	5.896061E-010	0.0107452	6
	44	61	39.72458	15521.23	-41848.36	1	44634	-69.65057	1.130298E-009	0.0107458	6
	45	62	31.6723	18938.85	-50528.02	1	53960.73	-69.45306	4.115147E-010	0.0107425	6
	46	64	24.93351	23520.3	-61251.34	1	65611.98	-68.99339	3.70126E-010	0.0107438	6
	47	65	19.86229	29240.16	-73208.34	1	78831.77	-68.22772	1.645892E-009	0.0107536	6
	48	66	15.83615	36456.94	-87390.37	1	94689.94	-67.3554	-1.08418E-009	0.0107442	6
	49	68	12.40079	46987.25	-103649.3	1	113802.4	-65.61383	-1.111165E-009	0.0107483	5
	50	69	9.93114	57838.27	-121331.5	1	134412	-64.51303	-1.381002E-010	0.0107539	5
	51	71	7.944915	71714.16	-140270.7	1	157539.8	-62.92137	-3.259647E-010	0.0107507	5
	52	72	6.317385	87892.98	-162054.7	1	184355.4	-61.5261	8.225855E-010	0.0107547	5
	53	74	5.008013	107553	-185993.1	1	214851.3	-59.96078	-2.283607E-010	0.0107614	5
	54	77	3.945707	130357.6	-213120.7	1	249827	-58.5475	-1.878089E-010	0.0107467	5
	55	79	3.158693	153495.8	-241412	1	286078.1	-57.55077	3.016982E-010	0.0107637	5
	56	83	2.504006	180242.4	-274538.3	1	328418.3	-56.71392	-3.208199E-010	0.0107498	5
	57	86	1.998082	207641.9	-310721.9	1	373715.5	-56.24692	1.05128E-011	0.0107094	5
	58	89	1.584686	237299.2	-354407.3	1	426515.5	-56.19508	-4.690056E-011	0.0107567	5
	59	92	1.266892	271545	-402573.2	1	485594.3	-55.99942	6.934411E-011	0.0107033	5
	60	97	0.999041	306187.7	-468268.3	1	559487.4	-56.82043	2.188361E-010	0.01079	5
