EXPLAIN
TAG	EISPOT
TITLE	LABEL	Potentiostatic IDE	Test &Identifier
DATE	LABEL	9/12/2019	Date
TIME	LABEL	9:20:52	Time
NOTES	NOTES	1	&Notes...
	
PSTAT	PSTAT	REF600-11020	Potentiostat
VDC	POTEN	0.00000E+000	T	DC &Voltage (V)
FREQINIT	QUANT	1.00000E+006	Initial Fre&q. (Hz)
FREQFINAL	QUANT	1.00000E+000	Final Fre&q. (Hz)
PTSPERDEC	QUANT	1.00000E+001	Points/&decade
VAC	QUANT	2.50000E+001	AC &Voltage (mV rms)
AREA	QUANT	1.00000E-002	&Area (cm^2)
CONDIT	TWOPARAM	T	5.00000E+000	0.00000E+000	Conditionin&g	Time(s)	E(V)
DELAY	TWOPARAM	T	5.00000E+000	0.00000E+000	Init. De&lay	Time(s)	Stab.(mV/s)
SPEED	SELECTOR	1	&Optimize for:
ZGUESS	QUANT	1.00000E+007	E&stimated Z (ohms)
OCVCURVE	TABLE	19
	Pt	T	Vf	Vm	Ach	Over
	#	s	V vs. Ref.	V	V	bits
	0	0.258333	5.30709E-003	5.30709E-003	5.43199E-004	...........
	1	0.516667	5.30342E-003	5.11457E-003	5.44099E-004	...........
	2	0.775	5.28108E-003	4.94500E-003	5.43466E-004	...........
	3	1.03333	5.21907E-003	4.80151E-003	5.44133E-004	...........
	4	1.29167	5.11157E-003	4.67615E-003	5.44966E-004	...........
	5	1.55	4.97521E-003	4.56398E-003	5.46499E-004	...........
	6	1.80833	4.83328E-003	4.46396E-003	5.42466E-004	...........
	7	2.06667	4.70085E-003	4.37058E-003	5.47366E-004	...........
	8	2.325	4.58260E-003	4.28297E-003	5.51399E-004	...........
	9	2.58333	4.47720E-003	4.19971E-003	5.46433E-004	...........
	10	2.84167	4.38152E-003	4.12414E-003	5.44366E-004	...........
	11	3.1	4.29312E-003	4.05439E-003	5.48866E-004	...........
	12	3.35833	4.21084E-003	3.98775E-003	5.48633E-004	...........
	13	3.61667	4.13418E-003	3.92456E-003	5.50499E-004	...........
	14	3.875	4.06257E-003	3.86407E-003	5.42566E-004	...........
	15	4.13333	3.99532E-003	3.81113E-003	5.46433E-004	...........
	16	4.39167	3.93202E-003	3.75697E-003	5.39299E-004	...........
	17	4.65	3.87237E-003	3.70069E-003	5.45466E-004	...........
	18	4.90833	3.81555E-003	3.64948E-003	5.45666E-004	...........
EOC	QUANT	0.0038156	Open Circuit (V)
PSTATMODEL	IQUANT	4	Pstat Model
PSTATSECTION	LABEL	REF600-11020	Pstat Section
PSTATSERIALNO	LABEL	11020	Pstat Serial Number
CTRLMODE	IQUANT	1	Control Mode
IESTAB	IQUANT	0	I/E Stability
CASPEED	IQUANT	1	Control Amp Speed
CONVENTION	IQUANT	1	Current Convention
ICHRANGE	IQUANT	2	Ich Range
ICHRANGEMODE	TOGGLE	F	Ich Auto Range
ICHOFFSETENABLE	TOGGLE	T	Ich Offset Enable
ICHOFFSET	QUANT	0	Ich Offset (V)
ICHFILTER	IQUANT	3	Ich Filter
VCHRANGE	IQUANT	2	Vch Range
VCHRANGEMODE	TOGGLE	F	Vch Auto Range
VCHOFFSETENABLE	TOGGLE	T	Vch Offset Enable
VCHOFFSET	QUANT	0	Vch Offset (V)
VCHFILTER	IQUANT	3	Vch Filter
ACHRANGE	IQUANT	2	Ach Range
ACHOFFSETENABLE	TOGGLE	F	Ach Offset Enable
ACHOFFSET	QUANT	0	Ach Offset (V)
ACHFILTER	IQUANT	3	Ach Filter
IERANGELOWERLIMIT	IQUANT	1	I/E Range Lower Limit
IERANGEMODE	TOGGLE	F	I/E AutoRange
IERANGE	IQUANT	2	I/E Range
POSFEEDENABLE	TOGGLE	F	Positive Feedback IR Comp
POSFEEDRESISTANCE	QUANT	0	Positive Feedback Resistance (ohm)
ACHSELECT	IQUANT	0	Ach Select
CABLEID	IQUANT	14	Cable ID
DCCALDATE	LABEL	8/19/2019	DC Calibration Date
ACCALDATE	LABEL	8/19/2019	AC Calibration Date
THERMOSELECT	IQUANT	1	Thermo Select
FRAMEWORKVERSION	QUANT	6.33	Framework Version
INSTRUMENTVERSION	LABEL	3.50	Instrument Version
ZCURVE	TABLE
	Pt	Time	Freq	Zreal	Zimag	Zsig	Zmod	Zphz	Idc	Vdc	IERange
	#	s	Hz	ohm	ohm	V	ohm	°	A	V	#
	0	3	1000078	2627.993	-1634.786	1	3094.976	-31.88435	2.161588E-006	0.0056948	8
	1	4	794390.6	2947.085	-1523.665	1	3317.659	-27.33931	-1.316798E-007	0.0055554	8
	2	6	630984.4	3194.865	-1377.118	1	3479.026	-23.31803	2.397094E-006	0.005064	8
	3	7	501234.4	3392.752	-1187.678	1	3594.628	-19.29327	-5.431572E-007	0.0057519	8
	4	9	398109.4	3557.675	-1040.263	1	3706.642	-16.29891	4.241336E-006	0.004653	8
	5	10	316265.6	3671.744	-890.3559	1	3778.153	-13.63048	-1.856185E-006	0.0056945	8
	6	11	251203.1	3759.294	-771.4932	1	3837.642	-11.59738	2.631593E-006	0.0048618	8
	7	13	199546.9	3828.316	-666.2692	1	3885.862	-9.87271	-5.343434E-008	0.0054174	8
	8	14	158578.1	3873.081	-584.7874	1	3916.98	-8.586101	-1.119072E-007	0.0054952	8
	9	16	125953.1	3930.808	-471.5701	1	3958.994	-6.84095	-2.847385E-007	0.006001	7
	10	17	100078.1	3969.415	-426.3354	1	3992.244	-6.130359	1.172581E-008	0.0052887	7
	11	18	79453.13	3997.949	-407.32	1	4018.645	-5.817349	-3.482273E-008	0.005375	7
	12	20	63140.62	4030.831	-399.7206	1	4050.602	-5.663266	-1.735388E-009	0.0052973	7
	13	21	50203.12	4062.35	-401.0267	1	4082.096	-5.637854	2.982442E-009	0.0052898	7
	14	22	39890.62	4093.077	-408.1243	1	4113.374	-5.694191	-4.206752E-008	0.0053811	7
	15	24	31640.63	4134.183	-433.6638	1	4156.865	-5.988261	-4.359268E-008	0.0054157	7
	16	25	25171.88	4173.521	-466.7109	1	4199.536	-6.380685	-5.17063E-008	0.0054584	7
	17	26	20015.62	4216.24	-508.5951	1	4246.804	-6.878222	-7.159807E-008	0.0054636	7
	18	28	15890.62	4260.015	-560.2794	1	4296.701	-7.492566	-3.537749E-008	0.0053599	7
	19	29	12609.37	4315.387	-628.33	1	4360.891	-8.284179	-3.591662E-008	0.0053645	7
	20	30	10078.13	4370.508	-704.6953	1	4426.956	-9.159467	-7.274505E-010	0.0052902	7
	21	32	8015.625	4428.835	-802.4451	1	4500.944	-10.26981	-4.249563E-008	0.0053849	7
	22	33	6328.125	4496.215	-924.1415	1	4590.206	-11.61469	-8.274522E-010	0.00529	7
	23	34	5015.625	4568.276	-1071.273	1	4692.203	-13.19755	-4.264724E-008	0.0054941	7
	24	36	3984.375	4644.788	-1245.143	1	4808.788	-15.00663	-4.561327E-008	0.005387	7
	25	37	3170.956	4728.689	-1458.551	1	4948.522	-17.14223	3.420701E-008	0.0053224	7
	26	38	2527.573	4823.36	-1717.177	1	5119.912	-19.59637	-6.484485E-009	0.005401	7
	27	40	1976.103	4937.074	-2060.759	1	5349.899	-22.6559	-5.223134E-008	0.0054667	7
	28	41	1577.524	5054.794	-2446.643	1	5615.782	-25.82811	-2.038638E-008	0.0055011	7
	29	42	1265.625	5191.381	-2905.506	1	5949.152	-29.23482	-2.213661E-008	0.0053442	7
	30	44	998.264	5352.771	-3506.618	1	6399.104	-33.22894	4.95011E-008	0.0052029	7
	31	45	796.875	5532.838	-4203.46	1	6948.48	-37.22501	9.402435E-010	0.0052817	7
	32	46	627.7902	5757.819	-5104.396	1	7694.631	-41.55749	-4.39165E-008	0.0053792	7
	33	48	505.5147	5996.537	-6110.743	1	8561.521	-45.54045	-6.945933E-008	0.0054608	7
	34	49	397.9953	6301.89	-7461.712	1	9766.83	-49.81678	5.763827E-009	0.0053589	7
	35	50	315.5048	6654.235	-9073.15	1	11251.71	-53.74373	1.157877E-009	0.0053089	6
	36	52	252.4038	7048.208	-10974.2	1	13042.63	-57.28928	4.593411E-010	0.0052967	6
	37	53	198.6229	7549.699	-13484.61	1	15454.21	-60.75661	1.077021E-009	0.0052979	6
	38	54	158.3615	8116.602	-16419.65	1	18316.23	-63.69578	5.410358E-010	0.0052975	6
	39	55	125.558	8825.202	-20114.61	1	21965.47	-66.31074	9.22452E-010	0.0052936	6
	40	57	100.4464	9689.13	-24499.98	1	26346.31	-68.42245	2.81597E-010	0.0052904	6
	41	58	79.00281	10850.53	-30233.3	1	32121.43	-70.25728	3.7408E-010	0.0052929	6
	42	59	63.3446	12567.32	-36904.78	1	38985.9	-71.19456	5.767147E-010	0.0052959	6
	43	61	49.86702	13945.89	-45320.95	1	47418.1	-72.89614	1.290477E-009	0.005292	6
	44	62	39.72458	16439.01	-55781.04	1	58152.95	-73.57944	1.084786E-009	0.0052976	6
	45	64	31.6723	19619.2	-67909.13	1	70686.37	-73.8858	7.624525E-010	0.0052937	6
	46	65	24.93351	23793.53	-83825.14	1	87136.59	-74.15356	8.698558E-010	0.0052994	6
	47	66	19.86229	29204.18	-102134.7	1	106228	-74.04276	1.532987E-009	0.0053022	6
	48	68	15.83615	36883.25	-122551	1	127981	-73.25018	1.877122E-009	0.0052956	5
	49	69	12.40079	45306.62	-151060.7	1	157708.7	-73.30479	-2.836923E-010	0.005301	5
	50	70	9.93114	58173.46	-181943.6	1	191017.3	-72.26918	1.007541E-009	0.0052977	5
	51	72	7.944915	74175.73	-217522.8	1	229822.2	-71.17052	8.610378E-010	0.005304	5
	52	74	6.317385	94514.91	-261475.4	1	278033.2	-70.12671	6.92937E-011	0.0053124	5
	53	76	5.008013	121318.6	-311611.7	1	334395.1	-68.72774	5.0139E-010	0.0053001	5
	54	78	3.945707	156612.9	-371324.8	1	403000.9	-67.13155	4.529664E-010	0.0052981	5
	55	81	3.158693	197669.2	-433354	1	476307.4	-65.48048	3.032951E-010	0.0053211	5
	56	84	2.504006	249893.1	-506904.4	1	565153.6	-63.75768	1.849806E-011	0.005293	5
	57	87	1.998082	310980.2	-584362.4	1	661957.8	-61.97943	5.841544E-011	0.005263	5
	58	90	1.584686	384608.8	-668814.9	1	771516.2	-60.09851	7.446346E-011	0.0053133	5
	59	94	1.266892	468163.5	-759014.8	1	891785.1	-58.33354	1.31134E-010	0.0052518	5
	60	98	0.999041	568011.7	-860816.9	1	1031331	-56.5811	9.295563E-011	0.0053285	4
