EXPLAIN
TAG	EISPOT
TITLE	LABEL	Potentiostatic IDE	Test &Identifier
DATE	LABEL	9/18/2019	Date
TIME	LABEL	9:27:50	Time
NOTES	NOTES	1	&Notes...
	
PSTAT	PSTAT	REF600-11020	Potentiostat
VDC	POTEN	0.00000E+000	T	DC &Voltage (V)
FREQINIT	QUANT	1.00000E+006	Initial Fre&q. (Hz)
FREQFINAL	QUANT	1.00000E+000	Final Fre&q. (Hz)
PTSPERDEC	QUANT	1.00000E+001	Points/&decade
VAC	QUANT	2.50000E+001	AC &Voltage (mV rms)
AREA	QUANT	1.00000E-002	&Area (cm^2)
CONDIT	TWOPARAM	T	5.00000E+000	0.00000E+000	Conditionin&g	Time(s)	E(V)
DELAY	TWOPARAM	T	5.00000E+000	0.00000E+000	Init. De&lay	Time(s)	Stab.(mV/s)
SPEED	SELECTOR	1	&Optimize for:
ZGUESS	QUANT	1.00000E+007	E&stimated Z (ohms)
OCVCURVE	TABLE	19
	Pt	T	Vf	Vm	Ach	Over
	#	s	V vs. Ref.	V	V	bits
	0	0.258333	8.71622E-003	8.71622E-003	5.66132E-004	...........
	1	0.516667	8.71592E-003	8.70016E-003	5.67799E-004	...........
	2	0.775	8.71448E-003	8.70856E-003	5.68099E-004	...........
	3	1.03333	8.71557E-003	8.90713E-003	5.71832E-004	...........
	4	1.29167	8.73802E-003	9.18769E-003	5.70166E-004	...........
	5	1.55	8.80759E-003	9.14727E-003	5.68832E-004	...........
	6	1.80833	8.92265E-003	9.25859E-003	5.73866E-004	...........
	7	2.06667	9.04924E-003	9.35233E-003	5.70199E-004	...........
	8	2.325	9.15898E-003	9.34855E-003	5.76066E-004	...........
	9	2.58333	9.24230E-003	9.25032E-003	5.70366E-004	...........
	10	2.84167	9.29359E-003	9.37442E-003	5.71966E-004	...........
	11	3.1	9.32284E-003	9.69558E-003	5.73266E-004	...........
	12	3.35833	9.37861E-003	1.02641E-002	5.75932E-004	...........
	13	3.61667	9.51859E-003	1.01309E-002	5.76832E-004	...........
	14	3.875	9.73801E-003	1.02874E-002	5.76866E-004	...........
	15	4.13333	9.96142E-003	1.01677E-002	5.74032E-004	...........
	16	4.39167	1.01141E-002	9.98982E-003	5.71066E-004	...........
	17	4.65	1.01693E-002	1.00529E-002	5.78099E-004	...........
	18	4.90833	1.01498E-002	1.01222E-002	5.77066E-004	...........
EOC	QUANT	0.0101498	Open Circuit (V)
PSTATMODEL	IQUANT	4	Pstat Model
PSTATSECTION	LABEL	REF600-11020	Pstat Section
PSTATSERIALNO	LABEL	11020	Pstat Serial Number
CTRLMODE	IQUANT	1	Control Mode
IESTAB	IQUANT	0	I/E Stability
CASPEED	IQUANT	1	Control Amp Speed
CONVENTION	IQUANT	1	Current Convention
ICHRANGE	IQUANT	2	Ich Range
ICHRANGEMODE	TOGGLE	F	Ich Auto Range
ICHOFFSETENABLE	TOGGLE	T	Ich Offset Enable
ICHOFFSET	QUANT	0	Ich Offset (V)
ICHFILTER	IQUANT	3	Ich Filter
VCHRANGE	IQUANT	2	Vch Range
VCHRANGEMODE	TOGGLE	F	Vch Auto Range
VCHOFFSETENABLE	TOGGLE	T	Vch Offset Enable
VCHOFFSET	QUANT	0	Vch Offset (V)
VCHFILTER	IQUANT	3	Vch Filter
ACHRANGE	IQUANT	2	Ach Range
ACHOFFSETENABLE	TOGGLE	F	Ach Offset Enable
ACHOFFSET	QUANT	0	Ach Offset (V)
ACHFILTER	IQUANT	3	Ach Filter
IERANGELOWERLIMIT	IQUANT	1	I/E Range Lower Limit
IERANGEMODE	TOGGLE	F	I/E AutoRange
IERANGE	IQUANT	3	I/E Range
POSFEEDENABLE	TOGGLE	F	Positive Feedback IR Comp
POSFEEDRESISTANCE	QUANT	0	Positive Feedback Resistance (ohm)
ACHSELECT	IQUANT	0	Ach Select
CABLEID	IQUANT	14	Cable ID
DCCALDATE	LABEL	8/19/2019	DC Calibration Date
ACCALDATE	LABEL	8/19/2019	AC Calibration Date
THERMOSELECT	IQUANT	1	Thermo Select
FRAMEWORKVERSION	QUANT	6.33	Framework Version
INSTRUMENTVERSION	LABEL	3.50	Instrument Version
ZCURVE	TABLE
	Pt	Time	Freq	Zreal	Zimag	Zsig	Zmod	Zphz	Idc	Vdc	IERange
	#	s	Hz	ohm	ohm	V	ohm	°	A	V	#
	0	2	1000078	2217.079	-1769.844	1	2836.863	-38.59957	5.763457E-006	0.0117184	8
	1	4	794390.6	2589.365	-1730.284	1	3114.272	-33.75191	-2.265295E-006	0.012293	8
	2	5	630984.4	2927.406	-1631.021	1	3351.109	-29.12462	3.269882E-006	0.011516	8
	3	6	501234.4	3225.855	-1477.391	1	3548.073	-24.60703	2.147183E-006	0.0114416	8
	4	8	398109.4	3441.658	-1320.087	1	3686.142	-20.98489	-1.691794E-006	0.0121459	8
	5	9	316265.6	3618.146	-1130.175	1	3790.551	-17.34688	-9.804154E-007	0.0121939	8
	6	10	251203.1	3762.081	-982.498	1	3888.259	-14.63635	3.354401E-006	0.0111314	8
	7	12	199546.9	3866.475	-857.7698	1	3960.48	-12.50837	2.302957E-006	0.0113503	8
	8	13	158578.1	3938.138	-744.9224	1	4007.972	-10.71129	-7.273557E-007	0.0120893	8
	9	14	125953.1	4015.354	-624.6688	1	4063.654	-8.842624	-5.26436E-007	0.0134837	7
	10	16	100078.1	4057.417	-558.5291	1	4095.679	-7.837867	1.720782E-008	0.0117583	7
	11	17	79453.13	4101.106	-515.6218	1	4133.393	-7.166054	-4.232637E-009	0.0117918	7
	12	18	63140.62	4141.082	-487.7274	1	4169.705	-6.717224	1.867987E-008	0.0117502	7
	13	20	50203.12	4180.213	-471.9659	1	4206.772	-6.441687	-5.910971E-009	0.0118212	7
	14	21	39890.62	4219.842	-471.3445	1	4246.084	-6.373361	-2.029213E-009	0.0117873	7
	15	22	31640.63	4258.515	-477.9035	1	4285.247	-6.403115	-2.819928E-009	0.0117878	7
	16	24	25171.88	4300.357	-498.6621	1	4329.172	-6.614381	1.140019E-009	0.0117631	7
	17	25	20015.62	4343.157	-530.5143	1	4375.438	-6.964149	-3.273962E-008	0.0118463	7
	18	26	15890.62	4392.507	-577.1417	1	4430.261	-7.485346	-2.843365E-009	0.0117868	7
	19	28	12609.37	4440.492	-634.9563	1	4485.659	-8.137693	1.510127E-008	0.0117479	7
	20	29	10078.13	4494.487	-705.7252	1	4549.557	-8.92373	-3.626043E-008	0.0119298	7
	21	30	8015.625	4554.242	-797.8104	1	4623.594	-9.93623	1.179047E-009	0.0117554	7
	22	32	6328.125	4619.975	-912.864	1	4709.298	-11.17714	-1.328229E-008	0.0117902	7
	23	33	5015.625	4691.169	-1052.022	1	4807.684	-12.63979	-4.176589E-008	0.0118638	7
	24	34	3984.375	4767.006	-1219.985	1	4920.641	-14.35518	4.129468E-009	0.01176	7
	25	36	3170.956	4852.001	-1422.566	1	5056.244	-16.34069	5.250949E-008	0.0116993	7
	26	37	2527.573	4945.244	-1668.974	1	5219.283	-18.64907	2.116303E-008	0.0117341	7
	27	38	1976.103	5059.25	-1998.598	1	5439.707	-21.55593	4.860426E-008	0.0116907	7
	28	40	1577.524	5180.234	-2364.567	1	5694.383	-24.53478	2.138025E-008	0.0117315	7
	29	41	1265.625	5308.181	-2799.979	1	6001.389	-27.81092	2.204283E-008	0.0117303	7
	30	42	998.264	5466.8	-3372.33	1	6423.279	-31.66938	-9.241814E-009	0.0118182	7
	31	44	796.875	5640.099	-4033.317	1	6933.856	-35.56911	-1.701986E-009	0.0117674	7
	32	45	627.7902	5848.776	-4894.902	1	7626.811	-39.92632	-1.249834E-008	0.011771	7
	33	46	505.5147	6059.165	-5852.701	1	8424.227	-44.00702	-4.252862E-008	0.0118683	7
	34	48	397.9953	6330.589	-7141.724	1	9543.61	-48.44548	6.084877E-009	0.0118184	7
	35	49	315.5048	6632.318	-8696.608	1	10937.03	-52.66967	1.407128E-009	0.0117555	6
	36	50	252.4038	6965.505	-10539.27	1	12633.07	-56.5389	8.839942E-010	0.0117567	6
	37	52	198.6229	7389.945	-12993.95	1	14948.38	-60.37216	8.402794E-010	0.011764	6
	38	53	158.3615	7877.879	-15876.6	1	17723.64	-63.60966	7.580288E-010	0.0117559	6
	39	54	125.558	8495.986	-19528.46	1	21296.53	-66.48823	1.020033E-009	0.0117548	6
	40	56	100.4464	9255.058	-23877.13	1	25608.07	-68.81308	1.481064E-010	0.0117555	6
	41	57	79.00281	10321.77	-29592.56	1	31341	-70.77142	6.173426E-010	0.0117566	6
	42	58	63.3446	11459.54	-35954.91	1	37736.94	-72.32188	2.105347E-009	0.0117535	6
	43	60	49.86702	13392.86	-45011.66	1	46961.89	-73.43005	5.88044E-010	0.0117535	6
	44	61	39.72458	15641.75	-54927.29	1	57111.04	-74.10453	8.280682E-012	0.0117546	6
	45	63	31.6723	18713.6	-67198.06	1	69755.13	-74.43832	5.671131E-010	0.011756	6
	46	64	24.93351	22919.58	-83012.84	1	86118.75	-74.56535	9.310198E-010	0.011757	6
	47	65	19.86229	28270.84	-101080.6	1	104959.6	-74.37443	1.658628E-009	0.011764	6
	48	67	15.83615	34940.82	-123362	1	128214.9	-74.18586	-3.758935E-010	0.0117582	5
	49	68	12.40079	45717.89	-151017.1	1	157785.6	-73.1572	1.045108E-009	0.0117604	5
	50	69	9.93114	57393.21	-181461.5	1	190321.5	-72.44872	2.954955E-010	0.0117648	5
	51	71	7.944915	73782.01	-216589.8	1	228812	-71.18842	6.184641E-011	0.011751	5
	52	73	6.317385	94598.33	-259578.3	1	276278.4	-69.9767	1.432868E-010	0.0117519	5
	53	75	5.008013	122208.7	-309785.8	1	333019.8	-68.47105	-6.448569E-011	0.0117516	5
	54	77	3.945707	158981.2	-367611.8	1	400516.5	-66.61295	3.535057E-010	0.0117605	5
	55	80	3.158693	201564.8	-429025.2	1	474015.8	-64.83491	-4.247814E-011	0.0117501	5
	56	83	2.504006	256813.5	-498127.6	1	560432.2	-62.72628	4.764287E-010	0.01175	5
	57	86	1.998082	319799.9	-569810.1	1	653418.4	-60.69714	-5.641889E-011	0.0117869	5
	58	89	1.584686	396306.7	-649304.8	1	760694.3	-58.60197	2.151798E-010	0.0118068	5
	59	92	1.266892	482544.1	-739207.6	1	882766.5	-56.86408	-1.486474E-010	0.0117678	5
	60	97	0.999041	571422.6	-820189	1	999617	-55.13522	3.915517E-010	0.011768	4
