EXPLAIN
TAG	EISPOT
TITLE	LABEL	Potentiostatic EIS	Test &Identifier
DATE	LABEL	10/24/2019	Date
TIME	LABEL	10:03:01	Time
NOTES	NOTES	1	&Notes...
	
PSTAT	PSTAT	REF600-11020	Potentiostat
VDC	POTEN	0.00000E+000	T	DC &Voltage (V)
FREQINIT	QUANT	1.00000E+006	Initial Fre&q. (Hz)
FREQFINAL	QUANT	1.00000E+000	Final Fre&q. (Hz)
PTSPERDEC	QUANT	1.00000E+001	Points/&decade
VAC	QUANT	2.50000E+001	AC &Voltage (mV rms)
AREA	QUANT	1.00000E-002	&Area (cm^2)
CONDIT	TWOPARAM	T	5.00000E+000	0.00000E+000	Conditionin&g	Time(s)	E(V)
DELAY	TWOPARAM	T	5.00000E+000	0.00000E+000	Init. De&lay	Time(s)	Stab.(mV/s)
SPEED	SELECTOR	1	&Optimize for:
ZGUESS	QUANT	1.00000E+005	E&stimated Z (ohms)
OCVCURVE	TABLE	19
	Pt	T	Vf	Vm	Ach	Over
	#	s	V vs. Ref.	V	V	bits
	0	0.258333	6.13006E-003	6.13006E-003	5.60032E-004	...........
	1	0.516667	6.12718E-003	5.97934E-003	5.58999E-004	...........
	2	0.775	6.10868E-003	5.79352E-003	5.60199E-004	...........
	3	1.03333	6.05413E-003	5.64235E-003	5.57333E-004	...........
	4	1.29167	5.92142E-003	3.81663E-003	5.60999E-004	...........
	5	1.55	5.63053E-003	4.28102E-003	5.57399E-004	...........
	6	1.80833	5.17784E-003	4.57588E-003	5.62399E-004	...........
	7	2.06667	4.74343E-003	4.80082E-003	5.52566E-004	...........
	8	2.325	4.52320E-003	4.74969E-003	5.54966E-004	...........
	9	2.58333	4.52446E-003	4.78121E-003	5.56299E-004	...........
	10	2.84167	4.62620E-003	4.99315E-003	5.60499E-004	...........
	11	3.1	4.76468E-003	6.42142E-003	5.61666E-004	...........
	12	3.35833	4.99273E-003	5.86846E-003	5.53633E-004	...........
	13	3.61667	5.32236E-003	5.44270E-003	5.61099E-004	...........
	14	3.875	5.59918E-003	5.08609E-003	5.60199E-004	...........
	15	4.13333	5.66406E-003	5.28601E-003	5.59599E-004	...........
	16	4.39167	5.53335E-003	4.66307E-003	5.54233E-004	...........
	17	4.65	5.31739E-003	4.68937E-003	5.55366E-004	...........
	18	4.90833	5.08888E-003	4.64400E-003	5.55766E-004	...........
EOC	QUANT	0.0050889	Open Circuit (V)
PSTATMODEL	IQUANT	4	Pstat Model
PSTATSECTION	LABEL	REF600-11020	Pstat Section
PSTATSERIALNO	LABEL	11020	Pstat Serial Number
CTRLMODE	IQUANT	1	Control Mode
IESTAB	IQUANT	0	I/E Stability
CASPEED	IQUANT	1	Control Amp Speed
CONVENTION	IQUANT	1	Current Convention
ICHRANGE	IQUANT	2	Ich Range
ICHRANGEMODE	TOGGLE	F	Ich Auto Range
ICHOFFSETENABLE	TOGGLE	T	Ich Offset Enable
ICHOFFSET	QUANT	0	Ich Offset (V)
ICHFILTER	IQUANT	3	Ich Filter
VCHRANGE	IQUANT	2	Vch Range
VCHRANGEMODE	TOGGLE	F	Vch Auto Range
VCHOFFSETENABLE	TOGGLE	T	Vch Offset Enable
VCHOFFSET	QUANT	0	Vch Offset (V)
VCHFILTER	IQUANT	3	Vch Filter
ACHRANGE	IQUANT	2	Ach Range
ACHOFFSETENABLE	TOGGLE	F	Ach Offset Enable
ACHOFFSET	QUANT	0	Ach Offset (V)
ACHFILTER	IQUANT	3	Ach Filter
IERANGELOWERLIMIT	IQUANT	1	I/E Range Lower Limit
IERANGEMODE	TOGGLE	F	I/E AutoRange
IERANGE	IQUANT	4	I/E Range
POSFEEDENABLE	TOGGLE	F	Positive Feedback IR Comp
POSFEEDRESISTANCE	QUANT	0	Positive Feedback Resistance (ohm)
ACHSELECT	IQUANT	0	Ach Select
CABLEID	IQUANT	14	Cable ID
DCCALDATE	LABEL	8/19/2019	DC Calibration Date
ACCALDATE	LABEL	8/19/2019	AC Calibration Date
THERMOSELECT	IQUANT	1	Thermo Select
FRAMEWORKVERSION	QUANT	6.33	Framework Version
INSTRUMENTVERSION	LABEL	3.50	Instrument Version
ZCURVE	TABLE
	Pt	Time	Freq	Zreal	Zimag	Zsig	Zmod	Zphz	Idc	Vdc	IERange
	#	s	Hz	ohm	ohm	V	ohm	°	A	V	#
	0	1	1000078	2116.853	-1060.147	1	2367.483	-26.6023	1.937378E-006	0.0065544	8
	1	3	794390.6	2290.212	-955.826	1	2481.667	-22.65334	-5.091637E-006	0.0078425	8
	2	4	630984.4	2437.055	-868.9487	1	2587.336	-19.62404	8.395017E-007	0.0068351	8
	3	5	501234.4	2558.426	-773.9973	1	2672.941	-16.83208	3.696649E-006	0.0059656	8
	4	7	398109.4	2645.929	-686.6347	1	2733.57	-14.54771	-6.555894E-007	0.0067031	8
	5	8	316265.6	2718.651	-618.9203	1	2788.212	-12.82521	-1.841865E-007	0.0065367	8
	6	9	251203.1	2782.829	-564.1702	1	2839.441	-11.4604	1.186856E-006	0.0063058	8
	7	11	199546.9	2826.635	-522.8863	1	2874.592	-10.48041	8.453261E-007	0.0063595	8
	8	12	158578.1	2869.532	-484.7003	1	2910.181	-9.58748	8.330803E-007	0.0063656	8
	9	14	125953.1	2941.22	-441.5565	1	2974.18	-8.537881	4.460601E-008	0.0064347	7
	10	15	100078.1	2975.415	-435.8372	1	3007.166	-8.333391	-6.602953E-010	0.0065205	7
	11	16	79453.13	3019.367	-447.6818	1	3052.376	-8.433804	-1.045533E-008	0.0064855	7
	12	18	63140.62	3066.708	-467.9388	1	3102.203	-8.675654	1.077952E-007	0.0063393	7
	13	19	50203.12	3119.156	-494.0585	1	3158.041	-9.000587	-5.331186E-009	0.0065315	7
	14	20	39890.62	3175.813	-526.5978	1	3219.176	-9.414844	-3.19395E-008	0.0065723	7
	15	22	31640.63	3237.995	-566.7764	1	3287.225	-9.92843	-4.562344E-009	0.0065304	7
	16	23	25171.88	3304.795	-613.5266	1	3361.262	-10.51708	5.362838E-008	0.0064073	7
	17	24	20015.62	3371.226	-669.1667	1	3436.997	-11.22692	6.432985E-008	0.0063718	7
	18	26	15890.62	3455.634	-729.6472	1	3531.825	-11.92271	-2.852812E-008	0.0065158	7
	19	27	12609.37	3541.337	-799.0943	1	3630.375	-12.7157	1.329478E-008	0.0064507	7
	20	29	10078.13	3626.234	-879.9858	1	3731.481	-13.64041	-3.704178E-008	0.0066256	7
	21	30	8015.625	3721.431	-966.908	1	3844.992	-14.56463	1.145706E-008	0.006442	7
	22	31	6328.125	3822.919	-1089.693	1	3975.191	-15.90979	-4.551397E-009	0.0064636	7
	23	33	5015.625	3926.769	-1223.946	1	4113.096	-17.31189	-2.989549E-008	0.0065111	7
	24	34	3984.375	4039.943	-1386.019	1	4271.087	-18.93601	-6.906415E-009	0.0065282	7
	25	35	3170.956	4139.963	-1572.228	1	4428.453	-20.7952	6.43908E-008	0.0063631	7
	26	37	2527.573	4248.875	-1803.543	1	4615.811	-23.00003	-2.745455E-008	0.006528	7
	27	38	1976.103	4369.738	-2119.201	1	4856.503	-25.87209	6.410325E-008	0.006361	7
	28	39	1577.524	4477.493	-2494.526	1	5125.486	-29.1233	-3.43251E-009	0.0065212	7
	29	41	1265.625	4600.039	-2927.257	1	5452.448	-32.47083	-6.531372E-009	0.0064625	7
	30	42	998.264	4744.304	-3519.516	1	5907.234	-36.56952	-9.852817E-009	0.0064776	7
	31	44	796.875	4894.628	-4218.389	1	6461.593	-40.75609	-2.638753E-008	0.0065269	7
	32	45	627.7902	5075.426	-5148.28	1	7229.436	-45.40828	5.532028E-008	0.0064006	7
	33	46	505.5147	5277.666	-6190.876	1	8135.152	-49.55271	-4.493756E-009	0.0065922	7
	34	48	397.9953	5537.955	-7612.537	1	9413.802	-53.96493	5.567792E-009	0.0065136	7
	35	49	315.5048	5854.308	-9324.431	1	11009.9	-57.8775	1.445253E-009	0.0064547	6
	36	50	252.4038	6227.559	-11355.77	1	12951.3	-61.25943	1.583263E-010	0.0064527	6
	37	52	198.6229	6731.125	-14043.42	1	15573.24	-64.39123	6.435724E-010	0.0064529	6
	38	53	158.3615	7343.855	-17174.42	1	18678.68	-66.84824	-1.090443E-010	0.0064477	6
	39	54	125.558	8136.636	-21118.46	1	22631.71	-68.92905	1.714391E-009	0.0064525	6
	40	56	100.4464	9111.694	-25779.23	1	27342.13	-70.534	7.211557E-010	0.0064475	6
	41	57	79.00281	10487.67	-31769.86	1	33456.17	-71.73122	1.230965E-009	0.006452	6
	42	58	63.3446	11776.83	-38915.24	1	40658.2	-73.16273	3.382449E-010	0.0064532	6
	43	60	49.86702	14502.36	-47336.31	1	49508.03	-72.96658	1.288915E-009	0.0064493	6
	44	61	39.72458	17439.63	-58158.4	1	60716.88	-73.30788	8.044768E-010	0.006451	6
	45	62	31.6723	21028.15	-70698.11	1	73759.11	-73.43564	4.769033E-010	0.0064501	6
	46	64	24.93351	26448.36	-86511.13	1	90463.75	-73.00045	7.50372E-010	0.0064531	6
	47	65	19.86229	32808.32	-104556.3	1	109582.8	-72.57886	8.238798E-010	0.006467	5
	48	66	15.83615	41335.53	-126440.5	1	133025.7	-71.89656	6.413715E-010	0.006457	5
	49	68	12.40079	53520.54	-152902.9	1	161999.2	-70.70844	6.501965E-010	0.0064522	5
	50	69	9.93114	67211.15	-181919.8	1	193938.5	-69.72301	6.946129E-010	0.0064616	5
	51	71	7.944915	86465.37	-215565.7	1	232260.3	-68.14383	3.926877E-010	0.0064569	5
	52	72	6.317385	108755.7	-253756.3	1	276079.8	-66.80083	5.573138E-010	0.0064494	5
	53	74	5.008013	137571.4	-297904.6	1	328135.7	-65.21266	1.591974E-010	0.0064607	5
	54	77	3.945707	173525.1	-348407.9	1	389228.7	-63.52433	5.427787E-011	0.0064556	5
	55	79	3.158693	212594.9	-400329	1	453276.9	-62.02944	-5.055512E-011	0.0064422	5
	56	83	2.504006	259506.6	-460356.8	1	528462	-60.58972	4.210068E-010	0.0064633	5
	57	85	1.998082	310271.3	-528304.4	1	612677.6	-59.57444	-8.60647E-011	0.0065011	5
	58	89	1.584686	368852.3	-596745.4	1	701539.1	-58.27951	2.043887E-010	0.0064728	5
	59	92	1.266892	432119	-674122.3	1	800729.4	-57.33973	2.031436E-010	0.0065088	5
	60	96	0.999041	514937.5	-774602.4	1	930144.9	-56.38498	-5.705363E-011	0.0064223	5
