EXPLAIN
TAG	EISPOT
TITLE	LABEL	Potentiostatic EIS	Test &Identifier
DATE	LABEL	10/28/2019	Date
TIME	LABEL	11:12:27	Time
NOTES	NOTES	1	&Notes...
	
PSTAT	PSTAT	REF600-11020	Potentiostat
VDC	POTEN	0.00000E+000	T	DC &Voltage (V)
FREQINIT	QUANT	1.00000E+006	Initial Fre&q. (Hz)
FREQFINAL	QUANT	1.00000E+000	Final Fre&q. (Hz)
PTSPERDEC	QUANT	1.00000E+001	Points/&decade
VAC	QUANT	2.50000E+001	AC &Voltage (mV rms)
AREA	QUANT	1.00000E-002	&Area (cm^2)
CONDIT	TWOPARAM	T	5.00000E+000	0.00000E+000	Conditionin&g	Time(s)	E(V)
DELAY	TWOPARAM	T	5.00000E+000	0.00000E+000	Init. De&lay	Time(s)	Stab.(mV/s)
SPEED	SELECTOR	1	&Optimize for:
ZGUESS	QUANT	1.00000E+005	E&stimated Z (ohms)
OCVCURVE	TABLE	19
	Pt	T	Vf	Vm	Ach	Over
	#	s	V vs. Ref.	V	V	bits
	0	0.258333	6.54654E-003	6.54654E-003	5.73699E-004	...........
	1	0.516667	6.55083E-003	6.77111E-003	5.64999E-004	...........
	2	0.775	6.57684E-003	6.96654E-003	5.72099E-004	...........
	3	1.03333	6.64718E-003	7.04265E-003	5.71632E-004	...........
	4	1.29167	6.76175E-003	7.12317E-003	5.63899E-004	...........
	5	1.55	6.89309E-003	7.23139E-003	5.65599E-004	...........
	6	1.80833	7.01599E-003	7.34613E-003	5.65432E-004	...........
	7	2.06667	7.12620E-003	7.44788E-003	5.65166E-004	...........
	8	2.325	7.23077E-003	7.54925E-003	5.71032E-004	...........
	9	2.58333	7.33457E-003	7.65282E-003	5.68532E-004	...........
	10	2.84167	7.43830E-003	7.75428E-003	5.66066E-004	...........
	11	3.1	7.54152E-003	7.85488E-003	5.62799E-004	...........
	12	3.35833	7.64400E-003	7.95498E-003	5.64432E-004	...........
	13	3.61667	7.74563E-003	8.05144E-003	5.66232E-004	...........
	14	3.875	7.84609E-003	8.14291E-003	5.60866E-004	...........
	15	4.13333	7.94480E-003	8.23760E-003	5.63699E-004	...........
	16	4.39167	8.04134E-003	8.32688E-003	5.64932E-004	...........
	17	4.65	8.13579E-003	8.41825E-003	5.64899E-004	...........
	18	4.90833	8.22851E-003	8.50637E-003	5.65732E-004	...........
EOC	QUANT	0.0082285	Open Circuit (V)
PSTATMODEL	IQUANT	4	Pstat Model
PSTATSECTION	LABEL	REF600-11020	Pstat Section
PSTATSERIALNO	LABEL	11020	Pstat Serial Number
CTRLMODE	IQUANT	1	Control Mode
IESTAB	IQUANT	0	I/E Stability
CASPEED	IQUANT	1	Control Amp Speed
CONVENTION	IQUANT	1	Current Convention
ICHRANGE	IQUANT	2	Ich Range
ICHRANGEMODE	TOGGLE	F	Ich Auto Range
ICHOFFSETENABLE	TOGGLE	T	Ich Offset Enable
ICHOFFSET	QUANT	0	Ich Offset (V)
ICHFILTER	IQUANT	3	Ich Filter
VCHRANGE	IQUANT	2	Vch Range
VCHRANGEMODE	TOGGLE	F	Vch Auto Range
VCHOFFSETENABLE	TOGGLE	T	Vch Offset Enable
VCHOFFSET	QUANT	0	Vch Offset (V)
VCHFILTER	IQUANT	3	Vch Filter
ACHRANGE	IQUANT	2	Ach Range
ACHOFFSETENABLE	TOGGLE	F	Ach Offset Enable
ACHOFFSET	QUANT	0	Ach Offset (V)
ACHFILTER	IQUANT	3	Ach Filter
IERANGELOWERLIMIT	IQUANT	1	I/E Range Lower Limit
IERANGEMODE	TOGGLE	F	I/E AutoRange
IERANGE	IQUANT	5	I/E Range
POSFEEDENABLE	TOGGLE	F	Positive Feedback IR Comp
POSFEEDRESISTANCE	QUANT	0	Positive Feedback Resistance (ohm)
ACHSELECT	IQUANT	0	Ach Select
CABLEID	IQUANT	14	Cable ID
DCCALDATE	LABEL	8/19/2019	DC Calibration Date
ACCALDATE	LABEL	8/19/2019	AC Calibration Date
THERMOSELECT	IQUANT	1	Thermo Select
FRAMEWORKVERSION	QUANT	6.33	Framework Version
INSTRUMENTVERSION	LABEL	3.50	Instrument Version
ZCURVE	TABLE
	Pt	Time	Freq	Zreal	Zimag	Zsig	Zmod	Zphz	Idc	Vdc	IERange
	#	s	Hz	ohm	ohm	V	ohm	°	A	V	#
	0	2	1000078	2372.179	-1060.568	1	2598.468	-24.08876	-6.97919E-006	0.0114893	8
	1	3	794390.6	2543.036	-964.612	1	2719.836	-20.7725	5.64825E-006	0.0094383	8
	2	5	630984.4	2674.291	-847.847	1	2805.472	-17.5905	4.036547E-006	0.0089608	8
	3	6	501234.4	2786.844	-758.9236	1	2888.332	-15.23359	-1.810538E-006	0.0102125	8
	4	8	398109.4	2873.563	-650.5728	1	2946.287	-12.75668	-1.038225E-006	0.0101502	8
	5	9	316265.6	2933.866	-581.6965	1	2990.977	-11.21457	2.520224E-006	0.0092999	8
	6	11	251203.1	2987.997	-513.1406	1	3031.739	-9.74458	-1.240057E-006	0.0100054	8
	7	12	199546.9	3031.874	-459.0823	1	3066.434	-8.610245	-2.185434E-006	0.0100366	8
	8	14	158578.1	3073.165	-420.4682	1	3101.795	-7.790794	-1.066841E-006	0.0101868	8
	9	15	125953.1	3151.226	-336.8959	1	3169.183	-6.102284	7.329758E-007	0.0078159	7
	10	17	100078.1	3164.634	-321.2949	1	3180.902	-5.797189	-7.713157E-008	0.0098754	7
	11	18	79453.13	3196.243	-321.6255	1	3212.384	-5.746109	4.71291E-008	0.0095989	7
	12	19	63140.62	3232.062	-328.146	1	3248.678	-5.797282	-4.565489E-009	0.0097874	7
	13	21	50203.12	3267.196	-337.6642	1	3284.598	-5.900563	-7.589237E-008	0.0098561	7
	14	22	39890.62	3306.419	-351.0079	1	3324.998	-6.059798	-2.784212E-008	0.0097434	7
	15	23	31640.63	3345.582	-368.2966	1	3365.793	-6.282079	2.037701E-008	0.0096485	7
	16	25	25171.88	3384.781	-390.4337	1	3407.225	-6.579973	-5.094993E-008	0.0097741	7
	17	26	20015.62	3429.616	-430.9743	1	3456.589	-7.162391	-6.391887E-008	0.0098654	7
	18	28	15890.62	3472.502	-455.248	1	3502.217	-7.468929	1.946434E-008	0.0096447	7
	19	29	12609.37	3513.962	-497.9911	1	3549.073	-8.06612	-5.135936E-008	0.0098056	7
	20	30	10078.13	3561.04	-553.1501	1	3603.746	-8.829412	-2.577616E-008	0.009736	7
	21	32	8015.625	3613.167	-610.6732	1	3664.41	-9.59309	-1.168212E-008	0.0097787	7
	22	33	6328.125	3659.296	-704.052	1	3726.411	-10.89068	-5.119058E-008	0.0098044	7
	23	34	5015.625	3712.612	-807.8238	1	3799.483	-12.27559	-1.666242E-008	0.0098904	7
	24	36	3984.375	3765.429	-939.5004	1	3880.866	-14.00965	2.364775E-008	0.0096385	7
	25	37	3170.956	3827.865	-1088.711	1	3979.679	-15.87666	-5.127964E-008	0.0097843	7
	26	38	2527.573	3888.531	-1278.067	1	4093.181	-18.19445	-4.796514E-008	0.0098926	7
	27	40	1976.103	3963.427	-1538.49	1	4251.553	-21.2148	-4.751508E-008	0.0098956	7
	28	41	1577.524	4023.688	-1854.132	1	4430.335	-24.74045	-5.320806E-008	0.0098055	7
	29	43	1265.625	4119.29	-2180.824	1	4660.959	-27.89753	8.914105E-008	0.0095836	7
	30	44	998.264	4219.626	-2654.959	1	4985.384	-32.17781	-1.67826E-008	0.0098876	7
	31	45	796.875	4336.147	-3208.975	1	5394.413	-36.50337	-3.535872E-008	0.0097463	7
	32	47	627.7902	4477.969	-3936.515	1	5962.244	-41.31821	-3.774728E-008	0.0097446	7
	33	48	505.5147	4641.648	-4745.006	1	6637.769	-45.63087	9.05434E-008	0.0095445	7
	34	49	397.9953	4863.285	-5851.953	1	7609	-50.27161	5.155948E-009	0.0097573	7
	35	51	315.5048	5132.89	-7177.534	1	8824.032	-54.4302	5.272365E-009	0.0097554	7
	36	52	252.4038	5468.351	-8736.283	1	10306.58	-57.95609	7.011293E-010	0.0096935	6
	37	54	198.6229	5922.785	-10790.51	1	12309.12	-61.23813	5.538696E-010	0.0096943	6
	38	55	158.3615	6485.218	-13172.93	1	14682.78	-63.78833	1.692306E-009	0.0096867	6
	39	56	125.558	7228.563	-16153.82	1	17697.4	-65.89229	4.272628E-010	0.0096949	6
	40	58	100.4464	8197.47	-19632.07	1	21274.79	-67.33678	3.895389E-011	0.0096916	6
	41	59	79.00281	9523.04	-24225.65	1	26030.18	-68.54035	1.374746E-009	0.0096917	6
	42	60	63.3446	10872.54	-29446	1	31389.16	-69.734	-4.071615E-010	0.0096888	6
	43	62	49.86702	13523.93	-35426.87	1	37920.44	-69.10604	-9.887189E-010	0.0096878	6
	44	63	39.72458	16433.28	-43054.56	1	46084.14	-69.10889	3.289548E-011	0.009691	6
	45	65	31.6723	20157.98	-51945.26	1	55719.43	-68.79066	1.92443E-009	0.0096902	6
	46	66	24.93351	25677.02	-62439.82	1	67513.26	-67.64615	4.429482E-010	0.0096902	6
	47	67	19.86229	32128.56	-73993	1	80667.27	-66.52899	1.879555E-009	0.0097008	6
	48	69	15.83615	40571.79	-88107.09	1	96999.6	-65.27474	-2.623949E-009	0.0096921	6
	49	70	12.40079	52230.12	-103003.9	1	115489.3	-63.11183	-1.401543E-009	0.0096998	5
	50	72	9.93114	63509.71	-117311.7	1	133399.9	-61.56997	7.461143E-010	0.0096958	5
	51	73	7.944915	76929.66	-133614.6	1	154178.6	-60.06848	-4.578445E-010	0.0097004	5
	52	75	6.317385	92454.76	-152121.5	1	178013.6	-58.71006	3.898798E-010	0.0096858	5
	53	77	5.008013	109450	-172790.1	1	204537.8	-57.6487	-1.325935E-011	0.0096988	5
	54	79	3.945707	128030.7	-197050.1	1	234990.7	-56.98675	-2.889283E-010	0.0096901	5
	55	82	3.158693	146476.9	-223572.7	1	267283.1	-56.76862	2.091774E-010	0.0097039	5
	56	85	2.504006	167073.9	-256526.8	1	306136.7	-56.92411	-3.60439E-010	0.0096984	5
	57	88	1.998082	188611.2	-294535.2	1	349750.2	-57.36576	-6.732081E-012	0.0096513	5
	58	91	1.584686	212827.4	-341918	1	402744.8	-58.09974	-2.47839E-011	0.0097014	5
	59	95	1.266892	240239.1	-398286.6	1	465131.2	-58.9024	-1.527098E-010	0.0096588	5
	60	99	0.999041	274524.1	-468745.8	1	543218.3	-59.64434	1.009544E-010	0.00974	5
