EXPLAIN
TAG	EISPOT
TITLE	LABEL	Potentiostatic EIS	Test &Identifier
DATE	LABEL	10/20/2019	Date
TIME	LABEL	9:17:53	Time
NOTES	NOTES	1	&Notes...
	
PSTAT	PSTAT	REF600-11020	Potentiostat
VDC	POTEN	0.00000E+000	T	DC &Voltage (V)
FREQINIT	QUANT	1.00000E+006	Initial Fre&q. (Hz)
FREQFINAL	QUANT	1.00000E+000	Final Fre&q. (Hz)
PTSPERDEC	QUANT	1.00000E+001	Points/&decade
VAC	QUANT	2.50000E+001	AC &Voltage (mV rms)
AREA	QUANT	1.00000E-002	&Area (cm^2)
CONDIT	TWOPARAM	T	5.00000E+000	0.00000E+000	Conditionin&g	Time(s)	E(V)
DELAY	TWOPARAM	T	5.00000E+000	0.00000E+000	Init. De&lay	Time(s)	Stab.(mV/s)
SPEED	SELECTOR	1	&Optimize for:
ZGUESS	QUANT	1.00000E+005	E&stimated Z (ohms)
OCVCURVE	TABLE	19
	Pt	T	Vf	Vm	Ach	Over
	#	s	V vs. Ref.	V	V	bits
	0	0.258333	6.10552E-003	6.10552E-003	5.53499E-004	...........
	1	0.516667	6.10538E-003	6.09841E-003	5.57766E-004	...........
	2	0.775	6.10543E-003	6.13817E-003	5.57599E-004	...........
	3	1.03333	6.10783E-003	6.13909E-003	5.59599E-004	...........
	4	1.29167	6.11489E-003	6.14833E-003	5.61466E-004	...........
	5	1.55	6.12586E-003	6.16904E-003	5.60032E-004	...........
	6	1.80833	6.13876E-003	6.19677E-003	5.58533E-004	...........
	7	2.06667	6.15397E-003	6.22742E-003	5.60232E-004	...........
	8	2.325	6.17364E-003	6.27354E-003	5.57166E-004	...........
	9	2.58333	6.19937E-003	6.30624E-003	5.57132E-004	...........
	10	2.84167	6.23105E-003	6.34687E-003	5.59766E-004	...........
	11	3.1	6.26691E-003	6.38760E-003	5.62766E-004	...........
	12	3.35833	6.30503E-003	6.42856E-003	5.64366E-004	...........
	13	3.61667	6.34435E-003	6.46599E-003	5.56366E-004	...........
	14	3.875	6.38414E-003	6.50320E-003	5.59866E-004	...........
	15	4.13333	6.42360E-003	6.53901E-003	5.55566E-004	...........
	16	4.39167	6.46232E-003	6.58576E-003	5.58032E-004	...........
	17	4.65	6.50075E-003	6.61819E-003	5.57266E-004	...........
	18	4.90833	6.53943E-003	6.65692E-003	5.59966E-004	...........
EOC	QUANT	0.0065394	Open Circuit (V)
PSTATMODEL	IQUANT	4	Pstat Model
PSTATSECTION	LABEL	REF600-11020	Pstat Section
PSTATSERIALNO	LABEL	11020	Pstat Serial Number
CTRLMODE	IQUANT	1	Control Mode
IESTAB	IQUANT	0	I/E Stability
CASPEED	IQUANT	1	Control Amp Speed
CONVENTION	IQUANT	1	Current Convention
ICHRANGE	IQUANT	2	Ich Range
ICHRANGEMODE	TOGGLE	F	Ich Auto Range
ICHOFFSETENABLE	TOGGLE	T	Ich Offset Enable
ICHOFFSET	QUANT	0	Ich Offset (V)
ICHFILTER	IQUANT	3	Ich Filter
VCHRANGE	IQUANT	2	Vch Range
VCHRANGEMODE	TOGGLE	F	Vch Auto Range
VCHOFFSETENABLE	TOGGLE	T	Vch Offset Enable
VCHOFFSET	QUANT	0	Vch Offset (V)
VCHFILTER	IQUANT	3	Vch Filter
ACHRANGE	IQUANT	2	Ach Range
ACHOFFSETENABLE	TOGGLE	F	Ach Offset Enable
ACHOFFSET	QUANT	0	Ach Offset (V)
ACHFILTER	IQUANT	3	Ach Filter
IERANGELOWERLIMIT	IQUANT	1	I/E Range Lower Limit
IERANGEMODE	TOGGLE	F	I/E AutoRange
IERANGE	IQUANT	5	I/E Range
POSFEEDENABLE	TOGGLE	F	Positive Feedback IR Comp
POSFEEDRESISTANCE	QUANT	0	Positive Feedback Resistance (ohm)
ACHSELECT	IQUANT	0	Ach Select
CABLEID	IQUANT	14	Cable ID
DCCALDATE	LABEL	8/19/2019	DC Calibration Date
ACCALDATE	LABEL	8/19/2019	AC Calibration Date
THERMOSELECT	IQUANT	1	Thermo Select
FRAMEWORKVERSION	QUANT	6.33	Framework Version
INSTRUMENTVERSION	LABEL	3.50	Instrument Version
ZCURVE	TABLE
	Pt	Time	Freq	Zreal	Zimag	Zsig	Zmod	Zphz	Idc	Vdc	IERange
	#	s	Hz	ohm	ohm	V	ohm	°	A	V	#
	0	2	1000078	2208.039	-972.768	1	2412.823	-23.77624	-2.719918E-006	0.0089854	8
	1	3	794390.6	2364.309	-892.8626	1	2527.283	-20.68865	6.163571E-006	0.007625	8
	2	5	630984.4	2497.717	-783.9224	1	2617.847	-17.42476	-1.65798E-006	0.0084536	8
	3	6	501234.4	2600.447	-675.5717	1	2686.768	-14.56298	-8.582668E-008	0.0081803	8
	4	7	398109.4	2664.989	-584.1879	1	2728.267	-12.36415	1.311035E-006	0.0078776	8
	5	9	316265.6	2724.645	-490.6368	1	2768.468	-10.20806	2.974027E-006	0.0075087	8
	6	10	251203.1	2772.901	-419.4979	1	2804.453	-8.602747	-3.51069E-007	0.008228	8
	7	11	199546.9	2815.399	-380.0043	1	2840.929	-7.686958	-2.644088E-007	0.0080715	8
	8	13	158578.1	2834.09	-339.2893	1	2854.327	-6.826798	-2.141103E-006	0.0085138	8
	9	14	125953.1	2881.033	-277.4081	1	2894.358	-5.499923	-4.057208E-007	0.0086991	7
	10	16	100078.1	2896.724	-249.5963	1	2907.458	-4.924728	3.476487E-008	0.0080264	7
	11	17	79453.13	2917.175	-246.7352	1	2927.591	-4.834582	-3.185514E-008	0.0080686	7
	12	18	63140.62	2939.796	-251.0599	1	2950.497	-4.881241	-1.336904E-009	0.0080588	7
	13	20	50203.12	2963.903	-258.509	1	2975.155	-4.984673	-9.450495E-009	0.0081788	7
	14	21	39890.62	2989.274	-271.5493	1	3001.583	-5.190573	-1.818216E-009	0.0080601	7
	15	22	31640.63	3017.299	-289.6721	1	3031.172	-5.483805	-3.81419E-008	0.0081265	7
	16	24	25171.88	3046.967	-313.805	1	3063.084	-5.880121	-1.939719E-008	0.0081003	7
	17	25	20015.62	3073.55	-344.0741	1	3092.749	-6.387485	-3.935463E-008	0.0081365	7
	18	26	15890.62	3116.401	-379.2015	1	3139.387	-6.937605	-3.923736E-008	0.0081342	7
	19	28	12609.37	3156.185	-422.2478	1	3184.305	-7.620025	1.23509E-008	0.0079832	7
	20	29	10078.13	3198.778	-472.3036	1	3233.458	-8.399108	-1.103041E-008	0.0081875	7
	21	30	8015.625	3257.942	-528.5082	1	3300.532	-9.214337	-1.217745E-008	0.008093	7
	22	32	6328.125	3300.483	-605.2448	1	3355.519	-10.39148	-4.00422E-008	0.0081314	7
	23	33	5015.625	3358.92	-689.8018	1	3429.019	-11.60515	1.166329E-008	0.0079811	7
	24	35	3984.375	3426.333	-794.5844	1	3517.26	-13.0564	3.604631E-008	0.0080206	7
	25	36	3170.956	3487.793	-906.3556	1	3603.634	-14.56697	-7.917499E-009	0.0080872	7
	26	37	2527.573	3560.452	-1046.414	1	3711.038	-16.37802	8.479043E-008	0.0079907	7
	27	39	1976.103	3644.706	-1228.48	1	3846.172	-18.62684	7.95804E-008	0.0078829	7
	28	40	1577.524	3768.929	-1395.515	1	4018.991	-20.318	-7.154646E-008	0.0081658	7
	29	41	1265.625	3817.605	-1670.993	1	4167.292	-23.63934	9.477539E-010	0.0080542	7
	30	43	998.264	3919.916	-1988.355	1	4395.372	-26.89614	-9.019488E-010	0.0080559	7
	31	44	796.875	4020.25	-2358.139	1	4660.818	-30.39441	-1.171956E-008	0.0081847	7
	32	45	627.7902	4137.93	-2843.181	1	5020.572	-34.49305	-3.937594E-008	0.0081354	7
	33	47	505.5147	4257.043	-3384.172	1	5438.294	-38.48323	3.938737E-008	0.0079145	7
	34	48	397.9953	4405.771	-4137.494	1	6043.979	-43.20138	4.619894E-009	0.0080615	7
	35	50	315.5048	4574.789	-5043.315	1	6809.091	-47.78885	6.236891E-009	0.0080593	7
	36	51	252.4038	4771.672	-6122.885	1	7762.64	-52.07008	5.868338E-009	0.0080595	7
	37	52	198.6229	5033.113	-7556.827	1	9079.53	-56.33498	4.894942E-009	0.008063	7
	38	54	158.3615	5346.057	-9235.545	1	10671.25	-59.93531	-2.053153E-010	0.0079989	6
	39	55	125.558	5747.865	-11353.46	1	12725.53	-63.14848	4.886959E-010	0.0080033	6
	40	56	100.4464	6239.347	-13857.38	1	15197.25	-65.76013	2.230099E-009	0.0079952	6
	41	58	79.00281	6903.589	-17157.08	1	18493.91	-68.08135	1.762844E-009	0.0079969	6
	42	59	63.3446	7689.276	-21037.73	1	22398.91	-69.92268	-3.16495E-010	0.0079938	6
	43	61	49.86702	8780.436	-25612.36	1	27075.62	-71.07725	-8.926058E-010	0.0079965	6
	44	62	39.72458	10279.55	-31385.16	1	33025.71	-71.86488	4.849041E-010	0.0080055	6
	45	63	31.6723	12187.67	-38325.59	1	40216.79	-72.35915	1.495359E-009	0.0079978	6
	46	65	24.93351	14643.6	-46938.59	1	49169.77	-72.67346	7.770521E-010	0.0079971	6
	47	66	19.86229	17746.54	-56999.08	1	59697.86	-72.70614	4.110693E-010	0.0079973	6
	48	68	15.83615	21399.78	-69408.62	1	72632.68	-72.86464	2.66102E-009	0.0080008	6
	49	69	12.40079	27334.46	-84959.97	1	89248.91	-72.16528	2.730795E-009	0.0080071	6
	50	70	9.93114	33067.02	-100884.8	1	106165.7	-71.85239	1.960054E-010	0.0080058	5
	51	72	7.944915	40909.39	-121299	1	128011.9	-71.36278	4.773693E-010	0.0080025	5
	52	74	6.317385	51115.32	-144566.7	1	153337.2	-70.52762	2.287263E-010	0.0079956	5
	53	76	5.008013	63889.03	-173059.4	1	184475.9	-69.73716	-1.34771E-010	0.0080023	5
	54	78	3.945707	79967.23	-207213.2	1	222108.2	-68.89751	2.26277E-010	0.0080118	5
	55	81	3.158693	98730.5	-244399.2	1	263588.1	-68.00266	-1.020847E-010	0.0079924	5
	56	84	2.504006	122345.2	-289569.7	1	314354.8	-67.09561	4.521632E-010	0.0080079	5
	57	87	1.998082	150122.7	-339931.8	1	371605.3	-66.1725	1.896387E-010	0.0080417	5
	58	90	1.584686	184128.9	-398273.2	1	438776.7	-65.18804	1.3535E-010	0.0079794	5
	59	94	1.266892	223518.3	-465353.6	1	516250.3	-64.34413	1.218468E-010	0.0080473	5
	60	98	0.999041	273221.4	-545376.4	1	609988.1	-63.39015	-6.192368E-011	0.0079694	5
