EXPLAIN
TAG	EISPOT
TITLE	LABEL	Potentiostatic IDE	Test &Identifier
DATE	LABEL	9/14/2019	Date
TIME	LABEL	11:50:52	Time
NOTES	NOTES	1	&Notes...
	
PSTAT	PSTAT	REF600-11020	Potentiostat
VDC	POTEN	0.00000E+000	T	DC &Voltage (V)
FREQINIT	QUANT	1.00000E+006	Initial Fre&q. (Hz)
FREQFINAL	QUANT	1.00000E+000	Final Fre&q. (Hz)
PTSPERDEC	QUANT	1.00000E+001	Points/&decade
VAC	QUANT	2.50000E+001	AC &Voltage (mV rms)
AREA	QUANT	1.00000E-002	&Area (cm^2)
CONDIT	TWOPARAM	T	5.00000E+000	0.00000E+000	Conditionin&g	Time(s)	E(V)
DELAY	TWOPARAM	T	5.00000E+000	0.00000E+000	Init. De&lay	Time(s)	Stab.(mV/s)
SPEED	SELECTOR	1	&Optimize for:
ZGUESS	QUANT	1.00000E+007	E&stimated Z (ohms)
OCVCURVE	TABLE	19
	Pt	T	Vf	Vm	Ach	Over
	#	s	V vs. Ref.	V	V	bits
	0	0.258333	1.31793E-004	1.31793E-004	5.65132E-004	...........
	1	0.516667	1.23727E-004	-2.90451E-004	5.63732E-004	...........
	2	0.775	7.46359E-005	-6.67571E-004	5.69932E-004	...........
	3	1.03333	-6.28812E-005	-1.03531E-003	5.63332E-004	...........
	4	1.29167	-3.06212E-004	-1.36997E-003	5.65199E-004	...........
	5	1.55	-6.25779E-004	-1.69052E-003	5.66566E-004	...........
	6	1.80833	-9.74944E-004	-1.98527E-003	5.67599E-004	...........
	7	2.06667	-1.32006E-003	-2.27707E-003	5.65099E-004	...........
	8	2.325	-1.64687E-003	-2.54607E-003	5.62266E-004	...........
	9	2.58333	-1.95358E-003	-2.80708E-003	5.65266E-004	...........
	10	2.84167	-2.24276E-003	-3.05592E-003	5.61166E-004	...........
	11	3.1	-2.51715E-003	-3.29506E-003	5.63866E-004	...........
	12	3.35833	-2.77886E-003	-3.52463E-003	5.63832E-004	...........
	13	3.61667	-3.02932E-003	-3.74444E-003	5.65932E-004	...........
	14	3.875	-3.26949E-003	-3.95910E-003	5.65366E-004	...........
	15	4.13333	-3.50021E-003	-4.16259E-003	5.65432E-004	...........
	16	4.39167	-3.72217E-003	-4.36174E-003	5.63999E-004	...........
	17	4.65	-3.93600E-003	-4.55460E-003	5.65466E-004	...........
	18	4.90833	-4.14232E-003	-4.73922E-003	5.62532E-004	...........
EOC	QUANT	-0.0041423	Open Circuit (V)
PSTATMODEL	IQUANT	4	Pstat Model
PSTATSECTION	LABEL	REF600-11020	Pstat Section
PSTATSERIALNO	LABEL	11020	Pstat Serial Number
CTRLMODE	IQUANT	1	Control Mode
IESTAB	IQUANT	0	I/E Stability
CASPEED	IQUANT	1	Control Amp Speed
CONVENTION	IQUANT	1	Current Convention
ICHRANGE	IQUANT	2	Ich Range
ICHRANGEMODE	TOGGLE	F	Ich Auto Range
ICHOFFSETENABLE	TOGGLE	T	Ich Offset Enable
ICHOFFSET	QUANT	0	Ich Offset (V)
ICHFILTER	IQUANT	3	Ich Filter
VCHRANGE	IQUANT	2	Vch Range
VCHRANGEMODE	TOGGLE	F	Vch Auto Range
VCHOFFSETENABLE	TOGGLE	T	Vch Offset Enable
VCHOFFSET	QUANT	0	Vch Offset (V)
VCHFILTER	IQUANT	3	Vch Filter
ACHRANGE	IQUANT	2	Ach Range
ACHOFFSETENABLE	TOGGLE	F	Ach Offset Enable
ACHOFFSET	QUANT	0	Ach Offset (V)
ACHFILTER	IQUANT	3	Ach Filter
IERANGELOWERLIMIT	IQUANT	1	I/E Range Lower Limit
IERANGEMODE	TOGGLE	F	I/E AutoRange
IERANGE	IQUANT	2	I/E Range
POSFEEDENABLE	TOGGLE	F	Positive Feedback IR Comp
POSFEEDRESISTANCE	QUANT	0	Positive Feedback Resistance (ohm)
ACHSELECT	IQUANT	0	Ach Select
CABLEID	IQUANT	14	Cable ID
DCCALDATE	LABEL	8/19/2019	DC Calibration Date
ACCALDATE	LABEL	8/19/2019	AC Calibration Date
THERMOSELECT	IQUANT	1	Thermo Select
FRAMEWORKVERSION	QUANT	6.33	Framework Version
INSTRUMENTVERSION	LABEL	3.50	Instrument Version
ZCURVE	TABLE
	Pt	Time	Freq	Zreal	Zimag	Zsig	Zmod	Zphz	Idc	Vdc	IERange
	#	s	Hz	ohm	ohm	V	ohm	°	A	V	#
	0	1	1000078	2418.141	-1609.522	1	2904.818	-33.64786	8.086029E-007	-0.0027153	8
	1	3	794390.6	2728.696	-1525.748	1	3126.29	-29.2117	-1.594303E-006	-0.0018847	8
	2	4	630984.4	3010.458	-1391.492	1	3316.49	-24.80728	1.190843E-006	-0.0026326	8
	3	6	501234.4	3232.656	-1240.147	1	3462.373	-20.98837	4.75036E-008	-0.0027495	8
	4	7	398109.4	3395.896	-1069.428	1	3560.307	-17.48013	7.175739E-007	-0.0027373	8
	5	9	316265.6	3534.356	-919.6441	1	3652.043	-14.58502	-4.809011E-006	-0.001563	8
	6	10	251203.1	3628.752	-788.4538	1	3713.422	-12.25866	2.583634E-006	-0.0031175	8
	7	12	199546.9	3710.006	-680.8668	1	3771.966	-10.3993	-9.485204E-007	-0.0024798	8
	8	13	158578.1	3761.008	-581.6118	1	3805.713	-8.790731	5.111286E-006	-0.003601	8
	9	15	125953.1	3826.111	-469.7056	1	3854.835	-6.998794	2.384188E-007	-0.0032984	7
	10	16	100078.1	3852.989	-416.1852	1	3875.401	-6.16497	4.650396E-008	-0.0028224	7
	11	17	79453.13	3883.749	-382.7661	1	3902.566	-5.628655	7.566107E-008	-0.002823	7
	12	19	63140.62	3913.876	-361.2762	1	3930.515	-5.273829	7.576264E-008	-0.002821	7
	13	20	50203.12	3941.395	-349.5433	1	3956.864	-5.068027	1.32836E-007	-0.0028809	7
	14	21	39890.62	3967.269	-345.2169	1	3982.26	-4.973137	4.699779E-008	-0.0028314	7
	15	23	31640.63	3998.983	-350.4469	1	4014.309	-5.008265	-5.20032E-008	-0.0025835	7
	16	24	25171.88	4029.334	-363.8917	1	4045.732	-5.160419	-5.320179E-008	-0.0025878	7
	17	25	20015.62	4060.171	-385.8079	1	4078.46	-5.428095	4.829329E-008	-0.0028392	7
	18	27	15890.62	4089.622	-409.2968	1	4110.053	-5.715234	-2.882973E-008	-0.0026915	7
	19	28	12609.37	4125.641	-458.6884	1	4151.061	-6.344086	4.760881E-008	-0.0028386	7
	20	29	10078.13	4160.451	-511.905	1	4191.826	-7.014459	-2.769921E-009	-0.0027579	7
	21	31	8015.625	4199.655	-580.0582	1	4239.524	-7.863964	-1.948468E-008	-0.0027143	7
	22	32	6328.125	4240.976	-668.2582	1	4293.302	-8.954574	-9.772461E-009	-0.0026668	7
	23	33	5015.625	4288.076	-774.7774	1	4357.508	-10.24181	-2.099739E-008	-0.0027069	7
	24	35	3984.375	4338.892	-906.6909	1	4432.614	-11.80315	-4.291132E-008	-0.0026646	7
	25	36	3170.956	4394.979	-1068.904	1	4523.096	-13.66953	-1.399416E-009	-0.0027571	7
	26	37	2527.573	4458.854	-1263.389	1	4634.386	-15.81975	-1.234464E-008	-0.0026435	7
	27	39	1976.103	4538.625	-1525.094	1	4788.008	-18.57367	7.187152E-008	-0.0027142	7
	28	40	1577.524	4625.774	-1818.008	1	4970.206	-21.45568	6.949617E-008	-0.0027192	7
	29	41	1265.625	4721.217	-2162.76	1	5193.017	-24.61222	-5.196254E-008	-0.0025965	7
	30	43	998.264	4834.664	-2615.217	1	5496.666	-28.4103	8.689124E-008	-0.002869	7
	31	44	796.875	4961.987	-3145.149	1	5874.8	-32.36851	-7.783107E-009	-0.0026687	7
	32	45	627.7902	5117.586	-3828.81	1	6391.359	-36.80263	1.36042E-007	-0.0028927	7
	33	47	505.5147	5276.41	-4588.018	1	6992.167	-41.00807	-3.629718E-008	-0.0026431	7
	34	48	397.9953	5479.543	-5622.326	1	7850.856	-45.73685	5.047428E-009	-0.0026777	7
	35	49	315.5048	5712.938	-6867.904	1	8933.407	-50.24525	7.507212E-009	-0.0026883	7
	36	51	252.4038	5984.123	-8341.83	1	10266.25	-54.34573	1.019349E-009	-0.0027498	6
	37	52	198.6229	6334.485	-10304.19	1	12095.53	-58.41893	1.317835E-009	-0.0027483	6
	38	53	158.3615	6750.087	-12595.71	1	14290.4	-61.81298	1.601892E-009	-0.0027515	6
	39	55	125.558	7286.147	-15496.03	1	17123.52	-64.81734	1.157737E-009	-0.0027462	6
	40	56	100.4464	7958.222	-18921.31	1	20526.79	-67.18858	2.039884E-009	-0.0027459	6
	41	57	79.00281	8896.577	-23474.39	1	25103.7	-69.24375	4.814086E-010	-0.0027446	6
	42	59	63.3446	9748.27	-28659.7	1	30272.22	-71.21484	1.040208E-009	-0.0027503	6
	43	60	49.86702	11719.63	-35198.92	1	37098.7	-71.5846	1.633801E-010	-0.0027466	6
	44	62	39.72458	13510.65	-43183.12	1	45247.32	-72.62673	8.648363E-010	-0.0027413	6
	45	63	31.6723	16059.64	-52756.65	1	55146.86	-73.06924	7.178043E-010	-0.002739	6
	46	64	24.93351	19829.89	-64737.85	1	67706.83	-72.96961	5.739029E-010	-0.0027391	6
	47	66	19.86229	24532.24	-78646.77	1	82384.13	-72.67577	1.031008E-009	-0.0027436	6
	48	67	15.83615	30150.7	-95083.6	1	99749.5	-72.40636	1.686247E-009	-0.0027456	6
	49	68	12.40079	39044.82	-115706.2	1	122116.4	-71.35313	6.846805E-010	-0.0027394	5
	50	70	9.93114	49178.81	-138309.5	1	146792.6	-70.4261	1.395275E-010	-0.002744	5
	51	71	7.944915	62146.36	-164366.6	1	175722.9	-69.28859	1.04022E-011	-0.0027421	5
	52	73	6.317385	79414.92	-195332.2	1	210858.7	-67.87514	4.997614E-010	-0.0027462	5
	53	75	5.008013	101396.9	-231154.5	1	252415.8	-66.31513	1.482974E-010	-0.0027453	5
	54	77	3.945707	129282	-272129.6	1	301277.8	-64.58878	4.448713E-010	-0.0027334	5
	55	80	3.158693	161066.8	-315014.6	1	353803.2	-62.91937	4.921565E-011	-0.0027538	5
	56	83	2.504006	201108.2	-363342.4	1	415285.7	-61.03569	8.289492E-010	-0.0027437	5
	57	86	1.998082	246961.8	-413749.5	1	481849.3	-59.16756	2.456018E-010	-0.0026953	5
	58	89	1.584686	299203.8	-469860.9	1	557038.8	-57.51133	4.936048E-010	-0.0027161	5
	59	93	1.266892	357420.1	-527004.3	1	636775.2	-55.85445	5.519919E-011	-0.0027077	5
	60	97	0.999041	422232	-592585.1	1	727624.3	-54.52916	4.863965E-010	-0.0027584	5
