EXPLAIN
TAG	EISPOT
TITLE	LABEL	Potentiostatic EIS	Test &Identifier
DATE	LABEL	10/4/2019	Date
TIME	LABEL	8:43:52	Time
NOTES	NOTES	2	&Notes...
	
	
PSTAT	PSTAT	REF600-11020	Potentiostat
VDC	POTEN	0.00000E+000	T	DC &Voltage (V)
FREQINIT	QUANT	1.00000E+006	Initial Fre&q. (Hz)
FREQFINAL	QUANT	1.00000E+000	Final Fre&q. (Hz)
PTSPERDEC	QUANT	1.00000E+001	Points/&decade
VAC	QUANT	2.50000E+001	AC &Voltage (mV rms)
AREA	QUANT	1.00000E-002	&Area (cm^2)
CONDIT	TWOPARAM	T	5.00000E+000	0.00000E+000	Conditionin&g	Time(s)	E(V)
DELAY	TWOPARAM	T	5.00000E+000	0.00000E+000	Init. De&lay	Time(s)	Stab.(mV/s)
SPEED	SELECTOR	1	&Optimize for:
ZGUESS	QUANT	1.00000E+004	E&stimated Z (ohms)
OCVCURVE	TABLE	19
	Pt	T	Vf	Vm	Ach	Over
	#	s	V vs. Ref.	V	V	bits
	0	0.258333	-5.41532E-003	-5.41532E-003	5.84374E-004	...........
	1	0.516667	-5.41760E-003	-5.53463E-003	5.85507E-004	...........
	2	0.775	-5.43358E-003	-5.75171E-003	5.87374E-004	...........
	3	1.03333	-5.47856E-003	-5.60203E-003	5.84807E-004	...........
	4	1.29167	-5.54162E-003	-5.44004E-003	5.85374E-004	...........
	5	1.55	-5.59455E-003	-6.22530E-003	5.88674E-004	...........
	6	1.80833	-5.66331E-003	-6.49197E-003	5.92574E-004	...........
	7	2.06667	-5.81530E-003	-6.45114E-003	5.87240E-004	...........
	8	2.325	-6.04333E-003	-6.41704E-003	5.88407E-004	...........
	9	2.58333	-6.25720E-003	-6.53043E-003	5.88940E-004	...........
	10	2.84167	-6.39815E-003	-6.67463E-003	5.82974E-004	...........
	11	3.1	-6.48423E-003	-6.67637E-003	5.89540E-004	...........
	12	3.35833	-6.55579E-003	-6.85533E-003	5.85407E-004	...........
	13	3.61667	-6.63527E-003	-7.01490E-003	5.90707E-004	...........
	14	3.875	-6.72992E-003	-6.95673E-003	5.86407E-004	...........
	15	4.13333	-6.82851E-003	-6.92033E-003	5.89540E-004	...........
	16	4.39167	-6.90765E-003	-7.16917E-003	5.88507E-004	...........
	17	4.65	-6.96482E-003	-7.10294E-003	5.93374E-004	...........
	18	4.90833	-7.01852E-003	-7.22227E-003	5.86207E-004	...........
EOC	QUANT	-0.0070185	Open Circuit (V)
PSTATMODEL	IQUANT	4	Pstat Model
PSTATSECTION	LABEL	REF600-11020	Pstat Section
PSTATSERIALNO	LABEL	11020	Pstat Serial Number
CTRLMODE	IQUANT	1	Control Mode
IESTAB	IQUANT	0	I/E Stability
CASPEED	IQUANT	1	Control Amp Speed
CONVENTION	IQUANT	1	Current Convention
ICHRANGE	IQUANT	2	Ich Range
ICHRANGEMODE	TOGGLE	F	Ich Auto Range
ICHOFFSETENABLE	TOGGLE	T	Ich Offset Enable
ICHOFFSET	QUANT	0	Ich Offset (V)
ICHFILTER	IQUANT	3	Ich Filter
VCHRANGE	IQUANT	2	Vch Range
VCHRANGEMODE	TOGGLE	F	Vch Auto Range
VCHOFFSETENABLE	TOGGLE	T	Vch Offset Enable
VCHOFFSET	QUANT	0	Vch Offset (V)
VCHFILTER	IQUANT	3	Vch Filter
ACHRANGE	IQUANT	2	Ach Range
ACHOFFSETENABLE	TOGGLE	F	Ach Offset Enable
ACHOFFSET	QUANT	0	Ach Offset (V)
ACHFILTER	IQUANT	0	Ach Filter
IERANGELOWERLIMIT	IQUANT	1	I/E Range Lower Limit
IERANGEMODE	TOGGLE	F	I/E AutoRange
IERANGE	IQUANT	6	I/E Range
POSFEEDENABLE	TOGGLE	F	Positive Feedback IR Comp
POSFEEDRESISTANCE	QUANT	0	Positive Feedback Resistance (ohm)
ACHSELECT	IQUANT	0	Ach Select
CABLEID	IQUANT	14	Cable ID
DCCALDATE	LABEL	8/19/2019	DC Calibration Date
ACCALDATE	LABEL	8/19/2019	AC Calibration Date
THERMOSELECT	IQUANT	1	Thermo Select
FRAMEWORKVERSION	QUANT	6.33	Framework Version
INSTRUMENTVERSION	LABEL	3.50	Instrument Version
ZCURVE	TABLE
	Pt	Time	Freq	Zreal	Zimag	Zsig	Zmod	Zphz	Idc	Vdc	IERange
	#	s	Hz	ohm	ohm	V	ohm	°	A	V	#
	0	1	1000078	1023.135	-9895.61	1	9948.37	-84.09701	3.327555E-006	-0.0053124	8
	1	3	794390.6	1160.795	-12468.59	1	12522.5	-84.68123	4.185935E-006	-0.0056473	8
	2	5	630984.4	1116.519	-15256.21	1	15297.01	-85.8143	-4.680261E-006	-0.0042979	8
	3	7	501234.4	1606.59	-19171.8	1	19239	-85.20982	1.865745E-006	-0.0057609	8
	4	9	398109.4	1670.241	-24019.62	1	24077.63	-86.02225	2.016502E-006	-0.0058448	8
	5	10	316265.6	1772.114	-29579.12	1	29632.15	-86.57145	-3.370009E-007	-0.0053	8
	6	12	251203.1	2797.442	-39311.52	1	39410.93	-85.92964	-2.316082E-006	-0.0048082	8
	7	14	199546.9	3430.542	-46576.05	1	46702.21	-85.78751	-2.156662E-006	-0.0050343	8
	8	15	158578.1	4341.601	-57158.42	1	57323.07	-85.6563	5.528701E-007	-0.0056757	8
	9	17	125953.1	5254.181	-72732.18	1	72921.71	-85.86813	4.435132E-007	-0.0068392	7
	10	19	100078.1	7576.202	-91157.38	1	91471.67	-85.24899	5.79711E-008	-0.0055752	7
	11	21	79453.13	9500.82	-113121.7	1	113520	-85.19913	5.778505E-008	-0.00558	7
	12	22	63140.62	13515.85	-140307.4	1	140956.9	-84.49766	-1.070258E-008	-0.0055757	7
	13	24	50203.12	16699.86	-175032.7	1	175827.5	-84.54991	5.459729E-008	-0.00568	7
	14	25	39890.62	25085.34	-217138.1	1	218582.3	-83.41	-1.096911E-008	-0.005576	7
	15	27	31640.63	30712.91	-271911.7	1	273640.7	-83.55565	-1.076574E-008	-0.005578	7
	16	28	25171.88	39464.34	-338427	1	340720.2	-83.34872	1.349872E-007	-0.0056392	7
	17	30	20015.62	48296.59	-426503.3	1	429229.1	-83.53944	-1.022918E-007	-0.0053727	7
	18	31	15890.62	78315.12	-523328.4	1	529155.8	-81.48895	-1.072039E-008	-0.0055822	7
	19	33	12609.37	111163.4	-645792.1	1	655289.8	-80.23311	2.086212E-008	-0.0057273	6
	20	35	10078.13	153485.6	-794979.3	1	809660.3	-79.07243	-1.304263E-008	-0.0052636	6
	21	36	8015.625	178022.3	-942416	1	959083	-79.30288	-6.647789E-009	-0.0055523	6
	22	38	6328.125	301181.1	-1204441	1	1241526	-75.96059	-7.154049E-009	-0.0055553	6
	23	40	5015.625	422421.3	-1477259	1	1536468	-74.04215	7.806057E-009	-0.0057532	6
	24	41	3984.375	545893.1	-1630226	1	1719197	-71.4865	6.557578E-009	-0.0057676	6
	25	43	3170.956	852971.1	-2124512	1	2289348	-68.12502	6.257016E-009	-0.0057687	6
	26	45	2527.573	1145876	-2512187	1	2761180	-65.481	-5.546407E-009	-0.0053447	6
	27	46	1976.103	1504354	-2776213	1	3157600	-61.54795	-5.643982E-009	-0.0053481	6
	28	48	1577.524	2526748	-3394381	1	4231582	-53.33632	-1.069477E-008	-0.0054593	6
	29	50	1265.625	2864985	-3517771	1	4536833	-50.83953	-1.096179E-009	-0.0053338	5
	30	51	998.264	3716491	-3677488	1	5228405	-44.69777	2.326843E-009	-0.0057648	5
	31	53	796.875	4289379	-3589333	1	5593039	-39.92244	-1.562642E-009	-0.0053281	5
	32	54	627.7902	5318882	-3655494	1	6453925	-34.49947	-8.877737E-010	-0.0055299	5
	33	55	505.5147	5439781	-3318655	1	6372181	-31.38618	5.036568E-010	-0.0057552	5
	34	57	397.9953	6419890	-3147437	1	7149920	-26.11702	-2.295178E-010	-0.0055401	5
	35	58	315.5048	6948239	-2784423	1	7485388	-21.83785	-3.216782E-010	-0.005544	5
	36	60	252.4038	7101651	-2169069	1	7425517	-16.98433	2.279904E-010	-0.0055403	5
	37	61	198.6229	7705992	-1974251	1	7954871	-14.36992	-4.337131E-011	-0.0055426	5
	38	63	158.3615	7997579	-1933792	1	8228051	-13.59305	-1.419076E-010	-0.0055448	5
	39	64	125.558	7966493	-1402597	1	8089023	-9.98528	-2.443544E-011	-0.0055397	5
	40	66	100.4464	8114239	-1492398	1	8250341	-10.42156	2.370796E-011	-0.0055444	5
	41	68	79.00281	7718155	-2308416	1	8055972	-16.65135	3.134252E-010	-0.0055442	5
	42	69	63.3446	4269548	709611.6	1	4328116	9.436472	3.427653E-010	-0.0055485	5
	43	71	49.86702	7619157	-658359.1	1	7647548	-4.938569	1.557834E-011	-0.0055562	4
	44	73	39.72458	9.559827E+006	-521565.3	1	9.574044E+006	-3.122849	1.918758E-010	-0.0055453	5
	45	74	31.6723	8332714	514153.2	1	8348561	3.530843	2.683062E-010	-0.0055522	4
	46	76	24.93351	8971972	-737189.9	1	9002207	-4.697206	1.61968E-010	-0.0055501	5
	47	78	19.86229	8558469	-252206.4	1	8562184	-1.68794	2.649669E-011	-0.0055442	4
	48	79	15.83615	9.673739E+006	1405911	1	9.775368E+006	8.269057	-2.948904E-010	-0.0055505	5
	49	81	12.40079	7865541	1489500	1	8005333	10.72314	6.454502E-010	-0.0055519	4
	50	82	9.93114	9.668574E+006	-762150.2	1	9.698567E+006	-4.507167	2.604532E-010	-0.0055442	5
	51	84	7.944915	8399634	-535013.1	1	8416656	-3.644521	1.976637E-010	-0.0055465	4
	52	86	6.317385	9013664	-786192.5	1	9047886	-4.984854	7.396649E-011	-0.0055367	5
	53	89	5.008013	9155120	-862417.6	1	9195650	-5.381415	3.159094E-011	-0.0055581	4
	54	91	3.945707	8957358	-914691.9	1	9003939	-5.83062	1.238269E-010	-0.0055514	4
	55	95	3.158693	9345534	-1011593	1	9400124	-6.177844	9.750307E-011	-0.0055283	4
	56	98	2.504006	1.479327E+007	-1679198	1	1.488827E+007	-6.475978	5.783524E-011	-0.005564	3
	57	102	1.998082	1.501528E+007	-1861328	1	1.513021E+007	-7.066466	5.302474E-011	-0.0055789	3
	58	107	1.584686	1.532687E+007	-2072935	1	1.546642E+007	-7.702424	6.076402E-011	-0.0055222	3
	59	111	1.266892	1.566258E+007	-2270594	1	1.582631E+007	-8.248663	5.246204E-011	-0.0055882	3
	60	116	0.999041	1.605163E+007	-2485325	1	1.62429E+007	-8.801398	8.268469E-011	-0.0055166	3
