EXPLAIN
TAG	EISPOT
TITLE	LABEL	Potentiostatic EIS	Test &Identifier
DATE	LABEL	11/20/2019	Date
TIME	LABEL	10:46:42	Time
NOTES	NOTES	4	&Notes...
	
	
	
	
PSTAT	PSTAT	REF600-11020	Potentiostat
VDC	POTEN	0.00000E+000	T	DC &Voltage (V)
FREQINIT	QUANT	1.00000E+006	Initial Fre&q. (Hz)
FREQFINAL	QUANT	1.00000E+000	Final Fre&q. (Hz)
PTSPERDEC	QUANT	1.00000E+001	Points/&decade
VAC	QUANT	2.50000E+001	AC &Voltage (mV rms)
AREA	QUANT	1.00000E-002	&Area (cm^2)
CONDIT	TWOPARAM	T	5.00000E+000	0.00000E+000	Conditionin&g	Time(s)	E(V)
DELAY	TWOPARAM	T	5.00000E+000	0.00000E+000	Init. De&lay	Time(s)	Stab.(mV/s)
SPEED	SELECTOR	0	&Optimize for:
ZGUESS	QUANT	1.00000E+005	E&stimated Z (ohms)
OCVCURVE	TABLE	19
	Pt	T	Vf	Vm	Ach	Over
	#	s	V vs. Ref.	V	V	bits
	0	0.258333	3.24050E-003	3.24050E-003	5.05533E-004	...........
	1	0.516667	3.23648E-003	3.02991E-003	4.97533E-004	...........
	2	0.775	3.21212E-003	2.84816E-003	5.03933E-004	...........
	3	1.03333	3.14451E-003	2.68310E-003	5.02067E-004	...........
	4	1.29167	3.02681E-003	2.53943E-003	5.02067E-004	...........
	5	1.55	2.87615E-003	2.41165E-003	5.01233E-004	...........
	6	1.80833	2.71750E-003	2.29979E-003	5.06467E-004	...........
	7	2.06667	2.56800E-003	2.19277E-003	5.03800E-004	...........
	8	2.325	2.43385E-003	2.09220E-003	5.04433E-004	...........
	9	2.58333	2.31402E-003	1.99930E-003	5.06467E-004	...........
	10	2.84167	2.20514E-003	1.91036E-003	5.01433E-004	...........
	11	3.1	2.10429E-003	1.82455E-003	5.04467E-004	...........
	12	3.35833	2.00973E-003	1.75195E-003	5.04933E-004	...........
	13	3.61667	1.92082E-003	1.67787E-003	5.03567E-004	...........
	14	3.875	1.83759E-003	1.61098E-003	5.03467E-004	...........
	15	4.13333	1.75975E-003	1.54015E-003	5.04100E-004	...........
	16	4.39167	1.68622E-003	1.47294E-003	5.03400E-004	...........
	17	4.65	1.61507E-003	1.38155E-003	5.05633E-004	...........
	18	4.90833	1.54310E-003	1.28594E-003	5.01900E-004	...........
EOC	QUANT	0.0015431	Open Circuit (V)
PSTATMODEL	IQUANT	4	Pstat Model
PSTATSECTION	LABEL	REF600-11020	Pstat Section
PSTATSERIALNO	LABEL	11020	Pstat Serial Number
CTRLMODE	IQUANT	1	Control Mode
IESTAB	IQUANT	0	I/E Stability
CASPEED	IQUANT	1	Control Amp Speed
CONVENTION	IQUANT	1	Current Convention
ICHRANGE	IQUANT	2	Ich Range
ICHRANGEMODE	TOGGLE	F	Ich Auto Range
ICHOFFSETENABLE	TOGGLE	T	Ich Offset Enable
ICHOFFSET	QUANT	0	Ich Offset (V)
ICHFILTER	IQUANT	3	Ich Filter
VCHRANGE	IQUANT	2	Vch Range
VCHRANGEMODE	TOGGLE	F	Vch Auto Range
VCHOFFSETENABLE	TOGGLE	T	Vch Offset Enable
VCHOFFSET	QUANT	0	Vch Offset (V)
VCHFILTER	IQUANT	3	Vch Filter
ACHRANGE	IQUANT	2	Ach Range
ACHOFFSETENABLE	TOGGLE	F	Ach Offset Enable
ACHOFFSET	QUANT	0	Ach Offset (V)
ACHFILTER	IQUANT	3	Ach Filter
IERANGELOWERLIMIT	IQUANT	1	I/E Range Lower Limit
IERANGEMODE	TOGGLE	F	I/E AutoRange
IERANGE	IQUANT	4	I/E Range
POSFEEDENABLE	TOGGLE	F	Positive Feedback IR Comp
POSFEEDRESISTANCE	QUANT	0	Positive Feedback Resistance (ohm)
ACHSELECT	IQUANT	0	Ach Select
CABLEID	IQUANT	14	Cable ID
DCCALDATE	LABEL	8/19/2019	DC Calibration Date
ACCALDATE	LABEL	8/19/2019	AC Calibration Date
THERMOSELECT	IQUANT	1	Thermo Select
FRAMEWORKVERSION	QUANT	6.33	Framework Version
INSTRUMENTVERSION	LABEL	3.50	Instrument Version
ZCURVE	TABLE
	Pt	Time	Freq	Zreal	Zimag	Zsig	Zmod	Zphz	Idc	Vdc	IERange
	#	s	Hz	ohm	ohm	V	ohm	°	A	V	#
	0	1	1000078	2130.375	-1943.115	1	2883.434	-42.36795	8.509087E-006	0.0021153	8
	1	1	794390.6	2469.641	-2041.287	1	3204.057	-39.57551	-5.925622E-006	0.0032754	8
	2	2	630984.4	2827.205	-2100.731	1	3522.238	-36.6139	-2.57091E-006	0.0038521	8
	3	2	501234.4	3185.882	-2137.775	1	3836.656	-33.86221	3.114783E-007	0.0028601	8
	4	2	398109.4	3557.507	-2152.701	1	4158.122	-31.17876	5.718372E-006	0.00203	8
	5	3	316265.6	3911.453	-2145.069	1	4461.03	-28.74068	1.33359E-006	0.0027021	8
	6	3	251203.1	4299.583	-2126.078	1	4796.521	-26.3117	1.578149E-006	0.0027015	8
	7	3	199546.9	4668.299	-2044.239	1	5096.266	-23.64852	-2.557164E-007	0.0028308	8
	8	4	158578.1	5025.843	-1925.898	1	5382.21	-20.96679	-2.182905E-006	0.0030007	8
	9	4	125953.1	5352.616	-1745.276	1	5629.963	-18.0591	-2.72885E-006	0.0053682	7
	10	4	100078.1	5626.912	-1634.163	1	5859.405	-16.19431	-2.677201E-007	0.0043648	7
	11	5	79453.13	5887.694	-1489.178	1	6073.104	-14.19417	8.584373E-008	0.0039717	7
	12	5	63140.62	6099.975	-1337.692	1	6244.927	-12.36887	8.333112E-007	0.0027876	7
	13	5	50203.12	6264.829	-1193.001	1	6377.408	-10.78165	8.359489E-007	0.0027844	7
	14	6	39890.62	6372.761	-1054.175	1	6459.363	-9.392746	-1.037187E-006	0.0035817	7
	15	6	31640.63	6495.898	-950.823	1	6565.117	-8.32741	-2.67431E-007	0.0043514	7
	16	7	25171.88	6571.164	-857.2985	1	6626.851	-7.433038	8.333242E-008	0.0017356	7
	17	7	20015.62	6645.461	-790.1511	1	6692.271	-6.780684	-8.643123E-007	0.0046845	7
	18	7	15890.62	6695.514	-752.0444	1	6737.617	-6.408638	-1.042041E-006	0.0035782	7
	19	8	12609.37	6772.412	-741.241	1	6812.855	-6.246165	9.479518E-007	0.001373	7
	20	8	10078.13	6815.746	-738.1003	1	6855.595	-6.180669	-5.913517E-007	0.0045923	7
	21	9	8015.625	6846.047	-756.8198	1	6887.753	-6.308343	-2.625525E-007	0.0043474	7
	22	9	6328.125	6896.086	-822.6636	1	6944.982	-6.802909	-1.063365E-006	0.0046297	7
	23	9	5015.625	6941.161	-905.628	1	6999.991	-7.433512	-1.193545E-006	0.0044656	7
	24	10	3984.375	7002.851	-1025.592	1	7077.553	-8.331936	-1.063952E-006	0.0046345	7
	25	10	3170.956	7042.823	-1173.595	1	7139.936	-9.460671	-1.198704E-006	0.0041244	7
	26	10	2527.573	7123.364	-1372.35	1	7254.355	-10.9047	7.429426E-007	0.0012964	7
	27	11	1976.103	7183.826	-1635.606	1	7367.67	-12.82639	-1.037398E-006	0.0035726	7
	28	11	1577.524	7253.195	-1964.053	1	7514.409	-15.15146	-5.890319E-007	0.0045864	7
	29	12	1265.625	7347.581	-2314.817	1	7703.592	-17.48676	-1.063705E-006	0.0046259	7
	30	12	998.264	7469.874	-2805.085	1	7979.193	-20.58215	-2.621744E-007	0.0043362	7
	31	13	796.875	7587.753	-3380.653	1	8306.793	-24.01492	-5.878997E-007	0.0045857	7
	32	13	627.7902	7750.198	-4146.394	1	8789.662	-28.147	6.177569E-007	0.0032136	7
	33	13	505.5147	7892.236	-4957.405	1	9320.046	-32.13445	-1.191246E-006	0.0044652	7
	34	14	397.9953	8118.317	-6117.051	1	10164.91	-36.99757	2.38679E-009	0.0030521	7
	35	14	315.5048	8375.246	-7489.311	1	11235.41	-41.80371	-2.1182E-010	0.0029973	6
	36	14	252.4038	8674.078	-9115.738	1	12583.18	-46.42216	3.749418E-010	0.0029947	6
	37	14	198.6229	9073.194	-11272	1	14470	-51.1683	7.228751E-010	0.0029957	6
	38	15	158.3615	9547.81	-13782.23	1	16766.35	-55.28726	4.586644E-010	0.0029804	6
	39	15	125.558	10173.98	-16949.48	1	19768.53	-59.02557	6.354372E-010	0.0029907	6
	40	15	100.4464	10950.3	-20698.05	1	23416.2	-62.11893	7.374714E-010	0.0029832	6
	41	16	79.00281	11991.89	-25579.44	1	28250.9	-64.88235	1.527092E-009	0.0029872	6
	42	16	63.3446	13527.61	-31217.08	1	34022.09	-66.57099	-2.377648E-010	0.0029862	6
	43	17	49.86702	15291.26	-38527.23	1	41450.81	-68.35212	2.512821E-010	0.0029778	6
	44	17	39.72458	17509.25	-46857.11	1	50021.63	-69.51063	6.75359E-010	0.0029836	6
	45	17	31.6723	20459.54	-56929.7	1	60494.5	-70.23244	2.981164E-012	0.0029899	6
	46	18	24.93351	24797.98	-69990.83	1	74253.99	-70.4906	5.021834E-010	0.0029762	6
	47	18	19.86229	30232.87	-84600.39	1	89840.15	-70.3351	1.498687E-009	0.002994	6
	48	18	15.83615	37027.46	-102284.8	1	108780.6	-70.09956	-5.689826E-010	0.0029922	5
	49	18	12.40079	47499.21	-124723.9	1	133462.4	-69.15142	2.245323E-010	0.0029921	5
	50	19	9.93114	59446.33	-147298.9	1	158842.2	-68.02217	3.213956E-010	0.0029765	5
	51	19	7.944915	74915.4	-173989.3	1	189432.3	-66.70451	-4.678608E-010	0.0029857	5
	52	20	6.317385	94282.48	-205004.3	1	225645.6	-65.30206	-4.884727E-010	0.0030016	5
	53	21	5.008013	119391.8	-239861.9	1	267933.1	-63.53807	-1.465124E-010	0.0029838	5
	54	22	3.945707	149674	-278666.3	1	316318.2	-61.75937	9.857407E-012	0.0029799	5
	55	23	3.158693	183589.6	-317844.7	1	367056.4	-59.98892	3.248645E-010	0.0030001	5
	56	25	2.504006	224073.2	-361741.1	1	425517.8	-58.22469	6.649446E-011	0.002993	5
	57	26	1.998082	267015	-408413.2	1	487953.2	-56.82388	-2.017227E-011	0.0029613	5
	58	28	1.584686	315442.6	-458736.8	1	556725.6	-55.48629	1.2891E-010	0.0030073	5
	59	30	1.266892	366559.4	-515118.8	1	632228.7	-54.56428	1.918379E-010	0.0030218	5
	60	32	0.999041	423859.2	-583821.7	1	721459.9	-54.02005	2.49344E-010	0.0030146	5
