EXPLAIN
TAG	EISPOT
TITLE	LABEL	Potentiostatic EIS	Test &Identifier
DATE	LABEL	10/10/2019	Date
TIME	LABEL	9:11:29	Time
NOTES	NOTES	1	&Notes...
	
PSTAT	PSTAT	REF600-11020	Potentiostat
VDC	POTEN	0.00000E+000	T	DC &Voltage (V)
FREQINIT	QUANT	1.00000E+006	Initial Fre&q. (Hz)
FREQFINAL	QUANT	1.00000E+000	Final Fre&q. (Hz)
PTSPERDEC	QUANT	1.00000E+001	Points/&decade
VAC	QUANT	2.50000E+001	AC &Voltage (mV rms)
AREA	QUANT	1.00000E-002	&Area (cm^2)
CONDIT	TWOPARAM	T	5.00000E+000	0.00000E+000	Conditionin&g	Time(s)	E(V)
DELAY	TWOPARAM	T	5.00000E+000	0.00000E+000	Init. De&lay	Time(s)	Stab.(mV/s)
SPEED	SELECTOR	1	&Optimize for:
ZGUESS	QUANT	1.00000E+004	E&stimated Z (ohms)
OCVCURVE	TABLE	19
	Pt	T	Vf	Vm	Ach	Over
	#	s	V vs. Ref.	V	V	bits
	0	0.258333	4.69363E-003	4.69363E-003	5.56599E-004	...........
	1	0.516667	4.68740E-003	4.36713E-003	5.53333E-004	...........
	2	0.775	4.65136E-003	4.17628E-003	5.54133E-004	...........
	3	1.03333	4.55544E-003	3.91386E-003	5.50299E-004	...........
	4	1.29167	4.39328E-003	3.73955E-003	5.53066E-004	...........
	5	1.55	4.19060E-003	3.65998E-003	5.55633E-004	...........
	6	1.80833	3.98707E-003	3.56403E-003	5.54566E-004	...........
	7	2.06667	3.81353E-003	3.46799E-003	5.53599E-004	...........
	8	2.325	3.67851E-003	3.41741E-003	5.53733E-004	...........
	9	2.58333	3.57613E-003	3.44855E-003	5.58832E-004	...........
	10	2.84167	3.50296E-003	3.42584E-003	5.52932E-004	...........
	11	3.1	3.45662E-003	3.32128E-003	5.56366E-004	...........
	12	3.35833	3.42667E-003	3.41836E-003	5.53833E-004	...........
	13	3.61667	3.39745E-003	3.03304E-003	5.49866E-004	...........
	14	3.875	3.34862E-003	3.02182E-003	5.49633E-004	...........
	15	4.13333	3.26418E-003	2.94843E-003	5.49833E-004	...........
	16	4.39167	3.15517E-003	2.88428E-003	5.52699E-004	...........
	17	4.65	3.04957E-003	2.81943E-003	5.50833E-004	...........
	18	4.90833	2.96179E-003	2.76428E-003	5.50599E-004	...........
EOC	QUANT	0.0029618	Open Circuit (V)
PSTATMODEL	IQUANT	4	Pstat Model
PSTATSECTION	LABEL	REF600-11020	Pstat Section
PSTATSERIALNO	LABEL	11020	Pstat Serial Number
CTRLMODE	IQUANT	1	Control Mode
IESTAB	IQUANT	0	I/E Stability
CASPEED	IQUANT	1	Control Amp Speed
CONVENTION	IQUANT	1	Current Convention
ICHRANGE	IQUANT	2	Ich Range
ICHRANGEMODE	TOGGLE	F	Ich Auto Range
ICHOFFSETENABLE	TOGGLE	T	Ich Offset Enable
ICHOFFSET	QUANT	0	Ich Offset (V)
ICHFILTER	IQUANT	3	Ich Filter
VCHRANGE	IQUANT	2	Vch Range
VCHRANGEMODE	TOGGLE	F	Vch Auto Range
VCHOFFSETENABLE	TOGGLE	T	Vch Offset Enable
VCHOFFSET	QUANT	0	Vch Offset (V)
VCHFILTER	IQUANT	3	Vch Filter
ACHRANGE	IQUANT	2	Ach Range
ACHOFFSETENABLE	TOGGLE	F	Ach Offset Enable
ACHOFFSET	QUANT	0	Ach Offset (V)
ACHFILTER	IQUANT	3	Ach Filter
IERANGELOWERLIMIT	IQUANT	1	I/E Range Lower Limit
IERANGEMODE	TOGGLE	F	I/E AutoRange
IERANGE	IQUANT	5	I/E Range
POSFEEDENABLE	TOGGLE	F	Positive Feedback IR Comp
POSFEEDRESISTANCE	QUANT	0	Positive Feedback Resistance (ohm)
ACHSELECT	IQUANT	0	Ach Select
CABLEID	IQUANT	14	Cable ID
DCCALDATE	LABEL	8/19/2019	DC Calibration Date
ACCALDATE	LABEL	8/19/2019	AC Calibration Date
THERMOSELECT	IQUANT	1	Thermo Select
FRAMEWORKVERSION	QUANT	6.33	Framework Version
INSTRUMENTVERSION	LABEL	3.50	Instrument Version
ZCURVE	TABLE
	Pt	Time	Freq	Zreal	Zimag	Zsig	Zmod	Zphz	Idc	Vdc	IERange
	#	s	Hz	ohm	ohm	V	ohm	°	A	V	#
	0	1	1000078	2869.855	-1865.235	1	3422.743	-33.02147	-2.11968E-006	0.005127	8
	1	3	794390.6	3232.965	-1736.432	1	3669.776	-28.24033	-9.225741E-007	0.0053963	8
	2	4	630984.4	3546.95	-1572.195	1	3879.775	-23.90544	2.819633E-007	0.0048809	8
	3	5	501234.4	3799.291	-1396.514	1	4047.822	-20.18202	-1.441453E-006	0.0050352	8
	4	7	398109.4	3980.658	-1201.843	1	4158.132	-16.80015	-2.983606E-006	0.0054393	8
	5	8	316265.6	4125.309	-1030.548	1	4252.083	-14.02606	1.668305E-007	0.0044268	8
	6	10	251203.1	4234.26	-891.4274	1	4327.077	-11.88871	3.922237E-006	0.0038687	8
	7	11	199546.9	4303.23	-748.5942	1	4367.858	-9.86847	-1.061707E-007	0.0044174	8
	8	12	158578.1	4377.165	-651.7252	1	4425.417	-8.468674	-1.242888E-006	0.0048789	8
	9	14	125953.1	4443.655	-526.2993	1	4474.713	-6.754553	-9.449715E-007	0.0059236	7
	10	15	100078.1	4466.957	-467.6503	1	4491.369	-5.976583	-6.46674E-008	0.0047748	7
	11	17	79453.13	4500.565	-438.3887	1	4521.866	-5.563487	9.257588E-008	0.0043752	7
	12	18	63140.62	4533.911	-417.3633	1	4553.08	-5.259466	-6.282029E-008	0.004629	7
	13	19	50203.12	4564.2	-408.6745	1	4582.459	-5.11657	-3.011739E-008	0.0045488	7
	14	21	39890.62	4597.623	-411.2836	1	4615.982	-5.111829	9.081697E-009	0.0044934	7
	15	22	31640.63	4632.696	-425.9107	1	4652.233	-5.252769	-3.968902E-008	0.0046542	7
	16	23	25171.88	4668.421	-450.1193	1	4690.07	-5.507314	1.217275E-008	0.0044941	7
	17	25	20015.62	4709.542	-479.978	1	4733.937	-5.819268	7.223404E-008	0.0044435	7
	18	26	15890.62	4746.976	-531.8622	1	4776.679	-6.39289	7.129172E-008	0.0044454	7
	19	28	12609.37	4793.225	-593.2172	1	4829.794	-7.055142	-6.695993E-008	0.0046687	7
	20	29	10078.13	4840.766	-663.5114	1	4886.027	-7.804752	5.02076E-008	0.0045012	7
	21	30	8015.625	4891.496	-755.0881	1	4949.433	-8.775342	-1.241654E-008	0.0045772	7
	22	32	6328.125	4949.138	-870.9549	1	5025.189	-9.98078	-6.073251E-008	0.0047475	7
	23	33	5015.625	5009.743	-1011.822	1	5110.901	-11.41847	-3.657454E-008	0.0046312	7
	24	34	3984.375	5075.045	-1183.483	1	5211.21	-13.12658	-3.395008E-009	0.0046023	7
	25	36	3170.956	5146.596	-1393.198	1	5331.833	-15.1471	-2.702732E-009	0.0044941	7
	26	37	2527.573	5226.321	-1648.883	1	5480.26	-17.51028	-4.103762E-008	0.0046333	7
	27	39	1976.103	5326.175	-1995.174	1	5687.605	-20.53585	-4.352962E-009	0.004595	7
	28	40	1577.524	5406.731	-2367.184	1	5902.229	-23.64485	-1.236654E-008	0.0045857	7
	29	41	1265.625	5550.836	-2842.451	1	6236.29	-27.11591	8.853937E-008	0.0043746	7
	30	43	998.264	5699.123	-3452.456	1	6663.292	-31.20695	-4.057369E-008	0.0045747	7
	31	44	796.875	5867.425	-4153.335	1	7188.663	-35.29328	-4.072011E-008	0.0045629	7
	32	45	627.7902	6068.345	-5059.209	1	7900.659	-39.81813	4.563286E-008	0.0044085	7
	33	47	505.5147	6290.425	-6092.005	1	8756.824	-44.08195	-1.287903E-010	0.0044871	7
	34	48	397.9953	6572.948	-7466.06	1	9947.15	-48.64005	1.531508E-009	0.0045074	6
	35	49	315.5048	6899.936	-9123.251	1	11438.65	-52.8997	9.962937E-010	0.0045042	6
	36	51	252.4038	7280.204	-11080.31	1	13258	-56.6935	1.013049E-010	0.0045027	6
	37	52	198.6229	7785.854	-13678.93	1	15739.52	-60.35207	1.254383E-009	0.0045056	6
	38	54	158.3615	8382.719	-16712.49	1	18696.99	-63.36239	2.367589E-010	0.0045034	6
	39	55	125.558	9176.436	-20532.02	1	22489.35	-65.91856	8.984856E-010	0.0045049	6
	40	56	100.4464	10177.71	-25004.4	1	26996.4	-67.85188	1.344896E-009	0.0044989	6
	41	58	79.00281	11582.27	-30905.08	1	33004.14	-69.45555	1.392179E-009	0.0044996	6
	42	59	63.3446	13674.14	-37685.35	1	40089.49	-70.05668	6.089049E-010	0.0045021	6
	43	61	49.86702	15520.42	-46709.78	1	49220.8	-71.61972	2.312757E-011	0.0044981	6
	44	62	39.72458	18693.28	-56528.91	1	59539.54	-71.70171	5.151852E-010	0.0045008	6
	45	63	31.6723	22523.64	-68417.13	1	72029.28	-71.77791	2.299751E-010	0.0045029	6
	46	65	24.93351	28220.5	-83633.31	1	88266.23	-71.354	3.366319E-010	0.0044995	6
	47	66	19.86229	35163.46	-100588.3	1	106557.4	-70.73149	-4.845503E-011	0.0045027	5
	48	67	15.83615	45043.01	-120668.8	1	128801.6	-69.53051	-3.964408E-010	0.004506	5
	49	69	12.40079	57869.96	-144297.3	1	155469.1	-68.1469	1.693466E-009	0.0045021	5
	50	70	9.93114	71934.52	-171223.5	1	185720.4	-67.21172	1.031631E-009	0.0045026	5
	51	72	7.944915	90410.59	-201017.3	1	220413.3	-65.78345	1.900229E-010	0.0045128	5
	52	74	6.317385	112460.5	-234980	1	260505.2	-64.4244	-4.909265E-011	0.0045036	5
	53	76	5.008013	140263.5	-273324.3	1	307213.3	-62.83418	-4.494425E-011	0.004508	5
	54	78	3.945707	173242	-316577.3	1	360879.4	-61.311	2.578593E-010	0.0045106	5
	55	81	3.158693	208885	-361200.5	1	417251.4	-59.95888	2.035325E-013	0.0044943	5
	56	84	2.504006	250303	-413071.5	1	482990.3	-58.786	4.303266E-010	0.0045159	5
	57	87	1.998082	295470.9	-469420.7	1	554670	-57.81216	3.600364E-010	0.0045338	5
	58	90	1.584686	346806.6	-533312.2	1	636157.8	-56.96453	1.92288E-010	0.004473	5
	59	94	1.266892	400616.9	-606590.1	1	726942.5	-56.5576	2.570893E-010	0.0045365	5
	60	98	0.999041	465086.3	-695814.9	1	836937.1	-56.24103	-3.218373E-011	0.0044703	5
