EXPLAIN
TAG	EISPOT
TITLE	LABEL	Potentiostatic EIS	Test &Identifier
DATE	LABEL	9/22/2019	Date
TIME	LABEL	11:05:08	Time
NOTES	NOTES	1	&Notes...
	
PSTAT	PSTAT	REF600-11020	Potentiostat
VDC	POTEN	0.00000E+000	T	DC &Voltage (V)
FREQINIT	QUANT	1.00000E+006	Initial Fre&q. (Hz)
FREQFINAL	QUANT	1.00000E+000	Final Fre&q. (Hz)
PTSPERDEC	QUANT	1.00000E+001	Points/&decade
VAC	QUANT	2.50000E+001	AC &Voltage (mV rms)
AREA	QUANT	1.00000E-002	&Area (cm^2)
CONDIT	TWOPARAM	T	5.00000E+000	0.00000E+000	Conditionin&g	Time(s)	E(V)
DELAY	TWOPARAM	T	5.00000E+000	0.00000E+000	Init. De&lay	Time(s)	Stab.(mV/s)
SPEED	SELECTOR	1	&Optimize for:
ZGUESS	QUANT	1.00000E+004	E&stimated Z (ohms)
OCVCURVE	TABLE	19
	Pt	T	Vf	Vm	Ach	Over
	#	s	V vs. Ref.	V	V	bits
	0	0.258333	1.65539E-003	1.65539E-003	5.67699E-004	...........
	1	0.516667	1.64795E-003	1.26587E-003	5.69932E-004	...........
	2	0.775	1.60217E-003	8.92139E-004	5.69066E-004	...........
	3	1.03333	1.47257E-003	5.43878E-004	5.66332E-004	...........
	4	1.29167	1.24106E-003	2.11549E-004	5.70132E-004	...........
	5	1.55	9.34481E-004	-9.81539E-005	5.67399E-004	...........
	6	1.80833	5.97088E-004	-3.91697E-004	5.65032E-004	...........
	7	2.06667	2.62330E-004	-6.31182E-004	5.67532E-004	...........
	8	2.325	-5.23920E-005	-8.80611E-004	5.64466E-004	...........
	9	2.58333	-3.41770E-004	-1.13632E-003	5.66066E-004	...........
	10	2.84167	-6.09946E-004	-1.38651E-003	5.59599E-004	...........
	11	3.1	-8.65611E-004	-1.62016E-003	5.62999E-004	...........
	12	3.35833	-1.11425E-003	-1.81807E-003	5.66032E-004	...........
	13	3.61667	-1.35500E-003	-2.03944E-003	5.61132E-004	...........
	14	3.875	-1.58456E-003	-2.21088E-003	5.65899E-004	...........
	15	4.13333	-1.80062E-003	-2.37406E-003	5.64366E-004	...........
	16	4.39167	-2.00206E-003	-2.57109E-003	5.65199E-004	...........
	17	4.65	-2.19118E-003	-2.75904E-003	5.63266E-004	...........
	18	4.90833	-2.37449E-003	-2.94074E-003	5.64299E-004	...........
EOC	QUANT	-0.0023745	Open Circuit (V)
PSTATMODEL	IQUANT	4	Pstat Model
PSTATSECTION	LABEL	REF600-11020	Pstat Section
PSTATSERIALNO	LABEL	11020	Pstat Serial Number
CTRLMODE	IQUANT	1	Control Mode
IESTAB	IQUANT	0	I/E Stability
CASPEED	IQUANT	1	Control Amp Speed
CONVENTION	IQUANT	1	Current Convention
ICHRANGE	IQUANT	2	Ich Range
ICHRANGEMODE	TOGGLE	F	Ich Auto Range
ICHOFFSETENABLE	TOGGLE	T	Ich Offset Enable
ICHOFFSET	QUANT	0	Ich Offset (V)
ICHFILTER	IQUANT	3	Ich Filter
VCHRANGE	IQUANT	2	Vch Range
VCHRANGEMODE	TOGGLE	F	Vch Auto Range
VCHOFFSETENABLE	TOGGLE	T	Vch Offset Enable
VCHOFFSET	QUANT	0	Vch Offset (V)
VCHFILTER	IQUANT	3	Vch Filter
ACHRANGE	IQUANT	2	Ach Range
ACHOFFSETENABLE	TOGGLE	F	Ach Offset Enable
ACHOFFSET	QUANT	0	Ach Offset (V)
ACHFILTER	IQUANT	3	Ach Filter
IERANGELOWERLIMIT	IQUANT	1	I/E Range Lower Limit
IERANGEMODE	TOGGLE	F	I/E AutoRange
IERANGE	IQUANT	5	I/E Range
POSFEEDENABLE	TOGGLE	F	Positive Feedback IR Comp
POSFEEDRESISTANCE	QUANT	0	Positive Feedback Resistance (ohm)
ACHSELECT	IQUANT	0	Ach Select
CABLEID	IQUANT	14	Cable ID
DCCALDATE	LABEL	8/19/2019	DC Calibration Date
ACCALDATE	LABEL	8/19/2019	AC Calibration Date
THERMOSELECT	IQUANT	1	Thermo Select
FRAMEWORKVERSION	QUANT	6.33	Framework Version
INSTRUMENTVERSION	LABEL	3.50	Instrument Version
ZCURVE	TABLE
	Pt	Time	Freq	Zreal	Zimag	Zsig	Zmod	Zphz	Idc	Vdc	IERange
	#	s	Hz	ohm	ohm	V	ohm	°	A	V	#
	0	1	1000078	2601.809	-2118.42	1	3355.162	-39.15284	1.497459E-006	7.155534E-005	8
	1	2	794390.6	3043.474	-2096.469	1	3695.662	-34.56066	1.614809E-007	-0.0003033	8
	2	4	630984.4	3419.294	-1987.604	1	3955.015	-30.16904	2.582939E-007	-0.0002756	8
	3	5	501234.4	3789.315	-1830.837	1	4208.429	-25.78787	-1.011883E-006	-0.0001772	8
	4	7	398109.4	4094.217	-1668.093	1	4420.99	-22.16729	-3.214156E-006	6.119203E-005	8
	5	8	316265.6	4337.598	-1470.791	1	4580.173	-18.73075	-7.130822E-007	-0.0005279	8
	6	9	251203.1	4519.704	-1307.949	1	4705.152	-16.13982	-2.550406E-006	-0.0002489	8
	7	11	199546.9	4692.987	-1151.128	1	4832.103	-13.7818	4.412601E-006	-0.0015174	8
	8	13	158578.1	4772.665	-1002.54	1	4876.825	-11.863	-2.974788E-006	3.004177E-005	8
	9	14	125953.1	4905.297	-848.8376	1	4978.199	-9.81753	1.26519E-006	-0.0029714	7
	10	16	100078.1	4969.05	-758.6973	1	5026.637	-8.681136	-6.577851E-008	-0.0006373	7
	11	17	79453.13	5033.008	-707.3885	1	5082.477	-8.000505	8.423412E-008	-0.0008992	7
	12	18	63140.62	5092.466	-673.4116	1	5136.798	-7.532907	-4.355202E-008	-0.0006202	7
	13	20	50203.12	5149.052	-654.0063	1	5190.42	-7.238658	1.074129E-008	-0.0008186	7
	14	21	39890.62	5210.403	-657.2438	1	5251.692	-7.189358	-4.398803E-008	-0.0007152	7
	15	22	31640.63	5265.812	-670.4465	1	5308.321	-7.255896	1.245771E-007	-0.0009034	7
	16	24	25171.88	5326.68	-701.4589	1	5372.668	-7.50199	4.691027E-008	-0.0008738	7
	17	25	20015.62	5391.575	-745.7178	1	5442.901	-7.874715	-1.401989E-008	-0.000707	7
	18	26	15890.62	5463.403	-809.7524	1	5523.085	-8.430657	-3.050026E-008	-0.0006781	7
	19	28	12609.37	5536.123	-887.3635	1	5606.788	-9.106259	4.556792E-008	-0.0007943	7
	20	29	10078.13	5614.395	-982.765	1	5699.759	-9.92868	-2.992987E-008	-0.0006816	7
	21	31	8015.625	5700.734	-1103.743	1	5806.601	-10.9577	4.586483E-008	-0.0007838	7
	22	32	6328.125	5797.558	-1256.312	1	5932.116	-12.22677	-4.156895E-008	-0.0006277	7
	23	33	5015.625	5901.711	-1436.205	1	6073.951	-13.67729	8.554834E-008	-0.0009088	7
	24	35	3984.375	6015.286	-1657.192	1	6239.387	-15.40271	-6.552256E-008	-0.0006594	7
	25	36	3170.956	6137.982	-1919.651	1	6431.166	-17.36705	9.238424E-009	-0.0007959	7
	26	37	2527.573	6274.742	-2239.357	1	6662.365	-19.64069	-5.839283E-008	-0.0005436	7
	27	39	1976.103	6437.479	-2661.094	1	6965.814	-22.45899	-5.91348E-008	-0.0005426	7
	28	40	1577.524	6608.979	-3130.97	1	7313.11	-25.34902	-3.729808E-008	-0.0007304	7
	29	42	1265.625	6782.66	-3687.006	1	7720.005	-28.52819	-3.664049E-008	-0.000734	7
	30	43	998.264	7028.224	-4428.051	1	8306.838	-32.2125	-2.9264E-008	-0.0006734	7
	31	44	796.875	7277.714	-5277.048	1	8989.569	-35.94575	-2.884412E-008	-0.0006832	7
	32	46	627.7902	7599.734	-6368.444	1	9915.29	-39.96242	4.799637E-009	-0.0009258	6
	33	47	505.5147	7929.438	-7582.365	1	10971.25	-43.71824	8.028417E-010	-0.0007485	6
	34	48	397.9953	8360.949	-9219.502	1	12446.07	-47.79586	5.100519E-010	-0.0007743	6
	35	50	315.5048	8863.543	-11171.13	1	14260.32	-51.57037	1.500164E-009	-0.0007743	6
	36	51	252.4038	9447.222	-13461.23	1	16445.51	-54.93845	1.649948E-009	-0.0007769	6
	37	53	198.6229	10218.29	-16468.51	1	19381.05	-58.18145	1.18953E-009	-0.0007754	6
	38	54	158.3615	11126.75	-19952.04	1	22844.88	-60.8527	1.4014E-009	-0.0007803	6
	39	55	125.558	12292.94	-24303.6	1	27235.66	-63.16938	7.340257E-010	-0.0007748	6
	40	57	100.4464	13708.44	-29380.16	1	32420.91	-64.98679	1.488217E-009	-0.0007811	6
	41	58	79.00281	15727.61	-36110.96	1	39387.3	-66.46516	1.964564E-010	-0.0007793	6
	42	59	63.3446	18260.51	-43021.59	1	46736.53	-67.00121	8.567497E-010	-0.0007821	6
	43	61	49.86702	21733.36	-53347.22	1	57604.38	-67.83429	7.03293E-010	-0.0007776	6
	44	62	39.72458	26016.5	-63960.91	1	69049.66	-67.86566	1.259418E-009	-0.0007767	6
	45	64	31.6723	31329.27	-76704.2	1	82855.64	-67.7828	3.666213E-010	-0.0007823	6
	46	65	24.93351	39301.97	-92546.76	1	100546.2	-66.99046	4.512402E-010	-0.0007792	6
	47	66	19.86229	49102.46	-109769.8	1	120251.7	-65.89998	9.889235E-010	-0.0007743	5
	48	68	15.83615	61020.99	-128635.6	1	142375.2	-64.6217	5.559745E-010	-0.0007811	5
	49	69	12.40079	77862.45	-153493	1	172112.4	-63.10267	-1.706764E-011	-0.0007719	5
	50	71	9.93114	96016.3	-176448.7	1	200881.3	-61.44675	1.220674E-009	-0.0007784	5
	51	72	7.944915	118480.4	-201430.2	1	233691.5	-59.53613	1.204957E-009	-0.0007746	5
	52	74	6.317385	144675.9	-230237.4	1	271919.8	-57.8557	-1.243796E-010	-0.0007707	5
	53	76	5.008013	175316.2	-260376	1	313897.2	-56.04684	6.244689E-011	-0.0007906	5
	54	78	3.945707	210308.2	-292902.4	1	360584.8	-54.32109	6.098753E-010	-0.0007796	5
	55	81	3.158693	245477.7	-325905	1	408011.5	-53.01226	5.887552E-011	-0.0007929	5
	56	84	2.504006	284725.8	-363880.4	1	462036.6	-51.95786	6.69256E-010	-0.0007733	5
	57	87	1.998082	325225.3	-405278.1	1	519636.2	-51.25385	6.124681E-010	-0.0007711	5
	58	90	1.584686	368487.4	-451768.5	1	582990.3	-50.79741	3.132044E-010	-0.0008153	5
	59	94	1.266892	412077.4	-508563.3	1	654556.6	-50.98292	4.799887E-010	-0.0007575	5
	60	98	0.999041	462435.3	-577925.8	1	740165.3	-51.33447	4.121997E-011	-0.0008049	5
