EXPLAIN
TAG	EISPOT
TITLE	LABEL	Potentiostatic EIS	Test &Identifier
DATE	LABEL	10/18/2019	Date
TIME	LABEL	9:51:42	Time
NOTES	NOTES	1	&Notes...
	
PSTAT	PSTAT	REF600-11020	Potentiostat
VDC	POTEN	0.00000E+000	T	DC &Voltage (V)
FREQINIT	QUANT	1.00000E+006	Initial Fre&q. (Hz)
FREQFINAL	QUANT	1.00000E+000	Final Fre&q. (Hz)
PTSPERDEC	QUANT	1.00000E+001	Points/&decade
VAC	QUANT	2.50000E+001	AC &Voltage (mV rms)
AREA	QUANT	1.00000E-002	&Area (cm^2)
CONDIT	TWOPARAM	T	5.00000E+000	0.00000E+000	Conditionin&g	Time(s)	E(V)
DELAY	TWOPARAM	T	5.00000E+000	0.00000E+000	Init. De&lay	Time(s)	Stab.(mV/s)
SPEED	SELECTOR	0	&Optimize for:
ZGUESS	QUANT	1.00000E+005	E&stimated Z (ohms)
OCVCURVE	TABLE	19
	Pt	T	Vf	Vm	Ach	Over
	#	s	V vs. Ref.	V	V	bits
	0	0.258333	7.75004E-003	7.75004E-003	5.66232E-004	...........
	1	0.516667	7.73160E-003	6.78504E-003	5.62466E-004	...........
	2	0.775	7.64363E-003	7.19078E-003	5.62432E-004	...........
	3	1.03333	7.46005E-003	6.61016E-003	5.69399E-004	...........
	4	1.29167	7.22676E-003	6.76685E-003	5.67899E-004	...........
	5	1.55	7.00303E-003	6.33277E-003	5.66866E-004	...........
	6	1.80833	6.79956E-003	5.98327E-003	5.66266E-004	...........
	7	2.06667	6.59403E-003	6.18338E-003	5.58132E-004	...........
	8	2.325	6.39367E-003	6.24956E-003	5.58366E-004	...........
	9	2.58333	6.25361E-003	6.39180E-003	5.54866E-004	...........
	10	2.84167	6.21620E-003	6.57851E-003	5.63899E-004	...........
	11	3.1	6.27390E-003	6.70072E-003	5.61666E-004	...........
	12	3.35833	6.38886E-003	6.66263E-003	5.60499E-004	...........
	13	3.61667	6.51112E-003	6.57525E-003	5.66166E-004	...........
	14	3.875	6.59586E-003	6.63625E-003	5.62899E-004	...........
	15	4.13333	6.62845E-003	6.54339E-003	5.64699E-004	...........
	16	4.39167	6.62403E-003	6.56741E-003	5.66432E-004	...........
	17	4.65	6.60417E-003	6.57649E-003	5.69199E-004	...........
	18	4.90833	6.58548E-003	6.61259E-003	5.62932E-004	...........
EOC	QUANT	0.0065855	Open Circuit (V)
PSTATMODEL	IQUANT	4	Pstat Model
PSTATSECTION	LABEL	REF600-11020	Pstat Section
PSTATSERIALNO	LABEL	11020	Pstat Serial Number
CTRLMODE	IQUANT	1	Control Mode
IESTAB	IQUANT	0	I/E Stability
CASPEED	IQUANT	1	Control Amp Speed
CONVENTION	IQUANT	1	Current Convention
ICHRANGE	IQUANT	2	Ich Range
ICHRANGEMODE	TOGGLE	F	Ich Auto Range
ICHOFFSETENABLE	TOGGLE	T	Ich Offset Enable
ICHOFFSET	QUANT	0	Ich Offset (V)
ICHFILTER	IQUANT	3	Ich Filter
VCHRANGE	IQUANT	2	Vch Range
VCHRANGEMODE	TOGGLE	F	Vch Auto Range
VCHOFFSETENABLE	TOGGLE	T	Vch Offset Enable
VCHOFFSET	QUANT	0	Vch Offset (V)
VCHFILTER	IQUANT	3	Vch Filter
ACHRANGE	IQUANT	2	Ach Range
ACHOFFSETENABLE	TOGGLE	F	Ach Offset Enable
ACHOFFSET	QUANT	0	Ach Offset (V)
ACHFILTER	IQUANT	3	Ach Filter
IERANGELOWERLIMIT	IQUANT	1	I/E Range Lower Limit
IERANGEMODE	TOGGLE	F	I/E AutoRange
IERANGE	IQUANT	5	I/E Range
POSFEEDENABLE	TOGGLE	F	Positive Feedback IR Comp
POSFEEDRESISTANCE	QUANT	0	Positive Feedback Resistance (ohm)
ACHSELECT	IQUANT	0	Ach Select
CABLEID	IQUANT	14	Cable ID
DCCALDATE	LABEL	8/19/2019	DC Calibration Date
ACCALDATE	LABEL	8/19/2019	AC Calibration Date
THERMOSELECT	IQUANT	1	Thermo Select
FRAMEWORKVERSION	QUANT	6.33	Framework Version
INSTRUMENTVERSION	LABEL	3.50	Instrument Version
ZCURVE	TABLE
	Pt	Time	Freq	Zreal	Zimag	Zsig	Zmod	Zphz	Idc	Vdc	IERange
	#	s	Hz	ohm	ohm	V	ohm	°	A	V	#
	0	2	1000078	2691.183	-1798.2	1	3236.664	-33.75014	5.676566E-006	0.0077549	8
	1	2	794390.6	3014.485	-1739.391	1	3480.317	-29.98542	1.487613E-006	0.0077935	8
	2	2	630984.4	3316.144	-1630.843	1	3695.464	-26.18745	4.11379E-006	0.0076448	8
	3	3	501234.4	3597.741	-1491.454	1	3894.634	-22.5166	1.562153E-007	0.0080318	8
	4	3	398109.4	3820.051	-1356.493	1	4053.747	-19.54986	-1.693762E-007	0.0083071	8
	5	3	316265.6	3994.356	-1239.918	1	4182.377	-17.24526	2.763446E-006	0.0075716	8
	6	4	251203.1	4156.281	-1117.622	1	4303.923	-15.05079	-7.28468E-007	0.0084095	8
	7	4	199546.9	4272.626	-1020.761	1	4392.868	-13.43652	-4.636853E-007	0.00816	8
	8	4	158578.1	4367.52	-924.7822	1	4464.354	-11.95527	-4.281717E-006	0.0091464	8
	9	5	125953.1	4529.52	-806.2729	1	4600.72	-10.09317	6.716823E-007	0.006229	7
	10	5	100078.1	4564.131	-780.7445	1	4630.427	-9.70711	3.805284E-008	0.0079759	7
	11	5	79453.13	4642.751	-774.144	1	4706.85	-9.466552	-3.830978E-009	0.0081361	7
	12	6	63140.62	4719.198	-781.3317	1	4783.441	-9.400868	-8.267924E-008	0.0082301	7
	13	6	50203.12	4796.683	-805.025	1	4863.767	-9.52714	1.020372E-008	0.0080165	7
	14	6	39890.62	4880.56	-845.3065	1	4953.222	-9.82607	-3.498212E-008	0.0081178	7
	15	6	31640.63	4969.867	-901.8176	1	5051.024	-10.28482	-1.404802E-008	0.0082357	7
	16	7	25171.88	5064.318	-975.254	1	5157.367	-10.90022	1.371726E-007	0.0078837	7
	17	7	20015.62	5169.646	-1065.622	1	5278.333	-11.64728	1.376477E-007	0.0078834	7
	18	7	15890.62	5286.787	-1170.661	1	5414.847	-12.48563	-1.482938E-008	0.0080653	7
	19	8	12609.37	5418.704	-1294.714	1	5571.232	-13.43798	6.336097E-008	0.00799	7
	20	8	10078.13	5557.687	-1444.422	1	5742.32	-14.56865	-8.231201E-008	0.0082239	7
	21	8	8015.625	5705.105	-1631.296	1	5933.747	-15.95715	-4.304518E-009	0.0081299	7
	22	9	6328.125	5901.255	-1829.761	1	6178.417	-17.22673	-4.24597E-008	0.0081185	7
	23	9	5015.625	6106.887	-2065.643	1	6446.778	-18.68801	-1.626429E-008	0.0080592	7
	24	10	3984.375	6358.604	-2344.161	1	6776.941	-20.2369	-4.318046E-008	0.0081179	7
	25	10	3170.956	6603.244	-2648.004	1	7114.405	-21.85155	4.423459E-008	0.0080448	7
	26	10	2527.573	6901.217	-2996.833	1	7523.816	-23.47275	-5.758179E-008	0.0082594	7
	27	11	1976.103	7264.889	-3411.215	1	8025.896	-25.15232	-4.301683E-008	0.0081121	7
	28	11	1577.524	7688.428	-3840.418	1	8594.227	-26.54242	-4.509163E-008	0.008113	7
	29	11	1265.625	8036.276	-4321.84	1	9124.693	-28.27098	-4.328125E-008	0.0081149	7
	30	12	998.264	8492.921	-4891.442	1	9800.81	-29.93951	3.215589E-009	0.0080555	6
	31	12	796.875	8939.691	-5529.432	1	10511.55	-31.73787	6.622171E-009	0.0078802	6
	32	12	627.7902	9415.105	-6323.917	1	11341.79	-33.88838	7.459517E-009	0.0080486	6
	33	12	505.5147	9849.03	-7210.493	1	12206.33	-36.20793	-1.074037E-008	0.008108	6
	34	13	397.9953	10326.23	-8413.93	1	13320.11	-39.17354	-5.193923E-010	0.008042	6
	35	13	315.5048	10791.63	-9889.86	1	14637.91	-42.50332	1.666737E-009	0.0080405	6
	36	13	252.4038	11262.11	-11671.85	1	16219.35	-46.02355	1.580015E-009	0.0080373	6
	37	14	198.6229	11810.14	-14082.78	1	18379.45	-50.01603	8.500309E-010	0.0080379	6
	38	14	158.3615	12407.02	-16937.5	1	20995.55	-53.77655	-4.698891E-011	0.0080317	6
	39	14	125.558	13146.64	-20610.86	1	24446.71	-57.46822	3.859078E-010	0.0080338	6
	40	15	100.4464	13994.44	-25042.37	1	28687.36	-60.8022	1.116959E-009	0.0080345	6
	41	15	79.00281	15137.05	-30716.01	1	34243.3	-63.76563	1.606792E-009	0.0080323	6
	42	15	63.3446	17312.19	-37654.88	1	41443.96	-65.30894	-3.155841E-010	0.008033	6
	43	16	49.86702	19065.82	-46507.37	1	50263.72	-67.70869	1.360016E-009	0.0080321	6
	44	16	39.72458	21253.25	-56266.09	1	60146.27	-69.30707	2.294045E-010	0.0080402	6
	45	16	31.6723	24366.09	-68151.8	1	72376.62	-70.32668	-4.654483E-010	0.0080329	6
	46	17	24.93351	28803.54	-84190.5	1	88981.37	-71.11298	7.991087E-011	0.0080295	6
	47	17	19.86229	34102.59	-102203	1	107742.4	-71.54742	-7.97352E-010	0.0080342	5
	48	17	15.83615	41370.08	-122880.2	1	129657.3	-71.39317	6.105504E-010	0.0080326	5
	49	18	12.40079	52094.45	-148932.3	1	157780.5	-70.72087	-1.995865E-009	0.0080391	5
	50	18	9.93114	62155.64	-181242.8	1	191604.5	-71.07104	3.809877E-010	0.0080426	5
	51	19	7.944915	75801.71	-215979.7	1	228895.4	-70.66061	7.429197E-010	0.0080298	5
	52	19	6.317385	94931.08	-258883	1	275739.5	-69.86227	3.570501E-010	0.0080213	5
	53	20	5.008013	118048.2	-309972.2	1	331689.8	-69.15143	2.186615E-010	0.0080391	5
	54	21	3.945707	148489.1	-370702.1	1	399335.8	-68.17085	-1.334281E-011	0.0080439	5
	55	22	3.158693	181675.3	-438655.6	1	474789	-67.50243	-6.45639E-011	0.0080283	5
	56	24	2.504006	225875	-519394	1	566383	-66.49666	4.697684E-011	0.0080241	5
	57	25	1.998082	278281.7	-610104.1	1	670572.7	-65.48124	1.186998E-010	0.008061	5
	58	27	1.584686	344755.5	-714518	1	793342.5	-64.24265	4.526447E-011	0.0080185	5
	59	29	1.266892	425760.3	-830566.1	1	933333.8	-62.85966	-8.215821E-011	0.0079974	5
	60	31	0.999041	528721.4	-970966	1	1105587	-61.43033	-4.394319E-012	0.0079846	4
