EXPLAIN
TAG	EISPOT
TITLE	LABEL	Potentiostatic IDE	Test &Identifier
DATE	LABEL	9/18/2019	Date
TIME	LABEL	9:34:52	Time
NOTES	NOTES	1	&Notes...
	
PSTAT	PSTAT	REF600-11020	Potentiostat
VDC	POTEN	0.00000E+000	T	DC &Voltage (V)
FREQINIT	QUANT	1.00000E+006	Initial Fre&q. (Hz)
FREQFINAL	QUANT	1.00000E+000	Final Fre&q. (Hz)
PTSPERDEC	QUANT	1.00000E+001	Points/&decade
VAC	QUANT	2.50000E+001	AC &Voltage (mV rms)
AREA	QUANT	1.00000E-002	&Area (cm^2)
CONDIT	TWOPARAM	T	5.00000E+000	0.00000E+000	Conditionin&g	Time(s)	E(V)
DELAY	TWOPARAM	T	5.00000E+000	0.00000E+000	Init. De&lay	Time(s)	Stab.(mV/s)
SPEED	SELECTOR	1	&Optimize for:
ZGUESS	QUANT	1.00000E+007	E&stimated Z (ohms)
OCVCURVE	TABLE	19
	Pt	T	Vf	Vm	Ach	Over
	#	s	V vs. Ref.	V	V	bits
	0	0.258333	-3.67567E-002	-3.67567E-002	5.75265E-004	...........
	1	0.516667	-3.67007E-002	-3.38274E-002	5.77299E-004	...........
	2	0.775	-3.64223E-002	-3.44632E-002	5.77066E-004	...........
	3	1.03333	-3.56654E-002	-2.53443E-002	5.78299E-004	...........
	4	1.29167	-3.43038E-002	-3.66901E-002	5.70066E-004	...........
	5	1.55	-3.31941E-002	-4.99417E-002	5.75132E-004	...........
	6	1.80833	-3.43724E-002	-5.57713E-002	5.75732E-004	...........
	7	2.06667	-3.89161E-002	-5.47675E-002	5.75999E-004	...........
	8	2.325	-4.49821E-002	-4.23899E-002	5.75966E-004	...........
	9	2.58333	-4.87956E-002	-2.55508E-002	5.76499E-004	...........
	10	2.84167	-4.76895E-002	-3.61115E-002	5.73399E-004	...........
	11	3.1	-4.28172E-002	-3.87760E-002	5.73999E-004	...........
	12	3.35833	-3.82615E-002	-4.38876E-002	5.74865E-004	...........
	13	3.61667	-3.67617E-002	-3.59008E-002	5.72166E-004	...........
	14	3.875	-3.74303E-002	-3.27122E-002	5.78099E-004	...........
	15	4.13333	-3.78657E-002	-3.67401E-002	5.79099E-004	...........
	16	4.39167	-3.74329E-002	-4.83103E-002	5.74832E-004	...........
	17	4.65	-3.75368E-002	-3.79961E-002	5.74165E-004	...........
	18	4.90833	-3.87926E-002	-3.80598E-002	5.71699E-004	...........
EOC	QUANT	-0.0387926	Open Circuit (V)
PSTATMODEL	IQUANT	4	Pstat Model
PSTATSECTION	LABEL	REF600-11020	Pstat Section
PSTATSERIALNO	LABEL	11020	Pstat Serial Number
CTRLMODE	IQUANT	1	Control Mode
IESTAB	IQUANT	0	I/E Stability
CASPEED	IQUANT	1	Control Amp Speed
CONVENTION	IQUANT	1	Current Convention
ICHRANGE	IQUANT	2	Ich Range
ICHRANGEMODE	TOGGLE	F	Ich Auto Range
ICHOFFSETENABLE	TOGGLE	T	Ich Offset Enable
ICHOFFSET	QUANT	0	Ich Offset (V)
ICHFILTER	IQUANT	3	Ich Filter
VCHRANGE	IQUANT	2	Vch Range
VCHRANGEMODE	TOGGLE	F	Vch Auto Range
VCHOFFSETENABLE	TOGGLE	T	Vch Offset Enable
VCHOFFSET	QUANT	0	Vch Offset (V)
VCHFILTER	IQUANT	3	Vch Filter
ACHRANGE	IQUANT	2	Ach Range
ACHOFFSETENABLE	TOGGLE	F	Ach Offset Enable
ACHOFFSET	QUANT	0	Ach Offset (V)
ACHFILTER	IQUANT	3	Ach Filter
IERANGELOWERLIMIT	IQUANT	1	I/E Range Lower Limit
IERANGEMODE	TOGGLE	F	I/E AutoRange
IERANGE	IQUANT	3	I/E Range
POSFEEDENABLE	TOGGLE	F	Positive Feedback IR Comp
POSFEEDRESISTANCE	QUANT	0	Positive Feedback Resistance (ohm)
ACHSELECT	IQUANT	0	Ach Select
CABLEID	IQUANT	14	Cable ID
DCCALDATE	LABEL	8/19/2019	DC Calibration Date
ACCALDATE	LABEL	8/19/2019	AC Calibration Date
THERMOSELECT	IQUANT	1	Thermo Select
FRAMEWORKVERSION	QUANT	6.33	Framework Version
INSTRUMENTVERSION	LABEL	3.50	Instrument Version
ZCURVE	TABLE
	Pt	Time	Freq	Zreal	Zimag	Zsig	Zmod	Zphz	Idc	Vdc	IERange
	#	s	Hz	ohm	ohm	V	ohm	°	A	V	#
	0	2	1000078	728.5165	-7649.087	1	7683.702	-84.55943	-1.203271E-006	-0.0361402	8
	1	4	794390.6	904.5112	-9244.474	1	9288.618	-84.41177	-1.290707E-006	-0.0364703	8
	2	5	630984.4	1157.849	-11757.78	1	11814.65	-84.37592	-1.689688E-006	-0.0366937	8
	3	7	501234.4	1680.52	-16121.44	1	16208.8	-84.04891	-4.637008E-007	-0.0367655	8
	4	8	398109.4	1276.308	-18087.88	1	18132.86	-85.96381	-8.026751E-007	-0.0370396	8
	5	10	316265.6	1721.244	-22654.55	1	22719.84	-85.65514	1.077628E-006	-0.0373723	8
	6	12	251203.1	1852.273	-28045.8	1	28106.9	-86.22141	6.428959E-007	-0.0372739	8
	7	13	199546.9	2150.947	-34229.37	1	34296.89	-86.4043	-9.078057E-007	-0.0369289	8
	8	15	158578.1	2579.576	-39329.96	1	39414.46	-86.24745	-2.155349E-006	-0.0367179	8
	9	16	125953.1	3921.878	-53915.28	1	54057.73	-85.83955	-1.503296E-006	-0.0344992	7
	10	18	100078.1	4735.24	-67090.03	1	67256.93	-85.96274	-7.285298E-008	-0.037125	7
	11	19	79453.13	5519.549	-83584.84	1	83766.88	-86.22194	8.333026E-008	-0.0373726	7
	12	21	63140.62	6908.258	-102812.2	1	103044	-86.15591	-7.231314E-008	-0.0371466	7
	13	23	50203.12	8247.838	-131541.2	1	131799.5	-86.41216	7.731062E-008	-0.0373326	7
	14	24	39890.62	5980.792	-159639.3	1	159751.3	-87.85445	-7.41127E-008	-0.0369811	7
	15	26	31640.63	12852.07	-207718.1	1	208115.3	-86.45947	-4.202096E-008	-0.0371352	7
	16	28	25171.88	17028.71	-258738.6	1	259298.4	-86.23455	6.5658E-008	-0.0373061	7
	17	29	20015.62	19862.48	-321696.9	1	322309.5	-86.46688	1.112387E-009	-0.0371631	7
	18	31	15890.62	16559.08	-397585.4	1	397930.1	-87.61506	1.301065E-008	-0.0371083	7
	19	32	12609.37	41945.39	-501438.8	1	503190.1	-85.21834	-6.549917E-009	-0.0372396	6
	20	34	10078.13	49812.01	-619276.8	1	621276.9	-85.40127	4.05069E-010	-0.0371537	6
	21	35	8015.625	61617.71	-771180.3	1	773638	-85.43174	5.022446E-009	-0.0372136	6
	22	37	6328.125	81429.5	-981813	1	985184	-85.25886	4.866238E-009	-0.0372142	6
	23	39	5015.625	127735.8	-1229353	1	1235971	-84.06797	-5.799736E-009	-0.0372435	6
	24	40	3984.375	138903.7	-1553764	1	1559960	-84.89144	3.077127E-011	-0.0371596	6
	25	42	3170.956	215559.2	-1906719	1	1918865	-83.54996	-5.971156E-009	-0.0370949	6
	26	44	2527.573	303277.9	-2355261	1	2374707	-82.66262	2.123038E-009	-0.0374531	6
	27	45	1976.103	389165.9	-3014653	1	3039668	-82.64429	5.615536E-009	-0.0372404	6
	28	47	1577.524	492886.3	-3789331	1	3821252	-82.58903	-7.038409E-009	-0.0372073	6
	29	49	1265.625	838509.8	-4333944	1	4414315	-79.05	5.987347E-010	-0.0372637	5
	30	50	998.264	1313572	-5536405	1	5690101	-76.65275	5.073235E-010	-0.0372516	5
	31	51	796.875	2024521	-6776194	1	7072163	-73.36545	9.726572E-010	-0.0371961	5
	32	53	627.7902	2580522	-8347137	1	8736922	-72.82098	-2.857929E-010	-0.037177	5
	33	54	505.5147	3478874	-9.724671E+006	1	1.03282E+007	-70.31599	9.11544E-010	-0.0375226	5
	34	56	397.9953	4777359	-1.162485E+007	1	1.256822E+007	-67.65925	4.285984E-010	-0.0372551	5
	35	57	315.5048	7211089	-1.335396E+007	1	1.517656E+007	-61.63111	5.99328E-010	-0.0372562	5
	36	58	252.4038	1.050478E+007	-1.385837E+007	1	1.738979E+007	-52.83751	5.047214E-010	-0.0372539	5
	37	60	198.6229	1.467415E+007	-1.699164E+007	1	2.245098E+007	-49.18577	6.189854E-010	-0.0372607	5
	38	61	158.3615	1.51227E+007	-1.467928E+007	1	2.107551E+007	-44.14757	-2.409728E-010	-0.0372566	5
	39	63	125.558	2.213392E+007	-2.11851E+007	1	3.063852E+007	-43.74525	4.309011E-010	-0.0372662	4
	40	64	100.4464	2.567091E+007	-1.735531E+007	1	3.098713E+007	-34.06142	2.113899E-010	-0.0372612	4
	41	66	79.00281	1.953184E+007	-3619817	1	1.986444E+007	-10.49945	3.049527E-010	-0.0372587	4
	42	68	63.3446	3578031	-5691965	1	6723152	-57.84608	-8.071528E-011	-0.0372587	4
	43	70	49.86702	5.452586E+007	-2.795639E+007	1	6.127503E+007	-27.14503	1.570112E-010	-0.0372652	5
	44	71	39.72458	2.339707E+007	-1.389318E+007	1	2.721109E+007	-30.70185	2.009347E-010	-0.0372623	5
	45	73	31.6723	1.872104E+007	-1.232718E+007	1	2.24151E+007	-33.36357	-1.689506E-010	-0.0372607	4
	46	75	24.93351	3.61692E+007	-9351111	1	3.735845E+007	-14.49572	1.239645E-010	-0.0372624	4
	47	76	19.86229	3.057489E+007	-67515.36	1	3.057496E+007	-0.1265201	1.738773E-010	-0.037272	4
	48	78	15.83615	1.364267E+007	-3178989	1	1.400815E+007	-13.11689	-6.073245E-010	-0.0372568	4
	49	79	12.40079	1.505498E+007	1.63791E+007	1	2.224696E+007	47.41208	7.021475E-010	-0.0372586	4
	50	81	9.93114	2.93904E+007	-886685.5	1	2.940377E+007	-1.728045	3.48368E-011	-0.0372548	4
	51	83	7.944915	3.310542E+007	-9026216	1	3.431387E+007	-15.25103	-2.703398E-010	-0.0372647	4
	52	85	6.317385	3.579122E+007	-965476	1	3.580424E+007	-1.545191	1.606768E-011	-0.0372679	4
	53	87	5.008013	3.649512E+007	-1783191	1	3.653866E+007	-2.797308	5.163678E-011	-0.0372711	4
	54	90	3.945707	3.215772E+007	-4893640	1	3.252794E+007	-8.65267	-1.014574E-009	-0.0372578	4
	55	93	3.158693	3.61002E+007	-1251362	1	3.612188E+007	-1.985281	1.726679E-010	-0.0372621	4
	56	97	2.504006	6.141777E+007	-2344470	1	6.14625E+007	-2.186062	8.339571E-011	-0.0372719	3
	57	101	1.998082	3.57724E+007	-1559588	1	3.580638E+007	-2.496374	9.877819E-011	-0.0373011	4
	58	106	1.584686	6.210388E+007	-2882896	1	6.217076E+007	-2.657793	6.951939E-011	-0.0373157	3
	59	111	1.266892	3.619149E+007	-1699600	1	3.623138E+007	-2.688709	1.044619E-010	-0.0373053	4
	60	117	0.999041	6.240164E+007	-3407810	1	6.249462E+007	-3.125869	6.757423E-011	-0.0372514	3
