EXPLAIN
TAG	EISPOT
TITLE	LABEL	Potentiostatic EIS	Test &Identifier
DATE	LABEL	8/14/2018	Date
TIME	LABEL	5:05:28	Time
NOTES	NOTES	1	&Notes...
	
PSTAT	PSTAT	REF600-11020	Potentiostat
VDC	POTEN	0.00000E+000	T	DC &Voltage (V)
FREQINIT	QUANT	1.00000E+006	Initial Fre&q. (Hz)
FREQFINAL	QUANT	1.00000E+000	Final Fre&q. (Hz)
PTSPERDEC	QUANT	1.00000E+001	Points/&decade
VAC	QUANT	2.50000E+001	AC &Voltage (mV rms)
AREA	QUANT	1.00000E-002	&Area (cm^2)
CONDIT	TWOPARAM	T	5.00000E+000	0.00000E+000	Conditionin&g	Time(s)	E(V)
DELAY	TWOPARAM	T	5.00000E+000	0.00000E+000	Init. De&lay	Time(s)	Stab.(mV/s)
SPEED	SELECTOR	0	&Optimize for:
ZGUESS	QUANT	1.00000E+005	E&stimated Z (ohms)
OCVCURVE	TABLE	19
	Pt	T	Vf	Vm	Ach	Over
	#	s	V vs. Ref.	V	V	bits
	0	0.258333	6.11244E-003	6.11244E-003	5.69732E-004	...........
	1	0.516667	6.11221E-003	6.10079E-003	5.61732E-004	...........
	2	0.775	6.11119E-003	6.10784E-003	5.72299E-004	...........
	3	1.03333	6.10961E-003	6.12275E-003	5.72299E-004	...........
	4	1.29167	6.10983E-003	6.14465E-003	5.72199E-004	...........
	5	1.55	6.11515E-003	6.17122E-003	5.69032E-004	...........
	6	1.80833	6.12754E-003	6.20429E-003	5.68232E-004	...........
	7	2.06667	6.14710E-003	6.23854E-003	5.72132E-004	...........
	8	2.325	6.17281E-003	6.27457E-003	5.73332E-004	...........
	9	2.58333	6.20315E-003	6.30948E-003	5.69999E-004	...........
	10	2.84167	6.23650E-003	6.34768E-003	5.73366E-004	...........
	11	3.1	6.27175E-003	6.39179E-003	5.75999E-004	...........
	12	3.35833	6.30864E-003	6.43029E-003	5.73266E-004	...........
	13	3.61667	6.34722E-003	6.47152E-003	5.68232E-004	...........
	14	3.875	6.38714E-003	6.51580E-003	5.67499E-004	...........
	15	4.13333	6.42804E-003	6.55995E-003	5.65299E-004	...........
	16	4.39167	6.46984E-003	6.59928E-003	5.65766E-004	...........
	17	4.65	6.51226E-003	6.64251E-003	5.67166E-004	...........
	18	4.90833	6.55466E-003	6.68076E-003	5.69032E-004	...........
EOC	QUANT	0.0065547	Open Circuit (V)
PSTATMODEL	IQUANT	4	Pstat Model
PSTATSECTION	LABEL	REF600-11020	Pstat Section
PSTATSERIALNO	LABEL	11020	Pstat Serial Number
CTRLMODE	IQUANT	1	Control Mode
IESTAB	IQUANT	0	I/E Stability
CASPEED	IQUANT	1	Control Amp Speed
CONVENTION	IQUANT	1	Current Convention
ICHRANGE	IQUANT	2	Ich Range
ICHRANGEMODE	TOGGLE	F	Ich Auto Range
ICHOFFSETENABLE	TOGGLE	T	Ich Offset Enable
ICHOFFSET	QUANT	0	Ich Offset (V)
ICHFILTER	IQUANT	3	Ich Filter
VCHRANGE	IQUANT	2	Vch Range
VCHRANGEMODE	TOGGLE	F	Vch Auto Range
VCHOFFSETENABLE	TOGGLE	T	Vch Offset Enable
VCHOFFSET	QUANT	0	Vch Offset (V)
VCHFILTER	IQUANT	3	Vch Filter
ACHRANGE	IQUANT	2	Ach Range
ACHOFFSETENABLE	TOGGLE	F	Ach Offset Enable
ACHOFFSET	QUANT	0	Ach Offset (V)
ACHFILTER	IQUANT	3	Ach Filter
IERANGELOWERLIMIT	IQUANT	1	I/E Range Lower Limit
IERANGEMODE	TOGGLE	F	I/E AutoRange
IERANGE	IQUANT	5	I/E Range
POSFEEDENABLE	TOGGLE	F	Positive Feedback IR Comp
POSFEEDRESISTANCE	QUANT	0	Positive Feedback Resistance (ohm)
ACHSELECT	IQUANT	0	Ach Select
CABLEID	IQUANT	14	Cable ID
DCCALDATE	LABEL	8/19/2019	DC Calibration Date
ACCALDATE	LABEL	8/19/2019	AC Calibration Date
THERMOSELECT	IQUANT	1	Thermo Select
FRAMEWORKVERSION	QUANT	6.33	Framework Version
INSTRUMENTVERSION	LABEL	3.50	Instrument Version
ZCURVE	TABLE
	Pt	Time	Freq	Zreal	Zimag	Zsig	Zmod	Zphz	Idc	Vdc	IERange
	#	s	Hz	ohm	ohm	V	ohm	°	A	V	#
	0	1	1000078	2138.115	-936.9323	1	2334.39	-23.66327	-2.576462E-006	0.0091074	8
	1	2	794390.6	2265.071	-841.5823	1	2416.362	-20.38244	-1.367903E-007	0.0087384	8
	2	2	630984.4	2386.997	-733.0939	1	2497.035	-17.07275	2.254283E-006	0.0078645	8
	3	2	501234.4	2472.171	-636.704	1	2552.845	-14.44258	-2.355425E-006	0.0084647	8
	4	3	398109.4	2543.599	-530.7599	1	2598.385	-11.7865	-8.867722E-007	0.0083185	8
	5	3	316265.6	2593.808	-462.5991	1	2634.736	-10.11224	3.821227E-006	0.0074028	8
	6	3	251203.1	2634.658	-395.4828	1	2664.176	-8.536807	1.572333E-006	0.0076714	8
	7	4	199546.9	2657.059	-343.1045	1	2679.12	-7.357856	-1.83137E-006	0.0083228	8
	8	4	158578.1	2695.747	-299.7229	1	2712.358	-6.344295	-6.094592E-007	0.0082732	8
	9	4	125953.1	2726.918	-235.028	1	2737.028	-4.926043	-3.871634E-007	0.0088699	7
	10	4	100078.1	2740.033	-215.9053	1	2748.526	-4.505404	-1.227508E-009	0.0080015	7
	11	5	79453.13	2756.934	-213.3214	1	2765.175	-4.42452	5.777409E-008	0.0080471	7
	12	5	63140.62	2774.718	-215.5983	1	2783.082	-4.44301	8.995677E-009	0.0079931	7
	13	5	50203.12	2793.339	-221.1342	1	2802.078	-4.526371	5.39003E-008	0.008049	7
	14	6	39890.62	2813.404	-231.3446	1	2822.9	-4.700822	3.914985E-008	0.0079238	7
	15	6	31640.63	2834.521	-247.171	1	2845.277	-4.983602	-3.519308E-008	0.0080784	7
	16	6	25171.88	2856.778	-267.6438	1	2869.288	-5.352264	-1.979877E-008	0.0081001	7
	17	7	20015.62	2879.65	-295.0478	1	2894.726	-5.850088	-5.262986E-008	0.0081536	7
	18	7	15890.62	2903.478	-329.3007	1	2922.093	-6.470604	-4.341299E-008	0.0080845	7
	19	7	12609.37	2927.313	-372.8286	1	2950.959	-7.258233	-1.241028E-008	0.0080963	7
	20	8	10078.13	2953.986	-422.8064	1	2984.091	-8.145469	-5.123899E-008	0.0081153	7
	21	8	8015.625	2981.613	-490.5946	1	3021.705	-9.343726	3.999373E-008	0.0079173	7
	22	8	6328.125	3012.612	-578.0335	1	3067.565	-10.86141	-1.253219E-008	0.0080961	7
	23	9	5015.625	3046.524	-684.0103	1	3122.368	-12.65429	-4.996229E-008	0.0081154	7
	24	9	3984.375	3082.856	-813.9376	1	3188.495	-14.78978	-5.659912E-008	0.0081259	7
	25	9	3170.956	3125.569	-972.422	1	3273.344	-17.28187	4.086572E-008	0.0079082	7
	26	10	2527.573	3173.791	-1167.284	1	3381.642	-20.19295	2.732892E-011	0.0079784	7
	27	10	1976.103	3233.423	-1425.463	1	3533.691	-23.7904	-9.952141E-009	0.0081575	7
	28	10	1577.524	3302.42	-1726.463	1	3726.48	-27.59999	-3.519621E-008	0.0080645	7
	29	10	1265.625	3373.773	-2073.921	1	3960.239	-31.57982	-3.63479E-008	0.0081635	7
	30	11	998.264	3464.8	-2538.33	1	4295.108	-36.2267	-3.608556E-008	0.0080536	7
	31	11	796.875	3569.837	-3081.442	1	4715.827	-40.80037	6.981496E-008	0.0078889	7
	32	11	627.7902	3703.446	-3792.673	1	5300.932	-45.68196	6.99254E-008	0.0078924	7
	33	12	505.5147	3850.453	-4588.353	1	5989.906	-49.9973	2.510576E-008	0.0080178	7
	34	12	397.9953	4048.442	-5672.026	1	6968.627	-54.48243	1.918377E-009	0.0080632	7
	35	12	315.5048	4292.509	-6972.315	1	8187.723	-58.38145	1.199804E-009	0.0080628	7
	36	13	252.4038	4590.274	-8509.761	1	9668.85	-61.65701	6.152477E-010	0.0080591	7
	37	13	198.6229	5007.524	-10538.04	1	11667.29	-64.58362	-4.019701E-012	0.008004	6
	38	13	158.3615	5513.762	-12899.83	1	14028.8	-66.85673	4.680462E-010	0.0079974	6
	39	14	125.558	6203.781	-15851.53	1	17022.28	-68.62621	3.671825E-010	0.0079993	6
	40	14	100.4464	7103.855	-19301.4	1	20567.17	-69.79392	-1.916521E-010	0.0079981	6
	41	14	79.00281	8373.271	-23862.85	1	25289.27	-70.66447	6.621569E-010	0.007991	6
	42	15	63.3446	9585.76	-28716.35	1	30274.01	-71.54055	-2.152618E-010	0.0079925	6
	43	15	49.86702	11862.9	-35184.55	1	37130.6	-71.36784	-1.032083E-009	0.0079921	6
	44	15	39.72458	14749.84	-42705.86	1	45181.28	-70.946	5.340529E-011	0.0079954	6
	45	16	31.6723	18212.53	-51508.11	1	54633.16	-70.52713	-7.364001E-010	0.0079929	6
	46	16	24.93351	23235.81	-62106.74	1	66311.01	-69.48782	-5.024861E-010	0.0079903	6
	47	16	19.86229	29053.47	-73807.03	1	79319.49	-68.51337	-1.457471E-009	0.0079931	6
	48	17	15.83615	35333.48	-87180.73	1	94068.77	-67.93777	-1.05031E-009	0.0079914	6
	49	17	12.40079	46168.73	-104632.1	1	114365.3	-66.19061	2.570864E-010	0.0080022	5
	50	17	9.93114	56220.85	-121073.1	1	133489.7	-65.092	5.620517E-010	0.0080041	5
	51	18	7.944915	68624.91	-140083.2	1	155989.4	-63.90038	1.194217E-009	0.008	5
	52	19	6.317385	83865.84	-162718.2	1	183059.2	-62.73317	6.528191E-010	0.0079878	5
	53	19	5.008013	101622.2	-188927.3	1	214524.1	-61.72461	3.040381E-010	0.0080042	5
	54	20	3.945707	122162.3	-219250.2	1	250986.6	-60.87421	-9.291338E-011	0.0080057	5
	55	22	3.158693	144072.4	-251879.5	1	290172.6	-60.2309	-3.052376E-010	0.0079865	5
	56	23	2.504006	170291.9	-290642.7	1	336856.7	-59.63332	2.449146E-011	0.0079887	5
	57	25	1.998082	198139.8	-334207.3	1	388527.9	-59.33778	-1.444581E-011	0.0080061	5
	58	26	1.584686	232120.8	-385605.7	1	450079.8	-58.95357	-2.004115E-010	0.00796	5
	59	28	1.266892	268893.7	-445014.8	1	519944.3	-58.85815	-2.211617E-010	0.007954	5
	60	31	0.999041	312084	-518202.8	1	604922	-58.94184	-2.360587E-010	0.0079671	5
