EXPLAIN
TAG	EISPOT
TITLE	LABEL	Potentiostatic EIS	Test &Identifier
DATE	LABEL	11/20/2019	Date
TIME	LABEL	10:23:42	Time
NOTES	NOTES	4	&Notes...
	
	
	
	
PSTAT	PSTAT	REF600-11020	Potentiostat
VDC	POTEN	0.00000E+000	T	DC &Voltage (V)
FREQINIT	QUANT	1.00000E+006	Initial Fre&q. (Hz)
FREQFINAL	QUANT	1.00000E+000	Final Fre&q. (Hz)
PTSPERDEC	QUANT	1.00000E+001	Points/&decade
VAC	QUANT	2.50000E+001	AC &Voltage (mV rms)
AREA	QUANT	1.00000E-002	&Area (cm^2)
CONDIT	TWOPARAM	T	5.00000E+000	0.00000E+000	Conditionin&g	Time(s)	E(V)
DELAY	TWOPARAM	T	5.00000E+000	0.00000E+000	Init. De&lay	Time(s)	Stab.(mV/s)
SPEED	SELECTOR	0	&Optimize for:
ZGUESS	QUANT	1.00000E+005	E&stimated Z (ohms)
OCVCURVE	TABLE	19
	Pt	T	Vf	Vm	Ach	Over
	#	s	V vs. Ref.	V	V	bits
	0	0.258333	4.13200E-003	4.13200E-003	5.34533E-004	...........
	1	0.516667	4.12889E-003	3.96943E-003	5.36299E-004	...........
	2	0.775	4.10992E-003	3.82041E-003	5.34366E-004	...........
	3	1.03333	4.05699E-003	3.69966E-003	5.38066E-004	...........
	4	1.29167	3.96487E-003	3.58850E-003	5.35433E-004	...........
	5	1.55	3.84767E-003	3.49388E-003	5.30166E-004	...........
	6	1.80833	3.72530E-003	3.39985E-003	5.29666E-004	...........
	7	2.06667	3.61046E-003	3.32194E-003	5.29733E-004	...........
	8	2.325	3.50722E-003	3.24724E-003	5.24700E-004	...........
	9	2.58333	3.41513E-003	3.18122E-003	5.23000E-004	...........
	10	2.84167	3.33253E-003	3.11682E-003	5.29466E-004	...........
	11	3.1	3.25769E-003	3.06219E-003	5.33366E-004	...........
	12	3.35833	3.18927E-003	3.00619E-003	5.30233E-004	...........
	13	3.61667	3.12621E-003	2.95250E-003	5.30666E-004	...........
	14	3.875	3.06769E-003	2.91780E-003	5.31933E-004	...........
	15	4.13333	3.01359E-003	2.87057E-003	5.30900E-004	...........
	16	4.39167	2.96337E-003	2.79103E-003	5.19833E-004	...........
	17	4.65	2.91322E-003	2.71503E-003	5.22300E-004	...........
	18	4.90833	2.85794E-003	2.67333E-003	5.32566E-004	...........
EOC	QUANT	0.0028579	Open Circuit (V)
PSTATMODEL	IQUANT	4	Pstat Model
PSTATSECTION	LABEL	REF600-11020	Pstat Section
PSTATSERIALNO	LABEL	11020	Pstat Serial Number
CTRLMODE	IQUANT	1	Control Mode
IESTAB	IQUANT	0	I/E Stability
CASPEED	IQUANT	1	Control Amp Speed
CONVENTION	IQUANT	1	Current Convention
ICHRANGE	IQUANT	2	Ich Range
ICHRANGEMODE	TOGGLE	F	Ich Auto Range
ICHOFFSETENABLE	TOGGLE	T	Ich Offset Enable
ICHOFFSET	QUANT	0	Ich Offset (V)
ICHFILTER	IQUANT	3	Ich Filter
VCHRANGE	IQUANT	2	Vch Range
VCHRANGEMODE	TOGGLE	F	Vch Auto Range
VCHOFFSETENABLE	TOGGLE	T	Vch Offset Enable
VCHOFFSET	QUANT	0	Vch Offset (V)
VCHFILTER	IQUANT	3	Vch Filter
ACHRANGE	IQUANT	2	Ach Range
ACHOFFSETENABLE	TOGGLE	F	Ach Offset Enable
ACHOFFSET	QUANT	0	Ach Offset (V)
ACHFILTER	IQUANT	3	Ach Filter
IERANGELOWERLIMIT	IQUANT	1	I/E Range Lower Limit
IERANGEMODE	TOGGLE	F	I/E AutoRange
IERANGE	IQUANT	4	I/E Range
POSFEEDENABLE	TOGGLE	F	Positive Feedback IR Comp
POSFEEDRESISTANCE	QUANT	0	Positive Feedback Resistance (ohm)
ACHSELECT	IQUANT	0	Ach Select
CABLEID	IQUANT	14	Cable ID
DCCALDATE	LABEL	8/19/2019	DC Calibration Date
ACCALDATE	LABEL	8/19/2019	AC Calibration Date
THERMOSELECT	IQUANT	1	Thermo Select
FRAMEWORKVERSION	QUANT	6.33	Framework Version
INSTRUMENTVERSION	LABEL	3.50	Instrument Version
ZCURVE	TABLE
	Pt	Time	Freq	Zreal	Zimag	Zsig	Zmod	Zphz	Idc	Vdc	IERange
	#	s	Hz	ohm	ohm	V	ohm	°	A	V	#
	0	1	1000078	2180.931	-1726.92	1	2781.854	-38.37313	1.37718E-005	0.003909	8
	1	2	794390.6	2546.055	-1702.885	1	3063.04	-33.77591	-7.451102E-006	0.0048414	8
	2	2	630984.4	2872.929	-1609.494	1	3293.052	-29.25875	8.163451E-006	0.0032813	8
	3	2	501234.4	3169.83	-1488.812	1	3502.054	-25.1586	4.758213E-006	0.0036969	8
	4	3	398109.4	3420.479	-1335.068	1	3671.795	-21.3215	-6.107367E-006	0.0051898	8
	5	3	316265.6	3595.084	-1180.397	1	3783.909	-18.1769	1.031924E-006	0.004692	8
	6	3	251203.1	3746.631	-1015.954	1	3881.933	-15.17176	6.264278E-007	0.0046767	8
	7	4	199546.9	3868.365	-879.6908	1	3967.128	-12.81155	-2.319734E-006	0.0047861	8
	8	4	158578.1	3939.08	-765.8477	1	4012.839	-11.00235	6.253821E-006	0.0036489	8
	9	4	125953.1	4040.248	-616.5308	1	4087.018	-8.676248	1.060826E-006	0.0057106	7
	10	4	100078.1	4087.773	-541.5327	1	4123.487	-7.546386	4.573334E-007	0.0027448	7
	11	5	79453.13	4127.557	-489.4987	1	4156.481	-6.763279	-1.023717E-006	0.005807	7
	12	5	63140.62	4168.985	-454.518	1	4193.689	-6.222021	1.009951E-006	0.002934	7
	13	5	50203.12	4203.408	-428.1655	1	4225.159	-5.816174	7.730624E-007	0.004093	7
	14	6	39890.62	4237.445	-413.7759	1	4257.6	-5.577108	-1.024675E-006	0.0058021	7
	15	6	31640.63	4269.115	-407.9712	1	4288.564	-5.458804	-6.7754E-007	0.0041376	7
	16	6	25171.88	4302.584	-416.3007	1	4322.677	-5.526506	-1.024941E-006	0.0057959	7
	17	7	20015.62	4346.043	-431.4771	1	4367.41	-5.66977	7.740078E-007	0.0040819	7
	18	7	15890.62	4373.79	-462.228	1	4398.146	-6.032702	-1.135932E-006	0.0052942	7
	19	7	12609.37	4414.83	-501.6805	1	4443.243	-6.483014	-8.398184E-007	0.0058481	7
	20	8	10078.13	4458.063	-550.7391	1	4491.953	-7.04251	6.138102E-008	0.0051829	7
	21	8	8015.625	4499.898	-617.9436	1	4542.129	-7.819174	7.732561E-007	0.0040842	7
	22	8	6328.125	4543.96	-703.5779	1	4598.107	-8.801671	-8.399371E-007	0.0058462	7
	23	9	5015.625	4593.807	-808.5197	1	4664.415	-9.98195	-1.143227E-006	0.0056267	7
	24	9	3984.375	4648.262	-938.7259	1	4742.103	-11.41743	-1.142903E-006	0.0056252	7
	25	9	3170.956	4708.873	-1098.958	1	4835.41	-13.13657	1.146742E-007	0.002998	7
	26	10	2527.573	4771.896	-1297.142	1	4945.055	-15.20723	-1.135327E-006	0.0052837	7
	27	10	1976.103	4850.933	-1563.59	1	5096.701	-17.86556	-2.823424E-007	0.0034804	7
	28	10	1577.524	4918.484	-1881.497	1	5266.072	-20.93365	9.433293E-007	0.0036167	7
	29	11	1265.625	5036.43	-2217.834	1	5503.128	-23.7667	3.548022E-007	0.0047798	7
	30	11	998.264	5158.666	-2682.665	1	5814.509	-27.47582	-5.831705E-007	0.0057667	7
	31	11	796.875	5292.499	-3225.379	1	6197.872	-31.35916	7.73103E-007	0.0040776	7
	32	11	627.7902	5453.823	-3928.345	1	6721.315	-35.7649	1.024168E-006	0.0032271	7
	33	12	505.5147	5627.208	-4707.52	1	7336.635	-39.91463	9.152145E-007	0.0027103	7
	34	12	397.9953	5849.431	-5751.765	1	8203.575	-44.51766	2.004461E-009	0.0043052	7
	35	13	315.5048	6100.645	-7015.805	1	9297.278	-48.99117	3.269447E-009	0.0042989	7
	36	13	252.4038	6390.063	-8508.587	1	10640.91	-53.09296	1.325076E-010	0.0042447	6
	37	13	198.6229	6764.009	-10491.75	1	12483.13	-57.1902	7.144444E-010	0.0042418	6
	38	14	158.3615	7202.401	-12810.1	1	14696.03	-60.6534	4.318807E-010	0.0042295	6
	39	14	125.558	7763.572	-15738.38	1	17549.06	-63.74337	8.134172E-010	0.0042378	6
	40	14	100.4464	8457.188	-19210.53	1	20989.72	-66.23912	1.548156E-010	0.0042325	6
	41	14	79.00281	9396.724	-23788.98	1	25577.61	-68.44582	-5.239304E-010	0.0042416	6
	42	15	63.3446	10710.88	-28794.31	1	30721.9	-69.59585	5.782739E-010	0.0042334	6
	43	15	49.86702	12359.97	-35697.8	1	37777	-70.90215	8.365154E-010	0.0042307	6
	44	16	39.72458	14302.84	-43665.39	1	45948.21	-71.8635	-5.168546E-011	0.0042407	6
	45	16	31.6723	17023.35	-53307.63	1	55959.78	-72.28955	-9.145082E-011	0.0042354	6
	46	16	24.93351	21041.15	-65385.98	1	68688.12	-72.16187	-6.118029E-011	0.0042274	6
	47	17	19.86229	25985.98	-79212.98	1	83366.47	-71.83782	-8.985725E-010	0.0042274	6
	48	17	15.83615	31756.58	-95649.3	1	100783.3	-71.63329	-4.142915E-010	0.0042345	6
	49	17	12.40079	41628.59	-116254.6	1	123483.1	-70.29851	3.146927E-010	0.0042403	5
	50	17	9.93114	52922.03	-137867.3	1	147675.8	-69.00009	-5.794784E-010	0.0042363	5
	51	18	7.944915	66900.12	-162763.8	1	175976.3	-67.65607	2.07103E-010	0.0042273	5
	52	19	6.317385	84546.87	-191790.8	1	209599.3	-66.21075	2.575263E-010	0.0042361	5
	53	19	5.008013	106471.6	-224720.5	1	248667.5	-64.64861	-6.949617E-011	0.0042309	5
	54	20	3.945707	133402.2	-261741.1	1	293776.4	-62.99331	3.111289E-010	0.0042354	5
	55	22	3.158693	163210.6	-300624.1	1	342071	-61.5022	-2.107784E-011	0.0042503	5
	56	24	2.504006	198070.6	-345464	1	398217.7	-60.17234	-5.830655E-011	0.0042269	5
	57	25	1.998082	236810.6	-393194.2	1	458999.9	-58.94054	2.537028E-010	0.0042691	5
	58	26	1.584686	279694.3	-449426.9	1	529351.9	-58.10453	2.163422E-010	0.0042617	5
	59	28	1.266892	326155.4	-509090.5	1	604607.7	-57.35382	1.218861E-010	0.0042218	5
	60	31	0.999041	351212.2	-579771.8	1	677853.4	-58.7935	3.188583E-009	0.0041873	5
