EXPLAIN
TAG	EISPOT
TITLE	LABEL	Potentiostatic EIS	Test &Identifier
DATE	LABEL	11/22/2019	Date
TIME	LABEL	10:43:00	Time
NOTES	NOTES	4	&Notes...
	
	
	
	
PSTAT	PSTAT	REF600-11020	Potentiostat
VDC	POTEN	0.00000E+000	T	DC &Voltage (V)
FREQINIT	QUANT	1.00000E+006	Initial Fre&q. (Hz)
FREQFINAL	QUANT	1.00000E+000	Final Fre&q. (Hz)
PTSPERDEC	QUANT	1.00000E+001	Points/&decade
VAC	QUANT	2.50000E+001	AC &Voltage (mV rms)
AREA	QUANT	1.00000E-002	&Area (cm^2)
CONDIT	TWOPARAM	T	5.00000E+000	0.00000E+000	Conditionin&g	Time(s)	E(V)
DELAY	TWOPARAM	T	5.00000E+000	0.00000E+000	Init. De&lay	Time(s)	Stab.(mV/s)
SPEED	SELECTOR	0	&Optimize for:
ZGUESS	QUANT	1.00000E+005	E&stimated Z (ohms)
OCVCURVE	TABLE	19
	Pt	T	Vf	Vm	Ach	Over
	#	s	V vs. Ref.	V	V	bits
	0	0.258333	3.00151E-002	3.00151E-002	5.54866E-004	...........
	1	0.516667	3.00493E-002	3.18053E-002	5.58599E-004	...........
	2	0.775	3.02594E-002	3.35072E-002	5.58533E-004	...........
	3	1.03333	3.08537E-002	3.51231E-002	5.57432E-004	...........
	4	1.29167	3.19157E-002	3.66426E-002	5.57899E-004	...........
	5	1.55	3.33230E-002	3.80714E-002	5.56099E-004	...........
	6	1.80833	3.48732E-002	3.94208E-002	5.58632E-004	...........
	7	2.06667	3.64149E-002	4.06583E-002	5.54166E-004	...........
	8	2.325	3.78770E-002	4.18610E-002	5.57099E-004	...........
	9	2.58333	3.92450E-002	4.31086E-002	5.53699E-004	...........
	10	2.84167	4.05363E-002	4.42934E-002	5.50066E-004	...........
	11	3.1	4.17779E-002	4.54043E-002	5.53366E-004	...........
	12	3.35833	4.29848E-002	4.64872E-002	5.52099E-004	...........
	13	3.61667	4.41518E-002	4.73211E-002	5.54799E-004	...........
	14	3.875	4.52572E-002	4.81134E-002	5.51533E-004	...........
	15	4.13333	4.62770E-002	4.90363E-002	5.57699E-004	...........
	16	4.39167	4.72192E-002	5.01978E-002	5.56099E-004	...........
	17	4.65	4.81347E-002	5.10891E-002	5.57032E-004	...........
	18	4.90833	4.90715E-002	5.20002E-002	5.54433E-004	...........
EOC	QUANT	0.0490715	Open Circuit (V)
PSTATMODEL	IQUANT	4	Pstat Model
PSTATSECTION	LABEL	REF600-11020	Pstat Section
PSTATSERIALNO	LABEL	11020	Pstat Serial Number
CTRLMODE	IQUANT	1	Control Mode
IESTAB	IQUANT	0	I/E Stability
CASPEED	IQUANT	1	Control Amp Speed
CONVENTION	IQUANT	1	Current Convention
ICHRANGE	IQUANT	2	Ich Range
ICHRANGEMODE	TOGGLE	F	Ich Auto Range
ICHOFFSETENABLE	TOGGLE	T	Ich Offset Enable
ICHOFFSET	QUANT	0	Ich Offset (V)
ICHFILTER	IQUANT	3	Ich Filter
VCHRANGE	IQUANT	2	Vch Range
VCHRANGEMODE	TOGGLE	F	Vch Auto Range
VCHOFFSETENABLE	TOGGLE	T	Vch Offset Enable
VCHOFFSET	QUANT	0	Vch Offset (V)
VCHFILTER	IQUANT	3	Vch Filter
ACHRANGE	IQUANT	2	Ach Range
ACHOFFSETENABLE	TOGGLE	F	Ach Offset Enable
ACHOFFSET	QUANT	0	Ach Offset (V)
ACHFILTER	IQUANT	3	Ach Filter
IERANGELOWERLIMIT	IQUANT	1	I/E Range Lower Limit
IERANGEMODE	TOGGLE	F	I/E AutoRange
IERANGE	IQUANT	5	I/E Range
POSFEEDENABLE	TOGGLE	F	Positive Feedback IR Comp
POSFEEDRESISTANCE	QUANT	0	Positive Feedback Resistance (ohm)
ACHSELECT	IQUANT	0	Ach Select
CABLEID	IQUANT	14	Cable ID
DCCALDATE	LABEL	8/19/2019	DC Calibration Date
ACCALDATE	LABEL	8/19/2019	AC Calibration Date
THERMOSELECT	IQUANT	1	Thermo Select
FRAMEWORKVERSION	QUANT	6.33	Framework Version
INSTRUMENTVERSION	LABEL	3.50	Instrument Version
ZCURVE	TABLE
	Pt	Time	Freq	Zreal	Zimag	Zsig	Zmod	Zphz	Idc	Vdc	IERange
	#	s	Hz	ohm	ohm	V	ohm	°	A	V	#
	0	1	1000078	2342.625	-2271.415	1	3263.008	-44.1158	-1.229054E-006	0.0513033	8
	1	1	794390.6	2793.662	-2343.364	1	3646.354	-39.99041	5.689643E-006	0.0507196	8
	2	2	630984.4	3258.043	-2350.99	1	4017.71	-35.81405	-1.348576E-006	0.0503075	8
	3	2	501234.4	3712.24	-2313.325	1	4374.038	-31.92957	-2.5287E-006	0.0504848	8
	4	2	398109.4	4159.335	-2207.594	1	4708.879	-27.95742	-4.731134E-006	0.050958	8
	5	3	316265.6	4511.435	-2045.754	1	4953.6	-24.39238	-2.248387E-006	0.0504304	8
	6	3	251203.1	4855.159	-1905.416	1	5215.667	-21.42762	7.156626E-006	0.0497469	8
	7	3	199546.9	5097.084	-1761.434	1	5392.858	-19.06396	5.675914E-006	0.0498188	8
	8	4	158578.1	5379.996	-1556.901	1	5600.74	-16.13976	-3.729546E-006	0.0511034	8
	9	4	125953.1	5651.174	-1340.087	1	5807.892	-13.34038	3.239373E-006	0.0484403	7
	10	4	100078.1	5699.766	-1130.757	1	5810.847	-11.22102	-1.350776E-006	0.0521	7
	11	5	79453.13	5858.141	-1037.17	1	5949.247	-10.04004	6.649164E-007	0.0507484	7
	12	5	63140.62	5974.736	-944.2997	1	6048.898	-8.981238	1.215959E-006	0.0492511	7
	13	5	50203.12	6043.093	-882.4435	1	6107.183	-8.307905	4.130305E-007	0.0511106	7
	14	6	39890.62	6141.581	-836.782	1	6198.324	-7.758697	1.121113E-006	0.0497124	7
	15	6	31640.63	6199.036	-808.2613	1	6251.506	-7.428604	1.272275E-007	0.04898	7
	16	7	25171.88	6271.896	-810.7006	1	6324.074	-7.365173	6.433451E-008	0.0515695	7
	17	7	20015.62	6342.43	-829.6984	1	6396.469	-7.452947	-3.318835E-007	0.0519971	7
	18	8	15890.62	6407.72	-853.8467	1	6464.358	-7.590111	-8.053371E-007	0.0503126	7
	19	8	12609.37	6482.186	-906.1755	1	6545.218	-7.958076	-1.343468E-006	0.0516774	7
	20	8	10078.13	6613.711	-986.119	1	6686.824	-8.480454	1.12244E-006	0.0497048	7
	21	9	8015.625	6665.026	-1098.505	1	6754.946	-9.35914	6.659259E-007	0.0507357	7
	22	9	6328.125	6786.5	-1204.255	1	6892.519	-10.06232	5.403151E-007	0.0486362	7
	23	10	5015.625	6873.73	-1364.648	1	7007.884	-11.22898	7.174398E-008	0.0515646	7
	24	10	3984.375	6995.534	-1530.675	1	7161.038	-12.34223	5.349141E-007	0.0486327	7
	25	10	3170.956	7125.321	-1795.051	1	7347.953	-14.14004	1.217909E-006	0.0492297	7
	26	11	2527.573	7237.05	-2077.542	1	7529.347	-16.0172	6.638553E-007	0.0507299	7
	27	11	1976.103	7386.89	-2452.788	1	7783.464	-18.36855	6.678366E-007	0.0507317	7
	28	11	1577.524	7614.615	-2849.61	1	8130.353	-20.51731	-3.332978E-007	0.0519886	7
	29	12	1265.625	7727.633	-3413.433	1	8447.949	-23.8319	1.218049E-006	0.0492319	7
	30	12	998.264	7936.64	-4085.572	1	8926.485	-27.23821	1.216611E-006	0.0492321	7
	31	12	796.875	8141.998	-4869.851	1	9487.232	-30.88428	6.657992E-007	0.0507357	7
	32	13	627.7902	8437.534	-5898.839	1	10295.06	-34.95812	1.086362E-006	0.0486119	7
	33	13	505.5147	8704.104	-6984.629	1	11160.04	-38.74539	-6.907706E-007	0.0522535	7
	34	13	397.9953	9105.058	-8497.86	1	12454.55	-43.02441	-4.551682E-010	0.0504532	6
	35	14	315.5048	9543.13	-10294.2	1	14037.16	-47.16826	-1.465682E-009	0.050459	6
	36	14	252.4038	10040.76	-12407	1	15960.91	-51.01738	-1.091613E-009	0.0504534	6
	37	14	198.6229	10676.89	-15192.51	1	18569.02	-54.90149	-6.775064E-010	0.0504521	6
	38	15	158.3615	11403.71	-18432.94	1	21675.28	-58.2566	-7.591417E-010	0.0504426	6
	39	15	125.558	12331.44	-22513.9	1	25669.83	-61.28934	-1.4586E-009	0.0504467	6
	40	15	100.4464	13408.53	-27288.36	1	30404.65	-63.83214	-9.752721E-010	0.0504514	6
	41	16	79.00281	14899.9	-33591.25	1	36747.5	-66.0796	-1.450888E-009	0.0504509	6
	42	16	63.3446	17224.03	-41019.38	1	44488.84	-67.22247	-1.639817E-009	0.0504494	6
	43	16	49.86702	19609.16	-50388.08	1	54069.2	-68.73588	-1.34892E-009	0.0504288	6
	44	17	39.72458	22635.76	-60966.8	1	65033.28	-69.63104	-1.470812E-009	0.0504492	6
	45	17	31.6723	26626.37	-73792.32	1	78449.16	-70.15912	-1.368532E-009	0.0504497	6
	46	17	24.93351	32535.36	-90506.24	1	96176.6	-70.2274	-1.574925E-009	0.0504385	6
	47	18	19.86229	39680.7	-109148	1	116137.2	-70.02129	-1.345655E-009	0.0504452	5
	48	18	15.83615	49632.09	-131617.3	1	140664.4	-69.33884	-2.274678E-009	0.0504526	5
	49	18	12.40079	63707.75	-160192.4	1	172395.7	-68.31252	-8.909021E-010	0.0504432	5
	50	19	9.93114	78592.97	-188831	1	204533.6	-67.40253	-1.542795E-009	0.0504485	5
	51	19	7.944915	98231.3	-222467.8	1	243189.9	-66.176	-1.546822E-009	0.0504454	5
	52	20	6.317385	124264.1	-260837.7	1	288925.4	-64.52669	-1.775943E-009	0.0504674	5
	53	21	5.008013	156717.3	-305558.9	1	343404.3	-62.84729	-1.65258E-009	0.0504323	5
	54	22	3.945707	198184.2	-354084	1	405773.9	-60.76384	-1.165162E-009	0.0504416	5
	55	23	3.158693	244200.2	-402822.1	1	471061.9	-58.77477	-1.114098E-009	0.0504542	5
	56	25	2.504006	300375.9	-456816.4	1	546723.8	-56.67341	-1.312748E-009	0.0504543	5
	57	26	1.998082	360077.4	-510683.9	1	624863.1	-54.81277	-1.172497E-009	0.0504497	5
	58	28	1.584686	430576.1	-568134.6	1	712862.3	-52.84235	-9.994701E-010	0.050492	5
	59	30	1.266892	502878.7	-629282.8	1	805533.2	-51.3706	-9.18764E-010	0.0504817	5
	60	32	0.999041	583797.7	-698842.3	1	910604.4	-50.12535	-8.446108E-010	0.0504652	5
