EXPLAIN
TAG	EISPOT
TITLE	LABEL	Potentiostatic EIS	Test &Identifier
DATE	LABEL	9/24/2019	Date
TIME	LABEL	9:51:13	Time
NOTES	NOTES	1	&Notes...
	
PSTAT	PSTAT	REF600-11020	Potentiostat
VDC	POTEN	0.00000E+000	T	DC &Voltage (V)
FREQINIT	QUANT	1.00000E+006	Initial Fre&q. (Hz)
FREQFINAL	QUANT	1.00000E+000	Final Fre&q. (Hz)
PTSPERDEC	QUANT	1.00000E+001	Points/&decade
VAC	QUANT	2.50000E+001	AC &Voltage (mV rms)
AREA	QUANT	1.00000E-002	&Area (cm^2)
CONDIT	TWOPARAM	T	5.00000E+000	0.00000E+000	Conditionin&g	Time(s)	E(V)
DELAY	TWOPARAM	T	5.00000E+000	0.00000E+000	Init. De&lay	Time(s)	Stab.(mV/s)
SPEED	SELECTOR	1	&Optimize for:
ZGUESS	QUANT	1.00000E+004	E&stimated Z (ohms)
OCVCURVE	TABLE	19
	Pt	T	Vf	Vm	Ach	Over
	#	s	V vs. Ref.	V	V	bits
	0	0.258333	1.01070E-002	1.01070E-002	5.42866E-004	...........
	1	0.516667	1.01110E-002	1.03142E-002	5.40466E-004	...........
	2	0.775	1.01354E-002	1.05186E-002	5.44699E-004	...........
	3	1.03333	1.02051E-002	1.07113E-002	5.41499E-004	...........
	4	1.29167	1.03303E-002	1.08960E-002	5.43066E-004	...........
	5	1.55	1.04978E-002	1.10815E-002	5.38366E-004	...........
	6	1.80833	1.06853E-002	1.12850E-002	5.40499E-004	...........
	7	2.06667	1.08790E-002	1.15092E-002	5.40799E-004	...........
	8	2.325	1.10751E-002	1.16391E-002	5.48266E-004	...........
	9	2.58333	1.12683E-002	1.17246E-002	5.44766E-004	...........
	10	2.84167	1.14456E-002	1.18518E-002	5.48266E-004	...........
	11	3.1	1.15971E-002	1.19630E-002	5.42366E-004	...........
	12	3.35833	1.17276E-002	1.21515E-002	5.34833E-004	...........
	13	3.61667	1.18527E-002	1.23000E-002	5.43799E-004	...........
	14	3.875	1.19859E-002	1.24228E-002	5.44833E-004	...........
	15	4.13333	1.21279E-002	1.25406E-002	5.43066E-004	...........
	16	4.39167	1.22699E-002	1.26653E-002	5.45433E-004	...........
	17	4.65	1.24048E-002	1.27800E-002	5.44466E-004	...........
	18	4.90833	1.25317E-002	1.28950E-002	5.40966E-004	...........
EOC	QUANT	0.0125317	Open Circuit (V)
PSTATMODEL	IQUANT	4	Pstat Model
PSTATSECTION	LABEL	REF600-11020	Pstat Section
PSTATSERIALNO	LABEL	11020	Pstat Serial Number
CTRLMODE	IQUANT	1	Control Mode
IESTAB	IQUANT	0	I/E Stability
CASPEED	IQUANT	1	Control Amp Speed
CONVENTION	IQUANT	1	Current Convention
ICHRANGE	IQUANT	2	Ich Range
ICHRANGEMODE	TOGGLE	F	Ich Auto Range
ICHOFFSETENABLE	TOGGLE	T	Ich Offset Enable
ICHOFFSET	QUANT	0	Ich Offset (V)
ICHFILTER	IQUANT	3	Ich Filter
VCHRANGE	IQUANT	2	Vch Range
VCHRANGEMODE	TOGGLE	F	Vch Auto Range
VCHOFFSETENABLE	TOGGLE	T	Vch Offset Enable
VCHOFFSET	QUANT	0	Vch Offset (V)
VCHFILTER	IQUANT	3	Vch Filter
ACHRANGE	IQUANT	2	Ach Range
ACHOFFSETENABLE	TOGGLE	F	Ach Offset Enable
ACHOFFSET	QUANT	0	Ach Offset (V)
ACHFILTER	IQUANT	3	Ach Filter
IERANGELOWERLIMIT	IQUANT	1	I/E Range Lower Limit
IERANGEMODE	TOGGLE	F	I/E AutoRange
IERANGE	IQUANT	6	I/E Range
POSFEEDENABLE	TOGGLE	F	Positive Feedback IR Comp
POSFEEDRESISTANCE	QUANT	0	Positive Feedback Resistance (ohm)
ACHSELECT	IQUANT	0	Ach Select
CABLEID	IQUANT	14	Cable ID
DCCALDATE	LABEL	8/19/2019	DC Calibration Date
ACCALDATE	LABEL	8/19/2019	AC Calibration Date
THERMOSELECT	IQUANT	1	Thermo Select
FRAMEWORKVERSION	QUANT	6.33	Framework Version
INSTRUMENTVERSION	LABEL	3.50	Instrument Version
ZCURVE	TABLE
	Pt	Time	Freq	Zreal	Zimag	Zsig	Zmod	Zphz	Idc	Vdc	IERange
	#	s	Hz	ohm	ohm	V	ohm	°	A	V	#
	0	1	1000078	2220.518	-2009.887	1	2995.053	-42.1496	1.527587E-006	0.0148082	8
	1	2	794390.6	2631.384	-2028.574	1	3322.543	-37.62918	-2.771722E-007	0.0143893	8
	2	4	630984.4	3046.479	-1974.017	1	3630.121	-32.94189	3.873152E-006	0.0136621	8
	3	5	501234.4	3419.453	-1866.442	1	3895.673	-28.62707	-1.416925E-006	0.014197	8
	4	6	398109.4	3771.064	-1710.844	1	4141.003	-24.40269	-9.614187E-007	0.0144399	8
	5	8	316265.6	4015.99	-1524.528	1	4295.622	-20.78749	3.098254E-007	0.0140186	8
	6	9	251203.1	4220.633	-1370.11	1	4437.448	-17.98456	3.705583E-006	0.0132788	8
	7	10	199546.9	4400.72	-1190.223	1	4558.834	-15.13419	1.752005E-007	0.0140046	8
	8	12	158578.1	4510.158	-1038.365	1	4628.145	-12.96517	-6.780348E-007	0.0142468	8
	9	13	125953.1	4645.79	-860.912	1	4724.885	-10.4984	-1.08691E-007	0.0139095	7
	10	15	100078.1	4718.353	-765.9655	1	4780.121	-9.220814	1.126442E-007	0.0139214	7
	11	16	79453.13	4782.516	-699.2578	1	4833.365	-8.318349	4.087041E-008	0.0139497	7
	12	17	63140.62	4839.355	-651.707	1	4883.04	-7.669774	1.153665E-007	0.0139157	7
	13	19	50203.12	4891.194	-623.3291	1	4930.752	-7.262571	-8.967636E-009	0.0140826	7
	14	20	39890.62	4937.925	-607.2841	1	4975.128	-7.011237	1.152274E-007	0.0139086	7
	15	21	31640.63	4993.491	-615.485	1	5031.279	-7.026692	1.854236E-008	0.01398	7
	16	23	25171.88	5046.272	-634.3475	1	5085.986	-7.16485	1.713905E-008	0.0139809	7
	17	24	20015.62	5103.657	-668.5832	1	5147.263	-7.463294	-6.146698E-008	0.0142659	7
	18	26	15890.62	5163.249	-709.5665	1	5211.777	-7.824936	4.212372E-008	0.0139377	7
	19	27	12609.37	5233.048	-780.7264	1	5290.966	-8.485458	1.167792E-007	0.0139031	7
	20	28	10078.13	5302.208	-860.8627	1	5371.638	-9.222032	-6.020359E-009	0.0140749	7
	21	30	8015.625	5379.471	-960.592	1	5464.563	-10.12438	-5.099925E-009	0.0140709	7
	22	31	6328.125	5465.519	-1087.047	1	5572.573	-11.24887	-4.346921E-008	0.0140841	7
	23	32	5015.625	5557.995	-1238.415	1	5694.294	-12.56127	-4.117048E-008	0.0140774	7
	24	34	3984.375	5658.259	-1421.642	1	5834.121	-14.10367	-4.056035E-009	0.014112	7
	25	35	3170.956	5763.726	-1639.162	1	5992.278	-15.87537	-4.210809E-008	0.014076	7
	26	36	2527.573	5880.461	-1905.552	1	6181.5	-17.95481	-1.266675E-008	0.0140278	7
	27	38	1976.103	6023.502	-2258.728	1	6433.073	-20.55533	9.828101E-008	0.013989	7
	28	39	1577.524	6171.437	-2653.982	1	6717.906	-23.26978	6.068026E-008	0.0139633	7
	29	41	1265.625	6328.456	-3077.901	1	7037.246	-25.93638	-4.274758E-008	0.0140825	7
	30	42	998.264	6528.637	-3727.189	1	7517.648	-29.72198	1.173904E-007	0.0138969	7
	31	43	796.875	6743.209	-4431.511	1	8069.025	-33.31217	4.341074E-008	0.0139288	7
	32	45	627.7902	7001.064	-5349.761	1	8811.063	-37.38472	-3.948037E-009	0.0140588	7
	33	46	505.5147	7272.237	-6355.055	1	9657.75	-41.14952	-2.163345E-010	0.0140621	6
	34	47	397.9953	7617.349	-7718.359	1	10844.22	-45.37738	9.644365E-010	0.0140219	6
	35	49	315.5048	8003.485	-9345.582	1	12304.29	-49.4235	1.243625E-011	0.0140197	6
	36	50	252.4038	8436.542	-11260.26	1	14070.13	-53.15829	-1.059466E-010	0.0140181	6
	37	51	198.6229	8989.457	-13793.42	1	16464.17	-56.90688	5.767575E-010	0.0140244	6
	38	53	158.3615	9618.51	-16743.64	1	19309.72	-60.12447	1.62194E-010	0.0140223	6
	39	54	125.558	10409.86	-20473.79	1	22968.26	-63.04903	7.126965E-010	0.0140235	6
	40	55	100.4464	11335.3	-24866.73	1	27328.44	-65.49451	1.252246E-009	0.0140176	6
	41	57	79.00281	12768.01	-30736.75	1	33283.17	-67.44205	7.978343E-010	0.0140228	6
	42	58	63.3446	14721.74	-37236.81	1	40041.35	-68.42841	8.414348E-010	0.014017	6
	43	60	49.86702	16245.34	-46122.4	1	48899.77	-70.5966	6.939141E-010	0.0140128	6
	44	61	39.72458	19259.54	-56011.27	1	59230	-71.02441	7.382591E-010	0.0140219	6
	45	62	31.6723	22891.12	-67919.52	1	71673.32	-71.37449	9.085319E-010	0.0140235	6
	46	64	24.93351	28162.03	-83355.58	1	87984.38	-71.33224	8.112235E-010	0.0140203	6
	47	65	19.86229	34724.62	-100900.1	1	106708.2	-71.00919	1.735832E-010	0.0140185	5
	48	67	15.83615	44487.61	-122131.7	1	129981.9	-69.98538	2.224593E-009	0.0140223	5
	49	68	12.40079	54124.62	-146099	1	155802.4	-69.67208	-3.850501E-010	0.014024	5
	50	70	9.93114	69589.23	-174541.4	1	187902.5	-68.26295	-2.485993E-010	0.0140231	5
	51	71	7.944915	87183.34	-205175.3	1	222930.2	-66.97833	1.071576E-009	0.014031	5
	52	73	6.317385	110740.7	-243076	1	267113.2	-65.50692	-9.809538E-011	0.0140362	5
	53	75	5.008013	140296.3	-284551.6	1	317258.1	-63.75469	1.130418E-010	0.014018	5
	54	77	3.945707	177616.9	-331623.9	1	376194.3	-61.82661	4.424918E-010	0.0140312	5
	55	80	3.158693	219896.8	-379515.5	1	438619	-59.91137	-1.747288E-010	0.01402	5
	56	83	2.504006	271488.4	-432276.1	1	510459.2	-57.86937	5.310339E-010	0.0140269	5
	57	86	1.998082	328763.4	-485217	1	586106.6	-55.88002	1.445127E-010	0.0140646	5
	58	89	1.584686	392623.2	-541433.6	1	668807.4	-54.05207	2.013414E-010	0.0140012	5
	59	93	1.266892	461710.2	-600901.4	1	757798.6	-52.46267	1.887504E-010	0.0140553	5
	60	97	0.999041	538918.2	-666603.9	1	857201.1	-51.04608	-1.063553E-010	0.0139902	5
