EXPLAIN
TAG	EISPOT
TITLE	LABEL	Potentiostatic EIS	Test &Identifier
DATE	LABEL	11/21/2019	Date
TIME	LABEL	23:59:16	Time
NOTES	NOTES	4	&Notes...
	
	
	
	
PSTAT	PSTAT	REF600-11020	Potentiostat
VDC	POTEN	0.00000E+000	T	DC &Voltage (V)
FREQINIT	QUANT	1.00000E+006	Initial Fre&q. (Hz)
FREQFINAL	QUANT	1.00000E+000	Final Fre&q. (Hz)
PTSPERDEC	QUANT	1.00000E+001	Points/&decade
VAC	QUANT	2.50000E+001	AC &Voltage (mV rms)
AREA	QUANT	1.00000E-002	&Area (cm^2)
CONDIT	TWOPARAM	T	5.00000E+000	0.00000E+000	Conditionin&g	Time(s)	E(V)
DELAY	TWOPARAM	T	5.00000E+000	0.00000E+000	Init. De&lay	Time(s)	Stab.(mV/s)
SPEED	SELECTOR	1	&Optimize for:
ZGUESS	QUANT	1.00000E+005	E&stimated Z (ohms)
OCVCURVE	TABLE	19
	Pt	T	Vf	Vm	Ach	Over
	#	s	V vs. Ref.	V	V	bits
	0	0.258333	3.20009E-003	3.20009E-003	5.56866E-004	...........
	1	0.516667	3.19590E-003	2.98111E-003	5.53466E-004	...........
	2	0.775	3.17060E-003	2.79373E-003	5.60266E-004	...........
	3	1.03333	3.10064E-003	2.63156E-003	5.58366E-004	...........
	4	1.29167	2.97960E-003	2.48474E-003	5.60466E-004	...........
	5	1.55	2.82575E-003	2.35279E-003	5.63399E-004	...........
	6	1.80833	2.66434E-003	2.23228E-003	5.61832E-004	...........
	7	2.06667	2.51179E-003	2.12517E-003	5.65332E-004	...........
	8	2.325	2.37394E-003	2.02611E-003	5.57899E-004	...........
	9	2.58333	2.25057E-003	1.92899E-003	5.54033E-004	...........
	10	2.84167	2.13908E-003	1.83972E-003	5.59699E-004	...........
	11	3.1	2.03650E-003	1.75756E-003	5.59932E-004	...........
	12	3.35833	1.94086E-003	1.67764E-003	5.58166E-004	...........
	13	3.61667	1.85123E-003	1.60729E-003	5.57632E-004	...........
	14	3.875	1.76717E-003	1.53284E-003	5.53133E-004	...........
	15	4.13333	1.68810E-003	1.46636E-003	5.56933E-004	...........
	16	4.39167	1.61320E-003	1.40197E-003	5.57466E-004	...........
	17	4.65	1.54195E-003	1.34433E-003	5.59199E-004	...........
	18	4.90833	1.47386E-003	1.25992E-003	5.57566E-004	...........
EOC	QUANT	0.0014739	Open Circuit (V)
PSTATMODEL	IQUANT	4	Pstat Model
PSTATSECTION	LABEL	REF600-11020	Pstat Section
PSTATSERIALNO	LABEL	11020	Pstat Serial Number
CTRLMODE	IQUANT	1	Control Mode
IESTAB	IQUANT	0	I/E Stability
CASPEED	IQUANT	1	Control Amp Speed
CONVENTION	IQUANT	1	Current Convention
ICHRANGE	IQUANT	2	Ich Range
ICHRANGEMODE	TOGGLE	F	Ich Auto Range
ICHOFFSETENABLE	TOGGLE	T	Ich Offset Enable
ICHOFFSET	QUANT	0	Ich Offset (V)
ICHFILTER	IQUANT	3	Ich Filter
VCHRANGE	IQUANT	2	Vch Range
VCHRANGEMODE	TOGGLE	F	Vch Auto Range
VCHOFFSETENABLE	TOGGLE	T	Vch Offset Enable
VCHOFFSET	QUANT	0	Vch Offset (V)
VCHFILTER	IQUANT	3	Vch Filter
ACHRANGE	IQUANT	2	Ach Range
ACHOFFSETENABLE	TOGGLE	F	Ach Offset Enable
ACHOFFSET	QUANT	0	Ach Offset (V)
ACHFILTER	IQUANT	3	Ach Filter
IERANGELOWERLIMIT	IQUANT	1	I/E Range Lower Limit
IERANGEMODE	TOGGLE	F	I/E AutoRange
IERANGE	IQUANT	4	I/E Range
POSFEEDENABLE	TOGGLE	F	Positive Feedback IR Comp
POSFEEDRESISTANCE	QUANT	0	Positive Feedback Resistance (ohm)
ACHSELECT	IQUANT	0	Ach Select
CABLEID	IQUANT	14	Cable ID
DCCALDATE	LABEL	8/19/2019	DC Calibration Date
ACCALDATE	LABEL	8/19/2019	AC Calibration Date
THERMOSELECT	IQUANT	1	Thermo Select
FRAMEWORKVERSION	QUANT	6.33	Framework Version
INSTRUMENTVERSION	LABEL	3.50	Instrument Version
ZCURVE	TABLE
	Pt	Time	Freq	Zreal	Zimag	Zsig	Zmod	Zphz	Idc	Vdc	IERange
	#	s	Hz	ohm	ohm	V	ohm	°	A	V	#
	0	2	1000078	2328.45	-1393.979	1	2713.827	-30.9078	6.079886E-006	0.0036038	8
	1	3	794390.6	2574.157	-1328.401	1	2896.711	-27.29613	4.0797E-007	0.0037081	8
	2	4	630984.4	2807.192	-1231.773	1	3065.549	-23.69148	2.476925E-006	0.0026483	8
	3	6	501234.4	2993.462	-1137.654	1	3202.354	-20.8091	-3.434822E-006	0.0037283	8
	4	7	398109.4	3154.487	-1032.511	1	3319.167	-18.12405	2.34483E-006	0.0033634	8
	5	8	316265.6	3296.337	-934.7433	1	3426.307	-15.83176	-8.238758E-007	0.0027592	8
	6	10	251203.1	3413.997	-845.9612	1	3517.247	-13.91712	3.956556E-006	0.0030147	8
	7	11	199546.9	3523.409	-752.4259	1	3602.854	-12.05448	-4.36623E-007	0.003483	8
	8	12	158578.1	3609.356	-666.0996	1	3670.305	-10.45618	-1.620032E-008	0.0027417	8
	9	14	125953.1	3689.236	-557.8324	1	3731.171	-8.598298	-3.13112E-006	0.0069654	7
	10	15	100078.1	3741.448	-504.0735	1	3775.251	-7.673079	-1.048478E-006	0.0035185	7
	11	16	79453.13	3791.124	-475.3731	1	3820.812	-7.147077	-1.225544E-006	0.004088	7
	12	18	63140.62	3837.948	-455.8078	1	3864.92	-6.772916	3.933622E-007	0.0035271	7
	13	19	50203.12	3876.433	-441.8316	1	3901.531	-6.50245	-1.226657E-006	0.0040855	7
	14	21	39890.62	3916.198	-440.0212	1	3940.841	-6.410825	-1.235933E-006	0.004455	7
	15	22	31640.63	3958.942	-449.5822	1	3984.387	-6.478822	-2.995713E-007	0.0021284	7
	16	23	25171.88	3998.914	-468.2317	1	4026.233	-6.678337	-2.929579E-007	0.0043568	7
	17	25	20015.62	4044.672	-498.7866	1	4075.311	-7.030189	9.909093E-007	0.0013019	7
	18	26	15890.62	4089.029	-537.58	1	4124.215	-7.489657	-2.934627E-007	0.0043592	7
	19	27	12609.37	4141.351	-592.7894	1	4183.561	-8.145936	7.107293E-008	0.0039676	7
	20	29	10078.13	4190.404	-652.2737	1	4240.867	-8.847595	-1.048367E-006	0.0035077	7
	21	30	8015.625	4248.237	-731.8016	1	4310.806	-9.77385	-7.265107E-007	0.0028182	7
	22	31	6328.125	4310.4	-834.2543	1	4390.39	-10.95385	-9.038084E-007	0.0046818	7
	23	33	5015.625	4380.539	-955.86	1	4483.614	-12.30934	7.890177E-007	0.0012049	7
	24	34	3984.375	4449.85	-1101.293	1	4584.104	-13.90081	-1.234977E-006	0.0044584	7
	25	36	3170.956	4522.206	-1279.5	1	4699.73	-15.79818	-1.234369E-006	0.0044561	7
	26	37	2527.573	4606.016	-1497.574	1	4843.357	-18.01112	-1.225601E-006	0.0040816	7
	27	38	1976.103	4711.309	-1789.795	1	5039.821	-20.80145	4.96931E-007	0.0013119	7
	28	40	1577.524	4809.215	-2117.457	1	5254.729	-23.76349	6.162332E-007	0.0031898	7
	29	41	1265.625	4917.931	-2501.956	1	5517.774	-26.96433	-7.273421E-007	0.0028183	7
	30	42	998.264	5052.773	-3023.551	1	5888.326	-30.89606	1.026316E-006	0.0022751	7
	31	44	796.875	5199.647	-3623.392	1	6337.61	-34.87085	-7.260873E-007	0.0028127	7
	32	45	627.7902	5376.778	-4417.388	1	6958.668	-39.40542	3.972721E-007	0.0035138	7
	33	47	505.5147	5566.416	-5296.214	1	7683.415	-43.5751	3.992069E-007	0.0035093	7
	34	48	397.9953	5823.719	-6497.985	1	8725.796	-48.13221	7.868973E-009	0.0030091	7
	35	49	315.5048	6132.308	-7940.843	1	10033.05	-52.32292	8.506377E-010	0.0029573	6
	36	51	252.4038	6498.086	-9646.87	1	11631.3	-56.03597	8.781182E-010	0.0029469	6
	37	52	198.6229	7002.424	-11900.3	1	13807.64	-59.52641	8.596083E-010	0.0029581	6
	38	53	158.3615	7619.618	-14517	1	16395.18	-62.30612	1.288002E-009	0.0029479	6
	39	55	125.558	8456.705	-17798.06	1	19705	-64.58539	1.117099E-009	0.0029436	6
	40	56	100.4464	9530.58	-21618.83	1	23626.38	-66.2099	1.839622E-009	0.002941	6
	41	58	79.00281	11036.8	-26662.56	1	28856.6	-67.51319	2.579211E-010	0.0029471	6
	42	59	63.3446	12667.97	-32036.54	1	34450.22	-68.42504	3.976266E-010	0.0029507	6
	43	60	49.86702	15775.01	-39207.83	1	42262.33	-68.08294	-5.969457E-011	0.002942	6
	44	62	39.72458	19002.62	-47268	1	50944.71	-68.09895	1.214296E-009	0.0029495	6
	45	63	31.6723	23280.76	-56499.99	1	61108.45	-67.60595	7.463806E-010	0.002939	6
	46	65	24.93351	29365.01	-67941.4	1	74015.79	-66.62547	3.470715E-010	0.0029495	6
	47	66	19.86229	36591.74	-80263.45	1	88210.98	-65.49197	1.195562E-009	0.0029458	6
	48	67	15.83615	44890.92	-93792.5	1	103981.9	-64.42332	-6.638315E-010	0.0029439	5
	49	69	12.40079	57235.36	-110633.6	1	124561.9	-62.64559	7.360624E-010	0.0029493	5
	50	70	9.93114	70256.59	-126600.3	1	144788.2	-60.972	1.298518E-010	0.0029448	5
	51	72	7.944915	85418.69	-144415.8	1	167786.4	-59.39664	3.27872E-010	0.0029439	5
	52	73	6.317385	102431.7	-164232.1	1	193557.3	-58.04816	8.410526E-010	0.0029464	5
	53	76	5.008013	121943.4	-186308.7	1	222668.2	-56.79431	5.430835E-010	0.002948	5
	54	78	3.945707	143397.8	-211797.4	1	255775.4	-55.89996	2.549287E-010	0.0029537	5
	55	81	3.158693	164709	-238633.1	1	289956.5	-55.38584	2.295508E-010	0.0029647	5
	56	84	2.504006	188432.3	-271643.4	1	330600.8	-55.25191	3.400674E-010	0.0029387	5
	57	87	1.998082	212713.1	-309268.6	1	375358.4	-55.48004	9.838626E-012	0.002986	5
	58	90	1.584686	239732.6	-356957.3	1	429988.7	-56.11468	3.026204E-010	0.002968	5
	59	94	1.266892	270360.3	-411647.8	1	492492.3	-56.70406	1.077186E-010	0.0029949	5
	60	98	0.999041	306684.6	-481775.1	1	571106.6	-57.52031	1.719793E-010	0.0029212	5
