EXPLAIN
TAG	EISPOT
TITLE	LABEL	Potentiostatic EIS	Test &Identifier
DATE	LABEL	11/22/2019	Date
TIME	LABEL	1:16:55	Time
NOTES	NOTES	4	&Notes...
	
	
	
	
PSTAT	PSTAT	REF600-11020	Potentiostat
VDC	POTEN	0.00000E+000	T	DC &Voltage (V)
FREQINIT	QUANT	1.00000E+006	Initial Fre&q. (Hz)
FREQFINAL	QUANT	1.00000E+000	Final Fre&q. (Hz)
PTSPERDEC	QUANT	1.00000E+001	Points/&decade
VAC	QUANT	2.50000E+001	AC &Voltage (mV rms)
AREA	QUANT	1.00000E-002	&Area (cm^2)
CONDIT	TWOPARAM	T	5.00000E+000	0.00000E+000	Conditionin&g	Time(s)	E(V)
DELAY	TWOPARAM	T	5.00000E+000	0.00000E+000	Init. De&lay	Time(s)	Stab.(mV/s)
SPEED	SELECTOR	1	&Optimize for:
ZGUESS	QUANT	1.00000E+005	E&stimated Z (ohms)
OCVCURVE	TABLE	19
	Pt	T	Vf	Vm	Ach	Over
	#	s	V vs. Ref.	V	V	bits
	0	0.258333	5.12183E-003	5.12183E-003	5.61999E-004	...........
	1	0.516667	5.12114E-003	5.08546E-003	5.64499E-004	...........
	2	0.775	5.11574E-003	4.99189E-003	5.66166E-004	...........
	3	1.03333	5.09742E-003	4.93811E-003	5.66099E-004	...........
	4	1.29167	5.06078E-003	4.90852E-003	5.63132E-004	...........
	5	1.55	5.01161E-003	4.89515E-003	5.58499E-004	...........
	6	1.80833	4.96410E-003	4.92834E-003	5.54233E-004	...........
	7	2.06667	4.93073E-003	4.90380E-003	5.55666E-004	...........
	8	2.325	4.91447E-003	4.90659E-003	5.60599E-004	...........
	9	2.58333	4.90930E-003	4.91077E-003	5.60866E-004	...........
	10	2.84167	4.90822E-003	4.90743E-003	5.63499E-004	...........
	11	3.1	4.90821E-003	4.91169E-003	5.64466E-004	...........
	12	3.35833	4.90871E-003	4.91374E-003	5.66999E-004	...........
	13	3.61667	4.90993E-003	4.92606E-003	5.72832E-004	...........
	14	3.875	4.91238E-003	4.91817E-003	5.68166E-004	...........
	15	4.13333	4.91600E-003	4.93728E-003	5.65699E-004	...........
	16	4.39167	4.92051E-003	4.94015E-003	5.64466E-004	...........
	17	4.65	4.92624E-003	4.95405E-003	5.58966E-004	...........
	18	4.90833	4.93359E-003	4.96337E-003	5.66099E-004	...........
EOC	QUANT	0.0049336	Open Circuit (V)
PSTATMODEL	IQUANT	4	Pstat Model
PSTATSECTION	LABEL	REF600-11020	Pstat Section
PSTATSERIALNO	LABEL	11020	Pstat Serial Number
CTRLMODE	IQUANT	1	Control Mode
IESTAB	IQUANT	0	I/E Stability
CASPEED	IQUANT	1	Control Amp Speed
CONVENTION	IQUANT	1	Current Convention
ICHRANGE	IQUANT	2	Ich Range
ICHRANGEMODE	TOGGLE	F	Ich Auto Range
ICHOFFSETENABLE	TOGGLE	T	Ich Offset Enable
ICHOFFSET	QUANT	0	Ich Offset (V)
ICHFILTER	IQUANT	3	Ich Filter
VCHRANGE	IQUANT	2	Vch Range
VCHRANGEMODE	TOGGLE	F	Vch Auto Range
VCHOFFSETENABLE	TOGGLE	T	Vch Offset Enable
VCHOFFSET	QUANT	0	Vch Offset (V)
VCHFILTER	IQUANT	3	Vch Filter
ACHRANGE	IQUANT	2	Ach Range
ACHOFFSETENABLE	TOGGLE	F	Ach Offset Enable
ACHOFFSET	QUANT	0	Ach Offset (V)
ACHFILTER	IQUANT	3	Ach Filter
IERANGELOWERLIMIT	IQUANT	1	I/E Range Lower Limit
IERANGEMODE	TOGGLE	F	I/E AutoRange
IERANGE	IQUANT	4	I/E Range
POSFEEDENABLE	TOGGLE	F	Positive Feedback IR Comp
POSFEEDRESISTANCE	QUANT	0	Positive Feedback Resistance (ohm)
ACHSELECT	IQUANT	0	Ach Select
CABLEID	IQUANT	14	Cable ID
DCCALDATE	LABEL	8/19/2019	DC Calibration Date
ACCALDATE	LABEL	8/19/2019	AC Calibration Date
THERMOSELECT	IQUANT	1	Thermo Select
FRAMEWORKVERSION	QUANT	6.33	Framework Version
INSTRUMENTVERSION	LABEL	3.50	Instrument Version
ZCURVE	TABLE
	Pt	Time	Freq	Zreal	Zimag	Zsig	Zmod	Zphz	Idc	Vdc	IERange
	#	s	Hz	ohm	ohm	V	ohm	°	A	V	#
	0	2	1000078	2209.033	-1510.096	1	2675.858	-34.35653	6.094423E-006	0.0066145	8
	1	3	794390.6	2499.359	-1475.395	1	2902.342	-30.55375	-2.447829E-006	0.006577	8
	2	5	630984.4	2767.773	-1389.425	1	3096.946	-26.6567	-3.664335E-006	0.0074054	8
	3	6	501234.4	3009.897	-1302.519	1	3279.639	-23.40033	-2.47764E-006	0.0072394	8
	4	7	398109.4	3208.076	-1204.051	1	3426.585	-20.57205	-6.056959E-006	0.0074981	8
	5	9	316265.6	3395.639	-1091.558	1	3566.772	-17.82047	-5.736039E-006	0.0074382	8
	6	10	251203.1	3543.901	-983.248	1	3677.772	-15.50657	9.21705E-007	0.0069173	8
	7	11	199546.9	3669.476	-880.323	1	3773.595	-13.49055	6.779124E-006	0.0057954	8
	8	13	158578.1	3769.332	-789.127	1	3851.05	-11.82436	-2.08496E-006	0.0066738	8
	9	14	125953.1	3887.263	-649.6354	1	3941.172	-9.487535	7.704512E-008	0.0090705	7
	10	15	100078.1	3954.781	-579.8118	1	3997.058	-8.340733	-6.22806E-007	0.008102	7
	11	17	79453.13	4002.572	-523.6016	1	4036.675	-7.452899	-1.100541E-006	0.0081212	7
	12	18	63140.62	4051.341	-480.8211	1	4079.773	-6.768317	-1.231628E-006	0.0079501	7
	13	19	50203.12	4101.028	-453.0755	1	4125.979	-6.304387	8.40284E-007	0.0062603	7
	14	21	39890.62	4132.968	-432.2271	1	4155.508	-5.970307	-2.895418E-007	0.0078375	7
	15	22	31640.63	4164.95	-422.9635	1	4186.371	-5.798684	-1.100923E-006	0.0081133	7
	16	23	25171.88	4204.753	-428.4421	1	4226.524	-5.818058	6.179209E-007	0.0066873	7
	17	25	20015.62	4241.825	-449.0058	1	4265.523	-6.042374	8.409669E-007	0.0062599	7
	18	26	15890.62	4258.299	-472.6022	1	4284.445	-6.332985	-1.222375E-006	0.0075773	7
	19	28	12609.37	4292.24	-516.402	1	4323.193	-6.860316	-1.100702E-006	0.0081133	7
	20	29	10078.13	4333.663	-579.8014	1	4372.276	-7.620358	-3.055596E-007	0.0056284	7
	21	30	8015.625	4367.491	-660.1299	1	4417.097	-8.594985	-6.220074E-007	0.0080819	7
	22	32	6328.125	4406.637	-755.7826	1	4470.979	-9.73211	-8.984139E-007	0.0081679	7
	23	33	5015.625	4448.387	-885.1605	1	4535.599	-11.25398	-1.222825E-006	0.0075742	7
	24	34	3984.375	4485.337	-1040.814	1	4604.514	-13.06417	-1.231433E-006	0.0079403	7
	25	36	3170.956	4559.469	-1239.582	1	4724.968	-15.20938	1.197765E-007	0.0051088	7
	26	37	2527.573	4627.552	-1483.204	1	4859.438	-17.77148	1.110699E-006	0.0053358	7
	27	38	1976.103	4704.278	-1808.655	1	5039.987	-21.03027	9.89445E-007	0.0047888	7
	28	40	1577.524	4801.401	-2192.724	1	5278.399	-24.54543	1.111874E-006	0.0053439	7
	29	41	1265.625	4885.562	-2611.701	1	5539.829	-28.12786	-3.049548E-007	0.005634	7
	30	42	998.264	5024.878	-3193.714	1	5953.924	-32.43924	1.111849E-006	0.0053377	7
	31	44	796.875	5165.231	-3857.192	1	6446.514	-36.75093	-1.100588E-006	0.0081098	7
	32	45	627.7902	5362.826	-4736.627	1	7155.106	-41.45202	4.906928E-007	0.0048095	7
	33	47	505.5147	5585.529	-5706.746	1	7985.304	-45.61502	8.447201E-007	0.006257	7
	34	48	397.9953	5868.581	-7006.432	1	9139.492	-50.05049	7.110374E-009	0.0064977	7
	35	49	315.5048	6220.438	-8559.593	1	10581.14	-53.9933	1.664348E-009	0.0064406	6
	36	51	252.4038	6636.016	-10380.79	1	12320.61	-57.41087	1.399602E-010	0.0064469	6
	37	52	198.6229	7191.18	-12774.66	1	14659.64	-60.62374	8.416415E-010	0.0064489	6
	38	53	158.3615	7850.923	-15549.17	1	17418.78	-63.21036	6.961914E-010	0.0064352	6
	39	55	125.558	8709.217	-19010.42	1	20910.44	-65.38613	1.21676E-009	0.0064484	6
	40	56	100.4464	9769.97	-23060.29	1	25044.54	-67.03905	-1.787146E-010	0.0064507	6
	41	57	79.00281	11168.25	-28367.66	1	30486.95	-68.51061	3.230347E-010	0.0064464	6
	42	59	63.3446	12903.76	-34618.81	1	36945.49	-69.55765	1.675952E-010	0.00645	6
	43	60	49.86702	15351.46	-41976.28	1	44695.36	-69.91165	-1.242421E-011	0.0064468	6
	44	62	39.72458	18695.19	-50931.76	1	54254.53	-69.84366	1.16761E-009	0.0064448	6
	45	63	31.6723	22862.88	-61522.98	1	65633.74	-69.61417	5.280485E-010	0.0064366	6
	46	65	24.93351	28718.77	-74538.18	1	79879.34	-68.92886	3.36381E-010	0.0064424	6
	47	66	19.86229	36179.64	-88999.48	1	96072.2	-67.87752	-1.899677E-010	0.0064436	6
	48	67	15.83615	45856.81	-106281.4	1	115752.2	-66.66144	2.302373E-009	0.0064531	5
	49	69	12.40079	57391.94	-125999.7	1	138454.9	-65.51108	3.181813E-010	0.006436	5
	50	70	9.93114	72916.95	-145619	1	162855.1	-63.40114	1.123143E-009	0.0064392	5
	51	72	7.944915	90110.16	-168210.7	1	190826.3	-61.82212	-4.93939E-010	0.0064413	5
	52	73	6.317385	111422.4	-192924.9	1	222789.1	-59.99172	-4.539349E-010	0.0064442	5
	53	75	5.008013	136347.1	-220055.8	1	258872.7	-58.21754	-1.807394E-010	0.006431	5
	54	78	3.945707	165159.6	-249487.2	1	299201.5	-56.49559	5.027884E-010	0.0064432	5
	55	81	3.158693	195065.5	-279808	1	341091	-55.11809	-1.568455E-010	0.0064231	5
	56	84	2.504006	229166.9	-314309.4	1	388983.1	-53.90375	4.712904E-010	0.0064329	5
	57	87	1.998082	263849	-350601.4	1	438791.1	-53.0363	2.680007E-011	0.0064833	5
	58	90	1.584686	300510.5	-394371.2	1	495817.7	-52.69263	2.219067E-010	0.006442	5
	59	93	1.266892	339929.8	-442903.5	1	558315.1	-52.49365	-1.373488E-011	0.0064844	5
	60	98	0.999041	382902.1	-504430.4	1	633296.2	-52.79866	8.173152E-011	0.0064065	5
