EXPLAIN
TAG	EISPOT
TITLE	LABEL	Potentiostatic EIS	Test &Identifier
DATE	LABEL	11/27/2019	Date
TIME	LABEL	13:34:58	Time
NOTES	NOTES	3	&Notes...
	
	
	
PSTAT	PSTAT	REF600-11020	Potentiostat
VDC	POTEN	0.00000E+000	T	DC &Voltage (V)
FREQINIT	QUANT	1.00000E+006	Initial Fre&q. (Hz)
FREQFINAL	QUANT	1.00000E+000	Final Fre&q. (Hz)
PTSPERDEC	QUANT	1.00000E+001	Points/&decade
VAC	QUANT	2.50000E+001	AC &Voltage (mV rms)
AREA	QUANT	1.00000E-002	&Area (cm^2)
CONDIT	TWOPARAM	T	5.00000E+000	0.00000E+000	Conditionin&g	Time(s)	E(V)
DELAY	TWOPARAM	T	5.00000E+000	0.00000E+000	Init. De&lay	Time(s)	Stab.(mV/s)
SPEED	SELECTOR	0	&Optimize for:
ZGUESS	QUANT	1.00000E+005	E&stimated Z (ohms)
OCVCURVE	TABLE	19
	Pt	T	Vf	Vm	Ach	Over
	#	s	V vs. Ref.	V	V	bits
	0	0.258333	7.55095E-003	7.55095E-003	5.34566E-004	...........
	1	0.516667	7.55136E-003	7.57226E-003	5.37966E-004	...........
	2	0.775	7.55406E-003	7.60309E-003	5.31133E-004	...........
	3	1.03333	7.56245E-003	7.63614E-003	5.38533E-004	...........
	4	1.29167	7.57854E-003	7.64101E-003	5.33666E-004	...........
	5	1.55	7.59984E-003	7.65159E-003	5.42733E-004	...........
	6	1.80833	7.62091E-003	7.66612E-003	5.36899E-004	...........
	7	2.06667	7.63901E-003	7.71290E-003	5.41333E-004	...........
	8	2.325	7.65728E-003	7.75978E-003	5.40633E-004	...........
	9	2.58333	7.68039E-003	7.73946E-003	5.33800E-004	...........
	10	2.84167	7.70662E-003	7.75021E-003	5.37466E-004	...........
	11	3.1	7.72941E-003	7.79185E-003	5.37766E-004	...........
	12	3.35833	7.74772E-003	7.83507E-003	5.35533E-004	...........
	13	3.61667	7.76834E-003	7.88855E-003	5.37333E-004	...........
	14	3.875	7.79782E-003	7.93927E-003	5.37599E-004	...........
	15	4.13333	7.83724E-003	7.98555E-003	5.40866E-004	...........
	16	4.39167	7.88302E-003	8.01332E-003	5.34099E-004	...........
	17	4.65	7.92979E-003	8.05683E-003	5.33766E-004	...........
	18	4.90833	7.97363E-003	8.08971E-003	5.30766E-004	...........
EOC	QUANT	0.0079736	Open Circuit (V)
PSTATMODEL	IQUANT	4	Pstat Model
PSTATSECTION	LABEL	REF600-11020	Pstat Section
PSTATSERIALNO	LABEL	11020	Pstat Serial Number
CTRLMODE	IQUANT	1	Control Mode
IESTAB	IQUANT	0	I/E Stability
CASPEED	IQUANT	1	Control Amp Speed
CONVENTION	IQUANT	1	Current Convention
ICHRANGE	IQUANT	2	Ich Range
ICHRANGEMODE	TOGGLE	F	Ich Auto Range
ICHOFFSETENABLE	TOGGLE	T	Ich Offset Enable
ICHOFFSET	QUANT	0	Ich Offset (V)
ICHFILTER	IQUANT	3	Ich Filter
VCHRANGE	IQUANT	2	Vch Range
VCHRANGEMODE	TOGGLE	F	Vch Auto Range
VCHOFFSETENABLE	TOGGLE	T	Vch Offset Enable
VCHOFFSET	QUANT	0	Vch Offset (V)
VCHFILTER	IQUANT	3	Vch Filter
ACHRANGE	IQUANT	2	Ach Range
ACHOFFSETENABLE	TOGGLE	F	Ach Offset Enable
ACHOFFSET	QUANT	0	Ach Offset (V)
ACHFILTER	IQUANT	3	Ach Filter
IERANGELOWERLIMIT	IQUANT	1	I/E Range Lower Limit
IERANGEMODE	TOGGLE	F	I/E AutoRange
IERANGE	IQUANT	5	I/E Range
POSFEEDENABLE	TOGGLE	F	Positive Feedback IR Comp
POSFEEDRESISTANCE	QUANT	0	Positive Feedback Resistance (ohm)
ACHSELECT	IQUANT	0	Ach Select
CABLEID	IQUANT	14	Cable ID
DCCALDATE	LABEL	8/19/2019	DC Calibration Date
ACCALDATE	LABEL	8/19/2019	AC Calibration Date
THERMOSELECT	IQUANT	1	Thermo Select
FRAMEWORKVERSION	QUANT	6.33	Framework Version
INSTRUMENTVERSION	LABEL	3.50	Instrument Version
ZCURVE	TABLE
	Pt	Time	Freq	Zreal	Zimag	Zsig	Zmod	Zphz	Idc	Vdc	IERange
	#	s	Hz	ohm	ohm	V	ohm	°	A	V	#
	0	1	1000078	2157.531	-1614.903	1	2694.969	-36.8147	-4.49483E-006	0.0104651	8
	1	1	794390.6	2476.398	-1570.042	1	2932.163	-32.37479	-3.939388E-006	0.0103579	8
	2	2	630984.4	2777.306	-1473.594	1	3144.027	-27.9497	7.060152E-006	0.0089816	8
	3	2	501234.4	3039.489	-1350.751	1	3326.112	-23.9604	-6.809235E-006	0.0105171	8
	4	2	398109.4	3257.214	-1210.643	1	3474.925	-20.38912	-3.842458E-006	0.0099744	8
	5	3	316265.6	3425.063	-1064.286	1	3586.608	-17.26184	3.922206E-006	0.0095253	8
	6	3	251203.1	3558.322	-930.1501	1	3677.884	-14.6494	-2.456219E-006	0.0100356	8
	7	3	199546.9	3656.098	-807.5059	1	3744.212	-12.45471	6.290493E-006	0.0088652	8
	8	3	158578.1	3720.708	-697.2919	1	3785.484	-10.61458	-4.233111E-006	0.0099159	8
	9	4	125953.1	3825.114	-566.5125	1	3866.837	-8.424461	-4.23982E-007	0.0078127	7
	10	4	100078.1	3859.402	-510.0836	1	3892.964	-7.528946	9.292915E-007	0.0088644	7
	11	4	79453.13	3894.678	-467.7931	1	3922.671	-6.849034	-2.607598E-007	0.0107603	7
	12	5	63140.62	3934.991	-440.2834	1	3959.546	-6.38423	9.872009E-007	0.0081813	7
	13	5	50203.12	3968.294	-422.4986	1	3990.722	-6.077305	9.308682E-007	0.0088539	7
	14	5	39890.62	3995.981	-415.871	1	4017.563	-5.941515	-8.163698E-007	0.0110577	7
	15	6	31640.63	4031.213	-421.9317	1	4053.233	-5.975175	7.133392E-008	0.010388	7
	16	6	25171.88	4065.636	-439.1632	1	4089.286	-6.165091	7.045343E-007	0.0078936	7
	17	6	20015.62	4099.742	-461.8735	1	4125.677	-6.427792	-2.920562E-007	0.0087485	7
	18	7	15890.62	4131.683	-510.1105	1	4163.054	-7.038298	-5.652888E-007	0.0109757	7
	19	7	12609.37	4172.006	-567.2815	1	4210.397	-7.74321	-8.17756E-007	0.0110527	7
	20	7	10078.13	4217.01	-638.5925	1	4265.087	-8.611021	4.374417E-007	0.007985	7
	21	8	8015.625	4262.327	-727.6364	1	4323.99	-9.68777	9.318794E-007	0.0088487	7
	22	8	6328.125	4314.516	-844.949	1	4396.475	-11.08049	4.380167E-007	0.0079853	7
	23	8	5015.625	4368.577	-989.128	1	4479.156	-12.75774	7.069033E-007	0.007883	7
	24	9	3984.375	4429.355	-1166.214	1	4580.31	-14.75075	9.769062E-008	0.0082561	7
	25	9	3170.956	4500.275	-1376.858	1	4706.189	-17.01147	7.672538E-007	0.0092884	7
	26	9	2527.573	4573.348	-1633.454	1	4856.303	-19.65511	-2.607098E-007	0.0107398	7
	27	10	1976.103	4667.879	-1981.866	1	5071.182	-23.00488	-9.650745E-007	0.0099888	7
	28	10	1577.524	4756.937	-2385.787	1	5321.694	-26.63553	-1.120433E-006	0.0108313	7
	29	10	1265.625	4890.654	-2839.309	1	5655.102	-30.13765	3.585793E-007	0.009984	7
	30	10	998.264	5037.039	-3450.503	1	6105.549	-34.41216	-1.1184E-006	0.0105037	7
	31	11	796.875	5200.564	-4168.009	1	6664.695	-38.71054	9.759531E-008	0.008251	7
	32	11	627.7902	5404.942	-5091.482	1	7425.402	-43.28946	7.023061E-007	0.0078775	7
	33	12	505.5147	5625.31	-6112.221	1	8306.825	-47.37545	9.323243E-007	0.0088341	7
	34	12	397.9953	5917.435	-7494.65	1	9549.13	-51.70699	2.226014E-009	0.009526	7
	35	12	315.5048	6251.475	-9150.355	1	11081.96	-55.65931	-6.381313E-010	0.0094704	6
	36	13	252.4038	6633.936	-11103.66	1	12934.47	-59.1436	8.439595E-010	0.0094617	6
	37	13	198.6229	7132.522	-13691.93	1	15438.33	-62.4837	-2.629885E-010	0.0094708	6
	38	13	158.3615	7707.604	-16725.81	1	18416.29	-65.25876	4.870132E-010	0.0094667	6
	39	14	125.558	8455.105	-20534.42	1	22207.01	-67.62045	7.82849E-010	0.0094641	6
	40	14	100.4464	9384.614	-24998.96	1	26702.42	-69.42386	1.786798E-010	0.0094629	6
	41	14	79.00281	10696.9	-30931.67	1	32729.07	-70.92342	8.353361E-010	0.0094686	6
	42	14	63.3446	12209.41	-38202.15	1	40105.79	-72.27611	-8.022109E-010	0.0094629	6
	43	15	49.86702	14372.02	-46997.38	1	49145.79	-72.99612	-1.403227E-009	0.009461	6
	44	15	39.72458	17273.23	-56866.48	1	59431.99	-73.10381	2.438588E-010	0.0094627	6
	45	16	31.6723	20921.74	-69060.92	1	72160.45	-73.14602	-2.795764E-010	0.0094667	6
	46	16	24.93351	25999.9	-84978.34	1	88866.82	-72.98803	-8.231093E-010	0.0094588	6
	47	16	19.86229	32470.01	-102949.3	1	107948.4	-72.49482	-9.147779E-010	0.00947	5
	48	16	15.83615	41406.75	-122862.1	1	129651.9	-71.37524	-1.007675E-009	0.0094647	5
	49	17	12.40079	53363.88	-149358.6	1	158605.5	-70.33886	1.631848E-009	0.0094705	5
	50	17	9.93114	68414.69	-179327.2	1	191934.4	-69.11777	-3.141005E-011	0.009468	5
	51	18	7.944915	86988.46	-211989.9	1	229143.4	-67.68958	-6.942905E-010	0.0094687	5
	52	18	6.317385	111253.1	-249479.4	1	273161.5	-65.96595	-6.491144E-010	0.009487	5
	53	19	5.008013	142013.8	-291624.8	1	324365.5	-64.0351	-2.35239E-010	0.0094706	5
	54	20	3.945707	181168.7	-338241.4	1	383704.7	-61.82563	-7.370295E-011	0.0094606	5
	55	22	3.158693	222907.4	-385787.6	1	445555.6	-59.98075	9.325471E-011	0.0094741	5
	56	23	2.504006	273150.3	-437836.4	1	516054.1	-58.04145	-1.743555E-010	0.0094688	5
	57	25	1.998082	327819.4	-492218.9	1	591392.4	-56.33625	-1.939307E-010	0.0094297	5
	58	26	1.584686	388054.6	-550156.4	1	673244.8	-54.80265	-6.131519E-011	0.0094771	5
	59	28	1.266892	451473.3	-613470.8	1	761691.9	-53.64943	5.801385E-011	0.0094966	5
	60	31	0.999041	517187	-689010.8	1	861520.9	-53.10728	4.495086E-011	0.0094981	5
