EXPLAIN
TAG	EISPOT
TITLE	LABEL	Potentiostatic EIS	Test &Identifier
DATE	LABEL	10/10/2019	Date
TIME	LABEL	10:35:11	Time
NOTES	NOTES	1	&Notes...
	
PSTAT	PSTAT	REF600-11020	Potentiostat
VDC	POTEN	0.00000E+000	T	DC &Voltage (V)
FREQINIT	QUANT	1.00000E+006	Initial Fre&q. (Hz)
FREQFINAL	QUANT	1.00000E+000	Final Fre&q. (Hz)
PTSPERDEC	QUANT	1.00000E+001	Points/&decade
VAC	QUANT	2.50000E+001	AC &Voltage (mV rms)
AREA	QUANT	1.00000E-002	&Area (cm^2)
CONDIT	TWOPARAM	T	5.00000E+000	0.00000E+000	Conditionin&g	Time(s)	E(V)
DELAY	TWOPARAM	T	5.00000E+000	0.00000E+000	Init. De&lay	Time(s)	Stab.(mV/s)
SPEED	SELECTOR	1	&Optimize for:
ZGUESS	QUANT	1.00000E+004	E&stimated Z (ohms)
OCVCURVE	TABLE	19
	Pt	T	Vf	Vm	Ach	Over
	#	s	V vs. Ref.	V	V	bits
	0	0.258333	4.78032E-003	4.78032E-003	5.69099E-004	...........
	1	0.516667	4.77697E-003	4.60502E-003	5.68332E-004	...........
	2	0.775	4.75744E-003	4.49282E-003	5.67532E-004	...........
	3	1.03333	4.70624E-003	4.41802E-003	5.70199E-004	...........
	4	1.29167	4.62156E-003	4.21857E-003	5.66866E-004	...........
	5	1.55	4.51290E-003	4.11261E-003	5.71699E-004	...........
	6	1.80833	4.38880E-003	3.98794E-003	5.72232E-004	...........
	7	2.06667	4.25783E-003	3.89572E-003	5.76266E-004	...........
	8	2.325	4.13203E-003	3.89245E-003	5.76199E-004	...........
	9	2.58333	4.02648E-003	3.93809E-003	5.67932E-004	...........
	10	2.84167	3.95344E-003	3.80315E-003	5.74765E-004	...........
	11	3.1	3.90889E-003	3.80813E-003	5.73499E-004	...........
	12	3.35833	3.87571E-003	3.79929E-003	5.71199E-004	...........
	13	3.61667	3.84486E-003	3.78724E-003	5.76632E-004	...........
	14	3.875	3.81882E-003	3.76094E-003	5.71566E-004	...........
	15	4.13333	3.79857E-003	3.73490E-003	5.72066E-004	...........
	16	4.39167	3.78025E-003	3.71718E-003	5.77866E-004	...........
	17	4.65	3.76075E-003	3.69713E-003	5.75399E-004	...........
	18	4.90833	3.74007E-003	3.68041E-003	5.74966E-004	...........
EOC	QUANT	0.0037401	Open Circuit (V)
PSTATMODEL	IQUANT	4	Pstat Model
PSTATSECTION	LABEL	REF600-11020	Pstat Section
PSTATSERIALNO	LABEL	11020	Pstat Serial Number
CTRLMODE	IQUANT	1	Control Mode
IESTAB	IQUANT	0	I/E Stability
CASPEED	IQUANT	1	Control Amp Speed
CONVENTION	IQUANT	1	Current Convention
ICHRANGE	IQUANT	2	Ich Range
ICHRANGEMODE	TOGGLE	F	Ich Auto Range
ICHOFFSETENABLE	TOGGLE	T	Ich Offset Enable
ICHOFFSET	QUANT	0	Ich Offset (V)
ICHFILTER	IQUANT	3	Ich Filter
VCHRANGE	IQUANT	2	Vch Range
VCHRANGEMODE	TOGGLE	F	Vch Auto Range
VCHOFFSETENABLE	TOGGLE	T	Vch Offset Enable
VCHOFFSET	QUANT	0	Vch Offset (V)
VCHFILTER	IQUANT	3	Vch Filter
ACHRANGE	IQUANT	2	Ach Range
ACHOFFSETENABLE	TOGGLE	F	Ach Offset Enable
ACHOFFSET	QUANT	0	Ach Offset (V)
ACHFILTER	IQUANT	3	Ach Filter
IERANGELOWERLIMIT	IQUANT	1	I/E Range Lower Limit
IERANGEMODE	TOGGLE	F	I/E AutoRange
IERANGE	IQUANT	5	I/E Range
POSFEEDENABLE	TOGGLE	F	Positive Feedback IR Comp
POSFEEDRESISTANCE	QUANT	0	Positive Feedback Resistance (ohm)
ACHSELECT	IQUANT	0	Ach Select
CABLEID	IQUANT	14	Cable ID
DCCALDATE	LABEL	8/19/2019	DC Calibration Date
ACCALDATE	LABEL	8/19/2019	AC Calibration Date
THERMOSELECT	IQUANT	1	Thermo Select
FRAMEWORKVERSION	QUANT	6.33	Framework Version
INSTRUMENTVERSION	LABEL	3.50	Instrument Version
ZCURVE	TABLE
	Pt	Time	Freq	Zreal	Zimag	Zsig	Zmod	Zphz	Idc	Vdc	IERange
	#	s	Hz	ohm	ohm	V	ohm	°	A	V	#
	0	1	1000078	2130.617	-910.3207	1	2316.94	-23.13493	2.578516E-007	0.0052757	8
	1	3	794390.6	2268.513	-842.5459	1	2419.925	-20.37544	1.161103E-006	0.0054556	8
	2	4	630984.4	2390.544	-752.2545	1	2506.11	-17.46771	-1.506296E-006	0.0060003	8
	3	5	501234.4	2489.138	-676.8608	1	2579.525	-15.21237	-2.441451E-009	0.0054246	8
	4	7	398109.4	2563.844	-601.5933	1	2633.479	-13.20528	-1.120976E-006	0.0057768	8
	5	8	316265.6	2633.73	-547.3862	1	2690.012	-11.74102	2.712091E-006	0.0048006	8
	6	9	251203.1	2685.009	-504.4989	1	2731.994	-10.6415	-5.26754E-007	0.0055082	8
	7	11	199546.9	2729.363	-464.8802	1	2768.67	-9.66617	-1.076005E-006	0.0057079	8
	8	12	158578.1	2777.537	-433.7771	1	2811.206	-8.876368	-1.078586E-006	0.0057112	8
	9	13	125953.1	2841.287	-392.333	1	2868.247	-7.861847	1.313103E-006	0.0024212	7
	10	15	100078.1	2871.071	-378.7423	1	2895.945	-7.514881	-1.642176E-008	0.0052843	7
	11	16	79453.13	2911.253	-387.6664	1	2936.951	-7.584961	-4.489129E-008	0.0054026	7
	12	18	63140.62	2953.395	-403.4785	1	2980.829	-7.779313	-4.130642E-008	0.0053254	7
	13	19	50203.12	3001.169	-422.554	1	3030.77	-8.014361	-3.808723E-008	0.0053139	7
	14	20	39890.62	3049.553	-448.0606	1	3082.293	-8.358474	-3.974214E-008	0.0053202	7
	15	22	31640.63	3103.248	-477.5795	1	3139.781	-8.748991	-4.498035E-008	0.0053871	7
	16	23	25171.88	3159.623	-512.5261	1	3200.922	-9.213761	-4.185023E-008	0.005387	7
	17	24	20015.62	3225.29	-550.9879	1	3272.015	-9.69446	-3.682608E-008	0.0053194	7
	18	26	15890.62	3286.555	-606.3411	1	3342.019	-10.45304	-6.87461E-008	0.0054087	7
	19	27	12609.37	3359.941	-665.2656	1	3425.169	-11.19966	-4.605862E-008	0.0053928	7
	20	28	10078.13	3438.571	-732.4854	1	3515.722	-12.02542	7.917559E-008	0.0052512	7
	21	30	8015.625	3526.368	-803.9782	1	3616.856	-12.84336	-5.070143E-008	0.0054447	7
	22	31	6328.125	3623.758	-892.4308	1	3732.031	-13.83504	-3.733091E-008	0.0053256	7
	23	32	5015.625	3726.672	-988.103	1	3855.442	-14.84992	-8.536312E-009	0.0052564	7
	24	34	3984.375	3833.959	-1097.692	1	3988.003	-15.97682	-3.669174E-008	0.0053045	7
	25	35	3170.956	3943.341	-1216.139	1	4126.612	-17.13993	4.501317E-008	0.005146	7
	26	37	2527.573	4054.319	-1361.745	1	4276.897	-18.56593	-4.378489E-008	0.0053797	7
	27	38	1976.103	4175.018	-1553.269	1	4454.595	-20.40716	-1.371271E-009	0.0053012	7
	28	39	1577.524	4280.311	-1768.029	1	4631.089	-22.44361	3.570708E-010	0.005303	7
	29	41	1265.625	4386.646	-2035.285	1	4835.809	-24.89002	7.908188E-008	0.0051308	7
	30	42	998.264	4505.211	-2394.081	1	5101.818	-27.9863	4.525363E-008	0.0051452	7
	31	43	796.875	4623.087	-2821.994	1	5416.326	-31.40045	-3.871231E-008	0.0053427	7
	32	45	627.7902	4756.333	-3394.042	1	5843.135	-35.51103	-7.975827E-009	0.0053206	7
	33	46	505.5147	4892.676	-4033.16	1	6340.714	-39.49965	7.420151E-008	0.005167	7
	34	47	397.9953	5064.584	-4917.11	1	7058.894	-44.15355	5.283917E-009	0.0053021	7
	35	49	315.5048	5259.433	-5990.478	1	7971.666	-48.71798	6.069537E-009	0.0053071	7
	36	50	252.4038	5483.96	-7268.146	1	9104.931	-52.96473	4.725385E-009	0.0053044	7
	37	51	198.6229	5781.426	-8972.004	1	10673.41	-57.20287	8.562316E-010	0.0052469	6
	38	53	158.3615	6134.686	-10971.77	1	12570.37	-60.78898	4.990413E-010	0.0052479	6
	39	54	125.558	6588.104	-13496.79	1	15018.87	-63.98189	1.535224E-009	0.005249	6
	40	55	100.4464	7150.423	-16467.71	1	17953.11	-66.52909	-2.510828E-011	0.0052496	6
	41	57	79.00281	7914.255	-20396.91	1	21878.51	-68.79312	4.57978E-010	0.0052489	6
	42	58	63.3446	8714.029	-24756.78	1	26245.62	-70.60867	2.638695E-010	0.0052422	6
	43	60	49.86702	10330	-30755.27	1	32443.73	-71.43397	-2.542541E-010	0.0052432	6
	44	61	39.72458	11862.25	-37699.59	1	39521.79	-72.53371	3.841139E-010	0.0052505	6
	45	62	31.6723	14029.27	-45884.34	1	47981.18	-72.99884	3.15076E-010	0.0052417	6
	46	64	24.93351	17045.27	-56643.28	1	59152.36	-73.25224	6.704758E-010	0.0052396	6
	47	65	19.86229	20815.29	-68831.3	1	71909.83	-73.17414	1.073827E-009	0.0052395	6
	48	66	15.83615	26039.1	-83512.98	1	87478.3	-72.68267	-4.024551E-010	0.0052411	6
	49	68	12.40079	32944.28	-102285.5	1	107460	-72.14721	-2.66057E-010	0.0052436	5
	50	69	9.93114	41197.87	-122325.2	1	129076.4	-71.387	5.266424E-011	0.0052468	5
	51	71	7.944915	52568.85	-146124.7	1	155293	-70.21364	3.566554E-010	0.0052422	5
	52	73	6.317385	66243.66	-173404.3	1	185626.7	-69.09221	6.152293E-010	0.0052466	5
	53	75	5.008013	83944.49	-205923.7	1	222376.4	-67.82181	5.46321E-010	0.0052524	5
	54	77	3.945707	106625.7	-243776.7	1	266075.4	-66.37587	-1.292997E-011	0.0052382	5
	55	80	3.158693	131868	-283481.3	1	312651.3	-65.0534	3.884729E-010	0.0052608	5
	56	83	2.504006	163099.7	-330595.1	1	368638.9	-63.74049	-2.141085E-010	0.0052457	5
	57	86	1.998082	198056.3	-381416.8	1	429773.3	-62.55874	1.063007E-010	0.0052118	5
	58	89	1.584686	237404.8	-438598	1	498727.6	-61.57415	-2.503393E-010	0.0052717	5
	59	93	1.266892	284047.3	-506311.1	1	580546.1	-60.70699	-7.401995E-011	0.0052064	5
	60	97	0.999041	338268.6	-583856.7	1	674769.8	-59.91332	5.048363E-010	0.0052857	5
