EXPLAIN
TAG	EISPOT
TITLE	LABEL	Potentiostatic EIS	Test &Identifier
DATE	LABEL	9/26/2019	Date
TIME	LABEL	10:27:36	Time
NOTES	NOTES	2	&Notes...
	
	
PSTAT	PSTAT	REF600-11020	Potentiostat
VDC	POTEN	0.00000E+000	T	DC &Voltage (V)
FREQINIT	QUANT	1.00000E+006	Initial Fre&q. (Hz)
FREQFINAL	QUANT	1.00000E+000	Final Fre&q. (Hz)
PTSPERDEC	QUANT	1.00000E+001	Points/&decade
VAC	QUANT	2.50000E+001	AC &Voltage (mV rms)
AREA	QUANT	1.00000E-002	&Area (cm^2)
CONDIT	TWOPARAM	T	5.00000E+000	0.00000E+000	Conditionin&g	Time(s)	E(V)
DELAY	TWOPARAM	T	5.00000E+000	0.00000E+000	Init. De&lay	Time(s)	Stab.(mV/s)
SPEED	SELECTOR	1	&Optimize for:
ZGUESS	QUANT	1.00000E+004	E&stimated Z (ohms)
OCVCURVE	TABLE	19
	Pt	T	Vf	Vm	Ach	Over
	#	s	V vs. Ref.	V	V	bits
	0	0.258333	6.83355E-002	6.83355E-002	5.76066E-004	...........
	1	0.516667	6.84223E-002	7.28780E-002	5.77199E-004	...........
	2	0.775	6.89515E-002	7.69889E-002	5.75066E-004	...........
	3	1.03333	7.04320E-002	8.07250E-002	5.76099E-004	...........
	4	1.29167	7.30357E-002	8.41130E-002	5.75599E-004	...........
	5	1.55	7.64129E-002	8.72390E-002	5.76066E-004	...........
	6	1.80833	8.00356E-002	9.01109E-002	5.79399E-004	...........
	7	2.06667	8.35367E-002	9.27669E-002	5.75265E-004	...........
	8	2.325	8.67693E-002	9.52490E-002	5.80899E-004	...........
	9	2.58333	8.97212E-002	9.75298E-002	5.79066E-004	...........
	10	2.84167	9.24283E-002	9.97146E-002	5.76232E-004	...........
	11	3.1	9.49328E-002	1.01820E-001	5.76032E-004	...........
	12	3.35833	9.72735E-002	1.03800E-001	5.76532E-004	...........
	13	3.61667	9.94821E-002	1.05675E-001	5.78066E-004	...........
	14	3.875	1.01577E-001	1.07426E-001	5.78532E-004	...........
	15	4.13333	1.03564E-001	1.09087E-001	5.79166E-004	...........
	16	4.39167	1.05443E-001	1.10632E-001	5.81832E-004	...........
	17	4.65	1.07214E-001	1.12140E-001	5.80565E-004	...........
	18	4.90833	1.08886E-001	1.13593E-001	5.80065E-004	...........
EOC	QUANT	0.1088863	Open Circuit (V)
PSTATMODEL	IQUANT	4	Pstat Model
PSTATSECTION	LABEL	REF600-11020	Pstat Section
PSTATSERIALNO	LABEL	11020	Pstat Serial Number
CTRLMODE	IQUANT	1	Control Mode
IESTAB	IQUANT	0	I/E Stability
CASPEED	IQUANT	1	Control Amp Speed
CONVENTION	IQUANT	1	Current Convention
ICHRANGE	IQUANT	2	Ich Range
ICHRANGEMODE	TOGGLE	F	Ich Auto Range
ICHOFFSETENABLE	TOGGLE	T	Ich Offset Enable
ICHOFFSET	QUANT	0	Ich Offset (V)
ICHFILTER	IQUANT	3	Ich Filter
VCHRANGE	IQUANT	2	Vch Range
VCHRANGEMODE	TOGGLE	F	Vch Auto Range
VCHOFFSETENABLE	TOGGLE	T	Vch Offset Enable
VCHOFFSET	QUANT	0	Vch Offset (V)
VCHFILTER	IQUANT	3	Vch Filter
ACHRANGE	IQUANT	2	Ach Range
ACHOFFSETENABLE	TOGGLE	F	Ach Offset Enable
ACHOFFSET	QUANT	0	Ach Offset (V)
ACHFILTER	IQUANT	3	Ach Filter
IERANGELOWERLIMIT	IQUANT	1	I/E Range Lower Limit
IERANGEMODE	TOGGLE	F	I/E AutoRange
IERANGE	IQUANT	7	I/E Range
POSFEEDENABLE	TOGGLE	F	Positive Feedback IR Comp
POSFEEDRESISTANCE	QUANT	0	Positive Feedback Resistance (ohm)
ACHSELECT	IQUANT	0	Ach Select
CABLEID	IQUANT	14	Cable ID
DCCALDATE	LABEL	8/19/2019	DC Calibration Date
ACCALDATE	LABEL	8/19/2019	AC Calibration Date
THERMOSELECT	IQUANT	1	Thermo Select
FRAMEWORKVERSION	QUANT	6.33	Framework Version
INSTRUMENTVERSION	LABEL	3.50	Instrument Version
ZCURVE	TABLE
	Pt	Time	Freq	Zreal	Zimag	Zsig	Zmod	Zphz	Idc	Vdc	IERange
	#	s	Hz	ohm	ohm	V	ohm	°	A	V	#
	0	2	1000078	1897.322	-2201.87	1	2906.555	-49.24897	8.781121E-007	0.1106463	8
	1	3	794390.6	2269.218	-2402.806	1	3304.97	-46.63783	1.235314E-006	0.1104048	8
	2	5	630984.4	2656.203	-2585.102	1	3706.503	-44.22281	-7.56646E-007	0.110775	8
	3	6	501234.4	3081.872	-2774.072	1	4146.493	-41.99119	9.206694E-007	0.1107059	8
	4	8	398109.4	3519.748	-2942.776	1	4587.871	-39.89818	3.180956E-006	0.1099414	8
	5	9	316265.6	4024.049	-3092.605	1	5075.152	-37.54338	-3.446163E-006	0.111235	8
	6	11	251203.1	4583.934	-3213.355	1	5598.045	-35.03061	1.297023E-007	0.1106135	8
	7	12	199546.9	5161.172	-3331.954	1	6143.257	-32.84551	-8.271003E-007	0.1108472	8
	8	14	158578.1	5725.463	-3359.839	1	6638.482	-30.40543	1.572179E-008	0.1106086	8
	9	16	125953.1	6413.098	-3253.209	1	7191.049	-26.89758	-1.513409E-006	0.1136947	7
	10	17	100078.1	6976.853	-3167.689	1	7662.292	-24.4194	-4.859805E-008	0.1105202	7
	11	19	79453.13	7525.592	-3055.267	1	8122.143	-22.09635	-9.072404E-008	0.1106438	7
	12	21	63140.62	8031.66	-2884.245	1	8533.84	-19.7537	8.074927E-008	0.1103221	7
	13	22	50203.12	8490.482	-2685.406	1	8905.038	-17.55134	-8.969506E-008	0.1106436	7
	14	24	39890.62	8904.024	-2477.196	1	9242.194	-15.54714	-3.60222E-008	0.1104882	7
	15	25	31640.63	9242.791	-2257.759	1	9514.55	-13.72697	-4.348494E-008	0.1105095	7
	16	27	25171.88	9518.31	-2067.628	1	9740.29	-12.25576	-1.298546E-008	0.1105281	7
	17	28	20015.62	9778.56	-1873.416	1	9956.4	-10.84554	-1.818218E-008	0.1104485	7
	18	30	15890.62	9986.74	-1706.854	1	10131.55	-9.69883	-4.607105E-008	0.110539	7
	19	32	12609.37	10231.38	-1451.1	1	10333.77	-8.07233	-1.340538E-008	0.1105429	6
	20	33	10078.13	10370.53	-1372.883	1	10461.01	-7.541143	-1.237859E-008	0.1105398	6
	21	35	8015.625	10490.64	-1322.85	1	10573.71	-7.186959	-1.405695E-008	0.110531	6
	22	36	6328.125	10610.86	-1306.103	1	10690.94	-7.017306	1.490198E-008	0.1100964	6
	23	38	5015.625	10707.97	-1326.253	1	10789.79	-7.060505	-7.39749E-009	0.1103414	6
	24	39	3984.375	10803.72	-1385.321	1	10892.17	-7.306954	-8.628523E-010	0.1103102	6
	25	41	3170.956	10897.63	-1485.498	1	10998.41	-7.76237	-8.592643E-009	0.1104207	6
	26	43	2527.573	10995.77	-1631.658	1	11116.17	-8.440504	-1.598126E-008	0.1105141	6
	27	44	1976.103	11100.02	-1856.798	1	11254.25	-9.49644	-1.182237E-008	0.1104754	6
	28	46	1577.524	11197.56	-2132.26	1	11398.77	-10.78129	-6.850951E-009	0.1103356	6
	29	47	1265.625	11380.83	-2505.94	1	11653.45	-12.41778	-8.747308E-010	0.1104936	6
	30	49	998.264	11517.39	-2974.648	1	11895.33	-14.48157	1.455745E-008	0.1100941	6
	31	50	796.875	11683.88	-3597.303	1	12225.13	-17.11286	-1.381483E-008	0.1105221	6
	32	52	627.7902	11886.13	-4339.283	1	12653.44	-20.05567	-1.256216E-008	0.110645	6
	33	53	505.5147	12108.56	-5157.833	1	13161.33	-23.07234	-1.104856E-008	0.1104663	6
	34	55	397.9953	12088.29	-6414.302	1	13684.67	-27.95136	1.388317E-009	0.1104499	6
	35	56	315.5048	12352.94	-7800.997	1	14609.95	-32.27279	1.754542E-010	0.1104518	6
	36	57	252.4038	12668.53	-9423.388	1	15788.98	-36.64342	3.243109E-009	0.1104522	6
	37	59	198.6229	13074.23	-11542.23	1	17440.14	-41.43882	3.126494E-009	0.1104513	6
	38	60	158.3615	13721.12	-13994.02	1	19598.51	-45.56415	9.218857E-010	0.1104484	6
	39	61	125.558	14888.56	-17053.65	1	22638.37	-48.87766	-1.452309E-008	0.1104509	6
	40	63	100.4464	15706.55	-20563.06	1	25875.38	-52.62657	5.736013E-010	0.110453	6
	41	64	79.00281	17098.74	-25040.13	1	30321.19	-55.67265	2.100865E-009	0.1104459	6
	42	66	63.3446	19106.68	-29892.3	1	35476.96	-57.41394	8.686268E-010	0.1104409	6
	43	67	49.86702	20977.33	-36847.5	1	42400.32	-60.34708	1.016613E-009	0.110441	6
	44	68	39.72458	24148.45	-43959.1	1	50155.26	-61.21829	-2.048298E-010	0.1104462	6
	45	70	31.6723	27693.3	-52572.9	1	59420.78	-62.22153	1.441556E-009	0.1104511	6
	46	71	24.93351	32715.15	-62914.82	1	70912.31	-62.52596	-5.918614E-010	0.1104474	6
	47	73	19.86229	38500.48	-74651.98	1	83995.27	-62.71836	-1.440987E-009	0.1104535	6
	48	74	15.83615	46081.3	-88012.46	1	99346.3	-62.36448	-2.550072E-009	0.1104492	6
	49	75	12.40079	53782.93	-105430	1	118355.8	-62.97254	-1.019627E-009	0.1104517	5
	50	77	9.93114	64192.07	-122622.7	1	138408.7	-62.36828	-1.270576E-009	0.1104536	5
	51	78	7.944915	77208.13	-143648.2	1	163082.5	-61.74283	-1.372567E-009	0.1104494	5
	52	80	6.317385	91393.95	-167828.1	1	191099.8	-61.42866	-1.221078E-009	0.1104637	5
	53	82	5.008013	109825.8	-196391.6	1	225014.2	-60.78529	-1.274584E-009	0.1104542	5
	54	85	3.945707	132902.1	-229608.6	1	265298	-59.93688	-1.468472E-009	0.110453	5
	55	87	3.158693	158838.1	-263855.1	1	307975.7	-58.95248	-1.907196E-009	0.1104618	5
	56	91	2.504006	190682.1	-304757.3	1	359495.1	-57.9664	-1.186104E-009	0.1104407	5
	57	93	1.998082	223686	-347007.7	1	412855.7	-57.1936	-2.354883E-009	0.1104626	5
	58	96	1.584686	265461.2	-396356.4	1	477040.9	-56.18766	-1.805703E-009	0.1105055	5
	59	100	1.266892	309326.2	-450803.7	1	546723.6	-55.54342	-3.515042E-009	0.1104577	5
	60	104	0.999041	361310.8	-516722.4	1	630513.8	-55.03738	-1.384288E-009	0.1104669	5
