EXPLAIN
TAG	EISPOT
TITLE	LABEL	Potentiostatic EIS	Test &Identifier
DATE	LABEL	10/2/2019	Date
TIME	LABEL	9:45:02	Time
NOTES	NOTES	2	&Notes...
	
	
PSTAT	PSTAT	REF600-11020	Potentiostat
VDC	POTEN	0.00000E+000	T	DC &Voltage (V)
FREQINIT	QUANT	1.00000E+006	Initial Fre&q. (Hz)
FREQFINAL	QUANT	1.00000E+000	Final Fre&q. (Hz)
PTSPERDEC	QUANT	1.00000E+001	Points/&decade
VAC	QUANT	2.50000E+001	AC &Voltage (mV rms)
AREA	QUANT	1.00000E-002	&Area (cm^2)
CONDIT	TWOPARAM	T	5.00000E+000	0.00000E+000	Conditionin&g	Time(s)	E(V)
DELAY	TWOPARAM	T	5.00000E+000	0.00000E+000	Init. De&lay	Time(s)	Stab.(mV/s)
SPEED	SELECTOR	1	&Optimize for:
ZGUESS	QUANT	1.00000E+004	E&stimated Z (ohms)
OCVCURVE	TABLE	19
	Pt	T	Vf	Vm	Ach	Over
	#	s	V vs. Ref.	V	V	bits
	0	0.258333	2.52835E-003	2.52835E-003	5.67299E-004	...........
	1	0.516667	2.52230E-003	2.21169E-003	5.74765E-004	...........
	2	0.775	2.48534E-003	1.92123E-003	5.71999E-004	...........
	3	1.03333	2.38196E-003	1.67242E-003	5.70999E-004	...........
	4	1.29167	2.20070E-003	1.43364E-003	5.70032E-004	...........
	5	1.55	1.96589E-003	1.18357E-003	5.70532E-004	...........
	6	1.80833	1.71216E-003	9.94395E-004	5.67632E-004	...........
	7	2.06667	1.46383E-003	8.25998E-004	5.64466E-004	...........
	8	2.325	1.23446E-003	6.60567E-004	5.68066E-004	...........
	9	2.58333	1.03001E-003	5.45554E-004	5.64999E-004	...........
	10	2.84167	8.51072E-004	4.22866E-004	5.68199E-004	...........
	11	3.1	6.95034E-004	2.85362E-004	5.69732E-004	...........
	12	3.35833	5.55036E-004	1.21322E-004	5.66699E-004	...........
	13	3.61667	4.21613E-004	5.09398E-005	5.61532E-004	...........
	14	3.875	2.83616E-004	-4.52206E-004	5.64366E-004	...........
	15	4.13333	7.28203E-005	-3.08816E-003	5.61099E-004	...........
	16	4.39167	-3.76819E-004	-3.10087E-003	5.59432E-004	...........
	17	4.65	-1.14072E-003	-3.15287E-003	5.64599E-004	...........
	18	4.90833	-1.98382E-003	-1.85312E-003	5.61866E-004	...........
EOC	QUANT	-0.0019838	Open Circuit (V)
PSTATMODEL	IQUANT	4	Pstat Model
PSTATSECTION	LABEL	REF600-11020	Pstat Section
PSTATSERIALNO	LABEL	11020	Pstat Serial Number
CTRLMODE	IQUANT	1	Control Mode
IESTAB	IQUANT	0	I/E Stability
CASPEED	IQUANT	1	Control Amp Speed
CONVENTION	IQUANT	1	Current Convention
ICHRANGE	IQUANT	2	Ich Range
ICHRANGEMODE	TOGGLE	F	Ich Auto Range
ICHOFFSETENABLE	TOGGLE	T	Ich Offset Enable
ICHOFFSET	QUANT	0	Ich Offset (V)
ICHFILTER	IQUANT	3	Ich Filter
VCHRANGE	IQUANT	2	Vch Range
VCHRANGEMODE	TOGGLE	F	Vch Auto Range
VCHOFFSETENABLE	TOGGLE	T	Vch Offset Enable
VCHOFFSET	QUANT	0	Vch Offset (V)
VCHFILTER	IQUANT	3	Vch Filter
ACHRANGE	IQUANT	2	Ach Range
ACHOFFSETENABLE	TOGGLE	F	Ach Offset Enable
ACHOFFSET	QUANT	0	Ach Offset (V)
ACHFILTER	IQUANT	3	Ach Filter
IERANGELOWERLIMIT	IQUANT	1	I/E Range Lower Limit
IERANGEMODE	TOGGLE	F	I/E AutoRange
IERANGE	IQUANT	5	I/E Range
POSFEEDENABLE	TOGGLE	F	Positive Feedback IR Comp
POSFEEDRESISTANCE	QUANT	0	Positive Feedback Resistance (ohm)
ACHSELECT	IQUANT	0	Ach Select
CABLEID	IQUANT	14	Cable ID
DCCALDATE	LABEL	8/19/2019	DC Calibration Date
ACCALDATE	LABEL	8/19/2019	AC Calibration Date
THERMOSELECT	IQUANT	1	Thermo Select
FRAMEWORKVERSION	QUANT	6.33	Framework Version
INSTRUMENTVERSION	LABEL	3.50	Instrument Version
ZCURVE	TABLE
	Pt	Time	Freq	Zreal	Zimag	Zsig	Zmod	Zphz	Idc	Vdc	IERange
	#	s	Hz	ohm	ohm	V	ohm	°	A	V	#
	0	1	1000078	2446.581	-1861.634	1	3074.319	-37.26796	-1.704257E-006	0.0007478	8
	1	3	794390.6	2819.844	-1784.78	1	3337.208	-32.33118	-5.092949E-006	0.0011984	8
	2	5	630984.4	3152.741	-1657.116	1	3561.714	-27.72692	-2.151465E-006	0.0004224	8
	3	6	501234.4	3451.526	-1497.418	1	3762.352	-23.45325	-8.749381E-007	3.946366E-005	8
	4	7	398109.4	3673.052	-1302.71	1	3897.226	-19.5279	4.736731E-006	-0.0012859	8
	5	9	316265.6	3846.792	-1133.801	1	4010.4	-16.42232	-2.966218E-006	-5.756572E-005	8
	6	10	251203.1	3996.29	-975.612	1	4113.654	-13.71923	-2.673872E-006	0.0001196	8
	7	12	199546.9	4086.492	-840.0573	1	4171.944	-11.61642	5.761129E-007	-0.0005603	8
	8	13	158578.1	4142.297	-714.2458	1	4203.424	-9.78317	-1.306481E-007	-0.0003571	8
	9	15	125953.1	4240.872	-564.0781	1	4278.221	-7.576438	1.248938E-006	-0.003214	7
	10	16	100078.1	4274.758	-507.504	1	4304.779	-6.770527	3.391164E-008	-0.0005299	7
	11	17	79453.13	4310.405	-460.4211	1	4334.926	-6.097	1.31228E-007	-0.0006935	7
	12	19	63140.62	4343.845	-425.8086	1	4364.666	-5.598574	8.113683E-008	-0.0006708	7
	13	20	50203.12	4374.784	-403.0151	1	4393.308	-5.263363	-3.51712E-008	-0.0004909	7
	14	21	39890.62	4405.275	-392.6523	1	4422.74	-5.093445	8.814452E-009	-0.000575	7
	15	23	31640.63	4435.481	-392.8482	1	4452.844	-5.061449	-4.592581E-008	-0.0004852	7
	16	24	25171.88	4466.458	-403.2967	1	4484.629	-5.159503	-2.845779E-008	-0.0005031	7
	17	25	20015.62	4497.886	-424.2417	1	4517.849	-5.388212	4.612581E-008	-0.0006469	7
	18	27	15890.62	4531.804	-457.0664	1	4554.795	-5.759234	-5.232668E-008	-0.0003468	7
	19	28	12609.37	4567.126	-500.9958	1	4594.523	-6.260091	-4.493505E-008	-0.0004762	7
	20	29	10078.13	4603.359	-557.5593	1	4637.002	-6.906031	9.066078E-009	-0.0005752	7
	21	31	8015.625	4643.113	-632.3555	1	4685.976	-7.75552	-4.953038E-009	-0.000465	7
	22	32	6328.125	4687.103	-728.1302	1	4743.322	-8.830181	7.00775E-008	-0.0006266	7
	23	33	5015.625	4734.759	-847.6432	1	4810.035	-10.14989	-4.464906E-008	-0.0004809	7
	24	35	3984.375	4786.515	-995.079	1	4888.855	-11.74406	3.614632E-008	-0.0005434	7
	25	36	3170.956	4843.948	-1173.174	1	4983.992	-13.61452	-1.599829E-008	-0.0005396	7
	26	38	2527.573	4908.053	-1392.191	1	5101.684	-15.83623	-7.582049E-008	-0.0003896	7
	27	39	1976.103	4987.532	-1684.522	1	5264.323	-18.66223	-3.498057E-008	-0.0004983	7
	28	40	1577.524	5072.995	-2014.829	1	5458.463	-21.66137	-3.86373E-008	-0.0004636	7
	29	42	1265.625	5173.858	-2410.844	1	5707.975	-24.98394	-1.317446E-008	-0.0004593	7
	30	43	998.264	5284.226	-2932.975	1	6043.623	-29.03218	-1.138109E-009	-0.0004971	7
	31	44	796.875	5412.133	-3539.093	1	6466.557	-33.1814	-4.487397E-008	-0.0004843	7
	32	46	627.7902	5571.024	-4332.909	1	7057.649	-37.87428	-2.77485E-008	-0.0005064	7
	33	47	505.5147	5764.26	-5216.834	1	7774.449	-42.14607	3.738632E-008	-0.0005477	7
	34	48	397.9953	5962.466	-6420.594	1	8762.137	-47.11877	5.129035E-009	-0.0004811	7
	35	50	315.5048	6225.659	-7868.713	1	10033.72	-51.64925	1.410402E-009	-0.0005479	6
	36	51	252.4038	6532.149	-9585.06	1	11599.24	-55.72586	8.984398E-010	-0.0005459	6
	37	52	198.6229	6940.751	-11860.21	1	13741.86	-59.66327	1.267484E-009	-0.0005439	6
	38	54	158.3615	7431.756	-14518.94	1	16310.44	-62.89362	1.540278E-009	-0.0005549	6
	39	55	125.558	8078.439	-17873.88	1	19614.71	-65.67851	1.272847E-009	-0.0005491	6
	40	56	100.4464	8869.296	-21819.36	1	23553.11	-67.87888	1.536907E-009	-0.0005538	6
	41	58	79.00281	10036.96	-27054.4	1	28856.21	-69.64557	5.235831E-010	-0.0005462	6
	42	59	63.3446	11441.45	-32745.38	1	34686.69	-70.74026	5.435842E-010	-0.0005599	6
	43	61	49.86702	13486.43	-40720.23	1	42895.46	-71.67527	7.15716E-011	-0.0005553	6
	44	62	39.72458	15796.89	-49617.07	1	52071.07	-72.33977	9.822345E-010	-0.0005443	6
	45	63	31.6723	19146.72	-60370.86	1	63334.33	-72.40349	7.135624E-010	-0.0005502	6
	46	65	24.93351	23655.95	-73939.8	1	77631.81	-72.2587	8.370078E-010	-0.0005459	6
	47	66	19.86229	29411.54	-89466.4	1	94176.83	-71.80203	8.614557E-010	-0.0005508	6
	48	67	15.83615	36999.97	-107106.7	1	113317.5	-70.94255	2.177525E-009	-0.0005461	5
	49	69	12.40079	47891.8	-130908.2	1	139393.7	-69.90533	-6.910762E-010	-0.0005518	5
	50	70	9.93114	59650.41	-155139	1	166211.5	-68.96842	2.92319E-010	-0.0005407	5
	51	72	7.944915	75680.59	-183182.9	1	198200.7	-67.55241	-3.415748E-010	-0.0005455	5
	52	73	6.317385	95498.7	-215725.3	1	235918.2	-66.12167	9.072991E-010	-0.0005437	5
	53	75	5.008013	120626.1	-253062.9	1	280341.8	-64.51452	6.55814E-010	-0.0005424	5
	54	78	3.945707	152493.2	-295654.1	1	332664.3	-62.71612	4.518642E-011	-0.0005581	5
	55	81	3.158693	187600.3	-339066.6	1	387504.8	-61.04493	5.032114E-010	-0.0005383	5
	56	84	2.504006	230795.4	-388588.5	1	451959.7	-59.29254	-3.099707E-010	-0.0005488	5
	57	87	1.998082	278268.9	-439205.1	1	519937.2	-57.64272	2.79064E-010	-0.0005913	5
	58	90	1.584686	331631.3	-495520.4	1	596254.8	-56.20724	2.208557E-011	-0.0005425	5
	59	93	1.266892	389737.9	-553127.7	1	676643.1	-54.83119	1.40887E-010	-0.0005945	5
	60	98	0.999041	454323.9	-625294.8	1	772919	-53.99876	2.25581E-010	-0.0005069	5
