EXPLAIN
TAG	EISPOT
TITLE	LABEL	Potentiostatic IDE	Test &Identifier
DATE	LABEL	9/18/2019	Date
TIME	LABEL	8:11:57	Time
NOTES	NOTES	1	&Notes...
	
PSTAT	PSTAT	REF600-11020	Potentiostat
VDC	POTEN	0.00000E+000	T	DC &Voltage (V)
FREQINIT	QUANT	1.00000E+006	Initial Fre&q. (Hz)
FREQFINAL	QUANT	1.00000E+000	Final Fre&q. (Hz)
PTSPERDEC	QUANT	1.00000E+001	Points/&decade
VAC	QUANT	2.50000E+001	AC &Voltage (mV rms)
AREA	QUANT	1.00000E-002	&Area (cm^2)
CONDIT	TWOPARAM	T	5.00000E+000	0.00000E+000	Conditionin&g	Time(s)	E(V)
DELAY	TWOPARAM	T	5.00000E+000	0.00000E+000	Init. De&lay	Time(s)	Stab.(mV/s)
SPEED	SELECTOR	1	&Optimize for:
ZGUESS	QUANT	1.00000E+007	E&stimated Z (ohms)
OCVCURVE	TABLE	18
	Pt	T	Vf	Vm	Ach	Over
	#	s	V vs. Ref.	V	V	bits
	0	0.258333	-1.92556E-002	-1.92556E-002	5.69766E-004	...........
	1	0.516667	-1.92798E-002	-2.05205E-002	5.65766E-004	...........
	2	0.775	-1.94273E-002	-2.16768E-002	5.70832E-004	...........
	3	1.03333	-1.98411E-002	-2.27372E-002	5.67299E-004	...........
	4	1.29167	-2.05715E-002	-2.37215E-002	5.69366E-004	...........
	5	1.55	-2.15243E-002	-2.46310E-002	5.69532E-004	...........
	6	1.80833	-2.25550E-002	-2.54750E-002	5.65766E-004	...........
	7	2.06667	-2.35612E-002	-2.62694E-002	5.71266E-004	...........
	8	2.325	-2.45006E-002	-2.70167E-002	5.73932E-004	...........
	9	2.58333	-2.53685E-002	-2.77205E-002	5.69766E-004	...........
	10	2.84167	-2.61743E-002	-2.83838E-002	5.69832E-004	...........
	11	3.1	-2.69280E-002	-2.90046E-002	5.69932E-004	...........
	12	3.35833	-2.76363E-002	-2.95971E-002	5.71766E-004	...........
	13	3.61667	-2.83035E-002	-3.01607E-002	5.72332E-004	...........
	14	3.875	-2.89336E-002	-3.06990E-002	5.66566E-004	...........
	15	4.13333	-2.95305E-002	-3.12048E-002	5.66999E-004	...........
	16	4.39167	-3.00973E-002	-3.16889E-002	5.63866E-004	...........
	17	4.65	-3.06358E-002	-3.21503E-002	5.72199E-004	...........
EOC	QUANT	-0.0311477	Open Circuit (V)
PSTATMODEL	IQUANT	4	Pstat Model
PSTATSECTION	LABEL	REF600-11020	Pstat Section
PSTATSERIALNO	LABEL	11020	Pstat Serial Number
CTRLMODE	IQUANT	1	Control Mode
IESTAB	IQUANT	0	I/E Stability
CASPEED	IQUANT	1	Control Amp Speed
CONVENTION	IQUANT	1	Current Convention
ICHRANGE	IQUANT	2	Ich Range
ICHRANGEMODE	TOGGLE	F	Ich Auto Range
ICHOFFSETENABLE	TOGGLE	T	Ich Offset Enable
ICHOFFSET	QUANT	0	Ich Offset (V)
ICHFILTER	IQUANT	3	Ich Filter
VCHRANGE	IQUANT	2	Vch Range
VCHRANGEMODE	TOGGLE	F	Vch Auto Range
VCHOFFSETENABLE	TOGGLE	T	Vch Offset Enable
VCHOFFSET	QUANT	0	Vch Offset (V)
VCHFILTER	IQUANT	3	Vch Filter
ACHRANGE	IQUANT	2	Ach Range
ACHOFFSETENABLE	TOGGLE	F	Ach Offset Enable
ACHOFFSET	QUANT	0	Ach Offset (V)
ACHFILTER	IQUANT	3	Ach Filter
IERANGELOWERLIMIT	IQUANT	1	I/E Range Lower Limit
IERANGEMODE	TOGGLE	F	I/E AutoRange
IERANGE	IQUANT	3	I/E Range
POSFEEDENABLE	TOGGLE	F	Positive Feedback IR Comp
POSFEEDRESISTANCE	QUANT	0	Positive Feedback Resistance (ohm)
ACHSELECT	IQUANT	0	Ach Select
CABLEID	IQUANT	14	Cable ID
DCCALDATE	LABEL	8/19/2019	DC Calibration Date
ACCALDATE	LABEL	8/19/2019	AC Calibration Date
THERMOSELECT	IQUANT	1	Thermo Select
FRAMEWORKVERSION	QUANT	6.33	Framework Version
INSTRUMENTVERSION	LABEL	3.50	Instrument Version
ZCURVE	TABLE
	Pt	Time	Freq	Zreal	Zimag	Zsig	Zmod	Zphz	Idc	Vdc	IERange
	#	s	Hz	ohm	ohm	V	ohm	°	A	V	#
	0	1	1000078	2072.573	-1520.523	1	2570.515	-36.26528	-1.777597E-006	-0.0287071	8
	1	3	794390.6	2374.109	-1465.016	1	2789.742	-31.67791	5.288861E-007	-0.0292682	8
	2	4	630984.4	2645.667	-1372.062	1	2980.287	-27.41158	1.401964E-006	-0.0297063	8
	3	5	501234.4	2887.6	-1258.127	1	3149.781	-23.54276	3.167164E-007	-0.0296633	8
	4	7	398109.4	3072.918	-1126.529	1	3272.902	-20.13288	-1.840531E-006	-0.0292021	8
	5	8	316265.6	3234.02	-975.074	1	3377.818	-16.77833	2.001582E-007	-0.0296588	8
	6	9	251203.1	3354.516	-860.6069	1	3463.152	-14.389	7.164886E-008	-0.029672	8
	7	11	199546.9	3450.659	-742.4153	1	3529.622	-12.14219	1.235647E-006	-0.0298635	8
	8	12	158578.1	3521.431	-647.2124	1	3580.414	-10.4143	7.06535E-009	-0.0296557	8
	9	13	125953.1	3593.145	-543.3397	1	3633.994	-8.598872	4.385219E-008	-0.0297999	7
	10	15	100078.1	3632.756	-480.6564	1	3664.417	-7.537126	4.00625E-008	-0.0296905	7
	11	16	79453.13	3673.13	-439.1602	1	3699.29	-6.817933	-2.035825E-008	-0.0296705	7
	12	17	63140.62	3709.808	-409.9178	1	3732.386	-6.305358	-1.786417E-008	-0.0296871	7
	13	19	50203.12	3743.95	-390.5902	1	3764.269	-5.955878	-2.267108E-008	-0.0296476	7
	14	20	39890.62	3779.661	-378.0325	1	3798.519	-5.711589	9.295808E-009	-0.0296494	7
	15	21	31640.63	3810.3	-379.1743	1	3829.12	-5.682963	-1.400425E-008	-0.0296157	7
	16	23	25171.88	3843.546	-387.1158	1	3862.991	-5.751345	-3.907954E-008	-0.029633	7
	17	24	20015.62	3878.296	-404.5041	1	3899.333	-5.95439	-8.836358E-009	-0.0296514	7
	18	25	15890.62	3916.366	-432.2872	1	3940.152	-6.298791	-3.140298E-009	-0.0297315	7
	19	27	12609.37	3954.549	-468.349	1	3982.186	-6.754248	4.177833E-008	-0.0297063	7
	20	28	10078.13	3989.532	-515.2497	1	4022.667	-7.359038	1.111321E-008	-0.0296539	7
	21	29	8015.625	4035.677	-575.1026	1	4076.448	-8.110308	-2.909009E-009	-0.0297378	7
	22	31	6328.125	4083.312	-653.7293	1	4135.311	-9.095742	1.201647E-008	-0.0297045	7
	23	32	5015.625	4132.968	-749.756	1	4200.423	-10.28213	-1.527578E-009	-0.0297315	7
	24	33	3984.375	4186.115	-867.3693	1	4275.031	-11.70612	6.736309E-008	-0.0297717	7
	25	35	3170.956	4243.98	-1012.439	1	4363.072	-13.41763	9.605227E-009	-0.0297379	7
	26	36	2527.573	4307.849	-1188.657	1	4468.833	-15.42569	-2.01207E-008	-0.0296859	7
	27	37	1976.103	4386.495	-1425.396	1	4612.276	-18.00163	6.821942E-008	-0.0298112	7
	28	39	1577.524	4467.557	-1689.614	1	4776.386	-20.71644	-1.864396E-008	-0.0296816	7
	29	40	1265.625	4560.271	-2004.89	1	4981.531	-23.73234	2.036761E-008	-0.0297709	7
	30	41	998.264	4672.947	-2418.279	1	5261.607	-27.36184	-2.103665E-008	-0.0296917	7
	31	43	796.875	4794.34	-2902.356	1	5604.406	-31.18952	-1.279316E-008	-0.0296244	7
	32	44	627.7902	4944.009	-3525.308	1	6072.151	-35.49063	3.935526E-008	-0.0298036	7
	33	45	505.5147	5097.84	-4223.951	1	6620.403	-39.64435	4.331931E-008	-0.0297141	7
	34	47	397.9953	5301.628	-5168.645	1	7404.198	-44.27232	9.498547E-009	-0.0296793	7
	35	48	315.5048	5538.437	-6307.108	1	8393.683	-48.71278	8.956159E-009	-0.0296835	7
	36	49	252.4038	5815.712	-7652.838	1	9611.89	-52.76728	8.715187E-009	-0.0296857	7
	37	51	198.6229	6191.12	-9435.982	1	11285.73	-56.73039	4.381111E-009	-0.0297461	6
	38	52	158.3615	6641.374	-11516.84	1	13294.57	-60.02941	4.085456E-009	-0.0297455	6
	39	53	125.558	7241.532	-14127.93	1	15875.71	-62.86175	4.630046E-009	-0.0297477	6
	40	55	100.4464	7991.98	-17182.32	1	18950.04	-65.05553	3.865117E-009	-0.029749	6
	41	56	79.00281	9058.471	-21191.8	1	23046.66	-66.85564	4.19361E-009	-0.0297525	6
	42	58	63.3446	10338.18	-25839.29	1	27830.68	-68.19387	4.601916E-009	-0.0297474	6
	43	59	49.86702	12129.73	-31512.12	1	33766.02	-68.94716	4.809285E-009	-0.0297513	6
	44	60	39.72458	14579.62	-38269.98	1	40953.1	-69.14478	5.01185E-009	-0.0297479	6
	45	62	31.6723	17793.71	-46243.91	1	49549.13	-68.9543	3.785603E-009	-0.0297489	6
	46	63	24.93351	22117.5	-56145.54	1	60344.89	-68.49895	4.930079E-009	-0.0297537	6
	47	64	19.86229	27568.69	-67174.48	1	72611.59	-67.68655	5.087815E-009	-0.0297385	6
	48	66	15.83615	34442.64	-80082.97	1	87175.55	-66.72809	3.976694E-009	-0.0297457	6
	49	67	12.40079	44868.97	-95481.1	1	105498.2	-64.82999	4.509485E-009	-0.0297463	6
	50	68	9.93114	56199.86	-110952.1	1	124373.6	-63.1367	3.613202E-009	-0.0297418	5
	51	70	7.944915	69899.56	-127582.2	1	145475.7	-61.28261	5.502785E-009	-0.0297475	5
	52	72	6.317385	87433.75	-146276.7	1	170415.8	-59.13204	4.859204E-009	-0.0297614	5
	53	74	5.008013	108273.8	-166159.5	1	198323.4	-56.91071	3.608881E-009	-0.0297513	5
	54	76	3.945707	132871.7	-187423.4	1	229744.2	-54.66571	3.669223E-009	-0.0297409	5
	55	79	3.158693	158079.3	-207635.5	1	260962.8	-52.71685	3.489271E-009	-0.0297657	5
	56	82	2.504006	187399.9	-229964.3	1	296651.8	-50.82311	4.656692E-009	-0.0297474	5
	57	85	1.998082	218297.4	-251982.6	1	333390.2	-49.09698	3.922844E-009	-0.0297059	5
	58	88	1.584686	251296.2	-277246.2	1	374186.1	-47.81081	4.321151E-009	-0.0297336	5
	59	91	1.266892	286419.2	-302881.4	1	416861.1	-46.60015	3.689324E-009	-0.0297042	5
	60	96	0.999041	325117.7	-334425.1	1	466413.6	-45.80851	3.993102E-009	-0.0297669	5
