EXPLAIN
TAG	EISPOT
TITLE	LABEL	Potentiostatic EIS	Test &Identifier
DATE	LABEL	11/13/2019	Date
TIME	LABEL	0:19:06	Time
NOTES	NOTES	3	&Notes...
	
	
	
PSTAT	PSTAT	REF600-11020	Potentiostat
VDC	POTEN	0.00000E+000	T	DC &Voltage (V)
FREQINIT	QUANT	1.00000E+006	Initial Fre&q. (Hz)
FREQFINAL	QUANT	1.00000E+000	Final Fre&q. (Hz)
PTSPERDEC	QUANT	1.00000E+001	Points/&decade
VAC	QUANT	2.50000E+001	AC &Voltage (mV rms)
AREA	QUANT	1.00000E-002	&Area (cm^2)
CONDIT	TWOPARAM	T	5.00000E+000	0.00000E+000	Conditionin&g	Time(s)	E(V)
DELAY	TWOPARAM	T	5.00000E+000	0.00000E+000	Init. De&lay	Time(s)	Stab.(mV/s)
SPEED	SELECTOR	1	&Optimize for:
ZGUESS	QUANT	1.00000E+005	E&stimated Z (ohms)
OCVCURVE	TABLE	19
	Pt	T	Vf	Vm	Ach	Over
	#	s	V vs. Ref.	V	V	bits
	0	0.258333	7.09193E-003	7.09193E-003	5.56233E-004	...........
	1	0.516667	7.09227E-003	7.10980E-003	5.53866E-004	...........
	2	0.775	7.09341E-003	7.07680E-003	5.48299E-004	...........
	3	1.03333	7.09419E-003	7.08289E-003	5.58533E-004	...........
	4	1.29167	7.09258E-003	7.08764E-003	5.49466E-004	...........
	5	1.55	7.08976E-003	7.11580E-003	5.45399E-004	...........
	6	1.80833	7.09098E-003	7.16214E-003	5.47166E-004	...........
	7	2.06667	7.10163E-003	7.18328E-003	5.49299E-004	...........
	8	2.325	7.12279E-003	7.21277E-003	5.47033E-004	...........
	9	2.58333	7.15089E-003	7.25345E-003	5.58999E-004	...........
	10	2.84167	7.18210E-003	7.28952E-003	5.48466E-004	...........
	11	3.1	7.21532E-003	7.32940E-003	5.50066E-004	...........
	12	3.35833	7.25074E-003	7.37289E-003	5.57166E-004	...........
	13	3.61667	7.28844E-003	7.41613E-003	5.51166E-004	...........
	14	3.875	7.32830E-003	7.45887E-003	5.53066E-004	...........
	15	4.13333	7.36983E-003	7.49999E-003	5.51166E-004	...........
	16	4.39167	7.41227E-003	7.54560E-003	5.57266E-004	...........
	17	4.65	7.45506E-003	7.58707E-003	5.49399E-004	...........
	18	4.90833	7.49800E-003	7.62895E-003	5.45999E-004	...........
EOC	QUANT	0.007498	Open Circuit (V)
PSTATMODEL	IQUANT	4	Pstat Model
PSTATSECTION	LABEL	REF600-11020	Pstat Section
PSTATSERIALNO	LABEL	11020	Pstat Serial Number
CTRLMODE	IQUANT	1	Control Mode
IESTAB	IQUANT	0	I/E Stability
CASPEED	IQUANT	1	Control Amp Speed
CONVENTION	IQUANT	1	Current Convention
ICHRANGE	IQUANT	2	Ich Range
ICHRANGEMODE	TOGGLE	F	Ich Auto Range
ICHOFFSETENABLE	TOGGLE	T	Ich Offset Enable
ICHOFFSET	QUANT	0	Ich Offset (V)
ICHFILTER	IQUANT	3	Ich Filter
VCHRANGE	IQUANT	2	Vch Range
VCHRANGEMODE	TOGGLE	F	Vch Auto Range
VCHOFFSETENABLE	TOGGLE	T	Vch Offset Enable
VCHOFFSET	QUANT	0	Vch Offset (V)
VCHFILTER	IQUANT	3	Vch Filter
ACHRANGE	IQUANT	2	Ach Range
ACHOFFSETENABLE	TOGGLE	F	Ach Offset Enable
ACHOFFSET	QUANT	0	Ach Offset (V)
ACHFILTER	IQUANT	3	Ach Filter
IERANGELOWERLIMIT	IQUANT	1	I/E Range Lower Limit
IERANGEMODE	TOGGLE	F	I/E AutoRange
IERANGE	IQUANT	5	I/E Range
POSFEEDENABLE	TOGGLE	F	Positive Feedback IR Comp
POSFEEDRESISTANCE	QUANT	0	Positive Feedback Resistance (ohm)
ACHSELECT	IQUANT	0	Ach Select
CABLEID	IQUANT	14	Cable ID
DCCALDATE	LABEL	8/19/2019	DC Calibration Date
ACCALDATE	LABEL	8/19/2019	AC Calibration Date
THERMOSELECT	IQUANT	1	Thermo Select
FRAMEWORKVERSION	QUANT	6.33	Framework Version
INSTRUMENTVERSION	LABEL	3.50	Instrument Version
ZCURVE	TABLE
	Pt	Time	Freq	Zreal	Zimag	Zsig	Zmod	Zphz	Idc	Vdc	IERange
	#	s	Hz	ohm	ohm	V	ohm	°	A	V	#
	0	2	1000078	1943.55	-1695.549	1	2579.2	-41.10138	1.704932E-006	0.0092402	8
	1	3	794390.6	2260.735	-1742.035	1	2854.052	-37.61646	4.358379E-006	0.009296	8
	2	5	630984.4	2575.207	-1762.178	1	3120.41	-34.38329	5.727768E-006	0.0083986	8
	3	6	501234.4	2904.268	-1750.949	1	3391.253	-31.08529	-2.276135E-006	0.0095555	8
	4	8	398109.4	3225.157	-1704.819	1	3648.02	-27.86095	-4.676444E-007	0.0087823	8
	5	9	316265.6	3532.157	-1620.737	1	3886.248	-24.64812	7.903432E-007	0.0094052	8
	6	10	251203.1	3800.843	-1512.972	1	4090.903	-21.70564	-1.33675E-006	0.0094349	8
	7	12	199546.9	4041.594	-1386.165	1	4272.696	-18.93068	-1.479221E-006	0.0088409	8
	8	13	158578.1	4259.42	-1252.37	1	4439.717	-16.38458	-2.012213E-006	0.0091965	8
	9	14	125953.1	4458.135	-1070.585	1	4584.88	-13.50342	1.074612E-007	0.0115743	7
	10	16	100078.1	4586.992	-931.8994	1	4680.698	-11.48399	-2.729505E-007	0.0103608	7
	11	17	79453.13	4690.783	-835.3136	1	4764.577	-10.09713	6.281301E-007	0.0091885	7
	12	18	63140.62	4771.334	-734.6218	1	4827.556	-8.752853	4.611996E-007	0.0073553	7
	13	20	50203.12	4843.815	-661.3076	1	4888.75	-7.774309	9.703658E-007	0.0072968	7
	14	21	39890.62	4893.388	-602.1431	1	4930.296	-7.015117	4.610089E-007	0.0073508	7
	15	23	31640.63	4945.225	-566.3475	1	4977.549	-6.533285	4.068953E-007	0.0095152	7
	16	24	25171.88	4985.997	-541.3092	1	5015.294	-6.1961	9.004741E-008	0.0099431	7
	17	25	20015.62	5027.778	-536.8654	1	5056.36	-6.094941	9.710706E-007	0.0072942	7
	18	27	15890.62	5066.921	-539.1349	1	5095.523	-6.073582	9.710925E-007	0.0072968	7
	19	28	12609.37	5098.887	-564.626	1	5130.053	-6.318913	-2.713753E-007	0.0103457	7
	20	29	10078.13	5136.03	-616.1758	1	5172.86	-6.841147	-2.737397E-007	0.01034	7
	21	31	8015.625	5174.307	-665.8926	1	5216.979	-7.33321	-6.055958E-007	0.010593	7
	22	32	6328.125	5204.148	-755.3926	1	5258.686	-8.258919	-1.222716E-006	0.0104695	7
	23	34	5015.625	5264.755	-872.6135	1	5336.582	-9.411004	6.332168E-007	0.0091773	7
	24	35	3984.375	5308.593	-1016.637	1	5405.063	-10.84132	4.62184E-007	0.0073473	7
	25	36	3170.956	5352.404	-1194.637	1	5484.104	-12.58198	-8.823413E-007	0.0106786	7
	26	38	2527.573	5417.373	-1419.302	1	5600.21	-14.68101	-6.050114E-007	0.0105871	7
	27	39	1976.103	5504.18	-1725.705	1	5768.367	-17.40758	1.086443E-006	0.0075097	7
	28	40	1577.524	5565.353	-2031.308	1	5924.472	-20.05167	-1.222711E-006	0.0104609	7
	29	42	1265.625	5662.98	-2464.095	1	6175.849	-23.51499	-7.507437E-007	0.0088717	7
	30	43	998.264	5788.499	-3010.129	1	6524.385	-27.47529	-2.680325E-007	0.0103395	7
	31	45	796.875	5910.676	-3630.438	1	6936.582	-31.55896	-1.064311E-006	0.0095432	7
	32	46	627.7902	6073.896	-4454.369	1	7532.171	-36.25493	-1.224298E-006	0.0101094	7
	33	48	505.5147	6257.116	-5370.849	1	8246.061	-40.64142	-1.087169E-006	0.0106278	7
	34	49	397.9953	6492.99	-6637.847	1	9285.469	-45.63205	4.265529E-009	0.0090234	7
	35	50	315.5048	6776.628	-8140.386	1	10591.91	-50.22363	5.776421E-010	0.0089675	6
	36	52	252.4038	7111.08	-9918.69	1	12204.42	-54.36185	3.716314E-010	0.0089588	6
	37	53	198.6229	7565.526	-12270.45	1	14415.31	-58.34349	1.02155E-009	0.0089622	6
	38	54	158.3615	8119.464	-15010.87	1	17066.11	-61.5908	5.033107E-010	0.0089648	6
	39	56	125.558	8847.508	-18454.71	1	20465.94	-64.38613	4.486105E-010	0.0089632	6
	40	57	100.4464	9774.53	-22488.29	1	24520.7	-66.50784	5.153452E-010	0.008955	6
	41	59	79.00281	11018.11	-27837.27	1	29938.48	-68.40614	1.735411E-010	0.0089554	6
	42	60	63.3446	12440.85	-33942.97	1	36151.07	-69.87099	8.708136E-010	0.0089556	6
	43	61	49.86702	14622.23	-41432.72	1	43937.23	-70.5613	3.161355E-010	0.0089626	6
	44	63	39.72458	17466.32	-50533.67	1	53467.04	-70.93295	4.962357E-010	0.008967	6
	45	64	31.6723	21152.64	-61171.38	1	64725.36	-70.92497	7.559787E-010	0.0089636	6
	46	66	24.93351	26037.79	-74764.76	1	79169.03	-70.79868	5.661285E-010	0.0089668	6
	47	67	19.86229	32221.95	-90177.49	1	95761.3	-70.33733	1.883631E-010	0.0089599	6
	48	68	15.83615	40484.31	-108419.1	1	115731	-69.52407	1.411051E-009	0.0089716	5
	49	70	12.40079	51728.86	-130259.8	1	140155.3	-68.34095	6.422276E-010	0.0089741	5
	50	71	9.93114	65000.55	-154046.2	1	167198.4	-67.12245	7.777986E-011	0.0089735	5
	51	73	7.944915	81385.35	-180760.8	1	198237.3	-65.76093	6.016329E-010	0.0089631	5
	52	74	6.317385	103221.1	-211265.7	1	235133.5	-63.96059	6.252518E-010	0.0089677	5
	53	76	5.008013	129459.8	-245438.6	1	277488.6	-62.19001	4.246297E-010	0.0089758	5
	54	79	3.945707	161994.5	-283588.8	1	326595.8	-60.26368	-6.992893E-011	0.0089556	5
	55	82	3.158693	195321.2	-318696.6	1	373788.5	-58.49691	-3.545812E-010	0.0089749	5
	56	85	2.504006	236157.4	-365712	1	435333.9	-57.14777	4.492095E-011	0.0089558	5
	57	88	1.998082	280090.8	-409442.9	1	496078.9	-55.62484	-2.501705E-010	0.0089661	5
	58	91	1.584686	329385.7	-459878.4	1	565670.5	-54.38805	5.463354E-011	0.0090161	5
	59	94	1.266892	377873.1	-515114.3	1	638851.1	-53.73729	-2.354702E-010	0.0089776	5
	60	99	0.999041	437064.8	-584888.1	1	730150.5	-53.23063	2.316908E-010	0.0089601	5
