EXPLAIN
TAG	EISPOT
TITLE	LABEL	Potentiostatic IDE	Test &Identifier
DATE	LABEL	9/12/2019	Date
TIME	LABEL	9:39:49	Time
NOTES	NOTES	1	&Notes...
	
PSTAT	PSTAT	REF600-11020	Potentiostat
VDC	POTEN	0.00000E+000	T	DC &Voltage (V)
FREQINIT	QUANT	1.00000E+006	Initial Fre&q. (Hz)
FREQFINAL	QUANT	1.00000E+000	Final Fre&q. (Hz)
PTSPERDEC	QUANT	1.00000E+001	Points/&decade
VAC	QUANT	2.50000E+001	AC &Voltage (mV rms)
AREA	QUANT	1.00000E-002	&Area (cm^2)
CONDIT	TWOPARAM	T	5.00000E+000	0.00000E+000	Conditionin&g	Time(s)	E(V)
DELAY	TWOPARAM	T	5.00000E+000	0.00000E+000	Init. De&lay	Time(s)	Stab.(mV/s)
SPEED	SELECTOR	1	&Optimize for:
ZGUESS	QUANT	1.00000E+007	E&stimated Z (ohms)
OCVCURVE	TABLE	19
	Pt	T	Vf	Vm	Ach	Over
	#	s	V vs. Ref.	V	V	bits
	0	0.258333	4.21983E-003	4.21983E-003	5.87699E-004	...........
	1	0.516667	4.21120E-003	3.76807E-003	5.85732E-004	...........
	2	0.775	4.15894E-003	3.37846E-003	5.85099E-004	...........
	3	1.03333	4.01414E-003	3.03498E-003	5.84532E-004	...........
	4	1.29167	3.76270E-003	2.72307E-003	5.87632E-004	...........
	5	1.55	3.44146E-003	2.44396E-003	5.85299E-004	...........
	6	1.80833	3.10254E-003	2.18980E-003	5.88965E-004	...........
	7	2.06667	2.78079E-003	1.96426E-003	5.84632E-004	...........
	8	2.325	2.48936E-003	1.74894E-003	5.86632E-004	...........
	9	2.58333	2.22821E-003	1.55039E-003	5.84532E-004	...........
	10	2.84167	1.99217E-003	1.36605E-003	5.85665E-004	...........
	11	3.1	1.77579E-003	1.19055E-003	5.82499E-004	...........
	12	3.35833	1.57532E-003	1.03543E-003	5.86065E-004	...........
	13	3.61667	1.38880E-003	8.82928E-004	5.86165E-004	...........
	14	3.875	1.21503E-003	7.36680E-004	5.87599E-004	...........
	15	4.13333	1.05241E-003	5.97835E-004	5.84732E-004	...........
	16	4.39167	8.98925E-004	4.69276E-004	5.86032E-004	...........
	17	4.65	7.53291E-004	3.46888E-004	5.87399E-004	...........
	18	4.90833	6.15179E-004	2.29654E-004	5.82932E-004	...........
EOC	QUANT	0.0006152	Open Circuit (V)
PSTATMODEL	IQUANT	4	Pstat Model
PSTATSECTION	LABEL	REF600-11020	Pstat Section
PSTATSERIALNO	LABEL	11020	Pstat Serial Number
CTRLMODE	IQUANT	1	Control Mode
IESTAB	IQUANT	0	I/E Stability
CASPEED	IQUANT	1	Control Amp Speed
CONVENTION	IQUANT	1	Current Convention
ICHRANGE	IQUANT	2	Ich Range
ICHRANGEMODE	TOGGLE	F	Ich Auto Range
ICHOFFSETENABLE	TOGGLE	T	Ich Offset Enable
ICHOFFSET	QUANT	0	Ich Offset (V)
ICHFILTER	IQUANT	3	Ich Filter
VCHRANGE	IQUANT	2	Vch Range
VCHRANGEMODE	TOGGLE	F	Vch Auto Range
VCHOFFSETENABLE	TOGGLE	T	Vch Offset Enable
VCHOFFSET	QUANT	0	Vch Offset (V)
VCHFILTER	IQUANT	3	Vch Filter
ACHRANGE	IQUANT	2	Ach Range
ACHOFFSETENABLE	TOGGLE	F	Ach Offset Enable
ACHOFFSET	QUANT	0	Ach Offset (V)
ACHFILTER	IQUANT	3	Ach Filter
IERANGELOWERLIMIT	IQUANT	1	I/E Range Lower Limit
IERANGEMODE	TOGGLE	F	I/E AutoRange
IERANGE	IQUANT	2	I/E Range
POSFEEDENABLE	TOGGLE	F	Positive Feedback IR Comp
POSFEEDRESISTANCE	QUANT	0	Positive Feedback Resistance (ohm)
ACHSELECT	IQUANT	0	Ach Select
CABLEID	IQUANT	14	Cable ID
DCCALDATE	LABEL	8/19/2019	DC Calibration Date
ACCALDATE	LABEL	8/19/2019	AC Calibration Date
THERMOSELECT	IQUANT	1	Thermo Select
FRAMEWORKVERSION	QUANT	6.33	Framework Version
INSTRUMENTVERSION	LABEL	3.50	Instrument Version
ZCURVE	TABLE
	Pt	Time	Freq	Zreal	Zimag	Zsig	Zmod	Zphz	Idc	Vdc	IERange
	#	s	Hz	ohm	ohm	V	ohm	°	A	V	#
	0	2	1000078	2335.82	-1707.387	1	2893.307	-36.16524	2.202732E-006	0.0024512	8
	1	3	794390.6	2669.43	-1648.032	1	3137.175	-31.69004	-6.9379E-006	0.0038109	8
	2	5	630984.4	2976.189	-1545.578	1	3353.582	-27.4435	2.531337E-006	0.0020989	8
	3	6	501234.4	3248.211	-1406.784	1	3539.762	-23.4172	3.252238E-006	0.0015693	8
	4	8	398109.4	3458.018	-1257.696	1	3679.632	-19.98655	1.933633E-006	0.0016374	8
	5	9	316265.6	3618.127	-1118.895	1	3787.185	-17.18407	1.556975E-006	0.0018364	8
	6	10	251203.1	3761.1	-992.487	1	3889.846	-14.78236	1.707944E-006	0.0016834	8
	7	12	199546.9	3857.256	-882.107	1	3956.834	-12.88133	3.905234E-006	0.0014225	8
	8	13	158578.1	3943.297	-763.0855	1	4016.452	-10.9522	5.328687E-006	0.0011491	8
	9	15	125953.1	4033.63	-668.7275	1	4088.688	-9.413332	-3.839704E-007	0.0029109	7
	10	16	100078.1	4083.971	-626.8504	1	4131.799	-8.72625	1.375727E-007	0.0019151	7
	11	17	79453.13	4135.651	-606.6448	1	4179.907	-8.345013	-4.293321E-008	0.0021405	7
	12	19	63140.62	4189.431	-602.2507	1	4232.498	-8.180497	3.161758E-008	0.0020708	7
	13	20	50203.12	4244.43	-612.4453	1	4288.389	-8.210758	-4.622897E-008	0.0021359	7
	14	22	39890.62	4303.345	-631.2474	1	4349.396	-8.345067	8.799091E-008	0.0019278	7
	15	23	31640.63	4364.955	-673.4684	1	4416.604	-8.770997	3.298652E-008	0.0020741	7
	16	24	25171.88	4430.142	-726.0999	1	4489.251	-9.308014	-3.546187E-008	0.002115	7
	17	25	20015.62	4505.408	-793.6597	1	4574.778	-9.99056	1.387103E-007	0.0019072	7
	18	27	15890.62	4592.585	-871.0948	1	4674.468	-10.73995	-1.718125E-008	0.0022476	7
	19	28	12609.37	4680.959	-975.218	1	4781.468	-11.76851	-1.759851E-008	0.0021703	7
	20	30	10078.13	4785.851	-1090.698	1	4908.563	-12.83846	1.40695E-007	0.0019049	7
	21	31	8015.625	4898.348	-1224.057	1	5048.973	-14.03041	-2.452912E-008	0.0020955	7
	22	32	6328.125	5033.061	-1387.483	1	5220.805	-15.41214	-4.502256E-008	0.0021339	7
	23	34	5015.625	5185.969	-1574.24	1	5419.641	-16.88606	-2.867742E-010	0.0020358	7
	24	35	3984.375	5353.131	-1791.045	1	5644.808	-18.49916	-4.179868E-008	0.0021278	7
	25	36	3170.956	5542.654	-2039.076	1	5905.832	-20.19796	7.435307E-008	0.0020789	7
	26	38	2527.573	5755.079	-2320.07	1	6205.131	-21.95606	1.411011E-007	0.0018965	7
	27	39	1976.103	6019.058	-2675.121	1	6586.754	-23.96236	-3.929946E-008	0.0022432	7
	28	40	1577.524	6293.516	-3046.513	1	6992.109	-25.83031	4.797729E-008	0.0019471	7
	29	42	1265.625	6595.396	-3458.565	1	7447.208	-27.6721	-4.275962E-008	0.0021277	7
	30	43	998.264	6954.002	-3981.488	1	8013.139	-29.79314	-1.029786E-008	0.0021356	7
	31	44	796.875	7332.809	-4546.347	1	8627.825	-31.79894	-4.807714E-009	0.0021368	7
	32	45	627.7902	7763.618	-5237.357	1	9365.023	-34.00371	-6.991901E-008	0.0022027	7
	33	47	505.5147	8182.127	-5962.459	1	10124.14	-36.08148	3.266438E-009	0.0019391	6
	34	48	397.9953	8658.692	-6923.635	1	11086.46	-38.64641	1.435844E-009	0.0020495	6
	35	49	315.5048	9127.852	-8060.173	1	12177.19	-41.44549	1.613106E-009	0.0020414	6
	36	51	252.4038	9582.71	-9403.396	1	13425.8	-44.45889	1.094993E-009	0.0020417	6
	37	52	198.6229	10085.66	-11206.76	1	15076.87	-48.01398	6.984663E-010	0.0020442	6
	38	53	158.3615	10586.63	-13345.01	1	17034.27	-51.57495	6.129237E-010	0.002038	6
	39	55	125.558	11146.02	-16100.89	1	19582.46	-55.30666	6.814511E-010	0.0020416	6
	40	56	100.4464	11760.78	-19388.77	1	22676.87	-58.75997	1.480874E-009	0.0020405	6
	41	57	79.00281	12552.5	-23895.78	1	26992.1	-62.28698	1.274202E-009	0.0020379	6
	42	59	63.3446	13333.77	-28730.97	1	31674.25	-65.10442	9.523886E-010	0.002037	6
	43	60	49.86702	14851.37	-35960.77	1	38906.81	-67.55995	1.586607E-009	0.0020336	6
	44	62	39.72458	16350.34	-43777.75	1	46731.41	-69.52008	7.275164E-010	0.0020424	6
	45	63	31.6723	18447.26	-53718.45	1	56797.64	-71.0472	1.489108E-009	0.0020426	6
	46	64	24.93351	21149.39	-66351.34	1	69640.48	-72.3204	5.329584E-010	0.0020436	6
	47	66	19.86229	24746.32	-81218.77	1	84905.06	-73.0547	1.24084E-009	0.0020462	6
	48	67	15.83615	30187.81	-99300.3	1	103787.5	-73.09045	-1.064534E-009	0.0020405	6
	49	68	12.40079	36260.12	-123162.6	1	128389.3	-73.59512	-4.532525E-010	0.0020469	5
	50	70	9.93114	43832.57	-147580	1	153951.8	-73.45811	4.467641E-010	0.0020396	5
	51	71	7.944915	54146.12	-179055	1	187062.8	-73.17471	4.134698E-010	0.0020364	5
	52	73	6.317385	67475.78	-215682.2	1	225990.7	-72.62781	1.308195E-010	0.0020476	5
	53	75	5.008013	85343.62	-260804.8	1	274413.3	-71.88026	2.159124E-010	0.0020419	5
	54	77	3.945707	108252.6	-314741.6	1	332837.6	-71.01979	2.006925E-010	0.0020359	5
	55	80	3.158693	135018.8	-373777.7	1	397416.5	-70.13889	3.179366E-010	0.0020601	5
	56	83	2.504006	169793.1	-446083.6	1	477305.2	-69.16164	4.849511E-011	0.0020421	5
	57	86	1.998082	211300.4	-525746.3	1	566618.9	-68.10452	2.507391E-010	0.0020009	5
	58	89	1.584686	260931.4	-621584.3	1	674130.7	-67.2281	1.717969E-010	0.0020209	5
	59	93	1.266892	321002	-726474.5	1	794233.9	-66.16115	2.718276E-010	0.0020082	5
	60	97	0.999041	394309.2	-857735.8	1	944028.9	-65.31131	1.15682E-010	0.0020636	5
