EXPLAIN
TAG	EISPOT
TITLE	LABEL	Potentiostatic EIS	Test &Identifier
DATE	LABEL	10/16/2019	Date
TIME	LABEL	8:42:45	Time
NOTES	NOTES	1	&Notes...
	
PSTAT	PSTAT	REF600-11020	Potentiostat
VDC	POTEN	0.00000E+000	T	DC &Voltage (V)
FREQINIT	QUANT	1.00000E+005	Initial Fre&q. (Hz)
FREQFINAL	QUANT	1.00000E+000	Final Fre&q. (Hz)
PTSPERDEC	QUANT	1.00000E+001	Points/&decade
VAC	QUANT	2.50000E+001	AC &Voltage (mV rms)
AREA	QUANT	1.00000E-002	&Area (cm^2)
CONDIT	TWOPARAM	T	5.00000E+000	0.00000E+000	Conditionin&g	Time(s)	E(V)
DELAY	TWOPARAM	T	5.00000E+000	0.00000E+000	Init. De&lay	Time(s)	Stab.(mV/s)
SPEED	SELECTOR	0	&Optimize for:
ZGUESS	QUANT	1.00000E+005	E&stimated Z (ohms)
OCVCURVE	TABLE	19
	Pt	T	Vf	Vm	Ach	Over
	#	s	V vs. Ref.	V	V	bits
	0	0.258333	3.99480E-003	3.99480E-003	5.03333E-004	...........
	1	0.516667	3.99377E-003	3.94090E-003	5.05633E-004	...........
	2	0.775	3.98750E-003	3.89269E-003	5.04733E-004	...........
	3	1.03333	3.97026E-003	3.86264E-003	5.03633E-004	...........
	4	1.29167	3.94122E-003	3.83872E-003	5.02667E-004	...........
	5	1.55	3.90628E-003	3.81256E-003	5.04867E-004	...........
	6	1.80833	3.87208E-003	3.77939E-003	5.06767E-004	...........
	7	2.06667	3.84103E-003	3.75842E-003	5.06000E-004	...........
	8	2.325	3.81288E-003	3.75622E-003	5.05200E-004	...........
	9	2.58333	3.78875E-003	3.75868E-003	5.05900E-004	...........
	10	2.84167	3.77138E-003	3.76183E-003	5.08633E-004	...........
	11	3.1	3.76199E-003	3.75694E-003	5.06233E-004	...........
	12	3.35833	3.75843E-003	3.74727E-003	5.08400E-004	...........
	13	3.61667	3.75679E-003	3.74893E-003	5.07200E-004	...........
	14	3.875	3.75494E-003	3.76759E-003	5.10033E-004	...........
	15	4.13333	3.75469E-003	3.79519E-003	5.02633E-004	...........
	16	4.39167	3.75980E-003	3.80657E-003	5.07367E-004	...........
	17	4.65	3.77151E-003	3.81994E-003	5.10067E-004	...........
	18	4.90833	3.78727E-003	3.83779E-003	5.03767E-004	...........
EOC	QUANT	0.0037873	Open Circuit (V)
PSTATMODEL	IQUANT	4	Pstat Model
PSTATSECTION	LABEL	REF600-11020	Pstat Section
PSTATSERIALNO	LABEL	11020	Pstat Serial Number
CTRLMODE	IQUANT	1	Control Mode
IESTAB	IQUANT	0	I/E Stability
CASPEED	IQUANT	1	Control Amp Speed
CONVENTION	IQUANT	1	Current Convention
ICHRANGE	IQUANT	2	Ich Range
ICHRANGEMODE	TOGGLE	F	Ich Auto Range
ICHOFFSETENABLE	TOGGLE	T	Ich Offset Enable
ICHOFFSET	QUANT	0	Ich Offset (V)
ICHFILTER	IQUANT	3	Ich Filter
VCHRANGE	IQUANT	2	Vch Range
VCHRANGEMODE	TOGGLE	F	Vch Auto Range
VCHOFFSETENABLE	TOGGLE	T	Vch Offset Enable
VCHOFFSET	QUANT	0	Vch Offset (V)
VCHFILTER	IQUANT	3	Vch Filter
ACHRANGE	IQUANT	2	Ach Range
ACHOFFSETENABLE	TOGGLE	F	Ach Offset Enable
ACHOFFSET	QUANT	0	Ach Offset (V)
ACHFILTER	IQUANT	3	Ach Filter
IERANGELOWERLIMIT	IQUANT	1	I/E Range Lower Limit
IERANGEMODE	TOGGLE	F	I/E AutoRange
IERANGE	IQUANT	4	I/E Range
POSFEEDENABLE	TOGGLE	F	Positive Feedback IR Comp
POSFEEDRESISTANCE	QUANT	0	Positive Feedback Resistance (ohm)
ACHSELECT	IQUANT	0	Ach Select
CABLEID	IQUANT	14	Cable ID
DCCALDATE	LABEL	8/19/2019	DC Calibration Date
ACCALDATE	LABEL	8/19/2019	AC Calibration Date
THERMOSELECT	IQUANT	1	Thermo Select
FRAMEWORKVERSION	QUANT	6.33	Framework Version
INSTRUMENTVERSION	LABEL	3.50	Instrument Version
ZCURVE	TABLE
	Pt	Time	Freq	Zreal	Zimag	Zsig	Zmod	Zphz	Idc	Vdc	IERange
	#	s	Hz	ohm	ohm	V	ohm	°	A	V	#
	0	1	100078.1	5392.765	-9354.295	1	10797.44	-60.03649	7.479914E-009	0.0053728	7
	1	2	79453.13	6758.042	-10857.49	1	12788.91	-58.10057	-1.378909E-008	0.0053377	7
	2	2	63140.62	8464.13	-12439	1	15045.6	-55.76663	1.064143E-007	0.0051942	7
	3	2	50203.12	10527.13	-13954.48	1	17479.93	-52.96943	1.071501E-007	0.0051964	7
	4	2	39890.62	12976.89	-15334.49	1	20088.47	-49.76026	3.162602E-008	0.0052375	7
	5	3	31640.63	15692.12	-16588.59	1	22834.71	-46.59076	5.893304E-009	0.005358	7
	6	3	25171.88	18585.78	-17572.46	1	25577.78	-43.39473	-4.077681E-008	0.0055028	7
	7	3	20015.62	22711.38	-18752.56	1	29452.76	-39.54615	-4.410773E-008	0.0053851	7
	8	4	15890.62	24561.13	-18871.41	1	30973.85	-37.53668	4.303774E-008	0.0052798	7
	9	4	12609.37	27933.36	-18826.67	1	33685.55	-33.97939	-4.957128E-009	0.0053808	6
	10	4	10078.13	30648.45	-19200.83	1	36166.27	-32.06657	4.264982E-009	0.00527	6
	11	5	8015.625	33284.7	-19890.95	1	38775.26	-30.86256	-8.443201E-009	0.0053282	6
	12	5	6328.125	36233.61	-20014.57	1	41393.94	-28.9152	2.83386E-009	0.0053321	6
	13	5	5015.625	38980	-20600.25	1	44088.67	-27.85567	-3.685255E-009	0.0053082	6
	14	6	3984.375	40668.22	-21668.5	1	46080.67	-28.04922	-2.06849E-009	0.0052158	6
	15	6	3170.956	44546.57	-22221.02	1	49781.23	-26.51125	1.6312E-009	0.0051859	6
	16	6	2527.573	47372.3	-23226	1	52759.66	-26.11809	-4.07281E-009	0.0053345	6
	17	7	1976.103	50742.1	-24504.01	1	56348.98	-25.77649	-5.71974E-009	0.0053715	6
	18	7	1577.524	53262.33	-25599.16	1	59094.78	-25.67006	-4.09563E-009	0.0053144	6
	19	7	1265.625	57283.44	-27712.96	1	63634.9	-25.81707	-6.035744E-008	0.0054461	7
	20	8	998.264	61374.59	-29543.1	1	68114.87	-25.70417	3.379109E-009	0.0053584	6
	21	8	796.875	65323.46	-31418.09	1	72486.21	-25.68577	5.459963E-009	0.0051406	6
	22	8	627.7902	69804.01	-33356.8	1	77364.56	-25.54144	-3.817467E-009	0.0053224	6
	23	9	505.5147	74199.73	-35583.04	1	82290.66	-25.6204	1.671398E-009	0.0051765	6
	24	9	397.9953	79195.66	-38009.05	1	87844.41	-25.63814	2.802492E-010	0.0052838	6
	25	10	315.5048	84369.5	-40188.13	1	93452.12	-25.47009	7.861307E-010	0.0052858	5
	26	10	252.4038	89226.64	-43103.84	1	99092.6	-25.78438	7.389374E-010	0.0052819	5
	27	10	198.6229	94673.61	-46703.69	1	105566.7	-26.25771	-1.170528E-010	0.0052851	5
	28	11	158.3615	99878.6	-50619.6	1	111973.6	-26.87639	6.533273E-010	0.0052842	5
	29	11	125.558	105710.8	-55741.22	1	119506.7	-27.80265	2.990067E-010	0.0052858	5
	30	11	100.4464	111497.8	-62104.95	1	127627.5	-29.11806	-9.336537E-010	0.0052854	5
	31	12	79.00281	117569.5	-68621.79	1	136130.6	-30.27083	-6.600842E-010	0.0052811	5
	32	12	63.3446	125349.3	-71148.18	1	144133.7	-29.57921	6.698241E-010	0.005279	5
	33	12	49.86702	135215.3	-83375.27	1	158854	-31.65845	8.637594E-010	0.0052798	5
	34	13	39.72458	143213.7	-98342.8	1	173728.2	-34.47684	3.212391E-010	0.0052838	5
	35	13	31.6723	154142.5	-113216.6	1	191253.5	-36.29704	6.506658E-010	0.0052835	5
	36	13	24.93351	166821.5	-127232.4	1	209803.5	-37.33226	2.430876E-010	0.005281	5
	37	14	19.86229	180164.9	-145468.6	1	231561	-38.91808	1.195608E-009	0.0052872	5
	38	14	15.83615	193039.7	-165759.9	1	254441.9	-40.65213	-1.932328E-010	0.0052806	5
	39	14	12.40079	213418.1	-188644.3	1	284840.2	-41.47407	1.100292E-009	0.005273	5
	40	15	9.93114	234533.6	-219652	1	321330	-43.12335	-3.228269E-010	0.005279	5
	41	15	7.944915	255367.1	-251598	1	358488.4	-44.57404	-6.473977E-010	0.0052817	5
	42	16	6.317385	285740.5	-289645.4	1	406868.6	-45.38883	-3.661567E-010	0.0052834	5
	43	17	5.008013	320491.7	-333296.2	1	462386.5	-46.122	-3.125073E-010	0.0052684	5
	44	18	3.945707	364640.6	-382882.9	1	528736.4	-46.39795	5.722846E-011	0.005269	5
	45	19	3.158693	410154.6	-435391.6	1	598157.8	-46.7096	8.526926E-011	0.0052882	5
	46	21	2.504006	467474.5	-493828.9	1	679999.6	-46.57039	-1.434941E-010	0.0052791	5
	47	22	1.998082	528825.8	-555298.7	1	766820.3	-46.39881	-1.128285E-010	0.0052726	5
	48	24	1.584686	601869.8	-622368.5	1	865788.5	-45.95927	-1.442317E-012	0.0053083	5
	49	26	1.266892	680121.1	-696009.2	1	973136	-45.66148	1.07623E-010	0.0053094	5
	50	28	0.999041	770870.5	-782583.9	1	1098489	-45.43202	1.089467E-010	0.0052896	4
