EXPLAIN
TAG	EISPOT
TITLE	LABEL	Potentiostatic EIS	Test &Identifier
DATE	LABEL	10/10/2019	Date
TIME	LABEL	9:15:44	Time
NOTES	NOTES	1	&Notes...
	
PSTAT	PSTAT	REF600-11020	Potentiostat
VDC	POTEN	0.00000E+000	T	DC &Voltage (V)
FREQINIT	QUANT	1.00000E+006	Initial Fre&q. (Hz)
FREQFINAL	QUANT	1.00000E+000	Final Fre&q. (Hz)
PTSPERDEC	QUANT	1.00000E+001	Points/&decade
VAC	QUANT	2.50000E+001	AC &Voltage (mV rms)
AREA	QUANT	1.00000E-002	&Area (cm^2)
CONDIT	TWOPARAM	T	5.00000E+000	0.00000E+000	Conditionin&g	Time(s)	E(V)
DELAY	TWOPARAM	T	5.00000E+000	0.00000E+000	Init. De&lay	Time(s)	Stab.(mV/s)
SPEED	SELECTOR	1	&Optimize for:
ZGUESS	QUANT	1.00000E+004	E&stimated Z (ohms)
OCVCURVE	TABLE	19
	Pt	T	Vf	Vm	Ach	Over
	#	s	V vs. Ref.	V	V	bits
	0	0.258333	4.55875E-003	4.55875E-003	5.18366E-004	...........
	1	0.516667	4.55609E-003	4.41982E-003	5.21366E-004	...........
	2	0.775	4.54034E-003	4.31646E-003	5.22600E-004	...........
	3	1.03333	4.49866E-003	4.27454E-003	5.19000E-004	...........
	4	1.29167	4.43140E-003	4.18497E-003	5.19666E-004	...........
	5	1.55	4.35367E-003	4.19385E-003	5.21900E-004	...........
	6	1.80833	4.28919E-003	4.51194E-003	5.26566E-004	...........
	7	2.06667	4.27166E-003	4.61123E-003	5.19233E-004	...........
	8	2.325	4.31023E-003	3.91074E-003	5.23100E-004	...........
	9	2.58333	4.34263E-003	4.03389E-003	5.28366E-004	...........
	10	2.84167	4.29844E-003	4.10169E-003	5.30466E-004	...........
	11	3.1	4.20097E-003	4.18058E-003	5.25833E-004	...........
	12	3.35833	4.12876E-003	4.20151E-003	5.23333E-004	...........
	13	3.61667	4.11535E-003	4.16926E-003	5.24566E-004	...........
	14	3.875	4.13693E-003	4.13990E-003	5.24433E-004	...........
	15	4.13333	4.15789E-003	4.13799E-003	5.26000E-004	...........
	16	4.39167	4.16187E-003	4.10939E-003	5.27133E-004	...........
	17	4.65	4.15140E-003	4.08927E-003	5.20866E-004	...........
	18	4.90833	4.13407E-003	4.09093E-003	5.21166E-004	...........
EOC	QUANT	0.0041341	Open Circuit (V)
PSTATMODEL	IQUANT	4	Pstat Model
PSTATSECTION	LABEL	REF600-11020	Pstat Section
PSTATSERIALNO	LABEL	11020	Pstat Serial Number
CTRLMODE	IQUANT	1	Control Mode
IESTAB	IQUANT	0	I/E Stability
CASPEED	IQUANT	1	Control Amp Speed
CONVENTION	IQUANT	1	Current Convention
ICHRANGE	IQUANT	2	Ich Range
ICHRANGEMODE	TOGGLE	F	Ich Auto Range
ICHOFFSETENABLE	TOGGLE	T	Ich Offset Enable
ICHOFFSET	QUANT	0	Ich Offset (V)
ICHFILTER	IQUANT	3	Ich Filter
VCHRANGE	IQUANT	2	Vch Range
VCHRANGEMODE	TOGGLE	F	Vch Auto Range
VCHOFFSETENABLE	TOGGLE	T	Vch Offset Enable
VCHOFFSET	QUANT	0	Vch Offset (V)
VCHFILTER	IQUANT	3	Vch Filter
ACHRANGE	IQUANT	2	Ach Range
ACHOFFSETENABLE	TOGGLE	F	Ach Offset Enable
ACHOFFSET	QUANT	0	Ach Offset (V)
ACHFILTER	IQUANT	3	Ach Filter
IERANGELOWERLIMIT	IQUANT	1	I/E Range Lower Limit
IERANGEMODE	TOGGLE	F	I/E AutoRange
IERANGE	IQUANT	5	I/E Range
POSFEEDENABLE	TOGGLE	F	Positive Feedback IR Comp
POSFEEDRESISTANCE	QUANT	0	Positive Feedback Resistance (ohm)
ACHSELECT	IQUANT	0	Ach Select
CABLEID	IQUANT	14	Cable ID
DCCALDATE	LABEL	8/19/2019	DC Calibration Date
ACCALDATE	LABEL	8/19/2019	AC Calibration Date
THERMOSELECT	IQUANT	1	Thermo Select
FRAMEWORKVERSION	QUANT	6.33	Framework Version
INSTRUMENTVERSION	LABEL	3.50	Instrument Version
ZCURVE	TABLE
	Pt	Time	Freq	Zreal	Zimag	Zsig	Zmod	Zphz	Idc	Vdc	IERange
	#	s	Hz	ohm	ohm	V	ohm	°	A	V	#
	0	1	1000078	1752.993	-2906.741	1	3394.426	-58.90673	-7.036097E-006	0.0075812	8
	1	3	794390.6	1927.423	-3445.542	1	3948.002	-60.77752	1.864809E-006	0.0063223	8
	2	4	630984.4	2140.84	-4065.81	1	4594.998	-62.23108	-2.324843E-006	0.0065243	8
	3	6	501234.4	2357.165	-4830.279	1	5374.739	-63.98773	-4.368711E-006	0.0068481	8
	4	7	398109.4	2650.758	-5785.031	1	6363.419	-65.38229	2.007866E-007	0.0060242	8
	5	9	316265.6	3003.545	-6944.114	1	7565.845	-66.61002	-8.954223E-007	0.0062529	8
	6	11	251203.1	3431.449	-8379.189	1	9054.593	-67.7299	6.999757E-007	0.0056256	8
	7	13	199546.9	3986.34	-10071.69	1	10831.89	-68.40652	1.806258E-006	0.0054072	8
	8	15	158578.1	4764.537	-12209.41	1	13106.13	-68.68255	3.696263E-007	0.005845	8
	9	17	125953.1	5860.437	-14668.64	1	15796	-68.22223	-5.034391E-007	0.0074448	7
	10	18	100078.1	7158.21	-17683.03	1	19076.93	-67.96156	9.356751E-008	0.0056175	7
	11	20	79453.13	8753.397	-21218.13	1	22952.8	-67.58173	-8.004466E-008	0.0059513	7
	12	22	63140.62	10851.28	-25356.82	1	27581.13	-66.83181	-7.340532E-008	0.0060664	7
	13	23	50203.12	13604.43	-30181.41	1	33105.86	-65.73627	1.30771E-007	0.0056863	7
	14	25	39890.62	17246.93	-35624.18	1	39579.52	-64.16673	-4.4264E-009	0.005764	7
	15	26	31640.63	21755	-41814.09	1	47134.89	-62.51298	3.344214E-008	0.0058929	7
	16	28	25171.88	27917.69	-48344.95	1	55826.79	-59.99492	5.958155E-009	0.0057146	7
	17	30	20015.62	36531.99	-55209.21	1	66201.53	-56.50735	-5.545303E-008	0.0059474	7
	18	31	15890.62	44566.96	-62509.47	1	76770.1	-54.51252	-2.477033E-008	0.0058569	7
	19	33	12609.37	56514.21	-68974.16	1	89170.01	-50.67041	4.744423E-009	0.0058004	6
	20	34	10078.13	69014.57	-74483.82	1	101542.4	-47.1827	3.780753E-009	0.0055882	6
	21	36	8015.625	82206.19	-78846.11	1	113906	-43.80479	-3.480208E-010	0.0057127	6
	22	38	6328.125	97896.8	-81348.83	1	127284.8	-39.72539	-1.148706E-008	0.005995	6
	23	39	5015.625	112943.4	-82352.94	1	139779.2	-36.09775	3.454979E-009	0.0058044	6
	24	41	3984.375	128255.9	-82215.54	1	152344.9	-32.66098	-5.668626E-009	0.0056516	6
	25	42	3170.956	140551.7	-79330.45	1	161394.3	-29.44133	3.257901E-009	0.0055234	6
	26	44	2527.573	153496.9	-77213.98	1	171823.4	-26.7039	3.22463E-009	0.0055185	6
	27	45	1976.103	165803.9	-73029.89	1	181174.7	-23.77155	-6.685895E-009	0.0057711	6
	28	47	1577.524	174427.7	-70466.42	1	188123.7	-21.99804	-6.079842E-009	0.0057574	6
	29	49	1265.625	185150.6	-67720.52	1	197146.7	-20.09046	-1.242698E-010	0.0055955	5
	30	50	998.264	193898.7	-66783.66	1	205077.5	-19.00501	-1.094992E-009	0.0057204	5
	31	51	796.875	201964.3	-66563.39	1	212650.6	-18.24119	1.148605E-009	0.0057675	5
	32	53	627.7902	210673.8	-68273.65	1	221460.5	-17.9561	-8.081063E-010	0.0058462	5
	33	54	505.5147	218660.1	-69887.4	1	229557.2	-17.72474	7.291209E-010	0.0055597	5
	34	55	397.9953	227705.1	-72011.29	1	238820.5	-17.54946	6.517424E-010	0.005757	5
	35	57	315.5048	236366.2	-76006.82	1	248286.2	-17.82591	-5.580514E-010	0.0057534	5
	36	58	252.4038	245820.4	-78789.36	1	258138.4	-17.77148	3.604791E-010	0.0057521	5
	37	60	198.6229	256793.1	-83775.76	1	270113	-18.06832	-2.249333E-010	0.0057546	5
	38	61	158.3615	266411.3	-89464.35	1	281031.8	-18.56272	-4.285596E-010	0.0057532	5
	39	63	125.558	277736.9	-95480.6	1	293690.9	-18.97198	2.827704E-010	0.0057582	5
	40	64	100.4464	288441.5	-103411	1	306418.6	-19.72359	1.855484E-010	0.0057513	5
	41	66	79.00281	297993	-112533.1	1	318533.4	-20.68839	3.987169E-010	0.0057514	5
	42	67	63.3446	332689.1	-104817.7	1	348810.5	-17.48767	8.067634E-011	0.0057466	5
	43	69	49.86702	330197	-134592.3	1	356574.1	-22.1764	-1.89678E-011	0.0057401	5
	44	71	39.72458	339366.4	-151687.1	1	371723.8	-24.08327	2.409835E-010	0.0057482	5
	45	72	31.6723	364602.8	-173576.5	1	403811.8	-25.45772	5.870036E-010	0.0057455	5
	46	73	24.93351	381300.5	-191070.8	1	426495.1	-26.61558	1.984311E-010	0.0057448	5
	47	75	19.86229	400822.3	-215856.8	1	455250.2	-28.30401	6.18674E-010	0.0057498	5
	48	76	15.83615	428640.7	-253944.2	1	498217.4	-30.64423	-6.863358E-010	0.0057487	5
	49	78	12.40079	475070	-257623.8	1	540427.2	-28.47036	1.501142E-009	0.005748	5
	50	79	9.93114	506227.9	-304279.6	1	590637.6	-31.00891	4.527946E-011	0.0057547	5
	51	81	7.944915	536929.5	-341866.1	1	636526.3	-32.48514	-1.074286E-010	0.0057541	6
	52	83	6.317385	584632.9	-370424	1	692105.2	-32.35839	5.912227E-010	0.0057385	6
	53	85	5.008013	632862	-408867.3	1	753449.9	-32.86492	5.617657E-010	0.0057491	6
	54	88	3.945707	689321.9	-448724	1	822507.1	-33.06269	4.555901E-010	0.0057518	6
	55	91	3.158693	739629.1	-494347.7	1	889624	-33.75768	3.488738E-010	0.0057377	6
	56	95	2.504006	800022.4	-547843.2	1	969623	-34.40275	3.090891E-010	0.0057505	4
	57	98	1.998082	859031.1	-603976.7	1	1050106	-35.11069	4.898535E-011	0.0057983	4
	58	101	1.584686	921524.3	-673873.3	1	1141627	-36.17649	2.199583E-010	0.0057295	4
	59	105	1.266892	991860	-757973.8	1	1248323	-37.38685	8.014304E-011	0.0057871	4
	60	109	0.999041	1069649	-858269.1	1	1371413	-38.74301	-4.464286E-011	0.0057104	4
