EXPLAIN
TAG	EISPOT
TITLE	LABEL	Potentiostatic EIS	Test &Identifier
DATE	LABEL	10/6/2019	Date
TIME	LABEL	9:35:06	Time
NOTES	NOTES	2	&Notes...
	
	
PSTAT	PSTAT	REF600-11020	Potentiostat
VDC	POTEN	0.00000E+000	T	DC &Voltage (V)
FREQINIT	QUANT	1.00000E+006	Initial Fre&q. (Hz)
FREQFINAL	QUANT	1.00000E+000	Final Fre&q. (Hz)
PTSPERDEC	QUANT	1.00000E+001	Points/&decade
VAC	QUANT	2.50000E+001	AC &Voltage (mV rms)
AREA	QUANT	1.00000E-002	&Area (cm^2)
CONDIT	TWOPARAM	T	5.00000E+000	0.00000E+000	Conditionin&g	Time(s)	E(V)
DELAY	TWOPARAM	T	5.00000E+000	0.00000E+000	Init. De&lay	Time(s)	Stab.(mV/s)
SPEED	SELECTOR	1	&Optimize for:
ZGUESS	QUANT	1.00000E+004	E&stimated Z (ohms)
OCVCURVE	TABLE	19
	Pt	T	Vf	Vm	Ach	Over
	#	s	V vs. Ref.	V	V	bits
	0	0.258333	8.29757E-003	8.29757E-003	5.36333E-004	...........
	1	0.516667	8.30049E-003	8.45073E-003	5.36033E-004	...........
	2	0.775	8.31228E-003	8.27245E-003	5.32033E-004	...........
	3	1.03333	8.33034E-003	8.37648E-003	5.38899E-004	...........
	4	1.29167	8.34638E-003	8.50502E-003	5.43833E-004	...........
	5	1.55	8.36982E-003	8.66496E-003	5.42333E-004	...........
	6	1.80833	8.42427E-003	8.79700E-003	5.35633E-004	...........
	7	2.06667	8.51924E-003	8.93696E-003	5.37266E-004	...........
	8	2.325	8.64417E-003	9.09167E-003	5.32533E-004	...........
	9	2.58333	8.78362E-003	9.21622E-003	5.39266E-004	...........
	10	2.84167	8.92496E-003	9.24643E-003	5.37399E-004	...........
	11	3.1	9.05538E-003	9.34336E-003	5.37133E-004	...........
	12	3.35833	9.16648E-003	9.47997E-003	5.38266E-004	...........
	13	3.61667	9.26344E-003	9.55741E-003	5.40999E-004	...........
	14	3.875	9.36238E-003	9.88872E-003	5.34699E-004	...........
	15	4.13333	9.48606E-003	1.01890E-002	5.39966E-004	...........
	16	4.39167	9.65182E-003	1.01231E-002	5.42766E-004	...........
	17	4.65	9.84063E-003	1.01420E-002	5.40599E-004	...........
	18	4.90833	9.99951E-003	1.00968E-002	5.32600E-004	...........
EOC	QUANT	0.0099995	Open Circuit (V)
PSTATMODEL	IQUANT	4	Pstat Model
PSTATSECTION	LABEL	REF600-11020	Pstat Section
PSTATSERIALNO	LABEL	11020	Pstat Serial Number
CTRLMODE	IQUANT	1	Control Mode
IESTAB	IQUANT	0	I/E Stability
CASPEED	IQUANT	1	Control Amp Speed
CONVENTION	IQUANT	1	Current Convention
ICHRANGE	IQUANT	2	Ich Range
ICHRANGEMODE	TOGGLE	F	Ich Auto Range
ICHOFFSETENABLE	TOGGLE	T	Ich Offset Enable
ICHOFFSET	QUANT	0	Ich Offset (V)
ICHFILTER	IQUANT	3	Ich Filter
VCHRANGE	IQUANT	2	Vch Range
VCHRANGEMODE	TOGGLE	F	Vch Auto Range
VCHOFFSETENABLE	TOGGLE	T	Vch Offset Enable
VCHOFFSET	QUANT	0	Vch Offset (V)
VCHFILTER	IQUANT	3	Vch Filter
ACHRANGE	IQUANT	2	Ach Range
ACHOFFSETENABLE	TOGGLE	F	Ach Offset Enable
ACHOFFSET	QUANT	0	Ach Offset (V)
ACHFILTER	IQUANT	3	Ach Filter
IERANGELOWERLIMIT	IQUANT	1	I/E Range Lower Limit
IERANGEMODE	TOGGLE	F	I/E AutoRange
IERANGE	IQUANT	6	I/E Range
POSFEEDENABLE	TOGGLE	F	Positive Feedback IR Comp
POSFEEDRESISTANCE	QUANT	0	Positive Feedback Resistance (ohm)
ACHSELECT	IQUANT	0	Ach Select
CABLEID	IQUANT	14	Cable ID
DCCALDATE	LABEL	8/19/2019	DC Calibration Date
ACCALDATE	LABEL	8/19/2019	AC Calibration Date
THERMOSELECT	IQUANT	1	Thermo Select
FRAMEWORKVERSION	QUANT	6.33	Framework Version
INSTRUMENTVERSION	LABEL	3.50	Instrument Version
ZCURVE	TABLE
	Pt	Time	Freq	Zreal	Zimag	Zsig	Zmod	Zphz	Idc	Vdc	IERange
	#	s	Hz	ohm	ohm	V	ohm	°	A	V	#
	0	1	1000078	2376.41	-1578.925	1	2853.126	-33.6007	1.837843E-006	0.0114882	8
	1	3	794390.6	2677.017	-1472.71	1	3055.371	-28.81656	-2.353258E-006	0.012507	8
	2	4	630984.4	2946.369	-1348.435	1	3240.273	-24.59167	-5.018774E-006	0.0127644	8
	3	5	501234.4	3154.845	-1183.741	1	3369.613	-20.56678	2.47429E-007	0.0116417	8
	4	7	398109.4	3341.871	-1031.035	1	3497.304	-17.14605	4.04402E-006	0.0109249	8
	5	8	316265.6	3439.434	-877.4877	1	3549.605	-14.31231	2.14211E-006	0.0110238	8
	6	9	251203.1	3530.359	-747.9737	1	3608.726	-11.9623	-1.78918E-006	0.0119512	8
	7	11	199546.9	3608.94	-633.3413	1	3664.092	-9.95361	-8.189488E-007	0.0114863	8
	8	12	158578.1	3662.137	-556.5089	1	3704.18	-8.640723	-1.245924E-006	0.0120012	8
	9	13	125953.1	3724.952	-436.0689	1	3750.389	-6.677054	6.001729E-007	0.0104588	7
	10	15	100078.1	3742.155	-392.4572	1	3762.678	-5.986989	1.330414E-008	0.0114558	7
	11	16	79453.13	3771.238	-362.5325	1	3788.623	-5.491022	8.651568E-008	0.0113466	7
	12	18	63140.62	3798.61	-343.0143	1	3814.066	-5.159812	-5.293707E-009	0.011459	7
	13	19	50203.12	3825.612	-330.3725	1	3839.851	-4.935708	8.739234E-008	0.0113442	7
	14	20	39890.62	3851.641	-327.1634	1	3865.511	-4.855123	1.329007E-008	0.0114447	7
	15	22	31640.63	3878.553	-331.4362	1	3892.689	-4.884262	8.794401E-008	0.011343	7
	16	23	25171.88	3905.62	-345.457	1	3920.868	-5.054729	-5.341118E-008	0.0116332	7
	17	24	20015.62	3931.282	-363.8027	1	3948.08	-5.28712	-4.425525E-008	0.0115228	7
	18	26	15890.62	3960.225	-398.5301	1	3980.227	-5.746511	4.997474E-008	0.0113579	7
	19	27	12609.37	3987.869	-443.0132	1	4012.401	-6.339009	-8.884822E-009	0.0115411	7
	20	29	10078.13	4018.085	-499.0351	1	4048.956	-7.079725	-6.012929E-008	0.011588	7
	21	30	8015.625	4043.76	-580.5886	1	4085.227	-8.170485	-4.469752E-008	0.0115179	7
	22	31	6328.125	4086.07	-665.1651	1	4139.856	-9.24599	-7.107923E-008	0.0116463	7
	23	33	5015.625	4124.819	-782.6869	1	4198.42	-10.74417	-4.493818E-008	0.0115175	7
	24	34	3984.375	4165.356	-929.182	1	4267.736	-12.5753	-1.016466E-008	0.0114952	7
	25	35	3170.956	4215.306	-1108.325	1	4358.576	-14.73128	-8.973491E-008	0.0116317	7
	26	37	2527.573	4273.376	-1327.146	1	4474.713	-17.25278	-7.115267E-008	0.0116486	7
	27	38	1976.103	4346.09	-1621.283	1	4638.648	-20.45773	8.783306E-008	0.0113362	7
	28	40	1577.524	4428.322	-1950.915	1	4839.019	-23.77608	-9.07391E-009	0.0114963	7
	29	41	1265.625	4518.172	-2345.434	1	5090.672	-27.43433	7.440849E-009	0.0114844	7
	30	42	998.264	4636.167	-2860.013	1	5447.359	-31.67009	-9.425706E-009	0.01154	7
	31	44	796.875	4771.464	-3458.635	1	5893.134	-35.93679	1.323594E-007	0.0113129	7
	32	45	627.7902	4932.935	-4232.443	1	6499.802	-40.62949	8.834927E-008	0.0113368	7
	33	46	505.5147	5104.769	-5118.61	1	7229.027	-45.07758	-4.516025E-008	0.0115185	7
	34	48	397.9953	5343.326	-6261.317	1	8231.356	-49.52299	4.907997E-009	0.0115422	7
	35	49	315.5048	5613.326	-7663.579	1	9499.467	-53.77842	5.445204E-009	0.0115419	7
	36	50	252.4038	5930.417	-9319.015	1	11045.99	-57.52822	9.533189E-010	0.011477	6
	37	52	198.6229	6353.413	-11516.66	1	13152.92	-61.11574	1.064108E-009	0.0114813	6
	38	53	158.3615	6861.473	-14078.54	1	15661.58	-64.01673	1.266578E-009	0.0114752	6
	39	55	125.558	7521.28	-17305.29	1	18869.09	-66.50912	1.037755E-009	0.0114796	6
	40	56	100.4464	8338.091	-21104.95	1	22692.35	-68.44214	2.479095E-010	0.0114749	6
	41	57	79.00281	9485.162	-26069.64	1	27741.56	-70.00661	3.451747E-010	0.0114763	6
	42	59	63.3446	10926.19	-31922.46	1	33740.56	-71.10532	5.329598E-010	0.0114721	6
	43	60	49.86702	12733.98	-38994.16	1	41020.71	-71.91496	-1.206404E-010	0.0114674	6
	44	61	39.72458	15403.31	-47448.07	1	49885.69	-72.01476	6.595366E-010	0.0114774	6
	45	63	31.6723	18556.12	-57667.53	1	60579.48	-72.16299	-4.724752E-011	0.0114708	6
	46	64	24.93351	23171.22	-70350.88	1	74068.55	-71.76985	-3.053929E-011	0.0114742	6
	47	66	19.86229	28605.14	-84779.69	1	89475.41	-71.35532	3.205663E-010	0.0114735	6
	48	67	15.83615	36448.85	-101395.6	1	107747.8	-70.22793	1.576878E-009	0.0114791	5
	49	68	12.40079	46176.69	-122983	1	131366.3	-69.42024	-9.048861E-010	0.011483	5
	50	70	9.93114	56630.81	-145937.1	1	156539.7	-68.79128	-2.112027E-010	0.0114796	5
	51	71	7.944915	69962.59	-172545.9	1	186190.4	-67.92881	8.621318E-010	0.0114761	5
	52	73	6.317385	88383.78	-203362.6	1	221738.7	-66.50967	6.624634E-010	0.0114706	5
	53	75	5.008013	110731.4	-239482.3	1	263843.2	-65.1852	3.914044E-012	0.0114818	5
	54	77	3.945707	138710.9	-281139.4	1	313496.5	-63.7388	7.02642E-011	0.0114785	5
	55	80	3.158693	169818.2	-324426.6	1	366184.1	-62.37059	-1.174291E-011	0.0114646	5
	56	83	2.504006	207523.4	-374792.5	1	428410.3	-61.02661	3.133018E-010	0.0114842	5
	57	86	1.998082	250084.3	-429122.7	1	496677.4	-59.76721	3.689936E-010	0.0114976	5
	58	89	1.584686	300182.5	-489176.7	1	573936.8	-58.4647	1.539212E-010	0.0114389	5
	59	93	1.266892	354066.4	-556283.9	1	659404.9	-57.52386	1.986858E-010	0.0115009	5
	60	97	0.999041	418489.8	-635124.1	1	760602.6	-56.6187	-1.174613E-010	0.0114324	5
