EXPLAIN
TAG	EISPOT
TITLE	LABEL	Potentiostatic IDE	Test &Identifier
DATE	LABEL	9/4/2019	Date
TIME	LABEL	11:23:56	Time
NOTES	NOTES	1	&Notes...
	
PSTAT	PSTAT	REF600-11020	Potentiostat
VDC	POTEN	0.00000E+000	T	DC &Voltage (V)
FREQINIT	QUANT	1.00000E+006	Initial Fre&q. (Hz)
FREQFINAL	QUANT	1.00000E+000	Final Fre&q. (Hz)
PTSPERDEC	QUANT	1.00000E+001	Points/&decade
VAC	QUANT	2.50000E+001	AC &Voltage (mV rms)
AREA	QUANT	1.00000E-002	&Area (cm^2)
CONDIT	TWOPARAM	T	5.00000E+000	0.00000E+000	Conditionin&g	Time(s)	E(V)
DELAY	TWOPARAM	T	5.00000E+000	0.00000E+000	Init. De&lay	Time(s)	Stab.(mV/s)
SPEED	SELECTOR	1	&Optimize for:
ZGUESS	QUANT	1.00000E+007	E&stimated Z (ohms)
OCVCURVE	TABLE	19
	Pt	T	Vf	Vm	Ach	Over
	#	s	V vs. Ref.	V	V	bits
	0	0.258333	8.14863E-002	8.14863E-002	5.71899E-004	...........
	1	0.516667	8.15208E-002	8.32888E-002	5.70399E-004	...........
	2	0.775	8.17327E-002	8.50236E-002	5.68899E-004	...........
	3	1.03333	8.23331E-002	8.66426E-002	5.66632E-004	...........
	4	1.29167	8.34090E-002	8.83195E-002	5.74565E-004	...........
	5	1.55	8.48451E-002	8.97812E-002	5.67732E-004	...........
	6	1.80833	8.64421E-002	9.10839E-002	5.68999E-004	...........
	7	2.06667	8.80350E-002	9.23015E-002	5.69899E-004	...........
	8	2.325	8.95331E-002	9.36143E-002	5.74299E-004	...........
	9	2.58333	9.09240E-002	9.49911E-002	5.70366E-004	...........
	10	2.84167	9.22492E-002	9.62836E-002	5.74765E-004	...........
	11	3.1	9.35583E-002	9.76895E-002	5.72266E-004	...........
	12	3.35833	9.48780E-002	9.90023E-002	5.74799E-004	...........
	13	3.61667	9.62091E-002	1.00152E-001	5.74432E-004	...........
	14	3.875	9.75261E-002	1.01125E-001	5.70566E-004	...........
	15	4.13333	9.87809E-002	1.01946E-001	5.71566E-004	...........
	16	4.39167	9.99295E-002	1.02922E-001	5.68666E-004	...........
	17	4.65	1.00967E-001	1.03896E-001	5.72099E-004	...........
	18	4.90833	1.01931E-001	1.04744E-001	5.75399E-004	...........
EOC	QUANT	0.1019314	Open Circuit (V)
PSTATMODEL	IQUANT	4	Pstat Model
PSTATSECTION	LABEL	REF600-11020	Pstat Section
PSTATSERIALNO	LABEL	11020	Pstat Serial Number
CTRLMODE	IQUANT	1	Control Mode
IESTAB	IQUANT	0	I/E Stability
CASPEED	IQUANT	1	Control Amp Speed
CONVENTION	IQUANT	1	Current Convention
ICHRANGE	IQUANT	2	Ich Range
ICHRANGEMODE	TOGGLE	F	Ich Auto Range
ICHOFFSETENABLE	TOGGLE	T	Ich Offset Enable
ICHOFFSET	QUANT	0	Ich Offset (V)
ICHFILTER	IQUANT	3	Ich Filter
VCHRANGE	IQUANT	2	Vch Range
VCHRANGEMODE	TOGGLE	F	Vch Auto Range
VCHOFFSETENABLE	TOGGLE	T	Vch Offset Enable
VCHOFFSET	QUANT	0	Vch Offset (V)
VCHFILTER	IQUANT	3	Vch Filter
ACHRANGE	IQUANT	2	Ach Range
ACHOFFSETENABLE	TOGGLE	F	Ach Offset Enable
ACHOFFSET	QUANT	0	Ach Offset (V)
ACHFILTER	IQUANT	3	Ach Filter
IERANGELOWERLIMIT	IQUANT	1	I/E Range Lower Limit
IERANGEMODE	TOGGLE	F	I/E AutoRange
IERANGE	IQUANT	4	I/E Range
POSFEEDENABLE	TOGGLE	F	Positive Feedback IR Comp
POSFEEDRESISTANCE	QUANT	0	Positive Feedback Resistance (ohm)
ACHSELECT	IQUANT	0	Ach Select
CABLEID	IQUANT	14	Cable ID
DCCALDATE	LABEL	8/19/2019	DC Calibration Date
ACCALDATE	LABEL	8/19/2019	AC Calibration Date
THERMOSELECT	IQUANT	1	Thermo Select
FRAMEWORKVERSION	QUANT	6.33	Framework Version
INSTRUMENTVERSION	LABEL	3.50	Instrument Version
ZCURVE	TABLE
	Pt	Time	Freq	Zreal	Zimag	Zsig	Zmod	Zphz	Idc	Vdc	IERange
	#	s	Hz	ohm	ohm	V	ohm	°	A	V	#
	0	2	1000078	2515.88	-1883.647	1	3142.893	-36.82231	1.153154E-005	0.1030212	8
	1	3	794390.6	2909.369	-1793.888	1	3417.961	-31.65757	1.024091E-005	0.1032572	8
	2	5	630984.4	3184.512	-1671.961	1	3596.745	-27.70078	1.034143E-005	0.103273	8
	3	6	501234.4	3448.622	-1521.63	1	3769.397	-23.80844	1.179472E-005	0.1028888	8
	4	8	398109.4	3653.256	-1388.309	1	3908.156	-20.80777	1.219055E-005	0.102643	8
	5	10	316265.6	3817.789	-1240.729	1	4014.339	-18.00345	1.026653E-005	0.1030289	8
	6	11	251203.1	3929.317	-1149.535	1	4094.016	-16.30702	8.335857E-006	0.1033548	8
	7	13	199546.9	4067.783	-1094.164	1	4212.369	-15.05524	9.725457E-006	0.103243	8
	8	14	158578.1	4157.934	-1043.168	1	4286.795	-14.08401	1.089129E-005	0.1028053	8
	9	16	125953.1	4251.586	-1030.219	1	4374.624	-13.62103	1.009524E-006	0.102411	7
	10	17	100078.1	4332.801	-1029.063	1	4453.329	-13.3605	9.557403E-007	0.1032457	7
	11	19	79453.13	4421.603	-1071.728	1	4549.634	-13.62484	8.53378E-007	0.1034242	7
	12	20	63140.62	4513.295	-1141.529	1	4655.419	-14.19391	9.126205E-007	0.1033337	7
	13	21	50203.12	4613.323	-1241.266	1	4777.394	-15.05942	8.819772E-007	0.103403	7
	14	23	39890.62	4727.81	-1374.167	1	4923.466	-16.20683	8.681269E-007	0.1033788	7
	15	24	31640.63	4838.256	-1545.116	1	5078.986	-17.71109	9.223765E-007	0.1032764	7
	16	25	25171.88	4976.295	-1751.846	1	5275.65	-19.39401	9.120579E-007	0.1033342	7
	17	27	20015.62	5123.86	-1999.526	1	5500.186	-21.31763	9.021565E-007	0.1033759	7
	18	28	15890.62	5303.723	-2312.98	1	5786.134	-23.56226	8.926131E-007	0.1033586	7
	19	29	12609.37	5511.011	-2673.449	1	6125.241	-25.87851	9.248065E-007	0.1032732	7
	20	31	10078.13	5746.555	-3094.147	1	6526.61	-28.29958	8.849657E-007	0.1033949	7
	21	32	8015.625	6001.813	-3589.993	1	6993.555	-30.88581	8.975684E-007	0.1033198	7
	22	33	6328.125	6327.68	-4224.904	1	7608.504	-33.73048	8.823121E-007	0.1033981	7
	23	35	5015.625	6691.491	-4952.341	1	8324.767	-36.50497	8.804706E-007	0.1033316	7
	24	36	3984.375	7097.345	-5826.789	1	9182.798	-39.38536	8.647188E-007	0.1033688	7
	25	37	3170.956	7603.508	-6814.524	1	10210.34	-41.86778	9.058828E-007	0.1033964	7
	26	39	2527.573	8188.951	-7991.988	1	11442.5	-44.3026	9.634579E-007	0.1032453	7
	27	40	1976.103	8933.348	-9494.507	1	13036.5	-46.74421	8.44822E-008	0.1032844	6
	28	41	1577.524	9722.9	-11146.77	1	14791.39	-48.90306	9.005461E-008	0.1031786	6
	29	43	1265.625	10635.61	-13044.31	1	16830.64	-50.8081	8.432529E-008	0.1033199	6
	30	44	998.264	11784.71	-15431.16	1	19416.49	-52.63118	8.192485E-008	0.1033397	6
	31	45	796.875	13113.37	-18127.94	1	22373.7	-54.11881	9.000291E-008	0.1031751	6
	32	47	627.7902	14705.12	-21504.95	1	26051.94	-55.63562	8.740144E-008	0.1032725	6
	33	48	505.5147	16459.45	-25097.95	1	30013.68	-56.7428	8.456879E-008	0.1033206	6
	34	49	397.9953	18751.28	-29785.75	1	35196.61	-57.808	8.902356E-008	0.1029312	6
	35	51	315.5048	21377.76	-35138.28	1	41130.37	-58.68411	8.898984E-008	0.1029303	6
	36	52	252.4038	24354.12	-41206.27	1	47865.22	-59.41566	8.93382E-008	0.1029255	6
	37	53	198.6229	28149.96	-48854.42	1	56384.17	-60.04942	8.907273E-008	0.102927	6
	38	55	158.3615	32365.7	-57353.79	1	65855.88	-60.56324	8.914513E-008	0.1029253	6
	39	56	125.558	37510.53	-67601.41	1	77310.99	-60.97507	8.900968E-008	0.1029272	6
	40	57	100.4464	43440.8	-79072.03	1	90219.12	-61.21637	8.849238E-008	0.1029207	6
	41	59	79.00281	50721.57	-94122.2	1	106919	-61.68019	8.858184E-008	0.1029213	6
	42	60	63.3446	57066.14	-108539.2	1	122626.7	-62.26617	8.909282E-008	0.102923	6
	43	62	49.86702	70053.49	-128628.8	1	146467.9	-61.42651	8.789094E-009	0.1029288	5
	44	63	39.72458	80360.95	-152021.2	1	171954.5	-62.13832	9.075804E-009	0.1029371	5
	45	64	31.6723	93021.71	-177565.4	1	200455.7	-62.35117	8.747797E-009	0.1029354	5
	46	66	24.93351	110046.9	-209763.7	1	236877.9	-62.31746	8.932413E-009	0.1029324	5
	47	67	19.86229	128165.5	-246154.7	1	277522.1	-62.49534	8.758937E-009	0.1029285	5
	48	69	15.83615	151872.7	-289514.1	1	326930.8	-62.3195	8.253801E-009	0.1029265	5
	49	70	12.40079	172030.1	-342187.3	1	382996.8	-63.30964	8.707087E-009	0.1029279	5
	50	71	9.93114	202559.7	-399239.2	1	447685.6	-63.09839	9.06098E-009	0.1029308	5
	51	73	7.944915	234327.5	-471783.8	1	526772.6	-63.58715	8.764397E-009	0.1029381	5
	52	75	6.317385	272088.9	-552517.4	1	615879.8	-63.78191	8.858581E-009	0.1029459	5
	53	77	5.008013	316698.7	-655161.7	1	727691.5	-64.20134	8.916312E-008	0.102929	6
	54	79	3.945707	372312.4	-778800.7	1	863219	-64.44946	8.871863E-009	0.1029394	5
	55	82	3.158693	433794.9	-918892.3	1	1016140	-64.72872	8.822772E-009	0.1029319	5
	56	86	2.504006	511047.3	-1091615	1	1205319	-64.91302	8.865936E-009	0.1032127	5
	57	88	1.998082	603853.8	-1290084	1	1424414	-64.91696	8.083926E-010	0.1032591	4
	58	92	1.584686	715320.9	-1533816	1	1692417	-64.99721	8.383854E-010	0.1032512	4
	59	95	1.266892	853673.7	-1806501	1	1998050	-64.70663	7.779251E-010	0.1032449	4
	60	99	0.999041	1028490	-2147045	1	2380670	-64.40437	8.534565E-010	0.103208	4
