EXPLAIN
TAG	EISPOT
TITLE	LABEL	Potentiostatic EIS	Test &Identifier
DATE	LABEL	9/26/2019	Date
TIME	LABEL	9:10:52	Time
NOTES	NOTES	2	&Notes...
	
	
PSTAT	PSTAT	REF600-11020	Potentiostat
VDC	POTEN	0.00000E+000	T	DC &Voltage (V)
FREQINIT	QUANT	1.00000E+006	Initial Fre&q. (Hz)
FREQFINAL	QUANT	1.00000E+000	Final Fre&q. (Hz)
PTSPERDEC	QUANT	1.00000E+001	Points/&decade
VAC	QUANT	2.50000E+001	AC &Voltage (mV rms)
AREA	QUANT	1.00000E-002	&Area (cm^2)
CONDIT	TWOPARAM	T	5.00000E+000	0.00000E+000	Conditionin&g	Time(s)	E(V)
DELAY	TWOPARAM	T	5.00000E+000	0.00000E+000	Init. De&lay	Time(s)	Stab.(mV/s)
SPEED	SELECTOR	1	&Optimize for:
ZGUESS	QUANT	1.00000E+004	E&stimated Z (ohms)
OCVCURVE	TABLE	19
	Pt	T	Vf	Vm	Ach	Over
	#	s	V vs. Ref.	V	V	bits
	0	0.258333	3.23465E-002	3.23465E-002	6.43965E-004	...........
	1	0.516667	3.23908E-002	3.46652E-002	6.42764E-004	...........
	2	0.775	3.26627E-002	3.68604E-002	6.45431E-004	...........
	3	1.03333	3.34313E-002	3.89360E-002	6.36165E-004	...........
	4	1.29167	3.48030E-002	4.09064E-002	6.43665E-004	...........
	5	1.55	3.66201E-002	4.27779E-002	6.39998E-004	...........
	6	1.80833	3.86244E-002	4.45642E-002	6.43765E-004	...........
	7	2.06667	4.06270E-002	4.62582E-002	6.39998E-004	...........
	8	2.325	4.25435E-002	4.78868E-002	6.37398E-004	...........
	9	2.58333	4.43559E-002	4.94276E-002	6.40531E-004	...........
	10	2.84167	4.60724E-002	5.09190E-002	6.45831E-004	...........
	11	3.1	4.77052E-002	5.23440E-002	6.46231E-004	...........
	12	3.35833	4.92650E-002	5.37246E-002	6.43598E-004	...........
	13	3.61667	5.07591E-002	5.49988E-002	6.39331E-004	...........
	14	3.875	5.21894E-002	5.62098E-002	6.41564E-004	...........
	15	4.13333	5.35568E-002	5.75798E-002	6.44598E-004	...........
	16	4.39167	5.48734E-002	5.87756E-002	6.39465E-004	...........
	17	4.65	5.61546E-002	5.97511E-002	6.44231E-004	...........
	18	4.90833	5.73943E-002	6.08903E-002	6.49931E-004	...........
EOC	QUANT	0.0573943	Open Circuit (V)
PSTATMODEL	IQUANT	4	Pstat Model
PSTATSECTION	LABEL	REF600-11020	Pstat Section
PSTATSERIALNO	LABEL	11020	Pstat Serial Number
CTRLMODE	IQUANT	1	Control Mode
IESTAB	IQUANT	0	I/E Stability
CASPEED	IQUANT	1	Control Amp Speed
CONVENTION	IQUANT	1	Current Convention
ICHRANGE	IQUANT	2	Ich Range
ICHRANGEMODE	TOGGLE	F	Ich Auto Range
ICHOFFSETENABLE	TOGGLE	T	Ich Offset Enable
ICHOFFSET	QUANT	0	Ich Offset (V)
ICHFILTER	IQUANT	3	Ich Filter
VCHRANGE	IQUANT	2	Vch Range
VCHRANGEMODE	TOGGLE	F	Vch Auto Range
VCHOFFSETENABLE	TOGGLE	T	Vch Offset Enable
VCHOFFSET	QUANT	0	Vch Offset (V)
VCHFILTER	IQUANT	3	Vch Filter
ACHRANGE	IQUANT	2	Ach Range
ACHOFFSETENABLE	TOGGLE	F	Ach Offset Enable
ACHOFFSET	QUANT	0	Ach Offset (V)
ACHFILTER	IQUANT	3	Ach Filter
IERANGELOWERLIMIT	IQUANT	1	I/E Range Lower Limit
IERANGEMODE	TOGGLE	F	I/E AutoRange
IERANGE	IQUANT	7	I/E Range
POSFEEDENABLE	TOGGLE	F	Positive Feedback IR Comp
POSFEEDRESISTANCE	QUANT	0	Positive Feedback Resistance (ohm)
ACHSELECT	IQUANT	0	Ach Select
CABLEID	IQUANT	14	Cable ID
DCCALDATE	LABEL	8/19/2019	DC Calibration Date
ACCALDATE	LABEL	8/19/2019	AC Calibration Date
THERMOSELECT	IQUANT	1	Thermo Select
FRAMEWORKVERSION	QUANT	6.33	Framework Version
INSTRUMENTVERSION	LABEL	3.50	Instrument Version
ZCURVE	TABLE
	Pt	Time	Freq	Zreal	Zimag	Zsig	Zmod	Zphz	Idc	Vdc	IERange
	#	s	Hz	ohm	ohm	V	ohm	°	A	V	#
	0	2	1000078	2104.943	-1939.563	1	2862.287	-42.65847	8.314733E-006	0.0589988	8
	1	4	794390.6	2456.361	-2011.543	1	3174.904	-39.31445	-3.330639E-006	0.0594979	8
	2	5	630984.4	2837.933	-2044.652	1	3497.78	-35.77169	2.487757E-006	0.0589108	8
	3	6	501234.4	3238.068	-2032.644	1	3823.182	-32.11787	-3.648433E-006	0.0597246	8
	4	8	398109.4	3583.304	-1998.175	1	4102.776	-29.14555	-2.786725E-006	0.0596237	8
	5	10	316265.6	3959.07	-1931.886	1	4405.271	-26.01074	5.126526E-006	0.0582254	8
	6	11	251203.1	4295.729	-1793.603	1	4655.137	-22.66208	-2.762056E-007	0.0590386	8
	7	13	199546.9	4573.069	-1649.473	1	4861.453	-19.83401	-2.833925E-007	0.0592557	8
	8	14	158578.1	4822.647	-1474.741	1	5043.093	-17.00337	7.580375E-007	0.0589338	8
	9	16	125953.1	5073.943	-1265.08	1	5229.276	-14.00004	-9.63653E-007	0.0613102	7
	10	17	100078.1	5222.815	-1110.1	1	5339.487	-11.99954	-5.151094E-008	0.0591601	7
	11	18	79453.13	5355.217	-986.565	1	5445.334	-10.43828	4.250969E-008	0.0589072	7
	12	20	63140.62	5455.492	-879.0005	1	5525.851	-9.152955	-4.492255E-008	0.0590908	7
	13	21	50203.12	5542.405	-790.0536	1	5598.432	-8.112691	-4.103607E-008	0.0590598	7
	14	23	39890.62	5611.458	-721.1518	1	5657.608	-7.323178	7.336137E-009	0.0589733	7
	15	24	31640.63	5673.075	-673.4391	1	5712.906	-6.769785	-8.327933E-008	0.0591805	7
	16	25	25171.88	5734.167	-644.0496	1	5770.223	-6.408483	7.273098E-008	0.0589226	7
	17	27	20015.62	5785.479	-627.7643	1	5819.438	-6.192758	-2.763893E-008	0.0590312	7
	18	28	15890.62	5839.535	-637.174	1	5874.194	-6.227127	7.263722E-008	0.0589236	7
	19	29	12609.37	5893.274	-659.1622	1	5930.023	-6.382002	9.192423E-008	0.0589876	7
	20	31	10078.13	5936.673	-696.2255	1	5977.359	-6.68883	8.340591E-008	0.0588704	7
	21	32	8015.625	5990.066	-757.0646	1	6037.718	-7.203231	-4.598025E-009	0.0590841	7
	22	34	6328.125	6047.414	-842.6278	1	6105.836	-7.932343	-6.173517E-009	0.0590658	7
	23	35	5015.625	6106.521	-955.659	1	6180.849	-8.894534	-7.515752E-009	0.0591811	7
	24	37	3984.375	6165.263	-1097.341	1	6262.158	-10.09226	-6.966124E-009	0.0591793	7
	25	38	3170.956	6235.484	-1273.769	1	6364.256	-11.54539	-4.419372E-008	0.0590535	7
	26	39	2527.573	6311.332	-1493.948	1	6485.737	-13.3173	8.52786E-008	0.058863	7
	27	41	1976.103	6402.69	-1793.108	1	6649.036	-15.64519	-5.954593E-009	0.0591813	7
	28	42	1577.524	6507.093	-2125.973	1	6845.584	-18.09305	1.409151E-007	0.0588279	7
	29	43	1265.625	6617.211	-2537.773	1	7087.156	-20.98237	-2.215461E-008	0.0591026	7
	30	45	998.264	6755.883	-3062.374	1	7417.553	-24.38431	-8.189876E-008	0.0591808	7
	31	46	796.875	6918.161	-3677.729	1	7834.963	-27.99533	9.703158E-009	0.0589647	7
	32	47	627.7902	7123.959	-4474.999	1	8412.871	-32.13547	4.485099E-008	0.0589867	7
	33	49	505.5147	7350.758	-5345.014	1	9088.609	-36.02232	4.46506E-008	0.0589815	7
	34	50	397.9953	7629.469	-6522.075	1	10037.24	-40.52558	-1.00319E-009	0.059	6
	35	51	315.5048	7956.517	-7924.359	1	11229.5	-44.88398	4.41697E-010	0.059003	6
	36	53	252.4038	8329.721	-9567.66	1	12685.6	-48.95678	-1.256314E-009	0.059002	6
	37	54	198.6229	8807.263	-11735.47	1	14672.73	-53.11242	-6.630474E-010	0.0590029	6
	38	56	158.3615	9357.727	-14254.98	1	17052.02	-56.71698	-1.460999E-009	0.058996	6
	39	57	125.558	10050.45	-17416.85	1	20108.66	-60.01275	-6.490966E-010	0.0589914	6
	40	58	100.4464	10892.76	-21145.07	1	23785.84	-62.74501	5.579842E-010	0.0589954	6
	41	60	79.00281	11929.23	-26069.69	1	28669.41	-65.41164	3.920554E-010	0.0589943	6
	42	61	63.3446	12987.05	-31818.83	1	34367.15	-67.79687	-4.53414E-010	0.0589934	6
	43	63	49.86702	15198.1	-38665.9	1	41545.57	-68.5421	-9.937987E-010	0.0589902	6
	44	64	39.72458	17354.45	-47356.43	1	50436.18	-69.87392	-2.476084E-010	0.058991	6
	45	65	31.6723	20515.04	-57638.13	1	61180.23	-70.40792	-7.85026E-011	0.0589998	6
	46	67	24.93351	24394.29	-70693.08	1	74783.64	-70.96181	-4.894112E-010	0.0589903	6
	47	68	19.86229	29413.86	-85783.6	1	90686.28	-71.07396	-5.448165E-010	0.0589949	6
	48	69	15.83615	36272.86	-104674.4	1	110781.1	-70.88725	1.514023E-009	0.0590035	5
	49	71	12.40079	45492.86	-127250.9	1	135138.4	-70.32776	-1.398915E-009	0.058995	5
	50	72	9.93114	56785.02	-150249.5	1	160622.1	-69.29651	-1.002865E-010	0.0589955	5
	51	74	7.944915	69660.84	-178247.9	1	191376.4	-68.654	-1.608898E-009	0.0590011	5
	52	76	6.317385	89355.95	-211979.2	1	230042.8	-67.14304	-1.090805E-009	0.0589922	5
	53	78	5.008013	112995.4	-250360.5	1	274678.7	-65.70888	-9.214258E-010	0.0589918	5
	54	80	3.945707	142697.2	-294634.2	1	327371	-64.15817	-4.879044E-010	0.0590085	5
	55	83	3.158693	176383.9	-340851.8	1	383785.4	-62.63935	-1.036029E-009	0.0589897	5
	56	86	2.504006	218663.1	-393855.3	1	450483.7	-60.96156	-3.661937E-010	0.0589925	5
	57	89	1.998082	265076	-448230.4	1	520745.4	-59.40064	-7.27885E-010	0.0590397	5
	58	92	1.584686	317843.5	-510915.3	1	601713.4	-58.11401	-5.824825E-010	0.0590085	5
	59	95	1.266892	377328	-576897.3	1	689338.1	-56.81273	-7.625987E-010	0.0590385	5
	60	100	0.999041	444547.4	-655224.9	1	791796.7	-55.84447	-6.944323E-010	0.0589579	5
