EXPLAIN
TAG	EISPOT
TITLE	LABEL	Potentiostatic EIS	Test &Identifier
DATE	LABEL	11/3/2019	Date
TIME	LABEL	10:06:16	Time
NOTES	NOTES	1	&Notes...
	
PSTAT	PSTAT	REF600-11020	Potentiostat
VDC	POTEN	0.00000E+000	T	DC &Voltage (V)
FREQINIT	QUANT	1.00000E+006	Initial Fre&q. (Hz)
FREQFINAL	QUANT	1.00000E+000	Final Fre&q. (Hz)
PTSPERDEC	QUANT	1.00000E+001	Points/&decade
VAC	QUANT	2.50000E+001	AC &Voltage (mV rms)
AREA	QUANT	1.00000E-002	&Area (cm^2)
CONDIT	TWOPARAM	T	5.00000E+000	0.00000E+000	Conditionin&g	Time(s)	E(V)
DELAY	TWOPARAM	T	5.00000E+000	0.00000E+000	Init. De&lay	Time(s)	Stab.(mV/s)
SPEED	SELECTOR	1	&Optimize for:
ZGUESS	QUANT	1.00000E+005	E&stimated Z (ohms)
OCVCURVE	TABLE	19
	Pt	T	Vf	Vm	Ach	Over
	#	s	V vs. Ref.	V	V	bits
	0	0.258333	6.82310E-003	6.82310E-003	5.77299E-004	...........
	1	0.516667	6.82114E-003	6.72034E-003	5.74132E-004	...........
	2	0.775	6.80931E-003	6.63454E-003	5.74432E-004	...........
	3	1.03333	6.77686E-003	6.56759E-003	5.74366E-004	...........
	4	1.29167	6.72166E-003	6.51050E-003	5.74899E-004	...........
	5	1.55	6.65360E-003	6.46732E-003	5.74132E-004	...........
	6	1.80833	6.58568E-003	6.42848E-003	5.74266E-004	...........
	7	2.06667	6.52590E-003	6.39586E-003	5.71199E-004	...........
	8	2.325	6.47637E-003	6.37251E-003	5.75032E-004	...........
	9	2.58333	6.43610E-003	6.35165E-003	5.76899E-004	...........
	10	2.84167	6.40346E-003	6.33184E-003	5.70732E-004	...........
	11	3.1	6.37677E-003	6.31642E-003	5.77766E-004	...........
	12	3.35833	6.35453E-003	6.30506E-003	5.76132E-004	...........
	13	3.61667	6.33576E-003	6.29336E-003	5.74932E-004	...........
	14	3.875	6.31997E-003	6.28338E-003	5.75566E-004	...........
	15	4.13333	6.30665E-003	6.27682E-003	5.80266E-004	...........
	16	4.39167	6.29541E-003	6.27297E-003	5.78532E-004	...........
	17	4.65	6.28620E-003	6.26765E-003	5.79632E-004	...........
	18	4.90833	6.27902E-003	6.26831E-003	5.72099E-004	...........
EOC	QUANT	0.006279	Open Circuit (V)
PSTATMODEL	IQUANT	4	Pstat Model
PSTATSECTION	LABEL	REF600-11020	Pstat Section
PSTATSERIALNO	LABEL	11020	Pstat Serial Number
CTRLMODE	IQUANT	1	Control Mode
IESTAB	IQUANT	0	I/E Stability
CASPEED	IQUANT	1	Control Amp Speed
CONVENTION	IQUANT	1	Current Convention
ICHRANGE	IQUANT	2	Ich Range
ICHRANGEMODE	TOGGLE	F	Ich Auto Range
ICHOFFSETENABLE	TOGGLE	T	Ich Offset Enable
ICHOFFSET	QUANT	0	Ich Offset (V)
ICHFILTER	IQUANT	3	Ich Filter
VCHRANGE	IQUANT	2	Vch Range
VCHRANGEMODE	TOGGLE	F	Vch Auto Range
VCHOFFSETENABLE	TOGGLE	T	Vch Offset Enable
VCHOFFSET	QUANT	0	Vch Offset (V)
VCHFILTER	IQUANT	3	Vch Filter
ACHRANGE	IQUANT	2	Ach Range
ACHOFFSETENABLE	TOGGLE	F	Ach Offset Enable
ACHOFFSET	QUANT	0	Ach Offset (V)
ACHFILTER	IQUANT	3	Ach Filter
IERANGELOWERLIMIT	IQUANT	1	I/E Range Lower Limit
IERANGEMODE	TOGGLE	F	I/E AutoRange
IERANGE	IQUANT	5	I/E Range
POSFEEDENABLE	TOGGLE	F	Positive Feedback IR Comp
POSFEEDRESISTANCE	QUANT	0	Positive Feedback Resistance (ohm)
ACHSELECT	IQUANT	0	Ach Select
CABLEID	IQUANT	14	Cable ID
DCCALDATE	LABEL	8/19/2019	DC Calibration Date
ACCALDATE	LABEL	8/19/2019	AC Calibration Date
THERMOSELECT	IQUANT	1	Thermo Select
FRAMEWORKVERSION	QUANT	6.33	Framework Version
INSTRUMENTVERSION	LABEL	3.50	Instrument Version
ZCURVE	TABLE
	Pt	Time	Freq	Zreal	Zimag	Zsig	Zmod	Zphz	Idc	Vdc	IERange
	#	s	Hz	ohm	ohm	V	ohm	°	A	V	#
	0	1	1000078	1978.476	-1137.563	1	2282.196	-29.89759	-6.671425E-006	0.0088987	8
	1	3	794390.6	2207.35	-1052.478	1	2445.425	-25.4921	1.262755E-006	0.0086434	8
	2	4	630984.4	2372.878	-949.1153	1	2555.654	-21.80066	6.809196E-006	0.0071129	8
	3	5	501234.4	2518.662	-825.4442	1	2650.474	-18.14559	-3.695E-006	0.007787	8
	4	7	398109.4	2621.277	-714.6258	1	2716.944	-15.24967	-2.635559E-006	0.0084206	8
	5	8	316265.6	2704.958	-623.0234	1	2775.781	-12.97053	7.691799E-008	0.0075002	8
	6	9	251203.1	2765.122	-537.616	1	2816.901	-11.00261	-1.437966E-006	0.0082218	8
	7	11	199546.9	2814.625	-465.6342	1	2852.881	-9.393579	-5.969341E-006	0.0086921	8
	8	12	158578.1	2853.367	-423.7613	1	2884.663	-8.447408	6.804238E-006	0.0070869	8
	9	13	125953.1	2894.075	-335.1889	1	2913.421	-6.606505	-2.68083E-006	0.0099164	7
	10	15	100078.1	2915.02	-303.1504	1	2930.741	-5.937188	3.635284E-007	0.0082655	7
	11	16	79453.13	2942.691	-296.4938	1	2957.59	-5.753477	-1.031668E-006	0.0092857	7
	12	18	63140.62	2967.054	-294.6112	1	2981.645	-5.67055	-1.03192E-006	0.0092887	7
	13	19	50203.12	2992.275	-300.0952	1	3007.285	-5.727044	-5.861212E-007	0.0092692	7
	14	20	39890.62	3019.927	-312.4567	1	3036.048	-5.907088	3.648505E-007	0.0082553	7
	15	22	31640.63	3050.131	-332.5	1	3068.2	-6.221345	9.440888E-007	0.0071088	7
	16	23	25171.88	3078.841	-358.8574	1	3099.684	-6.648171	1.01587E-006	0.0064044	7
	17	24	20015.62	3109.857	-393.345	1	3134.634	-7.208681	3.644161E-007	0.0082531	7
	18	26	15890.62	3145.746	-439.239	1	3176.263	-7.948789	4.646328E-007	0.0062036	7
	19	27	12609.37	3182.248	-497.0071	1	3220.826	-8.876807	7.695103E-007	0.0075698	7
	20	28	10078.13	3218.517	-563.7469	1	3267.517	-9.93499	-1.143089E-006	0.0087715	7
	21	30	8015.625	3264.771	-647.1698	1	3328.297	-11.21229	3.668695E-007	0.0082485	7
	22	31	6328.125	3311.249	-751.4144	1	3395.437	-12.78547	-5.870995E-007	0.0092576	7
	23	32	5015.625	3364.564	-880.4444	1	3477.855	-14.66442	-2.742866E-007	0.0069419	7
	24	34	3984.375	3418.694	-1035.629	1	3572.114	-16.85319	-9.777731E-007	0.0082317	7
	25	35	3170.956	3485.344	-1225.278	1	3694.446	-19.3692	9.203059E-007	0.0061852	7
	26	36	2527.573	3555.177	-1456.569	1	3841.989	-22.27909	1.028863E-006	0.0067047	7
	27	38	1976.103	3639.78	-1762.702	1	4044.146	-25.84036	-6.716048E-007	0.0075911	7
	28	39	1577.524	3725.989	-2108.388	1	4281.156	-29.50379	7.345837E-007	0.0061088	7
	29	41	1265.625	3834.673	-2519.832	1	4588.493	-33.30962	-2.721879E-007	0.0069471	7
	30	42	998.264	3961.421	-3060.239	1	5005.789	-37.68645	-2.790596E-007	0.0090305	7
	31	43	796.875	4097.625	-3693.544	1	5516.593	-42.03107	5.712693E-007	0.00795	7
	32	45	627.7902	4266.666	-4510.937	1	6209.105	-46.59407	-9.753976E-007	0.0082313	7
	33	46	505.5147	4446.665	-5430.609	1	7018.856	-50.68887	-5.838404E-007	0.0092653	7
	34	47	397.9953	4670.106	-6690.333	1	8159.072	-55.0835	5.417447E-009	0.0077857	7
	35	49	315.5048	4940.651	-8202.173	1	9575.26	-58.93697	5.885738E-009	0.0077873	7
	36	50	252.4038	5262.911	-9993.7	1	11294.79	-62.22769	-1.36072E-010	0.0077266	6
	37	51	198.6229	5690.579	-12372.28	1	13618.22	-65.30013	8.316876E-010	0.0077306	6
	38	53	158.3615	6209.536	-15151.31	1	16374.39	-67.71447	-2.086145E-010	0.0077283	6
	39	54	125.558	6887.48	-18653.1	1	19884.05	-69.73381	3.517222E-010	0.0077326	6
	40	55	100.4464	7757.887	-22756.25	1	24042.29	-71.17512	7.305536E-010	0.0077255	6
	41	57	79.00281	8872.771	-28215.38	1	29577.59	-72.54343	1.120765E-010	0.0077215	6
	42	58	63.3446	10358.36	-34643.37	1	36158.8	-73.35334	-1.149385E-010	0.0077319	6
	43	60	49.86702	12238.26	-42174.54	1	43914.31	-73.81827	1.220158E-009	0.0077158	6
	44	61	39.72458	15013.89	-51597.95	1	53737.94	-73.77614	1.211364E-009	0.007718	6
	45	62	31.6723	18358.6	-62922.64	1	65546.15	-73.73462	-1.155613E-010	0.0077264	6
	46	64	24.93351	23087.88	-77006.91	1	80393.49	-73.31045	9.331441E-010	0.0077139	6
	47	65	19.86229	29031.42	-93104.36	1	97525.6	-72.68169	2.466114E-010	0.007715	6
	48	67	15.83615	37220.04	-112434.2	1	118434.7	-71.68347	1.653989E-009	0.0077216	5
	49	68	12.40079	47005.13	-136625.6	1	144485.4	-71.01456	3.057578E-010	0.0077188	5
	50	70	9.93114	60038.32	-161225	1	172041	-69.57526	1.081893E-009	0.0077101	5
	51	71	7.944915	75497.36	-191460.8	1	205808.4	-68.47955	2.856623E-010	0.0077259	5
	52	73	6.317385	95544.4	-225491.9	1	244898.7	-67.03687	3.494518E-011	0.0077323	5
	53	75	5.008013	120787	-264906.9	1	291144.6	-65.48891	1.927151E-010	0.0077174	5
	54	77	3.945707	151272	-310129.3	1	345055.6	-63.99824	3.356887E-010	0.0077161	5
	55	80	3.158693	185529.3	-357466.6	1	402744.9	-62.57016	8.603018E-011	0.0077203	5
	56	83	2.504006	226310.6	-412440	1	470450.1	-61.24592	1.008751E-010	0.0077126	5
	57	86	1.998082	270569.3	-471915.1	1	543977.6	-60.17249	-1.433816E-010	0.0077357	5
	58	89	1.584686	323778.7	-541262.9	1	630712.4	-59.11251	1.373414E-010	0.0077663	5
	59	93	1.266892	378610.4	-615958.1	1	723014.6	-58.42224	-1.051196E-010	0.0077345	5
	60	97	0.999041	443041.3	-708030.2	1	835219.9	-57.96423	2.208028E-010	0.0077058	5
