EXPLAIN
TAG	EISPOT
TITLE	LABEL	Potentiostatic EIS	Test &Identifier
DATE	LABEL	11/3/2019	Date
TIME	LABEL	9:54:39	Time
NOTES	NOTES	1	&Notes...
	
PSTAT	PSTAT	REF600-11020	Potentiostat
VDC	POTEN	0.00000E+000	T	DC &Voltage (V)
FREQINIT	QUANT	1.00000E+006	Initial Fre&q. (Hz)
FREQFINAL	QUANT	1.00000E+000	Final Fre&q. (Hz)
PTSPERDEC	QUANT	1.00000E+001	Points/&decade
VAC	QUANT	2.50000E+001	AC &Voltage (mV rms)
AREA	QUANT	1.00000E-002	&Area (cm^2)
CONDIT	TWOPARAM	T	5.00000E+000	0.00000E+000	Conditionin&g	Time(s)	E(V)
DELAY	TWOPARAM	T	5.00000E+000	0.00000E+000	Init. De&lay	Time(s)	Stab.(mV/s)
SPEED	SELECTOR	1	&Optimize for:
ZGUESS	QUANT	1.00000E+005	E&stimated Z (ohms)
OCVCURVE	TABLE	19
	Pt	T	Vf	Vm	Ach	Over
	#	s	V vs. Ref.	V	V	bits
	0	0.258333	4.10917E-003	4.10917E-003	5.66699E-004	...........
	1	0.516667	4.11552E-003	4.44176E-003	5.68266E-004	...........
	2	0.775	4.14160E-003	4.08002E-003	5.69732E-004	...........
	3	1.03333	4.18459E-003	4.37072E-003	5.71232E-004	...........
	4	1.29167	4.22227E-003	4.17022E-003	5.69699E-004	...........
	5	1.55	4.24266E-003	4.29354E-003	5.70199E-004	...........
	6	1.80833	4.25195E-003	4.33584E-003	5.69066E-004	...........
	7	2.06667	4.26241E-003	4.30223E-003	5.65699E-004	...........
	8	2.325	4.28403E-003	4.54096E-003	5.65566E-004	...........
	9	2.58333	4.32051E-003	4.35042E-003	5.65032E-004	...........
	10	2.84167	4.36959E-003	4.71752E-003	5.66266E-004	...........
	11	3.1	4.42389E-003	4.30859E-003	5.68266E-004	...........
	12	3.35833	4.47316E-003	4.82055E-003	5.69232E-004	...........
	13	3.61667	4.51220E-003	4.35952E-003	5.64732E-004	...........
	14	3.875	4.54088E-003	4.70343E-003	5.66232E-004	...........
	15	4.13333	4.55632E-003	4.41311E-003	5.62899E-004	...........
	16	4.39167	4.55944E-003	4.71816E-003	5.68066E-004	...........
	17	4.65	4.56107E-003	4.52286E-003	5.65199E-004	...........
	18	4.90833	4.57191E-003	4.75307E-003	5.67432E-004	...........
EOC	QUANT	0.0045719	Open Circuit (V)
PSTATMODEL	IQUANT	4	Pstat Model
PSTATSECTION	LABEL	REF600-11020	Pstat Section
PSTATSERIALNO	LABEL	11020	Pstat Serial Number
CTRLMODE	IQUANT	1	Control Mode
IESTAB	IQUANT	0	I/E Stability
CASPEED	IQUANT	1	Control Amp Speed
CONVENTION	IQUANT	1	Current Convention
ICHRANGE	IQUANT	2	Ich Range
ICHRANGEMODE	TOGGLE	F	Ich Auto Range
ICHOFFSETENABLE	TOGGLE	T	Ich Offset Enable
ICHOFFSET	QUANT	0	Ich Offset (V)
ICHFILTER	IQUANT	3	Ich Filter
VCHRANGE	IQUANT	2	Vch Range
VCHRANGEMODE	TOGGLE	F	Vch Auto Range
VCHOFFSETENABLE	TOGGLE	T	Vch Offset Enable
VCHOFFSET	QUANT	0	Vch Offset (V)
VCHFILTER	IQUANT	3	Vch Filter
ACHRANGE	IQUANT	2	Ach Range
ACHOFFSETENABLE	TOGGLE	F	Ach Offset Enable
ACHOFFSET	QUANT	0	Ach Offset (V)
ACHFILTER	IQUANT	3	Ach Filter
IERANGELOWERLIMIT	IQUANT	1	I/E Range Lower Limit
IERANGEMODE	TOGGLE	F	I/E AutoRange
IERANGE	IQUANT	4	I/E Range
POSFEEDENABLE	TOGGLE	F	Positive Feedback IR Comp
POSFEEDRESISTANCE	QUANT	0	Positive Feedback Resistance (ohm)
ACHSELECT	IQUANT	0	Ach Select
CABLEID	IQUANT	14	Cable ID
DCCALDATE	LABEL	8/19/2019	DC Calibration Date
ACCALDATE	LABEL	8/19/2019	AC Calibration Date
THERMOSELECT	IQUANT	1	Thermo Select
FRAMEWORKVERSION	QUANT	6.33	Framework Version
INSTRUMENTVERSION	LABEL	3.50	Instrument Version
ZCURVE	TABLE
	Pt	Time	Freq	Zreal	Zimag	Zsig	Zmod	Zphz	Idc	Vdc	IERange
	#	s	Hz	ohm	ohm	V	ohm	°	A	V	#
	0	2	1000078	597.8044	-7769.796	1	7792.759	-85.60036	-9.146386E-007	0.0074245	8
	1	4	794390.6	753.8766	-9682.87	1	9712.17	-85.54812	-1.013276E-007	0.0070939	8
	2	6	630984.4	928.9151	-12114.89	1	12150.45	-85.61539	-6.085896E-007	0.0068237	8
	3	7	501234.4	1036.806	-15199.22	1	15234.54	-86.09765	7.84716E-007	0.0058243	8
	4	9	398109.4	1295.013	-18978.43	1	19022.56	-86.09641	-4.697481E-006	0.0064706	8
	5	11	316265.6	1555.522	-23617.04	1	23668.21	-86.23169	-5.032449E-007	0.0057581	8
	6	13	251203.1	2480.026	-28553.81	1	28661.31	-85.03606	2.149324E-006	0.0055142	8
	7	15	199546.9	2335.63	-36698.57	1	36772.82	-86.3584	-3.063913E-006	0.0066072	8
	8	17	158578.1	2920.308	-45804.5	1	45897.5	-86.35199	-1.984399E-006	0.0061573	8
	9	19	125953.1	4249.48	-57385.71	1	57542.83	-85.76491	1.322961E-006	0.0087726	7
	10	21	100078.1	5523.952	-72086.43	1	72297.77	-85.61801	-9.854874E-007	0.0082507	7
	11	22	79453.13	6493.857	-89516.95	1	89752.19	-85.85085	3.279384E-007	0.0039111	7
	12	24	63140.62	8339.155	-111566	1	111877.2	-85.7253	1.451331E-006	0.0037002	7
	13	26	50203.12	10229.33	-139850.7	1	140224.3	-85.81657	-1.5539E-006	0.0081094	7
	14	27	39890.62	13746.49	-174347.6	1	174888.6	-85.49182	6.916426E-007	0.0065617	7
	15	29	31640.63	16456.61	-216260.3	1	216885.5	-85.64838	6.909476E-007	0.0065624	7
	16	31	25171.88	19451.12	-272996.7	1	273688.7	-85.92454	-1.552988E-006	0.0081088	7
	17	32	20015.62	65296.5	-365547.9	1	371333.9	-79.87228	6.917085E-007	0.0065571	7
	18	34	15890.62	44107.49	-425479.8	1	427759.9	-84.08156	6.903186E-007	0.0065552	7
	19	36	12609.37	53098.47	-519328.6	1	522036.1	-84.16211	-4.993996E-008	0.0031589	6
	20	38	10078.13	69441.01	-646611.7	1	650329.7	-83.87038	2.205152E-007	0.001156	6
	21	39	8015.625	23049.56	-868177.5	1	868483.4	-88.47919	2.2151E-007	0.0011556	6
	22	41	6328.125	108174.7	-1002159	1	1007981	-83.83926	1.434933E-007	0.0014119	6
	23	43	5015.625	150997.6	-1242860	1	1251999	-83.07297	2.95767E-007	0.0038497	6
	24	45	3984.375	54014.46	-1462046	1	1463043	-87.8842	-1.509752E-007	0.0045848	6
	25	46	3170.956	271396.5	-1920291	1	1939375	-81.95561	-1.694059E-008	0.0093388	6
	26	48	2527.573	391608.4	-2349398	1	2381812	-80.53668	-1.207424E-007	0.0103172	6
	27	50	1976.103	379731.6	-2888020	1	2912877	-82.50943	-4.970942E-008	0.0031525	6
	28	52	1577.524	472393.8	-1419636	1	1496169	-71.59477	2.954553E-007	0.0038525	6
	29	54	1265.625	1196258	-4507390	1	4663432	-75.1364	-3.610828E-008	0.01022	5
	30	55	998.264	1378619	-5644977	1	5810883	-76.27584	8.773446E-009	0.0017213	5
	31	57	796.875	1665667	-6903436	1	7101541	-76.4349	-1.779443E-008	0.0108733	5
	32	59	627.7902	2537691	-7825646	1	8226822	-72.03322	3.153039E-008	0.0031053	5
	33	60	505.5147	3589966	-9.62884E+006	1	1.02763E+007	-69.5528	1.824202E-008	0.0012184	5
	34	62	397.9953	5497907	-1.213273E+007	1	1.332029E+007	-65.62251	-4.68968E-010	0.0059628	5
	35	63	315.5048	7322019	-1.356898E+007	1	1.541847E+007	-61.64806	-6.188032E-010	0.0059641	5
	36	65	252.4038	1.081224E+007	-1.434415E+007	1	1.796271E+007	-52.99197	-6.693849E-010	0.0059535	5
	37	66	198.6229	1.038391E+007	-1.790557E+007	1	2.069867E+007	-59.88944	8.415694E-011	0.0059468	5
	38	68	158.3615	2.2269E+007	-1.872848E+007	1	2.90975E+007	-40.06422	-3.915261E-011	0.0059447	5
	39	70	125.558	1.684536E+007	-1.710814E+007	1	2.400946E+007	-45.44342	2.216209E-010	0.0059581	4
	40	71	100.4464	2.29232E+007	-1.433875E+007	1	2.703836E+007	-32.0265	1.041329E-010	0.0059381	4
	41	73	79.00281	2890672	-2.810748E+007	1	2.825573E+007	-84.12814	-3.164744E-010	0.0059609	4
	42	74	63.3446	2115617	-4351451	1	4838488	-64.0716	3.238195E-010	0.0059392	4
	43	76	49.86702	1.465408E+007	-1.503821E+007	1	2.099738E+007	-45.7412	1.326984E-010	0.00594	4
	44	78	39.72458	3.200526E+007	1.774383E+007	1	3.659481E+007	29.00414	-2.102385E-010	0.0059419	4
	45	79	31.6723	3.899356E+007	1.693333E+007	1	4.251159E+007	23.47336	8.14992E-011	0.0059617	4
	46	81	24.93351	3.881272E+007	-1.647634E+007	1	4.216512E+007	-23.00165	3.481306E-011	0.005936	4
	47	83	19.86229	3.241003E+007	5807465	1	3.292623E+007	10.15886	-1.913746E-010	0.0059614	4
	48	84	15.83615	1.261084E+007	3.026982E+007	1	3.27917E+007	67.3827	-4.6292E-010	0.0059462	4
	49	86	12.40079	2.742473E+007	476519.2	1	2.742887E+007	0.995444	1.454757E-010	0.0059602	4
	50	87	9.93114	3.603898E+007	-8081240	1	3.693392E+007	-12.63872	-5.758798E-011	0.0059448	4
	51	89	7.944915	2.719922E+007	1.873972E+007	1	3.302991E+007	34.56607	-3.566228E-010	0.0059613	4
	52	91	6.317385	4.397858E+007	-6207312	1	4.441449E+007	-8.033885	2.044408E-011	0.0059434	4
	53	94	5.008013	4.283785E+007	-2858759	1	4.293314E+007	-3.81794	-3.367655E-011	0.005966	4
	54	97	3.945707	3.877871E+007	-2040795	1	3.883237E+007	-3.012509	-7.352378E-011	0.0059505	4
	55	100	3.158693	4.57816E+007	-4762461	1	4.602864E+007	-5.93887	3.177824E-012	0.0059394	4
	56	104	2.504006	1.263288E+008	-1.207548E+007	1	1.269046E+008	-5.460181	2.977688E-011	0.0059563	3
	57	108	1.998082	1.287619E+008	-1.307401E+007	1	1.294239E+008	-5.797735	3.051936E-011	0.0059519	3
	58	112	1.584686	1.287254E+008	-1.149666E+007	1	1.292378E+008	-5.103629	2.925126E-011	0.0059012	3
	59	118	1.266892	6.764847E+008	-1.610505E+008	1	6.953911E+008	-13.39111	-2.042929E-012	0.0059592	2
	60	122	0.999041	6.644982E+008	-1.508836E+008	1	6.814131E+008	-12.79289	-8.308647E-013	0.0059453	2
