EXPLAIN
TAG	EISPOT
TITLE	LABEL	Potentiostatic EIS	Test &Identifier
DATE	LABEL	11/22/2019	Date
TIME	LABEL	0:17:40	Time
NOTES	NOTES	4	&Notes...
	
	
	
	
PSTAT	PSTAT	REF600-11020	Potentiostat
VDC	POTEN	0.00000E+000	T	DC &Voltage (V)
FREQINIT	QUANT	1.00000E+006	Initial Fre&q. (Hz)
FREQFINAL	QUANT	1.00000E+000	Final Fre&q. (Hz)
PTSPERDEC	QUANT	1.00000E+001	Points/&decade
VAC	QUANT	2.50000E+001	AC &Voltage (mV rms)
AREA	QUANT	1.00000E-002	&Area (cm^2)
CONDIT	TWOPARAM	T	5.00000E+000	0.00000E+000	Conditionin&g	Time(s)	E(V)
DELAY	TWOPARAM	T	5.00000E+000	0.00000E+000	Init. De&lay	Time(s)	Stab.(mV/s)
SPEED	SELECTOR	1	&Optimize for:
ZGUESS	QUANT	1.00000E+005	E&stimated Z (ohms)
OCVCURVE	TABLE	19
	Pt	T	Vf	Vm	Ach	Over
	#	s	V vs. Ref.	V	V	bits
	0	0.258333	6.49715E-003	6.49715E-003	5.56466E-004	...........
	1	0.516667	6.49677E-003	6.47694E-003	5.59399E-004	...........
	2	0.775	6.49484E-003	6.48120E-003	5.57233E-004	...........
	3	1.03333	6.49081E-003	6.48094E-003	5.62532E-004	...........
	4	1.29167	6.48590E-003	6.47052E-003	5.61899E-004	...........
	5	1.55	6.48154E-003	6.47378E-003	5.59266E-004	...........
	6	1.80833	6.47873E-003	6.51270E-003	5.59732E-004	...........
	7	2.06667	6.48046E-003	6.53731E-003	5.63066E-004	...........
	8	2.325	6.49072E-003	6.57040E-003	5.63599E-004	...........
	9	2.58333	6.51056E-003	6.60956E-003	5.54999E-004	...........
	10	2.84167	6.53796E-003	6.64474E-003	5.53166E-004	...........
	11	3.1	6.57018E-003	6.67379E-003	5.58399E-004	...........
	12	3.35833	6.60441E-003	6.70185E-003	5.59266E-004	...........
	13	3.61667	6.63815E-003	6.73566E-003	5.56466E-004	...........
	14	3.875	6.67033E-003	6.76246E-003	5.59032E-004	...........
	15	4.13333	6.70109E-003	6.78615E-003	5.53899E-004	...........
	16	4.39167	6.72962E-003	6.76732E-003	5.53133E-004	...........
	17	4.65	6.75358E-003	6.82559E-003	5.55533E-004	...........
	18	4.90833	6.77343E-003	6.85461E-003	5.47366E-004	...........
EOC	QUANT	0.0067734	Open Circuit (V)
PSTATMODEL	IQUANT	4	Pstat Model
PSTATSECTION	LABEL	REF600-11020	Pstat Section
PSTATSERIALNO	LABEL	11020	Pstat Serial Number
CTRLMODE	IQUANT	1	Control Mode
IESTAB	IQUANT	0	I/E Stability
CASPEED	IQUANT	1	Control Amp Speed
CONVENTION	IQUANT	1	Current Convention
ICHRANGE	IQUANT	2	Ich Range
ICHRANGEMODE	TOGGLE	F	Ich Auto Range
ICHOFFSETENABLE	TOGGLE	T	Ich Offset Enable
ICHOFFSET	QUANT	0	Ich Offset (V)
ICHFILTER	IQUANT	3	Ich Filter
VCHRANGE	IQUANT	2	Vch Range
VCHRANGEMODE	TOGGLE	F	Vch Auto Range
VCHOFFSETENABLE	TOGGLE	T	Vch Offset Enable
VCHOFFSET	QUANT	0	Vch Offset (V)
VCHFILTER	IQUANT	3	Vch Filter
ACHRANGE	IQUANT	2	Ach Range
ACHOFFSETENABLE	TOGGLE	F	Ach Offset Enable
ACHOFFSET	QUANT	0	Ach Offset (V)
ACHFILTER	IQUANT	3	Ach Filter
IERANGELOWERLIMIT	IQUANT	1	I/E Range Lower Limit
IERANGEMODE	TOGGLE	F	I/E AutoRange
IERANGE	IQUANT	5	I/E Range
POSFEEDENABLE	TOGGLE	F	Positive Feedback IR Comp
POSFEEDRESISTANCE	QUANT	0	Positive Feedback Resistance (ohm)
ACHSELECT	IQUANT	0	Ach Select
CABLEID	IQUANT	14	Cable ID
DCCALDATE	LABEL	8/19/2019	DC Calibration Date
ACCALDATE	LABEL	8/19/2019	AC Calibration Date
THERMOSELECT	IQUANT	1	Thermo Select
FRAMEWORKVERSION	QUANT	6.33	Framework Version
INSTRUMENTVERSION	LABEL	3.50	Instrument Version
ZCURVE	TABLE
	Pt	Time	Freq	Zreal	Zimag	Zsig	Zmod	Zphz	Idc	Vdc	IERange
	#	s	Hz	ohm	ohm	V	ohm	°	A	V	#
	0	1	1000078	2188.306	-1490.478	1	2647.68	-34.25919	3.380743E-006	0.0085255	8
	1	3	794390.6	2468.809	-1423.884	1	2849.994	-29.97417	-1.527892E-006	0.0082733	8
	2	4	630984.4	2734.095	-1324.706	1	3038.111	-25.85082	-6.726766E-006	0.0095154	8
	3	5	501234.4	2957.36	-1194.368	1	3189.435	-21.99195	-4.175598E-007	0.0088279	8
	4	7	398109.4	3137.825	-1072.841	1	3316.162	-18.87587	-4.701358E-006	0.0087108	8
	5	8	316265.6	3283.38	-944.9319	1	3416.648	-16.05542	4.315356E-006	0.0082787	8
	6	9	251203.1	3406.342	-821.4382	1	3503.988	-13.558	-4.830423E-007	0.0087455	8
	7	11	199546.9	3483.457	-713.6131	1	3555.8	-11.5773	-2.080737E-007	0.0080165	8
	8	12	158578.1	3577.777	-631.5385	1	3633.088	-10.01056	-8.501837E-007	0.0087314	8
	9	13	125953.1	3639.232	-510.8683	1	3674.914	-7.990854	5.752795E-007	0.0105147	7
	10	15	100078.1	3673.062	-449.0048	1	3700.404	-6.96941	1.078788E-006	0.0068007	7
	11	16	79453.13	3705.759	-412.5898	1	3728.657	-6.353003	8.372446E-007	0.0080228	7
	12	17	63140.62	3738.553	-387.941	1	3758.627	-5.924248	8.393026E-007	0.0080243	7
	13	19	50203.12	3765.211	-369.6001	1	3783.308	-5.6063	-1.051136E-006	0.0087903	7
	14	20	39890.62	3795.873	-363.8854	1	3813.275	-5.475838	-1.051546E-006	0.0087905	7
	15	22	31640.63	3827.96	-370.3837	1	3845.837	-5.52659	7.982415E-008	0.009205	7
	16	23	25171.88	3861.3	-384.3514	1	3880.382	-5.684462	7.739766E-007	0.0064856	7
	17	24	20015.62	3888.398	-407.1754	1	3909.659	-5.977967	1.096766E-007	0.0068951	7
	18	26	15890.62	3920.025	-442.2226	1	3944.89	-6.436392	-7.357417E-007	0.0081118	7
	19	27	12609.37	3958.823	-490.801	1	3989.13	-7.06727	4.798896E-007	0.0065925	7
	20	28	10078.13	3990.318	-544.1252	1	4027.246	-7.765038	8.14087E-008	0.0092001	7
	21	30	8015.625	4030.394	-625.22	1	4078.6	-8.817798	8.441283E-007	0.0080084	7
	22	31	6328.125	4071.052	-721.0125	1	4134.407	-10.04335	1.111597E-007	0.0068935	7
	23	32	5015.625	4115.272	-842.5748	1	4200.643	-11.57102	1.113331E-007	0.0068884	7
	24	34	3984.375	4161.113	-994.241	1	4278.245	-13.43809	-1.091617E-006	0.0098819	7
	25	35	3170.956	4219.971	-1179.286	1	4381.652	-15.61321	4.816789E-007	0.0065912	7
	26	36	2527.573	4280.711	-1405.32	1	4505.487	-18.17456	8.038985E-008	0.0092013	7
	27	38	1976.103	4356.655	-1707.807	1	4679.429	-21.40516	-1.223388E-006	0.0097073	7
	28	39	1577.524	4441.014	-2057.095	1	4894.307	-24.85376	-2.811313E-007	0.0095972	7
	29	40	1265.625	4543.104	-2460.375	1	5166.55	-28.43831	7.940219E-008	0.0092046	7
	30	42	998.264	4671.754	-3001.98	1	5553.123	-32.72403	1.020683E-006	0.0075207	7
	31	43	796.875	4812.264	-3624.501	1	6024.524	-36.98633	4.824244E-007	0.0065895	7
	32	44	627.7902	4990.489	-4419.506	1	6666.109	-41.52765	-1.051411E-006	0.008781	7
	33	46	505.5147	5189.34	-5313.872	1	7427.415	-45.6793	-1.219304E-006	0.0093468	7
	34	47	397.9953	5431.727	-6534.046	1	8496.906	-50.26339	6.646943E-009	0.0082725	7
	35	49	315.5048	5722.629	-7985.485	1	9824.28	-54.37352	6.17171E-009	0.0082739	7
	36	50	252.4038	6065.874	-9698.3	1	11439.05	-57.97577	6.956724E-010	0.0082166	6
	37	51	198.6229	6512.838	-11964.23	1	13622.04	-61.43793	4.677583E-010	0.00822	6
	38	53	158.3615	7045.097	-14605.03	1	16215.43	-64.2485	-6.885933E-011	0.0082196	6
	39	54	125.558	7730.022	-17934.71	1	19529.64	-66.68352	5.239673E-010	0.0082155	6
	40	56	100.4464	8565.391	-21832.17	1	23452.28	-68.57849	1.214539E-009	0.0082106	6
	41	57	79.00281	9789.37	-27067.22	1	28783.08	-70.11652	7.316794E-010	0.0082116	6
	42	58	63.3446	11467.6	-32793.13	1	34740.39	-70.72552	9.348884E-010	0.0082154	6
	43	60	49.86702	13147.65	-40672.95	1	42745.17	-72.08642	7.583775E-010	0.0082117	6
	44	61	39.72458	15775.83	-49303.7	1	51766.12	-72.25676	9.224615E-010	0.0082151	6
	45	62	31.6723	19127.23	-60057.29	1	63029.59	-72.3342	1.559039E-010	0.0082105	6
	46	64	24.93351	24023.66	-73346.8	1	77180.88	-71.86456	-4.872978E-011	0.008216	6
	47	65	19.86229	29980.55	-88565.63	1	93502.43	-71.29841	7.541877E-011	0.0082187	6
	48	67	15.83615	37714.92	-107097.6	1	113544.4	-70.60005	2.178034E-009	0.0082198	5
	49	68	12.40079	48168.12	-128353.2	1	137093.8	-69.42999	1.983066E-010	0.0082274	5
	50	69	9.93114	62266.78	-151939.8	1	164203.7	-67.71558	6.451182E-010	0.008222	5
	51	71	7.944915	78551.66	-179227.9	1	195685.9	-66.33321	2.059305E-010	0.0082117	5
	52	73	6.317385	99231	-208462.3	1	230875.1	-64.5449	4.729244E-010	0.0082105	5
	53	75	5.008013	125009	-242177	1	272538	-62.69773	-6.313778E-011	0.0082227	5
	54	77	3.945707	155983.9	-279660.5	1	320220.2	-60.8489	5.804429E-011	0.0082222	5
	55	80	3.158693	188973.6	-317584.1	1	369554.8	-59.24588	-1.17377E-010	0.0082126	5
	56	83	2.504006	227362.5	-360587.5	1	426282.9	-57.7672	3.15183E-010	0.008227	5
	57	86	1.998082	268471.4	-406886.8	1	487476.9	-56.58244	3.518424E-010	0.0082373	5
	58	89	1.584686	314499.5	-458692.6	1	556155.4	-55.56378	1.120945E-010	0.0081864	5
	59	93	1.266892	361944.9	-518278.8	1	632152.7	-55.07111	2.04943E-010	0.0082472	5
	60	97	0.999041	417523.7	-590541.3	1	723232.4	-54.73898	-1.330189E-010	0.008186	5
