EXPLAIN
TAG	EISPOT
TITLE	LABEL	Potentiostatic IDE	Test &Identifier
DATE	LABEL	9/8/2019	Date
TIME	LABEL	8:03:56	Time
NOTES	NOTES	1	&Notes...
	
PSTAT	PSTAT	REF600-11020	Potentiostat
VDC	POTEN	0.00000E+000	T	DC &Voltage (V)
FREQINIT	QUANT	1.00000E+006	Initial Fre&q. (Hz)
FREQFINAL	QUANT	1.00000E+000	Final Fre&q. (Hz)
PTSPERDEC	QUANT	1.00000E+001	Points/&decade
VAC	QUANT	2.50000E+001	AC &Voltage (mV rms)
AREA	QUANT	1.00000E-002	&Area (cm^2)
CONDIT	TWOPARAM	T	5.00000E+000	0.00000E+000	Conditionin&g	Time(s)	E(V)
DELAY	TWOPARAM	T	5.00000E+000	0.00000E+000	Init. De&lay	Time(s)	Stab.(mV/s)
SPEED	SELECTOR	1	&Optimize for:
ZGUESS	QUANT	1.00000E+007	E&stimated Z (ohms)
OCVCURVE	TABLE	19
	Pt	T	Vf	Vm	Ach	Over
	#	s	V vs. Ref.	V	V	bits
	0	0.258333	4.62781E-002	4.62781E-002	5.76066E-004	...........
	1	0.516667	4.63359E-002	4.93032E-002	5.76032E-004	...........
	2	0.775	4.66874E-002	5.19922E-002	5.74899E-004	...........
	3	1.03333	4.76673E-002	5.44168E-002	5.70232E-004	...........
	4	1.29167	4.93831E-002	5.66144E-002	5.70666E-004	...........
	5	1.55	5.15972E-002	5.86133E-002	5.72399E-004	...........
	6	1.80833	5.39583E-002	6.04318E-002	5.72499E-004	...........
	7	2.06667	5.62238E-002	6.20924E-002	5.68266E-004	...........
	8	2.325	5.82970E-002	6.36348E-002	5.74532E-004	...........
	9	2.58333	6.01719E-002	6.50925E-002	5.69232E-004	...........
	10	2.84167	6.18785E-002	6.64445E-002	5.69932E-004	...........
	11	3.1	6.34497E-002	6.76850E-002	5.71232E-004	...........
	12	3.35833	6.49069E-002	6.87915E-002	5.72799E-004	...........
	13	3.61667	6.62563E-002	6.98040E-002	5.68666E-004	...........
	14	3.875	6.74971E-002	7.07433E-002	5.73432E-004	...........
	15	4.13333	6.86314E-002	7.16126E-002	5.70866E-004	...........
	16	4.39167	6.96685E-002	7.24186E-002	5.71732E-004	...........
	17	4.65	7.06213E-002	7.31883E-002	5.76599E-004	...........
	18	4.90833	7.15036E-002	7.39400E-002	5.75299E-004	...........
EOC	QUANT	0.0715036	Open Circuit (V)
PSTATMODEL	IQUANT	4	Pstat Model
PSTATSECTION	LABEL	REF600-11020	Pstat Section
PSTATSERIALNO	LABEL	11020	Pstat Serial Number
CTRLMODE	IQUANT	1	Control Mode
IESTAB	IQUANT	0	I/E Stability
CASPEED	IQUANT	1	Control Amp Speed
CONVENTION	IQUANT	1	Current Convention
ICHRANGE	IQUANT	2	Ich Range
ICHRANGEMODE	TOGGLE	F	Ich Auto Range
ICHOFFSETENABLE	TOGGLE	T	Ich Offset Enable
ICHOFFSET	QUANT	0	Ich Offset (V)
ICHFILTER	IQUANT	3	Ich Filter
VCHRANGE	IQUANT	2	Vch Range
VCHRANGEMODE	TOGGLE	F	Vch Auto Range
VCHOFFSETENABLE	TOGGLE	T	Vch Offset Enable
VCHOFFSET	QUANT	0	Vch Offset (V)
VCHFILTER	IQUANT	3	Vch Filter
ACHRANGE	IQUANT	2	Ach Range
ACHOFFSETENABLE	TOGGLE	F	Ach Offset Enable
ACHOFFSET	QUANT	0	Ach Offset (V)
ACHFILTER	IQUANT	3	Ach Filter
IERANGELOWERLIMIT	IQUANT	1	I/E Range Lower Limit
IERANGEMODE	TOGGLE	F	I/E AutoRange
IERANGE	IQUANT	4	I/E Range
POSFEEDENABLE	TOGGLE	F	Positive Feedback IR Comp
POSFEEDRESISTANCE	QUANT	0	Positive Feedback Resistance (ohm)
ACHSELECT	IQUANT	0	Ach Select
CABLEID	IQUANT	14	Cable ID
DCCALDATE	LABEL	8/19/2019	DC Calibration Date
ACCALDATE	LABEL	8/19/2019	AC Calibration Date
THERMOSELECT	IQUANT	1	Thermo Select
FRAMEWORKVERSION	QUANT	6.33	Framework Version
INSTRUMENTVERSION	LABEL	3.50	Instrument Version
ZCURVE	TABLE
	Pt	Time	Freq	Zreal	Zimag	Zsig	Zmod	Zphz	Idc	Vdc	IERange
	#	s	Hz	ohm	ohm	V	ohm	°	A	V	#
	0	3	1000078	2455.598	-1358.093	1	2806.132	-28.94523	2.392047E-006	0.0736477	8
	1	4	794390.6	2703.945	-1244.138	1	2976.441	-24.70809	-5.936448E-007	0.0732588	8
	2	5	630984.4	2906.212	-1119.588	1	3114.409	-21.06865	-2.766642E-006	0.0736776	8
	3	7	501234.4	3051.955	-975.447	1	3204.048	-17.72461	-8.448862E-007	0.0736032	8
	4	8	398109.4	3195.109	-840.2656	1	3303.751	-14.73429	4.828972E-006	0.0723276	8
	5	10	316265.6	3274.714	-703.1692	1	3349.358	-12.11893	3.925894E-007	0.0730548	8
	6	11	251203.1	3343.281	-626.3064	1	3401.439	-10.6104	4.552835E-006	0.0723182	8
	7	13	199546.9	3389.625	-540.7998	1	3432.495	-9.064891	4.400947E-006	0.0723293	8
	8	14	158578.1	3433.573	-494.5359	1	3469.004	-8.195922	1.679861E-007	0.0729684	8
	9	15	125953.1	3495.01	-397.2809	1	3517.517	-6.485026	-1.555307E-006	0.076122	7
	10	17	100078.1	3513.761	-365.3189	1	3532.701	-5.935606	-6.818038E-008	0.0732396	7
	11	18	79453.13	3540.296	-356.605	1	3558.21	-5.751857	-3.324594E-008	0.0732821	7
	12	19	63140.62	3570.252	-358.4012	1	3588.196	-5.732456	-2.486666E-008	0.0731707	7
	13	20	50203.12	3600.599	-367.062	1	3619.261	-5.820891	-2.507294E-008	0.0731737	7
	14	22	39890.62	3627.771	-383.2444	1	3647.958	-6.030464	2.653255E-008	0.0730833	7
	15	23	31640.63	3666.702	-410.2797	1	3689.584	-6.384462	-5.906194E-008	0.0731502	7
	16	24	25171.88	3704.958	-445.6774	1	3731.667	-6.859275	8.026171E-008	0.0729478	7
	17	26	20015.62	3746.906	-492.8976	1	3779.187	-7.49411	-4.585236E-008	0.0731043	7
	18	27	15890.62	3792.489	-549.9872	1	3832.161	-8.251515	6.966339E-008	0.0730844	7
	19	28	12609.37	3844.825	-621.3824	1	3894.713	-9.180492	-1.452623E-008	0.0731456	7
	20	30	10078.13	3901.728	-702.886	1	3964.534	-10.21215	1.809542E-008	0.0730023	7
	21	31	8015.625	3965.545	-805.321	1	4046.491	-11.47949	-8.496081E-008	0.0732189	7
	22	32	6328.125	4040.541	-929.6956	1	4146.119	-12.95776	2.741076E-008	0.0730738	7
	23	34	5015.625	4125.195	-1076.394	1	4263.315	-14.6242	-3.147229E-008	0.0730915	7
	24	35	3984.375	4218.575	-1248.438	1	4399.428	-16.4855	2.78249E-008	0.0730764	7
	25	36	3170.956	4325.863	-1452.584	1	4563.232	-18.56156	-8.346216E-008	0.0732158	7
	26	38	2527.573	4445.489	-1693.733	1	4757.216	-20.85686	-5.285175E-008	0.0732437	7
	27	39	1976.103	4595.381	-2002.259	1	5012.641	-23.54329	-4.807698E-009	0.0730384	7
	28	40	1577.524	4756.078	-2345.296	1	5302.894	-26.24862	-1.91065E-008	0.0731338	7
	29	42	1265.625	4928.276	-2737.198	1	5637.389	-29.04808	5.020761E-008	0.0729287	7
	30	43	998.264	5143.632	-3245.796	1	6082.117	-32.25323	2.07937E-008	0.0729967	7
	31	44	796.875	5377.937	-3824.344	1	6599.076	-35.41729	-5.809733E-008	0.0731407	7
	32	46	627.7902	5667.166	-4562.189	1	7275.324	-38.83481	2.154346E-008	0.0730074	7
	33	47	505.5147	5975.181	-5377.693	1	8038.804	-41.98737	-1.872993E-008	0.0731332	7
	34	48	397.9953	6369.294	-6453.044	1	9066.956	-45.37423	-2.533002E-010	0.0731213	7
	35	50	315.5048	6839.115	-7724.933	1	10317.37	-48.48057	-6.746098E-009	0.0730591	6
	36	51	252.4038	7385.185	-9198.638	1	11796.44	-51.24054	-6.272593E-009	0.0730585	6
	37	52	198.6229	8115.835	-11111.28	1	13759.62	-53.85507	-6.831796E-009	0.0730594	6
	38	54	158.3615	8913.934	-13832.4	1	16455.81	-57.20129	-1.050099E-008	0.0730554	6
	39	55	125.558	9969.93	-16705.63	1	19454.5	-59.17123	-1.020761E-008	0.0730541	6
	40	56	100.4464	11285.55	-19960.53	1	22930.03	-60.51646	-1.08832E-008	0.0730493	6
	41	58	79.00281	13043.89	-24236.04	1	27523.25	-61.71076	-1.066325E-008	0.0730475	6
	42	59	63.3446	14960.3	-28580.81	1	32259.47	-62.3707	-9.904618E-009	0.0730446	6
	43	61	49.86702	18312.49	-34616.71	1	39162.02	-62.12083	-8.531867E-009	0.0730439	6
	44	62	39.72458	21584.88	-41127.94	1	46447.98	-62.30849	-1.005062E-008	0.0730547	6
	45	63	31.6723	26234.98	-48454.04	1	55100.52	-61.56709	-8.289592E-009	0.0730518	6
	46	65	24.93351	32157.32	-57526.53	1	65904.44	-60.79482	-9.304855E-009	0.0730441	6
	47	66	19.86229	39264.29	-66938.2	1	77604.16	-59.60517	-9.429893E-009	0.0730529	6
	48	67	15.83615	48196.97	-77306.58	1	91100.25	-58.05843	-9.759119E-009	0.0730456	6
	49	69	12.40079	59927.02	-89951.03	1	108085.3	-56.32772	-1.016007E-008	0.0730617	5
	50	70	9.93114	71390.35	-101650.3	1	124215	-54.91912	-8.208072E-009	0.0730554	5
	51	72	7.944915	85101.05	-114857.8	1	142949.3	-53.46431	-8.847187E-009	0.0730644	5
	52	73	6.317385	103010.4	-134898.2	1	169731.2	-52.63406	-8.383299E-009	0.0730798	5
	53	75	5.008013	122260.3	-150596.5	1	193976.5	-50.92893	-7.598866E-009	0.0730751	5
	54	78	3.945707	144316.1	-167763.8	1	221295.8	-49.29676	-8.781409E-009	0.0730529	5
	55	80	3.158693	167158	-184543.3	1	248994	-47.82994	-8.033256E-009	0.0730575	5
	56	84	2.504006	192716.1	-203232.3	1	280076.5	-46.52139	-7.977926E-009	0.0730677	5
	57	86	1.998082	219478.5	-223279.9	1	313089	-45.49191	-7.314851E-009	0.0730788	5
	58	89	1.584686	249583.6	-244843.9	1	349629.1	-44.45076	-7.663251E-009	0.073024	5
	59	93	1.266892	282189.3	-269740.5	1	390372.6	-43.70791	-7.460557E-009	0.0730754	5
	60	97	0.999041	320303.5	-297721.8	1	437301.5	-42.90743	-8.353709E-009	0.0730194	5
