EXPLAIN
TAG	EISPOT
TITLE	LABEL	Potentiostatic EIS	Test &Identifier
DATE	LABEL	10/20/2019	Date
TIME	LABEL	10:32:36	Time
NOTES	NOTES	1	&Notes...
	
PSTAT	PSTAT	REF600-11020	Potentiostat
VDC	POTEN	0.00000E+000	T	DC &Voltage (V)
FREQINIT	QUANT	1.00000E+006	Initial Fre&q. (Hz)
FREQFINAL	QUANT	1.00000E+000	Final Fre&q. (Hz)
PTSPERDEC	QUANT	1.00000E+001	Points/&decade
VAC	QUANT	2.50000E+001	AC &Voltage (mV rms)
AREA	QUANT	1.00000E-002	&Area (cm^2)
CONDIT	TWOPARAM	T	5.00000E+000	0.00000E+000	Conditionin&g	Time(s)	E(V)
DELAY	TWOPARAM	T	5.00000E+000	0.00000E+000	Init. De&lay	Time(s)	Stab.(mV/s)
SPEED	SELECTOR	1	&Optimize for:
ZGUESS	QUANT	1.00000E+005	E&stimated Z (ohms)
OCVCURVE	TABLE	19
	Pt	T	Vf	Vm	Ach	Over
	#	s	V vs. Ref.	V	V	bits
	0	0.258333	5.35015E-003	5.35015E-003	5.43699E-004	...........
	1	0.516667	5.34225E-003	4.93653E-003	5.44466E-004	...........
	2	0.775	5.29493E-003	4.60717E-003	5.45999E-004	...........
	3	1.03333	5.16339E-003	4.20496E-003	5.45033E-004	...........
	4	1.29167	4.93979E-003	4.40574E-003	5.45999E-004	...........
	5	1.55	4.68785E-003	4.44683E-003	5.47466E-004	...........
	6	1.80833	4.50124E-003	4.49199E-003	5.52432E-004	...........
	7	2.06667	4.41756E-003	4.23831E-003	5.49566E-004	...........
	8	2.325	4.38952E-003	4.07072E-003	5.38366E-004	...........
	9	2.58333	4.34039E-003	3.79951E-003	5.39933E-004	...........
	10	2.84167	4.24719E-003	4.65112E-003	5.47066E-004	...........
	11	3.1	4.17070E-003	4.09219E-003	5.40466E-004	...........
	12	3.35833	4.16750E-003	4.31234E-003	5.38133E-004	...........
	13	3.61667	4.20919E-003	4.22431E-003	5.41966E-004	...........
	14	3.875	4.24161E-003	4.22851E-003	5.42499E-004	...........
	15	4.13333	4.24943E-003	4.17141E-003	5.42233E-004	...........
	16	4.39167	4.23478E-003	3.96955E-003	5.37633E-004	...........
	17	4.65	4.18951E-003	3.74981E-003	5.43299E-004	...........
	18	4.90833	4.09990E-003	3.66300E-003	5.44433E-004	...........
EOC	QUANT	0.0040999	Open Circuit (V)
PSTATMODEL	IQUANT	4	Pstat Model
PSTATSECTION	LABEL	REF600-11020	Pstat Section
PSTATSERIALNO	LABEL	11020	Pstat Serial Number
CTRLMODE	IQUANT	1	Control Mode
IESTAB	IQUANT	0	I/E Stability
CASPEED	IQUANT	1	Control Amp Speed
CONVENTION	IQUANT	1	Current Convention
ICHRANGE	IQUANT	2	Ich Range
ICHRANGEMODE	TOGGLE	F	Ich Auto Range
ICHOFFSETENABLE	TOGGLE	T	Ich Offset Enable
ICHOFFSET	QUANT	0	Ich Offset (V)
ICHFILTER	IQUANT	3	Ich Filter
VCHRANGE	IQUANT	2	Vch Range
VCHRANGEMODE	TOGGLE	F	Vch Auto Range
VCHOFFSETENABLE	TOGGLE	T	Vch Offset Enable
VCHOFFSET	QUANT	0	Vch Offset (V)
VCHFILTER	IQUANT	3	Vch Filter
ACHRANGE	IQUANT	2	Ach Range
ACHOFFSETENABLE	TOGGLE	F	Ach Offset Enable
ACHOFFSET	QUANT	0	Ach Offset (V)
ACHFILTER	IQUANT	3	Ach Filter
IERANGELOWERLIMIT	IQUANT	1	I/E Range Lower Limit
IERANGEMODE	TOGGLE	F	I/E AutoRange
IERANGE	IQUANT	4	I/E Range
POSFEEDENABLE	TOGGLE	F	Positive Feedback IR Comp
POSFEEDRESISTANCE	QUANT	0	Positive Feedback Resistance (ohm)
ACHSELECT	IQUANT	0	Ach Select
CABLEID	IQUANT	14	Cable ID
DCCALDATE	LABEL	8/19/2019	DC Calibration Date
ACCALDATE	LABEL	8/19/2019	AC Calibration Date
THERMOSELECT	IQUANT	1	Thermo Select
FRAMEWORKVERSION	QUANT	6.33	Framework Version
INSTRUMENTVERSION	LABEL	3.50	Instrument Version
ZCURVE	TABLE
	Pt	Time	Freq	Zreal	Zimag	Zsig	Zmod	Zphz	Idc	Vdc	IERange
	#	s	Hz	ohm	ohm	V	ohm	°	A	V	#
	0	2	1000078	2602.454	-1656.429	1	3084.886	-32.47624	-4.087226E-006	0.0063565	8
	1	4	794390.6	2926.724	-1542.403	1	3308.281	-27.78953	6.071783E-006	0.0051768	8
	2	5	630984.4	3197.732	-1411.545	1	3495.418	-23.81766	-5.272638E-006	0.0065543	8
	3	6	501234.4	3421.415	-1271.988	1	3650.21	-20.39375	5.961495E-007	0.0055727	8
	4	8	398109.4	3603.192	-1121.53	1	3773.701	-17.28928	-1.180527E-006	0.0060542	8
	5	9	316265.6	3739.743	-978.577	1	3865.656	-14.66378	-1.285565E-007	0.0055082	8
	6	10	251203.1	3854.941	-847.7885	1	3947.064	-12.40318	-2.617331E-006	0.0060838	8
	7	12	199546.9	3932.097	-741.4618	1	4001.394	-10.67867	1.74898E-006	0.0053571	8
	8	13	158578.1	4029.958	-663.3979	1	4084.196	-9.347997	-1.078885E-006	0.0059765	8
	9	15	125953.1	4089.255	-538.3426	1	4124.539	-7.499751	-6.386012E-007	0.0074229	7
	10	16	100078.1	4114.778	-490.0439	1	4143.856	-6.791575	-1.334011E-008	0.0054875	7
	11	18	79453.13	4162.484	-476.9561	1	4189.721	-6.536699	9.3326E-008	0.0053434	7
	12	19	63140.62	4203.491	-465.9378	1	4229.235	-6.325156	5.231569E-008	0.005452	7
	13	20	50203.12	4247.842	-464.9845	1	4273.215	-6.246936	5.358617E-008	0.0054502	7
	14	22	39890.62	4293.142	-472.8965	1	4319.109	-6.285882	8.983733E-011	0.0055275	7
	15	23	31640.63	4338.823	-490.8892	1	4366.504	-6.454927	9.460897E-008	0.0053396	7
	16	24	25171.88	4388.022	-517.9182	1	4418.481	-6.731477	-7.045571E-008	0.005632	7
	17	26	20015.62	4422.956	-555.6243	1	4457.719	-7.160152	-8.445291E-008	0.0057912	7
	18	27	15890.62	4496.923	-602.2307	1	4537.07	-7.627701	-6.446971E-009	0.0055149	7
	19	29	12609.37	4558.64	-664.4277	1	4606.806	-8.292543	-5.584123E-008	0.0056311	7
	20	30	10078.13	4620.254	-733.3555	1	4678.093	-9.019103	1.184794E-007	0.005405	7
	21	31	8015.625	4676.803	-823.4814	1	4748.748	-9.98616	5.202035E-008	0.0054647	7
	22	33	6328.125	4765.704	-922.3212	1	4854.133	-10.95322	3.110813E-008	0.0055974	7
	23	34	5015.625	4843.118	-1048.773	1	4955.372	-12.21869	1.28901E-010	0.0055193	7
	24	35	3984.375	4930.492	-1195.664	1	5073.397	-13.63131	-6.90477E-008	0.0056783	7
	25	37	3170.956	5010.216	-1389.585	1	5199.347	-15.50137	-7.207623E-008	0.0056297	7
	26	38	2527.573	5102.318	-1617.24	1	5352.487	-17.58663	-8.572496E-008	0.0057885	7
	27	39	1976.103	5210.9	-1921.446	1	5553.866	-20.24074	1.618191E-009	0.0055226	7
	28	41	1577.524	5339.904	-2287.39	1	5809.194	-23.18826	1.53691E-009	0.0055238	7
	29	42	1265.625	5448.34	-2683.39	1	6073.301	-26.22094	9.619202E-008	0.0053331	7
	30	44	998.264	5598.102	-3227.836	1	6462.018	-29.96752	2.950358E-008	0.0054147	7
	31	45	796.875	5759.777	-3860.122	1	6933.655	-33.82944	-8.355799E-008	0.0057866	7
	32	46	627.7902	5961.863	-4687.907	1	7584.212	-38.17853	-7.214206E-008	0.0056816	7
	33	48	505.5147	6167.971	-5603.299	1	8333.116	-42.25361	5.164326E-008	0.005443	7
	34	49	397.9953	6439.979	-6843.311	1	9397.033	-46.73919	4.670619E-009	0.0055453	7
	35	50	315.5048	6750.338	-8336.979	1	10727.17	-51.00338	1.101309E-009	0.0054835	6
	36	52	252.4038	7103.012	-10100.61	1	12348.08	-54.88411	5.818026E-010	0.0054819	6
	37	53	198.6229	7566.198	-12447.15	1	14566.36	-58.706	1.286231E-009	0.0054779	6
	38	55	158.3615	8110.76	-15186.64	1	17216.81	-61.89457	-3.642101E-010	0.0054797	6
	39	56	125.558	8819.203	-18653.18	1	20632.97	-64.69527	1.062924E-009	0.0054784	6
	40	57	100.4464	9689.18	-22759.32	1	24735.94	-66.93941	-5.568911E-010	0.0054774	6
	41	59	79.00281	11005.69	-28181.83	1	30254.6	-68.66814	1.458857E-009	0.0054779	6
	42	60	63.3446	12954.52	-34399.1	1	36757.55	-69.36389	1.220235E-009	0.0054754	6
	43	62	49.86702	14174.43	-42285.18	1	44597.66	-71.46832	1.40807E-009	0.0054729	6
	44	63	39.72458	17246	-51323.5	1	54143.57	-71.42634	9.332051E-010	0.0054786	6
	45	64	31.6723	20725.6	-62309.5	1	65666	-71.60167	2.938654E-010	0.0054744	6
	46	66	24.93351	26004.67	-76189.81	1	80505.47	-71.1545	9.638168E-011	0.0054761	6
	47	67	19.86229	32086.29	-91699.67	1	97151.2	-70.71474	-3.658872E-010	0.0054758	6
	48	68	15.83615	38784.44	-111212.1	1	117781	-70.77414	3.400576E-009	0.0054769	5
	49	70	12.40079	53560.18	-132024	1	142474.7	-67.91834	-1.360892E-009	0.0054796	5
	50	71	9.93114	65601.38	-156576.3	1	169763.6	-67.26759	1.064614E-009	0.0054715	5
	51	73	7.944915	82398.35	-184217.5	1	201805.8	-65.90159	-1.565928E-010	0.0054737	5
	52	75	6.317385	103945.7	-214978	1	238789.1	-64.1954	2.961601E-010	0.0054629	5
	53	77	5.008013	130168.1	-249806.8	1	281686.3	-62.4771	2.209628E-010	0.0054816	5
	54	79	3.945707	160713.9	-288914.8	1	330606.6	-60.91424	-2.616376E-010	0.0054759	5
	55	82	3.158693	193975.9	-327114.6	1	380303.3	-59.33245	3.444478E-010	0.0054922	5
	56	85	2.504006	231986.1	-372732.2	1	439029.5	-58.10213	-3.085154E-010	0.0054717	5
	57	88	1.998082	272071.3	-420998.8	1	501261.2	-57.12735	-4.817957E-011	0.0054559	5
	58	91	1.584686	317033.2	-477114.9	1	572842.6	-56.39677	1.003625E-010	0.0055232	5
	59	95	1.266892	361870.1	-542163.9	1	651837.1	-56.27867	-8.313479E-011	0.0054741	5
	60	99	0.999041	414982.6	-623732.3	1	749167.9	-56.36332	3.085118E-010	0.0054952	5
