EXPLAIN
TAG	EISPOT
TITLE	LABEL	Potentiostatic EIS	Test &Identifier
DATE	LABEL	10/10/2019	Date
TIME	LABEL	9:20:25	Time
NOTES	NOTES	1	&Notes...
	
PSTAT	PSTAT	REF600-11020	Potentiostat
VDC	POTEN	0.00000E+000	T	DC &Voltage (V)
FREQINIT	QUANT	1.00000E+006	Initial Fre&q. (Hz)
FREQFINAL	QUANT	1.00000E+000	Final Fre&q. (Hz)
PTSPERDEC	QUANT	1.00000E+001	Points/&decade
VAC	QUANT	2.50000E+001	AC &Voltage (mV rms)
AREA	QUANT	1.00000E-002	&Area (cm^2)
CONDIT	TWOPARAM	T	5.00000E+000	0.00000E+000	Conditionin&g	Time(s)	E(V)
DELAY	TWOPARAM	T	5.00000E+000	0.00000E+000	Init. De&lay	Time(s)	Stab.(mV/s)
SPEED	SELECTOR	1	&Optimize for:
ZGUESS	QUANT	1.00000E+004	E&stimated Z (ohms)
OCVCURVE	TABLE	19
	Pt	T	Vf	Vm	Ach	Over
	#	s	V vs. Ref.	V	V	bits
	0	0.258333	5.74566E-003	5.74566E-003	5.19600E-004	...........
	1	0.516667	5.74155E-003	5.53045E-003	5.17433E-004	...........
	2	0.775	5.71653E-003	5.33829E-003	5.19900E-004	...........
	3	1.03333	5.64676E-003	5.16706E-003	5.22266E-004	...........
	4	1.29167	5.52506E-003	5.03336E-003	5.23966E-004	...........
	5	1.55	5.37066E-003	4.93469E-003	5.20633E-004	...........
	6	1.80833	5.21186E-003	4.79007E-003	5.20700E-004	...........
	7	2.06667	5.06629E-003	4.72722E-003	5.19600E-004	...........
	8	2.325	4.93846E-003	4.63098E-003	5.21733E-004	...........
	9	2.58333	4.82742E-003	4.55426E-003	5.21733E-004	...........
	10	2.84167	4.73019E-003	4.47171E-003	5.24233E-004	...........
	11	3.1	4.64255E-003	4.41225E-003	5.24200E-004	...........
	12	3.35833	4.56983E-003	4.77067E-003	5.26466E-004	...........
	13	3.61667	4.52639E-003	4.14185E-003	5.29299E-004	...........
	14	3.875	4.50418E-003	4.59019E-003	5.25166E-004	...........
	15	4.13333	4.48008E-003	4.40859E-003	5.24533E-004	...........
	16	4.39167	4.45173E-003	4.18201E-003	5.23866E-004	...........
	17	4.65	4.41806E-003	4.35208E-003	5.26233E-004	...........
	18	4.90833	4.36439E-003	3.83010E-003	5.26700E-004	...........
EOC	QUANT	0.0043644	Open Circuit (V)
PSTATMODEL	IQUANT	4	Pstat Model
PSTATSECTION	LABEL	REF600-11020	Pstat Section
PSTATSERIALNO	LABEL	11020	Pstat Serial Number
CTRLMODE	IQUANT	1	Control Mode
IESTAB	IQUANT	0	I/E Stability
CASPEED	IQUANT	1	Control Amp Speed
CONVENTION	IQUANT	1	Current Convention
ICHRANGE	IQUANT	2	Ich Range
ICHRANGEMODE	TOGGLE	F	Ich Auto Range
ICHOFFSETENABLE	TOGGLE	T	Ich Offset Enable
ICHOFFSET	QUANT	0	Ich Offset (V)
ICHFILTER	IQUANT	3	Ich Filter
VCHRANGE	IQUANT	2	Vch Range
VCHRANGEMODE	TOGGLE	F	Vch Auto Range
VCHOFFSETENABLE	TOGGLE	T	Vch Offset Enable
VCHOFFSET	QUANT	0	Vch Offset (V)
VCHFILTER	IQUANT	3	Vch Filter
ACHRANGE	IQUANT	2	Ach Range
ACHOFFSETENABLE	TOGGLE	F	Ach Offset Enable
ACHOFFSET	QUANT	0	Ach Offset (V)
ACHFILTER	IQUANT	3	Ach Filter
IERANGELOWERLIMIT	IQUANT	1	I/E Range Lower Limit
IERANGEMODE	TOGGLE	F	I/E AutoRange
IERANGE	IQUANT	5	I/E Range
POSFEEDENABLE	TOGGLE	F	Positive Feedback IR Comp
POSFEEDRESISTANCE	QUANT	0	Positive Feedback Resistance (ohm)
ACHSELECT	IQUANT	0	Ach Select
CABLEID	IQUANT	14	Cable ID
DCCALDATE	LABEL	8/19/2019	DC Calibration Date
ACCALDATE	LABEL	8/19/2019	AC Calibration Date
THERMOSELECT	IQUANT	1	Thermo Select
FRAMEWORKVERSION	QUANT	6.33	Framework Version
INSTRUMENTVERSION	LABEL	3.50	Instrument Version
ZCURVE	TABLE
	Pt	Time	Freq	Zreal	Zimag	Zsig	Zmod	Zphz	Idc	Vdc	IERange
	#	s	Hz	ohm	ohm	V	ohm	°	A	V	#
	0	2	1000078	2771.131	-1758.701	1	3282.103	-32.40128	4.556533E-006	0.005431	8
	1	3	794390.6	3134.52	-1623.006	1	3529.782	-27.37442	-4.745272E-006	0.0069707	8
	2	5	630984.4	3416.599	-1477.344	1	3722.323	-23.38376	-2.648672E-006	0.0067697	8
	3	6	501234.4	3642.574	-1300.526	1	3867.779	-19.64834	6.247447E-007	0.0059433	8
	4	7	398109.4	3818.052	-1134.771	1	3983.118	-16.55258	3.936932E-007	0.0058544	8
	5	9	316265.6	3951.331	-974.436	1	4069.71	-13.85327	-1.539423E-006	0.0061137	8
	6	10	251203.1	4042.617	-848.7545	1	4130.755	-11.85713	-2.121204E-006	0.0062482	8
	7	11	199546.9	4101.305	-708.0721	1	4161.979	-9.7953	4.368269E-006	0.0050957	8
	8	13	158578.1	4200.188	-618.5486	1	4245.49	-8.377555	5.790493E-007	0.0058314	8
	9	14	125953.1	4231.341	-504.7744	1	4261.343	-6.802903	1.38909E-006	0.0031656	7
	10	16	100078.1	4269.551	-464.5271	1	4294.747	-6.209355	-1.812354E-008	0.0057861	7
	11	17	79453.13	4302.757	-441.584	1	4325.357	-5.859645	-4.162986E-008	0.005813	7
	12	18	63140.62	4338.904	-431.4356	1	4360.301	-5.678496	8.924886E-008	0.0056191	7
	13	20	50203.12	4374.043	-430.6594	1	4395.193	-5.623103	5.073581E-008	0.0057396	7
	14	21	39890.62	4413.676	-441.5552	1	4435.708	-5.713005	-3.974529E-008	0.0058011	7
	15	23	31640.63	4452.627	-462.8673	1	4476.621	-5.934795	-7.198717E-008	0.005886	7
	16	24	25171.88	4495.787	-494.5068	1	4522.901	-6.276924	-6.665361E-008	0.0059153	7
	17	25	20015.62	4535.796	-530.3088	1	4566.692	-6.668539	-5.570371E-008	0.0058698	7
	18	27	15890.62	4594.089	-587.2591	1	4631.472	-7.284572	-4.287303E-009	0.0058025	7
	19	28	12609.37	4653.811	-655.1216	1	4699.696	-8.012931	-3.617759E-008	0.0057992	7
	20	29	10078.13	4714.283	-730.2155	1	4770.5	-8.804819	-7.29398E-009	0.0058534	7
	21	31	8015.625	4781.362	-826.2746	1	4852.232	-9.80454	5.137967E-008	0.0056399	7
	22	32	6328.125	4857.574	-940.1666	1	4947.72	-10.95396	3.273669E-010	0.0057618	7
	23	34	5015.625	4939.672	-1078.092	1	5055.951	-12.31184	-7.56658E-008	0.0060214	7
	24	35	3984.375	5037.56	-1230.38	1	5185.638	-13.72528	9.216646E-008	0.0056087	7
	25	36	3170.956	5121.743	-1434.023	1	5318.709	-15.64158	5.111711E-008	0.0057345	7
	26	38	2527.573	5222.732	-1669.671	1	5483.131	-17.72872	-2.120368E-008	0.005831	7
	27	39	1976.103	5348.719	-1982.879	1	5704.437	-20.34077	4.906683E-008	0.0057346	7
	28	41	1577.524	5460.342	-2327.749	1	5935.802	-23.08859	7.008704E-010	0.0057525	7
	29	42	1265.625	5605.479	-2744.057	1	6241.094	-26.08319	6.737744E-008	0.0056797	7
	30	43	998.264	5773.656	-3291.268	1	6645.867	-29.68527	-7.492474E-008	0.0058835	7
	31	45	796.875	5950.432	-3926.555	1	7129.199	-33.41992	-1.698891E-008	0.0058325	7
	32	46	627.7902	6165.486	-4746.474	1	7780.889	-37.59072	-6.516714E-008	0.0059093	7
	33	47	505.5147	6384.577	-5649.665	1	8525.347	-41.50538	-2.161376E-008	0.0058288	7
	34	49	397.9953	6668.615	-6873.536	1	9576.84	-45.86694	5.209059E-009	0.0057999	7
	35	50	315.5048	6983.484	-8350.226	1	10885.56	-50.09349	4.846629E-010	0.0057446	6
	36	51	252.4038	7336.03	-10096.87	1	12480.55	-53.99918	3.374443E-010	0.0057423	6
	37	53	198.6229	7786.02	-12417.68	1	14656.77	-57.91184	1.213568E-009	0.0057444	6
	38	54	158.3615	8307.043	-15131.12	1	17261.46	-61.23305	7.475354E-010	0.005746	6
	39	56	125.558	8983.327	-18564.93	1	20624.18	-64.17827	7.293719E-010	0.0057428	6
	40	57	100.4464	9787.07	-22638.18	1	24663.21	-66.61993	1.081482E-010	0.0057473	6
	41	58	79.00281	10913.91	-27943.74	1	29999.43	-68.66601	8.420464E-011	0.0057462	6
	42	60	63.3446	12105.33	-34361.41	1	36431.38	-70.59293	5.782756E-010	0.0057426	6
	43	61	49.86702	14139.54	-41760.9	1	44089.68	-71.29477	-8.196471E-011	0.005745	6
	44	62	39.72458	16813.36	-51283.82	1	53969.61	-71.8483	5.92733E-010	0.0057463	6
	45	64	31.6723	20054.13	-62472.57	1	65612.42	-72.20301	2.20195E-010	0.0057468	6
	46	65	24.93351	24365.57	-76478.41	1	80265.99	-72.32842	2.833751E-010	0.0057423	6
	47	66	19.86229	29935.2	-92482.32	1	97206.5	-72.06398	1.031908E-009	0.0057485	6
	48	68	15.83615	36861.34	-112139.1	1	118042.1	-71.80375	1.101937E-009	0.0057366	5
	49	69	12.40079	47183.96	-136264	1	144201.9	-70.90063	8.570812E-010	0.0057397	5
	50	71	9.93114	58679.97	-161758.4	1	172073	-70.0611	7.782487E-010	0.0057387	5
	51	72	7.944915	71870.63	-192194.8	1	205193.2	-69.49688	-2.071474E-010	0.0057526	5
	52	74	6.317385	91316.32	-227990.3	1	245597.8	-68.17255	-2.141363E-011	0.005763	5
	53	76	5.008013	114143.2	-269781.3	1	292934.6	-67.067	3.907487E-010	0.0057438	5
	54	78	3.945707	143077.6	-319346.3	1	349933.2	-65.86606	3.23065E-010	0.0057441	5
	55	81	3.158693	174874.7	-371592.1	1	410684.7	-64.79788	2.347049E-010	0.0057602	5
	56	84	2.504006	214345.5	-434835.4	1	484794.6	-63.7597	3.600036E-011	0.0057347	5
	57	87	1.998082	259319	-504363.2	1	567123	-62.78998	-2.812158E-012	0.0057197	5
	58	90	1.584686	314569.2	-583889.7	1	663235.2	-61.68654	8.755489E-011	0.0057712	5
	59	94	1.266892	376211.6	-674356.4	1	772199.3	-60.84362	2.145335E-011	0.0057072	5
	60	98	0.999041	454893	-779590.3	1	902601.1	-59.73632	2.227785E-010	0.0057832	5
