EXPLAIN
TAG	EISPOT
TITLE	LABEL	Potentiostatic EIS	Test &Identifier
DATE	LABEL	11/5/2019	Date
TIME	LABEL	10:29:28	Time
NOTES	NOTES	2	&Notes...
	
	
PSTAT	PSTAT	REF600-11020	Potentiostat
VDC	POTEN	0.00000E+000	T	DC &Voltage (V)
FREQINIT	QUANT	1.00000E+006	Initial Fre&q. (Hz)
FREQFINAL	QUANT	1.00000E+000	Final Fre&q. (Hz)
PTSPERDEC	QUANT	1.00000E+001	Points/&decade
VAC	QUANT	2.50000E+001	AC &Voltage (mV rms)
AREA	QUANT	1.00000E-002	&Area (cm^2)
CONDIT	TWOPARAM	T	5.00000E+000	0.00000E+000	Conditionin&g	Time(s)	E(V)
DELAY	TWOPARAM	T	5.00000E+000	0.00000E+000	Init. De&lay	Time(s)	Stab.(mV/s)
SPEED	SELECTOR	1	&Optimize for:
ZGUESS	QUANT	1.00000E+005	E&stimated Z (ohms)
OCVCURVE	TABLE	19
	Pt	T	Vf	Vm	Ach	Over
	#	s	V vs. Ref.	V	V	bits
	0	0.258333	3.53081E-003	3.53081E-003	5.71266E-004	...........
	1	0.516667	3.52653E-003	3.30674E-003	5.71999E-004	...........
	2	0.775	3.50036E-003	3.10049E-003	5.75766E-004	...........
	3	1.03333	3.42719E-003	2.92679E-003	5.70299E-004	...........
	4	1.29167	3.29896E-003	2.75570E-003	5.74099E-004	...........
	5	1.55	3.13357E-003	2.61276E-003	5.64366E-004	...........
	6	1.80833	2.95748E-003	2.48141E-003	5.63799E-004	...........
	7	2.06667	2.78925E-003	2.35713E-003	5.69332E-004	...........
	8	2.325	2.63626E-003	2.24224E-003	5.70899E-004	...........
	9	2.58333	2.49832E-003	2.13453E-003	5.67566E-004	...........
	10	2.84167	2.37253E-003	2.03481E-003	5.63799E-004	...........
	11	3.1	2.25635E-003	1.94180E-003	5.68966E-004	...........
	12	3.35833	2.14831E-003	1.85615E-003	5.71766E-004	...........
	13	3.61667	2.04754E-003	1.76727E-003	5.69032E-004	...........
	14	3.875	1.95313E-003	1.69414E-003	5.69266E-004	...........
	15	4.13333	1.86423E-003	1.61767E-003	5.66766E-004	...........
	16	4.39167	1.78045E-003	1.54852E-003	5.68332E-004	...........
	17	4.65	1.70137E-003	1.47511E-003	5.70199E-004	...........
	18	4.90833	1.62616E-003	1.41229E-003	5.71732E-004	...........
EOC	QUANT	0.0016262	Open Circuit (V)
PSTATMODEL	IQUANT	4	Pstat Model
PSTATSECTION	LABEL	REF600-11020	Pstat Section
PSTATSERIALNO	LABEL	11020	Pstat Serial Number
CTRLMODE	IQUANT	1	Control Mode
IESTAB	IQUANT	0	I/E Stability
CASPEED	IQUANT	1	Control Amp Speed
CONVENTION	IQUANT	1	Current Convention
ICHRANGE	IQUANT	2	Ich Range
ICHRANGEMODE	TOGGLE	F	Ich Auto Range
ICHOFFSETENABLE	TOGGLE	T	Ich Offset Enable
ICHOFFSET	QUANT	0	Ich Offset (V)
ICHFILTER	IQUANT	3	Ich Filter
VCHRANGE	IQUANT	2	Vch Range
VCHRANGEMODE	TOGGLE	F	Vch Auto Range
VCHOFFSETENABLE	TOGGLE	T	Vch Offset Enable
VCHOFFSET	QUANT	0	Vch Offset (V)
VCHFILTER	IQUANT	3	Vch Filter
ACHRANGE	IQUANT	2	Ach Range
ACHOFFSETENABLE	TOGGLE	F	Ach Offset Enable
ACHOFFSET	QUANT	0	Ach Offset (V)
ACHFILTER	IQUANT	3	Ach Filter
IERANGELOWERLIMIT	IQUANT	1	I/E Range Lower Limit
IERANGEMODE	TOGGLE	F	I/E AutoRange
IERANGE	IQUANT	4	I/E Range
POSFEEDENABLE	TOGGLE	F	Positive Feedback IR Comp
POSFEEDRESISTANCE	QUANT	0	Positive Feedback Resistance (ohm)
ACHSELECT	IQUANT	0	Ach Select
CABLEID	IQUANT	14	Cable ID
DCCALDATE	LABEL	8/19/2019	DC Calibration Date
ACCALDATE	LABEL	8/19/2019	AC Calibration Date
THERMOSELECT	IQUANT	1	Thermo Select
FRAMEWORKVERSION	QUANT	6.33	Framework Version
INSTRUMENTVERSION	LABEL	3.50	Instrument Version
ZCURVE	TABLE
	Pt	Time	Freq	Zreal	Zimag	Zsig	Zmod	Zphz	Idc	Vdc	IERange
	#	s	Hz	ohm	ohm	V	ohm	°	A	V	#
	0	1	1000078	2318.888	-2061.174	1	3102.528	-41.63272	-4.811206E-007	0.0047151	8
	1	3	794390.6	2737.842	-2097.226	1	3448.788	-37.45263	8.716029E-006	0.0021254	8
	2	4	630984.4	3176.995	-2062.614	1	3787.833	-32.99301	-2.797551E-006	0.003148	8
	3	5	501234.4	3590.099	-1968.896	1	4094.553	-28.74142	-1.352055E-006	0.0039115	8
	4	7	398109.4	3932.293	-1790.492	1	4320.739	-24.48121	-6.747577E-006	0.004355	8
	5	8	316265.6	4218.11	-1599	1	4511.015	-20.7607	-1.270646E-006	0.0037729	8
	6	9	251203.1	4443.121	-1424.283	1	4665.823	-17.77373	-6.528728E-007	0.0029781	8
	7	11	199546.9	4633.743	-1240.384	1	4796.887	-14.98588	-1.67693E-006	0.0030577	8
	8	12	158578.1	4764.792	-1064.888	1	4882.338	-12.59806	-6.361629E-006	0.0042187	8
	9	14	125953.1	4897.393	-863.2446	1	4972.892	-9.99662	-1.916231E-006	0.0069827	7
	10	15	100078.1	4970.019	-755.8126	1	5027.161	-8.646968	4.252493E-007	0.0039244	7
	11	17	79453.13	5038.276	-677.4247	1	5083.614	-7.657815	1.656687E-007	0.0016184	7
	12	18	63140.62	5096.789	-622.34	1	5134.643	-6.961602	1.176786E-006	0.0024586	7
	13	19	50203.12	5141.198	-579.9493	1	5173.805	-6.436004	9.394366E-007	0.0011501	7
	14	21	39890.62	5183.059	-551.3376	1	5212.3	-6.071893	1.67433E-007	0.0016086	7
	15	22	31640.63	5226.462	-544.6551	1	5254.765	-5.949379	1.666579E-007	0.0016094	7
	16	23	25171.88	5262.076	-550.584	1	5290.802	-5.973264	-1.413053E-006	0.0044765	7
	17	25	20015.62	5316.34	-569.6595	1	5346.773	-6.116055	4.284764E-007	0.0039094	7
	18	26	15890.62	5367.196	-606.2901	1	5401.331	-6.444935	1.286618E-006	0.001538	7
	19	27	12609.37	5407.012	-657.8475	1	5446.883	-6.936833	1.170209E-006	0.0012687	7
	20	29	10078.13	5444.558	-724.9589	1	5492.611	-7.584488	-1.205917E-006	0.0038025	7
	21	30	8015.625	5506.972	-813.4549	1	5566.727	-8.402607	1.294869E-006	0.0019331	7
	22	32	6328.125	5564.03	-929.1351	1	5641.074	-9.480324	9.573953E-007	0.0030323	7
	23	33	5015.625	5623.249	-1079.964	1	5726.015	-10.87147	1.177391E-006	0.0024502	7
	24	34	3984.375	5678.207	-1251.537	1	5814.497	-12.42986	-7.479558E-007	0.00512	7
	25	36	3170.956	5754.084	-1489.577	1	5943.763	-14.51372	-3.637644E-007	0.0048485	7
	26	37	2527.573	5843.609	-1766.217	1	6104.694	-16.81732	1.293819E-006	0.0019399	7
	27	38	1976.103	5945.12	-2138.83	1	6318.152	-19.78682	1.294124E-006	0.0019403	7
	28	40	1577.524	6013.673	-2572.949	1	6540.974	-23.16365	9.577677E-007	0.0030352	7
	29	41	1265.625	6175.821	-3052.506	1	6889.017	-26.30168	-1.436239E-006	0.0049136	7
	30	43	998.264	6341.796	-3711.536	1	7348.053	-30.3383	-3.658527E-007	0.0048465	7
	31	44	796.875	6525.596	-4482.571	1	7916.871	-34.486	1.18083E-006	0.0024465	7
	32	46	627.7902	6753.931	-5465.522	1	8688.354	-38.98102	1.286306E-006	0.0015393	7
	33	47	505.5147	7000.856	-6567.82	1	9599.39	-43.17206	1.182812E-006	0.0024426	7
	34	48	397.9953	7319.148	-8029.822	1	10864.99	-47.65096	6.83459E-009	0.0032548	7
	35	50	315.5048	7697.801	-9800.3	1	12462.02	-51.85157	1.633736E-009	0.0031927	6
	36	51	252.4038	8129.78	-11890.79	1	14404.31	-55.63942	3.640429E-010	0.0031948	6
	37	53	198.6229	8709.731	-14652.93	1	17046.05	-59.27267	4.058414E-010	0.0032018	6
	38	54	158.3615	9399.796	-17867.51	1	20189.2	-62.25189	1.64362E-009	0.0031903	6
	39	55	125.558	10317.92	-21904.9	1	24213.31	-64.77803	6.788301E-010	0.0031998	6
	40	57	100.4464	11416.6	-26614.24	1	28959.56	-66.78233	1.446023E-009	0.0031954	6
	41	58	79.00281	12960.24	-32961.78	1	35418.17	-68.53574	5.97548E-010	0.0032084	6
	42	59	63.3446	14900.53	-40364.57	1	43027.02	-69.73845	-2.190126E-010	0.0032024	6
	43	61	49.86702	17183.64	-48865.73	1	51799	-70.62577	1.306496E-009	0.0031931	6
	44	62	39.72458	20853.34	-59474.32	1	63024.25	-70.67793	1.160772E-009	0.003189	6
	45	64	31.6723	25536.04	-71771.98	1	76179.44	-70.41475	1.083075E-009	0.0031964	6
	46	65	24.93351	31622.96	-87789.69	1	93311.52	-70.19034	1.466058E-009	0.0031808	6
	47	66	19.86229	39369.56	-105420.1	1	112531.6	-69.52166	7.515731E-010	0.0031862	5
	48	68	15.83615	50108.82	-125218.9	1	134872.8	-68.19021	8.937226E-010	0.003205	5
	49	69	12.40079	63252.69	-152018.8	1	164653	-67.40855	3.779734E-010	0.0031973	5
	50	71	9.93114	80061.2	-178133.5	1	195298	-65.79871	7.910619E-010	0.0032072	5
	51	72	7.944915	101474.3	-208453.6	1	231840.3	-64.04337	6.072664E-011	0.0032014	5
	52	74	6.317385	126737.1	-240692.7	1	272020.7	-62.23088	6.949364E-010	0.0032023	5
	53	76	5.008013	158210.9	-277114.7	1	319097.6	-60.277	3.810525E-010	0.0032182	5
	54	78	3.945707	195942	-317039.8	1	372703	-58.28245	-9.167637E-011	0.0032046	5
	55	81	3.158693	235818.6	-355906.1	1	426942.1	-56.47208	3.664335E-010	0.0032164	5
	56	84	2.504006	281849.5	-399869.6	1	489218.6	-54.82177	8.544657E-011	0.0031974	5
	57	87	1.998082	329332.6	-445861.4	1	554303.4	-53.54881	-1.571834E-010	0.0032193	5
	58	90	1.584686	381120	-495371.3	1	625016.1	-52.42667	2.58427E-010	0.0032482	5
	59	94	1.266892	435478.4	-553043.2	1	703916.3	-51.78233	-9.692489E-011	0.0032336	5
	60	98	0.999041	493283.4	-623958	1	795394.3	-51.67111	2.830148E-010	0.0031881	5
