EXPLAIN
TAG	EISPOT
TITLE	LABEL	Potentiostatic EIS	Test &Identifier
DATE	LABEL	10/4/2019	Date
TIME	LABEL	10:35:35	Time
NOTES	NOTES	2	&Notes...
	
	
PSTAT	PSTAT	REF600-11020	Potentiostat
VDC	POTEN	0.00000E+000	T	DC &Voltage (V)
FREQINIT	QUANT	1.00000E+006	Initial Fre&q. (Hz)
FREQFINAL	QUANT	1.00000E+000	Final Fre&q. (Hz)
PTSPERDEC	QUANT	1.00000E+001	Points/&decade
VAC	QUANT	2.50000E+001	AC &Voltage (mV rms)
AREA	QUANT	1.00000E-002	&Area (cm^2)
CONDIT	TWOPARAM	T	5.00000E+000	0.00000E+000	Conditionin&g	Time(s)	E(V)
DELAY	TWOPARAM	T	5.00000E+000	0.00000E+000	Init. De&lay	Time(s)	Stab.(mV/s)
SPEED	SELECTOR	1	&Optimize for:
ZGUESS	QUANT	1.00000E+004	E&stimated Z (ohms)
OCVCURVE	TABLE	19
	Pt	T	Vf	Vm	Ach	Over
	#	s	V vs. Ref.	V	V	bits
	0	0.258333	7.85344E-003	7.85344E-003	5.66166E-004	...........
	1	0.516667	7.84697E-003	7.51462E-003	5.71432E-004	...........
	2	0.775	7.86633E-003	1.02875E-002	5.69066E-004	...........
	3	1.03333	8.05150E-003	9.49142E-003	5.67432E-004	...........
	4	1.29167	8.49467E-003	9.75384E-003	5.69832E-004	...........
	5	1.55	9.00152E-003	7.74259E-003	5.63899E-004	...........
	6	1.80833	9.17590E-003	5.57976E-003	5.67199E-004	...........
	7	2.06667	8.76964E-003	7.33191E-003	5.68532E-004	...........
	8	2.325	7.99818E-003	7.83095E-003	5.57966E-004	...........
	9	2.58333	7.40544E-003	8.17777E-003	5.58732E-004	...........
	10	2.84167	7.30519E-003	8.28439E-003	5.67599E-004	...........
	11	3.1	7.56156E-003	8.12575E-003	5.66999E-004	...........
	12	3.35833	7.88440E-003	8.31849E-003	5.65399E-004	...........
	13	3.61667	8.11638E-003	8.73418E-003	5.68499E-004	...........
	14	3.875	8.29376E-003	9.79250E-003	5.67966E-004	...........
	15	4.13333	8.52643E-003	8.79204E-003	5.68932E-004	...........
	16	4.39167	8.78967E-003	8.12946E-003	5.69666E-004	...........
	17	4.65	8.88430E-003	7.23582E-003	5.68099E-004	...........
	18	4.90833	8.68107E-003	8.23600E-003	5.75899E-004	...........
EOC	QUANT	0.0086811	Open Circuit (V)
PSTATMODEL	IQUANT	4	Pstat Model
PSTATSECTION	LABEL	REF600-11020	Pstat Section
PSTATSERIALNO	LABEL	11020	Pstat Serial Number
CTRLMODE	IQUANT	1	Control Mode
IESTAB	IQUANT	0	I/E Stability
CASPEED	IQUANT	1	Control Amp Speed
CONVENTION	IQUANT	1	Current Convention
ICHRANGE	IQUANT	2	Ich Range
ICHRANGEMODE	TOGGLE	F	Ich Auto Range
ICHOFFSETENABLE	TOGGLE	T	Ich Offset Enable
ICHOFFSET	QUANT	0	Ich Offset (V)
ICHFILTER	IQUANT	3	Ich Filter
VCHRANGE	IQUANT	2	Vch Range
VCHRANGEMODE	TOGGLE	F	Vch Auto Range
VCHOFFSETENABLE	TOGGLE	T	Vch Offset Enable
VCHOFFSET	QUANT	0	Vch Offset (V)
VCHFILTER	IQUANT	3	Vch Filter
ACHRANGE	IQUANT	2	Ach Range
ACHOFFSETENABLE	TOGGLE	F	Ach Offset Enable
ACHOFFSET	QUANT	0	Ach Offset (V)
ACHFILTER	IQUANT	3	Ach Filter
IERANGELOWERLIMIT	IQUANT	1	I/E Range Lower Limit
IERANGEMODE	TOGGLE	F	I/E AutoRange
IERANGE	IQUANT	6	I/E Range
POSFEEDENABLE	TOGGLE	F	Positive Feedback IR Comp
POSFEEDRESISTANCE	QUANT	0	Positive Feedback Resistance (ohm)
ACHSELECT	IQUANT	0	Ach Select
CABLEID	IQUANT	14	Cable ID
DCCALDATE	LABEL	8/19/2019	DC Calibration Date
ACCALDATE	LABEL	8/19/2019	AC Calibration Date
THERMOSELECT	IQUANT	1	Thermo Select
FRAMEWORKVERSION	QUANT	6.33	Framework Version
INSTRUMENTVERSION	LABEL	3.50	Instrument Version
ZCURVE	TABLE
	Pt	Time	Freq	Zreal	Zimag	Zsig	Zmod	Zphz	Idc	Vdc	IERange
	#	s	Hz	ohm	ohm	V	ohm	°	A	V	#
	0	1	1000078	2603.164	-1969.426	1	3264.215	-37.10936	-2.183775E-006	0.0114985	8
	1	3	794390.6	2984.074	-1949.074	1	3564.209	-33.15091	1.156558E-006	0.0106635	8
	2	4	630984.4	3321.638	-1863.979	1	3808.897	-29.29952	-8.820971E-007	0.0106007	8
	3	5	501234.4	3683.537	-1745.793	1	4076.302	-25.35836	3.648345E-006	0.0098349	8
	4	7	398109.4	3949.185	-1610.783	1	4265.054	-22.18943	-2.637881E-008	0.0103678	8
	5	8	316265.6	4187.442	-1472.786	1	4438.893	-19.37753	-7.282559E-007	0.0106189	8
	6	9	251203.1	4399.753	-1336.301	1	4598.209	-16.89468	-5.023612E-007	0.0103989	8
	7	11	199546.9	4561.616	-1204.002	1	4717.834	-14.78557	-2.942319E-007	0.0103311	8
	8	12	158578.1	4700.822	-1098.948	1	4827.568	-13.15817	-6.907434E-007	0.0105994	8
	9	13	125953.1	4820.467	-947.1154	1	4912.63	-11.11576	-6.928012E-007	0.0117615	7
	10	15	100078.1	4912.641	-883.7351	1	4991.496	-10.19787	8.650408E-009	0.010364	7
	11	16	79453.13	5000.062	-838.0916	1	5069.814	-9.51525	6.021906E-009	0.0103565	7
	12	17	63140.62	5078.85	-814.369	1	5143.725	-9.109559	-4.871994E-008	0.0103629	7
	13	19	50203.12	5154.015	-805.2945	1	5216.548	-8.880438	-4.090012E-008	0.0103354	7
	14	20	39890.62	5231.379	-816.627	1	5294.734	-8.872362	3.710115E-008	0.0101675	7
	15	21	31640.63	5309.966	-844.7712	1	5376.744	-9.039524	3.760277E-008	0.0101688	7
	16	23	25171.88	5391.465	-891.0342	1	5464.598	-9.384308	7.047599E-008	0.0101398	7
	17	24	20015.62	5477.762	-956.281	1	5560.607	-9.90263	-5.362459E-009	0.0103212	7
	18	25	15890.62	5575.873	-1042.329	1	5672.46	-10.58841	-4.049383E-008	0.0103321	7
	19	27	12609.37	5683.417	-1150.934	1	5798.782	-11.44801	1.111008E-008	0.0103544	7
	20	28	10078.13	5800.055	-1279.613	1	5939.533	-12.44134	5.055764E-008	0.0101953	7
	21	29	8015.625	5930.576	-1435.109	1	6101.743	-13.60321	-1.264879E-008	0.0103055	7
	22	31	6328.125	6084.808	-1622.844	1	6297.5	-14.93342	4.946983E-008	0.0101992	7
	23	32	5015.625	6256.053	-1842.529	1	6521.741	-16.41072	-5.622567E-008	0.0103492	7
	24	33	3984.375	6450.303	-2097.664	1	6782.816	-18.01473	-5.393301E-008	0.0104484	7
	25	35	3170.956	6671.94	-2389.026	1	7086.764	-19.70096	-1.311119E-008	0.0103	7
	26	36	2527.573	6920.38	-2718.198	1	7435.07	-21.44398	-3.335894E-008	0.0102935	7
	27	38	1976.103	7233.342	-3130.941	1	7881.879	-23.4053	4.886741E-008	0.0102003	7
	28	39	1577.524	7547.598	-3560.576	1	8345.294	-25.25557	-3.537533E-008	0.0103628	7
	29	40	1265.625	7886.324	-4039.918	1	8860.871	-27.12465	-2.790119E-008	0.0102723	7
	30	42	998.264	8285.738	-4635.009	1	9494.038	-29.22248	3.75541E-009	0.0101052	6
	31	43	796.875	8683.658	-5303.726	1	10175.24	-31.41537	-1.347703E-010	0.0102587	6
	32	44	627.7902	9127.396	-6138.268	1	10999.44	-33.92124	-4.526549E-011	0.0102669	6
	33	46	505.5147	9545.98	-7056.128	1	11870.75	-36.4708	-3.115017E-009	0.0101999	6
	34	47	397.9953	10023.14	-8286.613	1	13005.05	-39.58217	3.070889E-010	0.0102388	6
	35	48	315.5048	10509.73	-9776.66	1	14354.01	-42.93044	4.429923E-010	0.0102337	6
	36	50	252.4038	11008.68	-11551.01	1	15956.72	-46.37712	3.308272E-010	0.0102321	6
	37	51	198.6229	11595.89	-13928.64	1	18123.79	-50.22189	5.238218E-010	0.0102276	6
	38	52	158.3615	12229.85	-16736.15	1	20728.43	-53.84274	6.649292E-010	0.0102291	6
	39	54	125.558	12999.47	-20313.03	1	24116.5	-57.38249	3.602124E-010	0.0102357	6
	40	55	100.4464	13906.35	-24566	1	28228.97	-60.48662	9.28545E-010	0.0102345	6
	41	56	79.00281	15125.02	-30247.44	1	33818.25	-63.43298	1.57393E-010	0.0102335	6
	42	58	63.3446	16458.8	-36490.93	1	40030.99	-65.72281	5.220214E-010	0.0102342	6
	43	59	49.86702	18611.6	-45160.39	1	48845.19	-67.60236	3.524678E-010	0.0102308	6
	44	61	39.72458	20958.28	-55133.25	1	58982.41	-69.18626	5.657733E-010	0.0102343	6
	45	62	31.6723	24186.35	-67030.18	1	71260.26	-70.15915	5.05993E-010	0.010229	6
	46	63	24.93351	28592.43	-82571.02	1	87381.35	-70.90022	-2.830405E-010	0.0102277	6
	47	65	19.86229	34206.62	-100334.9	1	106005.6	-71.17451	3.696846E-010	0.010244	5
	48	66	15.83615	41833.58	-121704.4	1	128693.4	-71.03056	-3.058525E-010	0.0102363	5
	49	67	12.40079	52188.46	-149508.1	1	158355	-70.75755	-2.922079E-010	0.0102347	5
	50	69	9.93114	65171.18	-178508.2	1	190032.8	-69.94347	4.807762E-010	0.0102324	5
	51	70	7.944915	81989.49	-213102.3	1	228330.6	-68.95615	-2.48196E-010	0.0102385	5
	52	72	6.317385	104155.1	-253538.1	1	274098.3	-67.66682	-1.54186E-010	0.0102292	5
	53	74	5.008013	133211.3	-300866.6	1	329037.9	-66.11822	-2.448619E-010	0.0102299	5
	54	77	3.945707	171196.7	-354443.8	1	393622.6	-64.21941	3.561327E-010	0.0102413	5
	55	79	3.158693	215299.3	-410112.6	1	463191.2	-62.3016	-1.055105E-010	0.0102294	5
	56	83	2.504006	270863.3	-471489.3	1	543754.6	-60.1233	4.102284E-010	0.0102244	5
	57	85	1.998082	333566.4	-533421.6	1	629130.5	-57.98088	-8.092878E-012	0.0102757	5
	58	88	1.584686	404993.4	-600332.3	1	724167.4	-55.99579	2.282512E-010	0.0102403	5
	59	92	1.266892	484009.9	-666241.4	1	823494.5	-54.00241	-2.366906E-011	0.0102733	5
	60	96	0.999041	573307.7	-738858.8	1	935197.3	-52.1908	9.663877E-011	0.0101973	5
