EXPLAIN
TAG	EISPOT
TITLE	LABEL	Potentiostatic EIS	Test &Identifier
DATE	LABEL	11/15/2019	Date
TIME	LABEL	12:04:49	Time
NOTES	NOTES	4	&Notes...
	
	
	
	
PSTAT	PSTAT	REF600-11020	Potentiostat
VDC	POTEN	0.00000E+000	T	DC &Voltage (V)
FREQINIT	QUANT	1.00000E+006	Initial Fre&q. (Hz)
FREQFINAL	QUANT	1.00000E+000	Final Fre&q. (Hz)
PTSPERDEC	QUANT	1.00000E+001	Points/&decade
VAC	QUANT	2.50000E+001	AC &Voltage (mV rms)
AREA	QUANT	1.00000E-002	&Area (cm^2)
CONDIT	TWOPARAM	T	5.00000E+000	0.00000E+000	Conditionin&g	Time(s)	E(V)
DELAY	TWOPARAM	T	5.00000E+000	0.00000E+000	Init. De&lay	Time(s)	Stab.(mV/s)
SPEED	SELECTOR	0	&Optimize for:
ZGUESS	QUANT	1.00000E+005	E&stimated Z (ohms)
OCVCURVE	TABLE	19
	Pt	T	Vf	Vm	Ach	Over
	#	s	V vs. Ref.	V	V	bits
	0	0.258333	6.37876E-003	6.37876E-003	5.68899E-004	...........
	1	0.516667	6.37790E-003	6.33350E-003	5.70332E-004	...........
	2	0.775	6.37291E-003	6.30724E-003	5.67832E-004	...........
	3	1.03333	6.36016E-003	6.29879E-003	5.64599E-004	...........
	4	1.29167	6.34088E-003	6.29462E-003	5.67666E-004	...........
	5	1.55	6.32128E-003	6.29925E-003	5.68132E-004	...........
	6	1.80833	6.30720E-003	6.30552E-003	5.61566E-004	...........
	7	2.06667	6.30089E-003	6.31970E-003	5.68766E-004	...........
	8	2.325	6.30185E-003	6.33372E-003	5.64432E-004	...........
	9	2.58333	6.30870E-003	6.35399E-003	5.69866E-004	...........
	10	2.84167	6.32022E-003	6.37563E-003	5.65332E-004	...........
	11	3.1	6.33563E-003	6.40373E-003	5.66332E-004	...........
	12	3.35833	6.35465E-003	6.43090E-003	5.70332E-004	...........
	13	3.61667	6.37697E-003	6.45624E-003	5.60999E-004	...........
	14	3.875	6.40172E-003	6.48129E-003	5.62699E-004	...........
	15	4.13333	6.42757E-003	6.50473E-003	5.62466E-004	...........
	16	4.39167	6.45325E-003	6.52392E-003	5.67866E-004	...........
	17	4.65	6.47784E-003	6.54609E-003	5.70799E-004	...........
	18	4.90833	6.50097E-003	6.56524E-003	5.75499E-004	...........
EOC	QUANT	0.006501	Open Circuit (V)
PSTATMODEL	IQUANT	4	Pstat Model
PSTATSECTION	LABEL	REF600-11020	Pstat Section
PSTATSERIALNO	LABEL	11020	Pstat Serial Number
CTRLMODE	IQUANT	1	Control Mode
IESTAB	IQUANT	0	I/E Stability
CASPEED	IQUANT	1	Control Amp Speed
CONVENTION	IQUANT	1	Current Convention
ICHRANGE	IQUANT	2	Ich Range
ICHRANGEMODE	TOGGLE	F	Ich Auto Range
ICHOFFSETENABLE	TOGGLE	T	Ich Offset Enable
ICHOFFSET	QUANT	0	Ich Offset (V)
ICHFILTER	IQUANT	3	Ich Filter
VCHRANGE	IQUANT	2	Vch Range
VCHRANGEMODE	TOGGLE	F	Vch Auto Range
VCHOFFSETENABLE	TOGGLE	T	Vch Offset Enable
VCHOFFSET	QUANT	0	Vch Offset (V)
VCHFILTER	IQUANT	3	Vch Filter
ACHRANGE	IQUANT	2	Ach Range
ACHOFFSETENABLE	TOGGLE	F	Ach Offset Enable
ACHOFFSET	QUANT	0	Ach Offset (V)
ACHFILTER	IQUANT	3	Ach Filter
IERANGELOWERLIMIT	IQUANT	1	I/E Range Lower Limit
IERANGEMODE	TOGGLE	F	I/E AutoRange
IERANGE	IQUANT	5	I/E Range
POSFEEDENABLE	TOGGLE	F	Positive Feedback IR Comp
POSFEEDRESISTANCE	QUANT	0	Positive Feedback Resistance (ohm)
ACHSELECT	IQUANT	0	Ach Select
CABLEID	IQUANT	14	Cable ID
DCCALDATE	LABEL	8/19/2019	DC Calibration Date
ACCALDATE	LABEL	8/19/2019	AC Calibration Date
THERMOSELECT	IQUANT	1	Thermo Select
FRAMEWORKVERSION	QUANT	6.33	Framework Version
INSTRUMENTVERSION	LABEL	3.50	Instrument Version
ZCURVE	TABLE
	Pt	Time	Freq	Zreal	Zimag	Zsig	Zmod	Zphz	Idc	Vdc	IERange
	#	s	Hz	ohm	ohm	V	ohm	°	A	V	#
	0	2	1000078	2194.113	-1915.502	1	2912.607	-41.12156	1.351288E-005	0.0076248	8
	1	2	794390.6	2590.372	-1929.749	1	3230.164	-36.685	-6.70117E-006	0.0090031	8
	2	3	630984.4	2970.282	-1878.447	1	3514.419	-32.30982	1.506364E-006	0.0079163	8
	3	3	501234.4	3328.771	-1786.128	1	3777.694	-28.2168	-9.509406E-007	0.0078728	8
	4	3	398109.4	3634.64	-1654.258	1	3993.392	-24.47203	2.61786E-006	0.0075712	8
	5	4	316265.6	3899.648	-1486.402	1	4173.326	-20.86501	-3.222189E-006	0.0086991	8
	6	4	251203.1	4122.643	-1329.195	1	4331.621	-17.87002	9.6375E-008	0.0077791	8
	7	4	199546.9	4290.428	-1156.597	1	4443.59	-15.08694	-1.64313E-008	0.0077782	8
	8	5	158578.1	4438.913	-1002.708	1	4550.755	-12.72893	-1.58583E-007	0.0077959	8
	9	5	125953.1	4570.115	-844.8235	1	4647.545	-10.47337	3.136878E-006	0.0060887	7
	10	5	100078.1	4633.692	-735.4914	1	4691.7	-9.019138	1.4831E-007	0.0065529	7
	11	5	79453.13	4691.897	-661.7758	1	4738.338	-8.028411	-6.933296E-007	0.0097888	7
	12	6	63140.62	4746.888	-601.7502	1	4784.877	-7.224695	-1.333943E-006	0.0096082	7
	13	6	50203.12	4796.779	-562.8734	1	4829.691	-6.69271	-6.913747E-007	0.0097834	7
	14	6	39890.62	4843.342	-537.2429	1	4873.047	-6.329602	4.005022E-007	0.0086509	7
	15	7	31640.63	4888.469	-528.5132	1	4916.956	-6.170523	6.412678E-007	0.0083018	7
	16	7	25171.88	4927.611	-530.902	1	4956.128	-6.149341	3.983551E-007	0.0086442	7
	17	7	20015.62	4966.023	-550.2677	1	4996.417	-6.322951	5.470667E-008	0.0091036	7
	18	8	15890.62	5011.86	-580.5508	1	5045.373	-6.607431	1.187789E-006	0.0064651	7
	19	8	12609.37	5044.352	-631.536	1	5083.731	-7.13611	-1.198742E-006	0.0097833	7
	20	8	10078.13	5096.116	-694.1503	1	5143.174	-7.756617	-3.110526E-007	0.0070856	7
	21	9	8015.625	5131.053	-788.8746	1	5191.342	-8.74051	-6.925374E-007	0.0097772	7
	22	9	6328.125	5188.371	-910.5646	1	5267.667	-9.9541	5.49335E-007	0.0062129	7
	23	9	5015.625	5231.989	-1060.809	1	5338.448	-11.4616	-1.199742E-006	0.0097803	7
	24	10	3984.375	5299.676	-1254.706	1	5446.178	-13.31961	1.091243E-006	0.0072979	7
	25	10	3170.956	5355.615	-1485.166	1	5557.727	-15.49923	-9.86129E-007	0.0098551	7
	26	10	2527.573	5429.429	-1770.719	1	5710.879	-18.06288	-1.198374E-006	0.0097809	7
	27	11	1976.103	5523.137	-2158.141	1	5929.808	-21.34285	-1.313059E-006	0.009177	7
	28	11	1577.524	5635.388	-2589.959	1	6202.055	-24.68296	1.194921E-006	0.0068289	7
	29	11	1265.625	5740.578	-3126.009	1	6536.525	-28.57032	1.092952E-006	0.0072983	7
	30	12	998.264	5884.356	-3824.35	1	7017.927	-33.02057	1.185331E-006	0.0064613	7
	31	12	796.875	6046.851	-4644.541	1	7624.708	-37.5276	1.188863E-006	0.0064608	7
	32	12	627.7902	6266.312	-5705.02	1	8474.309	-42.31557	6.415397E-007	0.0082933	7
	33	13	505.5147	6507.797	-6875.152	1	9466.738	-46.57234	-6.876419E-007	0.0097667	7
	34	13	397.9953	6832.28	-8490.085	1	10897.78	-51.1751	4.683269E-009	0.0080541	7
	35	13	315.5048	7242.235	-10416.6	1	12686.82	-55.19069	-1.375765E-010	0.0079941	6
	36	14	252.4038	7740.252	-12690.6	1	14864.82	-58.62014	-2.86046E-010	0.0079954	6
	37	14	198.6229	8437.327	-15689.4	1	17814.2	-61.72986	9.455564E-010	0.0079955	6
	38	14	158.3615	9326.773	-19164.75	1	21313.76	-64.04954	-3.363181E-010	0.0079968	6
	39	15	125.558	10523.45	-23494.5	1	25743.63	-65.87187	-9.001681E-011	0.0079992	6
	40	15	100.4464	12109.04	-28512.75	1	30977.51	-66.98963	1.097316E-009	0.0079897	6
	41	15	79.00281	14352.11	-35148.81	1	37966.06	-67.78861	1.254143E-009	0.0079829	6
	42	16	63.3446	16965.83	-41698.26	1	45017.6	-67.86	3.891898E-010	0.0079775	6
	43	16	49.86702	21222.55	-50930.25	1	55175.05	-67.37859	-1.862748E-010	0.0079872	6
	44	17	39.72458	26295.06	-61405.12	1	66798.34	-66.8183	2.247167E-010	0.0079904	6
	45	17	31.6723	33059.22	-73008.29	1	80144.38	-65.63829	1.871803E-010	0.007987	6
	46	17	24.93351	42202.38	-86203.37	1	95979.5	-63.91512	-3.073255E-010	0.0079848	6
	47	17	19.86229	52790.41	-99792.9	1	112895.8	-62.12118	-1.582929E-009	0.0079916	5
	48	18	15.83615	65946.34	-115248.7	1	132782.5	-60.22143	8.565347E-010	0.0079962	5
	49	18	12.40079	82046.88	-131917.1	1	155350.6	-58.12012	2.767196E-010	0.0079855	5
	50	18	9.93114	96988.6	-147558.8	1	176579.7	-56.68356	-2.586373E-011	0.0079878	5
	51	19	7.944915	113856.1	-165294.4	1	200712.4	-55.44063	-7.962946E-010	0.0079918	5
	52	20	6.317385	132342	-185590.8	1	227943.8	-54.50791	-6.661474E-010	0.0080108	5
	53	20	5.008013	152504.1	-209191	1	258879.1	-53.90727	-3.733307E-010	0.0080025	5
	54	21	3.945707	173019.5	-237905.4	1	294167.8	-53.97303	-1.414654E-010	0.0079872	5
	55	23	3.158693	194327	-270030.3	1	332685.1	-54.25936	8.272931E-011	0.0080107	5
	56	25	2.504006	218409.9	-310292.4	1	379452.6	-54.85889	-9.077335E-011	0.0080004	5
	57	26	1.998082	244190.1	-358098.8	1	433432.3	-55.70965	-1.653375E-010	0.0079612	5
	58	27	1.584686	274551.3	-415625.2	1	498119.2	-56.55228	-2.348627E-011	0.0080099	5
	59	29	1.266892	309605.9	-483839.9	1	574418.8	-57.3851	2.280522E-011	0.0080253	5
	60	32	0.999041	351891.5	-570705.9	1	670472.1	-58.34244	3.650552E-011	0.0080224	5
