EXPLAIN
TAG	EISPOT
TITLE	LABEL	Potentiostatic EIS	Test &Identifier
DATE	LABEL	10/8/2019	Date
TIME	LABEL	8:41:43	Time
NOTES	NOTES	2	&Notes...
	
	
PSTAT	PSTAT	REF600-11020	Potentiostat
VDC	POTEN	0.00000E+000	T	DC &Voltage (V)
FREQINIT	QUANT	1.00000E+006	Initial Fre&q. (Hz)
FREQFINAL	QUANT	1.00000E+000	Final Fre&q. (Hz)
PTSPERDEC	QUANT	1.00000E+001	Points/&decade
VAC	QUANT	2.50000E+001	AC &Voltage (mV rms)
AREA	QUANT	1.00000E-002	&Area (cm^2)
CONDIT	TWOPARAM	T	5.00000E+000	0.00000E+000	Conditionin&g	Time(s)	E(V)
DELAY	TWOPARAM	T	5.00000E+000	0.00000E+000	Init. De&lay	Time(s)	Stab.(mV/s)
SPEED	SELECTOR	1	&Optimize for:
ZGUESS	QUANT	1.00000E+004	E&stimated Z (ohms)
OCVCURVE	TABLE	19
	Pt	T	Vf	Vm	Ach	Over
	#	s	V vs. Ref.	V	V	bits
	0	0.258333	4.79247E-003	4.79247E-003	5.24833E-004	...........
	1	0.516667	4.79211E-003	4.77330E-003	5.17700E-004	...........
	2	0.775	4.79005E-003	4.76516E-003	5.21033E-004	...........
	3	1.03333	4.78519E-003	4.77419E-003	5.21866E-004	...........
	4	1.29167	4.77919E-003	4.78620E-003	5.19033E-004	...........
	5	1.55	4.77606E-003	4.79826E-003	5.19566E-004	...........
	6	1.80833	4.77850E-003	4.81137E-003	5.23433E-004	...........
	7	2.06667	4.78624E-003	4.82441E-003	5.19166E-004	...........
	8	2.325	4.79743E-003	4.84240E-003	5.13566E-004	...........
	9	2.58333	4.81070E-003	4.86168E-003	5.24466E-004	...........
	10	2.84167	4.82569E-003	4.88193E-003	5.18466E-004	...........
	11	3.1	4.84240E-003	4.89778E-003	5.27766E-004	...........
	12	3.35833	4.86047E-003	4.92353E-003	5.26266E-004	...........
	13	3.61667	4.87961E-003	4.94638E-003	5.26933E-004	...........
	14	3.875	4.90003E-003	4.97146E-003	5.25966E-004	...........
	15	4.13333	4.92218E-003	5.00592E-003	5.21600E-004	...........
	16	4.39167	4.94647E-003	5.03142E-003	5.19200E-004	...........
	17	4.65	4.97304E-003	5.06360E-003	5.27666E-004	...........
	18	4.90833	5.00125E-003	5.08652E-003	5.25633E-004	...........
EOC	QUANT	0.0050012	Open Circuit (V)
PSTATMODEL	IQUANT	4	Pstat Model
PSTATSECTION	LABEL	REF600-11020	Pstat Section
PSTATSERIALNO	LABEL	11020	Pstat Serial Number
CTRLMODE	IQUANT	1	Control Mode
IESTAB	IQUANT	0	I/E Stability
CASPEED	IQUANT	1	Control Amp Speed
CONVENTION	IQUANT	1	Current Convention
ICHRANGE	IQUANT	2	Ich Range
ICHRANGEMODE	TOGGLE	F	Ich Auto Range
ICHOFFSETENABLE	TOGGLE	T	Ich Offset Enable
ICHOFFSET	QUANT	0	Ich Offset (V)
ICHFILTER	IQUANT	3	Ich Filter
VCHRANGE	IQUANT	2	Vch Range
VCHRANGEMODE	TOGGLE	F	Vch Auto Range
VCHOFFSETENABLE	TOGGLE	T	Vch Offset Enable
VCHOFFSET	QUANT	0	Vch Offset (V)
VCHFILTER	IQUANT	3	Vch Filter
ACHRANGE	IQUANT	2	Ach Range
ACHOFFSETENABLE	TOGGLE	F	Ach Offset Enable
ACHOFFSET	QUANT	0	Ach Offset (V)
ACHFILTER	IQUANT	3	Ach Filter
IERANGELOWERLIMIT	IQUANT	1	I/E Range Lower Limit
IERANGEMODE	TOGGLE	F	I/E AutoRange
IERANGE	IQUANT	5	I/E Range
POSFEEDENABLE	TOGGLE	F	Positive Feedback IR Comp
POSFEEDRESISTANCE	QUANT	0	Positive Feedback Resistance (ohm)
ACHSELECT	IQUANT	0	Ach Select
CABLEID	IQUANT	14	Cable ID
DCCALDATE	LABEL	8/19/2019	DC Calibration Date
ACCALDATE	LABEL	8/19/2019	AC Calibration Date
THERMOSELECT	IQUANT	1	Thermo Select
FRAMEWORKVERSION	QUANT	6.33	Framework Version
INSTRUMENTVERSION	LABEL	3.50	Instrument Version
ZCURVE	TABLE
	Pt	Time	Freq	Zreal	Zimag	Zsig	Zmod	Zphz	Idc	Vdc	IERange
	#	s	Hz	ohm	ohm	V	ohm	°	A	V	#
	0	1	1000078	2063.912	-718.5463	1	2185.416	-19.19544	-1.905922E-007	0.0071353	8
	1	2	794390.6	2158.174	-631.3899	1	2248.637	-16.30723	1.660755E-006	0.0067003	8
	2	4	630984.4	2239.244	-548.9451	1	2305.548	-13.77428	4.172016E-006	0.0058764	8
	3	5	501234.4	2302.669	-473.0589	1	2350.759	-11.60929	-1.778569E-006	0.0068959	8
	4	7	398109.4	2344.829	-403.9509	1	2379.37	-9.77458	3.040825E-006	0.005985	8
	5	8	316265.6	2382.606	-347.5801	1	2407.825	-8.299894	2.581816E-006	0.0059933	8
	6	9	251203.1	2402.584	-310.7028	1	2422.591	-7.36861	1.070127E-006	0.0064678	8
	7	11	199546.9	2429.098	-264.7037	1	2443.478	-6.219097	1.445078E-006	0.0061086	8
	8	12	158578.1	2458.131	-243.561	1	2470.168	-5.658614	-2.698514E-006	0.0071034	8
	9	13	125953.1	2480.937	-198.5056	1	2488.866	-4.574624	4.284881E-007	0.0057344	7
	10	15	100078.1	2493.924	-182.7327	1	2500.609	-4.19064	4.453321E-008	0.006406	7
	11	16	79453.13	2509.337	-181.3676	1	2515.883	-4.133984	-9.697674E-009	0.0065791	7
	12	17	63140.62	2527.05	-184.6599	1	2533.787	-4.179364	-3.269141E-008	0.006551	7
	13	19	50203.12	2545.026	-190.5341	1	2552.149	-4.281478	-4.134568E-008	0.0066178	7
	14	20	39890.62	2563.871	-199.028	1	2571.584	-4.438852	-4.393356E-008	0.0065594	7
	15	21	31640.63	2583.857	-211.3733	1	2592.488	-4.676686	3.483851E-009	0.0065332	7
	16	23	25171.88	2604.438	-227.7413	1	2614.376	-4.997436	1.279837E-007	0.0063412	7
	17	24	20015.62	2624.398	-251.4961	1	2636.421	-5.47394	6.003032E-009	0.0064742	7
	18	25	15890.62	2649.201	-274.4089	1	2663.375	-5.913709	-1.233692E-008	0.0065699	7
	19	27	12609.37	2674.78	-306.9687	1	2692.337	-6.546855	2.047871E-009	0.0065373	7
	20	28	10078.13	2699.611	-345.5554	1	2721.637	-7.294306	2.958448E-008	0.0065055	7
	21	29	8015.625	2727.487	-393.403	1	2755.713	-8.207535	7.59861E-008	0.0064913	7
	22	31	6328.125	2757.396	-455.2474	1	2794.724	-9.374989	-3.942334E-008	0.0065699	7
	23	32	5015.625	2790.179	-529.3441	1	2839.948	-10.74231	-3.713243E-008	0.0065462	7
	24	33	3984.375	2824.521	-621.6675	1	2892.125	-12.4127	-7.300223E-009	0.0065685	7
	25	35	3170.956	2863.677	-730.5695	1	2955.398	-14.31179	-3.873886E-008	0.0065723	7
	26	36	2527.573	2906.123	-864.6411	1	3032.021	-16.569	7.430309E-008	0.0063723	7
	27	38	1976.103	2957.669	-1044.404	1	3136.652	-19.449	7.535949E-008	0.006374	7
	28	39	1577.524	3012.5	-1246.211	1	3260.092	-22.4739	-9.673947E-009	0.0065685	7
	29	40	1265.625	3070.86	-1488.258	1	3412.491	-25.85663	-1.789852E-008	0.0066681	7
	30	42	998.264	3142.292	-1807.591	1	3625.105	-29.90949	6.658122E-009	0.0064736	7
	31	43	796.875	3223.917	-2181.338	1	3892.541	-34.08271	-3.577285E-008	0.0065393	7
	32	44	627.7902	3324.975	-2672.247	1	4265.719	-38.78848	-2.810359E-008	0.0065452	7
	33	46	505.5147	3434.181	-3222.282	1	4709.215	-43.17669	2.065129E-009	0.0065319	7
	34	47	397.9953	3578.49	-3964.595	1	5340.75	-47.93023	5.335251E-009	0.006544	7
	35	49	315.5048	3754.903	-4860.106	1	6141.655	-52.31044	6.021987E-009	0.0065489	7
	36	50	252.4038	3966.535	-5914.472	1	7121.402	-56.15226	8.347575E-009	0.0065446	7
	37	51	198.6229	4257.469	-7308.685	1	8458.305	-59.77826	4.641981E-009	0.0065447	7
	38	53	158.3615	4611.718	-8927.066	1	10047.91	-62.67915	4.984201E-009	0.0065403	7
	39	54	125.558	5083.515	-10955.01	1	12077.02	-65.10701	9.840666E-010	0.0064846	6
	40	55	100.4464	5662.949	-13318.77	1	14472.69	-66.96551	5.997553E-010	0.0064795	6
	41	57	79.00281	6490.389	-16432.23	1	17667.58	-68.44701	1.662992E-010	0.0064805	6
	42	58	63.3446	7445.167	-19798.58	1	21152.17	-69.39145	5.673693E-010	0.0064781	6
	43	60	49.86702	8921.342	-24352.8	1	25935.48	-69.88033	2.17302E-010	0.006477	6
	44	61	39.72458	10584.08	-29463.07	1	31306.48	-70.24009	9.582092E-010	0.0064828	6
	45	62	31.6723	12745.52	-35520.57	1	37738.03	-70.26096	1.379049E-009	0.0064833	6
	46	64	24.93351	15774.68	-43152.07	1	45944.99	-69.91959	8.939413E-010	0.0064792	6
	47	65	19.86229	19384.05	-51655.48	1	55172.73	-69.43108	1.204918E-009	0.0064806	6
	48	67	15.83615	23581.44	-61421.03	1	65792.3	-68.99666	-4.281042E-010	0.0064813	6
	49	68	12.40079	29829.66	-74046.55	1	79829.2	-68.05796	1.331712E-009	0.006484	6
	50	70	9.93114	36419.65	-87279.45	1	94573.21	-67.35037	1.950552E-010	0.0064829	6
	51	71	7.944915	44578.07	-102477.9	1	111753.9	-66.49088	4.888249E-011	0.0064868	5
	52	73	6.317385	54425.01	-120556.8	1	132272.6	-65.70335	-1.245745E-010	0.0064738	5
	53	75	5.008013	66470.05	-141832.3	1	156635.5	-64.88975	-7.450082E-011	0.0064872	5
	54	77	3.945707	80595.77	-167108.3	1	185528.6	-64.25215	-8.959589E-010	0.0064833	5
	55	80	3.158693	97826.1	-194081.2	1	217341.8	-63.24972	-2.360271E-010	0.0065013	5
	56	83	2.504006	119963.6	-228634.8	1	258195.9	-62.31421	-7.712522E-010	0.0064819	5
	57	86	1.998082	139769.4	-261800.7	1	296774.4	-61.90326	-3.434041E-010	0.0064767	5
	58	89	1.584686	167006.8	-303541.8	1	346451.8	-61.18069	1.004648E-010	0.0065396	5
	59	93	1.266892	195574.8	-349337.8	1	400357.8	-60.75796	-2.208167E-010	0.0065081	5
	60	97	0.999041	229725	-406016.5	1	466500.8	-60.49873	2.68955E-010	0.006479	5
