EXPLAIN
TAG	EISPOT
TITLE	LABEL	Potentiostatic EIS	Test &Identifier
DATE	LABEL	9/22/2019	Date
TIME	LABEL	10:00:52	Time
NOTES	NOTES	1	&Notes...
	
PSTAT	PSTAT	REF600-11020	Potentiostat
VDC	POTEN	0.00000E+000	T	DC &Voltage (V)
FREQINIT	QUANT	1.00000E+006	Initial Fre&q. (Hz)
FREQFINAL	QUANT	1.00000E+000	Final Fre&q. (Hz)
PTSPERDEC	QUANT	1.00000E+001	Points/&decade
VAC	QUANT	2.50000E+001	AC &Voltage (mV rms)
AREA	QUANT	1.00000E-002	&Area (cm^2)
CONDIT	TWOPARAM	T	5.00000E+000	0.00000E+000	Conditionin&g	Time(s)	E(V)
DELAY	TWOPARAM	T	5.00000E+000	0.00000E+000	Init. De&lay	Time(s)	Stab.(mV/s)
SPEED	SELECTOR	1	&Optimize for:
ZGUESS	QUANT	1.00000E+004	E&stimated Z (ohms)
OCVCURVE	TABLE	19
	Pt	T	Vf	Vm	Ach	Over
	#	s	V vs. Ref.	V	V	bits
	0	0.258333	-1.54227E-002	-1.54227E-002	5.71232E-004	...........
	1	0.516667	-1.54547E-002	-1.71012E-002	5.64266E-004	...........
	2	0.775	-1.56508E-002	-1.86457E-002	5.67466E-004	...........
	3	1.03333	-1.62029E-002	-2.01570E-002	5.64799E-004	...........
	4	1.29167	-1.71868E-002	-2.15785E-002	5.66466E-004	...........
	5	1.55	-1.84922E-002	-2.29816E-002	5.68732E-004	...........
	6	1.80833	-1.99384E-002	-2.42276E-002	5.69499E-004	...........
	7	2.06667	-2.13886E-002	-2.54209E-002	5.72166E-004	...........
	8	2.325	-2.27738E-002	-2.66070E-002	5.67899E-004	...........
	9	2.58333	-2.40767E-002	-2.77338E-002	5.64799E-004	...........
	10	2.84167	-2.53078E-002	-2.87925E-002	5.67399E-004	...........
	11	3.1	-2.64820E-002	-2.98544E-002	5.67766E-004	...........
	12	3.35833	-2.76094E-002	-3.08960E-002	5.65899E-004	...........
	13	3.61667	-2.86979E-002	-3.18368E-002	5.67532E-004	...........
	14	3.875	-2.97512E-002	-3.27938E-002	5.62466E-004	...........
	15	4.13333	-3.07680E-002	-3.36898E-002	5.69832E-004	...........
	16	4.39167	-3.17474E-002	-3.45813E-002	5.70566E-004	...........
	17	4.65	-3.26915E-002	-3.54089E-002	5.68566E-004	...........
	18	4.90833	-3.36021E-002	-3.62238E-002	5.67999E-004	...........
EOC	QUANT	-0.0336021	Open Circuit (V)
PSTATMODEL	IQUANT	4	Pstat Model
PSTATSECTION	LABEL	REF600-11020	Pstat Section
PSTATSERIALNO	LABEL	11020	Pstat Serial Number
CTRLMODE	IQUANT	1	Control Mode
IESTAB	IQUANT	0	I/E Stability
CASPEED	IQUANT	1	Control Amp Speed
CONVENTION	IQUANT	1	Current Convention
ICHRANGE	IQUANT	2	Ich Range
ICHRANGEMODE	TOGGLE	F	Ich Auto Range
ICHOFFSETENABLE	TOGGLE	T	Ich Offset Enable
ICHOFFSET	QUANT	0	Ich Offset (V)
ICHFILTER	IQUANT	3	Ich Filter
VCHRANGE	IQUANT	2	Vch Range
VCHRANGEMODE	TOGGLE	F	Vch Auto Range
VCHOFFSETENABLE	TOGGLE	T	Vch Offset Enable
VCHOFFSET	QUANT	0	Vch Offset (V)
VCHFILTER	IQUANT	3	Vch Filter
ACHRANGE	IQUANT	2	Ach Range
ACHOFFSETENABLE	TOGGLE	F	Ach Offset Enable
ACHOFFSET	QUANT	0	Ach Offset (V)
ACHFILTER	IQUANT	3	Ach Filter
IERANGELOWERLIMIT	IQUANT	1	I/E Range Lower Limit
IERANGEMODE	TOGGLE	F	I/E AutoRange
IERANGE	IQUANT	6	I/E Range
POSFEEDENABLE	TOGGLE	F	Positive Feedback IR Comp
POSFEEDRESISTANCE	QUANT	0	Positive Feedback Resistance (ohm)
ACHSELECT	IQUANT	0	Ach Select
CABLEID	IQUANT	14	Cable ID
DCCALDATE	LABEL	8/19/2019	DC Calibration Date
ACCALDATE	LABEL	8/19/2019	AC Calibration Date
THERMOSELECT	IQUANT	1	Thermo Select
FRAMEWORKVERSION	QUANT	6.33	Framework Version
INSTRUMENTVERSION	LABEL	3.50	Instrument Version
ZCURVE	TABLE
	Pt	Time	Freq	Zreal	Zimag	Zsig	Zmod	Zphz	Idc	Vdc	IERange
	#	s	Hz	ohm	ohm	V	ohm	°	A	V	#
	0	2	1000078	2323.637	-2138.932	1	3158.214	-42.62989	2.033725E-006	-0.0314639	8
	1	3	794390.6	2739.911	-2172.942	1	3496.969	-38.41689	4.8815E-006	-0.032566	8
	2	5	630984.4	3171.609	-2173.986	1	3845.168	-34.42878	1.221291E-007	-0.0318822	8
	3	6	501234.4	3595.717	-2138.819	1	4183.746	-30.74521	1.671974E-007	-0.0317843	8
	4	8	398109.4	3971.437	-1998.717	1	4446.03	-26.71488	9.700468E-007	-0.0320121	8
	5	9	316265.6	4302.142	-1826.242	1	4673.712	-23.00102	3.061401E-006	-0.0325961	8
	6	10	251203.1	4586.721	-1682.136	1	4885.447	-20.14003	3.761397E-007	-0.0318081	8
	7	12	199546.9	4831.296	-1495.645	1	5057.507	-17.20118	-8.719404E-007	-0.0315627	8
	8	13	158578.1	5036.246	-1314.939	1	5205.078	-14.63297	-5.171885E-007	-0.0318327	8
	9	15	125953.1	5222.829	-1117.474	1	5341.038	-12.07689	3.807569E-007	-0.0325494	7
	10	16	100078.1	5327.151	-976.796	1	5415.964	-10.39043	-5.040922E-008	-0.0318706	7
	11	17	79453.13	5421.68	-874.8303	1	5491.807	-9.166114	5.392141E-009	-0.0320326	7
	12	19	63140.62	5499.843	-792.2045	1	5556.605	-8.196581	1.317913E-008	-0.0318461	7
	13	20	50203.12	5567.543	-731.7489	1	5615.424	-7.487537	7.58564E-008	-0.0320697	7
	14	21	39890.62	5627.13	-691.7507	1	5669.489	-7.008286	9.108257E-009	-0.0320402	7
	15	23	31640.63	5683.275	-671.6255	1	5722.822	-6.739716	4.817765E-008	-0.0321027	7
	16	24	25171.88	5737.08	-667.4846	1	5775.778	-6.636281	1.305498E-007	-0.0321416	7
	17	25	20015.62	5787.192	-681.0565	1	5827.129	-6.71189	1.304967E-007	-0.0321416	7
	18	27	15890.62	5838.94	-715.3508	1	5882.597	-6.984717	-5.266892E-008	-0.0318855	7
	19	28	12609.37	5893.91	-770.1282	1	5944.011	-7.444382	1.279666E-007	-0.0321289	7
	20	30	10078.13	5947.253	-846.1899	1	6007.151	-8.097832	4.870723E-008	-0.0320147	7
	21	31	8015.625	6004.777	-945.8221	1	6078.81	-8.951208	6.438954E-009	-0.0320415	7
	22	32	6328.125	6071.047	-1084.689	1	6167.184	-10.12992	4.47167E-008	-0.0321081	7
	23	34	5015.625	6140.273	-1254.916	1	6267.198	-11.55074	7.423821E-008	-0.032093	7
	24	35	3984.375	6218.507	-1465.782	1	6388.924	-13.26325	8.647035E-008	-0.032137	7
	25	36	3170.956	6305.728	-1723.921	1	6537.133	-15.29044	-3.805319E-008	-0.0319518	7
	26	38	2527.573	6407.395	-2040.926	1	6724.588	-17.66806	5.644172E-009	-0.0320438	7
	27	39	1976.103	6534.982	-2469.505	1	6986.018	-20.70108	1.32588E-008	-0.032026	7
	28	40	1577.524	6669.913	-2951.856	1	7293.915	-23.8724	7.174943E-008	-0.0320803	7
	29	42	1265.625	6825.556	-3514.004	1	7677.007	-27.24079	8.548896E-008	-0.0321365	7
	30	43	998.264	7027.967	-4265.344	1	8221.038	-31.25398	-3.825289E-008	-0.0319521	7
	31	44	796.875	7252.416	-5132.957	1	8885.088	-35.28926	-5.990632E-008	-0.0318966	7
	32	46	627.7902	7561.018	-6254.191	1	9812.44	-39.59628	-7.853534E-009	-0.03186	6
	33	47	505.5147	7889.228	-7484.921	1	10874.92	-43.49359	4.949771E-009	-0.0321499	6
	34	49	397.9953	8327.327	-9141.015	1	12365.38	-47.66695	1.974473E-009	-0.0320023	6
	35	50	315.5048	8850.2	-11101.6	1	14197.59	-51.43814	2.061803E-009	-0.0320041	6
	36	51	252.4038	9463.122	-13389.69	1	16396.18	-54.74937	1.313182E-009	-0.0320075	6
	37	53	198.6229	10284.05	-16381.93	1	19342.42	-57.88071	1.744282E-009	-0.0320098	6
	38	54	158.3615	11254.16	-19821.36	1	22793.47	-60.41298	1.375727E-009	-0.0320081	6
	39	55	125.558	12514.32	-24119.42	1	27172.68	-62.57754	1.671128E-009	-0.032009	6
	40	57	100.4464	14067.89	-29136.44	1	32354.87	-64.22746	1.943181E-009	-0.0320116	6
	41	58	79.00281	16181.84	-35540.68	1	39051.15	-65.52	1.910478E-009	-0.0320081	6
	42	60	63.3446	19105.26	-42478.09	1	46576.81	-65.78334	1.245862E-009	-0.0320046	6
	43	61	49.86702	22561.27	-52387.47	1	57039.09	-66.70032	1.645208E-009	-0.032007	6
	44	62	39.72458	27207.66	-62593.46	1	68250.99	-66.50674	1.443035E-009	-0.032007	6
	45	64	31.6723	33238.77	-74518.33	1	81595.33	-65.96082	1.303504E-009	-0.0320007	6
	46	65	24.93351	41578.5	-89433.45	1	98626.1	-65.06581	9.063283E-010	-0.0320035	6
	47	67	19.86229	51626.27	-105310.6	1	117284.3	-63.88459	1.546367E-009	-0.0319939	5
	48	68	15.83615	64312.73	-124135.4	1	139806	-62.61199	-1.755742E-010	-0.0320025	5
	49	69	12.40079	81651.61	-143779.3	1	165346.5	-60.40795	2.206037E-009	-0.0320045	5
	50	71	9.93114	99449.7	-163166.4	1	191085.1	-58.63774	5.751035E-010	-0.0319961	5
	51	72	7.944915	121528.7	-184795.3	1	221175.3	-56.66951	1.559616E-009	-0.0319999	5
	52	74	6.317385	145131.9	-207189.9	1	252964.3	-54.98962	1.586956E-009	-0.0320111	5
	53	76	5.008013	172422.6	-231756.5	1	288860.9	-53.35143	1.24238E-009	-0.0319881	5
	54	79	3.945707	201957.6	-258115.3	1	327735.2	-51.95925	6.641526E-010	-0.0320032	5
	55	81	3.158693	230688.7	-285718.8	1	367222.7	-51.08267	1.078059E-009	-0.0319849	5
	56	85	2.504006	262173.5	-319039.5	1	412942	-50.58804	7.989596E-010	-0.0320081	5
	57	87	1.998082	293391.9	-356886.5	1	462003	-50.57681	6.173251E-010	-0.0319797	5
	58	90	1.584686	328712.9	-403807.2	1	520684.6	-50.85323	9.70989E-010	-0.0319537	5
	59	94	1.266892	363800.2	-457635.3	1	584620.1	-51.51683	6.77589E-010	-0.0319702	5
	60	98	0.999041	404884.3	-527409.8	1	664900.3	-52.48711	1.011015E-009	-0.032019	5
