EXPLAIN
TAG	EISPOT
TITLE	LABEL	Potentiostatic EIS	Test &Identifier
DATE	LABEL	10/16/2019	Date
TIME	LABEL	9:40:37	Time
NOTES	NOTES	1	&Notes...
	
PSTAT	PSTAT	REF600-11020	Potentiostat
VDC	POTEN	0.00000E+000	T	DC &Voltage (V)
FREQINIT	QUANT	1.00000E+006	Initial Fre&q. (Hz)
FREQFINAL	QUANT	1.00000E+000	Final Fre&q. (Hz)
PTSPERDEC	QUANT	1.00000E+001	Points/&decade
VAC	QUANT	2.50000E+001	AC &Voltage (mV rms)
AREA	QUANT	1.00000E-002	&Area (cm^2)
CONDIT	TWOPARAM	T	5.00000E+000	0.00000E+000	Conditionin&g	Time(s)	E(V)
DELAY	TWOPARAM	T	5.00000E+000	0.00000E+000	Init. De&lay	Time(s)	Stab.(mV/s)
SPEED	SELECTOR	0	&Optimize for:
ZGUESS	QUANT	1.00000E+005	E&stimated Z (ohms)
OCVCURVE	TABLE	19
	Pt	T	Vf	Vm	Ach	Over
	#	s	V vs. Ref.	V	V	bits
	0	0.258333	8.00025E-003	8.00025E-003	5.49133E-004	...........
	1	0.516667	7.99884E-003	7.92657E-003	5.47533E-004	...........
	2	0.775	7.99092E-003	7.89438E-003	5.45866E-004	...........
	3	1.03333	7.97062E-003	7.84914E-003	5.47899E-004	...........
	4	1.29167	7.93806E-003	7.82310E-003	5.41199E-004	...........
	5	1.55	7.89982E-003	7.80852E-003	5.43099E-004	...........
	6	1.80833	7.86342E-003	7.78422E-003	5.46566E-004	...........
	7	2.06667	7.83330E-003	7.78464E-003	5.42666E-004	...........
	8	2.325	7.81065E-003	7.77948E-003	5.46266E-004	...........
	9	2.58333	7.79500E-003	7.76796E-003	5.49166E-004	...........
	10	2.84167	7.78515E-003	7.79154E-003	5.45633E-004	...........
	11	3.1	7.78060E-003	7.80381E-003	5.50033E-004	...........
	12	3.35833	7.78215E-003	7.81133E-003	5.43433E-004	...........
	13	3.61667	7.78953E-003	7.83260E-003	5.45499E-004	...........
	14	3.875	7.80109E-003	7.85770E-003	5.49433E-004	...........
	15	4.13333	7.81622E-003	7.89038E-003	5.46366E-004	...........
	16	4.39167	7.83557E-003	7.91403E-003	5.45566E-004	...........
	17	4.65	7.85799E-003	7.88572E-003	5.44466E-004	...........
	18	4.90833	7.87863E-003	7.91750E-003	5.44133E-004	...........
EOC	QUANT	0.0078786	Open Circuit (V)
PSTATMODEL	IQUANT	4	Pstat Model
PSTATSECTION	LABEL	REF600-11020	Pstat Section
PSTATSERIALNO	LABEL	11020	Pstat Serial Number
CTRLMODE	IQUANT	1	Control Mode
IESTAB	IQUANT	0	I/E Stability
CASPEED	IQUANT	1	Control Amp Speed
CONVENTION	IQUANT	1	Current Convention
ICHRANGE	IQUANT	2	Ich Range
ICHRANGEMODE	TOGGLE	F	Ich Auto Range
ICHOFFSETENABLE	TOGGLE	T	Ich Offset Enable
ICHOFFSET	QUANT	0	Ich Offset (V)
ICHFILTER	IQUANT	3	Ich Filter
VCHRANGE	IQUANT	2	Vch Range
VCHRANGEMODE	TOGGLE	F	Vch Auto Range
VCHOFFSETENABLE	TOGGLE	T	Vch Offset Enable
VCHOFFSET	QUANT	0	Vch Offset (V)
VCHFILTER	IQUANT	3	Vch Filter
ACHRANGE	IQUANT	2	Ach Range
ACHOFFSETENABLE	TOGGLE	F	Ach Offset Enable
ACHOFFSET	QUANT	0	Ach Offset (V)
ACHFILTER	IQUANT	3	Ach Filter
IERANGELOWERLIMIT	IQUANT	1	I/E Range Lower Limit
IERANGEMODE	TOGGLE	F	I/E AutoRange
IERANGE	IQUANT	5	I/E Range
POSFEEDENABLE	TOGGLE	F	Positive Feedback IR Comp
POSFEEDRESISTANCE	QUANT	0	Positive Feedback Resistance (ohm)
ACHSELECT	IQUANT	0	Ach Select
CABLEID	IQUANT	14	Cable ID
DCCALDATE	LABEL	8/19/2019	DC Calibration Date
ACCALDATE	LABEL	8/19/2019	AC Calibration Date
THERMOSELECT	IQUANT	1	Thermo Select
FRAMEWORKVERSION	QUANT	6.33	Framework Version
INSTRUMENTVERSION	LABEL	3.50	Instrument Version
ZCURVE	TABLE
	Pt	Time	Freq	Zreal	Zimag	Zsig	Zmod	Zphz	Idc	Vdc	IERange
	#	s	Hz	ohm	ohm	V	ohm	°	A	V	#
	0	1	1000078	2227.095	-1382.309	1	2621.208	-31.82697	-2.305218E-006	0.0110074	8
	1	1	794390.6	2478.104	-1298.353	1	2797.627	-27.65138	4.247316E-006	0.0093096	8
	2	2	630984.4	2702.955	-1194.349	1	2955.069	-23.8391	-1.314128E-006	0.0097667	8
	3	2	501234.4	2887.968	-1083.161	1	3084.412	-20.55904	3.07567E-006	0.0091578	8
	4	2	398109.4	3032.343	-967.724	1	3183.017	-17.69965	-9.440553E-007	0.0098874	8
	5	3	316265.6	3145.887	-864.8198	1	3262.594	-15.37118	-3.680613E-007	0.009623	8
	6	3	251203.1	3255.531	-775.91	1	3346.717	-13.40555	-1.152915E-006	0.0098294	8
	7	3	199546.9	3330.914	-705.7212	1	3404.854	-11.96236	-2.300631E-006	0.0100575	8
	8	3	158578.1	3402.306	-641.5313	1	3462.26	-10.67819	1.218195E-006	0.0093648	8
	9	4	125953.1	3483.646	-542.1943	1	3525.588	-8.846532	1.799304E-008	0.0096515	7
	10	4	100078.1	3527.891	-533.7213	1	3568.035	-8.602826	5.028572E-008	0.0094755	7
	11	4	79453.13	3579.932	-530.0244	1	3618.956	-8.421708	-4.55398E-008	0.0096075	7
	12	5	63140.62	3632.291	-536.6553	1	3671.721	-8.404402	-7.539331E-009	0.0095846	7
	13	5	50203.12	3687.876	-551.5165	1	3728.887	-8.505466	-5.83181E-008	0.0096216	7
	14	5	39890.62	3744.946	-575.2227	1	3788.865	-8.732369	-1.554981E-008	0.0095256	7
	15	6	31640.63	3807.102	-610.9015	1	3855.804	-9.116178	1.016933E-008	0.0096166	7
	16	6	25171.88	3871.045	-655.2001	1	3926.102	-9.60664	6.110128E-008	0.0094161	7
	17	6	20015.62	3933.319	-713.8389	1	3997.57	-10.28637	-5.256889E-008	0.0096365	7
	18	7	15890.62	4014.91	-780.7609	1	4090.121	-11.00469	4.81589E-008	0.0094592	7
	19	7	12609.37	4093.774	-866.6343	1	4184.5	-11.9528	7.42365E-009	0.0094818	7
	20	7	10078.13	4177.44	-962.319	1	4286.848	-12.9724	-5.425666E-008	0.0097142	7
	21	8	8015.625	4265.114	-1080.999	1	4399.973	-14.2222	-5.114005E-009	0.0095476	7
	22	8	6328.125	4373.875	-1226.151	1	4542.492	-15.66006	-5.659759E-008	0.0096166	7
	23	8	5015.625	4482.444	-1399.644	1	4695.882	-17.34098	3.604631E-008	0.0094983	7
	24	9	3984.375	4607.442	-1585.798	1	4872.708	-18.99254	7.897158E-009	0.0094866	7
	25	9	3170.956	4724.344	-1850.52	1	5073.839	-21.39022	5.042482E-008	0.0094607	7
	26	9	2527.573	4855.223	-2146.437	1	5308.52	-23.84966	7.856519E-009	0.0094844	7
	27	9	1976.103	5017.1	-2540.334	1	5623.574	-26.85469	1.086786E-008	0.0096131	7
	28	10	1577.524	5185.693	-2947.631	1	5964.893	-29.61459	-5.441915E-008	0.0097082	7
	29	10	1265.625	5346.354	-3511.671	1	6396.509	-33.2983	-7.021763E-009	0.0095766	7
	30	10	998.264	5559.148	-4217.659	1	6978.021	-37.18715	-5.590668E-008	0.0097017	7
	31	11	796.875	5790.602	-5025.566	1	7667.293	-40.95417	7.799576E-008	0.0094706	7
	32	11	627.7902	6072.118	-6077.821	1	8591.306	-45.02689	-5.679915E-008	0.0096147	7
	33	11	505.5147	6387.318	-7239.965	1	9654.79	-48.58028	-4.008695E-009	0.0095164	7
	34	12	397.9953	6790.146	-8817.14	1	11128.7	-52.39986	2.535827E-010	0.0094967	6
	35	12	315.5048	7254.061	-10692.34	1	12920.81	-55.84563	-3.710384E-010	0.0094948	6
	36	12	252.4038	7790.004	-12891.37	1	15062.25	-58.85624	-1.506713E-010	0.0094924	6
	37	13	198.6229	8481.884	-15780.53	1	17915.56	-61.74239	7.357545E-010	0.0094923	6
	38	13	158.3615	9282.175	-19135.99	1	21268.4	-64.12366	3.369878E-010	0.0094904	6
	39	13	125.558	10285.13	-23326.08	1	25492.94	-66.20596	3.299936E-010	0.0094922	6
	40	14	100.4464	11436.18	-28220.83	1	30449.98	-67.94029	-2.876836E-010	0.0094934	6
	41	14	79.00281	13098.33	-34639.45	1	37033.2	-69.28672	-5.554618E-010	0.0094877	6
	42	14	63.3446	15371.58	-42525.39	1	45218.3	-70.12668	5.820276E-010	0.009486	6
	43	15	49.86702	17884.15	-52034.71	1	55022.3	-71.03233	5.047287E-011	0.0094849	6
	44	15	39.72458	21206.04	-62766.04	1	66251.58	-71.33202	4.198575E-010	0.0094907	6
	45	15	31.6723	25461.73	-75887.86	1	80045.41	-71.45248	4.91393E-010	0.0094835	6
	46	16	24.93351	31879.41	-93116.74	1	98422.7	-71.10087	4.787437E-010	0.0094856	6
	47	16	19.86229	39790.1	-111859	1	118725.3	-70.41869	9.842757E-010	0.0094984	5
	48	16	15.83615	51129.96	-134537.3	1	143925.5	-69.19105	-1.179987E-009	0.0094916	5
	49	17	12.40079	65795.34	-161787.9	1	174654.9	-67.86958	6.621577E-011	0.0094907	5
	50	17	9.93114	82425.7	-190116.4	1	207215.5	-66.56068	-6.868449E-010	0.0094959	5
	51	18	7.944915	104484.6	-222990.5	1	246255.5	-64.89404	5.975315E-011	0.0094901	5
	52	18	6.317385	130919.3	-258068.2	1	289377	-63.1011	-3.082092E-010	0.0094977	5
	53	19	5.008013	163293.2	-297860	1	339684	-61.26751	-3.437761E-010	0.0094827	5
	54	20	3.945707	201348.7	-340745.3	1	395788.6	-59.42087	6.673844E-011	0.0094912	5
	55	21	3.158693	242024.2	-384929	1	454693.3	-57.84036	-4.073459E-011	0.0095037	5
	56	23	2.504006	287942.4	-435748.7	1	522290.9	-56.5433	-2.029025E-010	0.0094945	5
	57	24	1.998082	335075.6	-488812.6	1	592632.6	-55.56979	2.065581E-011	0.0095198	5
	58	26	1.584686	387664.9	-553760.1	1	675969.2	-55.0057	7.485888E-011	0.0095426	5
	59	28	1.266892	439831.3	-626012.1	1	765076.9	-54.90842	2.596064E-011	0.0095068	5
	60	30	0.999041	500881.7	-716437.4	1	874165.4	-55.04151	1.218174E-011	0.0094786	5
