EXPLAIN
TAG	EISPOT
TITLE	LABEL	Potentiostatic EIS	Test &Identifier
DATE	LABEL	10/6/2019	Date
TIME	LABEL	8:37:17	Time
NOTES	NOTES	2	&Notes...
	
	
PSTAT	PSTAT	REF600-11020	Potentiostat
VDC	POTEN	0.00000E+000	T	DC &Voltage (V)
FREQINIT	QUANT	1.00000E+006	Initial Fre&q. (Hz)
FREQFINAL	QUANT	1.00000E+000	Final Fre&q. (Hz)
PTSPERDEC	QUANT	1.00000E+001	Points/&decade
VAC	QUANT	2.50000E+001	AC &Voltage (mV rms)
AREA	QUANT	1.00000E-002	&Area (cm^2)
CONDIT	TWOPARAM	T	5.00000E+000	0.00000E+000	Conditionin&g	Time(s)	E(V)
DELAY	TWOPARAM	T	5.00000E+000	0.00000E+000	Init. De&lay	Time(s)	Stab.(mV/s)
SPEED	SELECTOR	1	&Optimize for:
ZGUESS	QUANT	1.00000E+004	E&stimated Z (ohms)
OCVCURVE	TABLE	19
	Pt	T	Vf	Vm	Ach	Over
	#	s	V vs. Ref.	V	V	bits
	0	0.258333	3.60036E-002	3.60036E-002	5.46666E-004	...........
	1	0.516667	3.60579E-002	3.88489E-002	5.43933E-004	...........
	2	0.775	3.63910E-002	4.15095E-002	5.44699E-004	...........
	3	1.03333	3.73299E-002	4.40060E-002	5.54066E-004	...........
	4	1.29167	3.89998E-002	4.63688E-002	5.52699E-004	...........
	5	1.55	4.12026E-002	4.86057E-002	5.41566E-004	...........
	6	1.80833	4.36212E-002	5.07260E-002	5.49299E-004	...........
	7	2.06667	4.60264E-002	5.27328E-002	5.45733E-004	...........
	8	2.325	4.83170E-002	5.46463E-002	5.45633E-004	...........
	9	2.58333	5.04732E-002	5.64748E-002	5.44666E-004	...........
	10	2.84167	5.25073E-002	5.82297E-002	5.40033E-004	...........
	11	3.1	5.44374E-002	5.99050E-002	5.44199E-004	...........
	12	3.35833	5.62779E-002	6.15104E-002	5.50799E-004	...........
	13	3.61667	5.80378E-002	6.30506E-002	5.50033E-004	...........
	14	3.875	5.97220E-002	6.44908E-002	5.47099E-004	...........
	15	4.13333	6.13324E-002	6.58971E-002	5.49166E-004	...........
	16	4.39167	6.28705E-002	6.72518E-002	5.44533E-004	...........
	17	4.65	6.43416E-002	6.85666E-002	5.51899E-004	...........
	18	4.90833	6.57542E-002	6.98330E-002	5.50066E-004	...........
EOC	QUANT	0.0657542	Open Circuit (V)
PSTATMODEL	IQUANT	4	Pstat Model
PSTATSECTION	LABEL	REF600-11020	Pstat Section
PSTATSERIALNO	LABEL	11020	Pstat Serial Number
CTRLMODE	IQUANT	1	Control Mode
IESTAB	IQUANT	0	I/E Stability
CASPEED	IQUANT	1	Control Amp Speed
CONVENTION	IQUANT	1	Current Convention
ICHRANGE	IQUANT	2	Ich Range
ICHRANGEMODE	TOGGLE	F	Ich Auto Range
ICHOFFSETENABLE	TOGGLE	T	Ich Offset Enable
ICHOFFSET	QUANT	0	Ich Offset (V)
ICHFILTER	IQUANT	3	Ich Filter
VCHRANGE	IQUANT	2	Vch Range
VCHRANGEMODE	TOGGLE	F	Vch Auto Range
VCHOFFSETENABLE	TOGGLE	T	Vch Offset Enable
VCHOFFSET	QUANT	0	Vch Offset (V)
VCHFILTER	IQUANT	3	Vch Filter
ACHRANGE	IQUANT	2	Ach Range
ACHOFFSETENABLE	TOGGLE	F	Ach Offset Enable
ACHOFFSET	QUANT	0	Ach Offset (V)
ACHFILTER	IQUANT	3	Ach Filter
IERANGELOWERLIMIT	IQUANT	1	I/E Range Lower Limit
IERANGEMODE	TOGGLE	F	I/E AutoRange
IERANGE	IQUANT	7	I/E Range
POSFEEDENABLE	TOGGLE	F	Positive Feedback IR Comp
POSFEEDRESISTANCE	QUANT	0	Positive Feedback Resistance (ohm)
ACHSELECT	IQUANT	0	Ach Select
CABLEID	IQUANT	14	Cable ID
DCCALDATE	LABEL	8/19/2019	DC Calibration Date
ACCALDATE	LABEL	8/19/2019	AC Calibration Date
THERMOSELECT	IQUANT	1	Thermo Select
FRAMEWORKVERSION	QUANT	6.33	Framework Version
INSTRUMENTVERSION	LABEL	3.50	Instrument Version
ZCURVE	TABLE
	Pt	Time	Freq	Zreal	Zimag	Zsig	Zmod	Zphz	Idc	Vdc	IERange
	#	s	Hz	ohm	ohm	V	ohm	°	A	V	#
	0	1	1000078	1900.047	-746.4059	1	2041.397	-21.44666	3.029243E-006	0.0670995	8
	1	3	794390.6	2014.52	-657.6326	1	2119.144	-18.07908	3.46209E-007	0.0673543	8
	2	4	630984.4	2097.506	-569.2163	1	2173.37	-15.18312	-9.409115E-007	0.0676451	8
	3	5	501234.4	2161.339	-479.7569	1	2213.945	-12.51515	-3.79555E-006	0.0681017	8
	4	7	398109.4	2210.324	-423.7464	1	2250.576	-10.85263	4.694849E-006	0.0664517	8
	5	8	316265.6	2247.681	-370.0978	1	2277.947	-9.350285	7.943082E-007	0.0670547	8
	6	10	251203.1	2283.144	-329.7786	1	2306.838	-8.21899	1.127824E-007	0.0670731	8
	7	11	199546.9	2308.084	-289.4861	1	2326.167	-7.14886	-4.731784E-007	0.0675315	8
	8	12	158578.1	2326.182	-267.609	1	2341.524	-6.562581	-5.871092E-007	0.0674965	8
	9	14	125953.1	2363.725	-224.4483	1	2374.357	-5.424277	3.958508E-007	0.0670189	7
	10	15	100078.1	2380.987	-214.2952	1	2390.611	-5.142918	-4.659502E-009	0.0673735	7
	11	16	79453.13	2402.275	-220.4115	1	2412.365	-5.242276	-5.755739E-008	0.0673211	7
	12	18	63140.62	2424.789	-231.9148	1	2435.854	-5.46334	-6.717899E-008	0.0673709	7
	13	19	50203.12	2450.159	-247.2254	1	2462.6	-5.761746	-6.523957E-008	0.0674358	7
	14	20	39890.62	2477.982	-266.3931	1	2492.26	-6.135963	-2.058038E-008	0.0672433	7
	15	22	31640.63	2507.131	-291.3982	1	2524.008	-6.629615	5.952429E-008	0.0671474	7
	16	23	25171.88	2538.625	-321.6408	1	2558.919	-7.220836	-6.740548E-008	0.0673722	7
	17	25	20015.62	2572.592	-358.9803	1	2597.518	-7.943777	-1.036641E-008	0.0672313	7
	18	26	15890.62	2608.634	-403.7986	1	2639.701	-8.799159	2.668241E-009	0.067249	7
	19	27	12609.37	2645.835	-457.7586	1	2685.142	-9.81563	-9.49117E-009	0.0672356	7
	20	29	10078.13	2684.953	-522.6638	1	2735.352	-11.01566	7.475315E-008	0.0672011	7
	21	30	8015.625	2727.783	-602.0938	1	2793.442	-12.44711	-9.531773E-009	0.0672352	7
	22	31	6328.125	2773.946	-702.4943	1	2861.516	-14.21122	3.179731E-008	0.067221	7
	23	33	5015.625	2826.082	-825.7721	1	2944.255	-16.28819	-2.213191E-008	0.0673083	7
	24	34	3984.375	2882.754	-975.442	1	3043.314	-18.69436	-2.739045E-008	0.0672494	7
	25	36	3170.956	2942.958	-1155.664	1	3161.734	-21.43934	-1.439651E-008	0.0673032	7
	26	37	2527.573	3008.877	-1374.533	1	3307.973	-24.55215	-1.469182E-008	0.0673072	7
	27	38	1976.103	3090.124	-1666.705	1	3510.95	-28.34087	7.36155E-008	0.0672021	7
	28	40	1577.524	3175.878	-1998.856	1	3752.55	-32.18577	-2.63575E-008	0.0672463	7
	29	41	1265.625	3266.873	-2391.745	1	4048.815	-36.20862	7.434687E-008	0.0672028	7
	30	42	998.264	3386.087	-2917.013	1	4469.29	-40.74392	3.374858E-008	0.0672176	7
	31	44	796.875	3519.66	-3535.847	1	4989.01	-45.13145	-5.573495E-008	0.0673061	7
	32	45	627.7902	3696.582	-4343.32	1	5703.433	-49.59903	-1.708123E-008	0.0672412	7
	33	47	505.5147	3900.522	-5251.963	1	6541.956	-53.39951	-2.2607E-008	0.0672382	7
	34	48	397.9953	4168.335	-6463.731	1	7691.218	-57.18282	6.84483E-011	0.0672803	7
	35	49	315.5048	4515.318	-7921.846	1	9118.319	-60.31759	1.048048E-009	0.0672749	7
	36	51	252.4038	4950.41	-9624.6	1	10823.1	-62.78099	-3.454269E-009	0.067216	6
	37	52	198.6229	5553.332	-11849.73	1	13086.47	-64.89004	-2.868813E-009	0.0672134	6
	38	53	158.3615	6295.568	-14398.46	1	15714.63	-66.38317	-3.406335E-009	0.0672104	6
	39	55	125.558	7282.713	-17537.42	1	18989.44	-67.44849	-3.092641E-009	0.0672148	6
	40	56	100.4464	8485.919	-21151.06	1	22789.87	-68.13908	-2.543073E-009	0.0672169	6
	41	58	79.00281	10230.98	-25771.47	1	27727.99	-68.34749	-3.115422E-009	0.067219	6
	42	59	63.3446	12356.09	-30956.32	1	33331.17	-68.24078	-3.52381E-009	0.0672113	6
	43	60	49.86702	14697.46	-37280.52	1	40073.09	-68.48368	-3.8215E-009	0.0672076	6
	44	62	39.72458	18089.26	-44566.71	1	48097.96	-67.90817	-2.434411E-009	0.0672053	6
	45	63	31.6723	22085.6	-53000.33	1	57417.84	-67.37818	-3.51309E-009	0.0672074	6
	46	65	24.93351	27547.56	-63339.98	1	69071.13	-66.49502	-2.333034E-009	0.0672084	6
	47	66	19.86229	33933.24	-74828.52	1	82163.08	-65.60666	-2.90203E-009	0.0672117	6
	48	67	15.83615	41940.82	-87650.89	1	97168.5	-64.42896	-3.282042E-009	0.0672092	6
	49	69	12.40079	51189.45	-103830	1	115762.8	-63.75615	-2.766175E-009	0.0672207	5
	50	70	9.93114	62938.24	-119993.4	1	135497.7	-62.32235	-2.208386E-009	0.0672173	5
	51	72	7.944915	76353.23	-138855.4	1	158463.3	-61.19466	-3.421877E-009	0.0672191	5
	52	74	6.317385	92021.79	-160012.5	1	184586.1	-60.09718	-2.435678E-009	0.0672089	5
	53	76	5.008013	110698.8	-183989.3	1	214723.7	-58.96639	-2.701712E-009	0.0672276	5
	54	78	3.945707	132783.1	-211652.8	1	249856.5	-57.89736	-3.24213E-009	0.0672116	5
	55	81	3.158693	155940.3	-241013.7	1	287062.7	-57.09639	-2.585375E-009	0.067238	5
	56	84	2.504006	183388.5	-275937.7	1	331320	-56.39193	-3.06058E-009	0.0672044	5
	57	87	1.998082	212770.2	-314179.7	1	379447	-55.89318	-3.049029E-009	0.067219	5
	58	90	1.584686	247630.5	-358572.1	1	435769.2	-55.37098	-2.721088E-009	0.067261	5
	59	94	1.266892	284782.6	-410201.3	1	499365.8	-55.22966	-2.96731E-009	0.0671826	5
	60	98	0.999041	332459.2	-472025.3	1	577353.4	-54.84201	-2.466686E-009	0.0672469	5
