EXPLAIN
TAG	EISPOT
TITLE	LABEL	Potentiostatic EIS	Test &Identifier
DATE	LABEL	9/24/2019	Date
TIME	LABEL	10:18:30	Time
NOTES	NOTES	1	&Notes...
	
PSTAT	PSTAT	REF600-11020	Potentiostat
VDC	POTEN	0.00000E+000	T	DC &Voltage (V)
FREQINIT	QUANT	1.00000E+006	Initial Fre&q. (Hz)
FREQFINAL	QUANT	1.00000E+000	Final Fre&q. (Hz)
PTSPERDEC	QUANT	1.00000E+001	Points/&decade
VAC	QUANT	2.50000E+001	AC &Voltage (mV rms)
AREA	QUANT	1.00000E-002	&Area (cm^2)
CONDIT	TWOPARAM	T	5.00000E+000	0.00000E+000	Conditionin&g	Time(s)	E(V)
DELAY	TWOPARAM	T	5.00000E+000	0.00000E+000	Init. De&lay	Time(s)	Stab.(mV/s)
SPEED	SELECTOR	1	&Optimize for:
ZGUESS	QUANT	1.00000E+004	E&stimated Z (ohms)
OCVCURVE	TABLE	19
	Pt	T	Vf	Vm	Ach	Over
	#	s	V vs. Ref.	V	V	bits
	0	0.258333	2.91350E-003	2.91350E-003	5.49899E-004	...........
	1	0.516667	2.90988E-003	2.72417E-003	5.52099E-004	...........
	2	0.775	2.88673E-003	2.49537E-003	5.52366E-004	...........
	3	1.03333	2.81888E-003	2.31648E-003	5.53133E-004	...........
	4	1.29167	2.69480E-003	2.14442E-003	5.54899E-004	...........
	5	1.55	2.52933E-003	1.98404E-003	5.51232E-004	...........
	6	1.80833	2.34871E-003	1.83502E-003	5.54766E-004	...........
	7	2.06667	2.17185E-003	1.69113E-003	5.53833E-004	...........
	8	2.325	2.00611E-003	1.55333E-003	5.56899E-004	...........
	9	2.58333	1.85166E-003	1.42149E-003	5.50833E-004	...........
	10	2.84167	1.70636E-003	1.29950E-003	5.56266E-004	...........
	11	3.1	1.56853E-003	1.18051E-003	5.53566E-004	...........
	12	3.35833	1.43731E-003	1.06106E-003	5.51266E-004	...........
	13	3.61667	1.31176E-003	9.47130E-004	5.52932E-004	...........
	14	3.875	1.19060E-003	8.36049E-004	5.55533E-004	...........
	15	4.13333	1.07297E-003	7.30892E-004	5.51299E-004	...........
	16	4.39167	9.58752E-004	6.26737E-004	5.50399E-004	...........
	17	4.65	8.48083E-004	5.25567E-004	5.55266E-004	...........
	18	4.90833	7.40873E-004	4.28267E-004	5.55599E-004	...........
EOC	QUANT	0.0007409	Open Circuit (V)
PSTATMODEL	IQUANT	4	Pstat Model
PSTATSECTION	LABEL	REF600-11020	Pstat Section
PSTATSERIALNO	LABEL	11020	Pstat Serial Number
CTRLMODE	IQUANT	1	Control Mode
IESTAB	IQUANT	0	I/E Stability
CASPEED	IQUANT	1	Control Amp Speed
CONVENTION	IQUANT	1	Current Convention
ICHRANGE	IQUANT	2	Ich Range
ICHRANGEMODE	TOGGLE	F	Ich Auto Range
ICHOFFSETENABLE	TOGGLE	T	Ich Offset Enable
ICHOFFSET	QUANT	0	Ich Offset (V)
ICHFILTER	IQUANT	3	Ich Filter
VCHRANGE	IQUANT	2	Vch Range
VCHRANGEMODE	TOGGLE	F	Vch Auto Range
VCHOFFSETENABLE	TOGGLE	T	Vch Offset Enable
VCHOFFSET	QUANT	0	Vch Offset (V)
VCHFILTER	IQUANT	3	Vch Filter
ACHRANGE	IQUANT	2	Ach Range
ACHOFFSETENABLE	TOGGLE	F	Ach Offset Enable
ACHOFFSET	QUANT	0	Ach Offset (V)
ACHFILTER	IQUANT	3	Ach Filter
IERANGELOWERLIMIT	IQUANT	1	I/E Range Lower Limit
IERANGEMODE	TOGGLE	F	I/E AutoRange
IERANGE	IQUANT	5	I/E Range
POSFEEDENABLE	TOGGLE	F	Positive Feedback IR Comp
POSFEEDRESISTANCE	QUANT	0	Positive Feedback Resistance (ohm)
ACHSELECT	IQUANT	0	Ach Select
CABLEID	IQUANT	14	Cable ID
DCCALDATE	LABEL	8/19/2019	DC Calibration Date
ACCALDATE	LABEL	8/19/2019	AC Calibration Date
THERMOSELECT	IQUANT	1	Thermo Select
FRAMEWORKVERSION	QUANT	6.33	Framework Version
INSTRUMENTVERSION	LABEL	3.50	Instrument Version
ZCURVE	TABLE
	Pt	Time	Freq	Zreal	Zimag	Zsig	Zmod	Zphz	Idc	Vdc	IERange
	#	s	Hz	ohm	ohm	V	ohm	°	A	V	#
	0	1	1000078	2455.013	-1856.146	1	3077.72	-37.0916	-4.074265E-006	0.0036253	8
	1	3	794390.6	2843.251	-1794.498	1	3362.187	-32.25778	7.292783E-007	0.0030663	8
	2	4	630984.4	3177.319	-1672.589	1	3590.67	-27.76301	5.165334E-006	0.001561	8
	3	6	501234.4	3473.357	-1504.692	1	3785.275	-23.42273	-9.824798E-007	0.0026035	8
	4	7	398109.4	3702.952	-1332.549	1	3935.421	-19.79183	-1.643601E-007	0.0025414	8
	5	8	316265.6	3882.621	-1160.884	1	4052.456	-16.64639	1.072558E-006	0.0021717	8
	6	10	251203.1	4021.157	-984.981	1	4140.035	-13.76358	-3.063457E-006	0.0030139	8
	7	11	199546.9	4110.432	-855.6757	1	4198.551	-11.75941	-4.973721E-007	0.0026325	8
	8	13	158578.1	4191.702	-750.076	1	4258.284	-10.1453	2.179459E-006	0.0018977	8
	9	14	125953.1	4269.996	-600.0505	1	4311.951	-7.999233	-5.514369E-007	0.0027485	7
	10	15	100078.1	4311.193	-527.1637	1	4343.304	-6.971401	-9.924033E-009	0.0022944	7
	11	17	79453.13	4352.349	-481.0104	1	4378.848	-6.306589	8.500301E-008	0.0022795	7
	12	18	63140.62	4387.141	-449.1325	1	4410.071	-5.845278	1.545446E-008	0.002246	7
	13	20	50203.12	4423.845	-427.4494	1	4444.448	-5.519011	-3.372257E-008	0.0023362	7
	14	21	39890.62	4456.14	-417.3456	1	4475.641	-5.350503	4.232061E-008	0.0022712	7
	15	22	31640.63	4488.64	-421.3913	1	4508.376	-5.36318	8.24667E-008	0.0021526	7
	16	24	25171.88	4520.928	-432.9474	1	4541.611	-5.470258	1.344003E-007	0.0021243	7
	17	25	20015.62	4557.036	-455.5347	1	4579.748	-5.708491	-5.409352E-009	0.0023602	7
	18	26	15890.62	4593.432	-491.3754	1	4619.64	-6.105908	-1.125233E-008	0.0024549	7
	19	28	12609.37	4633.822	-540.5766	1	4665.247	-6.653986	-3.94218E-008	0.002343	7
	20	29	10078.13	4675.058	-600.7086	1	4713.493	-7.321942	-3.509087E-009	0.002341	7
	21	30	8015.625	4719.683	-677.0274	1	4767.994	-8.163257	-5.478114E-009	0.0023647	7
	22	32	6328.125	4767.613	-779.6011	1	4830.933	-9.286827	-7.97771E-010	0.00234	7
	23	33	5015.625	4817.771	-904.2524	1	4901.896	-10.63023	-3.426795E-008	0.0023558	7
	24	35	3984.375	4873.703	-1059.417	1	4987.519	-12.26383	-1.251813E-008	0.0023662	7
	25	36	3170.956	4935.681	-1248.028	1	5091.023	-14.19027	-1.224777E-008	0.0024484	7
	26	37	2527.573	5007.223	-1480.247	1	5221.438	-16.46885	-7.214032E-008	0.0024308	7
	27	39	1976.103	5093.426	-1789.502	1	5398.64	-19.35819	-7.336974E-010	0.0023371	7
	28	40	1577.524	5189.424	-2138.318	1	5612.711	-22.39426	1.523408E-008	0.0022408	7
	29	41	1265.625	5299.146	-2548.711	1	5880.211	-25.68599	-3.191921E-008	0.0023334	7
	30	43	998.264	5428.809	-3107.143	1	6255.102	-29.78438	8.456627E-008	0.0022687	7
	31	44	796.875	5584.316	-3738.848	1	6720.385	-33.80336	4.243545E-008	0.0022697	7
	32	46	627.7902	5780.387	-4568.738	1	7367.919	-38.32236	-7.272801E-009	0.0022726	7
	33	47	505.5147	5986.94	-5484.447	1	8119.274	-42.49181	-3.551451E-009	0.0023306	7
	34	48	397.9953	6274.849	-6717.95	1	9192.638	-46.95323	7.260919E-009	0.0023379	7
	35	50	315.5048	6614.186	-8189.523	1	10526.91	-51.07427	6.785873E-010	0.0022809	6
	36	51	252.4038	7010.705	-9920.67	1	12147.83	-54.75205	1.41764E-009	0.0022772	6
	37	52	198.6229	7539.128	-12193.8	1	14336.22	-58.27251	1.226064E-009	0.0022773	6
	38	54	158.3615	8169.616	-14831.09	1	16932.33	-61.15209	2.226972E-009	0.0022753	6
	39	55	125.558	8984.887	-18136.7	1	20240.26	-63.64627	1.471132E-009	0.002274	6
	40	57	100.4464	10016.26	-22026.56	1	24197	-65.54702	1.20137E-009	0.0022722	6
	41	58	79.00281	11417.32	-27001.64	1	29316.27	-67.07952	1.706282E-009	0.0022695	6
	42	59	63.3446	13437.08	-32531.75	1	35197.58	-67.55716	7.545485E-010	0.0022706	6
	43	61	49.86702	15578.26	-40387.12	1	43287.43	-68.9072	4.07553E-010	0.0022726	6
	44	62	39.72458	18748.19	-48577.7	1	52070.02	-68.89629	9.103496E-010	0.002273	6
	45	64	31.6723	22689.23	-58357.83	1	62613.39	-68.75417	3.733394E-010	0.0022711	6
	46	65	24.93351	28509.16	-70773.63	1	76299.93	-68.05935	7.31214E-010	0.0022712	6
	47	66	19.86229	35681.39	-84468.77	1	91695.88	-67.09978	1.702539E-009	0.002278	6
	48	68	15.83615	44234.73	-99990.2	1	109337.8	-66.13584	-2.008055E-010	0.0022778	5
	49	69	12.40079	58422.71	-118094.2	1	131755.3	-63.6778	2.653868E-009	0.0022757	5
	50	71	9.93114	71681.89	-136976	1	154598.6	-62.37617	-6.728552E-012	0.0022886	5
	51	72	7.944915	89080.8	-156212	1	179826.5	-60.3058	1.642119E-009	0.0022879	5
	52	74	6.317385	109115.4	-179010.5	1	209644.8	-58.63572	-6.278898E-012	0.0022849	5
	53	76	5.008013	132673.3	-202689.9	1	242250.7	-56.79272	1.150778E-010	0.00227	5
	54	78	3.945707	159417.8	-228442.2	1	278567.5	-55.09083	8.966444E-010	0.0022819	5
	55	81	3.158693	186482.7	-254295.8	1	315344.5	-53.74629	1.894922E-010	0.0022756	5
	56	84	2.504006	216255.3	-284083.1	1	357028.8	-52.72018	1.006825E-009	0.0022787	5
	57	87	1.998082	246181.8	-316450.1	1	400931.6	-52.11893	4.000202E-010	0.0023217	5
	58	90	1.584686	277300.9	-356097.9	1	451333.1	-52.09136	6.018297E-010	0.0022787	5
	59	94	1.266892	311054.6	-401551.4	1	507935.5	-52.2375	4.042713E-010	0.0023217	5
	60	98	0.999041	347700.7	-459394.8	1	576141.8	-52.87913	4.028134E-010	0.0022456	5
