EXPLAIN
TAG	EISPOT
TITLE	LABEL	Potentiostatic EIS	Test &Identifier
DATE	LABEL	10/26/2019	Date
TIME	LABEL	9:48:30	Time
NOTES	NOTES	1	&Notes...
	
PSTAT	PSTAT	REF600-11020	Potentiostat
VDC	POTEN	0.00000E+000	T	DC &Voltage (V)
FREQINIT	QUANT	1.00000E+006	Initial Fre&q. (Hz)
FREQFINAL	QUANT	1.00000E+000	Final Fre&q. (Hz)
PTSPERDEC	QUANT	1.00000E+001	Points/&decade
VAC	QUANT	2.50000E+001	AC &Voltage (mV rms)
AREA	QUANT	1.00000E-002	&Area (cm^2)
CONDIT	TWOPARAM	T	5.00000E+000	0.00000E+000	Conditionin&g	Time(s)	E(V)
DELAY	TWOPARAM	T	5.00000E+000	0.00000E+000	Init. De&lay	Time(s)	Stab.(mV/s)
SPEED	SELECTOR	0	&Optimize for:
ZGUESS	QUANT	1.00000E+005	E&stimated Z (ohms)
OCVCURVE	TABLE	19
	Pt	T	Vf	Vm	Ach	Over
	#	s	V vs. Ref.	V	V	bits
	0	0.258333	4.35460E-003	4.35460E-003	6.36498E-004	...........
	1	0.516667	4.35181E-003	4.20836E-003	6.42231E-004	...........
	2	0.775	4.33482E-003	4.07861E-003	6.31798E-004	...........
	3	1.03333	4.28757E-003	3.96637E-003	6.35698E-004	...........
	4	1.29167	4.20537E-003	3.87053E-003	6.34931E-004	...........
	5	1.55	4.10074E-003	3.78501E-003	6.28031E-004	...........
	6	1.80833	3.99165E-003	3.70902E-003	6.23631E-004	...........
	7	2.06667	3.89010E-003	3.64442E-003	6.31365E-004	...........
	8	2.325	3.80023E-003	3.57749E-003	6.24098E-004	...........
	9	2.58333	3.72128E-003	3.51700E-003	6.25065E-004	...........
	10	2.84167	3.65055E-003	3.46431E-003	6.29465E-004	...........
	11	3.1	3.58578E-003	3.41084E-003	6.25398E-004	...........
	12	3.35833	3.52580E-003	3.36369E-003	6.30998E-004	...........
	13	3.61667	3.47003E-003	3.31828E-003	6.25398E-004	...........
	14	3.875	3.41802E-003	3.27669E-003	6.16565E-004	...........
	15	4.13333	3.36943E-003	3.23504E-003	6.26698E-004	...........
	16	4.39167	3.32398E-003	3.20319E-003	6.21232E-004	...........
	17	4.65	3.28164E-003	3.16975E-003	6.16665E-004	...........
	18	4.90833	3.24261E-003	3.13907E-003	6.20698E-004	...........
EOC	QUANT	0.0032426	Open Circuit (V)
PSTATMODEL	IQUANT	4	Pstat Model
PSTATSECTION	LABEL	REF600-11020	Pstat Section
PSTATSERIALNO	LABEL	11020	Pstat Serial Number
CTRLMODE	IQUANT	1	Control Mode
IESTAB	IQUANT	0	I/E Stability
CASPEED	IQUANT	1	Control Amp Speed
CONVENTION	IQUANT	1	Current Convention
ICHRANGE	IQUANT	2	Ich Range
ICHRANGEMODE	TOGGLE	F	Ich Auto Range
ICHOFFSETENABLE	TOGGLE	T	Ich Offset Enable
ICHOFFSET	QUANT	0	Ich Offset (V)
ICHFILTER	IQUANT	3	Ich Filter
VCHRANGE	IQUANT	2	Vch Range
VCHRANGEMODE	TOGGLE	F	Vch Auto Range
VCHOFFSETENABLE	TOGGLE	T	Vch Offset Enable
VCHOFFSET	QUANT	0	Vch Offset (V)
VCHFILTER	IQUANT	3	Vch Filter
ACHRANGE	IQUANT	2	Ach Range
ACHOFFSETENABLE	TOGGLE	F	Ach Offset Enable
ACHOFFSET	QUANT	0	Ach Offset (V)
ACHFILTER	IQUANT	3	Ach Filter
IERANGELOWERLIMIT	IQUANT	1	I/E Range Lower Limit
IERANGEMODE	TOGGLE	F	I/E AutoRange
IERANGE	IQUANT	4	I/E Range
POSFEEDENABLE	TOGGLE	F	Positive Feedback IR Comp
POSFEEDRESISTANCE	QUANT	0	Positive Feedback Resistance (ohm)
ACHSELECT	IQUANT	0	Ach Select
CABLEID	IQUANT	14	Cable ID
DCCALDATE	LABEL	8/19/2019	DC Calibration Date
ACCALDATE	LABEL	8/19/2019	AC Calibration Date
THERMOSELECT	IQUANT	1	Thermo Select
FRAMEWORKVERSION	QUANT	6.33	Framework Version
INSTRUMENTVERSION	LABEL	3.50	Instrument Version
ZCURVE	TABLE
	Pt	Time	Freq	Zreal	Zimag	Zsig	Zmod	Zphz	Idc	Vdc	IERange
	#	s	Hz	ohm	ohm	V	ohm	°	A	V	#
	0	2	1000078	2039.147	-833.7016	1	2202.993	-22.23711	2.485854E-007	0.0052362	8
	1	2	794390.6	2155.298	-736.7454	1	2277.741	-18.87197	-1.14129E-006	0.0056142	8
	2	2	630984.4	2254.706	-645.5889	1	2345.311	-15.97798	3.629628E-006	0.0044462	8
	3	3	501234.4	2329.194	-554.062	1	2394.187	-13.38067	1.182739E-006	0.0045558	8
	4	3	398109.4	2389.544	-477.7613	1	2436.837	-11.30653	-1.601926E-006	0.0051774	8
	5	3	316265.6	2430.08	-420.0082	1	2466.11	-9.80596	-1.83791E-006	0.0052761	8
	6	4	251203.1	2461.883	-365.8088	1	2488.912	-8.451685	-2.959836E-006	0.0053933	8
	7	4	199546.9	2497.092	-326.4243	1	2518.337	-7.447578	-1.89942E-006	0.0053742	8
	8	4	158578.1	2515.102	-301.4817	1	2533.106	-6.835351	-1.060821E-006	0.0051064	8
	9	5	125953.1	2553.896	-265.2583	1	2567.634	-5.929718	-8.68739E-007	0.0067691	7
	10	5	100078.1	2571.045	-244.8381	1	2582.677	-5.439816	-2.558258E-008	0.0048187	7
	11	5	79453.13	2590.984	-250.5605	1	2603.071	-5.5236	4.7643E-008	0.0047393	7
	12	6	63140.62	2613.992	-260.7507	1	2626.965	-5.696519	9.128364E-009	0.0047619	7
	13	6	50203.12	2638.74	-277.1191	1	2653.251	-5.995196	-2.435898E-008	0.0048133	7
	14	6	39890.62	2665.712	-297.518	1	2682.264	-6.368381	9.341182E-008	0.0046739	7
	15	6	31640.63	2694.765	-324.5957	1	2714.244	-6.868426	-2.475581E-008	0.0048125	7
	16	7	25171.88	2727.196	-357.4346	1	2750.519	-7.4668	-2.607308E-008	0.004809	7
	17	7	20015.62	2767.054	-398.661	1	2795.625	-8.198426	-2.477604E-008	0.0048069	7
	18	7	15890.62	2798.744	-446.0251	1	2834.062	-9.054865	-8.675419E-009	0.0047796	7
	19	8	12609.37	2838.522	-505.2098	1	2883.131	-10.09202	-5.56068E-008	0.0049741	7
	20	8	10078.13	2879.629	-573.5657	1	2936.195	-11.26477	4.676185E-008	0.0047311	7
	21	8	8015.625	2923.962	-655.0355	1	2996.436	-12.6271	-1.008964E-008	0.0048342	7
	22	9	6328.125	2974.402	-767.4252	1	3071.809	-14.46736	-5.446292E-008	0.0049733	7
	23	9	5015.625	3027.681	-897.2036	1	3157.82	-16.50632	-4.743851E-008	0.0048997	7
	24	9	3984.375	3088.287	-1054.203	1	3263.259	-18.8476	1.041E-008	0.0047517	7
	25	10	3170.956	3148.748	-1247.105	1	3386.722	-21.60673	3.608853E-008	0.0046994	7
	26	10	2527.573	3218.349	-1481.307	1	3542.885	-24.71516	-2.370243E-008	0.0048111	7
	27	10	1976.103	3301.748	-1792.993	1	3757.175	-28.50389	-5.252044E-008	0.0048742	7
	28	11	1577.524	3409.943	-2141.92	1	4026.852	-32.13456	-4.330352E-008	0.0048613	7
	29	11	1265.625	3482.948	-2569.044	1	4327.922	-36.41272	9.390108E-008	0.0046656	7
	30	11	998.264	3599.251	-3131.525	1	4770.855	-41.02487	4.913611E-008	0.0047276	7
	31	12	796.875	3727.49	-3795.175	1	5319.542	-45.51551	7.354884E-009	0.0048858	7
	32	12	627.7902	3889.506	-4664.925	1	6073.696	-50.17944	-1.038242E-008	0.0048346	7
	33	12	505.5147	4071.157	-5638.219	1	6954.411	-54.16829	-1.059865E-008	0.0048479	7
	34	13	397.9953	4319.296	-6962.407	1	8193.377	-58.18561	3.40083E-009	0.0048347	7
	35	13	315.5048	4625.061	-8556.526	1	9726.53	-61.60744	3.376169E-009	0.0048323	7
	36	13	252.4038	5007.637	-10436.95	1	11576.11	-64.36836	-2.458524E-010	0.004773	6
	37	14	198.6229	5534.902	-12918.59	1	14054.37	-66.80755	3.513578E-010	0.004775	6
	38	14	158.3615	6189.823	-15792.75	1	16962.45	-68.59776	-3.570572E-010	0.0047739	6
	39	14	125.558	7070.232	-19393.11	1	20641.72	-69.96944	1.760022E-010	0.0047687	6
	40	14	100.4464	8154.611	-23593.23	1	24962.73	-70.93314	1.494036E-009	0.0047702	6
	41	15	79.00281	9734.5	-28980.54	1	30571.76	-71.43291	1.038233E-009	0.0047678	6
	42	15	63.3446	11874.71	-35541.78	1	37473.01	-71.52524	2.676109E-010	0.0047691	6
	43	16	49.86702	14501.35	-43291.79	1	45655.97	-71.48081	6.868852E-010	0.0047658	6
	44	16	39.72458	17908.13	-51910.97	1	54913.11	-70.96671	4.587294E-010	0.0047705	6
	45	16	31.6723	22291.03	-62180.94	1	66055.73	-70.27793	7.446108E-012	0.0047662	6
	46	17	24.93351	28301.32	-75289.01	1	80432.58	-69.39864	7.831246E-010	0.0047673	6
	47	17	19.86229	35715.32	-89643.64	1	96496.5	-68.27695	1.910614E-009	0.0047711	6
	48	17	15.83615	46404.62	-105139.4	1	114924.7	-66.18512	-2.45464E-009	0.0047722	5
	49	17	12.40079	57889.64	-124973.8	1	137730.4	-65.14576	1.514345E-009	0.0047643	5
	50	18	9.93114	71841.43	-145910	1	162637.4	-63.78584	-3.463641E-010	0.0047682	5
	51	18	7.944915	88161.41	-168460.2	1	190134.9	-62.37529	-4.673496E-011	0.0047613	5
	52	19	6.317385	107674.9	-193252	1	221224.3	-60.87459	-1.817314E-010	0.0047725	5
	53	20	5.008013	130690.5	-221660	1	257319.2	-59.47645	-2.747158E-010	0.004756	5
	54	21	3.945707	157556.7	-253855.7	1	298775.5	-58.17401	2.947688E-010	0.0047669	5
	55	22	3.158693	185440.5	-287442.9	1	342069.5	-57.17238	3.754674E-011	0.0047779	5
	56	24	2.504006	217669.8	-327733	1	393432.4	-56.40916	-1.780293E-010	0.0047638	5
	57	25	1.998082	251695.7	-370684.7	1	448060.1	-55.82341	1.233177E-010	0.0047912	5
	58	27	1.584686	290608.5	-424221.5	1	514215.1	-55.58732	1.738193E-010	0.004807	5
	59	29	1.266892	330850.4	-483569.5	1	585919.3	-55.6207	1.225491E-010	0.0047689	5
	60	31	0.999041	379832	-556522.3	1	673787.4	-55.68607	8.534906E-011	0.0047391	5
