EXPLAIN
TAG	EISPOT
TITLE	LABEL	Potentiostatic IDE	Test &Identifier
DATE	LABEL	9/6/2019	Date
TIME	LABEL	8:07:53	Time
NOTES	NOTES	1	&Notes...
	
PSTAT	PSTAT	REF600-11020	Potentiostat
VDC	POTEN	0.00000E+000	T	DC &Voltage (V)
FREQINIT	QUANT	1.00000E+006	Initial Fre&q. (Hz)
FREQFINAL	QUANT	1.00000E+000	Final Fre&q. (Hz)
PTSPERDEC	QUANT	1.00000E+001	Points/&decade
VAC	QUANT	2.50000E+001	AC &Voltage (mV rms)
AREA	QUANT	1.00000E-002	&Area (cm^2)
CONDIT	TWOPARAM	T	5.00000E+000	0.00000E+000	Conditionin&g	Time(s)	E(V)
DELAY	TWOPARAM	T	5.00000E+000	0.00000E+000	Init. De&lay	Time(s)	Stab.(mV/s)
SPEED	SELECTOR	1	&Optimize for:
ZGUESS	QUANT	1.00000E+007	E&stimated Z (ohms)
OCVCURVE	TABLE	19
	Pt	T	Vf	Vm	Ach	Over
	#	s	V vs. Ref.	V	V	bits
	0	0.258333	1.31240E-002	1.31240E-002	5.74132E-004	...........
	1	0.516667	1.31285E-002	1.33616E-002	5.79066E-004	...........
	2	0.775	1.31565E-002	1.35907E-002	5.75766E-004	...........
	3	1.03333	1.32365E-002	1.38468E-002	5.76532E-004	...........
	4	1.29167	1.33830E-002	1.40874E-002	5.69632E-004	...........
	5	1.55	1.35848E-002	1.43340E-002	5.73332E-004	...........
	6	1.80833	1.38183E-002	1.45741E-002	5.73299E-004	...........
	7	2.06667	1.40633E-002	1.48067E-002	5.75099E-004	...........
	8	2.325	1.43086E-002	1.50360E-002	5.78366E-004	...........
	9	2.58333	1.45494E-002	1.52509E-002	5.73599E-004	...........
	10	2.84167	1.47838E-002	1.54738E-002	5.72466E-004	...........
	11	3.1	1.50117E-002	1.56803E-002	5.70499E-004	...........
	12	3.35833	1.52337E-002	1.58897E-002	5.71999E-004	...........
	13	3.61667	1.54502E-002	1.60788E-002	5.69966E-004	...........
	14	3.875	1.56612E-002	1.62929E-002	5.69832E-004	...........
	15	4.13333	1.58673E-002	1.64902E-002	5.69932E-004	...........
	16	4.39167	1.60705E-002	1.66765E-002	5.71999E-004	...........
	17	4.65	1.62710E-002	1.68634E-002	5.74832E-004	...........
	18	4.90833	1.64675E-002	1.70406E-002	5.72466E-004	...........
EOC	QUANT	0.0164675	Open Circuit (V)
PSTATMODEL	IQUANT	4	Pstat Model
PSTATSECTION	LABEL	REF600-11020	Pstat Section
PSTATSERIALNO	LABEL	11020	Pstat Serial Number
CTRLMODE	IQUANT	1	Control Mode
IESTAB	IQUANT	0	I/E Stability
CASPEED	IQUANT	1	Control Amp Speed
CONVENTION	IQUANT	1	Current Convention
ICHRANGE	IQUANT	2	Ich Range
ICHRANGEMODE	TOGGLE	F	Ich Auto Range
ICHOFFSETENABLE	TOGGLE	T	Ich Offset Enable
ICHOFFSET	QUANT	0	Ich Offset (V)
ICHFILTER	IQUANT	3	Ich Filter
VCHRANGE	IQUANT	2	Vch Range
VCHRANGEMODE	TOGGLE	F	Vch Auto Range
VCHOFFSETENABLE	TOGGLE	T	Vch Offset Enable
VCHOFFSET	QUANT	0	Vch Offset (V)
VCHFILTER	IQUANT	3	Vch Filter
ACHRANGE	IQUANT	2	Ach Range
ACHOFFSETENABLE	TOGGLE	F	Ach Offset Enable
ACHOFFSET	QUANT	0	Ach Offset (V)
ACHFILTER	IQUANT	3	Ach Filter
IERANGELOWERLIMIT	IQUANT	1	I/E Range Lower Limit
IERANGEMODE	TOGGLE	F	I/E AutoRange
IERANGE	IQUANT	3	I/E Range
POSFEEDENABLE	TOGGLE	F	Positive Feedback IR Comp
POSFEEDRESISTANCE	QUANT	0	Positive Feedback Resistance (ohm)
ACHSELECT	IQUANT	0	Ach Select
CABLEID	IQUANT	14	Cable ID
DCCALDATE	LABEL	8/19/2019	DC Calibration Date
ACCALDATE	LABEL	8/19/2019	AC Calibration Date
THERMOSELECT	IQUANT	1	Thermo Select
FRAMEWORKVERSION	QUANT	6.33	Framework Version
INSTRUMENTVERSION	LABEL	3.50	Instrument Version
ZCURVE	TABLE
	Pt	Time	Freq	Zreal	Zimag	Zsig	Zmod	Zphz	Idc	Vdc	IERange
	#	s	Hz	ohm	ohm	V	ohm	°	A	V	#
	0	2	1000078	2524.522	-1946.725	1	3187.938	-37.63675	-4.733613E-006	0.0198244	8
	1	3	794390.6	2930.502	-1877.651	1	3480.433	-32.64877	3.175329E-006	0.0182913	8
	2	4	630984.4	3280.35	-1748.304	1	3717.158	-28.05595	-2.046246E-006	0.0185555	8
	3	6	501234.4	3570.05	-1572.279	1	3900.938	-23.76908	3.575922E-006	0.0177344	8
	4	7	398109.4	3814.984	-1381.083	1	4057.277	-19.90104	-8.693993E-007	0.018361	8
	5	8	316265.6	4003.153	-1199.436	1	4178.981	-16.67942	3.094926E-006	0.0176724	8
	6	10	251203.1	4132.232	-1034.631	1	4259.79	-14.05677	-7.677592E-007	0.0183665	8
	7	11	199546.9	4230.544	-888.8033	1	4322.901	-11.86483	1.237904E-006	0.017934	8
	8	12	158578.1	4318.243	-784.6088	1	4388.944	-10.29809	1.163251E-006	0.0179488	8
	9	14	125953.1	4388.62	-667.192	1	4439.046	-8.644356	-3.28213E-007	0.0186549	7
	10	15	100078.1	4432.292	-602.6373	1	4473.073	-7.74275	-3.256304E-008	0.0181913	7
	11	16	79453.13	4479.686	-562.8372	1	4514.906	-7.161238	-2.281796E-008	0.0181994	7
	12	18	63140.62	4523	-538.5698	1	4554.952	-6.790441	-2.329304E-008	0.0181963	7
	13	19	50203.12	4562.376	-528.2806	1	4592.859	-6.604903	2.664504E-008	0.0180413	7
	14	20	39890.62	4604.383	-534.744	1	4635.331	-6.624541	4.370984E-008	0.0180438	7
	15	21	31640.63	4645.788	-554.6448	1	4678.779	-6.808125	-6.301656E-009	0.0181541	7
	16	23	25171.88	4687.331	-590.9271	1	4724.433	-7.185315	7.569858E-008	0.0180121	7
	17	24	20015.62	4732.633	-644.1999	1	4776.275	-7.751389	-5.681254E-009	0.01814	7
	18	25	15890.62	4783.469	-715.5596	1	4836.693	-8.507795	-3.715428E-008	0.0181681	7
	19	27	12609.37	4835.149	-805.3189	1	4901.755	-9.456105	-7.576826E-009	0.018144	7
	20	28	10078.13	4893.475	-919.1509	1	4979.05	-10.63803	-2.373684E-008	0.0181306	7
	21	29	8015.625	4959.839	-1062.148	1	5072.293	-12.0873	-4.004459E-009	0.0181372	7
	22	31	6328.125	5036.365	-1245.196	1	5188.014	-13.88737	-1.914873E-008	0.0181912	7
	23	32	5015.625	5124.386	-1464.844	1	5329.644	-15.95298	-2.195379E-008	0.0181448	7
	24	33	3984.375	5223.101	-1730.239	1	5502.228	-18.32831	7.690657E-008	0.0180076	7
	25	35	3170.956	5341.055	-2049.539	1	5720.793	-20.99345	-2.261326E-008	0.0181917	7
	26	36	2527.573	5478.886	-2431.948	1	5994.378	-23.9353	-3.594474E-008	0.0181711	7
	27	37	1976.103	5656.204	-2933.849	1	6371.822	-27.41558	-1.545668E-008	0.0181165	7
	28	39	1577.524	5848.735	-3496.098	1	6813.986	-30.86899	-3.104928E-008	0.0181763	7
	29	40	1265.625	6071.952	-4148.01	1	7353.542	-34.33866	-2.276939E-008	0.0181906	7
	30	41	998.264	6352.425	-4991.11	1	8078.644	-38.15678	-5.906279E-009	0.0181374	7
	31	43	796.875	6668.487	-5952.941	1	8939.028	-41.75521	3.936736E-008	0.0181105	7
	32	44	627.7902	7069.294	-7182.011	1	10077.51	-45.45316	3.854731E-009	0.0179404	6
	33	45	505.5147	7498.351	-8525.735	1	11354	-48.6685	-5.065581E-009	0.0181079	6
	34	47	397.9953	8030.497	-10318.01	1	13074.79	-52.10642	3.859173E-010	0.0180699	6
	35	48	315.5048	8654.496	-12436.5	1	15151.46	-55.16615	3.767293E-010	0.0180725	6
	36	49	252.4038	9364.028	-14902.14	1	17599.96	-57.85606	5.81049E-010	0.0180704	6
	37	51	198.6229	10274.66	-18120.32	1	20830.62	-60.44572	5.236174E-010	0.0180688	6
	38	52	158.3615	11318.24	-21830.57	1	24590.17	-62.59514	4.148823E-010	0.0180689	6
	39	53	125.558	12620.19	-26445.32	1	29302.28	-64.48868	5.900863E-010	0.0180652	6
	40	55	100.4464	14148.03	-31797.71	1	34803.18	-66.01387	2.925288E-010	0.0180635	6
	41	56	79.00281	16138.57	-38826.59	1	42047.09	-67.42941	2.756327E-010	0.0180637	6
	42	58	63.3446	18471.02	-46472.64	1	50008.85	-68.32416	4.007545E-010	0.0180642	6
	43	59	49.86702	21692.26	-56987.27	1	60976.25	-69.16063	8.329117E-011	0.0180653	6
	44	60	39.72458	25326.01	-68604.48	1	73129.9	-69.73788	4.557977E-010	0.0180699	6
	45	62	31.6723	29953.23	-82747.3	1	88001.77	-70.10053	3.946609E-010	0.018063	6
	46	63	24.93351	36216.63	-100450.3	1	106779.7	-70.1736	1.537162E-010	0.0180685	5
	47	64	19.86229	43665.13	-120699.6	1	128355.2	-70.11156	1.969807E-010	0.0180655	5
	48	66	15.83615	53060.88	-145225.8	1	154615.6	-69.92931	8.141877E-010	0.018071	5
	49	67	12.40079	65517.57	-175100.2	1	186956.3	-69.48557	6.60041E-010	0.0180713	5
	50	68	9.93114	80567.37	-208649.6	1	223664.3	-68.88657	2.094182E-011	0.0180726	5
	51	70	7.944915	98887	-247402	1	266432.7	-68.21333	2.591513E-010	0.0180683	5
	52	72	6.317385	122285.5	-293704.5	1	318144.8	-67.39533	2.195951E-010	0.0180605	5
	53	74	5.008013	151806	-348401	1	380037.3	-66.45618	-8.720803E-011	0.0180625	5
	54	76	3.945707	189279.9	-413180.5	1	454472.3	-65.38726	2.756708E-010	0.0180677	5
	55	78	3.158693	232711.8	-481514.6	1	534800.1	-64.20592	1.886905E-011	0.0180804	5
	56	82	2.504006	286640.3	-562883.1	1	631664.6	-63.01317	-3.027417E-011	0.0180625	5
	57	84	1.998082	348938.2	-651772.4	1	739300.4	-61.83682	-1.361662E-010	0.0180471	5
	58	88	1.584686	425938.8	-751029.9	1	863405.9	-60.44071	-4.864883E-011	0.0180994	5
	59	91	1.266892	512973.3	-861601.9	1	1002746	-59.23164	-6.193249E-011	0.0180321	5
	60	95	0.999041	621718.6	-988572	1	1167822	-57.83398	1.951717E-011	0.0181147	4
