EXPLAIN
TAG	EISPOT
TITLE	LABEL	Potentiostatic EIS	Test &Identifier
DATE	LABEL	11/7/2019	Date
TIME	LABEL	10:58:57	Time
NOTES	NOTES	2	&Notes...
	
	
PSTAT	PSTAT	REF600-11020	Potentiostat
VDC	POTEN	0.00000E+000	T	DC &Voltage (V)
FREQINIT	QUANT	1.00000E+006	Initial Fre&q. (Hz)
FREQFINAL	QUANT	1.00000E+000	Final Fre&q. (Hz)
PTSPERDEC	QUANT	1.00000E+001	Points/&decade
VAC	QUANT	2.50000E+001	AC &Voltage (mV rms)
AREA	QUANT	1.00000E-002	&Area (cm^2)
CONDIT	TWOPARAM	T	5.00000E+000	0.00000E+000	Conditionin&g	Time(s)	E(V)
DELAY	TWOPARAM	T	5.00000E+000	0.00000E+000	Init. De&lay	Time(s)	Stab.(mV/s)
SPEED	SELECTOR	1	&Optimize for:
ZGUESS	QUANT	1.00000E+005	E&stimated Z (ohms)
OCVCURVE	TABLE	19
	Pt	T	Vf	Vm	Ach	Over
	#	s	V vs. Ref.	V	V	bits
	0	0.258333	5.18690E-003	5.18690E-003	5.71599E-004	...........
	1	0.516667	5.19466E-003	5.59318E-003	5.75032E-004	...........
	2	0.775	5.23731E-003	5.71589E-003	5.80665E-004	...........
	3	1.03333	5.34130E-003	5.83390E-003	5.81365E-004	...........
	4	1.29167	5.49458E-003	5.91954E-003	5.84132E-004	...........
	5	1.55	5.65561E-003	6.00330E-003	5.80465E-004	...........
	6	1.80833	5.79581E-003	6.17367E-003	5.79132E-004	...........
	7	2.06667	5.91733E-003	6.34386E-003	5.73066E-004	...........
	8	2.325	6.03745E-003	6.39950E-003	5.79199E-004	...........
	9	2.58333	6.16223E-003	6.46518E-003	5.78666E-004	...........
	10	2.84167	6.28025E-003	6.54860E-003	5.81999E-004	...........
	11	3.1	6.38123E-003	6.64083E-003	5.76999E-004	...........
	12	3.35833	6.46890E-003	6.75561E-003	5.75432E-004	...........
	13	3.61667	6.55457E-003	6.85838E-003	5.71832E-004	...........
	14	3.875	6.64584E-003	6.93359E-003	5.76232E-004	...........
	15	4.13333	6.74170E-003	7.01835E-003	5.79832E-004	...........
	16	4.39167	6.83643E-003	7.10518E-003	5.74732E-004	...........
	17	4.65	6.92662E-003	7.18369E-003	5.78732E-004	...........
	18	4.90833	7.01224E-003	7.24257E-003	5.78632E-004	...........
EOC	QUANT	0.0070122	Open Circuit (V)
PSTATMODEL	IQUANT	4	Pstat Model
PSTATSECTION	LABEL	REF600-11020	Pstat Section
PSTATSERIALNO	LABEL	11020	Pstat Serial Number
CTRLMODE	IQUANT	1	Control Mode
IESTAB	IQUANT	0	I/E Stability
CASPEED	IQUANT	1	Control Amp Speed
CONVENTION	IQUANT	1	Current Convention
ICHRANGE	IQUANT	2	Ich Range
ICHRANGEMODE	TOGGLE	F	Ich Auto Range
ICHOFFSETENABLE	TOGGLE	T	Ich Offset Enable
ICHOFFSET	QUANT	0	Ich Offset (V)
ICHFILTER	IQUANT	3	Ich Filter
VCHRANGE	IQUANT	2	Vch Range
VCHRANGEMODE	TOGGLE	F	Vch Auto Range
VCHOFFSETENABLE	TOGGLE	T	Vch Offset Enable
VCHOFFSET	QUANT	0	Vch Offset (V)
VCHFILTER	IQUANT	3	Vch Filter
ACHRANGE	IQUANT	2	Ach Range
ACHOFFSETENABLE	TOGGLE	F	Ach Offset Enable
ACHOFFSET	QUANT	0	Ach Offset (V)
ACHFILTER	IQUANT	3	Ach Filter
IERANGELOWERLIMIT	IQUANT	1	I/E Range Lower Limit
IERANGEMODE	TOGGLE	F	I/E AutoRange
IERANGE	IQUANT	5	I/E Range
POSFEEDENABLE	TOGGLE	F	Positive Feedback IR Comp
POSFEEDRESISTANCE	QUANT	0	Positive Feedback Resistance (ohm)
ACHSELECT	IQUANT	0	Ach Select
CABLEID	IQUANT	14	Cable ID
DCCALDATE	LABEL	8/19/2019	DC Calibration Date
ACCALDATE	LABEL	8/19/2019	AC Calibration Date
THERMOSELECT	IQUANT	1	Thermo Select
FRAMEWORKVERSION	QUANT	6.33	Framework Version
INSTRUMENTVERSION	LABEL	3.50	Instrument Version
ZCURVE	TABLE
	Pt	Time	Freq	Zreal	Zimag	Zsig	Zmod	Zphz	Idc	Vdc	IERange
	#	s	Hz	ohm	ohm	V	ohm	°	A	V	#
	0	1	1000078	2454.94	-1605.006	1	2933.049	-33.1761	1.480234E-005	0.0072353	8
	1	3	794390.6	2711.279	-1512.343	1	3104.548	-29.15264	-8.088798E-006	0.0089661	8
	2	4	630984.4	2998.681	-1430.029	1	3322.209	-25.49582	4.299969E-006	0.0090689	8
	3	6	501234.4	3228.528	-1296.165	1	3478.999	-21.8741	-1.713638E-006	0.0091459	8
	4	7	398109.4	3430.539	-1161.139	1	3621.718	-18.69949	-2.816246E-006	0.0084529	8
	5	9	316265.6	3593.495	-1020.641	1	3735.627	-15.85585	-1.564022E-006	0.0090485	8
	6	10	251203.1	3712.247	-910.0234	1	3822.162	-13.77391	6.762752E-006	0.0073086	8
	7	12	199546.9	3840.964	-773.1705	1	3918.01	-11.38131	-2.051976E-007	0.0081912	8
	8	13	158578.1	3882.099	-694.2075	1	3943.68	-10.13863	7.615961E-006	0.0077271	8
	9	15	125953.1	4013.378	-544.0309	1	4050.083	-7.71964	3.2198E-006	0.0065169	7
	10	16	100078.1	4062.616	-460.2128	1	4088.599	-6.46291	-1.428253E-006	0.0101824	7
	11	18	79453.13	4082.046	-438.3118	1	4105.51	-6.128682	1.276436E-006	0.0072021	7
	12	19	63140.62	4117.25	-406.0173	1	4137.221	-5.63194	9.507007E-007	0.0082755	7
	13	21	50203.12	4147.64	-384.7924	1	4165.451	-5.300376	-8.267151E-007	0.0082707	7
	14	22	39890.62	4176.033	-375.0882	1	4192.844	-5.132492	-1.053527E-006	0.0104446	7
	15	23	31640.63	4207.842	-377.3662	1	4224.729	-5.124671	-3.558555E-007	0.010083	7
	16	25	25171.88	4240.86	-386.8236	1	4258.465	-5.211725	6.977224E-007	0.008749	7
	17	26	20015.62	4269.662	-408.4632	1	4289.155	-5.464651	1.172093E-006	0.0076949	7
	18	27	15890.62	4303.805	-447.856	1	4327.044	-5.940845	1.151355E-006	0.0065318	7
	19	29	12609.37	4333.006	-495.3076	1	4361.224	-6.521197	1.173425E-006	0.0076967	7
	20	30	10078.13	4344.212	-569.4534	1	4381.376	-7.467938	7.001603E-007	0.0087502	7
	21	32	8015.625	4399.935	-635.6799	1	4445.617	-8.220917	1.573035E-007	0.0068812	7
	22	33	6328.125	4447.658	-738.664	1	4508.579	-9.429577	1.172126E-006	0.0076887	7
	23	34	5015.625	4492.032	-864.8057	1	4574.521	-10.89725	1.150642E-006	0.00654	7
	24	36	3984.375	4542.801	-1013.354	1	4654.452	-12.57498	9.234782E-007	0.0064237	7
	25	37	3170.956	4588.281	-1210.951	1	4745.39	-14.78453	-1.409107E-006	0.0097153	7
	26	38	2527.573	4659.082	-1448.978	1	4879.199	-17.27573	6.986178E-007	0.0087426	7
	27	40	1976.103	4729.718	-1773.319	1	5051.227	-20.5526	6.300623E-008	0.0096198	7
	28	41	1577.524	4815.11	-2112.589	1	5258.167	-23.68906	-1.431202E-006	0.0101654	7
	29	42	1265.625	4916.088	-2552.29	1	5539.143	-27.43703	-1.406202E-006	0.0097055	7
	30	44	998.264	5053.25	-3123.42	1	5940.631	-31.72026	7.019925E-007	0.0087406	7
	31	45	796.875	5187.571	-3775.187	1	6415.834	-36.04477	-1.052966E-006	0.0104312	7
	32	47	627.7902	5374.338	-4628.947	1	7093.001	-40.7385	-1.204677E-006	0.0090437	7
	33	48	505.5147	5585.483	-5577.186	1	7893.201	-44.95741	1.280853E-006	0.0071844	7
	34	50	397.9953	5857.321	-6852.061	1	9014.374	-49.47531	2.173403E-009	0.0085122	7
	35	51	315.5048	6186.257	-8373.905	1	10411.15	-53.54471	5.071565E-010	0.0084398	6
	36	52	252.4038	6571.093	-10167.84	1	12106.37	-57.12695	-1.203581E-009	0.0084362	6
	37	54	198.6229	7081.795	-12527.63	1	14390.74	-60.52078	-8.171025E-011	0.0084427	6
	38	55	158.3615	7687.521	-15266.14	1	17092.49	-63.27169	3.945975E-010	0.0084498	6
	39	56	125.558	8478.874	-18721.06	1	20551.63	-65.63396	7.101033E-010	0.0084358	6
	40	58	100.4464	9459.415	-22727.87	1	24617.81	-67.40276	8.993234E-010	0.0084344	6
	41	59	79.00281	10769.29	-28146.51	1	30136.42	-69.06237	1.019216E-009	0.008452	6
	42	61	63.3446	12057.74	-33998.67	1	36073.52	-70.47278	4.570946E-011	0.0084489	6
	43	62	49.86702	15219.33	-41699.13	1	44389.7	-69.94895	-5.394433E-010	0.0084342	6
	44	63	39.72458	18080.74	-50838.34	1	53957.86	-70.42199	1.613566E-009	0.0084381	6
	45	65	31.6723	21833.21	-61623.79	1	65377.21	-70.49084	1.979571E-009	0.008442	6
	46	66	24.93351	27807.13	-74750.05	1	79754.66	-69.59473	1.23934E-009	0.0084385	6
	47	68	19.86229	34887.63	-89463.61	1	96025.4	-68.69598	-5.164931E-010	0.0084534	6
	48	69	15.83615	44101.75	-104735.7	1	113642.1	-67.16518	1.454294E-009	0.0084434	5
	49	70	12.40079	56667.52	-127057.6	1	139121.7	-65.9632	-4.878428E-012	0.0084412	5
	50	72	9.93114	71498.41	-147865.6	1	164244.5	-64.19454	-1.436625E-009	0.0084542	5
	51	73	7.944915	90071.3	-170118.7	1	192492.1	-62.10051	1.886691E-009	0.008443	5
	52	75	6.317385	110971.6	-196149.5	1	225364.9	-60.50099	9.33561E-010	0.0084539	5
	53	77	5.008013	136877.6	-224342.8	1	262802.5	-58.6115	3.965563E-010	0.0084559	5
	54	80	3.945707	166446.3	-255044.6	1	304552.3	-56.87087	3.29486E-010	0.008447	5
	55	82	3.158693	197878.5	-285917.1	1	347713.3	-55.31353	-1.146502E-010	0.008445	5
	56	86	2.504006	233354.3	-320561.3	1	396502	-53.94706	5.421555E-010	0.0084496	5
	57	88	1.998082	270068.3	-357015	1	447656.8	-52.89388	6.775305E-011	0.0084925	5
	58	92	1.584686	308793.8	-399479.4	1	504913.3	-52.29632	1.972402E-010	0.0084369	5
	59	95	1.266892	349932.8	-447774	1	568290.8	-51.99258	1.159982E-010	0.0084821	5
	60	100	0.999041	395439.6	-507347.3	1	643252.5	-52.06622	-1.766765E-010	0.0084005	5
