EXPLAIN
TAG	EISPOT
TITLE	LABEL	Potentiostatic EIS	Test &Identifier
DATE	LABEL	11/12/2019	Date
TIME	LABEL	22:52:45	Time
NOTES	NOTES	3	&Notes...
	
	
	
PSTAT	PSTAT	REF600-11020	Potentiostat
VDC	POTEN	0.00000E+000	T	DC &Voltage (V)
FREQINIT	QUANT	1.00000E+006	Initial Fre&q. (Hz)
FREQFINAL	QUANT	1.00000E+000	Final Fre&q. (Hz)
PTSPERDEC	QUANT	1.00000E+001	Points/&decade
VAC	QUANT	2.50000E+001	AC &Voltage (mV rms)
AREA	QUANT	1.00000E-002	&Area (cm^2)
CONDIT	TWOPARAM	T	5.00000E+000	0.00000E+000	Conditionin&g	Time(s)	E(V)
DELAY	TWOPARAM	T	5.00000E+000	0.00000E+000	Init. De&lay	Time(s)	Stab.(mV/s)
SPEED	SELECTOR	1	&Optimize for:
ZGUESS	QUANT	1.00000E+005	E&stimated Z (ohms)
OCVCURVE	TABLE	19
	Pt	T	Vf	Vm	Ach	Over
	#	s	V vs. Ref.	V	V	bits
	0	0.258333	4.46912E-003	4.46912E-003	5.56999E-004	...........
	1	0.516667	4.46246E-003	4.12010E-003	5.55033E-004	...........
	2	0.775	4.42212E-003	3.82114E-003	5.58699E-004	...........
	3	1.03333	4.31101E-003	3.58468E-003	5.56633E-004	...........
	4	1.29167	4.11827E-003	3.24999E-003	5.58966E-004	...........
	5	1.55	3.86803E-003	3.05007E-003	5.63532E-004	...........
	6	1.80833	3.59661E-003	2.90733E-003	5.63566E-004	...........
	7	2.06667	3.33789E-003	2.75449E-003	5.63666E-004	...........
	8	2.325	3.11437E-003	2.62243E-003	5.58533E-004	...........
	9	2.58333	2.92953E-003	2.49728E-003	5.55999E-004	...........
	10	2.84167	2.77415E-003	2.39142E-003	5.56233E-004	...........
	11	3.1	2.63821E-003	2.28463E-003	5.53599E-004	...........
	12	3.35833	2.51568E-003	2.19413E-003	5.56333E-004	...........
	13	3.61667	2.40356E-003	2.10421E-003	5.52966E-004	...........
	14	3.875	2.30038E-003	2.02932E-003	5.54533E-004	...........
	15	4.13333	2.20548E-003	1.95543E-003	5.52599E-004	...........
	16	4.39167	2.11852E-003	1.89268E-003	5.51066E-004	...........
	17	4.65	2.03903E-003	1.82557E-003	5.55233E-004	...........
	18	4.90833	1.96589E-003	1.76237E-003	5.48566E-004	...........
EOC	QUANT	0.0019659	Open Circuit (V)
PSTATMODEL	IQUANT	4	Pstat Model
PSTATSECTION	LABEL	REF600-11020	Pstat Section
PSTATSERIALNO	LABEL	11020	Pstat Serial Number
CTRLMODE	IQUANT	1	Control Mode
IESTAB	IQUANT	0	I/E Stability
CASPEED	IQUANT	1	Control Amp Speed
CONVENTION	IQUANT	1	Current Convention
ICHRANGE	IQUANT	2	Ich Range
ICHRANGEMODE	TOGGLE	F	Ich Auto Range
ICHOFFSETENABLE	TOGGLE	T	Ich Offset Enable
ICHOFFSET	QUANT	0	Ich Offset (V)
ICHFILTER	IQUANT	3	Ich Filter
VCHRANGE	IQUANT	2	Vch Range
VCHRANGEMODE	TOGGLE	F	Vch Auto Range
VCHOFFSETENABLE	TOGGLE	T	Vch Offset Enable
VCHOFFSET	QUANT	0	Vch Offset (V)
VCHFILTER	IQUANT	3	Vch Filter
ACHRANGE	IQUANT	2	Ach Range
ACHOFFSETENABLE	TOGGLE	F	Ach Offset Enable
ACHOFFSET	QUANT	0	Ach Offset (V)
ACHFILTER	IQUANT	3	Ach Filter
IERANGELOWERLIMIT	IQUANT	1	I/E Range Lower Limit
IERANGEMODE	TOGGLE	F	I/E AutoRange
IERANGE	IQUANT	4	I/E Range
POSFEEDENABLE	TOGGLE	F	Positive Feedback IR Comp
POSFEEDRESISTANCE	QUANT	0	Positive Feedback Resistance (ohm)
ACHSELECT	IQUANT	0	Ach Select
CABLEID	IQUANT	14	Cable ID
DCCALDATE	LABEL	8/19/2019	DC Calibration Date
ACCALDATE	LABEL	8/19/2019	AC Calibration Date
THERMOSELECT	IQUANT	1	Thermo Select
FRAMEWORKVERSION	QUANT	6.33	Framework Version
INSTRUMENTVERSION	LABEL	3.50	Instrument Version
ZCURVE	TABLE
	Pt	Time	Freq	Zreal	Zimag	Zsig	Zmod	Zphz	Idc	Vdc	IERange
	#	s	Hz	ohm	ohm	V	ohm	°	A	V	#
	0	2	1000078	1944.848	-1511.835	1	2463.347	-37.85984	4.374804E-006	0.0035538	8
	1	3	794390.6	2244.618	-1478.752	1	2687.94	-33.37685	5.403722E-006	0.0030254	8
	2	5	630984.4	2532.703	-1412.752	1	2900.078	-29.15296	-3.666972E-007	0.0041097	8
	3	6	501234.4	2774.45	-1310.965	1	3068.583	-25.29136	-2.42156E-006	0.0035307	8
	4	7	398109.4	2977.602	-1190.611	1	3206.816	-21.79427	3.963377E-006	0.0035374	8
	5	9	316265.6	3144.989	-1062.424	1	3319.593	-18.66574	6.128818E-006	0.0028458	8
	6	10	251203.1	3280.506	-965.242	1	3419.563	-16.39577	6.010152E-006	0.0028523	8
	7	11	199546.9	3387.646	-856.7699	1	3494.31	-14.19306	-8.642937E-007	0.0039276	8
	8	13	158578.1	3470.358	-783.1912	1	3557.636	-12.71747	3.502842E-006	0.0034983	8
	9	14	125953.1	3567.337	-686.0273	1	3632.702	-10.88554	-2.829837E-006	0.0070933	7
	10	15	100078.1	3630.617	-653.4488	1	3688.953	-10.20302	6.852488E-007	0.0019179	7
	11	17	79453.13	3682.428	-637.4746	1	3737.198	-9.82129	-7.935527E-007	0.0049967	7
	12	18	63140.62	3739.766	-640.2977	1	3794.184	-9.7156	7.88209E-008	0.004339	7
	13	20	50203.12	3797.985	-655.9102	1	3854.207	-9.7983	-9.759884E-007	0.004948	7
	14	21	39890.62	3858.766	-688.2427	1	3919.662	-10.11283	-9.750383E-007	0.0049489	7
	15	22	31640.63	3925.01	-735.1782	1	3993.268	-10.60892	-6.636022E-007	0.0033741	7
	16	24	25171.88	3994.914	-798.4297	1	4073.921	-11.3023	-1.094781E-006	0.004483	7
	17	25	20015.62	4075.724	-880.2672	1	4169.7	-12.18744	3.638363E-007	0.0039484	7
	18	27	15890.62	4164.631	-978.951	1	4278.142	-13.22798	8.003043E-008	0.0043375	7
	19	28	12609.37	4263.615	-1101.18	1	4403.522	-14.48153	7.592902E-007	0.0032766	7
	20	29	10078.13	4373.226	-1236.384	1	4544.64	-15.78649	8.157438E-008	0.0043387	7
	21	31	8015.625	4500.727	-1403.683	1	4714.538	-17.32162	-6.654571E-007	0.003367	7
	22	32	6328.125	4649.531	-1605.872	1	4919.041	-19.05407	-6.635194E-007	0.0033678	7
	23	33	5015.625	4816.054	-1837.071	1	5154.533	-20.87922	-9.448561E-007	0.0039744	7
	24	35	3984.375	5007.104	-2103.669	1	5431.07	-22.78907	-2.444982E-007	0.0046913	7
	25	36	3170.956	5223.382	-2408.759	1	5752.029	-24.75675	-2.451186E-007	0.0046869	7
	26	38	2527.573	5466.053	-2763.029	1	6124.709	-26.81609	9.086471E-008	0.002276	7
	27	39	1976.103	5772.979	-3204.818	1	6602.889	-29.03646	5.640098E-007	0.003649	7
	28	40	1577.524	6089.498	-3676.887	1	7113.472	-31.12391	-2.892621E-007	0.0027433	7
	29	42	1265.625	6440.909	-4206.568	1	7692.888	-33.14862	-1.095966E-006	0.0044686	7
	30	43	998.264	6886.638	-4878.429	1	8439.482	-35.3134	9.176798E-007	0.0028178	7
	31	45	796.875	7359.3	-5598.978	1	9247.045	-37.26399	-2.944719E-007	0.0027404	7
	32	46	627.7902	7923.911	-6468.008	1	10228.56	-39.22355	-2.408331E-007	0.0046839	7
	33	48	505.5147	8501.202	-7388.195	1	11263.03	-40.99314	6.410636E-008	0.0011675	6
	34	49	397.9953	9173.757	-8557.799	1	12545.67	-43.01046	4.722099E-010	0.0034558	6
	35	50	315.5048	9860.19	-9900.67	1	13973.07	-45.1174	4.806614E-010	0.0034428	6
	36	52	252.4038	10534.99	-11449.28	1	15558.66	-47.38145	2.663773E-010	0.0034461	6
	37	53	198.6229	11273.46	-13494.56	1	17583.91	-50.12435	3.759456E-010	0.003444	6
	38	54	158.3615	11990.09	-15900.76	1	19914.73	-52.98161	4.720495E-010	0.0034395	6
	39	56	125.558	12783.53	-18991.71	1	22893.31	-56.05508	6.139529E-011	0.0034507	6
	40	57	100.4464	13640.15	-22699.85	1	26482.77	-58.99869	1.02254E-009	0.003438	6
	41	59	79.00281	14714.23	-27650.47	1	31321.83	-61.98027	6.202053E-010	0.003438	6
	42	60	63.3446	15801.8	-33629.8	1	37157.23	-64.83235	2.33858E-010	0.0034454	6
	43	61	49.86702	17312.46	-41038.62	1	44540.87	-67.12717	1.461899E-010	0.0034422	6
	44	63	39.72458	19462.57	-50140.18	1	53785.02	-68.78562	2.159266E-010	0.003453	6
	45	64	31.6723	21940.59	-61198.61	1	65012.77	-70.2765	7.635673E-010	0.0034399	6
	46	66	24.93351	25538.48	-75263.44	1	79478.3	-71.25684	3.838883E-010	0.0034438	6
	47	67	19.86229	30098.13	-91738.79	1	96550	-71.83611	4.017984E-011	0.0034475	6
	48	68	15.83615	36035.27	-111511.7	1	117189.6	-72.09164	4.530855E-010	0.003442	5
	49	70	12.40079	44246.33	-137094.7	1	144057.9	-72.11288	1.414797E-010	0.0034506	5
	50	71	9.93114	53682.77	-165480.5	1	173970.2	-72.02665	1.614158E-010	0.0034407	5
	51	73	7.944915	66323.23	-198370.3	1	209164	-71.51314	-1.369108E-010	0.0034432	5
	52	75	6.317385	82692.46	-238850.8	1	252760.2	-70.90365	2.331051E-010	0.0034317	5
	53	77	5.008013	103895.6	-287017.8	1	305243.3	-70.1006	2.71824E-010	0.0034479	5
	54	79	3.945707	132164	-344823.9	1	369284.2	-69.02917	7.158269E-011	0.0034381	5
	55	82	3.158693	165013.9	-407170.3	1	439337.2	-67.93877	1.055932E-010	0.0034538	5
	56	85	2.504006	207250.7	-482013.9	1	524681.1	-66.73383	2.551297E-010	0.003442	5
	57	88	1.998082	257469.1	-564145.3	1	620121.2	-65.46861	4.349401E-011	0.0034904	5
	58	91	1.584686	318455.4	-658465.3	1	731430.3	-64.19006	1.458723E-010	0.0034352	5
	59	95	1.266892	390592.4	-764113.2	1	858155.8	-62.92521	1.191945E-010	0.0034829	5
	60	99	0.999041	480445.7	-888072.1	1	1009703	-61.58668	-1.135995E-011	0.0034093	5
