EXPLAIN
TAG	EISPOT
TITLE	LABEL	Potentiostatic EIS	Test &Identifier
DATE	LABEL	10/22/2019	Date
TIME	LABEL	9:29:56	Time
NOTES	NOTES	1	&Notes...
	
PSTAT	PSTAT	REF600-11020	Potentiostat
VDC	POTEN	0.00000E+000	T	DC &Voltage (V)
FREQINIT	QUANT	1.00000E+006	Initial Fre&q. (Hz)
FREQFINAL	QUANT	1.00000E+000	Final Fre&q. (Hz)
PTSPERDEC	QUANT	1.00000E+001	Points/&decade
VAC	QUANT	2.50000E+001	AC &Voltage (mV rms)
AREA	QUANT	1.00000E-002	&Area (cm^2)
CONDIT	TWOPARAM	T	5.00000E+000	0.00000E+000	Conditionin&g	Time(s)	E(V)
DELAY	TWOPARAM	T	5.00000E+000	0.00000E+000	Init. De&lay	Time(s)	Stab.(mV/s)
SPEED	SELECTOR	1	&Optimize for:
ZGUESS	QUANT	1.00000E+005	E&stimated Z (ohms)
OCVCURVE	TABLE	19
	Pt	T	Vf	Vm	Ach	Over
	#	s	V vs. Ref.	V	V	bits
	0	0.258333	3.53377E-003	3.53377E-003	5.29666E-004	...........
	1	0.516667	3.52885E-003	3.27609E-003	5.27933E-004	...........
	2	0.775	3.49904E-003	3.05366E-003	5.25833E-004	...........
	3	1.03333	3.41628E-003	2.85000E-003	5.28400E-004	...........
	4	1.29167	3.27214E-003	2.67738E-003	5.22566E-004	...........
	5	1.55	3.08764E-003	2.51662E-003	5.27100E-004	...........
	6	1.80833	2.89318E-003	2.37325E-003	5.23333E-004	...........
	7	2.06667	2.70899E-003	2.23480E-003	5.27966E-004	...........
	8	2.325	2.54249E-003	2.14062E-003	5.27066E-004	...........
	9	2.58333	2.39657E-003	2.12975E-003	5.23433E-004	...........
	10	2.84167	2.27949E-003	2.20581E-003	5.20566E-004	...........
	11	3.1	2.19832E-003	1.88277E-003	5.27566E-004	...........
	12	3.35833	2.13592E-003	1.81453E-003	5.29933E-004	...........
	13	3.61667	2.05911E-003	1.74909E-003	5.31266E-004	...........
	14	3.875	1.95899E-003	1.67431E-003	5.28866E-004	...........
	15	4.13333	1.85157E-003	1.44658E-003	5.25333E-004	...........
	16	4.39167	1.74184E-003	1.31442E-003	5.28333E-004	...........
	17	4.65	1.61712E-003	1.06049E-003	5.26333E-004	...........
	18	4.90833	1.46798E-003	9.62887E-004	5.29600E-004	...........
EOC	QUANT	0.001468	Open Circuit (V)
PSTATMODEL	IQUANT	4	Pstat Model
PSTATSECTION	LABEL	REF600-11020	Pstat Section
PSTATSERIALNO	LABEL	11020	Pstat Serial Number
CTRLMODE	IQUANT	1	Control Mode
IESTAB	IQUANT	0	I/E Stability
CASPEED	IQUANT	1	Control Amp Speed
CONVENTION	IQUANT	1	Current Convention
ICHRANGE	IQUANT	2	Ich Range
ICHRANGEMODE	TOGGLE	F	Ich Auto Range
ICHOFFSETENABLE	TOGGLE	T	Ich Offset Enable
ICHOFFSET	QUANT	0	Ich Offset (V)
ICHFILTER	IQUANT	3	Ich Filter
VCHRANGE	IQUANT	2	Vch Range
VCHRANGEMODE	TOGGLE	F	Vch Auto Range
VCHOFFSETENABLE	TOGGLE	T	Vch Offset Enable
VCHOFFSET	QUANT	0	Vch Offset (V)
VCHFILTER	IQUANT	3	Vch Filter
ACHRANGE	IQUANT	2	Ach Range
ACHOFFSETENABLE	TOGGLE	F	Ach Offset Enable
ACHOFFSET	QUANT	0	Ach Offset (V)
ACHFILTER	IQUANT	3	Ach Filter
IERANGELOWERLIMIT	IQUANT	1	I/E Range Lower Limit
IERANGEMODE	TOGGLE	F	I/E AutoRange
IERANGE	IQUANT	4	I/E Range
POSFEEDENABLE	TOGGLE	F	Positive Feedback IR Comp
POSFEEDRESISTANCE	QUANT	0	Positive Feedback Resistance (ohm)
ACHSELECT	IQUANT	0	Ach Select
CABLEID	IQUANT	14	Cable ID
DCCALDATE	LABEL	8/19/2019	DC Calibration Date
ACCALDATE	LABEL	8/19/2019	AC Calibration Date
THERMOSELECT	IQUANT	1	Thermo Select
FRAMEWORKVERSION	QUANT	6.33	Framework Version
INSTRUMENTVERSION	LABEL	3.50	Instrument Version
ZCURVE	TABLE
	Pt	Time	Freq	Zreal	Zimag	Zsig	Zmod	Zphz	Idc	Vdc	IERange
	#	s	Hz	ohm	ohm	V	ohm	°	A	V	#
	0	1	1000078	2560.614	-1996.582	1	3247.011	-37.94453	3.178516E-006	0.0026197	8
	1	3	794390.6	2945.347	-1957.609	1	3536.566	-33.60978	-1.502092E-006	0.003367	8
	2	4	630984.4	3331.208	-1861.998	1	3816.279	-29.20326	3.919276E-006	0.0025334	8
	3	6	501234.4	3667.408	-1707.196	1	4045.293	-24.96221	-1.380718E-006	0.0035013	8
	4	7	398109.4	3947.088	-1542.371	1	4237.737	-21.34366	4.138114E-006	0.0023504	8
	5	8	316265.6	4171.059	-1350.008	1	4384.091	-17.93472	8.472696E-007	0.002864	8
	6	10	251203.1	4340.209	-1185.45	1	4499.189	-15.2767	1.411466E-006	0.002943	8
	7	11	199546.9	4484.351	-1015.26	1	4597.843	-12.75675	-4.230399E-006	0.004065	8
	8	13	158578.1	4583.495	-873.1635	1	4665.923	-10.78571	-1.002903E-007	0.0032126	8
	9	14	125953.1	4687.67	-724.0776	1	4743.262	-8.780756	6.254043E-007	0.0011502	7
	10	16	100078.1	4741.547	-630.5587	1	4783.291	-7.575082	8.043202E-008	0.0028733	7
	11	17	79453.13	4790.991	-569.9366	1	4824.771	-6.784029	-1.454341E-008	0.0030061	7
	12	18	63140.62	4835.799	-527.5019	1	4864.484	-6.225363	8.248077E-008	0.0028728	7
	13	20	50203.12	4877.115	-500.1282	1	4902.691	-5.854982	8.228385E-008	0.0028649	7
	14	21	39890.62	4916.091	-482.3594	1	4939.699	-5.603838	-3.325531E-008	0.003066	7
	15	23	31640.63	4954.993	-481.0994	1	4978.294	-5.545686	4.239873E-008	0.0029889	7
	16	24	25171.88	4992.747	-492.4261	1	5016.971	-5.632768	9.051988E-009	0.0029631	7
	17	25	20015.62	5028.072	-521.5388	1	5055.048	-5.921851	-1.119918E-008	0.0031747	7
	18	27	15890.62	5072.479	-551.4775	1	5102.37	-6.204799	-1.36042E-008	0.0030011	7
	19	28	12609.37	5114.438	-607.6693	1	5150.412	-6.775803	-1.023188E-008	0.003171	7
	20	29	10078.13	5155.382	-674.9109	1	5199.372	-7.458396	-3.797315E-008	0.0030502	7
	21	31	8015.625	5192.354	-764.2914	1	5248.303	-8.373553	-1.747901E-009	0.0030719	7
	22	32	6328.125	5250.737	-882.5652	1	5324.393	-9.54132	4.281755E-008	0.0029799	7
	23	33	5015.625	5306.135	-1031.655	1	5405.496	-11.00256	-1.01053E-008	0.0031771	7
	24	35	3984.375	5356.074	-1218.238	1	5492.871	-12.81391	1.378227E-007	0.0028265	7
	25	36	3170.956	5431.735	-1437.043	1	5618.615	-14.8189	-2.080049E-008	0.0030945	7
	26	37	2527.573	5503.762	-1710.738	1	5763.507	-17.26684	4.013905E-008	0.0029017	7
	27	39	1976.103	5596.44	-2080.35	1	5970.595	-20.39147	-3.675738E-008	0.0030491	7
	28	40	1577.524	5749.995	-2507.132	1	6272.811	-23.55832	-3.119676E-009	0.0030706	7
	29	42	1265.625	5804.47	-2998.791	1	6533.347	-27.32245	-3.174217E-008	0.0030433	7
	30	43	998.264	5950.668	-3666.676	1	6989.633	-31.6405	-1.419248E-008	0.0029985	7
	31	44	796.875	6105.778	-4439.61	1	7549.216	-36.02151	-2.159868E-009	0.0030632	7
	32	46	627.7902	6313.516	-5455.611	1	8344.11	-40.83082	-2.561203E-009	0.0030676	7
	33	47	505.5147	6537.5	-6584.181	1	9278.488	-45.20383	-1.824565E-008	0.0029961	7
	34	48	397.9953	6850.532	-8117.49	1	10621.84	-49.83823	5.417944E-010	0.0029877	6
	35	50	315.5048	7229.419	-9963.73	1	12310.17	-54.03635	6.526752E-010	0.0029892	6
	36	51	252.4038	7695.031	-12139.13	1	14372.61	-57.62927	5.882935E-010	0.0029896	6
	37	52	198.6229	8344.897	-15008.27	1	17172.23	-60.92507	9.320736E-010	0.0029859	6
	38	54	158.3615	9156.091	-18335.94	1	20494.89	-63.46465	1.014084E-009	0.0029812	6
	39	55	125.558	10260.63	-22504.72	1	24733.44	-65.49021	8.50558E-010	0.002984	6
	40	56	100.4464	11708	-27346.39	1	29747.31	-66.82246	1.608763E-009	0.0029815	6
	41	58	79.00281	13785.19	-33603.14	1	36320.82	-67.69483	1.30936E-009	0.0029854	6
	42	59	63.3446	16513.55	-40242.88	1	43499.27	-67.68935	7.086051E-010	0.0029825	6
	43	61	49.86702	20319.33	-49748.34	1	53738	-67.78282	9.111321E-010	0.0029859	6
	44	62	39.72458	24871.64	-59490.89	1	64480.73	-67.31142	1.038688E-009	0.0029893	6
	45	63	31.6723	31113.42	-70626.34	1	77175.94	-66.2248	3.729724E-010	0.0029871	6
	46	65	24.93351	39768.86	-84167.42	1	93089.84	-64.7094	9.366348E-011	0.0029828	6
	47	66	19.86229	50087.11	-98092.1	1	110139.8	-62.95055	1.70068E-010	0.0029839	5
	48	68	15.83615	61912.72	-112209.4	1	128156.7	-61.11182	7.467055E-011	0.0029952	5
	49	69	12.40079	78819.05	-130197.8	1	152196.9	-58.81015	1.642265E-009	0.0029911	5
	50	71	9.93114	94610.09	-146757.7	1	174610.7	-57.1914	7.408392E-010	0.0029918	5
	51	72	7.944915	112122.8	-163721.5	1	198434.5	-55.59516	-3.23569E-010	0.00299	5
	52	74	6.317385	130938.5	-184162.6	1	225966.3	-54.5874	4.851854E-010	0.0029849	5
	53	76	5.008013	151368	-206909.5	1	256366.6	-53.81206	2.881587E-010	0.0030046	5
	54	78	3.945707	173389.9	-233986.8	1	291228.2	-53.46066	-1.258516E-010	0.0029898	5
	55	81	3.158693	195191.2	-264290.8	1	328556.2	-53.55239	2.686564E-010	0.0030077	5
	56	84	2.504006	219689.4	-302274.6	1	373675.4	-53.99081	-2.39934E-010	0.0029955	5
	57	87	1.998082	245450	-345756.3	1	424020.2	-54.62932	1.269604E-010	0.0029462	5
	58	90	1.584686	274408.2	-401144.8	1	486021.6	-55.62542	-3.20353E-011	0.0029794	5
	59	94	1.266892	308088.5	-464605.7	1	557473.8	-56.45092	9.629064E-011	0.0029426	5
	60	98	0.999041	348264.6	-544711.7	1	646528.4	-57.40695	3.285904E-011	0.0030274	5
