EXPLAIN
TAG	EISPOT
TITLE	LABEL	Potentiostatic EIS	Test &Identifier
DATE	LABEL	9/26/2019	Date
TIME	LABEL	9:52:33	Time
NOTES	NOTES	2	&Notes...
	
	
PSTAT	PSTAT	REF600-11020	Potentiostat
VDC	POTEN	0.00000E+000	T	DC &Voltage (V)
FREQINIT	QUANT	1.00000E+006	Initial Fre&q. (Hz)
FREQFINAL	QUANT	1.00000E+000	Final Fre&q. (Hz)
PTSPERDEC	QUANT	1.00000E+001	Points/&decade
VAC	QUANT	2.50000E+001	AC &Voltage (mV rms)
AREA	QUANT	1.00000E-002	&Area (cm^2)
CONDIT	TWOPARAM	T	5.00000E+000	0.00000E+000	Conditionin&g	Time(s)	E(V)
DELAY	TWOPARAM	T	5.00000E+000	0.00000E+000	Init. De&lay	Time(s)	Stab.(mV/s)
SPEED	SELECTOR	1	&Optimize for:
ZGUESS	QUANT	1.00000E+004	E&stimated Z (ohms)
OCVCURVE	TABLE	19
	Pt	T	Vf	Vm	Ach	Over
	#	s	V vs. Ref.	V	V	bits
	0	0.258333	1.77647E-001	1.77647E-001	5.73232E-004	...........
	1	0.516667	1.77812E-001	1.86297E-001	5.72732E-004	...........
	2	0.775	1.78819E-001	1.94092E-001	5.72199E-004	...........
	3	1.03333	1.81634E-001	2.01171E-001	5.75932E-004	...........
	4	1.29167	1.86583E-001	2.07699E-001	5.70499E-004	...........
	5	1.55	1.93008E-001	2.13804E-001	5.73466E-004	...........
	6	1.80833	1.99925E-001	2.19482E-001	5.70099E-004	...........
	7	2.06667	2.06661E-001	2.24789E-001	5.72899E-004	...........
	8	2.325	2.12943E-001	2.29631E-001	5.76666E-004	...........
	9	2.58333	2.18710E-001	2.32929E-001	5.71632E-004	...........
	10	2.84167	2.23932E-001	2.37452E-001	5.70499E-004	...........
	11	3.1	2.28653E-001	2.42803E-001	5.71299E-004	...........
	12	3.35833	2.33108E-001	2.47060E-001	5.76466E-004	...........
	13	3.61667	2.37557E-001	2.50994E-001	5.72299E-004	...........
	14	3.875	2.42028E-001	2.54701E-001	5.74699E-004	...........
	15	4.13333	2.46368E-001	2.58216E-001	5.69799E-004	...........
	16	4.39167	2.50451E-001	2.61583E-001	5.75566E-004	...........
	17	4.65	2.54260E-001	2.64804E-001	5.71766E-004	...........
	18	4.90833	2.57835E-001	2.67893E-001	5.76032E-004	...........
EOC	QUANT	0.2578355	Open Circuit (V)
PSTATMODEL	IQUANT	4	Pstat Model
PSTATSECTION	LABEL	REF600-11020	Pstat Section
PSTATSERIALNO	LABEL	11020	Pstat Serial Number
CTRLMODE	IQUANT	1	Control Mode
IESTAB	IQUANT	0	I/E Stability
CASPEED	IQUANT	1	Control Amp Speed
CONVENTION	IQUANT	1	Current Convention
ICHRANGE	IQUANT	2	Ich Range
ICHRANGEMODE	TOGGLE	F	Ich Auto Range
ICHOFFSETENABLE	TOGGLE	T	Ich Offset Enable
ICHOFFSET	QUANT	0	Ich Offset (V)
ICHFILTER	IQUANT	3	Ich Filter
VCHRANGE	IQUANT	2	Vch Range
VCHRANGEMODE	TOGGLE	F	Vch Auto Range
VCHOFFSETENABLE	TOGGLE	T	Vch Offset Enable
VCHOFFSET	QUANT	0	Vch Offset (V)
VCHFILTER	IQUANT	3	Vch Filter
ACHRANGE	IQUANT	2	Ach Range
ACHOFFSETENABLE	TOGGLE	F	Ach Offset Enable
ACHOFFSET	QUANT	0	Ach Offset (V)
ACHFILTER	IQUANT	3	Ach Filter
IERANGELOWERLIMIT	IQUANT	1	I/E Range Lower Limit
IERANGEMODE	TOGGLE	F	I/E AutoRange
IERANGE	IQUANT	7	I/E Range
POSFEEDENABLE	TOGGLE	F	Positive Feedback IR Comp
POSFEEDRESISTANCE	QUANT	0	Positive Feedback Resistance (ohm)
ACHSELECT	IQUANT	0	Ach Select
CABLEID	IQUANT	14	Cable ID
DCCALDATE	LABEL	8/19/2019	DC Calibration Date
ACCALDATE	LABEL	8/19/2019	AC Calibration Date
THERMOSELECT	IQUANT	1	Thermo Select
FRAMEWORKVERSION	QUANT	6.33	Framework Version
INSTRUMENTVERSION	LABEL	3.50	Instrument Version
ZCURVE	TABLE
	Pt	Time	Freq	Zreal	Zimag	Zsig	Zmod	Zphz	Idc	Vdc	IERange
	#	s	Hz	ohm	ohm	V	ohm	°	A	V	#
	0	2	1000078	2042.959	-1543.88	1	2560.712	-37.07862	-2.155686E-006	0.2602108	8
	1	3	794390.6	2307.005	-1544.353	1	2776.203	-33.7991	-3.177799E-006	0.2601907	8
	2	4	630984.4	2597.527	-1536.229	1	3017.805	-30.60092	3.339637E-006	0.2589136	8
	3	6	501234.4	2871.571	-1492.773	1	3236.4	-27.46746	2.899726E-006	0.2587171	8
	4	7	398109.4	3096.14	-1431.365	1	3410.996	-24.81139	-3.570545E-006	0.2600423	8
	5	9	316265.6	3336.976	-1362.375	1	3604.368	-22.20853	3.852611E-006	0.2586615	8
	6	10	251203.1	3553.849	-1294.205	1	3782.17	-20.0101	-1.124065E-006	0.2595496	8
	7	11	199546.9	3726.337	-1217.907	1	3920.317	-18.09933	3.544322E-006	0.2586899	8
	8	13	158578.1	3898.076	-1154.702	1	4065.505	-16.50053	-3.298529E-007	0.2593006	8
	9	14	125953.1	4085.902	-1025.014	1	4212.511	-14.08294	7.856529E-007	0.2576299	7
	10	15	100078.1	4204.272	-973.549	1	4315.519	-13.03772	6.842104E-008	0.259125	7
	11	17	79453.13	4324.142	-938.5471	1	4424.825	-12.246	-5.53427E-008	0.2593858	7
	12	18	63140.62	4436.291	-915.601	1	4529.79	-11.66147	1.257429E-007	0.2590894	7
	13	20	50203.12	4544.748	-900.8559	1	4633.171	-11.21179	3.333812E-008	0.2591456	7
	14	21	39890.62	4648.224	-901.9212	1	4734.917	-10.98097	3.473052E-008	0.2591445	7
	15	22	31640.63	4756.015	-911.6438	1	4842.6	-10.85097	-1.744379E-008	0.259424	7
	16	24	25171.88	4860.065	-937.8455	1	4949.726	-10.9221	-8.748303E-008	0.2594149	7
	17	25	20015.62	4970.436	-972.141	1	5064.612	-11.06648	7.064477E-008	0.2591153	7
	18	26	15890.62	5086.979	-1022.903	1	5188.804	-11.36956	-5.367374E-008	0.2593775	7
	19	28	12609.37	5206.879	-1091.398	1	5320.032	-11.8382	-5.952764E-008	0.259448	7
	20	29	10078.13	5327.817	-1164.007	1	5453.489	-12.32417	-2.606061E-008	0.2593395	7
	21	30	8015.625	5456.614	-1255.537	1	5599.197	-12.9579	-3.664641E-010	0.2592126	7
	22	32	6328.125	5594.024	-1372.688	1	5759.98	-13.78709	-5.693668E-008	0.2593157	7
	23	33	5015.625	5735.756	-1513.442	1	5932.065	-14.78123	-8.750023E-008	0.2594007	7
	24	35	3984.375	5884.825	-1683.542	1	6120.905	-15.96487	-1.288692E-008	0.2592902	7
	25	36	3170.956	6043.718	-1888.681	1	6331.954	-17.35419	-5.976285E-008	0.2594396	7
	26	38	2527.573	6208.511	-2132.226	1	6564.449	-18.95432	-4.27524E-008	0.259289	7
	27	39	1976.103	6406.996	-2453.682	1	6860.769	-20.9553	6.605194E-008	0.2591638	7
	28	40	1577.524	6599.941	-2810.97	1	7173.617	-23.06956	1.298552E-007	0.2590789	7
	29	42	1265.625	6801.225	-3228.107	1	7528.435	-25.3907	-1.083432E-008	0.2592941	7
	30	43	998.264	7036.524	-3780.491	1	7987.79	-28.24766	-1.267319E-008	0.2593329	7
	31	44	796.875	7273.573	-4420.687	1	8511.6	-31.29014	-8.522492E-008	0.2594084	7
	32	46	627.7902	7553.614	-5258.864	1	9203.952	-34.84583	-5.790903E-008	0.2594439	7
	33	47	505.5147	7836.804	-6179.825	1	9980.27	-38.25806	-1.198644E-008	0.2591825	6
	34	49	397.9953	8191.321	-7441.093	1	11066.51	-42.25238	-6.961399E-009	0.2592343	6
	35	50	315.5048	8588.225	-8955.965	1	12408.34	-46.20079	-8.370967E-009	0.2592347	6
	36	51	252.4038	9032.699	-10739.65	1	14033.17	-49.93413	-8.481815E-009	0.2592286	6
	37	53	198.6229	9597.58	-13094.57	1	16235.19	-53.76068	-7.270921E-009	0.2592375	6
	38	54	158.3615	10242.74	-15841.56	1	18864.49	-57.11434	-7.538789E-009	0.259236	6
	39	55	125.558	11044.11	-19271.11	1	22211.44	-60.18335	-6.892265E-009	0.2592375	6
	40	57	100.4464	11996.91	-23291.14	1	26199.29	-62.74769	-8.423752E-009	0.2592325	6
	41	58	79.00281	13275.6	-28718.66	1	31638.63	-65.19061	-8.036623E-009	0.259233	6
	42	60	63.3446	14379.25	-34925.05	1	37769.33	-67.62219	-7.244594E-009	0.2592312	6
	43	61	49.86702	16807.86	-42212.52	1	45435.68	-68.28893	-6.573804E-009	0.2592285	6
	44	62	39.72458	19206.22	-51726.1	1	55176.7	-69.62973	-7.150637E-009	0.2592387	6
	45	64	31.6723	22073.01	-62848.37	1	66611.83	-70.64819	-7.253299E-009	0.2592342	6
	46	65	24.93351	26390.25	-76946.46	1	81346.2	-71.06963	-7.271274E-009	0.2592313	6
	47	67	19.86229	31462.47	-93198.91	1	98366.3	-71.34614	-7.302084E-009	0.259237	6
	48	68	15.83615	39335.37	-111847.8	1	118563.1	-70.62392	-5.606244E-009	0.2592341	5
	49	69	12.40079	46113.14	-138590.9	1	146061.2	-71.59625	-8.029006E-009	0.2592339	5
	50	71	9.93114	58336.7	-165642.9	1	175615.3	-70.59857	-6.955139E-009	0.2592437	5
	51	72	7.944915	72286.93	-197422.5	1	210240.4	-69.88962	-7.563891E-009	0.2592387	5
	52	74	6.317385	90736.74	-237337.3	1	254090.8	-69.07758	-6.600113E-009	0.2592366	5
	53	76	5.008013	115183.7	-283599.8	1	306098.2	-67.89553	-6.884803E-009	0.2592493	5
	54	79	3.945707	147368.2	-338873.3	1	369530.1	-66.49689	-7.044646E-009	0.2592323	5
	55	81	3.158693	185793.2	-397420.1	1	438704.8	-64.944	-6.514413E-009	0.2592521	5
	56	85	2.504006	227721.9	-450315.7	1	504620.1	-63.17455	-5.638965E-009	0.2592407	5
	57	87	1.998082	297036.9	-537187.4	1	613841.4	-61.05967	-7.176997E-009	0.2591985	5
	58	90	1.584686	363160.2	-618193.2	1	716971.5	-59.56771	-6.032004E-009	0.2592406	5
	59	94	1.266892	445032.8	-673439.7	1	807202.1	-56.54186	-5.430627E-009	0.259194	5
	60	98	0.999041	539794.1	-759666	1	931917.4	-54.60363	-5.615377E-009	0.259275	5
