EXPLAIN
TAG	EISPOT
TITLE	LABEL	Potentiostatic IDE	Test &Identifier
DATE	LABEL	9/6/2019	Date
TIME	LABEL	8:14:21	Time
NOTES	NOTES	1	&Notes...
	
PSTAT	PSTAT	REF600-11020	Potentiostat
VDC	POTEN	0.00000E+000	T	DC &Voltage (V)
FREQINIT	QUANT	1.00000E+006	Initial Fre&q. (Hz)
FREQFINAL	QUANT	1.00000E+000	Final Fre&q. (Hz)
PTSPERDEC	QUANT	1.00000E+001	Points/&decade
VAC	QUANT	2.50000E+001	AC &Voltage (mV rms)
AREA	QUANT	1.00000E-002	&Area (cm^2)
CONDIT	TWOPARAM	T	5.00000E+000	0.00000E+000	Conditionin&g	Time(s)	E(V)
DELAY	TWOPARAM	T	5.00000E+000	0.00000E+000	Init. De&lay	Time(s)	Stab.(mV/s)
SPEED	SELECTOR	1	&Optimize for:
ZGUESS	QUANT	1.00000E+007	E&stimated Z (ohms)
OCVCURVE	TABLE	19
	Pt	T	Vf	Vm	Ach	Over
	#	s	V vs. Ref.	V	V	bits
	0	0.258333	9.71226E-003	9.71226E-003	5.70032E-004	...........
	1	0.516667	9.71082E-003	9.63707E-003	5.73432E-004	...........
	2	0.775	9.70251E-003	9.59231E-003	5.69032E-004	...........
	3	1.03333	9.68096E-003	9.56433E-003	5.70632E-004	...........
	4	1.29167	9.64725E-003	9.55493E-003	5.69899E-004	...........
	5	1.55	9.61089E-003	9.55436E-003	5.71032E-004	...........
	6	1.80833	9.58205E-003	9.56657E-003	5.70299E-004	...........
	7	2.06667	9.56575E-003	9.57860E-003	5.70899E-004	...........
	8	2.325	9.56203E-003	9.60349E-003	5.72899E-004	...........
	9	2.58333	9.56855E-003	9.62548E-003	5.67732E-004	...........
	10	2.84167	9.58269E-003	9.65181E-003	5.67999E-004	...........
	11	3.1	9.60223E-003	9.68184E-003	5.69499E-004	...........
	12	3.35833	9.62557E-003	9.71128E-003	5.64532E-004	...........
	13	3.61667	9.65168E-003	9.74100E-003	5.70899E-004	...........
	14	3.875	9.67979E-003	9.77366E-003	5.67166E-004	...........
	15	4.13333	9.70930E-003	9.80606E-003	5.70099E-004	...........
	16	4.39167	9.73990E-003	9.83815E-003	5.64932E-004	...........
	17	4.65	9.77141E-003	9.87234E-003	5.60966E-004	...........
	18	4.90833	9.80366E-003	9.90768E-003	5.62966E-004	...........
EOC	QUANT	0.0098037	Open Circuit (V)
PSTATMODEL	IQUANT	4	Pstat Model
PSTATSECTION	LABEL	REF600-11020	Pstat Section
PSTATSERIALNO	LABEL	11020	Pstat Serial Number
CTRLMODE	IQUANT	1	Control Mode
IESTAB	IQUANT	0	I/E Stability
CASPEED	IQUANT	1	Control Amp Speed
CONVENTION	IQUANT	1	Current Convention
ICHRANGE	IQUANT	2	Ich Range
ICHRANGEMODE	TOGGLE	F	Ich Auto Range
ICHOFFSETENABLE	TOGGLE	T	Ich Offset Enable
ICHOFFSET	QUANT	0	Ich Offset (V)
ICHFILTER	IQUANT	3	Ich Filter
VCHRANGE	IQUANT	2	Vch Range
VCHRANGEMODE	TOGGLE	F	Vch Auto Range
VCHOFFSETENABLE	TOGGLE	T	Vch Offset Enable
VCHOFFSET	QUANT	0	Vch Offset (V)
VCHFILTER	IQUANT	3	Vch Filter
ACHRANGE	IQUANT	2	Ach Range
ACHOFFSETENABLE	TOGGLE	F	Ach Offset Enable
ACHOFFSET	QUANT	0	Ach Offset (V)
ACHFILTER	IQUANT	3	Ach Filter
IERANGELOWERLIMIT	IQUANT	1	I/E Range Lower Limit
IERANGEMODE	TOGGLE	F	I/E AutoRange
IERANGE	IQUANT	3	I/E Range
POSFEEDENABLE	TOGGLE	F	Positive Feedback IR Comp
POSFEEDRESISTANCE	QUANT	0	Positive Feedback Resistance (ohm)
ACHSELECT	IQUANT	0	Ach Select
CABLEID	IQUANT	14	Cable ID
DCCALDATE	LABEL	8/19/2019	DC Calibration Date
ACCALDATE	LABEL	8/19/2019	AC Calibration Date
THERMOSELECT	IQUANT	1	Thermo Select
FRAMEWORKVERSION	QUANT	6.33	Framework Version
INSTRUMENTVERSION	LABEL	3.50	Instrument Version
ZCURVE	TABLE
	Pt	Time	Freq	Zreal	Zimag	Zsig	Zmod	Zphz	Idc	Vdc	IERange
	#	s	Hz	ohm	ohm	V	ohm	°	A	V	#
	0	2	1000078	2404.582	-2053.761	1	3162.27	-40.50074	1.084431E-006	0.0120851	8
	1	3	794390.6	2820.361	-2020.021	1	3469.138	-35.61128	2.627073E-006	0.0111492	8
	2	5	630984.4	3233.787	-1914.157	1	3757.842	-30.62233	7.059161E-007	0.0113409	8
	3	6	501234.4	3547.735	-1737.378	1	3950.305	-26.09166	-9.508087E-007	0.0117273	8
	4	7	398109.4	3843.894	-1568.523	1	4151.6	-22.19819	-2.680095E-007	0.0115038	8
	5	9	316265.6	4071.06	-1372.852	1	4296.306	-18.63525	-3.770547E-007	0.0115988	8
	6	10	251203.1	4245.533	-1207.508	1	4413.913	-15.87673	1.197049E-006	0.0111969	8
	7	11	199546.9	4361.031	-1078.955	1	4492.52	-13.89639	-5.712675E-007	0.0115462	8
	8	13	158578.1	4455.518	-945.8451	1	4554.806	-11.98518	2.205481E-007	0.0113319	8
	9	14	125953.1	4567.152	-816.1497	1	4639.502	-10.13181	1.103731E-007	0.0111671	7
	10	15	100078.1	4629.835	-742.6674	1	4689.022	-9.113127	-2.50495E-008	0.0114158	7
	11	17	79453.13	4689.465	-702.0673	1	4741.728	-8.514605	6.508835E-010	0.0113385	7
	12	18	63140.62	4747.52	-676.5523	1	4795.484	-8.110411	-1.554353E-008	0.011374	7
	13	19	50203.12	4801.731	-669.5511	1	4848.187	-7.938113	7.653775E-008	0.0112615	7
	14	21	39890.62	4860.72	-679.5269	1	4907.989	-7.95835	-2.151936E-008	0.0114413	7
	15	22	31640.63	4916.838	-708.4971	1	4967.622	-8.199656	3.739022E-008	0.0113601	7
	16	23	25171.88	4979.369	-753.3619	1	5036.037	-8.60341	1.432147E-008	0.0113225	7
	17	25	20015.62	5043.712	-818.2507	1	5109.654	-9.214915	-2.308677E-008	0.0113888	7
	18	26	15890.62	5116.494	-907.7197	1	5196.389	-10.0602	-7.789358E-009	0.0113941	7
	19	27	12609.37	5189.066	-1014.593	1	5287.325	-11.06319	-2.056297E-008	0.0114522	7
	20	29	10078.13	5271.319	-1147.066	1	5394.679	-12.27648	7.72863E-008	0.011268	7
	21	30	8015.625	5362.696	-1312.387	1	5520.948	-13.75145	-2.319301E-008	0.0113942	7
	22	31	6328.125	5469.592	-1522.617	1	5677.57	-15.55606	7.775512E-008	0.0112653	7
	23	33	5015.625	5591.886	-1773.238	1	5866.308	-17.5943	4.961847E-008	0.0112701	7
	24	34	3984.375	5729.421	-2076.323	1	6094.045	-19.92035	-6.815793E-009	0.0114048	7
	25	35	3170.956	5887.766	-2435.44	1	6371.589	-22.47215	-3.175217E-008	0.0114269	7
	26	37	2527.573	6066.938	-2862.634	1	6708.384	-25.25989	7.784261E-008	0.0112638	7
	27	38	1976.103	6296.885	-3423.189	1	7167.216	-28.52993	1.17028E-009	0.0113259	7
	28	39	1577.524	6545.048	-4043.586	1	7693.39	-31.70813	-1.453513E-008	0.0113649	7
	29	41	1265.625	6828.082	-4760.28	1	8323.639	-34.88275	-2.470887E-008	0.0113857	7
	30	42	998.264	7182.47	-5683.674	1	9159.259	-38.35548	-1.546749E-008	0.0113535	7
	31	43	796.875	7573.452	-6734.405	1	10134.56	-41.64388	-3.340799E-009	0.0113504	6
	32	45	627.7902	8058.06	-8070.126	1	11404.35	-45.04287	-4.356049E-009	0.0114119	6
	33	46	505.5147	8570.632	-9540.94	1	12825.18	-48.06662	2.295975E-009	0.0113337	6
	34	47	397.9953	9216.03	-11466.8	1	14711.31	-51.21067	7.068082E-010	0.011321	6
	35	49	315.5048	9956.65	-13747.07	1	16974.01	-54.08516	6.405141E-010	0.0113278	6
	36	50	252.4038	10789.52	-16396.23	1	19627.79	-56.65311	8.379165E-010	0.0113202	6
	37	51	198.6229	11848.16	-19847.13	1	23114.66	-59.16402	6.341681E-010	0.01132	6
	38	53	158.3615	13047.15	-23810.6	1	27150.93	-61.27922	7.320881E-010	0.0113208	6
	39	54	125.558	14519.58	-28736.26	1	32196.13	-63.19389	7.460099E-010	0.0113198	6
	40	55	100.4464	16216.05	-34450.69	1	38076.37	-64.79349	8.593375E-010	0.0113176	6
	41	57	79.00281	18477.04	-41944.83	1	45834.16	-66.22611	7.855948E-010	0.0113157	6
	42	58	63.3446	20984.45	-50038.43	1	54260.4	-67.24844	5.807752E-010	0.0113141	6
	43	59	49.86702	24454.63	-61204.74	1	65909.41	-68.2206	6.693044E-010	0.0113116	6
	44	61	39.72458	28282.47	-73582.52	1	78830.74	-68.97504	7.071975E-010	0.0113165	6
	45	62	31.6723	33243.77	-88504.05	1	94541.6	-69.41288	3.173966E-010	0.011311	6
	46	64	24.93351	39697.9	-107561.5	1	114653.4	-69.74232	4.202862E-010	0.011314	5
	47	65	19.86229	47306.27	-129318.5	1	137699.5	-69.90687	6.94184E-010	0.0113244	5
	48	66	15.83615	57451.82	-155119.3	1	165416.8	-69.6768	9.371217E-010	0.0113163	5
	49	68	12.40079	70377.71	-189014	1	201691.2	-69.57763	5.381358E-010	0.0113206	5
	50	69	9.93114	84988.98	-225075.1	1	240586.6	-69.31332	3.738846E-010	0.0113095	5
	51	71	7.944915	103746.6	-267565.9	1	286975.4	-68.80658	-2.560898E-011	0.0113246	5
	52	72	6.317385	128385.7	-319071.9	1	343932.8	-68.0815	-1.113278E-011	0.0113312	5
	53	74	5.008013	159939	-379355	1	411692.5	-67.13934	2.773075E-010	0.0113296	5
	54	77	3.945707	200219.3	-451797.6	1	494174.9	-66.09892	1.491782E-010	0.0113153	5
	55	79	3.158693	246112	-528765.5	1	583235.9	-65.04054	2.217026E-010	0.0113308	5
	56	82	2.504006	305578.5	-620707.9	1	691850.1	-63.78868	-1.326769E-010	0.0113146	5
	57	85	1.998082	375377.6	-717672.1	1	809914.6	-62.38823	1.362773E-010	0.0112709	5
	58	88	1.584686	459178.2	-832386.9	1	950638	-61.1171	1.313131E-012	0.0112763	5
	59	92	1.266892	556894.4	-951289	1	1102308	-59.65485	1.12995E-010	0.01127	4
	60	96	0.999041	673306.3	-1094382	1	1284918	-58.39856	-8.731627E-011	0.0113338	4
