EXPLAIN
TAG	EISPOT
TITLE	LABEL	Potentiostatic EIS	Test &Identifier
DATE	LABEL	10/31/2019	Date
TIME	LABEL	23:32:38	Time
NOTES	NOTES	1	&Notes...
	
PSTAT	PSTAT	REF600-11020	Potentiostat
VDC	POTEN	0.00000E+000	T	DC &Voltage (V)
FREQINIT	QUANT	1.00000E+006	Initial Fre&q. (Hz)
FREQFINAL	QUANT	1.00000E+000	Final Fre&q. (Hz)
PTSPERDEC	QUANT	1.00000E+001	Points/&decade
VAC	QUANT	2.50000E+001	AC &Voltage (mV rms)
AREA	QUANT	1.00000E-002	&Area (cm^2)
CONDIT	TWOPARAM	T	5.00000E+000	0.00000E+000	Conditionin&g	Time(s)	E(V)
DELAY	TWOPARAM	T	5.00000E+000	0.00000E+000	Init. De&lay	Time(s)	Stab.(mV/s)
SPEED	SELECTOR	0	&Optimize for:
ZGUESS	QUANT	1.00000E+005	E&stimated Z (ohms)
OCVCURVE	TABLE	19
	Pt	T	Vf	Vm	Ach	Over
	#	s	V vs. Ref.	V	V	bits
	0	0.258333	-3.37722E-003	-3.37722E-003	6.03145E-004	...........
	1	0.516667	-3.38735E-003	-3.90741E-003	5.98312E-004	...........
	2	0.775	-3.44881E-003	-4.37171E-003	5.99579E-004	...........
	3	1.03333	-3.62044E-003	-4.82654E-003	6.03012E-004	...........
	4	1.29167	-3.92338E-003	-5.25350E-003	5.96912E-004	...........
	5	1.55	-4.32115E-003	-5.65203E-003	5.91979E-004	...........
	6	1.80833	-4.75801E-003	-6.09110E-003	6.00379E-004	...........
	7	2.06667	-5.19712E-003	-6.48900E-003	5.96412E-004	...........
	8	2.325	-5.62503E-003	-6.83040E-003	5.97545E-004	...........
	9	2.58333	-6.03661E-003	-7.17964E-003	5.99179E-004	...........
	10	2.84167	-6.42701E-003	-7.51218E-003	5.97012E-004	...........
	11	3.1	-6.79552E-003	-7.85562E-003	5.98445E-004	...........
	12	3.35833	-7.14685E-003	-8.16324E-003	5.94779E-004	...........
	13	3.61667	-7.48589E-003	-8.46496E-003	5.97512E-004	...........
	14	3.875	-7.81360E-003	-8.74361E-003	6.00812E-004	...........
	15	4.13333	-8.12875E-003	-9.04612E-003	5.97845E-004	...........
	16	4.39167	-8.43240E-003	-9.34004E-003	5.99145E-004	...........
	17	4.65	-8.72831E-003	-9.59660E-003	6.00612E-004	...........
	18	4.90833	-9.01866E-003	-9.88501E-003	6.04279E-004	...........
EOC	QUANT	-0.0090187	Open Circuit (V)
PSTATMODEL	IQUANT	4	Pstat Model
PSTATSECTION	LABEL	REF600-11020	Pstat Section
PSTATSERIALNO	LABEL	11020	Pstat Serial Number
CTRLMODE	IQUANT	1	Control Mode
IESTAB	IQUANT	0	I/E Stability
CASPEED	IQUANT	1	Control Amp Speed
CONVENTION	IQUANT	1	Current Convention
ICHRANGE	IQUANT	2	Ich Range
ICHRANGEMODE	TOGGLE	F	Ich Auto Range
ICHOFFSETENABLE	TOGGLE	T	Ich Offset Enable
ICHOFFSET	QUANT	0	Ich Offset (V)
ICHFILTER	IQUANT	3	Ich Filter
VCHRANGE	IQUANT	2	Vch Range
VCHRANGEMODE	TOGGLE	F	Vch Auto Range
VCHOFFSETENABLE	TOGGLE	T	Vch Offset Enable
VCHOFFSET	QUANT	0	Vch Offset (V)
VCHFILTER	IQUANT	3	Vch Filter
ACHRANGE	IQUANT	2	Ach Range
ACHOFFSETENABLE	TOGGLE	F	Ach Offset Enable
ACHOFFSET	QUANT	0	Ach Offset (V)
ACHFILTER	IQUANT	1	Ach Filter
IERANGELOWERLIMIT	IQUANT	1	I/E Range Lower Limit
IERANGEMODE	TOGGLE	F	I/E AutoRange
IERANGE	IQUANT	5	I/E Range
POSFEEDENABLE	TOGGLE	F	Positive Feedback IR Comp
POSFEEDRESISTANCE	QUANT	0	Positive Feedback Resistance (ohm)
ACHSELECT	IQUANT	0	Ach Select
CABLEID	IQUANT	14	Cable ID
DCCALDATE	LABEL	8/19/2019	DC Calibration Date
ACCALDATE	LABEL	8/19/2019	AC Calibration Date
THERMOSELECT	IQUANT	1	Thermo Select
FRAMEWORKVERSION	QUANT	6.33	Framework Version
INSTRUMENTVERSION	LABEL	3.50	Instrument Version
ZCURVE	TABLE
	Pt	Time	Freq	Zreal	Zimag	Zsig	Zmod	Zphz	Idc	Vdc	IERange
	#	s	Hz	ohm	ohm	V	ohm	°	A	V	#
	0	1	1000078	1172.263	-1478.778	1	1887.057	-51.59529	3.084765E-006	-0.0073662	8
	1	2	794390.6	1266.552	-1753.706	1	2163.247	-54.16264	1.466668E-006	-0.0066414	8
	2	2	630984.4	1380.371	-2105.089	1	2517.305	-56.74592	6.707349E-006	-0.0080533	8
	3	2	501234.4	1526.667	-2526.98	1	2952.345	-58.86187	6.757366E-006	-0.0081444	8
	4	3	398109.4	1706.822	-3049.378	1	3494.56	-60.76305	-5.419156E-006	-0.0069651	8
	5	3	316265.6	1970.232	-3684.107	1	4177.854	-61.86248	7.443788E-006	-0.0081832	8
	6	3	251203.1	2277.878	-4436.739	1	4987.322	-62.82346	-1.862611E-006	-0.0076257	8
	7	3	199546.9	2735.567	-5349.621	1	6008.475	-62.91674	-2.420497E-006	-0.0074945	8
	8	4	158578.1	3502.902	-6386.165	1	7283.778	-61.25461	-6.216732E-007	-0.0077112	8
	9	4	125953.1	4286.247	-7478.606	1	8619.829	-60.18149	-1.401635E-006	-0.0052859	7
	10	4	100078.1	5277.345	-8785.287	1	10248.49	-59.00665	1.067956E-006	-0.0095191	7
	11	5	79453.13	6611.811	-10178.22	1	12137.23	-56.9921	-7.803614E-008	-0.0088312	7
	12	5	63140.62	8236.508	-11524	1	14164.83	-54.44559	1.250863E-006	-0.0093518	7
	13	6	50203.12	10235.59	-12756.13	1	16355	-51.25623	-1.417276E-006	-0.0056307	7
	14	6	39890.62	12442.3	-14026.67	1	18749.89	-48.42551	1.251144E-006	-0.0093497	7
	15	6	31640.63	14930.99	-15089.66	1	21228.1	-45.30283	-7.709694E-008	-0.008836	7
	16	7	25171.88	17568.24	-15817.38	1	23639.64	-41.99797	-5.622366E-007	-0.0081743	7
	17	7	20015.62	20348.27	-16305.06	1	26075.02	-38.70518	-1.321358E-006	-0.0066231	7
	18	7	15890.62	22911.91	-16848.29	1	28439.77	-36.32893	-5.621743E-007	-0.0081775	7
	19	8	12609.37	25730.44	-16832.42	1	30747.13	-33.19204	1.212602E-007	-0.0104598	6
	20	8	10078.13	28121.3	-17101.06	1	32912.82	-31.30453	1.957404E-007	-0.0097051	6
	21	8	8015.625	30478.15	-17357.32	1	35074.13	-29.66154	-2.094674E-007	-0.0044275	6
	22	8	6328.125	32995.87	-17879.97	1	37528.93	-28.4526	1.302966E-007	-0.0074327	6
	23	9	5015.625	35474.02	-18433.22	1	39977.36	-27.45756	-1.115776E-007	-0.0080265	6
	24	9	3984.375	37800.3	-18996.47	1	42305.18	-26.68173	-5.471378E-008	-0.0049508	6
	25	9	3170.956	40437.21	-19845.53	1	45044.57	-26.14061	-1.756601E-007	-0.0042156	6
	26	10	2527.573	43225.8	-20947.33	1	48033.95	-25.85494	1.948974E-007	-0.0091853	6
	27	10	1976.103	46185.59	-22010.63	1	51162.26	-25.48104	1.192954E-008	-0.0056589	6
	28	10	1577.524	48465.14	-22394.02	1	53388.78	-24.79998	1.298877E-007	-0.0074337	6
	29	11	1265.625	52277.78	-24691.26	1	57815.43	-25.28178	1.955546E-007	-0.0091785	6
	30	11	998.264	55548.95	-25911.86	1	61295.27	-25.00759	-2.18358E-007	-0.0050375	6
	31	11	796.875	59009.3	-27582.26	1	65137.39	-25.05243	-1.205354E-007	-0.0044358	6
	32	12	627.7902	63366.98	-29790.01	1	70020.13	-25.1791	1.615357E-007	-0.0104589	6
	33	12	505.5147	66775.18	-31189.18	1	73700	-25.03621	-5.407636E-008	-0.0049635	6
	34	13	397.9953	71185.38	-33528	1	78685.99	-25.22023	1.919364E-009	-0.0075167	6
	35	13	315.5048	75435.75	-35871.74	1	83530.44	-25.43235	1.639313E-009	-0.0075224	6
	36	13	252.4038	79631.13	-38543.66	1	88468.8	-25.82826	2.156602E-009	-0.0075265	6
	37	14	198.6229	84435.37	-41738.6	1	94188.33	-26.30438	2.662841E-010	-0.0075139	5
	38	14	158.3615	89205.68	-45563.1	1	100168.1	-27.05634	-1.62282E-010	-0.0075282	5
	39	14	125.558	94340.71	-50407.01	1	106962.8	-28.11595	2.645295E-010	-0.0075241	5
	40	14	100.4464	99117	-55870.78	1	113779.3	-29.40931	1.514788E-009	-0.0075259	5
	41	15	79.00281	105270.3	-61740.41	1	122039.8	-30.39138	8.590367E-010	-0.0075237	5
	42	15	63.3446	117567.3	-72629.95	1	138192.5	-31.70668	4.32284E-010	-0.007528	5
	43	16	49.86702	122923.5	-81949.67	1	147736.1	-33.69028	-4.612108E-010	-0.0075196	5
	44	16	39.72458	129037.9	-89938.04	1	157288.4	-34.87608	4.923784E-010	-0.007522	5
	45	16	31.6723	136762.4	-101831.7	1	170510	-36.67094	-7.143726E-011	-0.0075255	5
	46	17	24.93351	149379.3	-117992.5	1	190358.7	-38.30468	4.889408E-010	-0.0075298	5
	47	17	19.86229	162327.4	-134889.7	1	211057.8	-39.72567	1.134121E-009	-0.0075258	5
	48	17	15.83615	175795.2	-148541.6	1	230149	-40.19679	-1.691648E-009	-0.0075226	5
	49	17	12.40079	194672.7	-177902.9	1	263717.5	-42.42283	1.231363E-009	-0.0075327	5
	50	18	9.93114	212630.7	-206118.5	1	296136.3	-44.10903	-9.272055E-011	-0.007524	5
	51	18	7.944915	234792.5	-235234.5	1	332359.5	-45.05388	-5.150181E-010	-0.0075239	5
	52	19	6.317385	264781.2	-269215.8	1	377605.9	-45.4758	-4.54194E-011	-0.0075105	5
	53	20	5.008013	299972	-308470.1	1	430275.5	-45.80019	1.28477E-010	-0.0075253	5
	54	21	3.945707	342187.8	-351457.3	1	490525	-45.76563	4.049439E-010	-0.0075353	5
	55	22	3.158693	387919.3	-395469.8	1	553965.4	-45.55221	5.801872E-010	-0.0075224	5
	56	24	2.504006	441605.8	-443059.8	1	625553.9	-45.09417	4.461149E-010	-0.007524	5
	57	25	1.998082	499752.8	-492323.3	1	701523.4	-44.57093	1.955221E-010	-0.0075637	5
	58	27	1.584686	561722.8	-546082.7	1	783414.8	-44.19115	3.224495E-010	-0.007525	5
	59	29	1.266892	628861.6	-603090.2	1	871312.1	-43.80159	3.493462E-010	-0.0074979	5
	60	31	0.999041	709211.4	-672929.5	1	977658	-43.4963	4.1898E-010	-0.0074826	5
