EXPLAIN
TAG	EISPOT
TITLE	LABEL	Potentiostatic IDE	Test &Identifier
DATE	LABEL	9/10/2019	Date
TIME	LABEL	8:48:52	Time
NOTES	NOTES	1	&Notes...
	
PSTAT	PSTAT	REF600-11020	Potentiostat
VDC	POTEN	0.00000E+000	T	DC &Voltage (V)
FREQINIT	QUANT	1.00000E+006	Initial Fre&q. (Hz)
FREQFINAL	QUANT	1.00000E+000	Final Fre&q. (Hz)
PTSPERDEC	QUANT	1.00000E+001	Points/&decade
VAC	QUANT	2.50000E+001	AC &Voltage (mV rms)
AREA	QUANT	1.00000E-002	&Area (cm^2)
CONDIT	TWOPARAM	T	5.00000E+000	0.00000E+000	Conditionin&g	Time(s)	E(V)
DELAY	TWOPARAM	T	5.00000E+000	0.00000E+000	Init. De&lay	Time(s)	Stab.(mV/s)
SPEED	SELECTOR	1	&Optimize for:
ZGUESS	QUANT	1.00000E+007	E&stimated Z (ohms)
OCVCURVE	TABLE	19
	Pt	T	Vf	Vm	Ach	Over
	#	s	V vs. Ref.	V	V	bits
	0	0.258333	4.55461E-003	4.55461E-003	5.62966E-004	...........
	1	0.516667	4.54973E-003	4.29942E-003	5.62666E-004	...........
	2	0.775	4.52017E-003	4.07711E-003	5.65499E-004	...........
	3	1.03333	4.43815E-003	3.88263E-003	5.67099E-004	...........
	4	1.29167	4.29566E-003	3.71102E-003	5.62632E-004	...........
	5	1.55	4.11399E-003	3.55626E-003	5.66466E-004	...........
	6	1.80833	3.92323E-003	3.41325E-003	5.63399E-004	...........
	7	2.06667	3.74297E-003	3.28026E-003	5.59499E-004	...........
	8	2.325	3.57963E-003	3.16031E-003	5.62966E-004	...........
	9	2.58333	3.43236E-003	3.04746E-003	5.67066E-004	...........
	10	2.84167	3.29844E-003	2.94211E-003	5.69099E-004	...........
	11	3.1	3.17539E-003	2.84310E-003	5.62166E-004	...........
	12	3.35833	3.06136E-003	2.75196E-003	5.64166E-004	...........
	13	3.61667	2.95497E-003	2.65845E-003	5.61499E-004	...........
	14	3.875	2.85491E-003	2.57135E-003	5.61166E-004	...........
	15	4.13333	2.75986E-003	2.49180E-003	5.61266E-004	...........
	16	4.39167	2.66902E-003	2.40992E-003	5.65232E-004	...........
	17	4.65	2.58212E-003	2.33293E-003	5.61432E-004	...........
	18	4.90833	2.49865E-003	2.25198E-003	5.63999E-004	...........
EOC	QUANT	0.0024986	Open Circuit (V)
PSTATMODEL	IQUANT	4	Pstat Model
PSTATSECTION	LABEL	REF600-11020	Pstat Section
PSTATSERIALNO	LABEL	11020	Pstat Serial Number
CTRLMODE	IQUANT	1	Control Mode
IESTAB	IQUANT	0	I/E Stability
CASPEED	IQUANT	1	Control Amp Speed
CONVENTION	IQUANT	1	Current Convention
ICHRANGE	IQUANT	2	Ich Range
ICHRANGEMODE	TOGGLE	F	Ich Auto Range
ICHOFFSETENABLE	TOGGLE	T	Ich Offset Enable
ICHOFFSET	QUANT	0	Ich Offset (V)
ICHFILTER	IQUANT	3	Ich Filter
VCHRANGE	IQUANT	2	Vch Range
VCHRANGEMODE	TOGGLE	F	Vch Auto Range
VCHOFFSETENABLE	TOGGLE	T	Vch Offset Enable
VCHOFFSET	QUANT	0	Vch Offset (V)
VCHFILTER	IQUANT	3	Vch Filter
ACHRANGE	IQUANT	2	Ach Range
ACHOFFSETENABLE	TOGGLE	F	Ach Offset Enable
ACHOFFSET	QUANT	0	Ach Offset (V)
ACHFILTER	IQUANT	3	Ach Filter
IERANGELOWERLIMIT	IQUANT	1	I/E Range Lower Limit
IERANGEMODE	TOGGLE	F	I/E AutoRange
IERANGE	IQUANT	2	I/E Range
POSFEEDENABLE	TOGGLE	F	Positive Feedback IR Comp
POSFEEDRESISTANCE	QUANT	0	Positive Feedback Resistance (ohm)
ACHSELECT	IQUANT	0	Ach Select
CABLEID	IQUANT	14	Cable ID
DCCALDATE	LABEL	8/19/2019	DC Calibration Date
ACCALDATE	LABEL	8/19/2019	AC Calibration Date
THERMOSELECT	IQUANT	1	Thermo Select
FRAMEWORKVERSION	QUANT	6.33	Framework Version
INSTRUMENTVERSION	LABEL	3.50	Instrument Version
ZCURVE	TABLE
	Pt	Time	Freq	Zreal	Zimag	Zsig	Zmod	Zphz	Idc	Vdc	IERange
	#	s	Hz	ohm	ohm	V	ohm	°	A	V	#
	0	2	1000078	2631.84	-1558.349	1	3058.6	-30.63036	-4.878962E-006	0.0052636	8
	1	3	794390.6	2928.389	-1420.535	1	3254.747	-25.8776	1.962782E-007	0.0049987	8
	2	5	630984.4	3168.597	-1283.59	1	3418.715	-22.05274	2.768187E-006	0.0038748	8
	3	6	501234.4	3346.877	-1116.332	1	3528.141	-18.44583	3.453549E-006	0.0035868	8
	4	7	398109.4	3491.769	-975.717	1	3625.531	-15.61213	-1.577747E-006	0.0044517	8
	5	9	316265.6	3605.223	-841.8702	1	3702.212	-13.14384	2.51623E-006	0.0037368	8
	6	10	251203.1	3684.945	-723.6139	1	3755.322	-11.10983	2.276402E-006	0.0037293	8
	7	11	199546.9	3747.409	-642.6716	1	3802.118	-9.73142	-6.067439E-007	0.0043793	8
	8	13	158578.1	3800.906	-561.7602	1	3842.195	-8.407246	-1.13761E-006	0.0043703	8
	9	14	125953.1	3853.34	-465.5481	1	3881.361	-6.888902	5.182065E-007	0.0030328	7
	10	15	100078.1	3879.095	-432.7665	1	3903.161	-6.365811	3.463828E-008	0.0039901	7
	11	17	79453.13	3910.156	-415.7911	1	3932.201	-6.069805	-1.940815E-008	0.0040829	7
	12	18	63140.62	3943.923	-408.4442	1	3965.016	-5.912641	3.127069E-008	0.0040606	7
	13	19	50203.12	3978.874	-411.0089	1	4000.046	-5.897609	-1.791885E-008	0.0040862	7
	14	21	39890.62	4014.671	-421.6488	1	4036.753	-5.995621	6.494089E-008	0.0039683	7
	15	22	31640.63	4056.344	-448.8387	1	4081.101	-6.314152	-6.085753E-008	0.004279	7
	16	23	25171.88	4097.441	-481.167	1	4125.597	-6.697631	-5.137496E-008	0.0041867	7
	17	25	20015.62	4140.766	-524.746	1	4173.883	-7.222412	9.214145E-008	0.0039698	7
	18	26	15890.62	4193.478	-581.8476	1	4233.651	-7.899389	5.354088E-008	0.0040066	7
	19	27	12609.37	4247.24	-647.6962	1	4296.342	-8.670698	5.060829E-009	0.0041678	7
	20	29	10078.13	4302.634	-727.6871	1	4363.735	-9.59937	7.26169E-008	0.0040314	7
	21	30	8015.625	4369.342	-826.4579	1	4446.817	-10.71091	7.55939E-008	0.0040302	7
	22	31	6328.125	4444.914	-947.9184	1	4544.866	-12.03851	5.332836E-008	0.0040023	7
	23	33	5015.625	4526.887	-1092.401	1	4656.828	-13.56689	-9.348943E-009	0.0041361	7
	24	34	3984.375	4612.619	-1264.933	1	4782.918	-15.3354	-1.611861E-008	0.0040758	7
	25	35	3170.956	4712.281	-1470.82	1	4936.487	-17.33443	6.755528E-008	0.0039641	7
	26	37	2527.573	4817.802	-1717.212	1	5114.688	-19.61762	-3.534078E-009	0.0040871	7
	27	38	1976.103	4948.713	-2043.389	1	5353.989	-22.43638	-1.388706E-008	0.0041185	7
	28	39	1577.524	5084.641	-2407.627	1	5625.855	-25.33801	8.481586E-009	0.0041684	7
	29	41	1265.625	5229.617	-2829.572	1	5946.039	-28.41635	-1.649211E-008	0.0040755	7
	30	42	998.264	5404.514	-3384.148	1	6376.616	-32.05359	5.132773E-008	0.0040069	7
	31	43	796.875	5597.269	-4036.337	1	6900.828	-35.79636	-5.630941E-008	0.0041674	7
	32	45	627.7902	5831.47	-4876.094	1	7601.47	-39.90132	9.387101E-008	0.0039588	7
	33	46	505.5147	6078.35	-5798.422	1	8400.478	-43.64983	-5.383424E-008	0.0041716	7
	34	47	397.9953	6390.314	-7053.686	1	9517.91	-47.82487	4.494907E-009	0.0041182	7
	35	49	315.5048	6754.419	-8548.061	1	10894.56	-51.68528	6.665601E-010	0.0040537	6
	36	50	252.4038	7165.907	-10302.47	1	12549.55	-55.17938	1.003149E-009	0.004055	6
	37	51	198.6229	7698.409	-12610.41	1	14774.57	-58.59674	1.136012E-009	0.0040506	6
	38	52	158.3615	8301.806	-15286.79	1	17395.57	-61.49492	8.441945E-010	0.0040486	6
	39	54	125.558	9057.043	-18641.61	1	20725.34	-64.08717	7.588898E-010	0.0040538	6
	40	55	100.4464	9921.83	-22581.08	1	24664.71	-66.27995	1.307853E-009	0.0040518	6
	41	56	79.00281	11065.44	-27774.3	1	29897.43	-68.27737	5.300934E-010	0.0040464	6
	42	58	63.3446	12474.72	-33794.93	1	36023.83	-69.7394	6.485952E-010	0.0040454	6
	43	59	49.86702	14142.73	-41336.65	1	43689.08	-71.11237	3.626249E-010	0.0040429	6
	44	61	39.72458	16480.52	-50499.42	1	53120.61	-71.92587	8.355383E-010	0.0040513	6
	45	62	31.6723	19322.69	-61384.01	1	64353.42	-72.52685	6.758359E-010	0.0040478	6
	46	63	24.93351	23284.95	-75535.52	1	79043.05	-72.8673	5.244983E-010	0.0040544	6
	47	65	19.86229	28238.66	-91732.46	1	95980.6	-72.88969	5.408665E-010	0.0040469	6
	48	66	15.83615	34248.57	-111346.9	1	116495.1	-72.90292	1.060138E-009	0.0040584	5
	49	67	12.40079	44302.08	-136042.5	1	143074.2	-71.96222	-2.380119E-010	0.0040621	5
	50	69	9.93114	54564.36	-163187.7	1	172068.3	-71.51184	4.343683E-010	0.0040523	5
	51	70	7.944915	68114.36	-195055.3	1	206606.2	-70.75052	1.828516E-010	0.0040595	5
	52	72	6.317385	86106.97	-232917.9	1	248324.7	-69.71125	1.658262E-010	0.0040613	5
	53	74	5.008013	109356.4	-277813.3	1	298561.6	-68.51378	1.628793E-010	0.0040521	5
	54	77	3.945707	138779.3	-330533.4	1	358485.8	-67.22419	2.555523E-010	0.0040597	5
	55	79	3.158693	172764.1	-386799.5	1	423628.7	-65.93206	2.036296E-010	0.0040433	5
	56	82	2.504006	215128.9	-453232.1	1	501696.9	-64.60841	4.30153E-010	0.0040599	5
	57	85	1.998082	264959.6	-526118.1	1	589070.3	-63.26961	4.115173E-010	0.0040889	5
	58	88	1.584686	324637.8	-607883.6	1	689138.8	-61.89573	3.019237E-010	0.0040382	5
	59	92	1.266892	394194.3	-699492.1	1	802918.6	-60.59685	2.364198E-010	0.0040939	5
	60	96	0.999041	477601.7	-805438.4	1	936394.3	-59.33328	1.516091E-010	0.0040127	5
