EXPLAIN
TAG	EISPOT
TITLE	LABEL	Potentiostatic EIS	Test &Identifier
DATE	LABEL	10/6/2019	Date
TIME	LABEL	10:13:49	Time
NOTES	NOTES	2	&Notes...
	
	
PSTAT	PSTAT	REF600-11020	Potentiostat
VDC	POTEN	0.00000E+000	T	DC &Voltage (V)
FREQINIT	QUANT	1.00000E+006	Initial Fre&q. (Hz)
FREQFINAL	QUANT	1.00000E+000	Final Fre&q. (Hz)
PTSPERDEC	QUANT	1.00000E+001	Points/&decade
VAC	QUANT	2.50000E+001	AC &Voltage (mV rms)
AREA	QUANT	1.00000E-002	&Area (cm^2)
CONDIT	TWOPARAM	T	5.00000E+000	0.00000E+000	Conditionin&g	Time(s)	E(V)
DELAY	TWOPARAM	T	5.00000E+000	0.00000E+000	Init. De&lay	Time(s)	Stab.(mV/s)
SPEED	SELECTOR	1	&Optimize for:
ZGUESS	QUANT	1.00000E+004	E&stimated Z (ohms)
OCVCURVE	TABLE	19
	Pt	T	Vf	Vm	Ach	Over
	#	s	V vs. Ref.	V	V	bits
	0	0.258333	4.72967E-003	4.72967E-003	5.47299E-004	...........
	1	0.516667	4.72623E-003	4.54936E-003	5.47466E-004	...........
	2	0.775	4.70520E-003	4.38478E-003	5.49233E-004	...........
	3	1.03333	4.64642E-003	4.24325E-003	5.44433E-004	...........
	4	1.29167	4.54395E-003	4.13595E-003	5.42833E-004	...........
	5	1.55	4.41378E-003	4.01646E-003	5.44199E-004	...........
	6	1.80833	4.27810E-003	3.90791E-003	5.44433E-004	...........
	7	2.06667	4.14948E-003	3.79742E-003	5.48733E-004	...........
	8	2.325	4.03137E-003	3.77141E-003	5.48099E-004	...........
	9	2.58333	3.93018E-003	3.87802E-003	5.49799E-004	...........
	10	2.84167	3.86082E-003	3.84071E-003	5.45566E-004	...........
	11	3.1	3.82574E-003	3.54570E-003	5.44699E-004	...........
	12	3.35833	3.79208E-003	3.40676E-003	5.52799E-004	...........
	13	3.61667	3.71882E-003	3.36923E-003	5.47133E-004	...........
	14	3.875	3.60552E-003	3.30750E-003	5.56999E-004	...........
	15	4.13333	3.48654E-003	3.23979E-003	5.55733E-004	...........
	16	4.39167	3.38618E-003	3.10932E-003	5.52033E-004	...........
	17	4.65	3.30237E-003	3.09724E-003	5.50499E-004	...........
	18	4.90833	3.22704E-003	3.09011E-003	5.56099E-004	...........
EOC	QUANT	0.003227	Open Circuit (V)
PSTATMODEL	IQUANT	4	Pstat Model
PSTATSECTION	LABEL	REF600-11020	Pstat Section
PSTATSERIALNO	LABEL	11020	Pstat Serial Number
CTRLMODE	IQUANT	1	Control Mode
IESTAB	IQUANT	0	I/E Stability
CASPEED	IQUANT	1	Control Amp Speed
CONVENTION	IQUANT	1	Current Convention
ICHRANGE	IQUANT	2	Ich Range
ICHRANGEMODE	TOGGLE	F	Ich Auto Range
ICHOFFSETENABLE	TOGGLE	T	Ich Offset Enable
ICHOFFSET	QUANT	0	Ich Offset (V)
ICHFILTER	IQUANT	3	Ich Filter
VCHRANGE	IQUANT	2	Vch Range
VCHRANGEMODE	TOGGLE	F	Vch Auto Range
VCHOFFSETENABLE	TOGGLE	T	Vch Offset Enable
VCHOFFSET	QUANT	0	Vch Offset (V)
VCHFILTER	IQUANT	3	Vch Filter
ACHRANGE	IQUANT	2	Ach Range
ACHOFFSETENABLE	TOGGLE	F	Ach Offset Enable
ACHOFFSET	QUANT	0	Ach Offset (V)
ACHFILTER	IQUANT	3	Ach Filter
IERANGELOWERLIMIT	IQUANT	1	I/E Range Lower Limit
IERANGEMODE	TOGGLE	F	I/E AutoRange
IERANGE	IQUANT	5	I/E Range
POSFEEDENABLE	TOGGLE	F	Positive Feedback IR Comp
POSFEEDRESISTANCE	QUANT	0	Positive Feedback Resistance (ohm)
ACHSELECT	IQUANT	0	Ach Select
CABLEID	IQUANT	14	Cable ID
DCCALDATE	LABEL	8/19/2019	DC Calibration Date
ACCALDATE	LABEL	8/19/2019	AC Calibration Date
THERMOSELECT	IQUANT	1	Thermo Select
FRAMEWORKVERSION	QUANT	6.33	Framework Version
INSTRUMENTVERSION	LABEL	3.50	Instrument Version
ZCURVE	TABLE
	Pt	Time	Freq	Zreal	Zimag	Zsig	Zmod	Zphz	Idc	Vdc	IERange
	#	s	Hz	ohm	ohm	V	ohm	°	A	V	#
	0	1	1000078	2416.135	-1897.093	1	3071.916	-38.13818	1.04065E-005	0.0040286	8
	1	2	794390.6	2794.064	-1863.247	1	3358.346	-33.6977	-4.213333E-006	0.0051765	8
	2	4	630984.4	3159.573	-1760.469	1	3616.926	-29.12593	-9.007479E-007	0.0054517	8
	3	5	501234.4	3474.739	-1610.573	1	3829.851	-24.86815	5.31381E-006	0.0038252	8
	4	7	398109.4	3739.946	-1436.401	1	4006.301	-21.01029	-2.826297E-006	0.0053061	8
	5	8	316265.6	3956.328	-1265.467	1	4153.787	-17.73734	1.16158E-006	0.0047966	8
	6	9	251203.1	4109.824	-1097.12	1	4253.742	-14.94661	-2.352669E-006	0.0054515	8
	7	11	199546.9	4235.583	-964.508	1	4344.012	-12.82839	9.699198E-007	0.004795	8
	8	12	158578.1	4315.48	-826.0652	1	4393.832	-10.83642	2.149084E-006	0.0043278	8
	9	14	125953.1	4406.381	-671.705	1	4457.284	-8.667394	1.414569E-006	0.0017504	7
	10	15	100078.1	4456.031	-592.4505	1	4495.243	-7.57333	-3.250209E-008	0.0047814	7
	11	16	79453.13	4501.996	-541.951	1	4534.499	-6.864244	-8.681884E-008	0.0049029	7
	12	18	63140.62	4544.33	-504.5681	1	4572.255	-6.335741	5.748987E-008	0.0046872	7
	13	19	50203.12	4583.309	-480.5923	1	4608.437	-5.985992	-5.764925E-008	0.0048457	7
	14	20	39890.62	4620.462	-470.0296	1	4644.309	-5.808593	-6.94394E-009	0.0047581	7
	15	22	31640.63	4658.906	-470.2086	1	4682.574	-5.763167	-6.553784E-008	0.0048914	7
	16	23	25171.88	4695.023	-485.0259	1	4720.01	-5.898098	-6.862663E-009	0.0048253	7
	17	25	20015.62	4735.423	-509.9331	1	4762.8	-6.1462	-8.440605E-008	0.0048954	7
	18	26	15890.62	4774.221	-548.2244	1	4805.594	-6.55059	-9.867767E-009	0.0047955	7
	19	27	12609.37	4814.247	-603.2878	1	4851.899	-7.142675	1.280151E-007	0.0045828	7
	20	29	10078.13	4857.458	-674.9526	1	4904.127	-7.910699	1.644362E-008	0.0047006	7
	21	30	8015.625	4901.456	-754.7423	1	4959.224	-8.753839	1.99066E-008	0.004863	7
	22	31	6328.125	4955.134	-883.8143	1	5033.337	-10.11312	-5.634129E-008	0.0048433	7
	23	33	5015.625	5009.552	-1031.981	1	5114.743	-11.64025	8.822529E-008	0.0045964	7
	24	34	3984.375	5067.001	-1213.046	1	5210.181	-13.46329	-4.281286E-008	0.0047802	7
	25	35	3170.956	5136.213	-1436.408	1	5333.287	-15.62433	4.899496E-008	0.0046303	7
	26	37	2527.573	5210.714	-1708.503	1	5483.66	-18.15342	-9.305191E-009	0.0048282	7
	27	38	1976.103	5305.128	-2075.416	1	5696.643	-21.3659	1.597639E-008	0.0046922	7
	28	39	1577.524	5403.776	-2494.56	1	5951.775	-24.7796	-6.66474E-008	0.0048988	7
	29	41	1265.625	5514.422	-2991.804	1	6273.734	-28.48168	-1.027283E-008	0.0047951	7
	30	42	998.264	5659.121	-3646.599	1	6732.261	-32.79674	4.900518E-008	0.0047126	7
	31	43	796.875	5820.378	-4416.861	1	7306.536	-37.19347	-3.560523E-009	0.0047117	7
	32	45	627.7902	6026.315	-5427.474	1	8110.114	-42.00711	-5.203323E-008	0.0048833	7
	33	46	505.5147	6293.019	-6534.376	1	9071.943	-46.07793	5.1046E-008	0.0047175	7
	34	47	397.9953	6574.804	-8054.715	1	10397.43	-50.77635	8.51907E-010	0.0047368	6
	35	49	315.5048	6960.746	-9874.65	1	12081.42	-54.81957	9.155134E-010	0.0047332	6
	36	50	252.4038	7433.792	-12020.21	1	14133.17	-58.26564	5.595792E-010	0.0047333	6
	37	52	198.6229	8091.69	-14843.75	1	16905.98	-61.40412	9.838377E-010	0.0047345	6
	38	53	158.3615	8907.07	-18118.7	1	20189.68	-63.82148	8.5826E-010	0.0047304	6
	39	54	125.558	10023.86	-22198.72	1	24356.95	-65.69839	8.059315E-010	0.0047324	6
	40	56	100.4464	11450.04	-26935.34	1	29268	-66.96996	1.705207E-009	0.0047276	6
	41	57	79.00281	13517.5	-33179.78	1	35827.65	-67.83392	1.394266E-009	0.0047269	6
	42	58	63.3446	15763.2	-40045.49	1	43036.26	-68.51379	4.638874E-010	0.0047227	6
	43	60	49.86702	19963.34	-48473.74	1	52423.64	-67.61626	3.16132E-010	0.0047237	6
	44	61	39.72458	24507.34	-58277.87	1	63221.2	-67.192	1.093186E-009	0.0047291	6
	45	63	31.6723	30474.5	-69299.41	1	75704.05	-66.26245	1.223852E-009	0.0047279	6
	46	64	24.93351	39005.56	-82527.52	1	91281.03	-64.70285	1.237465E-009	0.00473	6
	47	65	19.86229	48954.75	-96292.5	1	108022.3	-63.05139	3.403079E-010	0.0047399	5
	48	67	15.83615	60740.64	-110926.2	1	126467.6	-61.29591	-2.101063E-010	0.0047323	5
	49	68	12.40079	75706.5	-127595.4	1	148364.6	-59.31797	5.091506E-010	0.0047293	5
	50	70	9.93114	92446.8	-144415.5	1	171470.8	-57.37487	3.517347E-011	0.004736	5
	51	71	7.944915	109807	-161633	1	195404.2	-55.80938	8.644243E-010	0.0047352	5
	52	73	6.317385	128600.3	-180948	1	221991.5	-54.59849	9.603712E-012	0.0047487	5
	53	75	5.008013	149102.8	-202955.2	1	251838.1	-53.69682	3.266057E-010	0.0047364	5
	54	78	3.945707	170584.3	-229244.3	1	285748.1	-53.34647	5.523467E-010	0.0047401	5
	55	80	3.158693	192138.7	-258325.5	1	321946.2	-53.35867	9.70144E-011	0.0047355	5
	56	84	2.504006	215970.3	-294731.8	1	365390.3	-53.7672	6.520587E-010	0.0047348	5
	57	86	1.998082	240979.8	-337536.4	1	414731.3	-54.47554	3.133916E-010	0.0047742	5
	58	89	1.584686	268714.4	-389687.3	1	473353.7	-55.41124	3.02583E-010	0.0047257	5
	59	93	1.266892	300869.1	-452332.9	1	543256.2	-56.37015	2.985025E-010	0.0047742	5
	60	97	0.999041	339288.8	-530600.2	1	629804.3	-57.40339	1.665545E-010	0.0047011	5
