EXPLAIN
TAG	EISPOT
TITLE	LABEL	Potentiostatic EIS	Test &Identifier
DATE	LABEL	10/4/2019	Date
TIME	LABEL	10:42:12	Time
NOTES	NOTES	2	&Notes...
	
	
PSTAT	PSTAT	REF600-11020	Potentiostat
VDC	POTEN	0.00000E+000	T	DC &Voltage (V)
FREQINIT	QUANT	1.00000E+006	Initial Fre&q. (Hz)
FREQFINAL	QUANT	1.00000E+000	Final Fre&q. (Hz)
PTSPERDEC	QUANT	1.00000E+001	Points/&decade
VAC	QUANT	2.50000E+001	AC &Voltage (mV rms)
AREA	QUANT	1.00000E-002	&Area (cm^2)
CONDIT	TWOPARAM	T	5.00000E+000	0.00000E+000	Conditionin&g	Time(s)	E(V)
DELAY	TWOPARAM	T	5.00000E+000	0.00000E+000	Init. De&lay	Time(s)	Stab.(mV/s)
SPEED	SELECTOR	1	&Optimize for:
ZGUESS	QUANT	1.00000E+004	E&stimated Z (ohms)
OCVCURVE	TABLE	19
	Pt	T	Vf	Vm	Ach	Over
	#	s	V vs. Ref.	V	V	bits
	0	0.258333	6.68514E-003	6.68514E-003	5.58832E-004	...........
	1	0.516667	6.68490E-003	6.67252E-003	5.61166E-004	...........
	2	0.775	6.68432E-003	6.70788E-003	5.60966E-004	...........
	3	1.03333	6.68624E-003	6.77010E-003	5.55699E-004	...........
	4	1.29167	6.69695E-003	6.78344E-003	5.57399E-004	...........
	5	1.55	6.72075E-003	6.87493E-003	5.59999E-004	...........
	6	1.80833	6.75716E-003	6.91366E-003	5.58399E-004	...........
	7	2.06667	6.80301E-003	6.93818E-003	5.68232E-004	...........
	8	2.325	6.85283E-003	7.01114E-003	5.62899E-004	...........
	9	2.58333	6.90190E-003	7.04218E-003	5.61032E-004	...........
	10	2.84167	6.94954E-003	7.09456E-003	5.68166E-004	...........
	11	3.1	6.99640E-003	7.13078E-003	5.57466E-004	...........
	12	3.35833	7.04252E-003	7.19486E-003	5.62066E-004	...........
	13	3.61667	7.08848E-003	7.22465E-003	5.60166E-004	...........
	14	3.875	7.13462E-003	7.26775E-003	5.65266E-004	...........
	15	4.13333	7.18008E-003	7.32169E-003	5.63166E-004	...........
	16	4.39167	7.22452E-003	7.35711E-003	5.58999E-004	...........
	17	4.65	7.26851E-003	7.39851E-003	5.61266E-004	...........
	18	4.90833	7.31197E-003	7.44135E-003	5.61666E-004	...........
EOC	QUANT	0.007312	Open Circuit (V)
PSTATMODEL	IQUANT	4	Pstat Model
PSTATSECTION	LABEL	REF600-11020	Pstat Section
PSTATSERIALNO	LABEL	11020	Pstat Serial Number
CTRLMODE	IQUANT	1	Control Mode
IESTAB	IQUANT	0	I/E Stability
CASPEED	IQUANT	1	Control Amp Speed
CONVENTION	IQUANT	1	Current Convention
ICHRANGE	IQUANT	2	Ich Range
ICHRANGEMODE	TOGGLE	F	Ich Auto Range
ICHOFFSETENABLE	TOGGLE	T	Ich Offset Enable
ICHOFFSET	QUANT	0	Ich Offset (V)
ICHFILTER	IQUANT	3	Ich Filter
VCHRANGE	IQUANT	2	Vch Range
VCHRANGEMODE	TOGGLE	F	Vch Auto Range
VCHOFFSETENABLE	TOGGLE	T	Vch Offset Enable
VCHOFFSET	QUANT	0	Vch Offset (V)
VCHFILTER	IQUANT	3	Vch Filter
ACHRANGE	IQUANT	2	Ach Range
ACHOFFSETENABLE	TOGGLE	F	Ach Offset Enable
ACHOFFSET	QUANT	0	Ach Offset (V)
ACHFILTER	IQUANT	3	Ach Filter
IERANGELOWERLIMIT	IQUANT	1	I/E Range Lower Limit
IERANGEMODE	TOGGLE	F	I/E AutoRange
IERANGE	IQUANT	6	I/E Range
POSFEEDENABLE	TOGGLE	F	Positive Feedback IR Comp
POSFEEDRESISTANCE	QUANT	0	Positive Feedback Resistance (ohm)
ACHSELECT	IQUANT	0	Ach Select
CABLEID	IQUANT	14	Cable ID
DCCALDATE	LABEL	8/19/2019	DC Calibration Date
ACCALDATE	LABEL	8/19/2019	AC Calibration Date
THERMOSELECT	IQUANT	1	Thermo Select
FRAMEWORKVERSION	QUANT	6.33	Framework Version
INSTRUMENTVERSION	LABEL	3.50	Instrument Version
ZCURVE	TABLE
	Pt	Time	Freq	Zreal	Zimag	Zsig	Zmod	Zphz	Idc	Vdc	IERange
	#	s	Hz	ohm	ohm	V	ohm	°	A	V	#
	0	1	1000078	2438.134	-1742.184	1	2996.615	-35.54794	-1.67125E-006	0.009284	8
	1	3	794390.6	2785.026	-1688.008	1	3256.646	-31.22012	1.476942E-007	0.0090919	8
	2	4	630984.4	3104.683	-1574.403	1	3481.063	-26.88983	-2.335774E-006	0.0095176	8
	3	5	501234.4	3390.956	-1429.283	1	3679.869	-22.85536	-1.973124E-008	0.0089676	8
	4	7	398109.4	3610.841	-1257.146	1	3823.427	-19.19602	3.076884E-006	0.0083817	8
	5	8	316265.6	3777.663	-1114.752	1	3938.707	-16.44082	2.969168E-006	0.0082574	8
	6	9	251203.1	3930.142	-952.24	1	4043.857	-13.61981	-4.192341E-007	0.0088598	8
	7	11	199546.9	4010.527	-811.2741	1	4091.759	-11.43583	-2.884694E-007	0.0088604	8
	8	12	158578.1	4089.435	-696.5942	1	4148.34	-9.66698	-4.179764E-007	0.0088624	8
	9	13	125953.1	4157.894	-570.0502	1	4196.789	-7.806622	-4.281282E-007	0.010097	7
	10	15	100078.1	4195.826	-498.4695	1	4225.332	-6.775057	7.666747E-008	0.008733	7
	11	16	79453.13	4233.403	-450.8853	1	4257.346	-6.07946	-3.001113E-008	0.0088036	7
	12	17	63140.62	4266.95	-414.344	1	4287.02	-5.546342	-1.419958E-008	0.0087636	7
	13	19	50203.12	4296.505	-390.2946	1	4314.196	-5.190504	2.180754E-009	0.0087589	7
	14	20	39890.62	4325.637	-377.347	1	4342.064	-4.985577	9.412295E-008	0.0086548	7
	15	21	31640.63	4354.95	-374.5266	1	4371.025	-4.915356	-6.964242E-009	0.0087966	7
	16	23	25171.88	4383.356	-383.2489	1	4400.078	-4.996821	-3.725741E-008	0.0088801	7
	17	24	20015.62	4412.96	-401.26	1	4431.165	-5.195483	9.290876E-008	0.008651	7
	18	25	15890.62	4443.264	-429.7055	1	4463.994	-5.523864	6.743026E-008	0.0086485	7
	19	27	12609.37	4474.354	-469.7971	1	4498.95	-5.993966	3.916548E-008	0.0087449	7
	20	28	10078.13	4507.946	-524.7415	1	4538.384	-6.639558	-3.706678E-008	0.0088324	7
	21	30	8015.625	4543.466	-595.2439	1	4582.292	-7.463866	6.742246E-008	0.0086406	7
	22	31	6328.125	4583.063	-687.3897	1	4634.326	-8.529912	-3.728088E-008	0.0088248	7
	23	32	5015.625	4624.879	-802.8912	1	4694.054	-9.84854	1.386358E-008	0.0088494	7
	24	34	3984.375	4671.217	-944.4586	1	4765.739	-11.43036	-4.353329E-008	0.0088611	7
	25	35	3170.956	4723.514	-1117.989	1	4854.017	-13.31606	6.788033E-008	0.0086437	7
	26	36	2527.573	4782.985	-1330.814	1	4964.676	-15.54865	-2.896256E-008	0.0087892	7
	27	38	1976.103	4857.922	-1615.218	1	5119.408	-18.39153	-3.851309E-009	0.008822	7
	28	39	1577.524	4935.915	-1938.968	1	5303.098	-21.44632	-3.459457E-008	0.0088697	7
	29	40	1265.625	5025.41	-2322.244	1	5536.024	-24.80168	-1.192274E-008	0.0088078	7
	30	42	998.264	5134.103	-2829.253	1	5862.055	-28.85787	1.418516E-008	0.0088507	7
	31	43	796.875	5254.586	-3421.63	1	6270.425	-33.07097	1.322913E-008	0.0088463	7
	32	44	627.7902	5403.71	-4192.003	1	6839.077	-37.80302	-1.313071E-008	0.0087587	7
	33	46	505.5147	5571.702	-5066.037	1	7530.51	-42.27849	-5.071414E-008	0.0089395	7
	34	47	397.9953	5776.875	-6235.162	1	8499.972	-47.18491	3.654696E-009	0.0088042	7
	35	48	315.5048	6030.392	-7653.155	1	9743.53	-51.76325	4.437258E-009	0.0088037	7
	36	50	252.4038	6334.163	-9330.954	1	11277.78	-55.83003	5.724253E-010	0.0087428	6
	37	51	198.6229	6744.085	-11554.95	1	13379.07	-59.72989	1.062759E-009	0.0087416	6
	38	52	158.3615	7241.82	-14147.59	1	15893.34	-62.89315	1.079282E-009	0.0087416	6
	39	54	125.558	7898.098	-17411.73	1	19119.32	-65.60058	7.986594E-010	0.0087422	6
	40	55	100.4464	8715.207	-21233.75	1	22952.71	-67.68473	8.321278E-010	0.0087414	6
	41	57	79.00281	9861.38	-26313.96	1	28101.09	-69.45609	5.43643E-010	0.0087383	6
	42	58	63.3446	11353.34	-32022.63	1	33975.69	-70.47849	4.554467E-010	0.0087388	6
	43	59	49.86702	13176.81	-39461.93	1	41603.75	-71.53522	7.818187E-010	0.008737	6
	44	61	39.72458	15729.1	-47967.46	1	50480.51	-71.84507	8.179566E-010	0.0087419	6
	45	62	31.6723	18907.61	-58278.36	1	61268.79	-72.02505	1.253586E-009	0.0087415	6
	46	63	24.93351	23479.2	-71287.24	1	75054.27	-71.77016	7.760626E-010	0.0087407	6
	47	65	19.86229	29165.68	-86140.02	1	90943.6	-71.29469	4.314015E-010	0.0087417	6
	48	66	15.83615	36060	-103356.4	1	109466.3	-70.76663	1.292058E-010	0.0087485	5
	49	67	12.40079	46903.18	-125928	1	134379.2	-69.57163	-2.569454E-010	0.0087474	5
	50	69	9.93114	58770.55	-148855.7	1	160037.5	-68.45512	4.764012E-010	0.008749	5
	51	70	7.944915	74350.64	-175802.2	1	190878	-67.07542	7.515913E-010	0.0087505	5
	52	72	6.317385	94124.7	-206586.6	1	227018.7	-65.50511	1.955876E-010	0.0087687	5
	53	74	5.008013	119226.6	-241410.2	1	269246.9	-63.71635	4.157556E-010	0.0087557	5
	54	77	3.945707	150276.3	-280880	1	318553.8	-61.85234	4.052252E-011	0.0087515	5
	55	79	3.158693	184104.5	-320240.6	1	369389.3	-60.10565	2.943937E-010	0.0087734	5
	56	82	2.504006	224935.4	-365296.4	1	428995.8	-58.37684	-1.803421E-010	0.0087446	5
	57	85	1.998082	268171.5	-411620.7	1	491271.3	-56.9157	2.768343E-011	0.0087347	5
	58	88	1.584686	319079.8	-462450.3	1	561847.1	-55.39524	2.360866E-011	0.0087972	5
	59	92	1.266892	369768.5	-518257.7	1	636647.3	-54.49276	-1.476981E-010	0.0087343	5
	60	96	0.999041	427301.4	-584542.4	1	724069.3	-53.83314	2.840443E-010	0.0087848	5
