EXPLAIN
TAG	EISPOT
TITLE	LABEL	Potentiostatic EIS	Test &Identifier
DATE	LABEL	10/6/2019	Date
TIME	LABEL	11:23:53	Time
NOTES	NOTES	2	&Notes...
	
	
PSTAT	PSTAT	REF600-11020	Potentiostat
VDC	POTEN	0.00000E+000	T	DC &Voltage (V)
FREQINIT	QUANT	1.00000E+006	Initial Fre&q. (Hz)
FREQFINAL	QUANT	1.00000E+000	Final Fre&q. (Hz)
PTSPERDEC	QUANT	1.00000E+001	Points/&decade
VAC	QUANT	2.50000E+001	AC &Voltage (mV rms)
AREA	QUANT	1.00000E-002	&Area (cm^2)
CONDIT	TWOPARAM	T	5.00000E+000	0.00000E+000	Conditionin&g	Time(s)	E(V)
DELAY	TWOPARAM	T	5.00000E+000	0.00000E+000	Init. De&lay	Time(s)	Stab.(mV/s)
SPEED	SELECTOR	1	&Optimize for:
ZGUESS	QUANT	1.00000E+004	E&stimated Z (ohms)
OCVCURVE	TABLE	19
	Pt	T	Vf	Vm	Ach	Over
	#	s	V vs. Ref.	V	V	bits
	0	0.258333	3.18167E-003	3.18167E-003	5.62432E-004	...........
	1	0.516667	3.17659E-003	2.91560E-003	5.67266E-004	...........
	2	0.775	3.14576E-003	2.68329E-003	5.60099E-004	...........
	3	1.03333	3.06066E-003	2.50560E-003	5.56432E-004	...........
	4	1.29167	2.91364E-003	2.28305E-003	5.67332E-004	...........
	5	1.55	2.72517E-003	2.11604E-003	5.70266E-004	...........
	6	1.80833	2.52274E-003	1.95578E-003	5.55166E-004	...........
	7	2.06667	2.32606E-003	1.82768E-003	5.57399E-004	...........
	8	2.325	2.14587E-003	1.69288E-003	5.73099E-004	...........
	9	2.58333	1.98524E-003	1.58217E-003	5.73666E-004	...........
	10	2.84167	1.84190E-003	1.45949E-003	5.52566E-004	...........
	11	3.1	1.71183E-003	1.37160E-003	5.52499E-004	...........
	12	3.35833	1.59212E-003	1.27029E-003	5.65666E-004	...........
	13	3.61667	1.48175E-003	1.19531E-003	5.66366E-004	...........
	14	3.875	1.38051E-003	1.11519E-003	5.54833E-004	...........
	15	4.13333	1.28785E-003	1.03300E-003	5.55066E-004	...........
	16	4.39167	1.20184E-003	9.49973E-004	5.68299E-004	...........
	17	4.65	1.11949E-003	8.70961E-004	5.61499E-004	...........
	18	4.90833	1.04280E-003	1.02209E-003	5.49833E-004	...........
EOC	QUANT	0.0010428	Open Circuit (V)
PSTATMODEL	IQUANT	4	Pstat Model
PSTATSECTION	LABEL	REF600-11020	Pstat Section
PSTATSERIALNO	LABEL	11020	Pstat Serial Number
CTRLMODE	IQUANT	1	Control Mode
IESTAB	IQUANT	0	I/E Stability
CASPEED	IQUANT	1	Control Amp Speed
CONVENTION	IQUANT	1	Current Convention
ICHRANGE	IQUANT	2	Ich Range
ICHRANGEMODE	TOGGLE	F	Ich Auto Range
ICHOFFSETENABLE	TOGGLE	T	Ich Offset Enable
ICHOFFSET	QUANT	0	Ich Offset (V)
ICHFILTER	IQUANT	3	Ich Filter
VCHRANGE	IQUANT	2	Vch Range
VCHRANGEMODE	TOGGLE	F	Vch Auto Range
VCHOFFSETENABLE	TOGGLE	T	Vch Offset Enable
VCHOFFSET	QUANT	0	Vch Offset (V)
VCHFILTER	IQUANT	3	Vch Filter
ACHRANGE	IQUANT	2	Ach Range
ACHOFFSETENABLE	TOGGLE	F	Ach Offset Enable
ACHOFFSET	QUANT	0	Ach Offset (V)
ACHFILTER	IQUANT	3	Ach Filter
IERANGELOWERLIMIT	IQUANT	1	I/E Range Lower Limit
IERANGEMODE	TOGGLE	F	I/E AutoRange
IERANGE	IQUANT	5	I/E Range
POSFEEDENABLE	TOGGLE	F	Positive Feedback IR Comp
POSFEEDRESISTANCE	QUANT	0	Positive Feedback Resistance (ohm)
ACHSELECT	IQUANT	0	Ach Select
CABLEID	IQUANT	14	Cable ID
DCCALDATE	LABEL	8/19/2019	DC Calibration Date
ACCALDATE	LABEL	8/19/2019	AC Calibration Date
THERMOSELECT	IQUANT	1	Thermo Select
FRAMEWORKVERSION	QUANT	6.33	Framework Version
INSTRUMENTVERSION	LABEL	3.50	Instrument Version
ZCURVE	TABLE
	Pt	Time	Freq	Zreal	Zimag	Zsig	Zmod	Zphz	Idc	Vdc	IERange
	#	s	Hz	ohm	ohm	V	ohm	°	A	V	#
	0	1	1000078	2252.296	-1642.068	1	2787.333	-36.09444	1.10844E-006	0.0030003	8
	1	3	794390.6	2569.995	-1576.47	1	3014.984	-31.52552	2.61634E-006	0.0022544	8
	2	4	630984.4	2876.079	-1463.818	1	3227.165	-26.97442	-1.578883E-006	0.0026397	8
	3	5	501234.4	3122.662	-1315.011	1	3388.255	-22.83687	-3.174862E-006	0.0033309	8
	4	7	398109.4	3319.279	-1154.643	1	3514.373	-19.18072	-1.782712E-006	0.0029665	8
	5	8	316265.6	3468.732	-993.423	1	3608.184	-15.98138	-2.220419E-006	0.0031879	8
	6	9	251203.1	3589.684	-865.1151	1	3692.459	-13.54991	3.553397E-006	0.0019476	8
	7	11	199546.9	3665.125	-738.8528	1	3738.856	-11.39751	2.225925E-006	0.0021145	8
	8	12	158578.1	3735.708	-634.19	1	3789.157	-9.63492	6.962578E-007	0.0025657	8
	9	13	125953.1	3810	-501.0078	1	3842.799	-7.491306	4.626943E-007	0.0015357	7
	10	15	100078.1	3839.006	-449.7082	1	3865.256	-6.681283	-1.320887E-008	0.0025985	7
	11	16	79453.13	3871.497	-413.061	1	3893.469	-6.090012	8.270112E-008	0.0023627	7
	12	17	63140.62	3902.625	-387.291	1	3921.795	-5.667396	-1.247595E-008	0.0025567	7
	13	19	50203.12	3931.59	-373.0273	1	3949.247	-5.41997	-7.578379E-009	0.0024788	7
	14	20	39890.62	3960.667	-367.922	1	3977.719	-5.3072	1.220674E-007	0.0023455	7
	15	22	31640.63	3988.624	-372.7525	1	4006.003	-5.339007	6.184673E-008	0.002431	7
	16	23	25171.88	4019.164	-388.0356	1	4037.852	-5.514607	-5.627096E-008	0.002594	7
	17	24	20015.62	4052.456	-406.8379	1	4072.827	-5.732882	-1.078352E-008	0.0025801	7
	18	26	15890.62	4084.179	-448.8207	1	4108.767	-6.271213	-3.050494E-008	0.0025239	7
	19	27	12609.37	4120.716	-496.3262	1	4150.499	-6.867996	-6.170764E-008	0.0026038	7
	20	28	10078.13	4157.741	-554.9047	1	4194.607	-7.601943	2.408923E-009	0.0025067	7
	21	30	8015.625	4198.809	-633.0735	1	4246.267	-8.574162	1.509657E-008	0.0026173	7
	22	31	6328.125	4244.442	-729.1168	1	4306.611	-9.74722	4.387392E-008	0.0024752	7
	23	32	5015.625	4293.204	-850.3082	1	4376.599	-11.20297	4.241592E-008	0.0024732	7
	24	34	3984.375	4344.337	-1001.897	1	4458.37	-12.98657	5.807743E-008	0.0024314	7
	25	35	3170.956	4404.755	-1178.15	1	4559.595	-14.9745	-3.985152E-008	0.0025321	7
	26	37	2527.573	4469.662	-1397.573	1	4683.064	-17.36341	-2.961264E-008	0.0025122	7
	27	38	1976.103	4554.924	-1696.636	1	4860.649	-20.42956	-1.456685E-008	0.0025516	7
	28	39	1577.524	4641.884	-2032.858	1	5067.504	-23.65044	1.034617E-007	0.0024273	7
	29	41	1265.625	4745.003	-2422.614	1	5327.674	-27.04709	-4.772761E-008	0.0026257	7
	30	42	998.264	4875.79	-2940.93	1	5694.066	-31.09712	-2.779798E-008	0.0025156	7
	31	43	796.875	5019.437	-3543.745	1	6144.337	-35.22226	-1.037564E-008	0.0025717	7
	32	45	627.7902	5199.243	-4325.434	1	6763.247	-39.75827	1.221605E-007	0.0023374	7
	33	46	505.5147	5369.303	-5191.459	1	7468.646	-44.03523	1.421769E-008	0.0024358	7
	34	48	397.9953	5628.273	-6359.903	1	8492.692	-48.49239	3.692886E-009	0.0025436	7
	35	49	315.5048	5909.259	-7764.501	1	9757.4	-52.72665	3.579487E-009	0.0025422	7
	36	50	252.4038	6234.43	-9421.338	1	11297.33	-56.50599	4.827512E-010	0.0024807	6
	37	52	198.6229	6657.447	-11620.95	1	13392.83	-60.19233	6.652509E-010	0.0024843	6
	38	53	158.3615	7159.674	-14187.87	1	15892.03	-63.22296	8.404065E-010	0.0024822	6
	39	54	125.558	7801.89	-17427.57	1	19094.23	-65.88313	1.116408E-009	0.0024829	6
	40	56	100.4464	8594.522	-21257.22	1	22928.92	-67.98598	8.502121E-010	0.0024851	6
	41	57	79.00281	9688.32	-26242.18	1	27973.48	-69.73641	8.76231E-010	0.0024807	6
	42	59	63.3446	11234.66	-31874.34	1	33796.32	-70.58412	6.064053E-010	0.0024825	6
	43	60	49.86702	12836.98	-39562.58	1	41593.1	-72.02316	5.532739E-010	0.002477	6
	44	61	39.72458	15269.87	-48073.95	1	50440.79	-72.37843	6.655926E-010	0.0024808	6
	45	63	31.6723	18405.08	-58328.28	1	61163.18	-72.48727	6.365425E-010	0.002477	6
	46	64	24.93351	22637.22	-71604.11	1	75097.22	-72.45596	8.916076E-010	0.0024776	6
	47	66	19.86229	27942.76	-86712.02	1	91103.09	-72.13857	5.63645E-010	0.0024791	6
	48	67	15.83615	35159.74	-105060.4	1	110787.6	-71.49655	2.076348E-009	0.0024892	5
	49	68	12.40079	44512.62	-126694.6	1	134286.6	-70.64169	6.570456E-010	0.0024881	5
	50	70	9.93114	56336.34	-151612.3	1	161740.8	-69.61586	3.42034E-010	0.0024876	5
	51	71	7.944915	71057.48	-179422.9	1	192981.2	-68.39478	8.521096E-010	0.0024823	5
	52	73	6.317385	89933.78	-212220.3	1	230489.8	-67.03395	7.451228E-010	0.0024927	5
	53	75	5.008013	114087.5	-250095.5	1	274888.5	-65.47868	4.463094E-010	0.0024973	5
	54	78	3.945707	145113.9	-293520.9	1	327433.3	-63.69266	-3.767138E-011	0.0024863	5
	55	80	3.158693	179583.4	-337392.2	1	382208.9	-61.97501	2.168541E-010	0.0025052	5
	56	84	2.504006	221774.1	-387944.2	1	446860.6	-60.24492	-1.236732E-010	0.0024766	5
	57	86	1.998082	268201	-440493.1	1	515718.9	-58.66421	-1.788522E-010	0.0024985	5
	58	89	1.584686	322898.3	-499027.4	1	594383.4	-57.09491	1.901611E-010	0.0025321	5
	59	93	1.266892	378224.8	-560251.9	1	675970.5	-55.9768	-1.382426E-010	0.0025094	5
	60	97	0.999041	441474	-634083.3	1	772632.4	-55.15282	2.819687E-010	0.0024845	5
