EXPLAIN
TAG	EISPOT
TITLE	LABEL	Potentiostatic EIS	Test &Identifier
DATE	LABEL	11/11/2019	Date
TIME	LABEL	13:17:34	Time
NOTES	NOTES	3	&Notes...
	
	
	
PSTAT	PSTAT	REF600-11020	Potentiostat
VDC	POTEN	0.00000E+000	T	DC &Voltage (V)
FREQINIT	QUANT	1.00000E+006	Initial Fre&q. (Hz)
FREQFINAL	QUANT	1.00000E+000	Final Fre&q. (Hz)
PTSPERDEC	QUANT	1.00000E+001	Points/&decade
VAC	QUANT	2.50000E+001	AC &Voltage (mV rms)
AREA	QUANT	1.00000E-002	&Area (cm^2)
CONDIT	TWOPARAM	T	5.00000E+000	0.00000E+000	Conditionin&g	Time(s)	E(V)
DELAY	TWOPARAM	T	5.00000E+000	0.00000E+000	Init. De&lay	Time(s)	Stab.(mV/s)
SPEED	SELECTOR	1	&Optimize for:
ZGUESS	QUANT	1.00000E+005	E&stimated Z (ohms)
OCVCURVE	TABLE	19
	Pt	T	Vf	Vm	Ach	Over
	#	s	V vs. Ref.	V	V	bits
	0	0.258333	6.72734E-003	6.72734E-003	5.36966E-004	...........
	1	0.516667	6.72389E-003	6.54635E-003	5.37433E-004	...........
	2	0.775	6.70327E-003	6.40674E-003	5.39633E-004	...........
	3	1.03333	6.64698E-003	6.27396E-003	5.33633E-004	...........
	4	1.29167	6.55074E-003	6.16896E-003	5.37899E-004	...........
	5	1.55	6.43000E-003	6.07488E-003	5.42299E-004	...........
	6	1.80833	6.30609E-003	6.00901E-003	5.40099E-004	...........
	7	2.06667	6.19399E-003	5.95458E-003	5.43966E-004	...........
	8	2.325	6.10004E-003	5.90075E-003	5.47266E-004	...........
	9	2.58333	6.02406E-003	5.86321E-003	5.42899E-004	...........
	10	2.84167	5.96263E-003	5.83188E-003	5.48033E-004	...........
	11	3.1	5.91249E-003	5.80567E-003	5.42266E-004	...........
	12	3.35833	5.87159E-003	5.78740E-003	5.47966E-004	...........
	13	3.61667	5.84109E-003	5.90447E-003	5.46199E-004	...........
	14	3.875	5.82501E-003	5.73965E-003	5.43833E-004	...........
	15	4.13333	5.81711E-003	5.66456E-003	5.44066E-004	...........
	16	4.39167	5.79921E-003	5.74583E-003	5.46433E-004	...........
	17	4.65	5.76940E-003	5.81441E-003	5.47666E-004	...........
	18	4.90833	5.75022E-003	5.81690E-003	5.50033E-004	...........
EOC	QUANT	0.0057502	Open Circuit (V)
PSTATMODEL	IQUANT	4	Pstat Model
PSTATSECTION	LABEL	REF600-11020	Pstat Section
PSTATSERIALNO	LABEL	11020	Pstat Serial Number
CTRLMODE	IQUANT	1	Control Mode
IESTAB	IQUANT	0	I/E Stability
CASPEED	IQUANT	1	Control Amp Speed
CONVENTION	IQUANT	1	Current Convention
ICHRANGE	IQUANT	2	Ich Range
ICHRANGEMODE	TOGGLE	F	Ich Auto Range
ICHOFFSETENABLE	TOGGLE	T	Ich Offset Enable
ICHOFFSET	QUANT	0	Ich Offset (V)
ICHFILTER	IQUANT	3	Ich Filter
VCHRANGE	IQUANT	2	Vch Range
VCHRANGEMODE	TOGGLE	F	Vch Auto Range
VCHOFFSETENABLE	TOGGLE	T	Vch Offset Enable
VCHOFFSET	QUANT	0	Vch Offset (V)
VCHFILTER	IQUANT	3	Vch Filter
ACHRANGE	IQUANT	2	Ach Range
ACHOFFSETENABLE	TOGGLE	F	Ach Offset Enable
ACHOFFSET	QUANT	0	Ach Offset (V)
ACHFILTER	IQUANT	3	Ach Filter
IERANGELOWERLIMIT	IQUANT	1	I/E Range Lower Limit
IERANGEMODE	TOGGLE	F	I/E AutoRange
IERANGE	IQUANT	5	I/E Range
POSFEEDENABLE	TOGGLE	F	Positive Feedback IR Comp
POSFEEDRESISTANCE	QUANT	0	Positive Feedback Resistance (ohm)
ACHSELECT	IQUANT	0	Ach Select
CABLEID	IQUANT	14	Cable ID
DCCALDATE	LABEL	8/19/2019	DC Calibration Date
ACCALDATE	LABEL	8/19/2019	AC Calibration Date
THERMOSELECT	IQUANT	1	Thermo Select
FRAMEWORKVERSION	QUANT	6.33	Framework Version
INSTRUMENTVERSION	LABEL	3.50	Instrument Version
ZCURVE	TABLE
	Pt	Time	Freq	Zreal	Zimag	Zsig	Zmod	Zphz	Idc	Vdc	IERange
	#	s	Hz	ohm	ohm	V	ohm	°	A	V	#
	0	1	1000078	2523.72	-1785.68	1	3091.572	-35.28165	-1.059954E-005	0.0085572	8
	1	3	794390.6	2877.357	-1752.793	1	3369.194	-31.34842	1.067458E-005	0.0068544	8
	2	4	630984.4	3186.495	-1653.888	1	3590.138	-27.43069	-4.970381E-006	0.0074174	8
	3	5	501234.4	3468.004	-1536.829	1	3793.27	-23.90029	-5.142881E-006	0.0082774	8
	4	7	398109.4	3700.083	-1413.542	1	3960.898	-20.90834	7.080964E-006	0.0066217	8
	5	8	316265.6	3889.556	-1297.724	1	4100.333	-18.45093	-1.66987E-006	0.0077005	8
	6	9	251203.1	4053.734	-1179.783	1	4221.924	-16.2269	-5.258591E-006	0.008086	8
	7	11	199546.9	4184.229	-1088.736	1	4323.554	-14.58494	5.485403E-006	0.0063007	8
	8	12	158578.1	4302.172	-987.626	1	4414.079	-12.92907	5.959239E-007	0.0076374	8
	9	13	125953.1	4447.584	-887.3566	1	4535.241	-11.28317	3.728451E-006	0.0009541	7
	10	15	100078.1	4519.549	-856.8997	1	4600.065	-10.73576	-2.842661E-007	0.0064715	7
	11	16	79453.13	4600.634	-860.4683	1	4680.41	-10.59378	-1.143585E-006	0.0082816	7
	12	17	63140.62	4687.778	-874.6968	1	4768.685	-10.56933	-1.146274E-006	0.0082859	7
	13	19	50203.12	4780.324	-909.126	1	4866.005	-10.76797	4.62295E-007	0.0056876	7
	14	20	39890.62	4874.635	-957.711	1	4967.824	-11.11523	-5.865729E-007	0.0087601	7
	15	21	31640.63	4974.476	-1024.013	1	5078.78	-11.63204	-6.841549E-007	0.0071047	7
	16	23	25171.88	5088.83	-1110.674	1	5208.626	-12.31214	1.040369E-006	0.0061868	7
	17	24	20015.62	5203.306	-1213.376	1	5342.909	-13.12641	6.665515E-008	0.0081631	7
	18	26	15890.62	5341.292	-1342.226	1	5507.355	-14.10591	1.027603E-006	0.0058753	7
	19	27	12609.37	5489.953	-1493.92	1	5689.585	-15.22267	7.392343E-007	0.005578	7
	20	28	10078.13	5651.003	-1682.819	1	5896.246	-16.58307	-6.850129E-007	0.0070995	7
	21	30	8015.625	5825.235	-1866.445	1	6116.942	-17.76582	1.148507E-007	0.0059556	7
	22	31	6328.125	6033.186	-2114.154	1	6392.885	-19.31153	5.773794E-007	0.0074506	7
	23	32	5015.625	6265.035	-2397.766	1	6708.2	-20.94294	3.662538E-007	0.0077507	7
	24	34	3984.375	6531.37	-2726.866	1	7077.753	-22.66068	4.631076E-007	0.0056676	7
	25	36	3170.956	6829.658	-3097.899	1	7499.414	-24.39881	7.361701E-007	0.0055717	7
	26	37	2527.573	7170.562	-3517.56	1	7986.876	-26.13053	3.68864E-007	0.0077532	7
	27	38	1976.103	7598.442	-4053.89	1	8612.221	-28.08064	-6.856009E-007	0.0070937	7
	28	40	1577.524	8003.383	-4560.574	1	9211.567	-29.67582	7.175866E-008	0.0081522	7
	29	41	1265.625	8561.395	-5155.325	1	9993.74	-31.05465	1.652871E-007	0.0048744	6
	30	42	998.264	9144.644	-5853.671	1	10857.71	-32.62413	6.667349E-008	0.0047704	6
	31	44	796.875	9745.22	-6599.254	1	11769.43	-34.10502	1.000197E-008	0.0088161	6
	32	45	627.7902	10405.58	-7511.338	1	12833.4	-35.8239	-1.9808E-007	0.0094985	6
	33	46	505.5147	11028.79	-8472.51	1	13907.46	-37.5321	6.471092E-008	0.0080698	6
	34	48	397.9953	11722.05	-9757.06	1	15251.45	-39.77294	5.672928E-010	0.0072194	6
	35	49	315.5048	12394.59	-11289.89	1	16765.66	-42.32952	6.45049E-010	0.0072042	6
	36	51	252.4038	13050.04	-13117.79	1	18503.52	-45.14833	2.571774E-010	0.0072115	6
	37	52	198.6229	13776.26	-15583.33	1	20799.66	-48.52209	8.652659E-010	0.0072065	6
	38	53	158.3615	14521.86	-18515.64	1	23531.12	-51.89283	1.125695E-009	0.0072079	6
	39	55	125.558	15366.01	-22299.52	1	27081.04	-55.4303	5.150781E-010	0.0072136	6
	40	56	100.4464	16370.2	-26829.5	1	31429.38	-58.61026	-4.310033E-010	0.0072126	6
	41	57	79.00281	17644.71	-32968.79	1	37393.54	-61.84457	-5.104032E-010	0.0072055	6
	42	59	63.3446	19526.49	-39877.74	1	44401.78	-63.91091	-7.031355E-010	0.0072126	6
	43	60	49.86702	20902.39	-49180.01	1	53437.66	-66.97363	-6.320332E-010	0.0072098	6
	44	61	39.72458	23766.18	-59761.15	1	64313.5	-68.31297	1.137645E-010	0.007219	6
	45	63	31.6723	27020.14	-72848.59	1	77698.17	-69.64977	5.527391E-010	0.0072115	6
	46	64	24.93351	31929.26	-89664.58	1	95179.9	-70.39935	-8.193876E-012	0.0072171	6
	47	66	19.86229	37916.64	-109048.2	1	115452.1	-70.82717	1.082291E-010	0.0072211	5
	48	67	15.83615	46348.05	-132223.3	1	140111.2	-70.68298	-3.605816E-010	0.0072198	5
	49	68	12.40079	56201.84	-160279.7	1	169847.6	-70.67686	-7.340464E-010	0.007219	5
	50	70	9.93114	69970.95	-194138.2	1	206362.8	-70.17992	1.902975E-010	0.0072192	5
	51	71	7.944915	86325.99	-231291	1	246875.9	-69.53265	5.589292E-011	0.0072117	5
	52	73	6.317385	108397.3	-276630.7	1	297110.2	-68.60236	6.427677E-011	0.0072069	5
	53	75	5.008013	137412.5	-328986.7	1	356531.2	-67.33047	7.785869E-011	0.0072215	5
	54	77	3.945707	173804.6	-391152.4	1	428028.3	-66.04251	-1.218763E-011	0.0072179	5
	55	80	3.158693	216612.2	-456074.9	1	504901.2	-64.59468	-2.847095E-011	0.0071959	5
	56	83	2.504006	269926.2	-532801.4	1	597275.1	-63.13245	1.7537E-010	0.0072215	5
	57	86	1.998082	331603.3	-613228.8	1	697144.4	-61.59771	2.47288E-010	0.0072287	5
	58	89	1.584686	406508.9	-703032.1	1	812098.3	-59.96254	7.544188E-011	0.0071666	5
	59	93	1.266892	490822.4	-799032.5	1	937741.8	-58.4388	1.893164E-010	0.0072383	5
	60	97	0.999041	590390.6	-912909.4	1	1087182	-57.10872	-1.43019E-010	0.0071754	4
