EXPLAIN
TAG	EISPOT
TITLE	LABEL	Potentiostatic EIS	Test &Identifier
DATE	LABEL	11/7/2019	Date
TIME	LABEL	9:42:03	Time
NOTES	NOTES	2	&Notes...
	
	
PSTAT	PSTAT	REF600-11020	Potentiostat
VDC	POTEN	0.00000E+000	T	DC &Voltage (V)
FREQINIT	QUANT	1.00000E+006	Initial Fre&q. (Hz)
FREQFINAL	QUANT	1.00000E+000	Final Fre&q. (Hz)
PTSPERDEC	QUANT	1.00000E+001	Points/&decade
VAC	QUANT	2.50000E+001	AC &Voltage (mV rms)
AREA	QUANT	1.00000E-002	&Area (cm^2)
CONDIT	TWOPARAM	T	5.00000E+000	0.00000E+000	Conditionin&g	Time(s)	E(V)
DELAY	TWOPARAM	T	5.00000E+000	0.00000E+000	Init. De&lay	Time(s)	Stab.(mV/s)
SPEED	SELECTOR	1	&Optimize for:
ZGUESS	QUANT	1.00000E+005	E&stimated Z (ohms)
OCVCURVE	TABLE	19
	Pt	T	Vf	Vm	Ach	Over
	#	s	V vs. Ref.	V	V	bits
	0	0.258333	5.15073E-003	5.15073E-003	5.75899E-004	...........
	1	0.516667	5.14845E-003	5.03149E-003	5.72532E-004	...........
	2	0.775	5.13507E-003	4.95041E-003	5.74999E-004	...........
	3	1.03333	5.09942E-003	4.88112E-003	5.74199E-004	...........
	4	1.29167	5.04048E-003	4.82581E-003	5.71299E-004	...........
	5	1.55	4.96969E-003	4.78136E-003	5.74832E-004	...........
	6	1.80833	4.90025E-003	4.73323E-003	5.78699E-004	...........
	7	2.06667	4.83882E-003	4.68582E-003	5.79199E-004	...........
	8	2.325	4.78551E-003	4.65581E-003	5.76232E-004	...........
	9	2.58333	4.73849E-003	4.62557E-003	5.74165E-004	...........
	10	2.84167	4.69719E-003	4.60407E-003	5.75099E-004	...........
	11	3.1	4.66157E-003	4.56777E-003	5.77399E-004	...........
	12	3.35833	4.63039E-003	4.54698E-003	5.78266E-004	...........
	13	3.61667	4.60197E-003	4.53337E-003	5.75532E-004	...........
	14	3.875	4.57633E-003	4.52757E-003	5.75866E-004	...........
	15	4.13333	4.55499E-003	4.51179E-003	5.76166E-004	...........
	16	4.39167	4.53811E-003	4.48412E-003	5.76132E-004	...........
	17	4.65	4.52249E-003	4.43728E-003	5.76966E-004	...........
	18	4.90833	4.50320E-003	4.41635E-003	5.75866E-004	...........
EOC	QUANT	0.0045032	Open Circuit (V)
PSTATMODEL	IQUANT	4	Pstat Model
PSTATSECTION	LABEL	REF600-11020	Pstat Section
PSTATSERIALNO	LABEL	11020	Pstat Serial Number
CTRLMODE	IQUANT	1	Control Mode
IESTAB	IQUANT	0	I/E Stability
CASPEED	IQUANT	1	Control Amp Speed
CONVENTION	IQUANT	1	Current Convention
ICHRANGE	IQUANT	2	Ich Range
ICHRANGEMODE	TOGGLE	F	Ich Auto Range
ICHOFFSETENABLE	TOGGLE	T	Ich Offset Enable
ICHOFFSET	QUANT	0	Ich Offset (V)
ICHFILTER	IQUANT	3	Ich Filter
VCHRANGE	IQUANT	2	Vch Range
VCHRANGEMODE	TOGGLE	F	Vch Auto Range
VCHOFFSETENABLE	TOGGLE	T	Vch Offset Enable
VCHOFFSET	QUANT	0	Vch Offset (V)
VCHFILTER	IQUANT	3	Vch Filter
ACHRANGE	IQUANT	2	Ach Range
ACHOFFSETENABLE	TOGGLE	F	Ach Offset Enable
ACHOFFSET	QUANT	0	Ach Offset (V)
ACHFILTER	IQUANT	3	Ach Filter
IERANGELOWERLIMIT	IQUANT	1	I/E Range Lower Limit
IERANGEMODE	TOGGLE	F	I/E AutoRange
IERANGE	IQUANT	4	I/E Range
POSFEEDENABLE	TOGGLE	F	Positive Feedback IR Comp
POSFEEDRESISTANCE	QUANT	0	Positive Feedback Resistance (ohm)
ACHSELECT	IQUANT	0	Ach Select
CABLEID	IQUANT	14	Cable ID
DCCALDATE	LABEL	8/19/2019	DC Calibration Date
ACCALDATE	LABEL	8/19/2019	AC Calibration Date
THERMOSELECT	IQUANT	1	Thermo Select
FRAMEWORKVERSION	QUANT	6.33	Framework Version
INSTRUMENTVERSION	LABEL	3.50	Instrument Version
ZCURVE	TABLE
	Pt	Time	Freq	Zreal	Zimag	Zsig	Zmod	Zphz	Idc	Vdc	IERange
	#	s	Hz	ohm	ohm	V	ohm	°	A	V	#
	0	2	1000078	2131.428	-1336.511	1	2515.8	-32.08974	6.980523E-006	0.0072066	8
	1	3	794390.6	2410.661	-1287.679	1	2733.021	-28.10935	-3.731408E-006	0.0070327	8
	2	5	630984.4	2633.187	-1174.766	1	2883.357	-24.0435	7.890078E-007	0.0058445	8
	3	6	501234.4	2828.873	-1048.991	1	3017.102	-20.34558	-9.268196E-007	0.0057913	8
	4	7	398109.4	2976.686	-927.9287	1	3117.966	-17.31393	-2.815878E-006	0.0059784	8
	5	9	316265.6	3079.987	-809.847	1	3184.677	-14.73181	-1.966172E-006	0.0061686	8
	6	10	251203.1	3183.295	-715.1939	1	3262.648	-12.66244	-3.053487E-006	0.0066556	8
	7	11	199546.9	3247.108	-624.484	1	3306.613	-10.88621	1.265499E-008	0.0057055	8
	8	13	158578.1	3287.865	-551.9837	1	3333.878	-9.53023	6.576055E-006	0.0052379	8
	9	14	125953.1	3376.69	-438.7104	1	3405.07	-7.402587	2.123486E-006	0.0060905	7
	10	16	100078.1	3401.504	-404.1596	1	3425.43	-6.775997	8.868279E-007	0.0057749	7
	11	17	79453.13	3440.029	-377.9838	1	3460.733	-6.270397	-3.165002E-007	0.0050623	7
	12	18	63140.62	3472.525	-368.2209	1	3491.993	-6.052932	5.331922E-007	0.0041877	7
	13	20	50203.12	3504.042	-364.2377	1	3522.922	-5.934461	5.323233E-007	0.0041843	7
	14	21	39890.62	3537.469	-370.8029	1	3556.849	-5.98398	1.188738E-006	0.0047671	7
	15	23	31640.63	3569.974	-382.5923	1	3590.417	-6.117012	4.185968E-007	0.0065601	7
	16	24	25171.88	3605.438	-404.4945	1	3628.057	-6.401254	-1.188391E-006	0.0077332	7
	17	25	20015.62	3642.621	-437.024	1	3668.743	-6.84137	4.180046E-007	0.0065631	7
	18	27	15890.62	3683.006	-476.2545	1	3713.67	-7.368109	5.376365E-007	0.0041857	7
	19	28	12609.37	3724.919	-525.3536	1	3761.784	-8.027908	1.062458E-006	0.0041695	7
	20	29	10078.13	3768.181	-589.6709	1	3814.04	-8.893907	7.294508E-008	0.0070268	7
	21	31	8015.625	3810.263	-662.3082	1	3867.397	-9.86075	-3.184395E-007	0.0074515	7
	22	32	6328.125	3866.167	-768.6506	1	3941.836	-11.24461	7.328422E-008	0.0070319	7
	23	34	5015.625	3919.593	-889.235	1	4019.197	-12.78228	-1.329873E-006	0.0075605	7
	24	35	3984.375	3981.282	-1039.205	1	4114.676	-14.62909	4.188078E-007	0.0065584	7
	25	36	3170.956	4043.507	-1221.115	1	4223.869	-16.804	6.597297E-007	0.0062068	7
	26	38	2527.573	4110.103	-1442.809	1	4355.99	-19.3431	-1.330106E-006	0.007556	7
	27	39	1976.103	4198.503	-1739.866	1	4544.729	-22.50919	-1.188103E-006	0.0077233	7
	28	40	1577.524	4299.478	-2075.402	1	4774.181	-25.76708	-7.75744E-007	0.0057877	7
	29	42	1265.625	4392.339	-2486.069	1	5047.097	-29.50991	-1.123366E-006	0.0065327	7
	30	43	998.264	4519.301	-3023.963	1	5437.687	-33.78735	5.378728E-007	0.0041796	7
	31	45	796.875	4667.33	-3637.205	1	5917.197	-37.92894	-1.186913E-006	0.0077274	7
	32	46	627.7902	4845.053	-4442.538	1	6573.483	-42.51841	8.94286E-007	0.0057612	7
	33	47	505.5147	5039.093	-5333.891	1	7337.769	-46.6279	4.24175E-007	0.0065515	7
	34	49	397.9953	5288.861	-6539.598	1	8410.612	-51.036	8.622905E-009	0.0060057	7
	35	50	315.5048	5577.536	-7984.796	1	9739.91	-55.06495	6.087948E-009	0.0060114	7
	36	52	252.4038	5915.5	-9689.4	1	11352.43	-58.59541	3.206241E-010	0.0059543	6
	37	53	198.6229	6347.395	-11948.2	1	13529.56	-62.02085	1.352647E-009	0.0059421	6
	38	54	158.3615	6856.164	-14592.64	1	16123.03	-64.83412	1.759727E-009	0.0059325	6
	39	56	125.558	7512.707	-17911.85	1	19423.57	-67.24553	1.353239E-009	0.0059467	6
	40	57	100.4464	8316.294	-21807.49	1	23339.39	-69.12563	8.437367E-010	0.0059501	6
	41	58	79.00281	9500.53	-27054.22	1	28673.87	-70.65045	5.074322E-010	0.0059311	6
	42	60	63.3446	10441.74	-32766.65	1	34390.16	-72.32449	1.578722E-009	0.00593	6
	43	61	49.86702	12968.62	-40435.19	1	42463.98	-72.2176	1.956576E-009	0.0059358	6
	44	63	39.72458	15156.14	-49501.3	1	51769.56	-72.97663	7.384554E-010	0.0059457	6
	45	64	31.6723	18325.22	-60556.45	1	63268.45	-73.16345	1.527058E-009	0.0059311	6
	46	65	24.93351	22786.23	-74080.89	1	77506.07	-72.90285	2.890944E-010	0.0059451	6
	47	67	19.86229	28559.14	-89654.56	1	94093.38	-72.33091	9.887375E-010	0.0059546	6
	48	68	15.83615	36795.48	-109020.2	1	115062.2	-71.34992	2.189399E-009	0.0059527	5
	49	70	12.40079	46101.19	-131101.8	1	138971.2	-70.62607	4.184462E-010	0.0059563	5
	50	71	9.93114	59244.53	-157051.6	1	167854.4	-69.33203	3.612934E-010	0.0059423	5
	51	73	7.944915	75471.56	-185423.9	1	200194.8	-67.85261	5.459542E-010	0.0059587	5
	52	74	6.317385	96283.6	-217764.4	1	238100.5	-66.14759	-1.902528E-010	0.0059693	5
	53	76	5.008013	122755.2	-255002.1	1	283010.4	-64.29434	-2.266588E-010	0.0059463	5
	54	79	3.945707	155867.2	-294302.6	1	333029.5	-62.09362	-2.922748E-010	0.0059528	5
	55	82	3.158693	191316.6	-337925.3	1	388324.1	-60.48361	4.356756E-011	0.0059258	5
	56	85	2.504006	233901.4	-384376.3	1	449950	-58.67857	5.460167E-010	0.0059578	5
	57	88	1.998082	279766.4	-433332.3	1	515796.6	-57.15305	4.117202E-010	0.0059633	5
	58	91	1.584686	329612.3	-486295.6	1	587475.7	-55.87048	-2.984025E-010	0.0058983	5
	59	94	1.266892	383643.8	-551744.3	1	672015.1	-55.18799	1.145086E-009	0.005946	5
	60	99	0.999041	444533.1	-621076.8	1	763770.9	-54.40696	-1.70672E-010	0.0059359	5
