EXPLAIN
TAG	EISPOT
TITLE	LABEL	Potentiostatic EIS	Test &Identifier
DATE	LABEL	9/26/2019	Date
TIME	LABEL	10:01:34	Time
NOTES	NOTES	2	&Notes...
	
	
PSTAT	PSTAT	REF600-11020	Potentiostat
VDC	POTEN	0.00000E+000	T	DC &Voltage (V)
FREQINIT	QUANT	1.00000E+006	Initial Fre&q. (Hz)
FREQFINAL	QUANT	1.00000E+000	Final Fre&q. (Hz)
PTSPERDEC	QUANT	1.00000E+001	Points/&decade
VAC	QUANT	2.50000E+001	AC &Voltage (mV rms)
AREA	QUANT	1.00000E-002	&Area (cm^2)
CONDIT	TWOPARAM	T	5.00000E+000	0.00000E+000	Conditionin&g	Time(s)	E(V)
DELAY	TWOPARAM	T	5.00000E+000	0.00000E+000	Init. De&lay	Time(s)	Stab.(mV/s)
SPEED	SELECTOR	1	&Optimize for:
ZGUESS	QUANT	1.00000E+004	E&stimated Z (ohms)
OCVCURVE	TABLE	19
	Pt	T	Vf	Vm	Ach	Over
	#	s	V vs. Ref.	V	V	bits
	0	0.258333	2.33640E-001	2.33640E-001	5.43299E-004	...........
	1	0.516667	2.33659E-001	2.34629E-001	5.40133E-004	...........
	2	0.775	2.33768E-001	2.35210E-001	5.41466E-004	...........
	3	1.03333	2.34060E-001	2.36069E-001	5.44833E-004	...........
	4	1.29167	2.34562E-001	2.36814E-001	5.41266E-004	...........
	5	1.55	2.35225E-001	2.37706E-001	5.41033E-004	...........
	6	1.80833	2.35972E-001	2.37961E-001	5.43866E-004	...........
	7	2.06667	2.36713E-001	2.38268E-001	5.40366E-004	...........
	8	2.325	2.37366E-001	2.39109E-001	5.43333E-004	...........
	9	2.58333	2.37913E-001	2.39029E-001	5.43199E-004	...........
	10	2.84167	2.38383E-001	2.39587E-001	5.34733E-004	...........
	11	3.1	2.38789E-001	2.39583E-001	5.38066E-004	...........
	12	3.35833	2.39134E-001	2.40213E-001	5.40433E-004	...........
	13	3.61667	2.39437E-001	2.40045E-001	5.43966E-004	...........
	14	3.875	2.39717E-001	2.40701E-001	5.41866E-004	...........
	15	4.13333	2.39976E-001	2.40303E-001	5.43999E-004	...........
	16	4.39167	2.40206E-001	2.40980E-001	5.39099E-004	...........
	17	4.65	2.40401E-001	2.40750E-001	5.40599E-004	...........
	18	4.90833	2.40579E-001	2.41397E-001	5.34333E-004	...........
EOC	QUANT	0.2405792	Open Circuit (V)
PSTATMODEL	IQUANT	4	Pstat Model
PSTATSECTION	LABEL	REF600-11020	Pstat Section
PSTATSERIALNO	LABEL	11020	Pstat Serial Number
CTRLMODE	IQUANT	1	Control Mode
IESTAB	IQUANT	0	I/E Stability
CASPEED	IQUANT	1	Control Amp Speed
CONVENTION	IQUANT	1	Current Convention
ICHRANGE	IQUANT	2	Ich Range
ICHRANGEMODE	TOGGLE	F	Ich Auto Range
ICHOFFSETENABLE	TOGGLE	T	Ich Offset Enable
ICHOFFSET	QUANT	0	Ich Offset (V)
ICHFILTER	IQUANT	3	Ich Filter
VCHRANGE	IQUANT	2	Vch Range
VCHRANGEMODE	TOGGLE	F	Vch Auto Range
VCHOFFSETENABLE	TOGGLE	T	Vch Offset Enable
VCHOFFSET	QUANT	0	Vch Offset (V)
VCHFILTER	IQUANT	3	Vch Filter
ACHRANGE	IQUANT	2	Ach Range
ACHOFFSETENABLE	TOGGLE	F	Ach Offset Enable
ACHOFFSET	QUANT	0	Ach Offset (V)
ACHFILTER	IQUANT	3	Ach Filter
IERANGELOWERLIMIT	IQUANT	1	I/E Range Lower Limit
IERANGEMODE	TOGGLE	F	I/E AutoRange
IERANGE	IQUANT	7	I/E Range
POSFEEDENABLE	TOGGLE	F	Positive Feedback IR Comp
POSFEEDRESISTANCE	QUANT	0	Positive Feedback Resistance (ohm)
ACHSELECT	IQUANT	0	Ach Select
CABLEID	IQUANT	14	Cable ID
DCCALDATE	LABEL	8/19/2019	DC Calibration Date
ACCALDATE	LABEL	8/19/2019	AC Calibration Date
THERMOSELECT	IQUANT	1	Thermo Select
FRAMEWORKVERSION	QUANT	6.33	Framework Version
INSTRUMENTVERSION	LABEL	3.50	Instrument Version
ZCURVE	TABLE
	Pt	Time	Freq	Zreal	Zimag	Zsig	Zmod	Zphz	Idc	Vdc	IERange
	#	s	Hz	ohm	ohm	V	ohm	°	A	V	#
	0	1	1000078	867.7944	-8825	1	8867.564	-84.38395	-3.314859E-006	0.2426814	8
	1	3	794390.6	1006.712	-10891.1	1	10937.53	-84.71891	-2.026057E-006	0.2430941	8
	2	5	630984.4	1229.557	-13593.59	1	13649.08	-84.83159	2.39228E-007	0.2424358	8
	3	7	501234.4	1270.976	-16742.22	1	16790.4	-85.65875	4.741145E-008	0.2421894	8
	4	8	398109.4	1547.269	-20978.89	1	21035.87	-85.78187	1.479666E-006	0.2415636	8
	5	10	316265.6	758.4641	-25838.88	1	25850.01	-88.31864	3.346112E-006	0.241329	8
	6	11	251203.1	1623.079	-32782.73	1	32822.88	-87.16559	-2.293243E-007	0.2419992	8
	7	14	199546.9	4133.583	-41087.2	1	41294.6	-84.25508	-2.992841E-006	0.2424508	8
	8	16	158578.1	3721.707	-54884.7	1	55010.74	-86.12074	-5.748455E-007	0.242289	8
	9	17	125953.1	6186.991	-62607.87	1	62912.84	-84.35629	6.86741E-008	0.2419732	7
	10	19	100078.1	5617.546	-79815.63	1	80013.07	-85.97408	-1.099486E-008	0.2419294	7
	11	21	79453.13	7023.549	-99706.9	1	99954	-85.97063	-7.669522E-008	0.2422246	7
	12	22	63140.62	8493.5	-124957	1	125245.3	-86.1115	5.141146E-008	0.241816	7
	13	24	50203.12	11528.9	-152493.2	1	152928.4	-85.67651	-4.286663E-008	0.2420872	7
	14	26	39890.62	8161.357	-191230.3	1	191404.4	-87.55621	-4.390935E-008	0.2420815	7
	15	27	31640.63	15558.99	-240852	1	241354	-86.30384	-3.442554E-008	0.2419495	7
	16	29	25171.88	20931.54	-299810.5	1	300540.3	-86.00632	-2.502774E-010	0.2420375	7
	17	30	20015.62	19043.4	-373427	1	373912.3	-87.08066	-1.738697E-008	0.242011	7
	18	32	15890.62	35375.25	-471206.3	1	472532.3	-85.70664	-1.036052E-007	0.2421364	7
	19	34	12609.37	48137.7	-593603.9	1	595552.6	-85.3638	-1.124467E-008	0.2421478	6
	20	35	10078.13	53125.71	-730414.8	1	732344.2	-85.84	4.001699E-009	0.2416577	6
	21	37	8015.625	69939.38	-912693.4	1	915369.2	-85.61801	4.839697E-010	0.2418646	6
	22	39	6328.125	90913.27	-1157932	1	1161496	-85.51072	-1.276742E-008	0.2420806	6
	23	40	5015.625	110967.1	-1442507	1	1446769	-85.6011	4.241456E-009	0.2416532	6
	24	42	3984.375	154599.7	-1774100	1	1780824	-85.01968	-2.579608E-010	0.2418586	6
	25	44	3170.956	169479.5	-2183565	1	2190132	-85.56183	6.250414E-009	0.2419665	6
	26	46	2527.573	352829.3	-2771708	1	2794075	-82.74545	2.73246E-008	0.2415527	6
	27	47	1976.103	670890.3	-3548580	1	3611442	-79.29409	-8.805892E-009	0.242199	6
	28	49	1577.524	475811.2	-4725639	1	4749533	-84.25043	-9.632505E-009	0.2421995	6
	29	51	1265.625	768882.5	-5851158	1	5901460	-82.51383	-7.406213E-010	0.2418738	5
	30	53	998.264	1586269	-6595114	1	6783198	-76.476	1.042883E-009	0.2419364	5
	31	54	796.875	1347388	-8293589	1	8402325	-80.77227	-8.609071E-010	0.2418646	5
	32	56	627.7902	2399556	-9.960513E+006	1	1.024547E+007	-76.45515	-1.864274E-009	0.2420627	5
	33	58	505.5147	3336423	-1.313199E+007	1	1.35492E+007	-75.74458	2.13433E-009	0.2414596	5
	34	59	397.9953	5151206	-1.273727E+007	1	1.373946E+007	-67.98061	4.53098E-010	0.2419385	5
	35	61	315.5048	8070577	-1.842359E+007	1	2.011374E+007	-66.34385	-8.637889E-010	0.2419337	5
	36	62	252.4038	1.471612E+007	-1.77019E+007	1	2.302002E+007	-50.26223	4.114643E-010	0.2419289	5
	37	64	198.6229	1.335443E+007	-2.64499E+007	1	2.963002E+007	-63.21101	7.029328E-011	0.2419318	5
	38	65	158.3615	9.91894E+006	-2.176573E+007	1	2.391929E+007	-65.5006	1.76466E-010	0.2419332	5
	39	67	125.558	2.63157E+007	-1.3884E+007	1	2.975368E+007	-27.81586	-1.914729E-010	0.2419357	4
	40	68	100.4464	2.505931E+007	-2.60123E+007	1	3.611937E+007	-46.06901	-1.468319E-010	0.2419302	4
	41	70	79.00281	-2.624505E+007	-1.986096E+007	1	3.291292E+007	-142.8834	-2.376509E-010	0.2419331	4
	42	72	63.3446	-625350.8	4286160	1	4331539	98.3009	-8.22757E-011	0.2419317	4
	43	74	49.86702	-7.826144E+007	1.559507E+007	1	7.980012E+007	168.7303	7.819849E-011	0.2419305	4
	44	75	39.72458	1.88586E+007	-1.08964E+007	1	2.178023E+007	-30.01909	2.850122E-010	0.2419293	5
	45	77	31.6723	1.599224E+007	7.635154E+007	1	7.80084E+007	78.17011	6.173525E-011	0.2419245	4
	46	79	24.93351	4.994624E+007	-3599423	1	5.007576E+007	-4.121948	6.053785E-011	0.241927	5
	47	80	19.86229	4.953731E+007	5.817756E+007	1	7.641055E+007	49.58611	2.096021E-010	0.2419351	4
	48	82	15.83615	7820844	925692.7	1	7875437	6.750251	-1.769398E-009	0.2419333	5
	49	84	12.40079	727716.8	1.430648E+007	1	1.432498E+007	87.08809	1.320849E-009	0.2419327	5
	50	85	9.93114	3.305607E+007	1.788179E+007	1	3.758273E+007	28.41132	2.500187E-010	0.2419278	4
	51	87	7.944915	5215665	3.59678E+007	1	3.634399E+007	81.74909	-5.71559E-010	0.2419404	4
	52	89	6.317385	6.194568E+007	-6817795	1	6.231974E+007	-6.280744	-6.162032E-011	0.2419473	4
	53	92	5.008013	6.394795E+007	-2779853	1	6.400834E+007	-2.489113	-6.099646E-011	0.2419398	5
	54	95	3.945707	6.049738E+007	-1.291523E+007	1	6.186062E+007	-12.05084	3.371994E-011	0.2419329	5
	55	99	3.158693	5.657977E+007	-2418767	1	5.663145E+007	-2.447886	-1.382775E-011	0.2419546	5
	56	103	2.504006	2.12484E+008	-9.604137E+006	1	2.12701E+008	-2.58797	4.015567E-011	0.2419198	3
	57	107	1.998082	2.131741E+008	-1.355345E+007	1	2.136045E+008	-3.637927	4.495072E-011	0.2419377	3
	58	111	1.584686	2.158855E+008	-8539846	1	2.160543E+008	-2.265285	4.414982E-011	0.2419786	3
	59	117	1.266892	2.281951E+009	-5.234976E+008	1	2.341228E+009	-12.92054	-4.316122E-013	0.2419544	2
	60	121	0.999041	2.319123E+009	-4.3246E+008	1	2.3591E+009	-10.56295	-2.190038E-013	0.2419346	2
