EXPLAIN
TAG	EISPOT
TITLE	LABEL	Potentiostatic EIS	Test &Identifier
DATE	LABEL	11/11/2019	Date
TIME	LABEL	13:33:05	Time
NOTES	NOTES	3	&Notes...
	
	
	
PSTAT	PSTAT	REF600-11020	Potentiostat
VDC	POTEN	0.00000E+000	T	DC &Voltage (V)
FREQINIT	QUANT	1.00000E+006	Initial Fre&q. (Hz)
FREQFINAL	QUANT	1.00000E+000	Final Fre&q. (Hz)
PTSPERDEC	QUANT	1.00000E+001	Points/&decade
VAC	QUANT	2.50000E+001	AC &Voltage (mV rms)
AREA	QUANT	1.00000E-002	&Area (cm^2)
CONDIT	TWOPARAM	T	5.00000E+000	0.00000E+000	Conditionin&g	Time(s)	E(V)
DELAY	TWOPARAM	T	5.00000E+000	0.00000E+000	Init. De&lay	Time(s)	Stab.(mV/s)
SPEED	SELECTOR	1	&Optimize for:
ZGUESS	QUANT	1.00000E+005	E&stimated Z (ohms)
OCVCURVE	TABLE	19
	Pt	T	Vf	Vm	Ach	Over
	#	s	V vs. Ref.	V	V	bits
	0	0.258333	6.53066E-003	6.53066E-003	5.70299E-004	...........
	1	0.516667	6.52963E-003	6.47684E-003	5.67732E-004	...........
	2	0.775	6.52269E-003	6.39311E-003	5.68066E-004	...........
	3	1.03333	6.50457E-003	6.50004E-003	5.65232E-004	...........
	4	1.29167	6.48525E-003	6.68291E-003	5.61599E-004	...........
	5	1.55	6.49313E-003	6.75952E-003	5.68632E-004	...........
	6	1.80833	6.54836E-003	6.91042E-003	5.69232E-004	...........
	7	2.06667	6.64107E-003	6.84229E-003	5.64132E-004	...........
	8	2.325	6.74057E-003	6.93506E-003	5.69332E-004	...........
	9	2.58333	6.82153E-003	6.98750E-003	5.68199E-004	...........
	10	2.84167	6.88197E-003	7.05924E-003	5.68266E-004	...........
	11	3.1	6.93434E-003	7.07551E-003	5.67632E-004	...........
	12	3.35833	6.98555E-003	7.11938E-003	5.71066E-004	...........
	13	3.61667	7.03471E-003	7.20772E-003	5.62499E-004	...........
	14	3.875	7.08101E-003	7.14417E-003	5.59899E-004	...........
	15	4.13333	7.12301E-003	7.25188E-003	5.67266E-004	...........
	16	4.39167	7.16055E-003	7.33460E-003	5.59866E-004	...........
	17	4.65	7.20100E-003	7.36135E-003	5.62299E-004	...........
	18	4.90833	7.25075E-003	7.41678E-003	5.60966E-004	...........
EOC	QUANT	0.0072507	Open Circuit (V)
PSTATMODEL	IQUANT	4	Pstat Model
PSTATSECTION	LABEL	REF600-11020	Pstat Section
PSTATSERIALNO	LABEL	11020	Pstat Serial Number
CTRLMODE	IQUANT	1	Control Mode
IESTAB	IQUANT	0	I/E Stability
CASPEED	IQUANT	1	Control Amp Speed
CONVENTION	IQUANT	1	Current Convention
ICHRANGE	IQUANT	2	Ich Range
ICHRANGEMODE	TOGGLE	F	Ich Auto Range
ICHOFFSETENABLE	TOGGLE	T	Ich Offset Enable
ICHOFFSET	QUANT	0	Ich Offset (V)
ICHFILTER	IQUANT	3	Ich Filter
VCHRANGE	IQUANT	2	Vch Range
VCHRANGEMODE	TOGGLE	F	Vch Auto Range
VCHOFFSETENABLE	TOGGLE	T	Vch Offset Enable
VCHOFFSET	QUANT	0	Vch Offset (V)
VCHFILTER	IQUANT	3	Vch Filter
ACHRANGE	IQUANT	2	Ach Range
ACHOFFSETENABLE	TOGGLE	F	Ach Offset Enable
ACHOFFSET	QUANT	0	Ach Offset (V)
ACHFILTER	IQUANT	3	Ach Filter
IERANGELOWERLIMIT	IQUANT	1	I/E Range Lower Limit
IERANGEMODE	TOGGLE	F	I/E AutoRange
IERANGE	IQUANT	5	I/E Range
POSFEEDENABLE	TOGGLE	F	Positive Feedback IR Comp
POSFEEDRESISTANCE	QUANT	0	Positive Feedback Resistance (ohm)
ACHSELECT	IQUANT	0	Ach Select
CABLEID	IQUANT	14	Cable ID
DCCALDATE	LABEL	8/19/2019	DC Calibration Date
ACCALDATE	LABEL	8/19/2019	AC Calibration Date
THERMOSELECT	IQUANT	1	Thermo Select
FRAMEWORKVERSION	QUANT	6.33	Framework Version
INSTRUMENTVERSION	LABEL	3.50	Instrument Version
ZCURVE	TABLE
	Pt	Time	Freq	Zreal	Zimag	Zsig	Zmod	Zphz	Idc	Vdc	IERange
	#	s	Hz	ohm	ohm	V	ohm	°	A	V	#
	0	2	1000078	2453.693	-1857.907	1	3077.73	-37.13257	1.061945E-005	0.0085813	8
	1	3	794390.6	2828.5	-1822.183	1	3364.634	-32.79054	2.563905E-006	0.0084351	8
	2	5	630984.4	3180.006	-1732.89	1	3621.512	-28.58742	1.319404E-006	0.0086075	8
	3	6	501234.4	3477.464	-1609.176	1	3831.737	-24.83207	-9.549364E-007	0.0093366	8
	4	7	398109.4	3738.587	-1467.188	1	4016.177	-21.42725	1.803523E-006	0.0084803	8
	5	9	316265.6	3945.208	-1329.832	1	4163.306	-18.62769	5.654284E-006	0.0082098	8
	6	10	251203.1	4120.931	-1190.724	1	4289.51	-16.11641	5.414222E-006	0.0082147	8
	7	11	199546.9	4255.205	-1058.399	1	4384.857	-13.96776	-1.560574E-007	0.0085755	8
	8	13	158578.1	4379.801	-959.683	1	4483.709	-12.35908	5.513687E-006	0.008223	8
	9	14	125953.1	4500.646	-786.6381	1	4568.874	-9.9142	-4.375503E-007	0.0071616	7
	10	15	100078.1	4570.035	-725.6538	1	4627.288	-9.022397	5.121581E-007	0.0089703	7
	11	17	79453.13	4637.928	-682.8312	1	4687.924	-8.375353	-2.529056E-007	0.0099273	7
	12	18	63140.62	4704.217	-657.8542	1	4749.992	-7.960816	7.065814E-007	0.0085873	7
	13	19	50203.12	4763.014	-645.6945	1	4806.582	-7.720197	5.157085E-007	0.0089575	7
	14	21	39890.62	4824.402	-648.2288	1	4867.756	-7.65269	7.07419E-007	0.0085878	7
	15	22	31640.63	4879.065	-662.9932	1	4923.904	-7.738257	-8.860918E-007	0.0091954	7
	16	24	25171.88	4942.722	-696.0244	1	4991.488	-8.015574	-2.555872E-007	0.0080353	7
	17	25	20015.62	5002.331	-733.5994	1	5055.836	-8.343041	-9.340765E-007	0.0101387	7
	18	26	15890.62	5077.782	-806.249	1	5141.391	-9.022095	-1.040128E-006	0.0099905	7
	19	28	12609.37	5159.898	-891.3493	1	5236.32	-9.80086	8.38751E-007	0.0073348	7
	20	29	10078.13	5236.334	-988.758	1	5328.868	-10.69305	-2.526243E-007	0.009931	7
	21	30	8015.625	5323.242	-1104.719	1	5436.664	-11.72403	-1.033129E-006	0.0096874	7
	22	32	6328.125	5438.376	-1269.597	1	5584.605	-13.14044	6.699233E-007	0.0072575	7
	23	33	5015.625	5555.493	-1454.979	1	5742.862	-14.6761	8.651609E-007	0.0081655	7
	24	34	3984.375	5673.71	-1665.751	1	5913.182	-16.36177	5.616936E-008	0.0095944	7
	25	36	3170.956	5819.03	-1924.979	1	6129.165	-18.3046	-9.32034E-007	0.0101436	7
	26	37	2527.573	5973.912	-2229.661	1	6376.442	-20.46724	-1.032862E-006	0.009679	7
	27	39	1976.103	6168.367	-2624.417	1	6703.456	-23.048	-5.326827E-007	0.0101197	7
	28	40	1577.524	6411.542	-3111.565	1	7126.689	-25.88762	-1.037574E-006	0.0099868	7
	29	41	1265.625	6583.133	-3567.456	1	7487.616	-28.45364	-6.207398E-007	0.0086206	7
	30	43	998.264	6843.587	-4231.473	1	8046.12	-31.72901	9.405086E-007	0.0078021	7
	31	44	796.875	7113.948	-4982.668	1	8685.347	-35.00772	-2.497463E-007	0.009921	7
	32	46	627.7902	7435.64	-5948.505	1	9522.26	-38.65977	-5.295843E-007	0.0101181	7
	33	47	505.5147	7762.5	-7027.76	1	10471.19	-42.15604	7.121063E-007	0.0085724	7
	34	48	397.9953	8184.744	-8472.691	1	11780.34	-45.99034	2.068497E-009	0.0087853	7
	35	50	315.5048	8652.99	-10195.75	1	13372.64	-49.6792	3.467228E-010	0.0087288	6
	36	51	252.4038	9164.008	-12224.82	1	15278.26	-53.14393	7.634954E-010	0.0087241	6
	37	52	198.6229	9811.53	-14903.81	1	17843.48	-56.64215	6.703207E-010	0.0087258	6
	38	54	158.3615	10547.77	-18029	1	20887.81	-59.67046	7.834741E-010	0.0087255	6
	39	55	125.558	11459.5	-21961.34	1	24771.37	-62.44429	4.239367E-010	0.0087301	6
	40	56	100.4464	12534.72	-26615.62	1	29419.55	-64.78174	1.093073E-009	0.008723	6
	41	58	79.00281	14091.99	-32732.78	1	35637.32	-66.70734	4.243786E-012	0.0087153	6
	42	59	63.3446	15901.54	-39381.68	1	42470.88	-68.01212	1.488481E-010	0.0087224	6
	43	60	49.86702	18442.91	-48942.94	1	52302.51	-69.35235	2.200263E-010	0.0087232	6
	44	62	39.72458	21439.5	-59266.66	1	63025.31	-70.11259	8.236224E-010	0.0087197	6
	45	63	31.6723	25683.16	-72092.63	1	76530.86	-70.39145	-2.522955E-010	0.0087158	6
	46	65	24.93351	31464.19	-87963	1	93421.01	-70.31797	6.422952E-010	0.0087174	6
	47	66	19.86229	38886.81	-105985.5	1	112894.2	-69.85156	6.91647E-011	0.0087188	5
	48	67	15.83615	48561.37	-126982.6	1	135951.4	-69.07188	4.009639E-011	0.0087245	5
	49	69	12.40079	62502.71	-154112.5	1	166304.7	-67.92422	4.074702E-011	0.0087172	5
	50	70	9.93114	78558.29	-181870.2	1	198111.5	-66.63821	-1.566306E-010	0.0087185	5
	51	72	7.944915	99810.5	-212565.3	1	234832.2	-64.84749	5.86749E-011	0.008715	5
	52	73	6.317385	125067.4	-248083	1	277825.5	-63.24571	4.658929E-010	0.00872	5
	53	75	5.008013	157566.5	-287391.7	1	327751.7	-61.26562	1.001424E-010	0.008722	5
	54	78	3.945707	196671.5	-329972.5	1	384137.3	-59.20404	-1.559888E-010	0.008724	5
	55	80	3.158693	238950	-371683.1	1	441865.9	-57.26359	1.22784E-011	0.0087149	5
	56	84	2.504006	287603.3	-418688.8	1	507952.7	-55.51427	6.340887E-012	0.008734	5
	57	87	1.998082	338559.7	-467585.3	1	577285.6	-54.09322	3.734155E-010	0.008717	5
	58	90	1.584686	397666.1	-521929.3	1	656162	-52.69566	-3.281376E-011	0.0086819	5
	59	93	1.266892	455869.9	-582027.6	1	739306.1	-51.93037	2.764871E-010	0.0087249	5
	60	98	0.999041	525273.2	-654498.6	1	839214.1	-51.25093	-3.633266E-010	0.0087046	5
