EXPLAIN
TAG	EISPOT
TITLE	LABEL	Potentiostatic EIS	Test &Identifier
DATE	LABEL	11/21/2019	Date
TIME	LABEL	22:57:56	Time
NOTES	NOTES	4	&Notes...
	
	
	
	
PSTAT	PSTAT	REF600-11020	Potentiostat
VDC	POTEN	0.00000E+000	T	DC &Voltage (V)
FREQINIT	QUANT	1.00000E+006	Initial Fre&q. (Hz)
FREQFINAL	QUANT	1.00000E+000	Final Fre&q. (Hz)
PTSPERDEC	QUANT	1.00000E+001	Points/&decade
VAC	QUANT	2.50000E+001	AC &Voltage (mV rms)
AREA	QUANT	1.00000E-002	&Area (cm^2)
CONDIT	TWOPARAM	T	5.00000E+000	0.00000E+000	Conditionin&g	Time(s)	E(V)
DELAY	TWOPARAM	T	5.00000E+000	0.00000E+000	Init. De&lay	Time(s)	Stab.(mV/s)
SPEED	SELECTOR	1	&Optimize for:
ZGUESS	QUANT	1.00000E+005	E&stimated Z (ohms)
OCVCURVE	TABLE	19
	Pt	T	Vf	Vm	Ach	Over
	#	s	V vs. Ref.	V	V	bits
	0	0.258333	6.72618E-003	6.72618E-003	5.41333E-004	...........
	1	0.516667	6.72587E-003	6.70985E-003	5.49199E-004	...........
	2	0.775	6.72413E-003	6.70333E-003	5.47599E-004	...........
	3	1.03333	6.71988E-003	6.70320E-003	5.46633E-004	...........
	4	1.29167	6.71310E-003	6.66174E-003	5.48699E-004	...........
	5	1.55	6.70259E-003	6.61430E-003	5.44766E-004	...........
	6	1.80833	6.68535E-003	6.61930E-003	5.45433E-004	...........
	7	2.06667	6.66577E-003	6.79907E-003	5.48766E-004	...........
	8	2.325	6.66055E-003	6.73092E-003	5.42033E-004	...........
	9	2.58333	6.67890E-003	6.71655E-003	5.46666E-004	...........
	10	2.84167	6.70747E-003	6.79186E-003	5.42966E-004	...........
	11	3.1	6.73225E-003	6.83770E-003	5.48933E-004	...........
	12	3.35833	6.75666E-003	6.85953E-003	5.44866E-004	...........
	13	3.61667	6.78705E-003	6.88101E-003	5.43666E-004	...........
	14	3.875	6.82082E-003	6.91375E-003	5.46199E-004	...........
	15	4.13333	6.85247E-003	6.91146E-003	5.48033E-004	...........
	16	4.39167	6.87901E-003	6.93099E-003	5.48699E-004	...........
	17	4.65	6.89948E-003	6.93320E-003	5.49133E-004	...........
	18	4.90833	6.91471E-003	6.95620E-003	5.46499E-004	...........
EOC	QUANT	0.0069147	Open Circuit (V)
PSTATMODEL	IQUANT	4	Pstat Model
PSTATSECTION	LABEL	REF600-11020	Pstat Section
PSTATSERIALNO	LABEL	11020	Pstat Serial Number
CTRLMODE	IQUANT	1	Control Mode
IESTAB	IQUANT	0	I/E Stability
CASPEED	IQUANT	1	Control Amp Speed
CONVENTION	IQUANT	1	Current Convention
ICHRANGE	IQUANT	2	Ich Range
ICHRANGEMODE	TOGGLE	F	Ich Auto Range
ICHOFFSETENABLE	TOGGLE	T	Ich Offset Enable
ICHOFFSET	QUANT	0	Ich Offset (V)
ICHFILTER	IQUANT	3	Ich Filter
VCHRANGE	IQUANT	2	Vch Range
VCHRANGEMODE	TOGGLE	F	Vch Auto Range
VCHOFFSETENABLE	TOGGLE	T	Vch Offset Enable
VCHOFFSET	QUANT	0	Vch Offset (V)
VCHFILTER	IQUANT	3	Vch Filter
ACHRANGE	IQUANT	2	Ach Range
ACHOFFSETENABLE	TOGGLE	F	Ach Offset Enable
ACHOFFSET	QUANT	0	Ach Offset (V)
ACHFILTER	IQUANT	3	Ach Filter
IERANGELOWERLIMIT	IQUANT	1	I/E Range Lower Limit
IERANGEMODE	TOGGLE	F	I/E AutoRange
IERANGE	IQUANT	5	I/E Range
POSFEEDENABLE	TOGGLE	F	Positive Feedback IR Comp
POSFEEDRESISTANCE	QUANT	0	Positive Feedback Resistance (ohm)
ACHSELECT	IQUANT	0	Ach Select
CABLEID	IQUANT	14	Cable ID
DCCALDATE	LABEL	8/19/2019	DC Calibration Date
ACCALDATE	LABEL	8/19/2019	AC Calibration Date
THERMOSELECT	IQUANT	1	Thermo Select
FRAMEWORKVERSION	QUANT	6.33	Framework Version
INSTRUMENTVERSION	LABEL	3.50	Instrument Version
ZCURVE	TABLE
	Pt	Time	Freq	Zreal	Zimag	Zsig	Zmod	Zphz	Idc	Vdc	IERange
	#	s	Hz	ohm	ohm	V	ohm	°	A	V	#
	0	1	1000078	2201.173	-1282.179	1	2547.38	-30.22071	1.256068E-005	0.0092351	8
	1	3	794390.6	2435.897	-1210.438	1	2720.065	-26.42355	-6.453054E-006	0.0086751	8
	2	4	630984.4	2648.864	-1105.064	1	2870.13	-22.64513	6.112537E-006	0.0087111	8
	3	5	501234.4	2823.048	-996.91	1	2993.898	-19.44978	-5.779631E-006	0.0090576	8
	4	7	398109.4	2960.162	-878.2125	1	3087.688	-16.52442	-7.817308E-007	0.0089968	8
	5	8	316265.6	3076.372	-769.5657	1	3171.167	-14.04453	-2.551106E-006	0.0084972	8
	6	9	251203.1	3157.964	-671.5908	1	3228.586	-12.00599	-5.707491E-007	0.0082789	8
	7	11	199546.9	3228.781	-587.8408	1	3281.856	-10.31841	-2.489375E-007	0.0082851	8
	8	12	158578.1	3269.632	-500.6285	1	3307.737	-8.705215	1.651062E-006	0.0081747	8
	9	14	125953.1	3347.1	-422.6059	1	3373.674	-7.196104	2.72036E-006	0.0067917	7
	10	15	100078.1	3373.918	-382.4575	1	3395.526	-6.467274	-7.041764E-007	0.0083701	7
	11	16	79453.13	3407.513	-362.8458	1	3426.777	-6.078183	4.578038E-007	0.0069067	7
	12	18	63140.62	3438.241	-350.7516	1	3456.086	-5.824869	-7.055203E-007	0.0083551	7
	13	19	50203.12	3471.796	-347.2997	1	3489.124	-5.712556	7.384171E-007	0.0067987	7
	14	20	39890.62	3502.299	-348.2387	1	3519.569	-5.678339	-5.897249E-007	0.0100189	7
	15	22	31640.63	3535.928	-357.6045	1	3553.966	-5.774947	-1.17648E-006	0.009897	7
	16	23	25171.88	3570.148	-373.6805	1	3589.651	-5.975282	-1.17748E-006	0.0095618	7
	17	24	20015.62	3606.974	-398.0688	1	3628.873	-6.297727	-8.583287E-007	0.0101201	7
	18	26	15890.62	3643.889	-429.3651	1	3669.098	-6.720263	-1.177213E-006	0.0099031	7
	19	27	12609.37	3685.693	-470.278	1	3715.574	-7.271396	4.604697E-007	0.0069161	7
	20	28	10078.13	3719.978	-520.4852	1	3756.214	-7.964901	-1.175747E-006	0.0099038	7
	21	30	8015.625	3760.97	-581.9168	1	3805.722	-8.795357	-7.058611E-007	0.0083657	7
	22	31	6328.125	3811.323	-669.1116	1	3869.612	-9.95731	9.34214E-007	0.0068909	7
	23	32	5015.625	3853.061	-771.1399	1	3929.47	-11.31748	-1.172248E-006	0.0095581	7
	24	34	3984.375	3903.518	-903.8164	1	4006.786	-13.03648	-7.049E-007	0.0083592	7
	25	35	3170.956	3959.442	-1059.453	1	4098.734	-14.98006	4.607479E-007	0.0069148	7
	26	36	2527.573	4014.532	-1249.45	1	4204.473	-17.2878	-1.01029E-006	0.0090135	7
	27	38	1976.103	4090.495	-1511.053	1	4360.668	-20.27452	8.083781E-007	0.00827	7
	28	39	1577.524	4144.96	-1791.665	1	4515.613	-23.37649	1.038267E-006	0.0071012	7
	29	40	1265.625	4249.186	-2152.137	1	4763.116	-26.8614	-5.915658E-007	0.0100266	7
	30	42	998.264	4354.031	-2614.178	1	5078.534	-30.98078	7.996147E-008	0.0094163	7
	31	43	796.875	4469.485	-3161.15	1	5474.41	-35.27077	9.792217E-007	0.0077994	7
	32	45	627.7902	4606.164	-3860.642	1	6010.101	-39.96795	-1.171289E-006	0.0095518	7
	33	46	505.5147	4758.365	-4651.802	1	6654.419	-44.3512	-1.174218E-006	0.0098951	7
	34	47	397.9953	4954.453	-5734.804	1	7578.56	-49.17537	3.103933E-009	0.0085244	7
	35	49	315.5048	5188.744	-7032.593	1	8739.59	-53.57958	2.276966E-009	0.0085271	7
	36	50	252.4038	5468.158	-8566.018	1	10162.55	-57.44768	1.123842E-009	0.0084694	6
	37	51	198.6229	5840.199	-10601.56	1	12103.76	-61.15045	4.25334E-010	0.0084687	6
	38	53	158.3615	6289.264	-12973.49	1	14417.57	-64.1369	1.432247E-010	0.0084721	6
	39	54	125.558	6870.239	-15961.53	1	17377.3	-66.71175	3.138762E-010	0.0084728	6
	40	55	100.4464	7586.53	-19463.87	1	20890.13	-68.70541	1.049125E-009	0.0084577	6
	41	57	79.00281	8597.545	-24078.4	1	25567.31	-70.35015	1.395322E-009	0.008457	6
	42	58	63.3446	9623.09	-29319.1	1	30857.95	-71.82917	6.220341E-010	0.0084604	6
	43	59	49.86702	11657.77	-36093.21	1	37929.19	-72.10002	1.008018E-009	0.0084639	6
	44	61	39.72458	13715.08	-44143.24	1	46224.77	-72.74024	6.646162E-010	0.0084734	6
	45	62	31.6723	16581.16	-53621.22	1	56126.37	-72.81695	4.206667E-010	0.0084584	6
	46	64	24.93351	20337.96	-65799.87	1	68871.29	-72.82424	4.391951E-010	0.0084608	6
	47	65	19.86229	25084.8	-79569.69	1	83430.11	-72.50224	1.321164E-009	0.0084604	6
	48	66	15.83615	30678.55	-95399.7	1	100211.2	-72.17329	1.273072E-009	0.0084701	6
	49	68	12.40079	39812.36	-116540.7	1	123153.4	-71.13892	-1.464248E-011	0.0084807	5
	50	69	9.93114	49640.81	-139267.9	1	147850.5	-70.38184	2.040479E-010	0.0084703	5
	51	71	7.944915	62174.19	-165139.2	1	176455.7	-69.36887	2.57854E-010	0.0084619	5
	52	72	6.317385	77780.16	-195969.7	1	210840.9	-68.35193	-2.879689E-010	0.0084659	5
	53	74	5.008013	98310.5	-232551.4	1	252478	-67.08392	1.127665E-010	0.008475	5
	54	77	3.945707	124352	-275420.5	1	302191.8	-65.70088	6.611597E-011	0.0084708	5
	55	79	3.158693	153952	-320625.8	1	355671.4	-64.35149	2.597984E-011	0.0084564	5
	56	83	2.504006	192151	-374947.3	1	421316.4	-62.86601	5.417625E-010	0.0084822	5
	57	86	1.998082	239175.3	-432772.2	1	494465.9	-61.07239	-2.496705E-010	0.008487	5
	58	89	1.584686	286857	-494422.9	1	571612.6	-59.87831	1.491826E-010	0.0084288	5
	59	92	1.266892	343959.6	-564096.2	1	660691.1	-58.6271	2.946511E-010	0.0084918	5
	60	97	0.999041	414470.5	-644276.9	1	766079.9	-57.24637	-8.241521E-011	0.0084404	5
