EXPLAIN
TAG	EISPOT
TITLE	LABEL	Potentiostatic EIS	Test &Identifier
DATE	LABEL	10/4/2019	Date
TIME	LABEL	10:33:23	Time
NOTES	NOTES	2	&Notes...
	
	
PSTAT	PSTAT	REF600-11020	Potentiostat
VDC	POTEN	0.00000E+000	T	DC &Voltage (V)
FREQINIT	QUANT	1.00000E+006	Initial Fre&q. (Hz)
FREQFINAL	QUANT	1.00000E+000	Final Fre&q. (Hz)
PTSPERDEC	QUANT	1.00000E+001	Points/&decade
VAC	QUANT	2.50000E+001	AC &Voltage (mV rms)
AREA	QUANT	1.00000E-002	&Area (cm^2)
CONDIT	TWOPARAM	T	5.00000E+000	0.00000E+000	Conditionin&g	Time(s)	E(V)
DELAY	TWOPARAM	T	5.00000E+000	0.00000E+000	Init. De&lay	Time(s)	Stab.(mV/s)
SPEED	SELECTOR	1	&Optimize for:
ZGUESS	QUANT	1.00000E+004	E&stimated Z (ohms)
OCVCURVE	TABLE	19
	Pt	T	Vf	Vm	Ach	Over
	#	s	V vs. Ref.	V	V	bits
	0	0.258333	5.14013E-003	5.14013E-003	5.23700E-004	...........
	1	0.516667	5.13609E-003	4.92860E-003	5.26933E-004	...........
	2	0.775	5.11159E-003	4.74453E-003	5.28433E-004	...........
	3	1.03333	5.04358E-003	4.58144E-003	5.19766E-004	...........
	4	1.29167	4.92518E-003	4.43084E-003	5.18500E-004	...........
	5	1.55	4.77334E-003	4.29970E-003	5.28333E-004	...........
	6	1.80833	4.61268E-003	4.18454E-003	5.21200E-004	...........
	7	2.06667	4.46009E-003	4.06625E-003	5.22933E-004	...........
	8	2.325	4.32156E-003	3.95626E-003	5.19366E-004	...........
	9	2.58333	4.19607E-003	3.87299E-003	5.22533E-004	...........
	10	2.84167	4.08121E-003	3.76871E-003	5.27400E-004	...........
	11	3.1	3.97512E-003	3.67668E-003	5.21066E-004	...........
	12	3.35833	3.87573E-003	3.61001E-003	5.19166E-004	...........
	13	3.61667	3.78248E-003	3.54432E-003	5.18433E-004	...........
	14	3.875	3.69655E-003	3.45547E-003	5.23533E-004	...........
	15	4.13333	3.61723E-003	3.38547E-003	5.20233E-004	...........
	16	4.39167	3.54164E-003	3.33460E-003	5.23700E-004	...........
	17	4.65	3.46925E-003	3.28487E-003	5.28300E-004	...........
	18	4.90833	3.40184E-003	3.20015E-003	5.28866E-004	...........
EOC	QUANT	0.0034018	Open Circuit (V)
PSTATMODEL	IQUANT	4	Pstat Model
PSTATSECTION	LABEL	REF600-11020	Pstat Section
PSTATSERIALNO	LABEL	11020	Pstat Serial Number
CTRLMODE	IQUANT	1	Control Mode
IESTAB	IQUANT	0	I/E Stability
CASPEED	IQUANT	1	Control Amp Speed
CONVENTION	IQUANT	1	Current Convention
ICHRANGE	IQUANT	2	Ich Range
ICHRANGEMODE	TOGGLE	F	Ich Auto Range
ICHOFFSETENABLE	TOGGLE	T	Ich Offset Enable
ICHOFFSET	QUANT	0	Ich Offset (V)
ICHFILTER	IQUANT	3	Ich Filter
VCHRANGE	IQUANT	2	Vch Range
VCHRANGEMODE	TOGGLE	F	Vch Auto Range
VCHOFFSETENABLE	TOGGLE	T	Vch Offset Enable
VCHOFFSET	QUANT	0	Vch Offset (V)
VCHFILTER	IQUANT	3	Vch Filter
ACHRANGE	IQUANT	2	Ach Range
ACHOFFSETENABLE	TOGGLE	F	Ach Offset Enable
ACHOFFSET	QUANT	0	Ach Offset (V)
ACHFILTER	IQUANT	3	Ach Filter
IERANGELOWERLIMIT	IQUANT	1	I/E Range Lower Limit
IERANGEMODE	TOGGLE	F	I/E AutoRange
IERANGE	IQUANT	5	I/E Range
POSFEEDENABLE	TOGGLE	F	Positive Feedback IR Comp
POSFEEDRESISTANCE	QUANT	0	Positive Feedback Resistance (ohm)
ACHSELECT	IQUANT	0	Ach Select
CABLEID	IQUANT	14	Cable ID
DCCALDATE	LABEL	8/19/2019	DC Calibration Date
ACCALDATE	LABEL	8/19/2019	AC Calibration Date
THERMOSELECT	IQUANT	1	Thermo Select
FRAMEWORKVERSION	QUANT	6.33	Framework Version
INSTRUMENTVERSION	LABEL	3.50	Instrument Version
ZCURVE	TABLE
	Pt	Time	Freq	Zreal	Zimag	Zsig	Zmod	Zphz	Idc	Vdc	IERange
	#	s	Hz	ohm	ohm	V	ohm	°	A	V	#
	0	1	1000078	2612.84	-1997.478	1	3288.898	-37.39738	4.160803E-006	0.0054616	8
	1	3	794390.6	3029.832	-1952.056	1	3604.22	-32.79282	-3.273857E-006	0.0057374	8
	2	4	630984.4	3408.343	-1856.456	1	3881.138	-28.57624	4.119763E-006	0.004531	8
	3	5	501234.4	3726.587	-1686.435	1	4090.417	-24.34872	5.151585E-008	0.0049775	8
	4	7	398109.4	4003.765	-1523.97	1	4283.996	-20.83854	-1.937855E-006	0.0056255	8
	5	8	316265.6	4227.293	-1364.129	1	4441.943	-17.88466	-2.736329E-006	0.0055905	8
	6	9	251203.1	4391.336	-1155.065	1	4540.706	-14.73686	-7.739948E-007	0.0052763	8
	7	11	199546.9	4518.325	-1008.718	1	4629.555	-12.58494	3.141067E-006	0.0045625	8
	8	12	158578.1	4605.864	-870.6155	1	4687.425	-10.70394	-1.840718E-006	0.0055567	8
	9	13	125953.1	4701.884	-721.2709	1	4756.884	-8.721211	1.154544E-007	0.0050064	7
	10	15	100078.1	4756.042	-634.5799	1	4798.19	-7.599863	9.544345E-008	0.0049169	7
	11	16	79453.13	4806.531	-575.6207	1	4840.875	-6.829106	7.598925E-008	0.0049822	7
	12	17	63140.62	4850.813	-534.7004	1	4880.193	-6.290265	4.808387E-008	0.0049657	7
	13	19	50203.12	4891.077	-507.1766	1	4917.302	-5.920085	-2.757487E-008	0.0050457	7
	14	20	39890.62	4930.674	-494.5738	1	4955.416	-5.727924	-3.370696E-008	0.0050512	7
	15	21	31640.63	4970.271	-494.9452	1	4994.854	-5.68683	-4.736038E-008	0.0051183	7
	16	23	25171.88	5009.212	-510.2128	1	5035.129	-5.8158	-2.824058E-008	0.0050385	7
	17	24	20015.62	5052.748	-532.2263	1	5080.702	-6.013021	1.039436E-008	0.0051077	7
	18	25	15890.62	5094.444	-577.3018	1	5127.049	-6.465172	-2.723262E-008	0.0050401	7
	19	27	12609.37	5140.971	-632.6205	1	5179.749	-7.015246	-3.84482E-008	0.0051235	7
	20	28	10078.13	5189.66	-704.5068	1	5237.261	-7.730759	5.695998E-010	0.0050023	7
	21	30	8015.625	5243.333	-793.5933	1	5303.049	-8.606557	-4.614456E-008	0.0051125	7
	22	31	6328.125	5300.258	-912.7966	1	5378.283	-9.77148	-3.82388E-008	0.0050793	7
	23	32	5015.625	5362.604	-1059.215	1	5466.21	-11.17317	3.751369E-008	0.0049155	7
	24	34	3984.375	5430.708	-1240.492	1	5570.584	-12.86685	3.968274E-008	0.0049856	7
	25	35	3170.956	5505.989	-1459.934	1	5696.255	-14.85046	7.02963E-008	0.0048895	7
	26	36	2527.573	5591.997	-1729.791	1	5853.427	-17.18858	2.823031E-009	0.0050039	7
	27	38	1976.103	5699.744	-2091.892	1	6071.498	-20.1539	-3.531497E-008	0.0051197	7
	28	39	1577.524	5816.804	-2495.844	1	6329.648	-23.22295	-7.306953E-009	0.0050347	7
	29	40	1265.625	5948.78	-2972.767	1	6650.212	-26.55255	3.87032E-008	0.0049866	7
	30	42	998.264	6116.037	-3604.131	1	7098.991	-30.5105	-3.632588E-008	0.0051295	7
	31	43	796.875	6301.346	-4331.339	1	7646.401	-34.50336	-1.358188E-008	0.0050575	7
	32	44	627.7902	6533.642	-5264.651	1	8390.771	-38.86103	3.520922E-008	0.0049176	7
	33	46	505.5147	6762.852	-6305.305	1	9246.244	-42.99476	-5.299029E-009	0.0050387	7
	34	47	397.9953	7092.585	-7709.42	1	10475.68	-47.38627	1.398338E-009	0.0049961	6
	35	48	315.5048	7453.714	-9393.256	1	11991.29	-51.56738	1.597477E-009	0.0049952	6
	36	50	252.4038	7872.561	-11380.58	1	13838.17	-55.32631	2.392633E-009	0.0049928	6
	37	51	198.6229	8428.334	-14011	1	16350.69	-58.97094	8.467211E-010	0.0049891	6
	38	52	158.3615	9084.705	-17073.1	1	19339.67	-61.98228	7.269951E-010	0.0049927	6
	39	54	125.558	9945.04	-20921.3	1	23164.73	-64.57571	9.122002E-010	0.0049944	6
	40	55	100.4464	10999.14	-25419.89	1	27697.51	-66.60195	6.298502E-010	0.0049881	6
	41	57	79.00281	12459.84	-31388.84	1	33771.39	-68.34934	6.035422E-010	0.0049873	6
	42	58	63.3446	14143.05	-38111.47	1	40651.07	-69.64026	3.979398E-010	0.0049841	6
	43	59	49.86702	16696.21	-46552.03	1	49455.59	-70.26928	5.516307E-011	0.0049871	6
	44	61	39.72458	19816.86	-56654.22	1	60020.07	-70.72087	6.958675E-010	0.0049938	6
	45	62	31.6723	23689.97	-68561.28	1	72538.71	-70.93844	2.615869E-010	0.0049891	6
	46	63	24.93351	29248.28	-83684.39	1	88648.4	-70.73512	9.214244E-010	0.0049908	6
	47	65	19.86229	35984.62	-100709.6	1	106945.4	-70.33765	1.391686E-010	0.0049951	5
	48	66	15.83615	44655.46	-120562.9	1	128567.2	-69.6758	5.950407E-010	0.0049953	5
	49	67	12.40079	56230.8	-146366.1	1	156795.9	-68.98428	1.402815E-010	0.0050043	5
	50	69	9.93114	70906.65	-173158.4	1	187113.8	-67.73139	1.356726E-010	0.0050081	5
	51	70	7.944915	88881.47	-203401	1	221972.7	-66.39581	6.149141E-010	0.0049969	5
	52	72	6.317385	111540.4	-238862.8	1	263622.3	-64.9691	1.21091E-009	0.0049922	5
	53	74	5.008013	139360.2	-279395.7	1	312223.1	-63.49036	2.019401E-010	0.0050048	5
	54	77	3.945707	174008.8	-324510.8	1	368220.5	-61.79896	-1.672986E-010	0.0049929	5
	55	79	3.158693	211835	-371329.9	1	427504.3	-60.29626	3.033096E-010	0.0050024	5
	56	83	2.504006	257491.5	-424837.8	1	496778.6	-58.78021	-2.873517E-011	0.0050052	5
	57	85	1.998082	304314.3	-480088.6	1	568412.1	-57.63057	3.471422E-010	0.0049592	5
	58	88	1.584686	360985.8	-545371.6	1	654019.1	-56.49911	1.451272E-010	0.0049572	5
	59	92	1.266892	418413.4	-614397	1	743339.4	-55.74456	3.028517E-010	0.0049602	5
	60	96	0.999041	484095.7	-702049.1	1	852772.9	-55.41192	-1.269072E-010	0.0049965	5
