EXPLAIN
TAG	EISPOT
TITLE	LABEL	Potentiostatic EIS	Test &Identifier
DATE	LABEL	8/16/2017	Date
TIME	LABEL	16:48:41	Time
NOTES	NOTES	1	&Notes...
	
PSTAT	PSTAT	REF600-11020	Potentiostat
VDC	POTEN	0.00000E+000	T	DC &Voltage (V)
FREQINIT	QUANT	1.00000E+006	Initial Fre&q. (Hz)
FREQFINAL	QUANT	1.00000E+000	Final Fre&q. (Hz)
PTSPERDEC	QUANT	1.00000E+001	Points/&decade
VAC	QUANT	2.50000E+001	AC &Voltage (mV rms)
AREA	QUANT	1.00000E-002	&Area (cm^2)
CONDIT	TWOPARAM	T	5.00000E+000	0.00000E+000	Conditionin&g	Time(s)	E(V)
DELAY	TWOPARAM	T	5.00000E+000	0.00000E+000	Init. De&lay	Time(s)	Stab.(mV/s)
SPEED	SELECTOR	0	&Optimize for:
ZGUESS	QUANT	1.00000E+005	E&stimated Z (ohms)
OCVCURVE	TABLE	19
	Pt	T	Vf	Vm	Ach	Over
	#	s	V vs. Ref.	V	V	bits
	0	0.258333	6.72299E-003	6.72299E-003	5.56966E-004	...........
	1	0.516667	6.72234E-003	6.68875E-003	5.60466E-004	...........
	2	0.775	6.71892E-003	6.68764E-003	5.60199E-004	...........
	3	1.03333	6.71154E-003	6.70225E-003	5.54966E-004	...........
	4	1.29167	6.70375E-003	6.72954E-003	5.55299E-004	...........
	5	1.55	6.70217E-003	6.75345E-003	5.53233E-004	...........
	6	1.80833	6.71075E-003	6.78230E-003	5.58099E-004	...........
	7	2.06667	6.72869E-003	6.81317E-003	5.58533E-004	...........
	8	2.325	6.75329E-003	6.86057E-003	5.54666E-004	...........
	9	2.58333	6.78290E-003	6.89306E-003	5.61532E-004	...........
	10	2.84167	6.81692E-003	6.94395E-003	5.50733E-004	...........
	11	3.1	6.85455E-003	6.97552E-003	5.54133E-004	...........
	12	3.35833	6.89449E-003	7.02645E-003	5.53899E-004	...........
	13	3.61667	6.93517E-003	7.03832E-003	5.53333E-004	...........
	14	3.875	6.97440E-003	7.07851E-003	5.50433E-004	...........
	15	4.13333	7.01073E-003	7.12858E-003	5.58099E-004	...........
	16	4.39167	7.04570E-003	7.16169E-003	5.56099E-004	...........
	17	4.65	7.08221E-003	7.20961E-003	5.61399E-004	...........
	18	4.90833	7.12126E-003	7.24843E-003	5.56999E-004	...........
EOC	QUANT	0.0071213	Open Circuit (V)
PSTATMODEL	IQUANT	4	Pstat Model
PSTATSECTION	LABEL	REF600-11020	Pstat Section
PSTATSERIALNO	LABEL	11020	Pstat Serial Number
CTRLMODE	IQUANT	1	Control Mode
IESTAB	IQUANT	0	I/E Stability
CASPEED	IQUANT	1	Control Amp Speed
CONVENTION	IQUANT	1	Current Convention
ICHRANGE	IQUANT	2	Ich Range
ICHRANGEMODE	TOGGLE	F	Ich Auto Range
ICHOFFSETENABLE	TOGGLE	T	Ich Offset Enable
ICHOFFSET	QUANT	0	Ich Offset (V)
ICHFILTER	IQUANT	3	Ich Filter
VCHRANGE	IQUANT	2	Vch Range
VCHRANGEMODE	TOGGLE	F	Vch Auto Range
VCHOFFSETENABLE	TOGGLE	T	Vch Offset Enable
VCHOFFSET	QUANT	0	Vch Offset (V)
VCHFILTER	IQUANT	3	Vch Filter
ACHRANGE	IQUANT	2	Ach Range
ACHOFFSETENABLE	TOGGLE	F	Ach Offset Enable
ACHOFFSET	QUANT	0	Ach Offset (V)
ACHFILTER	IQUANT	3	Ach Filter
IERANGELOWERLIMIT	IQUANT	1	I/E Range Lower Limit
IERANGEMODE	TOGGLE	F	I/E AutoRange
IERANGE	IQUANT	5	I/E Range
POSFEEDENABLE	TOGGLE	F	Positive Feedback IR Comp
POSFEEDRESISTANCE	QUANT	0	Positive Feedback Resistance (ohm)
ACHSELECT	IQUANT	0	Ach Select
CABLEID	IQUANT	14	Cable ID
DCCALDATE	LABEL	8/19/2019	DC Calibration Date
ACCALDATE	LABEL	8/19/2019	AC Calibration Date
THERMOSELECT	IQUANT	1	Thermo Select
FRAMEWORKVERSION	QUANT	6.33	Framework Version
INSTRUMENTVERSION	LABEL	3.50	Instrument Version
ZCURVE	TABLE
	Pt	Time	Freq	Zreal	Zimag	Zsig	Zmod	Zphz	Idc	Vdc	IERange
	#	s	Hz	ohm	ohm	V	ohm	°	A	V	#
	0	1	1000078	2201.917	-1620.221	1	2733.78	-36.34649	1.239798E-006	0.0087062	8
	1	1	794390.6	2496.01	-1621.151	1	2976.272	-33.00361	-3.825435E-006	0.0087096	8
	2	2	630984.4	2784.871	-1564.991	1	3194.48	-29.33433	4.761992E-007	0.0083781	8
	3	2	501234.4	3049.442	-1499.747	1	3398.285	-26.18843	-4.255785E-006	0.0092816	8
	4	2	398109.4	3279.508	-1408.189	1	3569.057	-23.23821	2.419499E-006	0.0089005	8
	5	3	316265.6	3505.698	-1298.256	1	3738.367	-20.32097	3.94379E-006	0.0085413	8
	6	3	251203.1	3696.724	-1204.482	1	3888	-18.04686	3.856478E-006	0.0085418	8
	7	3	199546.9	3848.516	-1113.244	1	4006.293	-16.13335	5.99157E-006	0.0074536	8
	8	4	158578.1	3989.375	-1030.452	1	4120.309	-14.48289	-4.695379E-006	0.0089227	8
	9	4	125953.1	4138.417	-873.4317	1	4229.584	-11.91763	-1.808937E-006	0.0081978	7
	10	4	100078.1	4237.86	-818.4927	1	4316.178	-10.93141	1.081067E-006	0.007778	7
	11	4	79453.13	4319.361	-783.3505	1	4389.82	-10.27932	1.171467E-006	0.0073187	7
	12	5	63140.62	4399.782	-766.6512	1	4466.076	-9.88441	1.172203E-006	0.0073139	7
	13	5	50203.12	4471.847	-760.9701	1	4536.131	-9.65746	1.173047E-006	0.0073121	7
	14	5	39890.62	4541.23	-773.0745	1	4606.563	-9.66111	-3.081131E-007	0.0099697	7
	15	6	31640.63	4624.271	-803.081	1	4693.487	-9.8521	1.15729E-006	0.0069678	7
	16	6	25171.88	4699.705	-849.0536	1	4775.784	-10.24066	5.105001E-007	0.0067611	7
	17	6	20015.62	4786.129	-912.2549	1	4872.293	-10.79136	8.222066E-007	0.006645	7
	18	7	15890.62	4881.673	-996.16	1	4982.275	-11.5335	1.041601E-006	0.0067335	7
	19	7	12609.37	4979.355	-1102.474	1	5099.944	-12.4844	-6.585952E-007	0.0102287	7
	20	7	10078.13	5089.768	-1217.608	1	5233.383	-13.45383	-9.545387E-007	0.0103243	7
	21	8	8015.625	5212.858	-1355.444	1	5386.197	-14.57525	-7.823887E-007	0.0083666	7
	22	8	6328.125	5365.36	-1541.965	1	5582.54	-16.03426	-1.118463E-006	0.0090898	7
	23	8	5015.625	5546.387	-1747.552	1	5815.182	-17.48856	1.080968E-006	0.0077682	7
	24	9	3984.375	5729.808	-1986.76	1	6064.48	-19.12353	5.122237E-007	0.0067619	7
	25	9	3170.956	5942.861	-2247.436	1	6353.626	-20.71532	6.563918E-007	0.0087369	7
	26	9	2527.573	6175.278	-2544.967	1	6679.14	-22.39763	4.187547E-007	0.0090853	7
	27	10	1976.103	6454.882	-2914.208	1	7082.239	-24.29791	4.185626E-007	0.009087	7
	28	10	1577.524	6711.677	-3294.871	1	7476.816	-26.14717	6.503436E-007	0.0087355	7
	29	10	1265.625	7013.083	-3755.728	1	7955.427	-28.17046	8.166562E-008	0.0095395	7
	30	11	998.264	7334.548	-4324.271	1	8514.395	-30.52257	8.372486E-008	0.0095416	7
	31	11	796.875	7650.181	-4991.167	1	9134.387	-33.12143	1.173014E-006	0.0073104	7
	32	11	627.7902	8001.832	-5817.452	1	9893.03	-36.01772	8.270909E-008	0.0095427	7
	33	12	505.5147	8330.945	-6770.229	1	10735.02	-39.09939	1.784745E-007	0.0070934	6
	34	12	397.9953	8700.83	-8059.763	1	11860.2	-42.80959	2.091913E-011	0.0084963	6
	35	12	315.5048	9092.234	-9640.37	1	13251.62	-46.67605	1.284965E-009	0.0084914	6
	36	13	252.4038	9511.51	-11532.01	1	14948.45	-50.48446	1.476481E-009	0.0084951	6
	37	13	198.6229	10036.01	-14074.2	1	17285.97	-54.50814	3.433195E-010	0.0084908	6
	38	13	158.3615	10640.35	-17070.37	1	20115.03	-58.06378	1.903162E-010	0.0084829	6
	39	14	125.558	11392.94	-20879.41	1	23785.47	-61.38073	9.467542E-010	0.0084782	6
	40	14	100.4464	12335.83	-25348.72	1	28190.96	-64.05035	-3.582271E-010	0.0084801	6
	41	14	79.00281	13507.2	-31307.57	1	34097.04	-66.66291	-1.181322E-009	0.0084729	6
	42	15	63.3446	15584.35	-38432.9	1	41472.39	-67.92769	-1.207262E-009	0.0084745	6
	43	15	49.86702	17548.63	-47427.57	1	50570.04	-69.69507	-3.835629E-010	0.0084767	6
	44	15	39.72458	20161.98	-57475.74	1	60909.49	-70.66958	3.329317E-010	0.0084729	6
	45	16	31.6723	23427.42	-70035.88	1	73850.3	-71.5046	-5.430702E-010	0.0084803	6
	46	16	24.93351	28966.8	-86197.53	1	90934.54	-71.425	3.184331E-011	0.0084698	6
	47	16	19.86229	35573	-104582.7	1	110467.1	-71.21465	-1.26487E-009	0.0084742	5
	48	16	15.83615	44517.21	-125472.4	1	133135.7	-70.46548	3.845646E-010	0.0084869	5
	49	17	12.40079	57294.37	-153131.4	1	163498.9	-69.48658	-6.227672E-010	0.0084939	5
	50	17	9.93114	73177.66	-182276.6	1	196417.2	-68.12627	-3.367624E-011	0.0084924	5
	51	18	7.944915	92061.55	-216074.8	1	234869.4	-66.92292	5.204893E-010	0.0084828	5
	52	18	6.317385	118303.9	-253288.6	1	279554.9	-64.96407	2.711539E-010	0.0084697	5
	53	19	5.008013	150998.9	-295348	1	331709.3	-62.92126	-1.508703E-010	0.0084751	5
	54	20	3.945707	192730.7	-340099	1	390912.3	-60.4602	-4.972884E-011	0.0084942	5
	55	22	3.158693	238087.9	-386077.7	1	453587.7	-58.33853	-2.509544E-010	0.0084787	5
	56	23	2.504006	290570.8	-434148.6	1	522414	-56.20605	-2.103769E-010	0.008478	5
	57	25	1.998082	347319.3	-482562.8	1	594556.6	-54.25596	9.256061E-011	0.0085194	5
	58	26	1.584686	406727.5	-535510.1	1	672457	-52.78281	-1.233342E-011	0.0084896	5
	59	28	1.266892	469001.4	-589685.8	1	753453.2	-51.50333	-4.431829E-011	0.0084506	5
	60	31	0.999041	536713.3	-658901	1	849830.4	-50.83518	-1.640892E-010	0.0084356	5
