EXPLAIN
TAG	EISPOT
TITLE	LABEL	Potentiostatic EIS	Test &Identifier
DATE	LABEL	10/12/2019	Date
TIME	LABEL	10:23:36	Time
NOTES	NOTES	1	&Notes...
	
PSTAT	PSTAT	REF600-11020	Potentiostat
VDC	POTEN	0.00000E+000	T	DC &Voltage (V)
FREQINIT	QUANT	1.00000E+006	Initial Fre&q. (Hz)
FREQFINAL	QUANT	1.00000E+000	Final Fre&q. (Hz)
PTSPERDEC	QUANT	1.00000E+001	Points/&decade
VAC	QUANT	2.50000E+001	AC &Voltage (mV rms)
AREA	QUANT	1.00000E-002	&Area (cm^2)
CONDIT	TWOPARAM	T	5.00000E+000	0.00000E+000	Conditionin&g	Time(s)	E(V)
DELAY	TWOPARAM	T	5.00000E+000	0.00000E+000	Init. De&lay	Time(s)	Stab.(mV/s)
SPEED	SELECTOR	1	&Optimize for:
ZGUESS	QUANT	1.00000E+004	E&stimated Z (ohms)
OCVCURVE	TABLE	19
	Pt	T	Vf	Vm	Ach	Over
	#	s	V vs. Ref.	V	V	bits
	0	0.258333	5.51079E-003	5.51079E-003	5.43633E-004	...........
	1	0.516667	5.50828E-003	5.37959E-003	5.42433E-004	...........
	2	0.775	5.49319E-003	5.27117E-003	5.47433E-004	...........
	3	1.03333	5.45183E-003	5.18300E-003	5.49199E-004	...........
	4	1.29167	5.38123E-003	5.10435E-003	5.50133E-004	...........
	5	1.55	5.29327E-003	5.03794E-003	5.46199E-004	...........
	6	1.80833	5.20500E-003	5.05842E-003	5.49166E-004	...........
	7	2.06667	5.13125E-003	5.02596E-003	5.57333E-004	...........
	8	2.325	5.07877E-003	4.94920E-003	5.48733E-004	...........
	9	2.58333	5.03834E-003	4.79100E-003	5.44899E-004	...........
	10	2.84167	4.98830E-003	4.68529E-003	5.46033E-004	...........
	11	3.1	4.91345E-003	4.62219E-003	5.49266E-004	...........
	12	3.35833	4.82078E-003	4.64210E-003	5.48666E-004	...........
	13	3.61667	4.73383E-003	4.61353E-003	5.45999E-004	...........
	14	3.875	4.67145E-003	4.59508E-003	5.45433E-004	...........
	15	4.13333	4.63430E-003	4.57365E-003	5.52832E-004	...........
	16	4.39167	4.61167E-003	4.56455E-003	5.48299E-004	...........
	17	4.65	4.59436E-003	4.54715E-003	5.47466E-004	...........
	18	4.90833	4.57837E-003	4.51756E-003	5.56899E-004	...........
EOC	QUANT	0.0045784	Open Circuit (V)
PSTATMODEL	IQUANT	4	Pstat Model
PSTATSECTION	LABEL	REF600-11020	Pstat Section
PSTATSERIALNO	LABEL	11020	Pstat Serial Number
CTRLMODE	IQUANT	1	Control Mode
IESTAB	IQUANT	0	I/E Stability
CASPEED	IQUANT	1	Control Amp Speed
CONVENTION	IQUANT	1	Current Convention
ICHRANGE	IQUANT	2	Ich Range
ICHRANGEMODE	TOGGLE	F	Ich Auto Range
ICHOFFSETENABLE	TOGGLE	T	Ich Offset Enable
ICHOFFSET	QUANT	0	Ich Offset (V)
ICHFILTER	IQUANT	3	Ich Filter
VCHRANGE	IQUANT	2	Vch Range
VCHRANGEMODE	TOGGLE	F	Vch Auto Range
VCHOFFSETENABLE	TOGGLE	T	Vch Offset Enable
VCHOFFSET	QUANT	0	Vch Offset (V)
VCHFILTER	IQUANT	3	Vch Filter
ACHRANGE	IQUANT	2	Ach Range
ACHOFFSETENABLE	TOGGLE	F	Ach Offset Enable
ACHOFFSET	QUANT	0	Ach Offset (V)
ACHFILTER	IQUANT	3	Ach Filter
IERANGELOWERLIMIT	IQUANT	1	I/E Range Lower Limit
IERANGEMODE	TOGGLE	F	I/E AutoRange
IERANGE	IQUANT	5	I/E Range
POSFEEDENABLE	TOGGLE	F	Positive Feedback IR Comp
POSFEEDRESISTANCE	QUANT	0	Positive Feedback Resistance (ohm)
ACHSELECT	IQUANT	0	Ach Select
CABLEID	IQUANT	14	Cable ID
DCCALDATE	LABEL	8/19/2019	DC Calibration Date
ACCALDATE	LABEL	8/19/2019	AC Calibration Date
THERMOSELECT	IQUANT	1	Thermo Select
FRAMEWORKVERSION	QUANT	6.33	Framework Version
INSTRUMENTVERSION	LABEL	3.50	Instrument Version
ZCURVE	TABLE
	Pt	Time	Freq	Zreal	Zimag	Zsig	Zmod	Zphz	Idc	Vdc	IERange
	#	s	Hz	ohm	ohm	V	ohm	°	A	V	#
	0	2	1000078	2370.868	-2187.547	1	3225.892	-42.69703	-3.658492E-006	0.006732	8
	1	3	794390.6	2836.475	-2242.557	1	3615.889	-38.33038	1.134166E-006	0.0064145	8
	2	5	630984.4	3307.331	-2211.813	1	3978.763	-33.77304	1.75127E-007	0.0061602	8
	3	6	501234.4	3740.504	-2091.119	1	4285.341	-29.20727	1.515092E-006	0.0058669	8
	4	7	398109.4	4089.745	-1915.257	1	4515.996	-25.09404	3.386554E-006	0.0056017	8
	5	9	316265.6	4425.723	-1764.701	1	4764.577	-21.73901	4.345962E-006	0.0051477	8
	6	10	251203.1	4682.202	-1533.884	1	4927.049	-18.13873	4.28249E-006	0.0051564	8
	7	12	199546.9	4898.33	-1334.753	1	5076.928	-15.24254	-7.860324E-007	0.0062992	8
	8	13	158578.1	5037.216	-1178.831	1	5173.315	-13.17157	-1.472401E-006	0.0064058	8
	9	15	125953.1	5177.532	-959.821	1	5265.748	-10.50237	1.264112E-006	0.003592	7
	10	16	100078.1	5244.031	-847.4314	1	5312.062	-9.179596	-2.400255E-008	0.006057	7
	11	17	79453.13	5316.4	-762.3564	1	5370.782	-8.160419	1.129568E-007	0.0058935	7
	12	19	63140.62	5377.968	-695.095	1	5422.702	-7.364573	7.103699E-008	0.0059104	7
	13	20	50203.12	5433.154	-648.3146	1	5471.698	-6.804681	9.456052E-008	0.0059741	7
	14	22	39890.62	5485.03	-621.3726	1	5520.114	-6.463207	-7.153317E-009	0.0061052	7
	15	23	31640.63	5532.788	-610.9678	1	5566.419	-6.301456	-3.537594E-008	0.0060628	7
	16	24	25171.88	5582.459	-615.8981	1	5616.332	-6.295831	-4.54101E-008	0.006158	7
	17	26	20015.62	5630.717	-630.8683	1	5665.948	-6.392786	-2.97777E-009	0.0059975	7
	18	27	15890.62	5685.146	-675.8745	1	5725.181	-6.779746	4.691498E-008	0.0060037	7
	19	28	12609.37	5738.715	-730.2885	1	5784.995	-7.252277	-2.027631E-009	0.0059989	7
	20	30	10078.13	5793.81	-800.6169	1	5848.865	-7.867585	-5.767582E-008	0.006157	7
	21	31	8015.625	5855.477	-897.3703	1	5923.84	-8.712968	-4.20456E-008	0.0060937	7
	22	32	6328.125	5920.345	-1022.905	1	6008.062	-9.80267	-4.553515E-008	0.0061	7
	23	34	5015.625	5988.385	-1179.991	1	6103.534	-11.14713	4.6501E-008	0.0060008	7
	24	36	3984.375	6059.78	-1386.485	1	6216.372	-12.88751	-6.730592E-008	0.0061405	7
	25	37	3170.956	6145.571	-1613.27	1	6353.792	-14.70881	-7.050355E-008	0.0061387	7
	26	38	2527.573	6240.808	-1905.662	1	6525.276	-16.98031	9.903425E-008	0.0059569	7
	27	40	1976.103	6356.32	-2296.371	1	6758.411	-19.86345	-1.037957E-008	0.0060768	7
	28	41	1577.524	6476.292	-2750.23	1	7036.059	-23.00905	5.490413E-009	0.0060298	7
	29	42	1265.625	6614.964	-3266.094	1	7377.338	-26.27754	-5.682229E-008	0.0061508	7
	30	44	998.264	6787.927	-3958.819	1	7858.002	-30.25137	-3.6333E-008	0.0060461	7
	31	45	796.875	6974.962	-4764.475	1	8446.912	-34.3363	2.056746E-008	0.0061243	7
	32	46	627.7902	7211.242	-5816.109	1	9264.402	-38.88734	-2.450254E-009	0.0060006	7
	33	48	505.5147	7462.679	-6973.867	1	10214.03	-43.06074	-7.995462E-009	0.0060888	6
	34	49	397.9953	7789.64	-8554.579	1	11569.76	-47.67959	1.193634E-009	0.0059964	6
	35	51	315.5048	8174.328	-10456.35	1	13272.33	-51.98321	3.334327E-010	0.0060021	6
	36	52	252.4038	8623.646	-12702.51	1	15353.21	-55.82768	2.763362E-010	0.0060008	6
	37	53	198.6229	9228.31	-15671.04	1	18186.35	-59.50716	9.439891E-010	0.0060026	6
	38	55	158.3615	9945.88	-19131.87	1	21562.68	-62.53192	7.191729E-010	0.0059925	6
	39	56	125.558	10901.67	-23492.34	1	25898.58	-65.10624	8.998574E-010	0.0059976	6
	40	57	100.4464	12107.17	-28617.01	1	31072.77	-67.06794	3.88519E-010	0.0059973	6
	41	59	79.00281	13692.61	-35292.89	1	37855.99	-68.7952	1.336707E-009	0.0059944	6
	42	60	63.3446	15449.05	-43231.71	1	45909.2	-70.33541	6.704749E-010	0.0059919	6
	43	61	49.86702	18605.15	-52511.08	1	55709.65	-70.4903	7.314219E-010	0.0059903	6
	44	63	39.72458	22470.22	-64187	1	68006.48	-70.70616	4.233743E-010	0.0059925	6
	45	64	31.6723	27161.89	-77634.79	1	82249.19	-70.71671	3.666887E-010	0.0059961	6
	46	66	24.93351	34389.73	-94943.2	1	100979.5	-70.08891	8.990463E-010	0.0059965	6
	47	67	19.86229	43255.49	-113883.4	1	121821.5	-69.2021	-2.04128E-010	0.0060001	5
	48	68	15.83615	55434.36	-136309	1	147149.9	-67.86932	1.340575E-009	0.0060011	5
	49	70	12.40079	70292.5	-163724.5	1	178176.2	-66.76451	3.314612E-010	0.0060005	5
	50	71	9.93114	90640.85	-190416.2	1	210888.8	-64.54488	5.75533E-010	0.0059982	5
	51	73	7.944915	114762.8	-219432.6	1	247631.1	-62.39053	-2.311385E-010	0.0059983	5
	52	74	6.317385	143033.5	-252649.8	1	290328.3	-60.48434	5.492454E-010	0.0059914	5
	53	76	5.008013	177834.7	-287688.1	1	338215.3	-58.27767	-1.461376E-010	0.0060042	5
	54	79	3.945707	217330.5	-324557.1	1	390601.9	-56.19287	1.945614E-010	0.0060059	5
	55	81	3.158693	257805.6	-360956.9	1	443569.2	-54.46451	-4.298589E-011	0.0059895	5
	56	85	2.504006	302420.7	-401946.2	1	503009.9	-53.04253	4.029242E-010	0.0060107	5
	57	88	1.998082	347888.5	-445897.6	1	565553.8	-52.03871	3.45496E-010	0.0060239	5
	58	91	1.584686	395912.8	-496104.8	1	634717.9	-51.40864	1.416934E-010	0.0059624	5
	59	94	1.266892	443502	-556216.3	1	711386.4	-51.4327	2.338834E-010	0.0060262	5
	60	99	0.999041	497554.7	-632003.6	1	804356.4	-51.78786	-1.859969E-010	0.0059669	5
