EXPLAIN
TAG	EISPOT
TITLE	LABEL	Potentiostatic EIS	Test &Identifier
DATE	LABEL	8/16/2017	Date
TIME	LABEL	17:10:17	Time
NOTES	NOTES	1	&Notes...
	
PSTAT	PSTAT	REF600-11020	Potentiostat
VDC	POTEN	0.00000E+000	T	DC &Voltage (V)
FREQINIT	QUANT	1.00000E+006	Initial Fre&q. (Hz)
FREQFINAL	QUANT	1.00000E+000	Final Fre&q. (Hz)
PTSPERDEC	QUANT	1.00000E+001	Points/&decade
VAC	QUANT	2.50000E+001	AC &Voltage (mV rms)
AREA	QUANT	1.00000E-002	&Area (cm^2)
CONDIT	TWOPARAM	T	5.00000E+000	0.00000E+000	Conditionin&g	Time(s)	E(V)
DELAY	TWOPARAM	T	5.00000E+000	0.00000E+000	Init. De&lay	Time(s)	Stab.(mV/s)
SPEED	SELECTOR	0	&Optimize for:
ZGUESS	QUANT	1.00000E+005	E&stimated Z (ohms)
OCVCURVE	TABLE	19
	Pt	T	Vf	Vm	Ach	Over
	#	s	V vs. Ref.	V	V	bits
	0	0.258333	6.27883E-003	6.27883E-003	5.53499E-004	...........
	1	0.516667	6.27245E-003	5.94485E-003	5.45233E-004	...........
	2	0.775	6.23504E-003	5.72049E-003	5.41499E-004	...........
	3	1.03333	6.13557E-003	5.53275E-003	5.43366E-004	...........
	4	1.29167	5.97131E-003	5.35614E-003	5.38233E-004	...........
	5	1.55	5.77253E-003	5.20549E-003	5.41799E-004	...........
	6	1.80833	5.57242E-003	5.03830E-003	5.42833E-004	...........
	7	2.06667	5.38818E-003	4.96263E-003	5.41133E-004	...........
	8	2.325	5.22627E-003	4.88422E-003	5.39466E-004	...........
	9	2.58333	5.09077E-003	4.81161E-003	5.42199E-004	...........
	10	2.84167	4.98189E-003	4.74213E-003	5.42999E-004	...........
	11	3.1	4.89388E-003	4.69074E-003	5.38933E-004	...........
	12	3.35833	4.81831E-003	4.56584E-003	5.41633E-004	...........
	13	3.61667	4.74246E-003	4.31619E-003	5.35999E-004	...........
	14	3.875	4.64864E-003	4.26854E-003	5.35833E-004	...........
	15	4.13333	4.53020E-003	4.17037E-003	5.42766E-004	...........
	16	4.39167	4.40369E-003	4.15153E-003	5.41599E-004	...........
	17	4.65	4.29392E-003	4.13847E-003	5.42366E-004	...........
	18	4.90833	4.21480E-003	4.11879E-003	5.43233E-004	...........
EOC	QUANT	0.0042148	Open Circuit (V)
PSTATMODEL	IQUANT	4	Pstat Model
PSTATSECTION	LABEL	REF600-11020	Pstat Section
PSTATSERIALNO	LABEL	11020	Pstat Serial Number
CTRLMODE	IQUANT	1	Control Mode
IESTAB	IQUANT	0	I/E Stability
CASPEED	IQUANT	1	Control Amp Speed
CONVENTION	IQUANT	1	Current Convention
ICHRANGE	IQUANT	2	Ich Range
ICHRANGEMODE	TOGGLE	F	Ich Auto Range
ICHOFFSETENABLE	TOGGLE	T	Ich Offset Enable
ICHOFFSET	QUANT	0	Ich Offset (V)
ICHFILTER	IQUANT	3	Ich Filter
VCHRANGE	IQUANT	2	Vch Range
VCHRANGEMODE	TOGGLE	F	Vch Auto Range
VCHOFFSETENABLE	TOGGLE	T	Vch Offset Enable
VCHOFFSET	QUANT	0	Vch Offset (V)
VCHFILTER	IQUANT	3	Vch Filter
ACHRANGE	IQUANT	2	Ach Range
ACHOFFSETENABLE	TOGGLE	F	Ach Offset Enable
ACHOFFSET	QUANT	0	Ach Offset (V)
ACHFILTER	IQUANT	3	Ach Filter
IERANGELOWERLIMIT	IQUANT	1	I/E Range Lower Limit
IERANGEMODE	TOGGLE	F	I/E AutoRange
IERANGE	IQUANT	4	I/E Range
POSFEEDENABLE	TOGGLE	F	Positive Feedback IR Comp
POSFEEDRESISTANCE	QUANT	0	Positive Feedback Resistance (ohm)
ACHSELECT	IQUANT	0	Ach Select
CABLEID	IQUANT	14	Cable ID
DCCALDATE	LABEL	8/19/2019	DC Calibration Date
ACCALDATE	LABEL	8/19/2019	AC Calibration Date
THERMOSELECT	IQUANT	1	Thermo Select
FRAMEWORKVERSION	QUANT	6.33	Framework Version
INSTRUMENTVERSION	LABEL	3.50	Instrument Version
ZCURVE	TABLE
	Pt	Time	Freq	Zreal	Zimag	Zsig	Zmod	Zphz	Idc	Vdc	IERange
	#	s	Hz	ohm	ohm	V	ohm	°	A	V	#
	0	1	1000078	2304.211	-1700.863	1	2863.97	-36.43304	-3.457427E-006	0.0072624	8
	1	1	794390.6	2604.073	-1630.224	1	3072.267	-32.04773	-3.684043E-006	0.0068704	8
	2	2	630984.4	2919.026	-1538.529	1	3299.664	-27.79233	9.298765E-006	0.005061	8
	3	2	501234.4	3180.75	-1401.502	1	3475.828	-23.77925	-4.212192E-006	0.0058048	8
	4	2	398109.4	3397.299	-1259.707	1	3623.328	-20.34462	3.372512E-007	0.0055129	8
	5	2	316265.6	3573.796	-1121.663	1	3745.684	-17.42486	-1.686033E-006	0.0056011	8
	6	3	251203.1	3702.683	-1000.987	1	3835.601	-15.12778	2.09717E-008	0.005502	8
	7	3	199546.9	3809.81	-891.6164	1	3912.752	-13.17196	6.095913E-006	0.0046986	8
	8	3	158578.1	3831.261	-791.1011	1	3912.084	-11.6668	-2.662673E-006	0.0057455	8
	9	4	125953.1	4024.82	-684.9776	1	4082.692	-9.65854	2.812043E-006	-0.0001617	7
	10	4	100078.1	4061.679	-631.1595	1	4110.426	-8.832762	1.140325E-006	0.0042541	7
	11	4	79453.13	4111.978	-610.1624	1	4157.001	-8.440337	-9.427308E-007	0.0075589	7
	12	5	63140.62	4169.509	-602.0839	1	4212.755	-8.216807	-1.283587E-006	0.0069321	7
	13	5	50203.12	4231.079	-609.0752	1	4274.693	-8.191608	5.073246E-007	0.0040312	7
	14	5	39890.62	4293.111	-631.2456	1	4339.271	-8.364655	1.029221E-006	0.0040036	7
	15	6	31640.63	4353.092	-663.3251	1	4403.341	-8.664094	8.776375E-007	0.0055468	7
	16	6	25171.88	4415.791	-707.0827	1	4472.044	-9.097313	-9.426714E-007	0.0075476	7
	17	6	20015.62	4486.6	-763.4339	1	4551.088	-9.65688	-1.103704E-006	0.0063272	7
	18	7	15890.62	4575.262	-842.3723	1	4652.162	-10.43216	8.795941E-007	0.0055438	7
	19	7	12609.37	4662.388	-931.2983	1	4754.49	-11.296	8.794644E-007	0.0055418	7
	20	7	10078.13	4772.122	-1039.357	1	4883.996	-12.28701	8.196531E-007	0.0039143	7
	21	8	8015.625	4868.79	-1161.105	1	5005.325	-13.41332	4.121272E-007	0.0063304	7
	22	8	6328.125	4999.066	-1310.849	1	5168.074	-14.69323	7.706129E-008	0.0067913	7
	23	8	5015.625	5145.217	-1482.199	1	5354.454	-16.07027	1.197968E-007	0.0043402	7
	24	8	3984.375	5306.772	-1675.082	1	5564.866	-17.5183	1.143791E-006	0.0042407	7
	25	9	3170.956	5482.406	-1898.34	1	5801.764	-19.09894	8.796456E-007	0.0055454	7
	26	9	2527.573	5666.306	-2151.754	1	6061.111	-20.79404	-7.709293E-007	0.0056123	7
	27	9	1976.103	5885.497	-2463.621	1	6380.321	-22.71379	-6.494739E-007	0.0074516	7
	28	10	1577.524	6086.078	-2787.977	1	6694.263	-24.61208	-3.329459E-007	0.0048813	7
	29	10	1265.625	6337.242	-3206.203	1	7102.139	-26.83624	-3.241387E-007	0.0048785	7
	30	11	998.264	6589.979	-3710.597	1	7562.828	-29.38241	-1.109405E-006	0.0063174	7
	31	11	796.875	6841.645	-4293.262	1	8077.141	-32.10905	8.196943E-008	0.0067805	7
	32	11	627.7902	7120.06	-5049.122	1	8728.624	-35.34199	-9.410737E-007	0.0075391	7
	33	11	505.5147	7386.452	-5939	1	9477.942	-38.80066	1.142672E-006	0.0042307	7
	34	12	397.9953	7700.35	-7097.167	1	10472.11	-42.66578	3.77811E-009	0.0057927	7
	35	12	315.5048	8040.563	-8525.663	1	11719.11	-46.67728	5.915731E-010	0.0057405	6
	36	12	252.4038	8406.558	-10237.95	1	13247.11	-50.61	1.136591E-009	0.0057265	6
	37	13	198.6229	8874.333	-12528.59	1	15353.16	-54.68905	7.201448E-010	0.0057279	6
	38	13	158.3615	9419.408	-15222.53	1	17901.13	-58.25158	1.384446E-009	0.0057329	6
	39	13	125.558	10121.61	-18640.48	1	21211.19	-61.49845	5.402797E-010	0.0057326	6
	40	14	100.4464	10971.46	-22650.4	1	25167.71	-64.15526	-4.682679E-010	0.0057368	6
	41	14	79.00281	12240.29	-27941.55	1	30505	-66.34332	2.852742E-010	0.005727	6
	42	14	63.3446	13656.54	-34386.32	1	36998.92	-68.33949	3.991909E-010	0.005731	6
	43	15	49.86702	15719.09	-42140.21	1	44976.52	-69.54354	3.98958E-010	0.0057303	6
	44	15	39.72458	18474.51	-50948.16	1	54194.31	-70.06865	-4.46565E-011	0.0057294	6
	45	15	31.6723	21787.58	-61494.98	1	65240.56	-70.49084	1.274569E-009	0.0057197	6
	46	16	24.93351	26421.24	-75385.95	1	79881.93	-70.68548	2.402441E-010	0.0057181	6
	47	16	19.86229	32155.46	-90889.65	1	96410.1	-70.51694	3.473682E-010	0.0057212	6
	48	16	15.83615	39876.95	-108114.8	1	115234.5	-69.75407	1.389369E-009	0.0057248	5
	49	17	12.40079	48922.13	-131348.9	1	140163.9	-69.57169	-1.191615E-009	0.0057458	5
	50	17	9.93114	60008.11	-156526.1	1	167634.7	-69.02444	1.04258E-010	0.005733	5
	51	18	7.944915	72039.23	-184959.9	1	198493.9	-68.7198	7.876393E-010	0.0057353	5
	52	18	6.317385	88874.35	-219603	1	236905.3	-67.96659	3.895629E-010	0.0057118	5
	53	19	5.008013	108893	-260407.7	1	282258.4	-67.3071	2.564545E-010	0.0057221	5
	54	20	3.945707	133775.6	-309317.5	1	337006.3	-66.61217	2.409099E-011	0.0057258	5
	55	21	3.158693	159963.8	-363443.1	1	397088.5	-66.24406	-3.084306E-011	0.005711	5
	56	23	2.504006	193732.9	-428472.3	1	470235	-65.66999	5.683711E-011	0.0057214	5
	57	24	1.998082	230908.6	-502305.2	1	552837.4	-65.31187	7.688421E-011	0.0057537	5
	58	26	1.584686	277684.8	-589901.3	1	651991.1	-64.79218	-4.823718E-012	0.0057062	5
	59	28	1.266892	331661.8	-691388.7	1	766823.3	-64.37279	-1.838558E-011	0.005684	5
	60	30	0.999041	399221.1	-818492.3	1	910663	-63.99911	5.786781E-011	0.0056855	5
