EXPLAIN
TAG	EISPOT
TITLE	LABEL	Potentiostatic EIS	Test &Identifier
DATE	LABEL	11/7/2019	Date
TIME	LABEL	8:54:18	Time
NOTES	NOTES	2	&Notes...
	
	
PSTAT	PSTAT	REF600-11020	Potentiostat
VDC	POTEN	0.00000E+000	T	DC &Voltage (V)
FREQINIT	QUANT	1.00000E+006	Initial Fre&q. (Hz)
FREQFINAL	QUANT	1.00000E+000	Final Fre&q. (Hz)
PTSPERDEC	QUANT	1.00000E+001	Points/&decade
VAC	QUANT	2.50000E+001	AC &Voltage (mV rms)
AREA	QUANT	1.00000E-002	&Area (cm^2)
CONDIT	TWOPARAM	T	5.00000E+000	0.00000E+000	Conditionin&g	Time(s)	E(V)
DELAY	TWOPARAM	T	5.00000E+000	0.00000E+000	Init. De&lay	Time(s)	Stab.(mV/s)
SPEED	SELECTOR	1	&Optimize for:
ZGUESS	QUANT	1.00000E+005	E&stimated Z (ohms)
OCVCURVE	TABLE	19
	Pt	T	Vf	Vm	Ach	Over
	#	s	V vs. Ref.	V	V	bits
	0	0.258333	1.96396E-003	1.96396E-003	5.78932E-004	...........
	1	0.516667	1.95514E-003	1.50233E-003	5.83799E-004	...........
	2	0.775	1.89993E-003	1.00934E-003	5.79832E-004	...........
	3	1.03333	1.72775E-003	-1.16614E-004	5.78666E-004	...........
	4	1.29167	1.36971E-003	-6.09052E-004	5.80232E-004	...........
	5	1.55	8.44974E-004	4.57225E-005	5.82199E-004	...........
	6	1.80833	3.08711E-004	-6.51361E-004	5.80532E-004	...........
	7	2.06667	-9.32397E-005	-1.08670E-003	5.78599E-004	...........
	8	2.325	-3.97236E-004	-1.99691E-003	5.75365E-004	...........
	9	2.58333	-7.54475E-004	-2.70869E-003	5.74699E-004	...........
	10	2.84167	-1.24285E-003	-2.51129E-003	5.77699E-004	...........
	11	3.1	-1.76122E-003	-1.46510E-003	5.81299E-004	...........
	12	3.35833	-2.12765E-003	-3.64152E-003	5.80299E-004	...........
	13	3.61667	-2.30563E-003	-1.34514E-003	5.79566E-004	...........
	14	3.875	-2.36581E-003	-2.17821E-003	5.85365E-004	...........
	15	4.13333	-2.32626E-003	-2.42142E-003	5.80365E-004	...........
	16	4.39167	-2.24552E-003	-2.53134E-003	5.75032E-004	...........
	17	4.65	-2.23972E-003	-2.62707E-003	5.72732E-004	...........
	18	4.90833	-2.33377E-003	-2.73755E-003	5.79199E-004	...........
EOC	QUANT	-0.0023338	Open Circuit (V)
PSTATMODEL	IQUANT	4	Pstat Model
PSTATSECTION	LABEL	REF600-11020	Pstat Section
PSTATSERIALNO	LABEL	11020	Pstat Serial Number
CTRLMODE	IQUANT	1	Control Mode
IESTAB	IQUANT	0	I/E Stability
CASPEED	IQUANT	1	Control Amp Speed
CONVENTION	IQUANT	1	Current Convention
ICHRANGE	IQUANT	2	Ich Range
ICHRANGEMODE	TOGGLE	F	Ich Auto Range
ICHOFFSETENABLE	TOGGLE	T	Ich Offset Enable
ICHOFFSET	QUANT	0	Ich Offset (V)
ICHFILTER	IQUANT	3	Ich Filter
VCHRANGE	IQUANT	2	Vch Range
VCHRANGEMODE	TOGGLE	F	Vch Auto Range
VCHOFFSETENABLE	TOGGLE	T	Vch Offset Enable
VCHOFFSET	QUANT	0	Vch Offset (V)
VCHFILTER	IQUANT	3	Vch Filter
ACHRANGE	IQUANT	2	Ach Range
ACHOFFSETENABLE	TOGGLE	F	Ach Offset Enable
ACHOFFSET	QUANT	0	Ach Offset (V)
ACHFILTER	IQUANT	3	Ach Filter
IERANGELOWERLIMIT	IQUANT	1	I/E Range Lower Limit
IERANGEMODE	TOGGLE	F	I/E AutoRange
IERANGE	IQUANT	4	I/E Range
POSFEEDENABLE	TOGGLE	F	Positive Feedback IR Comp
POSFEEDRESISTANCE	QUANT	0	Positive Feedback Resistance (ohm)
ACHSELECT	IQUANT	0	Ach Select
CABLEID	IQUANT	14	Cable ID
DCCALDATE	LABEL	8/19/2019	DC Calibration Date
ACCALDATE	LABEL	8/19/2019	AC Calibration Date
THERMOSELECT	IQUANT	1	Thermo Select
FRAMEWORKVERSION	QUANT	6.33	Framework Version
INSTRUMENTVERSION	LABEL	3.50	Instrument Version
ZCURVE	TABLE
	Pt	Time	Freq	Zreal	Zimag	Zsig	Zmod	Zphz	Idc	Vdc	IERange
	#	s	Hz	ohm	ohm	V	ohm	°	A	V	#
	0	1	1000078	2145.902	-1386.58	1	2554.897	-32.86862	1.353452E-005	-0.0012194	8
	1	2	794390.6	2425.219	-1303.127	1	2753.148	-28.25018	3.590977E-006	-0.0018778	8
	2	4	630984.4	2659.329	-1193.401	1	2914.83	-24.16865	-2.69059E-006	3.729968E-005	8
	3	5	501234.4	2862.689	-1073.661	1	3057.407	-20.55872	3.563417E-006	-0.0013436	8
	4	7	398109.4	2998.01	-945.5806	1	3143.595	-17.50542	-5.486955E-006	-0.0002914	8
	5	8	316265.6	3119.841	-819.2064	1	3225.602	-14.71257	-1.473721E-006	-0.0009549	8
	6	9	251203.1	3210.162	-707.7606	1	3287.258	-12.43338	-6.578943E-006	0.0002403	8
	7	11	199546.9	3282.16	-627.0651	1	3341.524	-10.81616	9.119694E-007	-0.0003048	8
	8	12	158578.1	3302.358	-518.2236	1	3342.772	-8.918427	-4.822752E-006	-0.0003647	8
	9	13	125953.1	3402.861	-429.1138	1	3429.81	-7.187281	-1.250305E-006	-0.0019897	7
	10	15	100078.1	3441.017	-396.1574	1	3463.746	-6.567435	1.077976E-006	-0.0015155	7
	11	16	79453.13	3463.463	-377.3157	1	3483.955	-6.217383	-7.645941E-007	-0.0009734	7
	12	17	63140.62	3495.593	-368.9204	1	3515.007	-6.024621	1.396698E-007	-0.0022617	7
	13	19	50203.12	3526.692	-369.934	1	3546.042	-5.988168	6.517427E-007	-0.0005492	7
	14	20	39890.62	3556.871	-375.7444	1	3576.663	-6.030305	-1.116178E-006	-0.0002403	7
	15	22	31640.63	3590.475	-392.746	1	3611.891	-6.242511	-3.122574E-007	-0.0017169	7
	16	23	25171.88	3626.744	-417.8779	1	3650.739	-6.572706	7.127142E-008	0.000266	7
	17	24	20015.62	3675.62	-457.9464	1	3704.038	-7.1019	1.168876E-006	-0.0023413	7
	18	26	15890.62	3706.836	-500.2297	1	3740.437	-7.685514	8.85609E-007	-0.0010061	7
	19	27	12609.37	3749.885	-556.0545	1	3790.889	-8.434683	1.399949E-007	-0.002268	7
	20	28	10078.13	3795.466	-625.1879	1	3846.612	-9.353748	5.349111E-007	-0.0025757	7
	21	30	8015.625	3853.969	-717.5836	1	3920.205	-10.54732	6.969307E-008	0.0002562	7
	22	31	6328.125	3898.741	-822.4061	1	3984.537	-11.91143	-7.690713E-007	-0.0009828	7
	23	33	5015.625	3963.569	-955.36	1	4077.081	-13.5518	1.171431E-006	-0.002347	7
	24	34	3984.375	4014.983	-1127.525	1	4170.3	-15.6863	5.344439E-007	-0.0025805	7
	25	35	3170.956	4097.583	-1311.214	1	4302.263	-17.74451	4.155637E-007	-0.0002073	7
	26	37	2527.573	4175.449	-1549.765	1	4453.779	-20.36298	7.013846E-008	0.0002566	7
	27	38	1976.103	4274.637	-1866.042	1	4664.187	-23.5831	5.364317E-007	-0.0025804	7
	28	39	1577.524	4376.162	-2202.536	1	4899.179	-26.71625	-7.667131E-007	-0.0009835	7
	29	41	1265.625	4488.315	-2657.647	1	5216.135	-30.63087	1.087765E-006	-0.0015333	7
	30	42	998.264	4629.468	-3209.512	1	5633.2	-34.73275	-1.304795E-006	0.0003571	7
	31	44	796.875	4779.69	-3866.591	1	6147.842	-38.97157	1.086607E-006	-0.0015357	7
	32	45	627.7902	4964.787	-4713.777	1	6846.08	-43.51439	1.088637E-006	-0.0015356	7
	33	46	505.5147	5156.674	-5657.894	1	7655.263	-47.65357	1.411778E-007	-0.0022759	7
	34	48	397.9953	5412.221	-6932.575	1	8795.04	-52.02105	3.726238E-009	-0.0007662	7
	35	49	315.5048	5704.315	-8475.227	1	10216.1	-56.05718	1.728418E-009	-0.000818	6
	36	51	252.4038	6037.434	-10304.16	1	11942.63	-59.63302	-9.679091E-011	-0.0008186	6
	37	52	198.6229	6478.815	-12735.68	1	14288.9	-63.03694	1.092839E-009	-0.000825	6
	38	53	158.3615	7000.61	-15582.57	1	17082.88	-65.80756	8.109408E-010	-0.0008188	6
	39	55	125.558	7688.187	-19166.79	1	20651.25	-68.14329	9.255764E-010	-0.0008244	6
	40	56	100.4464	8532.285	-23406.56	1	24913.19	-69.97192	-2.468104E-010	-0.000824	6
	41	57	79.00281	9695.72	-28918.77	1	30500.86	-71.46502	-3.692411E-010	-0.0008226	6
	42	59	63.3446	11239.25	-34850.4	1	36617.91	-72.12549	1.455574E-009	-0.0008419	6
	43	60	49.86702	13463.46	-43762.75	1	45786.93	-72.89967	1.773742E-009	-0.0008366	6
	44	62	39.72458	15842.22	-53153.87	1	55464.5	-73.4036	1.412171E-009	-0.0008385	6
	45	63	31.6723	19170.3	-64616.32	1	67400.06	-73.47549	4.208872E-010	-0.0008251	6
	46	65	24.93351	23672.6	-79359.23	1	82814.73	-73.39034	6.667673E-010	-0.0008324	6
	47	66	19.86229	29503.19	-96340.1	1	100756.4	-72.97331	4.313229E-010	-0.0008139	6
	48	67	15.83615	35828.59	-116550	1	121932.7	-72.91206	-1.423744E-009	-0.0008286	5
	49	69	12.40079	47328.94	-141293.7	1	149009.8	-71.48077	7.465294E-010	-0.0008368	5
	50	70	9.93114	60393.33	-167678.8	1	178223.2	-70.19236	-1.585318E-010	-0.0008149	5
	51	72	7.944915	76512.17	-197990	1	212259.6	-68.87124	1.337463E-009	-0.0008244	5
	52	74	6.317385	96336.2	-236110.6	1	255007.6	-67.8039	4.545897E-011	-0.0008208	5
	53	76	5.008013	121831.9	-278616.1	1	304088.7	-66.38142	1.256611E-010	-0.0008299	5
	54	78	3.945707	153300	-327440.5	1	361549.7	-64.9121	4.776942E-010	-0.0008134	5
	55	81	3.158693	189328.3	-379107.8	1	423754.6	-63.46223	5.348475E-011	-0.0008385	5
	56	84	2.504006	232514.4	-439013.4	1	496785.3	-62.09299	4.80216E-010	-0.0008148	5
	57	87	1.998082	280838.8	-503759.7	1	576753.2	-60.86095	4.262982E-010	-0.0008151	5
	58	90	1.584686	339204.8	-577804.3	1	670013.3	-59.58458	1.843977E-010	-0.0008782	5
	59	94	1.266892	399433.3	-658334.7	1	770033.5	-58.75343	3.361944E-010	-0.0008343	5
	60	98	0.999041	473492.5	-757993.9	1	893728.1	-58.00841	-3.832637E-011	-0.000839	5
