EXPLAIN
TAG	EISPOT
TITLE	LABEL	Potentiostatic EIS	Test &Identifier
DATE	LABEL	10/2/2019	Date
TIME	LABEL	10:48:54	Time
NOTES	NOTES	2	&Notes...
	
	
PSTAT	PSTAT	REF600-11020	Potentiostat
VDC	POTEN	0.00000E+000	T	DC &Voltage (V)
FREQINIT	QUANT	1.00000E+006	Initial Fre&q. (Hz)
FREQFINAL	QUANT	1.00000E+000	Final Fre&q. (Hz)
PTSPERDEC	QUANT	1.00000E+001	Points/&decade
VAC	QUANT	2.50000E+001	AC &Voltage (mV rms)
AREA	QUANT	1.00000E-002	&Area (cm^2)
CONDIT	TWOPARAM	T	5.00000E+000	0.00000E+000	Conditionin&g	Time(s)	E(V)
DELAY	TWOPARAM	T	5.00000E+000	0.00000E+000	Init. De&lay	Time(s)	Stab.(mV/s)
SPEED	SELECTOR	1	&Optimize for:
ZGUESS	QUANT	1.00000E+004	E&stimated Z (ohms)
OCVCURVE	TABLE	19
	Pt	T	Vf	Vm	Ach	Over
	#	s	V vs. Ref.	V	V	bits
	0	0.258333	5.30943E-003	5.30943E-003	5.73399E-004	...........
	1	0.516667	5.30766E-003	5.21719E-003	5.73999E-004	...........
	2	0.775	5.29714E-003	5.14532E-003	5.71332E-004	...........
	3	1.03333	5.26857E-003	5.08730E-003	5.68466E-004	...........
	4	1.29167	5.22042E-003	5.03888E-003	5.71899E-004	...........
	5	1.55	5.16123E-003	4.98620E-003	5.70832E-004	...........
	6	1.80833	5.09772E-003	4.76751E-003	5.70599E-004	...........
	7	2.06667	5.01301E-003	4.13012E-003	5.66632E-004	...........
	8	2.325	4.86803E-003	4.27073E-003	5.67466E-004	...........
	9	2.58333	4.66808E-003	4.66801E-003	5.68899E-004	...........
	10	2.84167	4.51087E-003	5.00871E-003	5.69132E-004	...........
	11	3.1	4.50711E-003	5.36173E-003	5.70432E-004	...........
	12	3.35833	4.68015E-003	5.77963E-003	5.70032E-004	...........
	13	3.61667	4.97069E-003	5.73716E-003	5.70399E-004	...........
	14	3.875	5.27142E-003	5.02641E-003	5.67199E-004	...........
	15	4.13333	5.43160E-003	4.03957E-003	5.69832E-004	...........
	16	4.39167	5.31180E-003	3.52311E-003	5.73032E-004	...........
	17	4.65	4.90964E-003	3.84539E-003	5.73066E-004	...........
	18	4.90833	4.42225E-003	4.66483E-003	5.72099E-004	...........
EOC	QUANT	0.0044222	Open Circuit (V)
PSTATMODEL	IQUANT	4	Pstat Model
PSTATSECTION	LABEL	REF600-11020	Pstat Section
PSTATSERIALNO	LABEL	11020	Pstat Serial Number
CTRLMODE	IQUANT	1	Control Mode
IESTAB	IQUANT	0	I/E Stability
CASPEED	IQUANT	1	Control Amp Speed
CONVENTION	IQUANT	1	Current Convention
ICHRANGE	IQUANT	2	Ich Range
ICHRANGEMODE	TOGGLE	F	Ich Auto Range
ICHOFFSETENABLE	TOGGLE	T	Ich Offset Enable
ICHOFFSET	QUANT	0	Ich Offset (V)
ICHFILTER	IQUANT	3	Ich Filter
VCHRANGE	IQUANT	2	Vch Range
VCHRANGEMODE	TOGGLE	F	Vch Auto Range
VCHOFFSETENABLE	TOGGLE	T	Vch Offset Enable
VCHOFFSET	QUANT	0	Vch Offset (V)
VCHFILTER	IQUANT	3	Vch Filter
ACHRANGE	IQUANT	2	Ach Range
ACHOFFSETENABLE	TOGGLE	F	Ach Offset Enable
ACHOFFSET	QUANT	0	Ach Offset (V)
ACHFILTER	IQUANT	3	Ach Filter
IERANGELOWERLIMIT	IQUANT	1	I/E Range Lower Limit
IERANGEMODE	TOGGLE	F	I/E AutoRange
IERANGE	IQUANT	5	I/E Range
POSFEEDENABLE	TOGGLE	F	Positive Feedback IR Comp
POSFEEDRESISTANCE	QUANT	0	Positive Feedback Resistance (ohm)
ACHSELECT	IQUANT	0	Ach Select
CABLEID	IQUANT	14	Cable ID
DCCALDATE	LABEL	8/19/2019	DC Calibration Date
ACCALDATE	LABEL	8/19/2019	AC Calibration Date
THERMOSELECT	IQUANT	1	Thermo Select
FRAMEWORKVERSION	QUANT	6.33	Framework Version
INSTRUMENTVERSION	LABEL	3.50	Instrument Version
ZCURVE	TABLE
	Pt	Time	Freq	Zreal	Zimag	Zsig	Zmod	Zphz	Idc	Vdc	IERange
	#	s	Hz	ohm	ohm	V	ohm	°	A	V	#
	0	2	1000078	2410.017	-1905.808	1	3072.504	-38.33645	-6.273739E-006	0.0077445	8
	1	3	794390.6	2796.112	-1884.765	1	3372.03	-33.98258	7.473032E-006	0.0054882	8
	2	5	630984.4	3163.13	-1805.315	1	3642.053	-29.71499	2.797584E-006	0.005277	8
	3	6	501234.4	3501.286	-1649.043	1	3870.187	-25.2196	-1.14251E-006	0.0061056	8
	4	7	398109.4	3770.599	-1495.986	1	4056.524	-21.64071	-2.41838E-006	0.0066158	8
	5	9	316265.6	3985.688	-1321.486	1	4199.051	-18.34334	-2.251691E-006	0.0065565	8
	6	10	251203.1	4167.21	-1149.827	1	4322.932	-15.42537	-3.082178E-006	0.0067271	8
	7	11	199546.9	4281.255	-964.925	1	4388.647	-12.7013	4.101262E-006	0.0053342	8
	8	13	158578.1	4380.487	-850.5526	1	4462.298	-10.98831	-1.005691E-006	0.0064307	8
	9	14	125953.1	4461.891	-669.0969	1	4511.78	-8.528419	4.964425E-007	0.0049134	7
	10	16	100078.1	4526.543	-602.3596	1	4566.446	-7.579974	-5.567088E-008	0.0060977	7
	11	17	79453.13	4574.313	-543.1623	1	4606.448	-6.771698	-1.667806E-008	0.0060491	7
	12	18	63140.62	4617.042	-499.8329	1	4644.018	-6.178679	9.756096E-008	0.0059363	7
	13	20	50203.12	4655.979	-469.4107	1	4679.583	-5.757044	-1.374953E-008	0.0060429	7
	14	21	39890.62	4692.642	-451.1603	1	4714.279	-5.491656	-8.136273E-009	0.0060696	7
	15	22	31640.63	4732.543	-447.3631	1	4753.641	-5.400072	-4.387866E-008	0.0060359	7
	16	24	25171.88	4771.832	-452.3277	1	4793.223	-5.414957	-1.404332E-008	0.0060471	7
	17	25	20015.62	4812.584	-468.5484	1	4835.339	-5.560735	-5.842907E-008	0.0061179	7
	18	26	15890.62	4857.7	-492.7736	1	4882.63	-5.792369	4.528507E-008	0.005876	7
	19	28	12609.37	4905	-524.5442	1	4932.968	-6.104052	-5.04056E-009	0.0060124	7
	20	29	10078.13	4952.438	-569.0049	1	4985.018	-6.554198	-6.579882E-008	0.0062217	7
	21	30	8015.625	5003.883	-625.1447	1	5042.782	-7.121175	8.546086E-008	0.0058439	7
	22	32	6328.125	5055.225	-696.5067	1	5102.981	-7.844797	-4.586799E-008	0.0061286	7
	23	33	5015.625	5107.959	-788.0965	1	5168.398	-8.770888	4.56773E-008	0.0058709	7
	24	34	3984.375	5161.278	-900.1526	1	5239.186	-9.89316	9.864859E-008	0.0059278	7
	25	36	3170.956	5217.869	-1043.639	1	5321.216	-11.31062	-4.33106E-009	0.0060208	7
	26	37	2527.573	5275.543	-1219.147	1	5414.58	-13.01229	1.178653E-007	0.0058401	7
	27	39	1976.103	5347.059	-1457.117	1	5542.042	-15.24343	4.785884E-008	0.0059531	7
	28	40	1577.524	5420.918	-1727.676	1	5689.571	-17.67736	2.084579E-008	0.0059273	7
	29	41	1265.625	5501.805	-2059.153	1	5874.519	-20.5193	8.679541E-008	0.005839	7
	30	43	998.264	5599.773	-2497.158	1	6131.334	-24.03396	-5.138104E-008	0.006081	7
	31	44	796.875	5708.756	-3014.427	1	6455.747	-27.83566	-6.055695E-009	0.0060603	7
	32	45	627.7902	5852.417	-3690.152	1	6918.67	-32.23286	-7.450924E-009	0.0060173	7
	33	47	505.5147	6008.951	-4445.106	1	7474.387	-36.49209	9.708929E-008	0.0059353	7
	34	48	397.9953	6222.056	-5470.371	1	8284.862	-41.32162	5.337218E-009	0.0060378	7
	35	49	315.5048	6484.563	-6699.264	1	9323.609	-45.93299	5.459277E-009	0.0060313	7
	36	51	252.4038	6807.304	-8143.012	1	10613.58	-50.10543	1.276211E-009	0.0059684	6
	37	52	198.6229	7249.866	-10042.57	1	12386.03	-54.17399	7.345587E-010	0.0059692	6
	38	53	158.3615	7794.042	-12237.32	1	14508.59	-57.50663	9.536008E-010	0.0059669	6
	39	55	125.558	8514.386	-14961.89	1	17214.91	-60.35703	8.839146E-010	0.0059701	6
	40	56	100.4464	9417.039	-18124.85	1	20425.25	-62.54518	1.166562E-009	0.005968	6
	41	57	79.00281	10677.02	-22223.67	1	24655.43	-64.33875	9.080261E-010	0.0059693	6
	42	59	63.3446	12198.34	-26645.07	1	29304.6	-65.40128	4.729503E-010	0.0059684	6
	43	60	49.86702	14129.56	-32645.71	1	35572.28	-66.59631	7.064181E-010	0.005966	6
	44	62	39.72458	16485.79	-39152.9	1	42482.12	-67.1659	8.167842E-010	0.005968	6
	45	63	31.6723	19462.87	-47028.79	1	50897.05	-67.51778	-8.628702E-012	0.0059713	6
	46	64	24.93351	23369.85	-56763.36	1	61385.9	-67.62271	1.111781E-009	0.0059671	6
	47	66	19.86229	28025.67	-67847.84	1	73408.22	-67.55612	9.680718E-010	0.0059803	6
	48	67	15.83615	33670.67	-80556.98	1	87310.6	-67.31637	6.589306E-010	0.0059653	6
	49	68	12.40079	42040.45	-97414.1	1	106098.6	-66.65669	1.604067E-009	0.0059704	5
	50	70	9.93114	50902.94	-114853.7	1	125628.4	-66.09718	1.060137E-009	0.0059671	5
	51	71	7.944915	62000.64	-135033.3	1	148586.9	-65.33775	-2.897134E-010	0.0059747	5
	52	73	6.317385	76167.86	-158564.2	1	175909.5	-64.34225	-2.671249E-010	0.0059791	5
	53	75	5.008013	93480.87	-185499.4	1	207722.7	-63.25457	2.629607E-010	0.0059662	5
	54	78	3.945707	114335.7	-216635.8	1	244956.6	-62.17587	3.739873E-010	0.0059715	5
	55	80	3.158693	136913.9	-248973.7	1	284136.1	-61.19303	1.874699E-010	0.0059787	5
	56	84	2.504006	163206.2	-287372.2	1	330483	-60.40662	1.251516E-010	0.0059553	5
	57	86	1.998082	191191.7	-329663.1	1	381093.3	-59.88794	-1.069706E-010	0.0059707	5
	58	89	1.584686	224517.5	-380201.9	1	441544.6	-59.43722	1.759133E-010	0.0060265	5
	59	93	1.266892	258010.7	-437193.4	1	507649	-59.45292	-8.670679E-011	0.0059776	5
	60	97	0.999041	299476	-509542.9	1	591032.9	-59.55577	3.381318E-010	0.0059955	5
