EXPLAIN
TAG	EISPOT
TITLE	LABEL	Potentiostatic EIS	Test &Identifier
DATE	LABEL	11/20/2019	Date
TIME	LABEL	11:22:32	Time
NOTES	NOTES	4	&Notes...
	
	
	
	
PSTAT	PSTAT	REF600-11020	Potentiostat
VDC	POTEN	0.00000E+000	T	DC &Voltage (V)
FREQINIT	QUANT	1.00000E+006	Initial Fre&q. (Hz)
FREQFINAL	QUANT	1.00000E+000	Final Fre&q. (Hz)
PTSPERDEC	QUANT	1.00000E+001	Points/&decade
VAC	QUANT	2.50000E+001	AC &Voltage (mV rms)
AREA	QUANT	1.00000E-002	&Area (cm^2)
CONDIT	TWOPARAM	T	5.00000E+000	0.00000E+000	Conditionin&g	Time(s)	E(V)
DELAY	TWOPARAM	T	5.00000E+000	0.00000E+000	Init. De&lay	Time(s)	Stab.(mV/s)
SPEED	SELECTOR	1	&Optimize for:
ZGUESS	QUANT	1.00000E+005	E&stimated Z (ohms)
OCVCURVE	TABLE	19
	Pt	T	Vf	Vm	Ach	Over
	#	s	V vs. Ref.	V	V	bits
	0	0.258333	4.47389E-003	4.47389E-003	5.39799E-004	...........
	1	0.516667	4.46895E-003	4.21516E-003	5.32266E-004	...........
	2	0.775	4.43883E-003	3.98172E-003	5.37333E-004	...........
	3	1.03333	4.35450E-003	3.76522E-003	5.35566E-004	...........
	4	1.29167	4.20642E-003	3.59548E-003	5.44933E-004	...........
	5	1.55	4.01615E-003	3.43788E-003	5.39666E-004	...........
	6	1.80833	3.81634E-003	3.28794E-003	5.40399E-004	...........
	7	2.06667	3.62865E-003	3.14420E-003	5.45066E-004	...........
	8	2.325	3.45874E-003	3.00281E-003	5.45966E-004	...........
	9	2.58333	3.30395E-003	2.90664E-003	5.40566E-004	...........
	10	2.84167	3.16303E-003	2.85066E-003	5.35999E-004	...........
	11	3.1	3.04015E-003	2.79108E-003	5.37999E-004	...........
	12	3.35833	2.93957E-003	2.71736E-003	5.42466E-004	...........
	13	3.61667	2.85778E-003	2.61273E-003	5.45599E-004	...........
	14	3.875	2.78597E-003	2.65278E-003	5.41033E-004	...........
	15	4.13333	2.71862E-003	2.42587E-003	5.42199E-004	...........
	16	4.39167	2.64309E-003	2.02276E-003	5.40766E-004	...........
	17	4.65	2.53082E-003	2.04797E-003	5.37599E-004	...........
	18	4.90833	2.37531E-003	2.05986E-003	5.38133E-004	...........
EOC	QUANT	0.0023753	Open Circuit (V)
PSTATMODEL	IQUANT	4	Pstat Model
PSTATSECTION	LABEL	REF600-11020	Pstat Section
PSTATSERIALNO	LABEL	11020	Pstat Serial Number
CTRLMODE	IQUANT	1	Control Mode
IESTAB	IQUANT	0	I/E Stability
CASPEED	IQUANT	1	Control Amp Speed
CONVENTION	IQUANT	1	Current Convention
ICHRANGE	IQUANT	2	Ich Range
ICHRANGEMODE	TOGGLE	F	Ich Auto Range
ICHOFFSETENABLE	TOGGLE	T	Ich Offset Enable
ICHOFFSET	QUANT	0	Ich Offset (V)
ICHFILTER	IQUANT	3	Ich Filter
VCHRANGE	IQUANT	2	Vch Range
VCHRANGEMODE	TOGGLE	F	Vch Auto Range
VCHOFFSETENABLE	TOGGLE	T	Vch Offset Enable
VCHOFFSET	QUANT	0	Vch Offset (V)
VCHFILTER	IQUANT	3	Vch Filter
ACHRANGE	IQUANT	2	Ach Range
ACHOFFSETENABLE	TOGGLE	F	Ach Offset Enable
ACHOFFSET	QUANT	0	Ach Offset (V)
ACHFILTER	IQUANT	3	Ach Filter
IERANGELOWERLIMIT	IQUANT	1	I/E Range Lower Limit
IERANGEMODE	TOGGLE	F	I/E AutoRange
IERANGE	IQUANT	4	I/E Range
POSFEEDENABLE	TOGGLE	F	Positive Feedback IR Comp
POSFEEDRESISTANCE	QUANT	0	Positive Feedback Resistance (ohm)
ACHSELECT	IQUANT	0	Ach Select
CABLEID	IQUANT	14	Cable ID
DCCALDATE	LABEL	8/19/2019	DC Calibration Date
ACCALDATE	LABEL	8/19/2019	AC Calibration Date
THERMOSELECT	IQUANT	1	Thermo Select
FRAMEWORKVERSION	QUANT	6.33	Framework Version
INSTRUMENTVERSION	LABEL	3.50	Instrument Version
ZCURVE	TABLE
	Pt	Time	Freq	Zreal	Zimag	Zsig	Zmod	Zphz	Idc	Vdc	IERange
	#	s	Hz	ohm	ohm	V	ohm	°	A	V	#
	0	2	1000078	2022.313	-1102.962	1	2303.535	-28.60789	-9.918194E-007	0.0044029	8
	1	3	794390.6	2210.861	-1042.536	1	2444.338	-25.24631	7.250647E-006	0.0035779	8
	2	4	630984.4	2379.338	-969.057	1	2569.109	-22.16008	-3.058798E-006	0.0047142	8
	3	6	501234.4	2519.615	-888.7466	1	2671.765	-19.42933	1.243268E-006	0.0045497	8
	4	7	398109.4	2636.806	-832.6171	1	2765.14	-17.52441	-2.515997E-006	0.0040165	8
	5	8	316265.6	2737.409	-757.0067	1	2840.152	-15.45832	-5.387968E-006	0.0048806	8
	6	10	251203.1	2821.038	-701.4442	1	2906.937	-13.96329	3.897183E-006	0.003997	8
	7	11	199546.9	2901.086	-657.5791	1	2974.678	-12.77123	6.379185E-007	0.0043938	8
	8	13	158578.1	2969.495	-636.6487	1	3036.976	-12.10081	-2.295744E-006	0.0045162	8
	9	14	125953.1	3058.561	-585.47	1	3114.092	-10.83648	-1.080776E-006	0.0030995	7
	10	15	100078.1	3116.832	-579.1158	1	3170.177	-10.52568	3.64127E-007	0.0044404	7
	11	17	79453.13	3184.153	-592.7005	1	3238.846	-10.5444	9.334796E-007	0.0027356	7
	12	18	63140.62	3253.013	-611.7119	1	3310.028	-10.6498	-7.656489E-007	0.0054789	7
	13	19	50203.12	3326.191	-637.7134	1	3386.772	-10.85332	-9.269568E-007	0.0045048	7
	14	21	39890.62	3403.878	-670.3144	1	3469.252	-11.14052	-1.071409E-006	0.0049994	7
	15	22	31640.63	3490.305	-710.4712	1	3561.881	-11.50568	-2.301134E-007	0.005174	7
	16	23	25171.88	3579.892	-757.1843	1	3659.092	-11.94264	6.541446E-007	0.0024837	7
	17	25	20015.62	3673.279	-813.1041	1	3762.196	-12.48153	8.953791E-007	0.0033455	7
	18	26	15890.62	3772.176	-871.9973	1	3871.653	-13.01618	8.353646E-007	0.0025406	7
	19	27	12609.37	3873.858	-941.0729	1	3986.527	-13.65431	-5.205686E-007	0.0053979	7
	20	29	10078.13	3984.731	-1022.144	1	4113.74	-14.38703	3.984582E-007	0.0025863	7
	21	30	8015.625	4103.598	-1103.671	1	4249.424	-15.05359	7.690969E-008	0.0028506	7
	22	32	6328.125	4220.885	-1227.784	1	4395.831	-16.21882	3.895195E-007	0.0026102	7
	23	33	5015.625	4343.52	-1358.925	1	4551.137	-17.37295	3.625189E-007	0.0044124	7
	24	34	3984.375	4472.876	-1518.504	1	4723.608	-18.75192	7.312239E-007	0.0037675	7
	25	36	3170.956	4587.047	-1704.613	1	4893.538	-20.3858	-1.052725E-006	0.0049748	7
	26	37	2527.573	4710.335	-1939.162	1	5093.879	-22.3761	-1.051408E-006	0.0049778	7
	27	38	1976.103	4853.549	-2264.9	1	5355.998	-25.01603	5.466596E-007	0.0041499	7
	28	40	1577.524	4964.846	-2564.257	1	5587.943	-27.31557	-5.109095E-007	0.0053686	7
	29	41	1265.625	5123.649	-3081.706	1	5979.021	-31.02552	8.910665E-008	0.0047978	7
	30	42	998.264	5286.805	-3692.323	1	6448.531	-34.93059	8.776188E-007	0.0033575	7
	31	44	796.875	5456.227	-4392.968	1	7004.897	-38.83856	-1.048256E-006	0.0052825	7
	32	45	627.7902	5671.487	-5331.984	1	7784.332	-43.23275	-9.142426E-007	0.0044899	7
	33	47	505.5147	5898.339	-6391.569	1	8697.273	-47.29821	9.382434E-008	0.0047996	7
	34	48	397.9953	6189.425	-7822.313	1	9974.85	-51.6471	2.999384E-009	0.0040379	7
	35	49	315.5048	6542.017	-9547.68	1	11573.94	-55.58126	2.799578E-010	0.0039743	6
	36	51	252.4038	6955.182	-11586.07	1	13513.39	-59.02338	8.086291E-010	0.0039819	6
	37	52	198.6229	7507.348	-14282.85	1	16135.68	-62.2727	1.323698E-010	0.0039814	6
	38	53	158.3615	8165.852	-17423.22	1	19241.88	-64.88863	6.345741E-010	0.0039804	6
	39	55	125.558	9027.327	-21359.57	1	23188.88	-67.08932	6.948099E-010	0.0039723	6
	40	56	100.4464	10084.5	-25999.87	1	27887.1	-68.80035	7.986173E-010	0.0039713	6
	41	58	79.00281	11612.06	-32043.57	1	34082.7	-70.08032	4.347679E-010	0.0039767	6
	42	59	63.3446	13557.16	-38641.06	1	40950.32	-70.66665	7.68299E-010	0.0039682	6
	43	60	49.86702	15756.34	-48016.88	1	50535.95	-71.83318	1.101391E-009	0.0039716	6
	44	62	39.72458	18681.54	-58086.73	1	61016.95	-72.17145	4.207746E-011	0.0039783	6
	45	63	31.6723	22761.55	-70397.34	1	73985.63	-72.08244	7.844451E-010	0.0039654	6
	46	65	24.93351	27863.38	-85932.65	1	90337.08	-72.03488	1.627767E-011	0.0039717	6
	47	66	19.86229	34523.97	-103539.1	1	109143.2	-71.55959	3.349964E-010	0.0039748	5
	48	67	15.83615	42614.79	-125843.4	1	132863	-71.29217	-1.190533E-009	0.0039779	5
	49	69	12.40079	55164.83	-151980.3	1	161682.3	-70.05045	-1.355888E-010	0.0039674	5
	50	70	9.93114	68929.28	-180044.5	1	192788.2	-69.05087	4.585624E-010	0.0039646	5
	51	72	7.944915	86376.3	-212386.3	1	229278.8	-67.8687	2.816836E-010	0.0039726	5
	52	73	6.317385	108736	-250826.5	1	273381.5	-66.56274	-8.492496E-011	0.0039917	5
	53	75	5.008013	137051.3	-294617.8	1	324934.9	-65.05293	2.331973E-010	0.0039648	5
	54	78	3.945707	171640.3	-344754.5	1	385118.3	-63.53301	3.755854E-010	0.0039768	5
	55	81	3.158693	210711.8	-397538.2	1	449928.9	-62.07454	-1.805561E-011	0.0039791	5
	56	84	2.504006	257828.2	-457889.2	1	525488.3	-60.61701	3.947211E-010	0.0039666	5
	57	87	1.998082	310247.8	-522452.3	1	607626.6	-59.29689	6.160153E-011	0.0040151	5
	58	90	1.584686	369455.1	-596541.9	1	701683.3	-58.22891	2.135799E-010	0.0039813	5
	59	93	1.266892	437072.3	-676005.4	1	804994.1	-57.11526	6.816256E-011	0.0040112	5
	60	98	0.999041	513662.4	-770504.5	1	926027.1	-56.31031	9.483463E-011	0.0039333	5
