EXPLAIN
TAG	EISPOT
TITLE	LABEL	Potentiostatic EIS	Test &Identifier
DATE	LABEL	10/10/2019	Date
TIME	LABEL	8:26:25	Time
NOTES	NOTES	1	&Notes...
	
PSTAT	PSTAT	REF600-11020	Potentiostat
VDC	POTEN	0.00000E+000	T	DC &Voltage (V)
FREQINIT	QUANT	1.00000E+006	Initial Fre&q. (Hz)
FREQFINAL	QUANT	1.00000E+000	Final Fre&q. (Hz)
PTSPERDEC	QUANT	1.00000E+001	Points/&decade
VAC	QUANT	2.50000E+001	AC &Voltage (mV rms)
AREA	QUANT	1.00000E-002	&Area (cm^2)
CONDIT	TWOPARAM	T	5.00000E+000	0.00000E+000	Conditionin&g	Time(s)	E(V)
DELAY	TWOPARAM	T	5.00000E+000	0.00000E+000	Init. De&lay	Time(s)	Stab.(mV/s)
SPEED	SELECTOR	1	&Optimize for:
ZGUESS	QUANT	1.00000E+004	E&stimated Z (ohms)
OCVCURVE	TABLE	19
	Pt	T	Vf	Vm	Ach	Over
	#	s	V vs. Ref.	V	V	bits
	0	0.258333	5.89192E-003	5.89192E-003	6.02698E-004	...........
	1	0.516667	5.88746E-003	5.65821E-003	6.09965E-004	...........
	2	0.775	5.85982E-003	5.42498E-003	6.04498E-004	...........
	3	1.03333	5.78073E-003	5.19331E-003	6.06532E-004	...........
	4	1.29167	5.63944E-003	5.09063E-003	6.01765E-004	...........
	5	1.55	5.45834E-003	4.94474E-003	6.09898E-004	...........
	6	1.80833	5.27377E-003	4.81606E-003	6.11898E-004	...........
	7	2.06667	5.10844E-003	4.74112E-003	6.11898E-004	...........
	8	2.325	4.96578E-003	4.55690E-003	6.11832E-004	...........
	9	2.58333	4.83901E-003	4.52251E-003	6.09465E-004	...........
	10	2.84167	4.72320E-003	4.48727E-003	6.08565E-004	...........
	11	3.1	4.62324E-003	4.43981E-003	6.08132E-004	...........
	12	3.35833	4.54546E-003	4.38251E-003	6.03265E-004	...........
	13	3.61667	4.48622E-003	4.33489E-003	6.00165E-004	...........
	14	3.875	4.43608E-003	4.30181E-003	6.04765E-004	...........
	15	4.13333	4.38945E-003	4.26571E-003	6.08098E-004	...........
	16	4.39167	4.34599E-003	4.23728E-003	6.11998E-004	...........
	17	4.65	4.30658E-003	4.19971E-003	6.08098E-004	...........
	18	4.90833	4.27081E-003	4.17363E-003	6.05798E-004	...........
EOC	QUANT	0.0042708	Open Circuit (V)
PSTATMODEL	IQUANT	4	Pstat Model
PSTATSECTION	LABEL	REF600-11020	Pstat Section
PSTATSERIALNO	LABEL	11020	Pstat Serial Number
CTRLMODE	IQUANT	1	Control Mode
IESTAB	IQUANT	0	I/E Stability
CASPEED	IQUANT	1	Control Amp Speed
CONVENTION	IQUANT	1	Current Convention
ICHRANGE	IQUANT	2	Ich Range
ICHRANGEMODE	TOGGLE	F	Ich Auto Range
ICHOFFSETENABLE	TOGGLE	T	Ich Offset Enable
ICHOFFSET	QUANT	0	Ich Offset (V)
ICHFILTER	IQUANT	3	Ich Filter
VCHRANGE	IQUANT	2	Vch Range
VCHRANGEMODE	TOGGLE	F	Vch Auto Range
VCHOFFSETENABLE	TOGGLE	T	Vch Offset Enable
VCHOFFSET	QUANT	0	Vch Offset (V)
VCHFILTER	IQUANT	3	Vch Filter
ACHRANGE	IQUANT	2	Ach Range
ACHOFFSETENABLE	TOGGLE	F	Ach Offset Enable
ACHOFFSET	QUANT	0	Ach Offset (V)
ACHFILTER	IQUANT	3	Ach Filter
IERANGELOWERLIMIT	IQUANT	1	I/E Range Lower Limit
IERANGEMODE	TOGGLE	F	I/E AutoRange
IERANGE	IQUANT	5	I/E Range
POSFEEDENABLE	TOGGLE	F	Positive Feedback IR Comp
POSFEEDRESISTANCE	QUANT	0	Positive Feedback Resistance (ohm)
ACHSELECT	IQUANT	0	Ach Select
CABLEID	IQUANT	14	Cable ID
DCCALDATE	LABEL	8/19/2019	DC Calibration Date
ACCALDATE	LABEL	8/19/2019	AC Calibration Date
THERMOSELECT	IQUANT	1	Thermo Select
FRAMEWORKVERSION	QUANT	6.33	Framework Version
INSTRUMENTVERSION	LABEL	3.50	Instrument Version
ZCURVE	TABLE
	Pt	Time	Freq	Zreal	Zimag	Zsig	Zmod	Zphz	Idc	Vdc	IERange
	#	s	Hz	ohm	ohm	V	ohm	°	A	V	#
	0	2	1000078	2592.757	-1644.69	1	3070.406	-32.3886	9.271976E-006	0.0052272	8
	1	3	794390.6	2879.948	-1530.948	1	3261.579	-27.99461	2.930074E-006	0.005085	8
	2	5	630984.4	3162.92	-1381.72	1	3451.552	-23.59809	4.991864E-006	0.0050461	8
	3	6	501234.4	3386.435	-1231.657	1	3603.46	-19.98649	2.314571E-006	0.0053121	8
	4	8	398109.4	3569.878	-1081.599	1	3730.132	-16.85572	-2.350388E-007	0.0058126	8
	5	10	316265.6	3692.412	-915.0118	1	3804.096	-13.91802	-5.42078E-008	0.0057869	8
	6	11	251203.1	3774.575	-775.267	1	3853.37	-11.60667	-5.054664E-006	0.0070035	8
	7	13	199546.9	3866.127	-694.9084	1	3928.083	-10.1897	1.291268E-006	0.0055322	8
	8	14	158578.1	3930.686	-587.2388	1	3974.311	-8.49706	-5.740897E-007	0.006043	8
	9	16	125953.1	3997.944	-475.21	1	4026.087	-6.778578	-6.04135E-007	0.007182	7
	10	17	100078.1	4017.728	-419.9347	1	4039.614	-5.966915	-8.441231E-008	0.005954	7
	11	18	79453.13	4047.469	-389.3566	1	4066.154	-5.494805	4.926531E-008	0.0056662	7
	12	20	63140.62	4079.013	-367.5503	1	4095.539	-5.148883	7.659246E-008	0.0056839	7
	13	21	50203.12	4109.637	-355.7579	1	4125.006	-4.947576	-7.96726E-008	0.0059356	7
	14	22	39890.62	4139.995	-352.1228	1	4154.943	-4.861529	-4.695094E-008	0.0058604	7
	15	24	31640.63	4170.636	-357.1041	1	4185.896	-4.893924	-6.320158E-008	0.0059845	7
	16	25	25171.88	4202.508	-370.7924	1	4218.834	-5.04222	-4.022974E-008	0.0058315	7
	17	26	20015.62	4233.272	-380.5887	1	4250.346	-5.137317	-8.230026E-009	0.0057613	7
	18	28	15890.62	4270.629	-424.846	1	4291.709	-5.681144	-4.950284E-008	0.0059691	7
	19	29	12609.37	4308.667	-464.1805	1	4333.599	-6.148863	8.467484E-008	0.005763	7
	20	30	10078.13	4346.977	-517.1805	1	4377.634	-6.784859	-5.556619E-008	0.0059708	7
	21	32	8015.625	4385.489	-573.4348	1	4422.821	-7.449577	-1.308537E-008	0.00585	7
	22	33	6328.125	4435.614	-663.5267	1	4484.968	-8.50783	1.328072E-008	0.0057323	7
	23	35	5015.625	4482.562	-766.6014	1	4547.641	-9.70476	-1.555447E-008	0.0058577	7
	24	36	3984.375	4533.049	-890.0836	1	4619.608	-11.10894	-6.737636E-009	0.0058292	7
	25	37	3170.956	4589.857	-1045.085	1	4707.334	-12.82724	-5.245327E-008	0.0059748	7
	26	39	2527.573	4653.585	-1232.228	1	4813.963	-14.83104	-5.151494E-009	0.0058252	7
	27	40	1976.103	4732.11	-1485.98	1	4959.94	-17.43336	-3.730902E-008	0.005827	7
	28	41	1577.524	4813.704	-1769.308	1	5128.566	-20.18123	4.93903E-008	0.0056454	7
	29	43	1265.625	4903.406	-2102.595	1	5335.194	-23.20979	1.473537E-007	0.0055881	7
	30	44	998.264	5019.722	-2542.769	1	5627.014	-26.86476	-3.837928E-008	0.0058465	7
	31	46	796.875	5141.168	-3056.783	1	5981.265	-30.73443	7.759885E-008	0.0056808	7
	32	47	627.7902	5297.183	-3723.867	1	6475.132	-35.10683	-7.682579E-009	0.0058517	7
	33	48	505.5147	5454.269	-4462.064	1	7046.919	-39.28614	-4.205632E-009	0.0058255	7
	34	50	397.9953	5653.868	-5465.169	1	7863.479	-44.02774	4.137414E-009	0.0058152	7
	35	51	315.5048	5883.017	-6674.718	1	8897.289	-48.60743	6.608817E-009	0.0058173	7
	36	52	252.4038	6149.446	-8105.602	1	10174.3	-52.81364	5.515001E-010	0.0057504	6
	37	54	198.6229	6492.553	-10008.05	1	11929.55	-57.02718	1.286371E-009	0.0057516	6
	38	55	158.3615	6899.775	-12234.52	1	14046.01	-60.57876	4.37012E-010	0.0057564	6
	39	57	125.558	7424.94	-15051.41	1	16783.16	-63.74263	1.144722E-009	0.0057529	6
	40	58	100.4464	8074.818	-18385.34	1	20080.42	-66.28898	-1.878583E-010	0.0057495	6
	41	59	79.00281	8933.596	-22797.33	1	24485.25	-68.60126	8.733911E-010	0.0057447	6
	42	61	63.3446	9854.07	-27607.1	1	29313.04	-70.3565	9.611383E-010	0.0057376	6
	43	62	49.86702	11808.52	-34235.77	1	36215.04	-70.96979	1.415491E-009	0.0057386	6
	44	64	39.72458	13636.6	-41917.6	1	44079.95	-71.9793	1.776866E-009	0.0057463	6
	45	65	31.6723	16313.16	-51150.95	1	53689.28	-72.31138	7.015075E-010	0.005745	6
	46	66	24.93351	19954.08	-62951.4	1	66038.2	-72.41264	4.523232E-010	0.005737	6
	47	68	19.86229	24718.43	-76252.78	1	80159.14	-72.03916	1.328429E-009	0.005742	6
	48	69	15.83615	31095.23	-92957.89	1	98020.8	-71.50446	2.699541E-009	0.0057367	6
	49	70	12.40079	39808.44	-111864.3	1	118736.4	-70.41121	6.725996E-010	0.0057458	5
	50	72	9.93114	50171.9	-133649.1	1	142756.1	-69.42385	8.580119E-011	0.0057496	5
	51	73	7.944915	63313.35	-158239.6	1	170435.8	-68.19313	2.522863E-010	0.0057536	5
	52	75	6.317385	80712.7	-185757.7	1	202535.1	-66.51481	-2.164875E-010	0.0057499	5
	53	77	5.008013	102148.7	-217723.6	1	240495.2	-64.86559	-5.133453E-011	0.0057357	5
	54	80	3.945707	128241.5	-254064.6	1	284595.7	-63.2172	2.816093E-010	0.0057469	5
	55	82	3.158693	156677.1	-291527.8	1	330962.5	-61.74488	-9.453151E-012	0.0057348	5
	56	86	2.504006	190704.2	-334795.8	1	385300.3	-60.33357	3.017446E-010	0.005759	5
	57	88	1.998082	226463.2	-380562.6	1	442847	-59.24419	3.993321E-010	0.0057294	5
	58	92	1.584686	267684.8	-435752.9	1	511405.7	-58.43742	-4.97982E-011	0.0057072	5
	59	95	1.266892	311442.3	-494247.9	1	584189.4	-57.78359	3.281461E-010	0.0057106	5
	60	100	0.999041	361114.8	-567852.4	1	672948.9	-57.54646	-7.111035E-011	0.0057621	5
