EXPLAIN
TAG	EISPOT
TITLE	LABEL	Potentiostatic EIS	Test &Identifier
DATE	LABEL	10/31/2019	Date
TIME	LABEL	23:53:38	Time
NOTES	NOTES	1	&Notes...
	
PSTAT	PSTAT	REF600-11020	Potentiostat
VDC	POTEN	0.00000E+000	T	DC &Voltage (V)
FREQINIT	QUANT	1.00000E+006	Initial Fre&q. (Hz)
FREQFINAL	QUANT	1.00000E+000	Final Fre&q. (Hz)
PTSPERDEC	QUANT	1.00000E+001	Points/&decade
VAC	QUANT	2.50000E+001	AC &Voltage (mV rms)
AREA	QUANT	1.00000E-002	&Area (cm^2)
CONDIT	TWOPARAM	T	5.00000E+000	0.00000E+000	Conditionin&g	Time(s)	E(V)
DELAY	TWOPARAM	T	5.00000E+000	0.00000E+000	Init. De&lay	Time(s)	Stab.(mV/s)
SPEED	SELECTOR	0	&Optimize for:
ZGUESS	QUANT	1.00000E+005	E&stimated Z (ohms)
OCVCURVE	TABLE	19
	Pt	T	Vf	Vm	Ach	Over
	#	s	V vs. Ref.	V	V	bits
	0	0.258333	3.17886E-003	3.17886E-003	5.50299E-004	...........
	1	0.516667	3.18840E-003	3.67834E-003	5.50533E-004	...........
	2	0.775	3.23814E-003	3.68820E-003	5.52666E-004	...........
	3	1.03333	3.33873E-003	3.13882E-003	5.56233E-004	...........
	4	1.29167	3.42328E-003	3.03866E-003	5.58332E-004	...........
	5	1.55	3.40808E-003	3.11442E-003	5.52033E-004	...........
	6	1.80833	3.30887E-003	3.37127E-003	5.58599E-004	...........
	7	2.06667	3.22973E-003	3.69991E-003	5.55866E-004	...........
	8	2.325	3.25226E-003	3.60529E-003	5.59466E-004	...........
	9	2.58333	3.34900E-003	2.76278E-003	5.58533E-004	...........
	10	2.84167	3.39594E-003	2.93911E-003	5.52299E-004	...........
	11	3.1	3.31122E-003	2.98400E-003	5.49399E-004	...........
	12	3.35833	3.16646E-003	3.65494E-003	5.51299E-004	...........
	13	3.61667	3.10423E-003	3.39393E-003	5.47299E-004	...........
	14	3.875	3.16022E-003	2.76062E-003	5.48999E-004	...........
	15	4.13333	3.21756E-003	2.75582E-003	5.50199E-004	...........
	16	4.39167	3.15827E-003	2.59272E-003	5.50933E-004	...........
	17	4.65	3.00581E-003	3.15838E-003	5.52699E-004	...........
	18	4.90833	2.89064E-003	3.51769E-003	5.56566E-004	...........
EOC	QUANT	0.0028906	Open Circuit (V)
PSTATMODEL	IQUANT	4	Pstat Model
PSTATSECTION	LABEL	REF600-11020	Pstat Section
PSTATSERIALNO	LABEL	11020	Pstat Serial Number
CTRLMODE	IQUANT	1	Control Mode
IESTAB	IQUANT	0	I/E Stability
CASPEED	IQUANT	1	Control Amp Speed
CONVENTION	IQUANT	1	Current Convention
ICHRANGE	IQUANT	2	Ich Range
ICHRANGEMODE	TOGGLE	F	Ich Auto Range
ICHOFFSETENABLE	TOGGLE	T	Ich Offset Enable
ICHOFFSET	QUANT	0	Ich Offset (V)
ICHFILTER	IQUANT	3	Ich Filter
VCHRANGE	IQUANT	2	Vch Range
VCHRANGEMODE	TOGGLE	F	Vch Auto Range
VCHOFFSETENABLE	TOGGLE	T	Vch Offset Enable
VCHOFFSET	QUANT	0	Vch Offset (V)
VCHFILTER	IQUANT	3	Vch Filter
ACHRANGE	IQUANT	2	Ach Range
ACHOFFSETENABLE	TOGGLE	F	Ach Offset Enable
ACHOFFSET	QUANT	0	Ach Offset (V)
ACHFILTER	IQUANT	3	Ach Filter
IERANGELOWERLIMIT	IQUANT	1	I/E Range Lower Limit
IERANGEMODE	TOGGLE	F	I/E AutoRange
IERANGE	IQUANT	4	I/E Range
POSFEEDENABLE	TOGGLE	F	Positive Feedback IR Comp
POSFEEDRESISTANCE	QUANT	0	Positive Feedback Resistance (ohm)
ACHSELECT	IQUANT	0	Ach Select
CABLEID	IQUANT	14	Cable ID
DCCALDATE	LABEL	8/19/2019	DC Calibration Date
ACCALDATE	LABEL	8/19/2019	AC Calibration Date
THERMOSELECT	IQUANT	1	Thermo Select
FRAMEWORKVERSION	QUANT	6.33	Framework Version
INSTRUMENTVERSION	LABEL	3.50	Instrument Version
ZCURVE	TABLE
	Pt	Time	Freq	Zreal	Zimag	Zsig	Zmod	Zphz	Idc	Vdc	IERange
	#	s	Hz	ohm	ohm	V	ohm	°	A	V	#
	0	1	1000078	1675.591	-575.3073	1	1771.605	-18.9497	1.259807E-006	0.0057128	8
	1	2	794390.6	1761.857	-518.0651	1	1836.446	-16.3857	-2.613767E-006	0.0047145	8
	2	2	630984.4	1831.978	-459.1958	1	1888.651	-14.0716	-3.278432E-007	0.0052953	8
	3	2	501234.4	1891.331	-408.5623	1	1934.957	-12.18964	-4.873458E-006	0.0050696	8
	4	3	398109.4	1935.422	-356.3335	1	1967.952	-10.43199	4.45446E-006	0.0045899	8
	5	3	316265.6	1973.723	-314.8921	1	1998.684	-9.0647	-1.031703E-006	0.0050216	8
	6	3	251203.1	2007.066	-281.3607	1	2026.691	-7.980011	5.765122E-006	0.0035399	8
	7	4	199546.9	2027.566	-248.0259	1	2042.679	-6.974168	-5.817633E-006	0.0053951	8
	8	4	158578.1	2051.041	-219.4967	1	2062.752	-6.108389	-1.538438E-006	0.0043953	8
	9	4	125953.1	2089.666	-176.2213	1	2097.083	-4.820341	3.359738E-006	-0.0010581	7
	10	4	100078.1	2099.919	-160.3442	1	2106.032	-4.366479	3.883456E-007	0.003195	7
	11	5	79453.13	2114.27	-157.9689	1	2120.163	-4.272949	-2.525731E-007	0.0038425	7
	12	5	63140.62	2128.175	-160.4688	1	2134.216	-4.31206	3.441066E-007	0.0049338	7
	13	5	50203.12	2143.098	-163.3605	1	2149.315	-4.359017	-7.360061E-007	0.0059321	7
	14	6	39890.62	2159.22	-170.4958	1	2165.941	-4.514808	5.186961E-007	0.004665	7
	15	6	31640.63	2176.093	-180.4621	1	2183.563	-4.740657	9.028657E-007	0.0035884	7
	16	6	25171.88	2190.812	-193.1391	1	2199.31	-5.038094	-9.093875E-007	0.0058795	7
	17	7	20015.62	2208.168	-211.5408	1	2218.278	-5.472191	-6.074183E-007	0.0044069	7
	18	7	15890.62	2225.49	-235.1288	1	2237.876	-6.031075	-5.059138E-007	0.005849	7
	19	7	12609.37	2244.683	-265.174	1	2260.292	-6.73737	-9.083342E-007	0.0058846	7
	20	8	10078.13	2263.586	-300.3367	1	2283.424	-7.557963	-7.363029E-007	0.0059279	7
	21	8	8015.625	2286.593	-348.6548	1	2313.021	-8.669562	-1.025495E-006	0.0057581	7
	22	8	6328.125	2310.159	-404.0796	1	2345.233	-9.92147	8.833134E-008	0.0034241	7
	23	9	5015.625	2336.433	-475.0974	1	2384.248	-11.49399	8.981401E-007	0.0035929	7
	24	9	3984.375	2363.827	-559.8722	1	2429.225	-13.32495	-6.01272E-007	0.0044043	7
	25	9	3170.956	2393.576	-666.907	1	2484.748	-15.5691	5.15524E-007	0.00466	7
	26	10	2527.573	2426.728	-794.6911	1	2553.535	-18.1323	-1.016641E-006	0.0057529	7
	27	10	1976.103	2468.608	-969.105	1	2652.016	-21.43355	8.298278E-007	0.0039379	7
	28	10	1577.524	2510.205	-1168.202	1	2768.722	-24.95638	8.294075E-007	0.0039386	7
	29	11	1265.625	2562.01	-1404.082	1	2921.53	-28.72447	3.414786E-007	0.0049213	7
	30	11	998.264	2625.032	-1717.253	1	3136.838	-33.19205	-8.998664E-007	0.0058709	7
	31	11	796.875	2698.457	-2090.381	1	3413.409	-37.76344	7.882207E-007	0.0031653	7
	32	11	627.7902	2794.766	-2575.372	1	3800.429	-42.66051	7.874659E-007	0.0031672	7
	33	12	505.5147	2904.225	-3111.181	1	4256.051	-46.97045	8.846128E-008	0.0034221	7
	34	12	397.9953	3056.479	-3839.352	1	4907.411	-51.47696	1.308648E-009	0.0045607	7
	35	12	315.5048	3246.447	-4711.622	1	5721.783	-55.43201	8.404388E-013	0.0045575	7
	36	13	252.4038	3481.171	-5733.744	1	6707.785	-58.73649	1.736274E-009	0.0045508	7
	37	13	198.6229	3807.497	-7072.466	1	8032.236	-61.70398	2.252988E-009	0.0045492	7
	38	13	158.3615	4209.213	-8613.986	1	9587.4	-63.95761	1.642234E-009	0.004547	7
	39	14	125.558	4746.808	-10525.82	1	11546.65	-65.72616	4.855578E-010	0.0044878	6
	40	14	100.4464	5407.66	-12747.93	1	13847.47	-67.01338	9.232422E-010	0.0044884	6
	41	14	79.00281	6327.669	-15598.18	1	16832.79	-67.91923	7.082891E-010	0.0044887	6
	42	15	63.3446	7576.632	-18700.31	1	20176.89	-67.94415	-5.643316E-010	0.0044843	6
	43	15	49.86702	9103.23	-22763.73	1	24516.45	-68.2035	-1.519233E-009	0.0044837	6
	44	16	39.72458	10865.04	-27314.09	1	29395.72	-68.30824	-5.529224E-010	0.0044916	6
	45	16	31.6723	13175.4	-32634.57	1	35193.84	-68.01482	-5.560182E-010	0.0044841	6
	46	16	24.93351	16317.22	-39147.42	1	42411.94	-67.3729	-4.652949E-010	0.0044862	6
	47	16	19.86229	19961.24	-46411.59	1	50522.14	-66.72786	-1.961107E-009	0.0044851	6
	48	17	15.83615	23935.12	-54781.4	1	59782.04	-66.3985	-7.687689E-010	0.0044925	6
	49	17	12.40079	30121.89	-64896.52	1	71546.39	-65.10151	2.241176E-009	0.0044803	6
	50	17	9.93114	36463.57	-75593.86	1	83928.68	-64.24912	2.2949E-009	0.0044827	6
	51	18	7.944915	43969.16	-87934.23	1	98314.4	-63.43389	8.058159E-010	0.0044943	6
	52	18	6.317385	52982.26	-102477.6	1	115363.6	-62.66043	5.256443E-010	0.0044901	5
	53	19	5.008013	63742.46	-119121.5	1	135103.7	-61.84856	5.94845E-010	0.0045033	5
	54	20	3.945707	76610.12	-138941.6	1	158662.8	-61.12838	-3.559626E-010	0.0044811	5
	55	22	3.158693	90151.34	-159380	1	183109.9	-60.50586	1.289297E-010	0.0044802	5
	56	23	2.504006	105766.9	-184196.9	1	212403.2	-60.13532	3.107071E-010	0.0044854	5
	57	25	1.998082	122459.4	-211479.4	1	244376.5	-59.92656	-1.298464E-010	0.0044503	5
	58	26	1.584686	140681.4	-245376.3	1	282844.1	-60.17309	-1.273544E-010	0.0044401	5
	59	28	1.266892	159287.9	-283411.4	1	325107.1	-60.66238	-9.753288E-012	0.004474	5
	60	31	0.999041	181389	-332299.8	1	378583	-61.37167	4.422779E-011	0.0045038	5
