EXPLAIN
TAG	EISPOT
TITLE	LABEL	Potentiostatic IDE	Test &Identifier
DATE	LABEL	9/10/2019	Date
TIME	LABEL	9:05:49	Time
NOTES	NOTES	1	&Notes...
	
PSTAT	PSTAT	REF600-11020	Potentiostat
VDC	POTEN	0.00000E+000	T	DC &Voltage (V)
FREQINIT	QUANT	1.00000E+006	Initial Fre&q. (Hz)
FREQFINAL	QUANT	1.00000E+000	Final Fre&q. (Hz)
PTSPERDEC	QUANT	1.00000E+001	Points/&decade
VAC	QUANT	2.50000E+001	AC &Voltage (mV rms)
AREA	QUANT	1.00000E-002	&Area (cm^2)
CONDIT	TWOPARAM	T	5.00000E+000	0.00000E+000	Conditionin&g	Time(s)	E(V)
DELAY	TWOPARAM	T	5.00000E+000	0.00000E+000	Init. De&lay	Time(s)	Stab.(mV/s)
SPEED	SELECTOR	1	&Optimize for:
ZGUESS	QUANT	1.00000E+007	E&stimated Z (ohms)
OCVCURVE	TABLE	19
	Pt	T	Vf	Vm	Ach	Over
	#	s	V vs. Ref.	V	V	bits
	0	0.258333	2.64984E-003	2.64984E-003	5.75399E-004	...........
	1	0.516667	2.64230E-003	2.25525E-003	5.74132E-004	...........
	2	0.775	2.59632E-003	1.89721E-003	5.72666E-004	...........
	3	1.03333	2.46769E-003	1.57641E-003	5.72532E-004	...........
	4	1.29167	2.24147E-003	1.27138E-003	5.79132E-004	...........
	5	1.55	1.94745E-003	9.91790E-004	5.76532E-004	...........
	6	1.80833	1.63023E-003	7.32120E-004	5.79199E-004	...........
	7	2.06667	1.32073E-003	4.84402E-004	5.75465E-004	...........
	8	2.325	1.03132E-003	2.44706E-004	5.79399E-004	...........
	9	2.58333	7.62476E-004	2.00593E-005	5.77699E-004	...........
	10	2.84167	5.10617E-004	-1.86947E-004	5.74532E-004	...........
	11	3.1	2.72896E-004	-3.93058E-004	5.72732E-004	...........
	12	3.35833	4.76478E-005	-5.93287E-004	5.69966E-004	...........
	13	3.61667	-1.67067E-004	-7.85590E-004	5.73766E-004	...........
	14	3.875	-3.73361E-004	-9.67815E-004	5.74099E-004	...........
	15	4.13333	-5.72319E-004	-1.14311E-003	5.73866E-004	...........
	16	4.39167	-7.63968E-004	-1.31492E-003	5.73332E-004	...........
	17	4.65	-9.48332E-004	-1.48047E-003	5.72899E-004	...........
	18	4.90833	-1.12595E-003	-1.63949E-003	5.73132E-004	...........
EOC	QUANT	-0.0011259	Open Circuit (V)
PSTATMODEL	IQUANT	4	Pstat Model
PSTATSECTION	LABEL	REF600-11020	Pstat Section
PSTATSERIALNO	LABEL	11020	Pstat Serial Number
CTRLMODE	IQUANT	1	Control Mode
IESTAB	IQUANT	0	I/E Stability
CASPEED	IQUANT	1	Control Amp Speed
CONVENTION	IQUANT	1	Current Convention
ICHRANGE	IQUANT	2	Ich Range
ICHRANGEMODE	TOGGLE	F	Ich Auto Range
ICHOFFSETENABLE	TOGGLE	T	Ich Offset Enable
ICHOFFSET	QUANT	0	Ich Offset (V)
ICHFILTER	IQUANT	3	Ich Filter
VCHRANGE	IQUANT	2	Vch Range
VCHRANGEMODE	TOGGLE	F	Vch Auto Range
VCHOFFSETENABLE	TOGGLE	T	Vch Offset Enable
VCHOFFSET	QUANT	0	Vch Offset (V)
VCHFILTER	IQUANT	3	Vch Filter
ACHRANGE	IQUANT	2	Ach Range
ACHOFFSETENABLE	TOGGLE	F	Ach Offset Enable
ACHOFFSET	QUANT	0	Ach Offset (V)
ACHFILTER	IQUANT	3	Ach Filter
IERANGELOWERLIMIT	IQUANT	1	I/E Range Lower Limit
IERANGEMODE	TOGGLE	F	I/E AutoRange
IERANGE	IQUANT	2	I/E Range
POSFEEDENABLE	TOGGLE	F	Positive Feedback IR Comp
POSFEEDRESISTANCE	QUANT	0	Positive Feedback Resistance (ohm)
ACHSELECT	IQUANT	0	Ach Select
CABLEID	IQUANT	14	Cable ID
DCCALDATE	LABEL	8/19/2019	DC Calibration Date
ACCALDATE	LABEL	8/19/2019	AC Calibration Date
THERMOSELECT	IQUANT	1	Thermo Select
FRAMEWORKVERSION	QUANT	6.33	Framework Version
INSTRUMENTVERSION	LABEL	3.50	Instrument Version
ZCURVE	TABLE
	Pt	Time	Freq	Zreal	Zimag	Zsig	Zmod	Zphz	Idc	Vdc	IERange
	#	s	Hz	ohm	ohm	V	ohm	°	A	V	#
	0	2	1000078	2600.325	-1898.119	1	3219.401	-36.12774	-5.260097E-006	0.0013198	8
	1	3	794390.6	2969.69	-1835.161	1	3490.97	-31.71456	6.216298E-007	0.0009539	8
	2	4	630984.4	3322.74	-1707.277	1	3735.692	-27.19482	-4.178631E-007	0.000751	8
	3	6	501234.4	3606.786	-1549.369	1	3925.487	-23.24694	-2.09607E-007	0.0006472	8
	4	7	398109.4	3845.143	-1357.155	1	4077.622	-19.44064	-2.668682E-006	0.0009636	8
	5	8	316265.6	4032.237	-1195.787	1	4205.811	-16.51808	3.84673E-006	-0.0004311	8
	6	10	251203.1	4173.909	-1019.505	1	4296.615	-13.72611	-5.720708E-008	0.000455	8
	7	11	199546.9	4268.419	-887.2803	1	4359.664	-11.7429	9.201468E-008	0.0004575	8
	8	13	158578.1	4347.546	-769.8277	1	4415.177	-10.04138	4.886452E-008	0.0002723	8
	9	14	125953.1	4430.042	-650.4987	1	4477.546	-8.353505	6.668657E-007	-0.0011745	7
	10	15	100078.1	4467.961	-588.906	1	4506.605	-7.508669	4.994037E-008	0.0002386	7
	11	17	79453.13	4515.308	-547.1807	1	4548.341	-6.90961	7.339827E-008	0.0002527	7
	12	18	63140.62	4560.032	-525.4647	1	4590.208	-6.573353	-4.199088E-008	0.0003702	7
	13	19	50203.12	4597.921	-516.2247	1	4626.81	-6.405971	-5.043576E-008	0.0004021	7
	14	21	39890.62	4633.69	-524.162	1	4663.243	-6.453851	5.141403E-008	0.0002267	7
	15	22	31640.63	4680.199	-539.0204	1	4711.136	-6.569832	1.637176E-008	0.0002396	7
	16	23	25171.88	4722.973	-569.7004	1	4757.208	-6.877975	6.495024E-008	0.0001848	7
	17	25	20015.62	4766.473	-619.6868	1	4806.586	-7.407449	1.330649E-009	0.0003023	7
	18	26	15890.62	4822.401	-680.7081	1	4870.207	-8.034529	3.652604E-008	0.0001997	7
	19	27	12609.37	4876.648	-767.0495	1	4936.604	-8.938835	3.602599E-008	0.000273	7
	20	29	10078.13	4936.134	-868.6479	1	5011.983	-9.98057	3.502897E-008	0.0002674	7
	21	30	8015.625	5007.369	-995.764	1	5105.417	-11.2471	-4.143551E-009	0.0002939	7
	22	31	6328.125	5090.814	-1154.524	1	5220.087	-12.77773	-6.317272E-009	0.0002694	7
	23	33	5015.625	5181.036	-1347.786	1	5353.472	-14.58164	3.564938E-008	0.0002018	7
	24	34	3984.375	5289.326	-1575.762	1	5519.058	-16.58951	2.340149E-009	0.0003035	7
	25	35	3170.956	5406.258	-1845.455	1	5712.559	-18.84761	3.60041E-008	0.0002765	7
	26	37	2527.573	5543.185	-2176.337	1	5955.11	-21.43571	-6.218895E-008	0.0004816	7
	27	38	1976.103	5717.958	-2597.576	1	6280.322	-24.43153	3.325666E-008	0.0001968	7
	28	39	1577.524	5898.992	-3063.813	1	6647.185	-27.44642	3.764885E-008	0.0002038	7
	29	41	1265.625	6109.145	-3600.107	1	7091.01	-30.51076	-2.695542E-008	0.0003089	7
	30	42	998.264	6369.354	-4311.013	1	7691.131	-34.09159	-6.100043E-008	0.0004749	7
	31	43	796.875	6655.25	-5100.789	1	8385.13	-37.46767	3.503381E-008	0.0002649	7
	32	45	627.7902	7001.705	-6118.781	1	9298.567	-41.15017	-3.895071E-009	0.0002949	7
	33	46	505.5147	7353.629	-7243.287	1	10321.87	-44.56689	4.094989E-009	0.0001637	6
	34	47	397.9953	7810.226	-8725.226	1	11710.22	-48.16727	5.765445E-010	0.0002729	6
	35	49	315.5048	8318.491	-10493.51	1	13390.71	-51.59518	1.165886E-009	0.0002742	6
	36	50	252.4038	8883.234	-12562.41	1	15385.9	-54.73479	8.850033E-010	0.0002674	6
	37	51	198.6229	9600.67	-15276.94	1	18043.22	-57.85302	8.02953E-010	0.0002711	6
	38	53	158.3615	10409.99	-18427.43	1	21164.55	-60.5371	1.071677E-009	0.000268	6
	39	54	125.558	11403.44	-22363.23	1	25102.84	-62.9821	7.930792E-010	0.0002664	6
	40	55	100.4464	12575.41	-26960.05	1	29748.71	-64.99349	9.001884E-010	0.0002632	6
	41	57	79.00281	14118.03	-33073.64	1	35960.87	-66.88399	8.204975E-010	0.0002625	6
	42	58	63.3446	16169.22	-39908.27	1	43059.42	-67.94419	8.148697E-010	0.0002637	6
	43	59	49.86702	18249.61	-48852.48	1	52149.91	-69.51604	9.834067E-010	0.0002544	6
	44	61	39.72458	21364.82	-59019.52	1	62767.5	-70.09995	8.296764E-010	0.0002653	6
	45	62	31.6723	25082.32	-71488.96	1	75761.43	-70.66628	3.275102E-010	0.0002625	6
	46	63	24.93351	29839.72	-87277.35	1	92237.44	-71.12468	9.642417E-010	0.0002656	6
	47	65	19.86229	35662.98	-105348.7	1	111221.4	-71.29784	9.637301E-010	0.0002692	5
	48	66	15.83615	43250.52	-126761.2	1	133936.6	-71.16052	5.708991E-010	0.0002674	5
	49	67	12.40079	52979	-155416.9	1	164198.7	-71.17663	7.36606E-010	0.0002714	5
	50	69	9.93114	65787.32	-186045.3	1	197334.3	-70.52594	2.431897E-010	0.0002739	5
	51	70	7.944915	81350.39	-223029.2	1	237402.4	-69.96045	5.343697E-010	0.0002576	5
	52	72	6.317385	102187.9	-265995	1	284948.6	-68.9846	1.435657E-010	0.0002745	5
	53	74	5.008013	129637.1	-317493.4	1	342940	-67.78911	3.534619E-010	0.0002717	5
	54	76	3.945707	165301.5	-378149.1	1	412700	-66.38827	5.242983E-010	0.0002677	5
	55	79	3.158693	207408.9	-441492.3	1	487784.6	-64.83631	3.388272E-010	0.0002793	5
	56	82	2.504006	261432.5	-515670.8	1	578155.1	-63.11611	2.351002E-010	0.000256	5
	57	85	1.998082	323653.6	-594554.3	1	676939.1	-61.43775	9.23099E-012	0.0002504	5
	58	88	1.584686	400699.3	-679079.8	1	788485.4	-59.45675	1.43613E-010	0.0002996	5
	59	92	1.266892	486011	-770193.7	1	910716.8	-57.74707	1.020544E-010	0.0002324	5
	60	96	0.999041	589023.8	-870473.3	1	1051034	-55.91494	2.635642E-010	0.0003111	4
