EXPLAIN
TAG	EISPOT
TITLE	LABEL	Potentiostatic EIS	Test &Identifier
DATE	LABEL	10/2/2019	Date
TIME	LABEL	8:52:22	Time
NOTES	NOTES	2	&Notes...
	
	
PSTAT	PSTAT	REF600-11020	Potentiostat
VDC	POTEN	0.00000E+000	T	DC &Voltage (V)
FREQINIT	QUANT	1.00000E+006	Initial Fre&q. (Hz)
FREQFINAL	QUANT	1.00000E+000	Final Fre&q. (Hz)
PTSPERDEC	QUANT	1.00000E+001	Points/&decade
VAC	QUANT	2.50000E+001	AC &Voltage (mV rms)
AREA	QUANT	1.00000E-002	&Area (cm^2)
CONDIT	TWOPARAM	T	5.00000E+000	0.00000E+000	Conditionin&g	Time(s)	E(V)
DELAY	TWOPARAM	T	5.00000E+000	0.00000E+000	Init. De&lay	Time(s)	Stab.(mV/s)
SPEED	SELECTOR	1	&Optimize for:
ZGUESS	QUANT	1.00000E+004	E&stimated Z (ohms)
OCVCURVE	TABLE	19
	Pt	T	Vf	Vm	Ach	Over
	#	s	V vs. Ref.	V	V	bits
	0	0.258333	3.79160E-003	3.79160E-003	5.74799E-004	...........
	1	0.516667	3.78744E-003	3.57399E-003	5.67132E-004	...........
	2	0.775	3.76313E-003	3.43118E-003	5.68266E-004	...........
	3	1.03333	3.69803E-003	3.27639E-003	5.69566E-004	...........
	4	1.29167	3.58880E-003	3.17515E-003	5.64366E-004	...........
	5	1.55	3.45428E-003	3.06943E-003	5.63166E-004	...........
	6	1.80833	3.31830E-003	2.97994E-003	5.66432E-004	...........
	7	2.06667	3.19512E-003	2.90985E-003	5.71699E-004	...........
	8	2.325	3.08878E-003	2.84572E-003	5.65099E-004	...........
	9	2.58333	2.99790E-003	2.76075E-003	5.67432E-004	...........
	10	2.84167	2.91841E-003	2.71624E-003	5.66499E-004	...........
	11	3.1	2.84649E-003	2.66485E-003	5.74899E-004	...........
	12	3.35833	2.78309E-003	2.71352E-003	5.71332E-004	...........
	13	3.61667	2.73612E-003	2.76229E-003	5.74099E-004	...........
	14	3.875	2.71334E-003	2.67191E-003	5.69866E-004	...........
	15	4.13333	2.70736E-003	2.60547E-003	5.68766E-004	...........
	16	4.39167	2.69175E-003	2.30941E-003	5.62432E-004	...........
	17	4.65	2.63990E-003	2.41876E-003	5.64066E-004	...........
	18	4.90833	2.54826E-003	2.04823E-003	5.62099E-004	...........
EOC	QUANT	0.0025483	Open Circuit (V)
PSTATMODEL	IQUANT	4	Pstat Model
PSTATSECTION	LABEL	REF600-11020	Pstat Section
PSTATSERIALNO	LABEL	11020	Pstat Serial Number
CTRLMODE	IQUANT	1	Control Mode
IESTAB	IQUANT	0	I/E Stability
CASPEED	IQUANT	1	Control Amp Speed
CONVENTION	IQUANT	1	Current Convention
ICHRANGE	IQUANT	2	Ich Range
ICHRANGEMODE	TOGGLE	F	Ich Auto Range
ICHOFFSETENABLE	TOGGLE	T	Ich Offset Enable
ICHOFFSET	QUANT	0	Ich Offset (V)
ICHFILTER	IQUANT	3	Ich Filter
VCHRANGE	IQUANT	2	Vch Range
VCHRANGEMODE	TOGGLE	F	Vch Auto Range
VCHOFFSETENABLE	TOGGLE	T	Vch Offset Enable
VCHOFFSET	QUANT	0	Vch Offset (V)
VCHFILTER	IQUANT	3	Vch Filter
ACHRANGE	IQUANT	2	Ach Range
ACHOFFSETENABLE	TOGGLE	F	Ach Offset Enable
ACHOFFSET	QUANT	0	Ach Offset (V)
ACHFILTER	IQUANT	3	Ach Filter
IERANGELOWERLIMIT	IQUANT	1	I/E Range Lower Limit
IERANGEMODE	TOGGLE	F	I/E AutoRange
IERANGE	IQUANT	5	I/E Range
POSFEEDENABLE	TOGGLE	F	Positive Feedback IR Comp
POSFEEDRESISTANCE	QUANT	0	Positive Feedback Resistance (ohm)
ACHSELECT	IQUANT	0	Ach Select
CABLEID	IQUANT	14	Cable ID
DCCALDATE	LABEL	8/19/2019	DC Calibration Date
ACCALDATE	LABEL	8/19/2019	AC Calibration Date
THERMOSELECT	IQUANT	1	Thermo Select
FRAMEWORKVERSION	QUANT	6.33	Framework Version
INSTRUMENTVERSION	LABEL	3.50	Instrument Version
ZCURVE	TABLE
	Pt	Time	Freq	Zreal	Zimag	Zsig	Zmod	Zphz	Idc	Vdc	IERange
	#	s	Hz	ohm	ohm	V	ohm	°	A	V	#
	0	2	1000078	2073.821	-1059.913	1	2328.98	-27.07121	-4.849253E-006	0.0056609	8
	1	3	794390.6	2258.955	-952.41	1	2451.522	-22.86103	4.884319E-006	0.0038035	8
	2	4	630984.4	2400.094	-846.3238	1	2544.939	-19.42372	-3.679845E-007	0.0041546	8
	3	6	501234.4	2521.789	-730.1031	1	2625.351	-16.14668	3.930485E-006	0.0034811	8
	4	7	398109.4	2598.34	-624.0831	1	2672.237	-13.50577	-3.284507E-006	0.0045764	8
	5	8	316265.6	2659.539	-536.925	1	2713.197	-11.41382	1.309981E-006	0.0038135	8
	6	10	251203.1	2708.889	-471.5199	1	2749.62	-9.8742	-2.86982E-006	0.0046842	8
	7	11	199546.9	2754.174	-414.5187	1	2785.193	-8.559098	-4.291757E-007	0.0041346	8
	8	12	158578.1	2781.495	-364.7725	1	2805.312	-7.471281	-9.911134E-007	0.0043278	8
	9	14	125953.1	2824.689	-297.7936	1	2840.343	-6.018191	-1.550235E-007	0.0045526	7
	10	15	100078.1	2845.149	-277.2809	1	2858.628	-5.566321	-6.387588E-009	0.0040171	7
	11	16	79453.13	2867.045	-270.1638	1	2879.746	-5.38313	-8.298821E-009	0.0040948	7
	12	18	63140.62	2891.41	-268.7813	1	2903.876	-5.310871	-7.010411E-008	0.0041677	7
	13	19	50203.12	2916.749	-274.0876	1	2929.599	-5.368332	-2.691539E-008	0.0040536	7
	14	21	39890.62	2943.401	-284.1089	1	2957.081	-5.513339	7.15965E-008	0.0040113	7
	15	22	31640.63	2972.931	-299.541	1	2987.983	-5.753484	7.196213E-008	0.0040064	7
	16	23	25171.88	3002.071	-320.2747	1	3019.107	-6.089543	-4.95747E-008	0.0041933	7
	17	25	20015.62	3036.793	-347.3806	1	3056.597	-6.525734	-1.367139E-008	0.004018	7
	18	26	15890.62	3073.522	-380.9385	1	3097.04	-7.065322	-1.371675E-008	0.0040228	7
	19	27	12609.37	3112.353	-421.4737	1	3140.761	-7.712059	6.270463E-008	0.0039394	7
	20	29	10078.13	3155.912	-468.037	1	3190.429	-8.435753	4.273473E-008	0.0039158	7
	21	30	8015.625	3203.861	-524.4812	1	3246.507	-9.297018	-2.546362E-008	0.0040527	7
	22	31	6328.125	3257.13	-594.5521	1	3310.949	-10.3448	7.287479E-008	0.0040063	7
	23	33	5015.625	3315.31	-674.9221	1	3383.312	-11.50688	7.44031E-008	0.0038973	7
	24	34	3984.375	3376.659	-769.6134	1	3463.254	-12.83961	-3.214425E-008	0.0040519	7
	25	36	3170.956	3443.336	-881.1011	1	3554.279	-14.3532	-3.246147E-008	0.0040574	7
	26	37	2527.573	3514.322	-1013.485	1	3657.542	-16.08688	1.213642E-007	0.0038628	7
	27	38	1976.103	3595.948	-1185.189	1	3786.227	-18.2417	3.043464E-008	0.0040113	7
	28	40	1577.524	3676.518	-1379.811	1	3926.915	-20.5713	-3.866387E-008	0.0040709	7
	29	41	1265.625	3758.999	-1607.443	1	4088.27	-23.15278	2.92532E-008	0.0040143	7
	30	42	998.264	3851.872	-1910.425	1	4299.609	-26.38017	-3.485625E-008	0.0040851	7
	31	44	796.875	3945.286	-2267.833	1	4550.642	-29.89119	1.220627E-007	0.0038602	7
	32	45	627.7902	4052.031	-2736.23	1	4889.367	-34.03012	-7.661574E-009	0.0040809	7
	33	47	505.5147	4162.696	-3269.377	1	5293.096	-38.14605	-4.033129E-008	0.0040639	7
	34	48	397.9953	4296.802	-3996.44	1	5868.053	-42.92579	4.656343E-009	0.0040666	7
	35	49	315.5048	4452.398	-4880.504	1	6606.297	-47.62635	5.653197E-009	0.0040651	7
	36	51	252.4038	4631.76	-5931.234	1	7525.473	-52.01336	5.071541E-009	0.0040597	7
	37	52	198.6229	4870.307	-7332.173	1	8802.31	-56.40638	4.927376E-009	0.0040627	7
	38	53	158.3615	5155.124	-8973.346	1	10348.73	-60.12294	4.08151E-010	0.0040029	6
	39	55	125.558	5523.574	-11045.93	1	12350	-63.43242	6.852591E-010	0.0039998	6
	40	56	100.4464	5976.4	-13498.73	1	14762.55	-66.1192	9.962323E-010	0.0039997	6
	41	58	79.00281	6592.214	-16731.79	1	17983.6	-68.49589	3.264665E-010	0.0039979	6
	42	59	63.3446	7394.474	-20324.23	1	21627.59	-70.00732	5.276735E-010	0.0040016	6
	43	60	49.86702	8413.927	-25275.99	1	26639.63	-71.58832	1.69631E-010	0.0039963	6
	44	62	39.72458	9712.46	-30862.97	1	32355.14	-72.5314	4.304091E-010	0.0040002	6
	45	63	31.6723	11364.04	-37603.07	1	39282.72	-73.18464	1.278587E-009	0.003998	6
	46	65	24.93351	13699.34	-46380.91	1	48361.77	-73.54466	6.804767E-010	0.0039945	6
	47	66	19.86229	16565.55	-56409.21	1	58791.3	-73.6342	1.231096E-009	0.0040039	6
	48	67	15.83615	20155.68	-68136.81	1	71055.45	-73.52116	3.110531E-010	0.0039993	6
	49	69	12.40079	25480.88	-84102.15	1	87877.45	-73.14448	7.709877E-011	0.0039968	6
	50	70	9.93114	31488.75	-100838.9	1	105641	-72.65809	9.22895E-010	0.0039909	5
	51	72	7.944915	38961.46	-120876.1	1	127000.1	-72.13454	7.284685E-010	0.0039987	5
	52	74	6.317385	48959.19	-145271.6	1	153299.8	-71.37524	1.731075E-010	0.0040164	5
	53	76	5.008013	61573.93	-174291.6	1	184848.4	-70.54265	1.013646E-010	0.0039944	5
	54	78	3.945707	78094.99	-208867.7	1	222990	-69.49938	3.800306E-010	0.0040113	5
	55	81	3.158693	96575.1	-247014.1	1	265222.1	-68.64599	-3.447876E-010	0.0039891	5
	56	84	2.504006	120636.8	-293006.9	1	316869.5	-67.62206	2.887027E-010	0.004007	5
	57	87	1.998082	148573.1	-344259.2	1	374951.2	-66.65627	3.73473E-010	0.0040383	5
	58	90	1.584686	183462.8	-403668.9	1	443404.1	-65.55876	2.658557E-010	0.0039783	5
	59	93	1.266892	223622.6	-471917.6	1	522219.6	-64.64563	2.409138E-010	0.0040381	5
	60	98	0.999041	274791.5	-553303.7	1	617782.6	-63.58927	3.263999E-011	0.0039612	5
