EXPLAIN
TAG	EISPOT
TITLE	LABEL	Potentiostatic EIS	Test &Identifier
DATE	LABEL	10/26/2019	Date
TIME	LABEL	10:05:48	Time
NOTES	NOTES	1	&Notes...
	
PSTAT	PSTAT	REF600-11020	Potentiostat
VDC	POTEN	0.00000E+000	T	DC &Voltage (V)
FREQINIT	QUANT	1.00000E+006	Initial Fre&q. (Hz)
FREQFINAL	QUANT	1.00000E+000	Final Fre&q. (Hz)
PTSPERDEC	QUANT	1.00000E+001	Points/&decade
VAC	QUANT	2.50000E+001	AC &Voltage (mV rms)
AREA	QUANT	1.00000E-002	&Area (cm^2)
CONDIT	TWOPARAM	T	5.00000E+000	0.00000E+000	Conditionin&g	Time(s)	E(V)
DELAY	TWOPARAM	T	5.00000E+000	0.00000E+000	Init. De&lay	Time(s)	Stab.(mV/s)
SPEED	SELECTOR	0	&Optimize for:
ZGUESS	QUANT	1.00000E+005	E&stimated Z (ohms)
OCVCURVE	TABLE	19
	Pt	T	Vf	Vm	Ach	Over
	#	s	V vs. Ref.	V	V	bits
	0	0.258333	4.25729E-003	4.25729E-003	5.67332E-004	...........
	1	0.516667	4.25735E-003	4.26075E-003	5.67299E-004	...........
	2	0.775	4.25781E-003	4.26680E-003	5.63999E-004	...........
	3	1.03333	4.26057E-003	4.34001E-003	5.63966E-004	...........
	4	1.29167	4.27107E-003	4.38909E-003	5.64166E-004	...........
	5	1.55	4.29466E-003	4.39584E-003	5.61232E-004	...........
	6	1.80833	4.32817E-003	4.39092E-003	5.65866E-004	...........
	7	2.06667	4.36019E-003	4.39711E-003	5.62766E-004	...........
	8	2.325	4.38217E-003	4.41783E-003	5.62799E-004	...........
	9	2.58333	4.39617E-003	4.48216E-003	5.63632E-004	...........
	10	2.84167	4.41177E-003	4.51719E-003	5.61666E-004	...........
	11	3.1	4.43698E-003	4.55934E-003	5.60932E-004	...........
	12	3.35833	4.47215E-003	4.59893E-003	5.66332E-004	...........
	13	3.61667	4.51256E-003	4.63690E-003	5.65566E-004	...........
	14	3.875	4.55390E-003	4.67221E-003	5.60966E-004	...........
	15	4.13333	4.59376E-003	4.69366E-003	5.58533E-004	...........
	16	4.39167	4.63080E-003	4.73452E-003	5.60632E-004	...........
	17	4.65	4.66510E-003	4.77284E-003	5.66332E-004	...........
	18	4.90833	4.69857E-003	4.80901E-003	5.66332E-004	...........
EOC	QUANT	0.0046986	Open Circuit (V)
PSTATMODEL	IQUANT	4	Pstat Model
PSTATSECTION	LABEL	REF600-11020	Pstat Section
PSTATSERIALNO	LABEL	11020	Pstat Serial Number
CTRLMODE	IQUANT	1	Control Mode
IESTAB	IQUANT	0	I/E Stability
CASPEED	IQUANT	1	Control Amp Speed
CONVENTION	IQUANT	1	Current Convention
ICHRANGE	IQUANT	2	Ich Range
ICHRANGEMODE	TOGGLE	F	Ich Auto Range
ICHOFFSETENABLE	TOGGLE	T	Ich Offset Enable
ICHOFFSET	QUANT	0	Ich Offset (V)
ICHFILTER	IQUANT	3	Ich Filter
VCHRANGE	IQUANT	2	Vch Range
VCHRANGEMODE	TOGGLE	F	Vch Auto Range
VCHOFFSETENABLE	TOGGLE	T	Vch Offset Enable
VCHOFFSET	QUANT	0	Vch Offset (V)
VCHFILTER	IQUANT	3	Vch Filter
ACHRANGE	IQUANT	2	Ach Range
ACHOFFSETENABLE	TOGGLE	F	Ach Offset Enable
ACHOFFSET	QUANT	0	Ach Offset (V)
ACHFILTER	IQUANT	3	Ach Filter
IERANGELOWERLIMIT	IQUANT	1	I/E Range Lower Limit
IERANGEMODE	TOGGLE	F	I/E AutoRange
IERANGE	IQUANT	4	I/E Range
POSFEEDENABLE	TOGGLE	F	Positive Feedback IR Comp
POSFEEDRESISTANCE	QUANT	0	Positive Feedback Resistance (ohm)
ACHSELECT	IQUANT	0	Ach Select
CABLEID	IQUANT	14	Cable ID
DCCALDATE	LABEL	8/19/2019	DC Calibration Date
ACCALDATE	LABEL	8/19/2019	AC Calibration Date
THERMOSELECT	IQUANT	1	Thermo Select
FRAMEWORKVERSION	QUANT	6.33	Framework Version
INSTRUMENTVERSION	LABEL	3.50	Instrument Version
ZCURVE	TABLE
	Pt	Time	Freq	Zreal	Zimag	Zsig	Zmod	Zphz	Idc	Vdc	IERange
	#	s	Hz	ohm	ohm	V	ohm	°	A	V	#
	0	1	1000078	1841.351	-666.9267	1	1958.408	-19.9101	2.329584E-006	0.0068529	8
	1	1	794390.6	1949.827	-593.6154	1	2038.186	-16.93262	9.528131E-008	0.0063626	8
	2	2	630984.4	2030.189	-514.0553	1	2094.259	-14.20898	9.348582E-007	0.0064267	8
	3	2	501234.4	2089.262	-452.2266	1	2137.644	-12.21342	2.859585E-006	0.0058764	8
	4	2	398109.4	2134.61	-392.343	1	2170.367	-10.41477	2.595108E-006	0.0058554	8
	5	3	316265.6	2174.356	-342.5759	1	2201.177	-8.953511	-1.796072E-006	0.0066712	8
	6	3	251203.1	2208.05	-295.9886	1	2227.801	-7.634971	6.345172E-007	0.0063222	8
	7	3	199546.9	2236.291	-266.7762	1	2252.147	-6.802898	3.406883E-006	0.0056057	8
	8	3	158578.1	2254.145	-236.1217	1	2266.478	-5.979928	-1.274963E-006	0.0065949	8
	9	4	125953.1	2282.711	-187.744	1	2290.419	-4.701769	-2.816748E-008	0.0066019	7
	10	4	100078.1	2297.155	-172.8362	1	2303.647	-4.302785	-1.055879E-008	0.0063299	7
	11	4	79453.13	2311.373	-170.6175	1	2317.661	-4.221718	-2.867998E-008	0.006353	7
	12	5	63140.62	2326.942	-171.3071	1	2333.24	-4.21046	-1.144952E-008	0.0063232	7
	13	5	50203.12	2343.287	-175.2144	1	2349.829	-4.276215	-3.04271E-008	0.0063515	7
	14	5	39890.62	2360.041	-181.8592	1	2367.038	-4.406369	-1.662831E-008	0.006334	7
	15	6	31640.63	2377.096	-191.9225	1	2384.831	-4.615946	-1.457333E-008	0.0063372	7
	16	6	25171.88	2395.714	-205.561	1	2404.517	-4.904176	9.025344E-008	0.0061571	7
	17	6	20015.62	2413.23	-223.6872	1	2423.575	-5.295732	8.907366E-008	0.0061537	7
	18	7	15890.62	2433.825	-247.0092	1	2446.328	-5.795114	-5.138302E-008	0.0063806	7
	19	7	12609.37	2453.953	-276.8235	1	2469.518	-6.436164	2.138781E-008	0.0062632	7
	20	7	10078.13	2476.165	-313.1233	1	2495.885	-7.207081	-5.232219E-008	0.0063737	7
	21	8	8015.625	2495.484	-356.1218	1	2520.767	-8.121643	-4.674171E-008	0.0063452	7
	22	8	6328.125	2525.625	-416.5541	1	2559.746	-9.365541	-2.304628E-008	0.0062814	7
	23	8	5015.625	2553.64	-486.2561	1	2599.523	-10.78102	-9.575687E-009	0.0062808	7
	24	9	3984.375	2584.156	-568.7881	1	2646.012	-12.41321	-5.110157E-008	0.0063732	7
	25	9	3170.956	2616.059	-676.5818	1	2702.134	-14.50047	-2.929228E-008	0.0063404	7
	26	9	2527.573	2652.746	-803.7692	1	2771.841	-16.85656	-1.163364E-008	0.0063125	7
	27	10	1976.103	2697.047	-975.406	1	2868.01	-19.88288	-6.072155E-008	0.0064496	7
	28	10	1577.524	2729.222	-1165.386	1	2967.622	-23.12263	-5.853531E-008	0.0064499	7
	29	10	1265.625	2793.273	-1403.887	1	3126.224	-26.6839	-1.218837E-008	0.0063104	7
	30	10	998.264	2859.129	-1714.161	1	3333.612	-30.94435	2.044618E-009	0.0063615	7
	31	11	796.875	2932.736	-2078.148	1	3594.39	-35.32153	-3.668475E-009	0.0062474	7
	32	11	627.7902	3027.234	-2555.317	1	3961.539	-40.16803	1.811947E-009	0.0063602	7
	33	11	505.5147	3132.84	-3086.2	1	4397.649	-44.57031	-1.249623E-008	0.0063018	7
	34	12	397.9953	3281.636	-3806.968	1	5026.146	-49.2384	3.598922E-009	0.0063049	7
	35	12	315.5048	3464.678	-4670.994	1	5815.684	-53.43407	2.021435E-009	0.0063039	7
	36	12	252.4038	3688.835	-5685.209	1	6777.102	-57.02257	2.32617E-009	0.0063017	7
	37	13	198.6229	4001.151	-7017.048	1	8077.634	-60.30803	2.218212E-009	0.0063024	7
	38	13	158.3615	4386.575	-8555.456	1	9614.46	-62.85477	2.031349E-009	0.0063008	7
	39	13	125.558	4900.018	-10466.84	1	11557.03	-64.91351	2.612333E-011	0.0062423	6
	40	14	100.4464	5546.256	-12675.42	1	13835.72	-66.36774	-7.298739E-010	0.0062378	6
	41	14	79.00281	6453.396	-15546.46	1	16832.67	-67.45648	8.812194E-010	0.0062409	6
	42	14	63.3446	7377.174	-18786.53	1	20183.07	-68.56084	-5.113507E-011	0.0062396	6
	43	15	49.86702	8891.612	-22840.87	1	24510.53	-68.72977	4.255473E-010	0.0062373	6
	44	15	39.72458	10798.36	-27430.33	1	29479.28	-68.51218	-1.147827E-010	0.0062414	6
	45	15	31.6723	13152.96	-32834.98	1	35371.41	-68.17007	-1.488727E-009	0.0062393	6
	46	16	24.93351	16111.33	-39464.83	1	42626.84	-67.7925	3.885654E-010	0.0062402	6
	47	16	19.86229	19675.31	-46932.34	1	50889.7	-67.25524	-1.197731E-009	0.006239	6
	48	16	15.83615	23920.26	-55266.31	1	60220.79	-66.59616	1.680764E-009	0.0062342	6
	49	17	12.40079	29947.3	-65943.52	1	72425.06	-65.57551	1.802864E-009	0.0062355	6
	50	17	9.93114	36177.66	-77402.42	1	85439.79	-64.94875	-8.95001E-010	0.0062415	6
	51	18	7.944915	43598.35	-90321.36	1	100293.4	-64.23328	4.893382E-010	0.0062333	6
	52	18	6.317385	52788.34	-105180.4	1	117684	-63.34867	4.635082E-010	0.0062347	5
	53	19	5.008013	63871.31	-122804.5	1	138421.4	-62.5208	-2.718365E-010	0.0062347	5
	54	20	3.945707	77258.44	-143081.7	1	162607.6	-61.63272	1.208628E-010	0.0062464	5
	55	21	3.158693	91876.61	-165095.3	1	188938.6	-60.90378	-3.41223E-010	0.0062507	5
	56	23	2.504006	108853.5	-190858.5	1	219718.1	-60.30233	-3.074631E-010	0.0062424	5
	57	24	1.998082	127607.6	-219237.7	1	253670.8	-59.79841	1.661464E-010	0.0062845	5
	58	26	1.584686	147947.6	-253019.4	1	293099.5	-59.68398	3.689959E-012	0.0062641	5
	59	28	1.266892	170366	-290510.5	1	336780.2	-59.61107	-1.187733E-010	0.0062227	5
	60	30	0.999041	196746.3	-338387.1	1	391426.8	-59.82526	-1.679027E-010	0.0062016	5
