EXPLAIN
TAG	EISPOT
TITLE	LABEL	Potentiostatic EIS	Test &Identifier
DATE	LABEL	11/7/2019	Date
TIME	LABEL	11:04:07	Time
NOTES	NOTES	2	&Notes...
	
	
PSTAT	PSTAT	REF600-11020	Potentiostat
VDC	POTEN	0.00000E+000	T	DC &Voltage (V)
FREQINIT	QUANT	1.00000E+006	Initial Fre&q. (Hz)
FREQFINAL	QUANT	1.00000E+000	Final Fre&q. (Hz)
PTSPERDEC	QUANT	1.00000E+001	Points/&decade
VAC	QUANT	2.50000E+001	AC &Voltage (mV rms)
AREA	QUANT	1.00000E-002	&Area (cm^2)
CONDIT	TWOPARAM	T	5.00000E+000	0.00000E+000	Conditionin&g	Time(s)	E(V)
DELAY	TWOPARAM	T	5.00000E+000	0.00000E+000	Init. De&lay	Time(s)	Stab.(mV/s)
SPEED	SELECTOR	1	&Optimize for:
ZGUESS	QUANT	1.00000E+005	E&stimated Z (ohms)
OCVCURVE	TABLE	19
	Pt	T	Vf	Vm	Ach	Over
	#	s	V vs. Ref.	V	V	bits
	0	0.258333	4.73421E-003	4.73421E-003	5.53233E-004	...........
	1	0.516667	4.72172E-003	4.08023E-003	5.53099E-004	...........
	2	0.775	4.65330E-003	3.89510E-003	5.43733E-004	...........
	3	1.03333	4.49062E-003	3.88728E-003	5.45766E-004	...........
	4	1.29167	4.26688E-003	3.86408E-003	5.50099E-004	...........
	5	1.55	4.06213E-003	3.70264E-003	5.49566E-004	...........
	6	1.80833	3.91289E-003	3.45006E-003	5.46699E-004	...........
	7	2.06667	3.79407E-003	3.51217E-003	5.42866E-004	...........
	8	2.325	3.64622E-003	1.66413E-003	5.53866E-004	...........
	9	2.58333	3.38487E-003	2.48903E-003	5.38099E-004	...........
	10	2.84167	3.01388E-003	3.04993E-003	5.42333E-004	...........
	11	3.1	2.72575E-003	3.55777E-003	5.55899E-004	...........
	12	3.35833	2.71638E-003	3.76795E-003	5.58632E-004	...........
	13	3.61667	2.96474E-003	3.68414E-003	5.46099E-004	...........
	14	3.875	3.29064E-003	3.65008E-003	5.47766E-004	...........
	15	4.13333	3.53408E-003	3.59156E-003	5.57299E-004	...........
	16	4.39167	3.64103E-003	3.38830E-003	5.60866E-004	...........
	17	4.65	3.63395E-003	3.31311E-003	5.46966E-004	...........
	18	4.90833	3.55558E-003	3.21527E-003	5.43199E-004	...........
EOC	QUANT	0.0035556	Open Circuit (V)
PSTATMODEL	IQUANT	4	Pstat Model
PSTATSECTION	LABEL	REF600-11020	Pstat Section
PSTATSERIALNO	LABEL	11020	Pstat Serial Number
CTRLMODE	IQUANT	1	Control Mode
IESTAB	IQUANT	0	I/E Stability
CASPEED	IQUANT	1	Control Amp Speed
CONVENTION	IQUANT	1	Current Convention
ICHRANGE	IQUANT	2	Ich Range
ICHRANGEMODE	TOGGLE	F	Ich Auto Range
ICHOFFSETENABLE	TOGGLE	T	Ich Offset Enable
ICHOFFSET	QUANT	0	Ich Offset (V)
ICHFILTER	IQUANT	3	Ich Filter
VCHRANGE	IQUANT	2	Vch Range
VCHRANGEMODE	TOGGLE	F	Vch Auto Range
VCHOFFSETENABLE	TOGGLE	T	Vch Offset Enable
VCHOFFSET	QUANT	0	Vch Offset (V)
VCHFILTER	IQUANT	3	Vch Filter
ACHRANGE	IQUANT	2	Ach Range
ACHOFFSETENABLE	TOGGLE	F	Ach Offset Enable
ACHOFFSET	QUANT	0	Ach Offset (V)
ACHFILTER	IQUANT	3	Ach Filter
IERANGELOWERLIMIT	IQUANT	1	I/E Range Lower Limit
IERANGEMODE	TOGGLE	F	I/E AutoRange
IERANGE	IQUANT	4	I/E Range
POSFEEDENABLE	TOGGLE	F	Positive Feedback IR Comp
POSFEEDRESISTANCE	QUANT	0	Positive Feedback Resistance (ohm)
ACHSELECT	IQUANT	0	Ach Select
CABLEID	IQUANT	14	Cable ID
DCCALDATE	LABEL	8/19/2019	DC Calibration Date
ACCALDATE	LABEL	8/19/2019	AC Calibration Date
THERMOSELECT	IQUANT	1	Thermo Select
FRAMEWORKVERSION	QUANT	6.33	Framework Version
INSTRUMENTVERSION	LABEL	3.50	Instrument Version
ZCURVE	TABLE
	Pt	Time	Freq	Zreal	Zimag	Zsig	Zmod	Zphz	Idc	Vdc	IERange
	#	s	Hz	ohm	ohm	V	ohm	°	A	V	#
	0	1	1000078	2122.812	-1752.345	1	2752.643	-39.53909	-5.33808E-006	0.0065855	8
	1	3	794390.6	2467.445	-1790.824	1	3048.826	-35.97142	-3.517368E-006	0.0061707	8
	2	4	630984.4	2804.721	-1790.562	1	3327.548	-32.55456	-1.304561E-007	0.0048208	8
	3	6	501234.4	3134.766	-1727.2	1	3579.103	-28.85398	-8.267693E-007	0.0047617	8
	4	7	398109.4	3460.181	-1659.109	1	3837.382	-25.61707	-4.034682E-007	0.0056294	8
	5	9	316265.6	3744.123	-1551.134	1	4052.712	-22.5035	7.139095E-006	0.0041881	8
	6	11	251203.1	3987.075	-1402.962	1	4226.709	-19.38583	-4.39602E-006	0.0056669	8
	7	12	199546.9	4184.202	-1260.747	1	4370.015	-16.76814	-3.958091E-006	0.0056546	8
	8	14	158578.1	4385.033	-1134.281	1	4529.36	-14.50288	-1.575188E-006	0.0055205	8
	9	15	125953.1	4551.494	-920.5728	1	4643.657	-11.43424	-1.826464E-006	0.0097883	7
	10	17	100078.1	4642.111	-797.9152	1	4710.187	-9.75305	1.365803E-007	0.0033763	7
	11	18	79453.13	4727.167	-718.3543	1	4781.438	-8.640728	8.151812E-008	0.0061647	7
	12	20	63140.62	4800.693	-636.5655	1	4842.713	-7.553281	1.175002E-006	0.0029681	7
	13	21	50203.12	4846.583	-578.8053	1	4881.022	-6.810319	-3.475653E-007	0.0066246	7
	14	22	39890.62	4888.137	-537.1313	1	4917.56	-6.270769	-7.43413E-007	0.0069093	7
	15	24	31640.63	4944.974	-508.0967	1	4971.009	-5.866562	1.306837E-006	0.0032328	7
	16	25	25171.88	4973.273	-495.9649	1	4997.942	-5.695052	4.66455E-007	0.0056372	7
	17	27	20015.62	4997.831	-500.4825	1	5022.827	-5.718532	-1.46676E-006	0.0067338	7
	18	28	15890.62	5053.207	-510.0945	1	5078.887	-5.76418	1.32215E-006	0.0036278	7
	19	29	12609.37	5069.058	-544.7355	1	5098.244	-6.13363	-1.451724E-006	0.0062763	7
	20	31	10078.13	5106.45	-589.1417	1	5140.323	-6.581234	-1.310112E-006	0.0069276	7
	21	32	8015.625	5146.363	-664.0053	1	5189.022	-7.351925	-1.311909E-006	0.0069248	7
	22	33	6328.125	5203.102	-743.7325	1	5255.987	-8.134768	7.363527E-007	0.0052349	7
	23	35	5015.625	5247.507	-857.5178	1	5317.11	-9.280918	7.335819E-007	0.0052395	7
	24	36	3984.375	5289.697	-987.8	1	5381.138	-10.5776	1.215399E-006	0.004142	7
	25	38	3170.956	5352.783	-1182.422	1	5481.826	-12.45652	1.215818E-006	0.0041453	7
	26	39	2527.573	5400.715	-1401.172	1	5579.516	-14.54426	-7.427098E-007	0.0069049	7
	27	40	1976.103	5484.269	-1702.26	1	5742.377	-17.2438	7.344915E-007	0.0052315	7
	28	42	1577.524	5521.42	-1991.856	1	5869.716	-19.83695	-1.071806E-006	0.006998	7
	29	43	1265.625	5643.48	-2431.313	1	6144.929	-23.30725	-1.452711E-006	0.0062693	7
	30	44	998.264	5761.545	-2970.909	1	6482.415	-27.27765	-3.467685E-007	0.0066039	7
	31	46	796.875	5883.742	-3590.518	1	6892.767	-31.39338	-1.466654E-006	0.0067227	7
	32	47	627.7902	6040.486	-4400.814	1	7473.596	-36.07532	-1.46561E-006	0.0067243	7
	33	49	505.5147	6216.637	-5308.61	1	8174.834	-40.49521	-8.753274E-007	0.00479	7
	34	50	397.9953	6440.873	-6564.772	1	9196.797	-45.54582	2.050303E-009	0.0050157	7
	35	51	315.5048	6714.572	-8056.802	1	10487.97	-50.19203	2.137523E-009	0.0049439	6
	36	53	252.4038	7036.328	-9823.89	1	12083.82	-54.38799	1.453205E-009	0.0049518	6
	37	54	198.6229	7474.425	-12161.79	1	14275.02	-58.42585	9.799361E-010	0.0049598	6
	38	55	158.3615	8005.997	-14893.01	1	16908.51	-61.73898	1.148703E-009	0.0049533	6
	39	57	125.558	8716.281	-18316.19	1	20284.39	-64.55123	9.596104E-010	0.0049499	6
	40	58	100.4464	9620.88	-22346.2	1	24329.29	-66.7063	1.316112E-009	0.004956	6
	41	60	79.00281	10843.76	-27570.14	1	29625.99	-68.52952	1.222892E-009	0.0049547	6
	42	61	63.3446	12156.53	-33155.26	1	35313.63	-69.86431	1.168665E-009	0.0049399	6
	43	62	49.86702	14766.53	-41349.81	1	43907.37	-70.34772	1.590514E-009	0.0049406	6
	44	64	39.72458	17154.53	-50416.44	1	53255	-71.20879	1.047476E-009	0.0049599	6
	45	65	31.6723	20787.95	-61059.32	1	64501.01	-71.1986	1.579114E-010	0.0049552	6
	46	66	24.93351	25442.93	-74770.4	1	78980.73	-71.20754	5.124032E-010	0.0049483	6
	47	68	19.86229	31254.35	-90162.78	1	95426.2	-70.88145	1.411311E-010	0.0049451	6
	48	69	15.83615	40627.67	-108490.7	1	115848.3	-69.47004	2.10377E-009	0.0049495	5
	49	71	12.40079	50238.47	-132314.2	1	141530.8	-69.20869	-4.305446E-010	0.0049552	5
	50	72	9.93114	63422.57	-155515.2	1	167950.6	-67.81328	6.322794E-010	0.004938	5
	51	74	7.944915	81064.25	-182587.9	1	199774.2	-66.06003	5.688816E-010	0.0049656	5
	52	75	6.317385	100912	-214351.5	1	236917.3	-64.78996	-9.229146E-010	0.004952	5
	53	77	5.008013	127732.8	-250022.5	1	280761.3	-62.93819	9.409546E-010	0.0049415	5
	54	80	3.945707	160088.9	-288390.2	1	329844.4	-60.96481	-1.179033E-009	0.0049516	5
	55	82	3.158693	195664.8	-328314.2	1	382197.5	-59.20641	-7.535914E-011	0.0049548	5
	56	86	2.504006	236209	-371024.4	1	439833.8	-57.51754	1.074338E-009	0.0049424	5
	57	88	1.998082	280130	-419858.9	1	504731.9	-56.28877	-2.300427E-010	0.0049621	5
	58	92	1.584686	330262.5	-472292.7	1	576310.4	-55.03587	1.906332E-010	0.0049973	5
	59	95	1.266892	379882.2	-529169.3	1	651406.6	-54.32603	-1.209698E-010	0.0049677	5
	60	99	0.999041	436058.8	-600083.8	1	741786.9	-53.99547	2.8026E-010	0.0049614	5
