EXPLAIN
TAG	EISPOT
TITLE	LABEL	Potentiostatic EIS	Test &Identifier
DATE	LABEL	11/22/2019	Date
TIME	LABEL	1:23:35	Time
NOTES	NOTES	4	&Notes...
	
	
	
	
PSTAT	PSTAT	REF600-11020	Potentiostat
VDC	POTEN	0.00000E+000	T	DC &Voltage (V)
FREQINIT	QUANT	1.00000E+006	Initial Fre&q. (Hz)
FREQFINAL	QUANT	1.00000E+000	Final Fre&q. (Hz)
PTSPERDEC	QUANT	1.00000E+001	Points/&decade
VAC	QUANT	2.50000E+001	AC &Voltage (mV rms)
AREA	QUANT	1.00000E-002	&Area (cm^2)
CONDIT	TWOPARAM	T	5.00000E+000	0.00000E+000	Conditionin&g	Time(s)	E(V)
DELAY	TWOPARAM	T	5.00000E+000	0.00000E+000	Init. De&lay	Time(s)	Stab.(mV/s)
SPEED	SELECTOR	1	&Optimize for:
ZGUESS	QUANT	1.00000E+005	E&stimated Z (ohms)
OCVCURVE	TABLE	19
	Pt	T	Vf	Vm	Ach	Over
	#	s	V vs. Ref.	V	V	bits
	0	0.258333	6.23767E-003	6.23767E-003	5.35766E-004	...........
	1	0.516667	6.23544E-003	6.12076E-003	5.27233E-004	...........
	2	0.775	6.22218E-003	6.03358E-003	5.29766E-004	...........
	3	1.03333	6.18622E-003	5.95316E-003	5.24733E-004	...........
	4	1.29167	6.12551E-003	5.89958E-003	5.29533E-004	...........
	5	1.55	6.05104E-003	5.84380E-003	5.26233E-004	...........
	6	1.80833	5.97693E-003	5.80836E-003	5.22200E-004	...........
	7	2.06667	5.91187E-003	5.77438E-003	5.26166E-004	...........
	8	2.325	5.85843E-003	5.75049E-003	5.22733E-004	...........
	9	2.58333	5.81584E-003	5.72987E-003	5.24033E-004	...........
	10	2.84167	5.78206E-003	5.70838E-003	5.31633E-004	...........
	11	3.1	5.75470E-003	5.68833E-003	5.32333E-004	...........
	12	3.35833	5.73151E-003	5.67541E-003	5.30300E-004	...........
	13	3.61667	5.71124E-003	5.66965E-003	5.36833E-004	...........
	14	3.875	5.69396E-003	5.65415E-003	5.30600E-004	...........
	15	4.13333	5.68007E-003	5.66437E-003	5.33133E-004	...........
	16	4.39167	5.67002E-003	5.66365E-003	5.28966E-004	...........
	17	4.65	5.66439E-003	5.66786E-003	5.29600E-004	...........
	18	4.90833	5.66275E-003	5.66057E-003	5.28266E-004	...........
EOC	QUANT	0.0056628	Open Circuit (V)
PSTATMODEL	IQUANT	4	Pstat Model
PSTATSECTION	LABEL	REF600-11020	Pstat Section
PSTATSERIALNO	LABEL	11020	Pstat Serial Number
CTRLMODE	IQUANT	1	Control Mode
IESTAB	IQUANT	0	I/E Stability
CASPEED	IQUANT	1	Control Amp Speed
CONVENTION	IQUANT	1	Current Convention
ICHRANGE	IQUANT	2	Ich Range
ICHRANGEMODE	TOGGLE	F	Ich Auto Range
ICHOFFSETENABLE	TOGGLE	T	Ich Offset Enable
ICHOFFSET	QUANT	0	Ich Offset (V)
ICHFILTER	IQUANT	3	Ich Filter
VCHRANGE	IQUANT	2	Vch Range
VCHRANGEMODE	TOGGLE	F	Vch Auto Range
VCHOFFSETENABLE	TOGGLE	T	Vch Offset Enable
VCHOFFSET	QUANT	0	Vch Offset (V)
VCHFILTER	IQUANT	3	Vch Filter
ACHRANGE	IQUANT	2	Ach Range
ACHOFFSETENABLE	TOGGLE	F	Ach Offset Enable
ACHOFFSET	QUANT	0	Ach Offset (V)
ACHFILTER	IQUANT	3	Ach Filter
IERANGELOWERLIMIT	IQUANT	1	I/E Range Lower Limit
IERANGEMODE	TOGGLE	F	I/E AutoRange
IERANGE	IQUANT	5	I/E Range
POSFEEDENABLE	TOGGLE	F	Positive Feedback IR Comp
POSFEEDRESISTANCE	QUANT	0	Positive Feedback Resistance (ohm)
ACHSELECT	IQUANT	0	Ach Select
CABLEID	IQUANT	14	Cable ID
DCCALDATE	LABEL	8/19/2019	DC Calibration Date
ACCALDATE	LABEL	8/19/2019	AC Calibration Date
THERMOSELECT	IQUANT	1	Thermo Select
FRAMEWORKVERSION	QUANT	6.33	Framework Version
INSTRUMENTVERSION	LABEL	3.50	Instrument Version
ZCURVE	TABLE
	Pt	Time	Freq	Zreal	Zimag	Zsig	Zmod	Zphz	Idc	Vdc	IERange
	#	s	Hz	ohm	ohm	V	ohm	°	A	V	#
	0	1	1000078	2243.337	-1949.69	1	2972.179	-40.99398	3.662137E-006	0.0086645	8
	1	3	794390.6	2619.851	-2021.558	1	3309.126	-37.65489	-9.120215E-006	0.0087949	8
	2	4	630984.4	3019.835	-2012.427	1	3628.948	-33.6796	6.669904E-006	0.0074662	8
	3	6	501234.4	3416.607	-1948.369	1	3933.109	-29.69457	3.359918E-006	0.0073694	8
	4	7	398109.4	3771.576	-1820.702	1	4188.047	-25.76861	4.271052E-007	0.0077384	8
	5	8	316265.6	4094.222	-1664.429	1	4419.613	-22.12327	-4.006325E-007	0.0077637	8
	6	10	251203.1	4354.394	-1500.741	1	4605.754	-19.0165	-1.790318E-007	0.0070011	8
	7	11	199546.9	4557.718	-1301.205	1	4739.824	-15.93377	-2.691801E-006	0.0078151	8
	8	13	158578.1	4716.729	-1154.646	1	4856	-13.75538	-3.480976E-006	0.0078277	8
	9	14	125953.1	4914.192	-960.208	1	5007.123	-11.056	2.232671E-006	0.0072971	7
	10	15	100078.1	4987.052	-813.9258	1	5053.035	-9.269394	1.1728E-006	0.0060508	7
	11	17	79453.13	5036.915	-733.9983	1	5090.115	-8.290998	6.515965E-008	0.0082844	7
	12	18	63140.62	5083.938	-645.6113	1	5124.767	-7.237277	-1.306097E-006	0.0087822	7
	13	19	50203.12	5148.203	-583.9761	1	5181.218	-6.471571	-3.22365E-007	0.0063322	7
	14	21	39890.62	5207.963	-545.3065	1	5236.434	-5.977448	5.258052E-007	0.0054557	7
	15	22	31640.63	5227.011	-522.6012	1	5253.071	-5.709509	-9.587924E-007	0.0090275	7
	16	23	25171.88	5265.83	-507.6347	1	5290.242	-5.506392	-7.705839E-007	0.0070662	7
	17	25	20015.62	5295.826	-514.2094	1	5320.731	-5.54587	-1.170159E-006	0.0089636	7
	18	26	15890.62	5342.957	-535.6693	1	5369.742	-5.725177	-6.655478E-007	0.0089385	7
	19	28	12609.37	5407.798	-574.5767	1	5438.237	-6.064902	1.178221E-006	0.0060314	7
	20	29	10078.13	5427.775	-615.1378	1	5462.521	-6.465827	-3.157969E-007	0.0086782	7
	21	30	8015.625	5451.681	-692.7499	1	5495.519	-7.241814	-1.168349E-006	0.0089559	7
	22	32	6328.125	5489.471	-789.8657	1	5546.006	-8.187943	-1.29306E-006	0.008379	7
	23	33	5015.625	5554.317	-920.3564	1	5630.053	-9.408486	6.670517E-008	0.0082738	7
	24	34	3984.375	5612.437	-1079.929	1	5715.391	-10.89157	5.283915E-007	0.0054516	7
	25	36	3170.956	5668.189	-1278.694	1	5810.63	-12.71263	6.471749E-007	0.0074672	7
	26	37	2527.573	5729.439	-1519.38	1	5927.478	-14.85231	5.274867E-007	0.0054485	7
	27	38	1976.103	5787.138	-1839.763	1	6072.536	-17.63575	-1.108808E-006	0.0077714	7
	28	40	1577.524	5872.721	-2205.764	1	6273.296	-20.58592	-1.303183E-006	0.0087687	7
	29	41	1265.625	5999.277	-2669.267	1	6566.301	-23.98579	1.166239E-006	0.0056787	7
	30	43	998.264	6113.588	-3255.162	1	6926.185	-28.03293	8.887306E-007	0.0070069	7
	31	44	796.875	6251.332	-3939.67	1	7389.191	-32.21966	8.887908E-007	0.00701	7
	32	46	627.7902	6401.383	-4806.135	1	8004.788	-36.89909	-1.107978E-006	0.0077703	7
	33	47	505.5147	6595.026	-5791.897	1	8777.269	-41.29032	-1.107667E-006	0.0077715	7
	34	49	397.9953	6844.802	-7171.453	1	9913.68	-46.33505	6.42988E-009	0.0072498	7
	35	50	315.5048	7140.633	-8799.29	1	11332.08	-50.94064	1.298836E-009	0.007202	6
	36	51	252.4038	7486.589	-10728.05	1	13082.06	-55.09068	8.670134E-010	0.0071903	6
	37	53	198.6229	7951.993	-13282.82	1	15481.2	-59.0924	1.358109E-009	0.007196	6
	38	54	158.3615	8512.228	-16270	1	18362.21	-62.38208	1.239337E-009	0.0071885	6
	39	55	125.558	9259.115	-20029.27	1	22065.88	-65.18988	6.321359E-010	0.0072033	6
	40	57	100.4464	10211.85	-24474.49	1	26519.47	-67.35193	1.163186E-009	0.0071966	6
	41	58	79.00281	11470.26	-30324.23	1	32421.07	-69.28069	-1.377016E-010	0.0071923	6
	42	59	63.3446	13002.98	-37199.8	1	39406.88	-70.73322	4.573235E-010	0.0071893	6
	43	61	49.86702	15446.23	-45317.46	1	47877.54	-71.17858	1.407289E-009	0.0071885	6
	44	62	39.72458	18569.15	-55494.43	1	58518.76	-71.49909	9.146491E-010	0.0071882	6
	45	64	31.6723	22457.42	-67511.34	1	71148.55	-71.60046	6.365434E-010	0.007195	6
	46	65	24.93351	28216.33	-82438.02	1	87133.17	-71.10529	1.146204E-009	0.0071834	6
	47	66	19.86229	35406.17	-99301.8	1	105425.1	-70.37625	4.362844E-010	0.0071933	6
	48	68	15.83615	45154.24	-119446.6	1	127696.5	-69.29198	-9.270089E-010	0.0071972	5
	49	69	12.40079	56795.63	-143293.8	1	154139.1	-68.37871	6.684528E-010	0.0071894	5
	50	71	9.93114	72181.95	-167787.8	1	182655.4	-66.72273	2.638154E-010	0.0071911	5
	51	72	7.944915	90367.31	-196340.3	1	216138.3	-65.28534	1.670123E-010	0.007208	5
	52	74	6.317385	112671.9	-227252.9	1	253651	-63.62779	-6.38137E-011	0.0072126	5
	53	76	5.008013	138983.8	-263289.5	1	297721.1	-62.17158	5.03284E-011	0.0071844	5
	54	78	3.945707	169632.5	-303889.8	1	348029.1	-60.82957	3.772578E-010	0.0072021	5
	55	81	3.158693	202579.6	-346769.3	1	401606.1	-59.7069	1.858551E-011	0.0072021	5
	56	84	2.504006	240315.8	-397365.6	1	464382.5	-58.83561	3.103189E-010	0.0071961	5
	57	87	1.998082	281112.7	-453270.5	1	533365.2	-58.19333	-1.726723E-011	0.0072484	5
	58	90	1.584686	326922.2	-520643.2	1	614774.3	-57.87448	1.757623E-010	0.0072289	5
	59	94	1.266892	378677.6	-594675.6	1	705007.7	-57.51183	-2.138708E-011	0.0072499	5
	60	98	0.999041	438422	-686730.2	1	814746.7	-57.44504	9.47966E-011	0.0071714	5
