EXPLAIN
TAG	EISPOT
TITLE	LABEL	Potentiostatic EIS	Test &Identifier
DATE	LABEL	10/10/2019	Date
TIME	LABEL	9:50:42	Time
NOTES	NOTES	1	&Notes...
	
PSTAT	PSTAT	REF600-11020	Potentiostat
VDC	POTEN	0.00000E+000	T	DC &Voltage (V)
FREQINIT	QUANT	1.00000E+006	Initial Fre&q. (Hz)
FREQFINAL	QUANT	1.00000E+000	Final Fre&q. (Hz)
PTSPERDEC	QUANT	1.00000E+001	Points/&decade
VAC	QUANT	2.50000E+001	AC &Voltage (mV rms)
AREA	QUANT	1.00000E-002	&Area (cm^2)
CONDIT	TWOPARAM	T	5.00000E+000	0.00000E+000	Conditionin&g	Time(s)	E(V)
DELAY	TWOPARAM	T	5.00000E+000	0.00000E+000	Init. De&lay	Time(s)	Stab.(mV/s)
SPEED	SELECTOR	1	&Optimize for:
ZGUESS	QUANT	1.00000E+004	E&stimated Z (ohms)
OCVCURVE	TABLE	19
	Pt	T	Vf	Vm	Ach	Over
	#	s	V vs. Ref.	V	V	bits
	0	0.258333	6.94104E-003	6.94104E-003	5.60632E-004	...........
	1	0.516667	6.93988E-003	6.88007E-003	5.59166E-004	...........
	2	0.775	6.93337E-003	6.85590E-003	5.58999E-004	...........
	3	1.03333	6.91719E-003	6.83846E-003	5.63132E-004	...........
	4	1.29167	6.89325E-003	6.84114E-003	5.62632E-004	...........
	5	1.55	6.86925E-003	6.83736E-003	5.67399E-004	...........
	6	1.80833	6.85225E-003	6.86193E-003	5.64966E-004	...........
	7	2.06667	6.84520E-003	6.86729E-003	5.61132E-004	...........
	8	2.325	6.84752E-003	6.88703E-003	5.61799E-004	...........
	9	2.58333	6.85674E-003	6.90742E-003	5.63132E-004	...........
	10	2.84167	6.87057E-003	6.93582E-003	5.61032E-004	...........
	11	3.1	6.88838E-003	6.96956E-003	5.62166E-004	...........
	12	3.35833	6.91024E-003	6.98561E-003	5.59666E-004	...........
	13	3.61667	6.93528E-003	7.02295E-003	5.57732E-004	...........
	14	3.875	6.96198E-003	7.04665E-003	5.63599E-004	...........
	15	4.13333	6.98939E-003	7.07233E-003	5.59632E-004	...........
	16	4.39167	7.01712E-003	7.10809E-003	5.62032E-004	...........
	17	4.65	7.04559E-003	7.15738E-003	5.62166E-004	...........
	18	4.90833	7.07634E-003	7.17607E-003	5.60366E-004	...........
EOC	QUANT	0.0070763	Open Circuit (V)
PSTATMODEL	IQUANT	4	Pstat Model
PSTATSECTION	LABEL	REF600-11020	Pstat Section
PSTATSERIALNO	LABEL	11020	Pstat Serial Number
CTRLMODE	IQUANT	1	Control Mode
IESTAB	IQUANT	0	I/E Stability
CASPEED	IQUANT	1	Control Amp Speed
CONVENTION	IQUANT	1	Current Convention
ICHRANGE	IQUANT	2	Ich Range
ICHRANGEMODE	TOGGLE	F	Ich Auto Range
ICHOFFSETENABLE	TOGGLE	T	Ich Offset Enable
ICHOFFSET	QUANT	0	Ich Offset (V)
ICHFILTER	IQUANT	3	Ich Filter
VCHRANGE	IQUANT	2	Vch Range
VCHRANGEMODE	TOGGLE	F	Vch Auto Range
VCHOFFSETENABLE	TOGGLE	T	Vch Offset Enable
VCHOFFSET	QUANT	0	Vch Offset (V)
VCHFILTER	IQUANT	3	Vch Filter
ACHRANGE	IQUANT	2	Ach Range
ACHOFFSETENABLE	TOGGLE	F	Ach Offset Enable
ACHOFFSET	QUANT	0	Ach Offset (V)
ACHFILTER	IQUANT	3	Ach Filter
IERANGELOWERLIMIT	IQUANT	1	I/E Range Lower Limit
IERANGEMODE	TOGGLE	F	I/E AutoRange
IERANGE	IQUANT	6	I/E Range
POSFEEDENABLE	TOGGLE	F	Positive Feedback IR Comp
POSFEEDRESISTANCE	QUANT	0	Positive Feedback Resistance (ohm)
ACHSELECT	IQUANT	0	Ach Select
CABLEID	IQUANT	14	Cable ID
DCCALDATE	LABEL	8/19/2019	DC Calibration Date
ACCALDATE	LABEL	8/19/2019	AC Calibration Date
THERMOSELECT	IQUANT	1	Thermo Select
FRAMEWORKVERSION	QUANT	6.33	Framework Version
INSTRUMENTVERSION	LABEL	3.50	Instrument Version
ZCURVE	TABLE
	Pt	Time	Freq	Zreal	Zimag	Zsig	Zmod	Zphz	Idc	Vdc	IERange
	#	s	Hz	ohm	ohm	V	ohm	°	A	V	#
	0	2	1000078	2706.995	-2006.651	1	3369.639	-36.54893	4.285681E-006	0.0086401	8
	1	3	794390.6	3098.782	-1921.363	1	3646.106	-31.8005	-5.556436E-006	0.0097034	8
	2	5	630984.4	3460.139	-1798.296	1	3899.542	-27.4617	4.136698E-006	0.008136	8
	3	6	501234.4	3762.031	-1611.024	1	4092.465	-23.18218	-1.687059E-006	0.0088935	8
	4	8	398109.4	4005.858	-1417.921	1	4249.4	-19.49202	5.523574E-008	0.0085531	8
	5	9	316265.6	4198.048	-1229.572	1	4374.409	-16.32484	-4.099138E-007	0.0087512	8
	6	11	251203.1	4354.234	-1058.436	1	4481.031	-13.66258	4.163212E-006	0.0078063	8
	7	12	199546.9	4451.863	-896.3782	1	4541.209	-11.38423	-1.252784E-006	0.0089808	8
	8	13	158578.1	4500.011	-785.7369	1	4568.094	-9.90444	-2.675691E-006	0.0089702	8
	9	15	125953.1	4619.79	-617.736	1	4660.907	-7.616137	-4.595255E-007	0.0092752	7
	10	16	100078.1	4650.939	-560.0179	1	4684.533	-6.865911	4.815421E-008	0.0084008	7
	11	18	79453.13	4695.72	-509.8094	1	4723.313	-6.196274	-4.015783E-008	0.0085964	7
	12	19	63140.62	4731.21	-482.9902	1	4755.8	-5.828902	7.566887E-008	0.0084217	7
	13	21	50203.12	4768.186	-461.0427	1	4790.424	-5.522841	4.167988E-008	0.0085033	7
	14	22	39890.62	4802.963	-457.1558	1	4824.67	-5.437149	-1.344638E-008	0.0086878	7
	15	23	31640.63	4842.306	-464.1214	1	4864.498	-5.474915	-5.138902E-008	0.0086387	7
	16	25	25171.88	4883.356	-481.3854	1	4907.025	-5.629844	-5.126715E-008	0.0086454	7
	17	26	20015.62	4927.85	-517.7548	1	4954.975	-5.997894	-8.021954E-008	0.0086716	7
	18	27	15890.62	4971.223	-555.7507	1	5002.191	-6.378813	-3.874046E-008	0.0085578	7
	19	29	12609.37	5015.859	-613.9465	1	5053.293	-6.978354	-8.101964E-008	0.0086722	7
	20	30	10078.13	5071.141	-678.5316	1	5116.334	-7.621057	-3.649952E-008	0.0085621	7
	21	31	8015.625	5123.917	-769.0697	1	5181.312	-8.536038	-4.417026E-009	0.0085899	7
	22	33	6328.125	5190.659	-874.7617	1	5263.853	-9.56595	8.858002E-008	0.0083543	7
	23	34	5015.625	5259.64	-1005.984	1	5354.981	-10.8279	7.704252E-008	0.0084128	7
	24	36	3984.375	5340.936	-1173.305	1	5468.294	-12.39002	-1.596547E-008	0.0086929	7
	25	37	3170.956	5412.8	-1360.197	1	5581.088	-14.10593	-4.449835E-009	0.0085795	7
	26	38	2527.573	5496.198	-1595.142	1	5722.995	-16.18413	-4.596174E-008	0.008566	7
	27	40	1976.103	5607.391	-1912.792	1	5924.661	-18.83553	1.529816E-008	0.0084601	7
	28	41	1577.524	5704.387	-2260.033	1	6135.778	-21.61308	-5.685932E-009	0.0084839	7
	29	43	1265.625	5839.351	-2685.874	1	6427.437	-24.70058	-6.367602E-009	0.0085604	7
	30	44	998.264	5994.659	-3248.556	1	6818.288	-28.45364	-2.304578E-008	0.0085206	7
	31	45	796.875	6153.879	-3881.044	1	7275.488	-32.23825	7.757868E-008	0.0084099	7
	32	47	627.7902	6365.771	-4720.483	1	7925.023	-36.55847	-2.666782E-009	0.0085798	7
	33	48	505.5147	6579.5	-5634.71	1	8662.551	-40.57689	4.71325E-008	0.0083874	7
	34	50	397.9953	6858.771	-6888.373	1	9720.72	-45.12337	6.942463E-009	0.0085499	7
	35	51	315.5048	7180.642	-8383.579	1	11038.39	-49.41953	2.849468E-010	0.0084905	6
	36	52	252.4038	7544.405	-10151.2	1	12647.72	-53.38013	5.43336E-010	0.0084846	6
	37	54	198.6229	8015.208	-12489.55	1	14840.23	-57.30956	6.086033E-010	0.0084907	6
	38	55	158.3615	8562.9	-15224.11	1	17467.02	-60.64414	1.135333E-010	0.00848	6
	39	56	125.558	9269.122	-18672.9	1	20846.91	-63.60046	6.258862E-010	0.0084839	6
	40	58	100.4464	10103.68	-22740.87	1	24884.36	-66.0446	8.923978E-010	0.0084874	6
	41	59	79.00281	11394.04	-28062.6	1	30287.52	-67.90175	5.228028E-010	0.0084861	6
	42	61	63.3446	13149.12	-34207.24	1	36647.44	-68.97344	1.119282E-009	0.0084808	6
	43	62	49.86702	14710.79	-42402.5	1	44881.84	-70.8667	1.099436E-009	0.0084825	6
	44	63	39.72458	17464.37	-51411.05	1	54296.41	-71.23734	1.4235E-009	0.0084879	6
	45	65	31.6723	20758.26	-62403.87	1	65765.86	-71.60062	1.222777E-009	0.0084899	6
	46	66	24.93351	25698.24	-76417.54	1	80622.83	-71.41286	9.497412E-010	0.0084931	6
	47	68	19.86229	31808.51	-92407.24	1	97728.6	-71.00546	9.27597E-010	0.0084952	6
	48	69	15.83615	39526.05	-110655	1	117502.5	-70.34324	2.578435E-010	0.0084955	5
	49	70	12.40079	50455.15	-135019.3	1	144138.6	-69.50987	9.093213E-010	0.0084917	5
	50	72	9.93114	63372.41	-159749.7	1	171860.5	-68.36187	-4.149482E-012	0.0084983	5
	51	74	7.944915	79652.77	-187339.7	1	203569.9	-66.96586	1.21054E-009	0.0084988	5
	52	75	6.317385	100653.9	-221705.9	1	243484.5	-65.58207	-6.200616E-011	0.0085087	5
	53	77	5.008013	126886.9	-259494.8	1	288856.1	-63.94245	5.879498E-011	0.0084858	5
	54	80	3.945707	158854.8	-302444	1	341624.4	-62.28989	5.446121E-010	0.0084974	5
	55	83	3.158693	194961.8	-345622.7	1	396818.7	-60.57315	-7.894558E-011	0.0084824	5
	56	86	2.504006	237426.2	-395143.4	1	460987.5	-58.99999	6.08912E-010	0.0084947	5
	57	89	1.998082	284007.1	-446994.1	1	529588.3	-57.5693	2.320741E-010	0.0085257	5
	58	92	1.584686	336200.3	-504395.3	1	606172.6	-56.31491	1.327163E-010	0.0084528	5
	59	96	1.266892	390571.9	-569224.8	1	690335.6	-55.54415	2.320841E-010	0.0085139	5
	60	100	0.999041	454157.3	-645893.4	1	789580.3	-54.88719	-2.651356E-010	0.0084621	5
