EXPLAIN
TAG	EISPOT
TITLE	LABEL	Potentiostatic EIS	Test &Identifier
DATE	LABEL	10/8/2019	Date
TIME	LABEL	10:06:55	Time
NOTES	NOTES	2	&Notes...
	
	
PSTAT	PSTAT	REF600-11020	Potentiostat
VDC	POTEN	0.00000E+000	T	DC &Voltage (V)
FREQINIT	QUANT	1.00000E+006	Initial Fre&q. (Hz)
FREQFINAL	QUANT	1.00000E+000	Final Fre&q. (Hz)
PTSPERDEC	QUANT	1.00000E+001	Points/&decade
VAC	QUANT	2.50000E+001	AC &Voltage (mV rms)
AREA	QUANT	1.00000E-002	&Area (cm^2)
CONDIT	TWOPARAM	T	5.00000E+000	0.00000E+000	Conditionin&g	Time(s)	E(V)
DELAY	TWOPARAM	T	5.00000E+000	0.00000E+000	Init. De&lay	Time(s)	Stab.(mV/s)
SPEED	SELECTOR	1	&Optimize for:
ZGUESS	QUANT	1.00000E+004	E&stimated Z (ohms)
OCVCURVE	TABLE	19
	Pt	T	Vf	Vm	Ach	Over
	#	s	V vs. Ref.	V	V	bits
	0	0.258333	5.63826E-003	5.63826E-003	5.52566E-004	...........
	1	0.516667	5.63804E-003	5.62680E-003	5.46733E-004	...........
	2	0.775	5.63714E-003	5.63938E-003	5.50499E-004	...........
	3	1.03333	5.63637E-003	5.66618E-003	5.43599E-004	...........
	4	1.29167	5.63912E-003	5.69226E-003	5.41499E-004	...........
	5	1.55	5.65064E-003	5.80182E-003	5.44366E-004	...........
	6	1.80833	5.67531E-003	5.75932E-003	5.45699E-004	...........
	7	2.06667	5.71057E-003	5.81446E-003	5.44666E-004	...........
	8	2.325	5.74762E-003	5.86258E-003	5.44033E-004	...........
	9	2.58333	5.78274E-003	5.91668E-003	5.51299E-004	...........
	10	2.84167	5.81998E-003	5.95824E-003	5.51033E-004	...........
	11	3.1	5.86242E-003	6.01502E-003	5.45333E-004	...........
	12	3.35833	5.90911E-003	6.05940E-003	5.46433E-004	...........
	13	3.61667	5.95806E-003	6.11525E-003	5.50433E-004	...........
	14	3.875	6.00787E-003	6.15483E-003	5.47133E-004	...........
	15	4.13333	6.05746E-003	6.20315E-003	5.52899E-004	...........
	16	4.39167	6.10576E-003	6.24119E-003	5.55066E-004	...........
	17	4.65	6.15227E-003	6.29439E-003	5.55066E-004	...........
	18	4.90833	6.19786E-003	6.35303E-003	5.52299E-004	...........
EOC	QUANT	0.0061979	Open Circuit (V)
PSTATMODEL	IQUANT	4	Pstat Model
PSTATSECTION	LABEL	REF600-11020	Pstat Section
PSTATSERIALNO	LABEL	11020	Pstat Serial Number
CTRLMODE	IQUANT	1	Control Mode
IESTAB	IQUANT	0	I/E Stability
CASPEED	IQUANT	1	Control Amp Speed
CONVENTION	IQUANT	1	Current Convention
ICHRANGE	IQUANT	2	Ich Range
ICHRANGEMODE	TOGGLE	F	Ich Auto Range
ICHOFFSETENABLE	TOGGLE	T	Ich Offset Enable
ICHOFFSET	QUANT	0	Ich Offset (V)
ICHFILTER	IQUANT	3	Ich Filter
VCHRANGE	IQUANT	2	Vch Range
VCHRANGEMODE	TOGGLE	F	Vch Auto Range
VCHOFFSETENABLE	TOGGLE	T	Vch Offset Enable
VCHOFFSET	QUANT	0	Vch Offset (V)
VCHFILTER	IQUANT	3	Vch Filter
ACHRANGE	IQUANT	2	Ach Range
ACHOFFSETENABLE	TOGGLE	F	Ach Offset Enable
ACHOFFSET	QUANT	0	Ach Offset (V)
ACHFILTER	IQUANT	3	Ach Filter
IERANGELOWERLIMIT	IQUANT	1	I/E Range Lower Limit
IERANGEMODE	TOGGLE	F	I/E AutoRange
IERANGE	IQUANT	6	I/E Range
POSFEEDENABLE	TOGGLE	F	Positive Feedback IR Comp
POSFEEDRESISTANCE	QUANT	0	Positive Feedback Resistance (ohm)
ACHSELECT	IQUANT	0	Ach Select
CABLEID	IQUANT	14	Cable ID
DCCALDATE	LABEL	8/19/2019	DC Calibration Date
ACCALDATE	LABEL	8/19/2019	AC Calibration Date
THERMOSELECT	IQUANT	1	Thermo Select
FRAMEWORKVERSION	QUANT	6.33	Framework Version
INSTRUMENTVERSION	LABEL	3.50	Instrument Version
ZCURVE	TABLE
	Pt	Time	Freq	Zreal	Zimag	Zsig	Zmod	Zphz	Idc	Vdc	IERange
	#	s	Hz	ohm	ohm	V	ohm	°	A	V	#
	0	1	1000078	2509.797	-1522.47	1	2935.472	-31.24146	-5.088773E-006	0.0103448	8
	1	3	794390.6	2796.901	-1468.009	1	3158.751	-27.69363	-2.619515E-006	0.0089456	8
	2	4	630984.4	3052.384	-1388.422	1	3353.322	-24.45912	4.056024E-006	0.0073729	8
	3	6	501234.4	3266.75	-1287.739	1	3511.399	-21.51414	1.007425E-006	0.0078522	8
	4	7	398109.4	3462.934	-1170.369	1	3655.363	-18.67373	1.008217E-006	0.0077058	8
	5	9	316265.6	3626.358	-1042.8	1	3773.314	-16.04318	-4.839747E-006	0.0090037	8
	6	10	251203.1	3760.449	-928.692	1	3873.428	-13.87236	1.584225E-006	0.0077419	8
	7	12	199546.9	3862.217	-815.3257	1	3947.338	-11.92029	-3.393697E-006	0.0083442	8
	8	13	158578.1	3979.78	-744.6895	1	4048.853	-10.59853	-4.558802E-006	0.0089361	8
	9	15	125953.1	4071.278	-618.9364	1	4118.057	-8.644207	5.464274E-007	0.006771	7
	10	16	100078.1	4118.027	-539.8052	1	4153.256	-7.467949	-5.161876E-008	0.0078599	7
	11	17	79453.13	4169.615	-497.3404	1	4199.171	-6.80195	9.976435E-008	0.007748	7
	12	19	63140.62	4214.771	-464.2585	1	4240.264	-6.285809	4.503348E-008	0.0077633	7
	13	20	50203.12	4255.806	-441.0288	1	4278.597	-5.916438	-1.482311E-008	0.0077736	7
	14	22	39890.62	4293.605	-431.0338	1	4315.187	-5.7327	4.467562E-008	0.0077661	7
	15	23	31640.63	4333.562	-428.2872	1	4354.674	-5.64423	-1.959877E-008	0.007872	7
	16	24	25171.88	4370.006	-434.6292	1	4391.566	-5.679808	8.785804E-008	0.0076367	7
	17	26	20015.62	4407.674	-453.0628	1	4430.898	-5.868795	-5.984332E-008	0.007997	7
	18	27	15890.62	4445.375	-480.6664	1	4471.286	-6.171263	-1.056472E-008	0.0077667	7
	19	28	12609.37	4480.092	-524.3531	1	4510.673	-6.675568	4.211276E-008	0.0077687	7
	20	30	10078.13	4518.62	-577.6714	1	4555.396	-7.285314	-1.647491E-008	0.0078625	7
	21	31	8015.625	4558.254	-644.73	1	4603.624	-8.050644	-3.900611E-008	0.007823	7
	22	32	6328.125	4599.147	-748.6957	1	4659.688	-9.246081	-1.322291E-008	0.0079601	7
	23	34	5015.625	4643.806	-872.1616	1	4724.997	-10.63691	4.723275E-009	0.0077416	7
	24	35	3984.375	4700.1	-1024.881	1	4810.543	-12.30109	-5.395659E-008	0.007838	7
	25	37	3170.956	4744.137	-1215.686	1	4897.421	-14.37279	-1.323385E-008	0.0079558	7
	26	38	2527.573	4806.004	-1447.037	1	5019.122	-16.75649	4.506785E-008	0.0077588	7
	27	39	1976.103	4883.851	-1765.303	1	5193.101	-19.87276	-8.913327E-008	0.007954	7
	28	41	1577.524	4972.296	-2121.241	1	5405.867	-23.10367	-4.429589E-008	0.0078928	7
	29	42	1265.625	5062.791	-2547.706	1	5667.686	-26.71253	-5.294862E-008	0.0078402	7
	30	43	998.264	5185.547	-3110.321	1	6046.817	-30.95557	-1.228371E-008	0.0077583	7
	31	45	796.875	5320.587	-3772.155	1	6522.101	-35.33562	-5.708483E-008	0.0078394	7
	32	46	627.7902	5510.004	-4631.824	1	7198.19	-40.05111	1.026856E-007	0.0077384	7
	33	48	505.5147	5702.95	-5587.429	1	7983.921	-44.41378	-4.656603E-009	0.0078448	7
	34	49	397.9953	5980.616	-6885.574	1	9120.246	-49.02334	4.547001E-009	0.00782	7
	35	50	315.5048	6324.345	-8438.6	1	10545.49	-53.15012	4.1075E-010	0.0077644	6
	36	52	252.4038	6743.013	-10264.1	1	12280.88	-56.69705	1.291855E-009	0.0077572	6
	37	53	198.6229	7324.501	-12663.84	1	14629.46	-59.9558	1.144028E-009	0.0077625	6
	38	54	158.3615	8043.936	-15438.03	1	17407.98	-62.47838	3.613335E-010	0.0077522	6
	39	56	125.558	9011.746	-18891.68	1	20931.01	-64.49783	6.218939E-010	0.007757	6
	40	57	100.4464	10224.91	-22907.57	1	25085.96	-65.94617	9.245432E-010	0.0077557	6
	41	58	79.00281	12005	-28048.49	1	30509.64	-66.82866	8.236143E-010	0.0077541	6
	42	60	63.3446	13938.04	-33901.92	1	36655.28	-67.65105	-1.133754E-010	0.0077509	6
	43	61	49.86702	17343.1	-40925.05	1	44448.2	-67.03388	1.310012E-009	0.0077489	6
	44	63	39.72458	21120.25	-49237.89	1	53576.44	-66.78342	6.687177E-010	0.0077542	6
	45	64	31.6723	26153.9	-58434.39	1	64020.34	-65.8878	4.836229E-010	0.0077488	6
	46	65	24.93351	32924.67	-69756.6	1	77136.36	-64.73299	8.057855E-010	0.0077428	6
	47	67	19.86229	40983.81	-81604.41	1	91317.87	-63.33303	-1.871526E-010	0.0077459	6
	48	68	15.83615	51418.92	-94861.31	1	107900.8	-61.5404	1.543401E-009	0.0077486	5
	49	70	12.40079	62733.81	-109734.6	1	126401	-60.24398	4.280041E-010	0.007754	5
	50	71	9.93114	76725.45	-125009.3	1	146676.9	-58.46016	8.476397E-010	0.0077508	5
	51	73	7.944915	91912.04	-141247.5	1	168519.1	-56.9473	-5.514103E-010	0.0077518	5
	52	74	6.317385	108852.5	-159150.4	1	192815.2	-55.62943	1.296367E-010	0.0077455	5
	53	76	5.008013	127729.8	-179560.6	1	220356.3	-54.57399	1.601982E-010	0.0077671	5
	54	79	3.945707	148278.3	-202813.5	1	251236.5	-53.8292	-3.412911E-010	0.0077581	5
	55	81	3.158693	169389.7	-228040	1	284068.8	-53.39478	2.20576E-010	0.0077653	5
	56	85	2.504006	192851.7	-258706.8	1	322677.8	-53.2975	-3.712325E-010	0.0077606	5
	57	88	1.998082	217309.2	-293505.1	1	365196.6	-53.484	1.019569E-011	0.0077171	5
	58	91	1.584686	244290.1	-336203.1	1	415584.2	-53.99729	-1.276036E-010	0.0077562	5
	59	94	1.266892	274770.6	-384978.9	1	472977.4	-54.48345	5.258956E-011	0.0077147	5
	60	99	0.999041	310028.3	-446638.1	1	543694	-55.23404	1.725549E-011	0.0078003	5
