EXPLAIN
TAG	EISPOT
TITLE	LABEL	Potentiostatic EIS	Test &Identifier
DATE	LABEL	9/22/2019	Date
TIME	LABEL	9:53:51	Time
NOTES	NOTES	1	&Notes...
	
PSTAT	PSTAT	REF600-11020	Potentiostat
VDC	POTEN	0.00000E+000	T	DC &Voltage (V)
FREQINIT	QUANT	1.00000E+006	Initial Fre&q. (Hz)
FREQFINAL	QUANT	1.00000E+000	Final Fre&q. (Hz)
PTSPERDEC	QUANT	1.00000E+001	Points/&decade
VAC	QUANT	2.50000E+001	AC &Voltage (mV rms)
AREA	QUANT	1.00000E-002	&Area (cm^2)
CONDIT	TWOPARAM	T	5.00000E+000	0.00000E+000	Conditionin&g	Time(s)	E(V)
DELAY	TWOPARAM	T	5.00000E+000	0.00000E+000	Init. De&lay	Time(s)	Stab.(mV/s)
SPEED	SELECTOR	1	&Optimize for:
ZGUESS	QUANT	1.00000E+004	E&stimated Z (ohms)
OCVCURVE	TABLE	19
	Pt	T	Vf	Vm	Ach	Over
	#	s	V vs. Ref.	V	V	bits
	0	0.258333	-2.62236E-003	-2.62236E-003	5.49966E-004	...........
	1	0.516667	-2.63600E-003	-3.33636E-003	5.47699E-004	...........
	2	0.775	-2.71952E-003	-4.00069E-003	5.45199E-004	...........
	3	1.03333	-2.95422E-003	-4.59738E-003	5.47866E-004	...........
	4	1.29167	-3.36913E-003	-5.16724E-003	5.46899E-004	...........
	5	1.55	-3.91160E-003	-5.70096E-003	5.49066E-004	...........
	6	1.80833	-4.50169E-003	-6.23307E-003	5.49966E-004	...........
	7	2.06667	-5.08574E-003	-6.73908E-003	5.45699E-004	...........
	8	2.325	-5.64390E-003	-7.20382E-003	5.46666E-004	...........
	9	2.58333	-6.17342E-003	-7.64876E-003	5.45299E-004	...........
	10	2.84167	-6.67470E-003	-8.06196E-003	5.42999E-004	...........
	11	3.1	-7.14814E-003	-8.47070E-003	5.47499E-004	...........
	12	3.35833	-7.59636E-003	-8.89699E-003	5.49266E-004	...........
	13	3.61667	-8.02601E-003	-9.30435E-003	5.49433E-004	...........
	14	3.875	-8.44451E-003	-9.67182E-003	5.48233E-004	...........
	15	4.13333	-8.85422E-003	-1.00482E-002	5.52832E-004	...........
	16	4.39167	-9.25282E-003	-1.04159E-002	5.48066E-004	...........
	17	4.65	-9.63856E-003	-1.07456E-002	5.46433E-004	...........
	18	4.90833	-1.00110E-002	-1.10793E-002	5.46533E-004	...........
EOC	QUANT	-0.010011	Open Circuit (V)
PSTATMODEL	IQUANT	4	Pstat Model
PSTATSECTION	LABEL	REF600-11020	Pstat Section
PSTATSERIALNO	LABEL	11020	Pstat Serial Number
CTRLMODE	IQUANT	1	Control Mode
IESTAB	IQUANT	0	I/E Stability
CASPEED	IQUANT	1	Control Amp Speed
CONVENTION	IQUANT	1	Current Convention
ICHRANGE	IQUANT	2	Ich Range
ICHRANGEMODE	TOGGLE	F	Ich Auto Range
ICHOFFSETENABLE	TOGGLE	T	Ich Offset Enable
ICHOFFSET	QUANT	0	Ich Offset (V)
ICHFILTER	IQUANT	3	Ich Filter
VCHRANGE	IQUANT	2	Vch Range
VCHRANGEMODE	TOGGLE	F	Vch Auto Range
VCHOFFSETENABLE	TOGGLE	T	Vch Offset Enable
VCHOFFSET	QUANT	0	Vch Offset (V)
VCHFILTER	IQUANT	3	Vch Filter
ACHRANGE	IQUANT	2	Ach Range
ACHOFFSETENABLE	TOGGLE	F	Ach Offset Enable
ACHOFFSET	QUANT	0	Ach Offset (V)
ACHFILTER	IQUANT	3	Ach Filter
IERANGELOWERLIMIT	IQUANT	1	I/E Range Lower Limit
IERANGEMODE	TOGGLE	F	I/E AutoRange
IERANGE	IQUANT	6	I/E Range
POSFEEDENABLE	TOGGLE	F	Positive Feedback IR Comp
POSFEEDRESISTANCE	QUANT	0	Positive Feedback Resistance (ohm)
ACHSELECT	IQUANT	0	Ach Select
CABLEID	IQUANT	14	Cable ID
DCCALDATE	LABEL	8/19/2019	DC Calibration Date
ACCALDATE	LABEL	8/19/2019	AC Calibration Date
THERMOSELECT	IQUANT	1	Thermo Select
FRAMEWORKVERSION	QUANT	6.33	Framework Version
INSTRUMENTVERSION	LABEL	3.50	Instrument Version
ZCURVE	TABLE
	Pt	Time	Freq	Zreal	Zimag	Zsig	Zmod	Zphz	Idc	Vdc	IERange
	#	s	Hz	ohm	ohm	V	ohm	°	A	V	#
	0	1	1000078	2288.114	-1803.063	1	2913.16	-38.23856	3.741862E-006	-0.0086086	8
	1	3	794390.6	2665.609	-1771.286	1	3200.457	-33.60387	3.083604E-006	-0.0088909	8
	2	4	630984.4	2996.91	-1673.653	1	3432.577	-29.1816	-3.173758E-006	-0.0078696	8
	3	5	501234.4	3314.203	-1537.127	1	3653.313	-24.88187	3.248275E-006	-0.0089451	8
	4	7	398109.4	3553.998	-1379.834	1	3812.459	-21.21862	2.415226E-006	-0.0089826	8
	5	8	316265.6	3762.719	-1227.426	1	3957.856	-18.06669	2.328495E-007	-0.0083122	8
	6	10	251203.1	3920.282	-1058.365	1	4060.634	-15.10806	-7.901757E-008	-0.0085111	8
	7	11	199546.9	4033.885	-912.6642	1	4135.841	-12.7485	-3.332168E-006	-0.0077325	8
	8	12	158578.1	4129.633	-785.8114	1	4203.733	-10.77378	-2.9355E-008	-0.0085096	8
	9	14	125953.1	4217.226	-634.4427	1	4264.682	-8.555464	-6.501666E-007	-0.0065996	7
	10	15	100078.1	4261.898	-555.9872	1	4298.011	-7.432565	1.128825E-008	-0.0085311	7
	11	16	79453.13	4303.752	-502.3069	1	4332.966	-6.657084	-3.371946E-008	-0.0084619	7
	12	18	63140.62	4341.696	-462.3462	1	4366.244	-6.078507	-5.213289E-008	-0.0084165	7
	13	19	50203.12	4377.227	-435.5036	1	4398.838	-5.681832	1.172855E-007	-0.0086415	7
	14	20	39890.62	4409.887	-420.7255	1	4429.912	-5.449811	-4.468813E-008	-0.0083139	7
	15	21	31640.63	4442.86	-418.0582	1	4462.486	-5.375512	-7.38394E-010	-0.0085425	7
	16	23	25171.88	4476.719	-425.8931	1	4496.932	-5.434484	1.263688E-008	-0.0085433	7
	17	24	20015.62	4510.564	-445.9093	1	4532.552	-5.645851	-4.146688E-009	-0.0084425	7
	18	25	15890.62	4547.9	-478.7221	1	4573.027	-6.008953	3.98765E-008	-0.0086135	7
	19	27	12609.37	4586.424	-520.3471	1	4615.847	-6.472745	-2.326103E-009	-0.0084469	7
	20	28	10078.13	4626.115	-575.7659	1	4661.808	-7.094545	-4.658995E-008	-0.0084186	7
	21	29	8015.625	4670.843	-648.5943	1	4715.66	-7.905552	-4.57836E-008	-0.0083199	7
	22	31	6328.125	4719.253	-741.7003	1	4777.182	-8.931815	6.787632E-009	-0.00838	7
	23	32	5015.625	4771.29	-855.7166	1	4847.418	-10.16773	-4.346922E-008	-0.0083131	7
	24	33	3984.375	4828.094	-997.115	1	4929.982	-11.66888	7.640338E-008	-0.0086301	7
	25	35	3170.956	4889.354	-1169.526	1	5027.284	-13.4523	-2.583945E-009	-0.0084367	7
	26	36	2527.573	4958.453	-1381.489	1	5147.307	-15.56852	7.123601E-009	-0.0083799	7
	27	37	1976.103	5044.795	-1662.619	1	5311.71	-18.24073	1.196546E-007	-0.0086479	7
	28	39	1577.524	5136.89	-1981.806	1	5505.923	-21.09656	-4.557729E-008	-0.0083182	7
	29	40	1265.625	5245.743	-2356.394	1	5750.688	-24.18967	-3.722461E-008	-0.0084658	7
	30	41	998.264	5373.138	-2852.524	1	6083.379	-27.96321	-3.749722E-008	-0.0084705	7
	31	43	796.875	5520.128	-3429.46	1	6498.693	-31.85122	1.316692E-008	-0.0085522	7
	32	44	627.7902	5700.773	-4173.561	1	7065.227	-36.20802	1.195948E-007	-0.0086499	7
	33	45	505.5147	5895.104	-4992.39	1	7725.038	-40.26028	-4.376678E-008	-0.0084249	7
	34	47	397.9953	6141.593	-6101.299	1	8657.079	-44.81143	3.829203E-009	-0.0084583	7
	35	48	315.5048	6423.559	-7427.009	1	9819.5	-49.14374	4.523206E-009	-0.0084565	7
	36	49	252.4038	6748.459	-8989.211	1	11240.45	-53.10339	1.108813E-009	-0.0085233	6
	37	51	198.6229	7163.9	-11056.84	1	13174.79	-57.06016	1.396581E-009	-0.0085199	6
	38	52	158.3615	7645.661	-13472.24	1	15490.56	-60.42457	7.834836E-010	-0.008525	6
	39	53	125.558	8260.187	-16513.18	1	18463.91	-63.42497	1.492321E-009	-0.008519	6
	40	55	100.4464	9014.584	-20108.16	1	22036.35	-65.85308	5.265132E-010	-0.008518	6
	41	56	79.00281	10058.65	-24818.98	1	26779.81	-67.93825	1.326032E-009	-0.0085217	6
	42	58	63.3446	11445.97	-30265.22	1	32357.29	-69.28394	7.329832E-010	-0.0085194	6
	43	59	49.86702	12859.28	-37338.71	1	39491.02	-70.99653	1.251801E-009	-0.0085219	6
	44	60	39.72458	15171.36	-45406.72	1	47874.22	-71.52441	1.443818E-009	-0.0085125	6
	45	62	31.6723	17903.4	-55302.2	1	58128	-72.06129	8.408095E-010	-0.0085163	6
	46	63	24.93351	21920.97	-67829.9	1	71284.11	-72.09043	1.202107E-009	-0.0085172	6
	47	64	19.86229	26734.6	-82127.02	1	86368.9	-71.96851	1.664447E-009	-0.0085139	6
	48	66	15.83615	33626	-98795.8	1	104361.4	-71.20354	4.08454E-011	-0.0085207	6
	49	67	12.40079	42125.64	-121315.2	1	128421	-70.85089	1.368403E-009	-0.0085196	5
	50	69	9.93114	52657.05	-144170.8	1	153486.1	-69.93575	9.186961E-010	-0.008525	5
	51	70	7.944915	65993.73	-171146.3	1	183429	-68.91344	7.909046E-010	-0.008521	5
	52	72	6.317385	83145.17	-203100.7	1	219460.7	-67.73683	1.114808E-009	-0.0085203	5
	53	74	5.008013	105149.7	-240407.5	1	262397.1	-66.37633	6.844311E-010	-0.0085104	5
	54	76	3.945707	133386.9	-283935.9	1	313706.3	-64.83688	3.083978E-010	-0.008515	5
	55	79	3.158693	165674.8	-328758.5	1	368144.3	-63.2546	5.123933E-010	-0.008521	5
	56	82	2.504006	205405.2	-380565.5	1	432459.7	-61.64264	3.282559E-010	-0.008511	5
	57	85	1.998082	249990.9	-434499	1	501283.2	-60.08584	7.462747E-010	-0.0085486	5
	58	88	1.584686	303996.5	-497575.6	1	583091.2	-58.57693	2.500972E-010	-0.0085578	5
	59	92	1.266892	361094.3	-560434.9	1	666690.6	-57.20588	5.64529E-010	-0.0085512	5
	60	96	0.999041	428500.4	-637422.6	1	768062.6	-56.08946	1.435109E-010	-0.0085029	5
