EXPLAIN
TAG	EISPOT
TITLE	LABEL	Potentiostatic EIS	Test &Identifier
DATE	LABEL	9/26/2019	Date
TIME	LABEL	11:00:04	Time
NOTES	NOTES	2	&Notes...
	
	
PSTAT	PSTAT	REF600-11020	Potentiostat
VDC	POTEN	0.00000E+000	T	DC &Voltage (V)
FREQINIT	QUANT	1.00000E+006	Initial Fre&q. (Hz)
FREQFINAL	QUANT	1.00000E+000	Final Fre&q. (Hz)
PTSPERDEC	QUANT	1.00000E+001	Points/&decade
VAC	QUANT	2.50000E+001	AC &Voltage (mV rms)
AREA	QUANT	1.00000E-002	&Area (cm^2)
CONDIT	TWOPARAM	T	5.00000E+000	0.00000E+000	Conditionin&g	Time(s)	E(V)
DELAY	TWOPARAM	T	5.00000E+000	0.00000E+000	Init. De&lay	Time(s)	Stab.(mV/s)
SPEED	SELECTOR	1	&Optimize for:
ZGUESS	QUANT	1.00000E+004	E&stimated Z (ohms)
OCVCURVE	TABLE	19
	Pt	T	Vf	Vm	Ach	Over
	#	s	V vs. Ref.	V	V	bits
	0	0.258333	3.68111E-002	3.68111E-002	5.75766E-004	...........
	1	0.516667	3.68590E-002	3.93200E-002	5.75832E-004	...........
	2	0.775	3.71525E-002	4.16568E-002	5.64799E-004	...........
	3	1.03333	3.79792E-002	4.38430E-002	5.64632E-004	...........
	4	1.29167	3.94474E-002	4.58890E-002	5.77399E-004	...........
	5	1.55	4.13793E-002	4.78197E-002	5.76666E-004	...........
	6	1.80833	4.34923E-002	4.96330E-002	5.67899E-004	...........
	7	2.06667	4.55823E-002	5.13473E-002	5.72032E-004	...........
	8	2.325	4.75608E-002	5.29697E-002	5.80699E-004	...........
	9	2.58333	4.94119E-002	5.45171E-002	5.70032E-004	...........
	10	2.84167	5.11484E-002	5.59780E-002	5.66432E-004	...........
	11	3.1	5.27868E-002	5.73763E-002	5.73066E-004	...........
	12	3.35833	5.43393E-002	5.86964E-002	5.80199E-004	...........
	13	3.61667	5.58137E-002	5.99638E-002	5.69666E-004	...........
	14	3.875	5.72156E-002	6.11668E-002	5.70866E-004	...........
	15	4.13333	5.85499E-002	6.23179E-002	5.82265E-004	...........
	16	4.39167	5.98211E-002	6.34166E-002	5.77499E-004	...........
	17	4.65	6.10335E-002	6.44746E-002	5.64899E-004	...........
	18	4.90833	6.21913E-002	6.54820E-002	5.62032E-004	...........
EOC	QUANT	0.0621913	Open Circuit (V)
PSTATMODEL	IQUANT	4	Pstat Model
PSTATSECTION	LABEL	REF600-11020	Pstat Section
PSTATSERIALNO	LABEL	11020	Pstat Serial Number
CTRLMODE	IQUANT	1	Control Mode
IESTAB	IQUANT	0	I/E Stability
CASPEED	IQUANT	1	Control Amp Speed
CONVENTION	IQUANT	1	Current Convention
ICHRANGE	IQUANT	2	Ich Range
ICHRANGEMODE	TOGGLE	F	Ich Auto Range
ICHOFFSETENABLE	TOGGLE	T	Ich Offset Enable
ICHOFFSET	QUANT	0	Ich Offset (V)
ICHFILTER	IQUANT	3	Ich Filter
VCHRANGE	IQUANT	2	Vch Range
VCHRANGEMODE	TOGGLE	F	Vch Auto Range
VCHOFFSETENABLE	TOGGLE	T	Vch Offset Enable
VCHOFFSET	QUANT	0	Vch Offset (V)
VCHFILTER	IQUANT	3	Vch Filter
ACHRANGE	IQUANT	2	Ach Range
ACHOFFSETENABLE	TOGGLE	F	Ach Offset Enable
ACHOFFSET	QUANT	0	Ach Offset (V)
ACHFILTER	IQUANT	3	Ach Filter
IERANGELOWERLIMIT	IQUANT	1	I/E Range Lower Limit
IERANGEMODE	TOGGLE	F	I/E AutoRange
IERANGE	IQUANT	7	I/E Range
POSFEEDENABLE	TOGGLE	F	Positive Feedback IR Comp
POSFEEDRESISTANCE	QUANT	0	Positive Feedback Resistance (ohm)
ACHSELECT	IQUANT	0	Ach Select
CABLEID	IQUANT	14	Cable ID
DCCALDATE	LABEL	8/19/2019	DC Calibration Date
ACCALDATE	LABEL	8/19/2019	AC Calibration Date
THERMOSELECT	IQUANT	1	Thermo Select
FRAMEWORKVERSION	QUANT	6.33	Framework Version
INSTRUMENTVERSION	LABEL	3.50	Instrument Version
ZCURVE	TABLE
	Pt	Time	Freq	Zreal	Zimag	Zsig	Zmod	Zphz	Idc	Vdc	IERange
	#	s	Hz	ohm	ohm	V	ohm	°	A	V	#
	0	1	1000078	2158.011	-2320.077	1	3168.56	-47.07267	-4.535689E-006	0.0657319	8
	1	3	794390.6	2628.097	-2442.353	1	3587.754	-42.90203	1.308183E-006	0.0642589	8
	2	4	630984.4	3131.288	-2519.292	1	4018.93	-38.81858	-5.397499E-006	0.0653201	8
	3	6	501234.4	3619.953	-2514.069	1	4407.335	-34.7801	-3.682561E-007	0.064252	8
	4	7	398109.4	4075.267	-2464.896	1	4762.722	-31.16735	-3.358195E-006	0.0646489	8
	5	9	316265.6	4541.187	-2330.344	1	5104.202	-27.16496	-3.097512E-006	0.0645947	8
	6	10	251203.1	4951.266	-2161.791	1	5402.627	-23.58675	-5.283981E-007	0.0641482	8
	7	12	199546.9	5290.886	-1961.218	1	5642.681	-20.33867	3.179672E-006	0.0632106	8
	8	13	158578.1	5563.155	-1760.299	1	5835.011	-17.55846	-3.174539E-006	0.0645329	8
	9	15	125953.1	5821.203	-1466.62	1	6003.114	-14.14105	-1.487493E-006	0.0670152	7
	10	16	100078.1	5999.056	-1300.533	1	6138.409	-12.23185	-2.611216E-008	0.0639009	7
	11	18	79453.13	6141.898	-1154.38	1	6249.441	-10.64466	-4.102983E-008	0.0638517	7
	12	19	63140.62	6255.263	-1027.923	1	6339.159	-9.331971	-5.878805E-008	0.0638581	7
	13	21	50203.12	6348.182	-928.7299	1	6415.758	-8.323244	-5.786776E-008	0.0639902	7
	14	22	39890.62	6428.68	-850.7069	1	6484.723	-7.53815	-2.785975E-008	0.0637862	7
	15	23	31640.63	6503.951	-793.9156	1	6552.228	-6.959475	-3.505794E-008	0.0638191	7
	16	25	25171.88	6574.961	-762.8267	1	6619.064	-6.617867	-2.915115E-009	0.0638446	7
	17	26	20015.62	6631.987	-748.9342	1	6674.141	-6.442977	-2.781038E-008	0.063783	7
	18	28	15890.62	6692.781	-757.787	1	6735.544	-6.459777	-6.108519E-009	0.0638245	7
	19	29	12609.37	6754.95	-778.064	1	6799.613	-6.570616	-2.400526E-009	0.0639377	7
	20	30	10078.13	6810.801	-818.7784	1	6859.84	-6.855066	-2.55107E-008	0.0638789	7
	21	32	8015.625	6870.303	-889.665	1	6927.667	-7.378417	6.958477E-008	0.0636859	7
	22	33	6328.125	6931.057	-989.779	1	7001.373	-8.12709	4.20957E-008	0.0636567	7
	23	34	5015.625	6993.843	-1121.52	1	7083.195	-9.110283	4.086898E-008	0.0636586	7
	24	36	3984.375	7064.804	-1292.263	1	7182.02	-10.3657	1.011883E-007	0.0637286	7
	25	37	3170.956	7135.376	-1505.159	1	7292.4	-11.91153	1.178049E-008	0.0637244	7
	26	39	2527.573	7220.755	-1771.354	1	7434.85	-13.78329	1.439527E-007	0.0635894	7
	27	40	1976.103	7318.622	-2135.248	1	7623.747	-16.2649	1.425997E-007	0.0635826	7
	28	41	1577.524	7427.416	-2536.602	1	7848.621	-18.856	-3.535672E-008	0.0638346	7
	29	43	1265.625	7588.733	-3022.247	1	8168.405	-21.71514	-1.33567E-008	0.0637516	7
	30	44	998.264	7726.313	-3679.553	1	8557.746	-25.4655	-2.523236E-008	0.0638704	7
	31	45	796.875	7908.163	-4432.774	1	9065.788	-29.272	7.166536E-008	0.063679	7
	32	47	627.7902	8143.864	-5393.706	1	9768.04	-33.51663	2.194617E-009	0.063608	6
	33	48	505.5147	8398.693	-6472.774	1	10603.53	-37.62102	-3.914955E-009	0.0638624	6
	34	49	397.9953	8738.177	-7918.774	1	11792.49	-42.18373	-1.570509E-010	0.0637561	6
	35	51	315.5048	9135.742	-9646.33	1	13285.83	-46.55718	-1.058458E-009	0.0637531	6
	36	52	252.4038	9594.26	-11670.75	1	15108.15	-50.57716	-5.487687E-010	0.063755	6
	37	54	198.6229	10197.62	-14331.94	1	17589.65	-54.56698	-5.995602E-010	0.0637562	6
	38	55	158.3615	10907.96	-17421.48	1	20554.6	-57.94844	-1.413012E-009	0.0637524	6
	39	56	125.558	11814.18	-21288.97	1	24347.38	-60.97219	-5.015279E-010	0.0637577	6
	40	58	100.4464	12930.21	-25795.72	1	28854.98	-63.37749	-6.439779E-010	0.0637555	6
	41	59	79.00281	14434.67	-31927.12	1	35038.56	-65.67165	4.305292E-011	0.0637552	6
	42	61	63.3446	15825.81	-38262.3	1	41406.04	-67.52934	-1.384786E-009	0.0637482	6
	43	62	49.86702	19243.62	-47553.84	1	51299.95	-67.96828	-1.829452E-009	0.0637507	6
	44	63	39.72458	22087.79	-57553.96	1	61646.81	-69.00443	-9.646912E-010	0.0637579	6
	45	65	31.6723	26244.32	-69737.66	1	74512.46	-69.37721	-6.559414E-010	0.0637545	6
	46	66	24.93351	32161.14	-84841.57	1	90732.74	-69.23964	-6.218967E-010	0.0637502	6
	47	67	19.86229	39679.93	-101838	1	109295.4	-68.71224	-1.112246E-009	0.063757	5
	48	69	15.83615	49763.98	-122238.5	1	131980	-67.84849	-4.959306E-011	0.0637555	5
	49	70	12.40079	63504.64	-146161.9	1	159361.6	-66.51594	-2.369341E-009	0.0637643	5
	50	72	9.93114	77256.3	-172009.8	1	188562.7	-65.81329	-9.488723E-010	0.0637608	5
	51	73	7.944915	96016.1	-200400.2	1	222214.6	-64.3999	-1.789071E-009	0.063759	5
	52	75	6.317385	119692.4	-233684.7	1	262554.4	-62.87865	-1.175172E-009	0.0637449	5
	53	77	5.008013	147671.8	-270557.6	1	308234.3	-61.37405	-1.237943E-009	0.0637603	5
	54	80	3.945707	180754.8	-311711.3	1	360328	-59.89146	-1.39993E-009	0.0637461	5
	55	82	3.158693	215399.2	-354775.3	1	415045	-58.73627	-1.080518E-009	0.063773	5
	56	86	2.504006	255888.2	-405168	1	479207.6	-57.72511	-1.508299E-009	0.0637541	5
	57	88	1.998082	299047.3	-459798.7	1	548492.6	-56.96053	-1.397522E-009	0.0637401	5
	58	91	1.584686	349356.1	-524077.5	1	629846.8	-56.31213	-1.276634E-009	0.0637957	5
	59	95	1.266892	403431.2	-596826.8	1	720388.1	-55.94287	-1.33059E-009	0.0637431	5
	60	99	0.999041	468015.9	-689036.9	1	832953.1	-55.8144	-1.022223E-009	0.0637831	5
