EXPLAIN
TAG	EISPOT
TITLE	LABEL	Potentiostatic EIS	Test &Identifier
DATE	LABEL	11/15/2019	Date
TIME	LABEL	10:30:45	Time
NOTES	NOTES	4	&Notes...
	
	
	
	
PSTAT	PSTAT	REF600-11020	Potentiostat
VDC	POTEN	0.00000E+000	T	DC &Voltage (V)
FREQINIT	QUANT	1.00000E+006	Initial Fre&q. (Hz)
FREQFINAL	QUANT	1.00000E+000	Final Fre&q. (Hz)
PTSPERDEC	QUANT	1.00000E+001	Points/&decade
VAC	QUANT	2.50000E+001	AC &Voltage (mV rms)
AREA	QUANT	1.00000E-002	&Area (cm^2)
CONDIT	TWOPARAM	T	5.00000E+000	0.00000E+000	Conditionin&g	Time(s)	E(V)
DELAY	TWOPARAM	T	5.00000E+000	0.00000E+000	Init. De&lay	Time(s)	Stab.(mV/s)
SPEED	SELECTOR	0	&Optimize for:
ZGUESS	QUANT	1.00000E+005	E&stimated Z (ohms)
OCVCURVE	TABLE	19
	Pt	T	Vf	Vm	Ach	Over
	#	s	V vs. Ref.	V	V	bits
	0	0.258333	2.60209E-003	2.60209E-003	5.57432E-004	...........
	1	0.516667	2.59897E-003	2.43892E-003	5.58399E-004	...........
	2	0.775	2.58020E-003	2.30346E-003	5.57732E-004	...........
	3	1.03333	2.52841E-003	2.17862E-003	5.57532E-004	...........
	4	1.29167	2.43895E-003	2.08077E-003	5.59466E-004	...........
	5	1.55	2.32567E-003	1.97905E-003	5.53766E-004	...........
	6	1.80833	2.20773E-003	1.90481E-003	5.54599E-004	...........
	7	2.06667	2.09766E-003	1.82460E-003	5.57666E-004	...........
	8	2.325	2.00010E-003	1.77366E-003	5.58932E-004	...........
	9	2.58333	1.91498E-003	1.69097E-003	5.63599E-004	...........
	10	2.84167	1.83925E-003	1.62000E-003	5.57566E-004	...........
	11	3.1	1.76824E-003	1.56133E-003	5.59632E-004	...........
	12	3.35833	1.69918E-003	1.50873E-003	5.61866E-004	...........
	13	3.61667	1.63312E-003	1.46605E-003	5.58199E-004	...........
	14	3.875	1.57277E-003	1.43195E-003	5.60932E-004	...........
	15	4.13333	1.51977E-003	1.38607E-003	5.59266E-004	...........
	16	4.39167	1.47352E-003	1.35420E-003	5.63899E-004	...........
	17	4.65	1.43193E-003	1.31734E-003	5.64866E-004	...........
	18	4.90833	1.39335E-003	1.29006E-003	5.65932E-004	...........
EOC	QUANT	0.0013933	Open Circuit (V)
PSTATMODEL	IQUANT	4	Pstat Model
PSTATSECTION	LABEL	REF600-11020	Pstat Section
PSTATSERIALNO	LABEL	11020	Pstat Serial Number
CTRLMODE	IQUANT	1	Control Mode
IESTAB	IQUANT	0	I/E Stability
CASPEED	IQUANT	1	Control Amp Speed
CONVENTION	IQUANT	1	Current Convention
ICHRANGE	IQUANT	2	Ich Range
ICHRANGEMODE	TOGGLE	F	Ich Auto Range
ICHOFFSETENABLE	TOGGLE	T	Ich Offset Enable
ICHOFFSET	QUANT	0	Ich Offset (V)
ICHFILTER	IQUANT	3	Ich Filter
VCHRANGE	IQUANT	2	Vch Range
VCHRANGEMODE	TOGGLE	F	Vch Auto Range
VCHOFFSETENABLE	TOGGLE	T	Vch Offset Enable
VCHOFFSET	QUANT	0	Vch Offset (V)
VCHFILTER	IQUANT	3	Vch Filter
ACHRANGE	IQUANT	2	Ach Range
ACHOFFSETENABLE	TOGGLE	F	Ach Offset Enable
ACHOFFSET	QUANT	0	Ach Offset (V)
ACHFILTER	IQUANT	3	Ach Filter
IERANGELOWERLIMIT	IQUANT	1	I/E Range Lower Limit
IERANGEMODE	TOGGLE	F	I/E AutoRange
IERANGE	IQUANT	4	I/E Range
POSFEEDENABLE	TOGGLE	F	Positive Feedback IR Comp
POSFEEDRESISTANCE	QUANT	0	Positive Feedback Resistance (ohm)
ACHSELECT	IQUANT	0	Ach Select
CABLEID	IQUANT	14	Cable ID
DCCALDATE	LABEL	8/19/2019	DC Calibration Date
ACCALDATE	LABEL	8/19/2019	AC Calibration Date
THERMOSELECT	IQUANT	1	Thermo Select
FRAMEWORKVERSION	QUANT	6.33	Framework Version
INSTRUMENTVERSION	LABEL	3.50	Instrument Version
ZCURVE	TABLE
	Pt	Time	Freq	Zreal	Zimag	Zsig	Zmod	Zphz	Idc	Vdc	IERange
	#	s	Hz	ohm	ohm	V	ohm	°	A	V	#
	0	1	1000078	1340.604	-2787.015	1	3092.68	-64.31161	1.106528E-005	0.0028108	8
	1	2	794390.6	1527.21	-3336.262	1	3669.198	-65.40354	-4.580509E-006	0.0041544	8
	2	2	630984.4	1745.141	-3988.147	1	4353.255	-66.36668	4.476598E-007	0.003907	8
	3	2	501234.4	1988.035	-4788.838	1	5185.1	-67.45473	-7.445153E-007	0.0028728	8
	4	3	398109.4	2282.283	-5779.75	1	6214.042	-68.45213	-4.770414E-006	0.0034931	8
	5	3	316265.6	2707.528	-6952.725	1	7461.306	-68.72308	-4.420864E-006	0.0034803	8
	6	3	251203.1	3173.892	-8345.358	1	8928.527	-69.17728	-4.449829E-006	0.0034537	8
	7	4	199546.9	3756.708	-10072.33	1	10750.11	-69.54585	-2.65727E-006	0.0030135	8
	8	4	158578.1	4782.286	-12310.67	1	13206.93	-68.77052	2.421213E-006	0.002545	8
	9	5	125953.1	5983.426	-14284.25	1	15486.81	-67.27203	-9.908949E-007	0.0076121	7
	10	5	100078.1	7188.312	-17221.86	1	18661.84	-67.3446	-8.280927E-007	0.0051704	7
	11	6	79453.13	8717.108	-20729.54	1	22487.82	-67.19246	1.115863E-006	0.0027587	7
	12	6	63140.62	10771.15	-24924.59	1	27152.4	-66.62845	1.462963E-006	0.0010522	7
	13	6	50203.12	13541.29	-29370.94	1	32342.21	-65.24822	1.482506E-006	0.0015019	7
	14	7	39890.62	16987.35	-34672.14	1	38609.94	-63.89781	1.464117E-006	0.0010496	7
	15	7	31640.63	21948.12	-39063.33	1	44806.96	-60.67011	-1.188037E-006	0.0052557	7
	16	7	25171.88	27271.4	-45543.85	1	53084.57	-59.08706	-1.603173E-006	0.0044356	7
	17	8	20015.62	34255.23	-49035.71	1	59815.73	-55.06273	7.523224E-008	0.0043493	7
	18	8	15890.62	40466.7	-61005.05	1	73206.35	-56.44235	1.316325E-006	0.0007416	7
	19	9	12609.37	50921.19	-66015.74	1	83372.93	-52.35523	2.132561E-007	0.0020687	6
	20	9	10078.13	60652.68	-71661.05	1	93883.19	-49.756	-2.323379E-007	0.0072164	6
	21	9	8015.625	71396.45	-77166.28	1	105128.9	-47.22412	-2.740886E-007	0.0069031	6
	22	10	6328.125	87158.57	-86533.15	1	122819.4	-44.79369	-5.846655E-008	0.000972	6
	23	10	5015.625	102200.7	-91453.16	1	137144.7	-41.82343	-1.362718E-007	0.0021566	6
	24	10	3984.375	116124.1	-97117.4	1	151382.3	-39.90656	-8.003068E-008	0.0063851	6
	25	11	3170.956	136204.2	-97000.2	1	167214.3	-35.45724	-1.645288E-007	0.0070062	6
	26	11	2527.573	153262.8	-96476.9	1	181100.2	-32.18987	-1.63608E-007	0.0070057	6
	27	12	1976.103	170599.4	-95500.3	1	195510.8	-29.23978	-1.633554E-007	0.0070059	6
	28	12	1577.524	187100.2	-101390.5	1	212806.3	-28.45348	-1.367613E-007	0.0021502	6
	29	12	1265.625	204384.4	-88825.32	1	222851.8	-23.48973	6.902414E-009	-0.0003055	5
	30	13	998.264	216316.4	-85940.05	1	232762.7	-21.66736	-1.267853E-008	0.0068747	5
	31	13	796.875	226569.2	-83845.23	1	241585.6	-20.30773	-2.12389E-008	0.0072649	5
	32	13	627.7902	240175.4	-83475.29	1	254268.3	-19.16539	2.470113E-008	-4.728892E-005	5
	33	14	505.5147	248337.3	-81928.98	1	261502.9	-18.25824	-1.350563E-008	0.0068738	5
	34	14	397.9953	260173.6	-82951.52	1	273077.3	-17.68392	7.528569E-010	0.0029852	5
	35	14	315.5048	269417.3	-83927.38	1	282187	-17.30256	-5.491443E-010	0.002986	5
	36	15	252.4038	279342.1	-85743.28	1	292205.3	-17.06372	-6.120958E-010	0.002978	5
	37	15	198.6229	288249.9	-90128.19	1	302011.8	-17.36309	1.844771E-010	0.0029817	5
	38	15	158.3615	299341.4	-92349.4	1	313263	-17.14544	2.401151E-010	0.0029818	5
	39	15	125.558	311449.5	-98830.5	1	326754.1	-17.6055	2.88083E-010	0.0029834	5
	40	16	100.4464	327478.4	-108820.1	1	345085.4	-18.3815	-3.120479E-010	0.0029904	5
	41	16	79.00281	335251.7	-123738.5	1	357358.2	-20.25867	-6.850085E-010	0.0029857	5
	42	16	63.3446	334257.7	-98489	1	348465.7	-16.41761	5.576318E-010	0.0029766	5
	43	17	49.86702	359076.5	-140676.1	1	385649.7	-21.39385	1.576796E-010	0.002977	5
	44	17	39.72458	380985	-158672.5	1	412706.4	-22.61073	2.256705E-010	0.0029896	5
	45	18	31.6723	402855.8	-171197.3	1	437722.8	-23.02351	4.123768E-010	0.00299	5
	46	18	24.93351	420325.6	-194517.5	1	463153	-24.83366	1.882122E-010	0.0029749	5
	47	18	19.86229	440932.4	-219853.3	1	492703.6	-26.5013	4.356593E-010	0.0029852	5
	48	19	15.83615	482984.4	-261967.7	1	549455.3	-28.47512	8.510653E-010	0.0029709	5
	49	19	12.40079	523487.2	-285330.9	1	596198.4	-28.59295	-3.523386E-010	0.002973	5
	50	19	9.93114	538620.7	-297553.5	1	615345.7	-28.91784	7.969308E-011	0.002971	6
	51	20	7.944915	585536	-333689.2	1	673944.3	-29.67824	7.898729E-010	0.0029727	6
	52	21	6.317385	625216.4	-360608.2	1	721757.5	-29.9752	1.06712E-009	0.002975	6
	53	22	5.008013	672370.6	-395926.3	1	780281.9	-30.49176	-8.186236E-011	0.0029875	6
	54	24	3.945707	727505.3	-436821.5	1	848573.5	-30.98219	8.59577E-010	0.0029675	6
	55	25	3.158693	777654.2	-478760.5	1	913212.8	-31.61841	5.315389E-010	0.0029617	6
	56	27	2.504006	836940.3	-526464.6	1	988754	-32.17132	1.325175E-010	0.0029685	4
	57	29	1.998082	898835.9	-581549.2	1	1070563	-32.90297	2.209077E-010	0.0029985	4
	58	30	1.584686	962223	-644619.8	1	1158192	-33.81921	4.305987E-011	0.0029536	4
	59	32	1.266892	1032071	-712558.6	1	1254157	-34.62184	8.373144E-012	0.0029346	4
	60	35	0.999041	1109907	-801963.6	1	1369320	-35.85001	-5.093036E-011	0.0029382	4
