EXPLAIN
TAG	EISPOT
TITLE	LABEL	Potentiostatic EIS	Test &Identifier
DATE	LABEL	10/6/2019	Date
TIME	LABEL	8:48:18	Time
NOTES	NOTES	2	&Notes...
	
	
PSTAT	PSTAT	REF600-11020	Potentiostat
VDC	POTEN	0.00000E+000	T	DC &Voltage (V)
FREQINIT	QUANT	1.00000E+006	Initial Fre&q. (Hz)
FREQFINAL	QUANT	1.00000E+000	Final Fre&q. (Hz)
PTSPERDEC	QUANT	1.00000E+001	Points/&decade
VAC	QUANT	2.50000E+001	AC &Voltage (mV rms)
AREA	QUANT	1.00000E-002	&Area (cm^2)
CONDIT	TWOPARAM	T	5.00000E+000	0.00000E+000	Conditionin&g	Time(s)	E(V)
DELAY	TWOPARAM	T	5.00000E+000	0.00000E+000	Init. De&lay	Time(s)	Stab.(mV/s)
SPEED	SELECTOR	1	&Optimize for:
ZGUESS	QUANT	1.00000E+004	E&stimated Z (ohms)
OCVCURVE	TABLE	19
	Pt	T	Vf	Vm	Ach	Over
	#	s	V vs. Ref.	V	V	bits
	0	0.258333	7.24982E-003	7.24982E-003	5.11500E-004	...........
	1	0.516667	7.24964E-003	7.24007E-003	5.10133E-004	...........
	2	0.775	7.24973E-003	7.29553E-003	5.09700E-004	...........
	3	1.03333	7.25503E-003	7.39738E-003	5.12967E-004	...........
	4	1.29167	7.27690E-003	7.51552E-003	5.09900E-004	...........
	5	1.55	7.32642E-003	7.62608E-003	5.11900E-004	...........
	6	1.80833	7.40466E-003	7.71646E-003	5.09067E-004	...........
	7	2.06667	7.50162E-003	7.80483E-003	5.07500E-004	...........
	8	2.325	7.60414E-003	7.90491E-003	5.12133E-004	...........
	9	2.58333	7.70437E-003	7.99713E-003	5.08033E-004	...........
	10	2.84167	7.80096E-003	8.07958E-003	5.09200E-004	...........
	11	3.1	7.89457E-003	8.16809E-003	5.11733E-004	...........
	12	3.35833	7.98544E-003	8.25460E-003	5.10000E-004	...........
	13	3.61667	8.07384E-003	8.33152E-003	5.07667E-004	...........
	14	3.875	8.15997E-003	8.41030E-003	5.10533E-004	...........
	15	4.13333	8.24360E-003	8.48757E-003	5.05833E-004	...........
	16	4.39167	8.32463E-003	8.56390E-003	5.06500E-004	...........
	17	4.65	8.40345E-003	8.63363E-003	5.13000E-004	...........
	18	4.90833	8.48035E-003	8.70854E-003	5.11467E-004	...........
EOC	QUANT	0.0084803	Open Circuit (V)
PSTATMODEL	IQUANT	4	Pstat Model
PSTATSECTION	LABEL	REF600-11020	Pstat Section
PSTATSERIALNO	LABEL	11020	Pstat Serial Number
CTRLMODE	IQUANT	1	Control Mode
IESTAB	IQUANT	0	I/E Stability
CASPEED	IQUANT	1	Control Amp Speed
CONVENTION	IQUANT	1	Current Convention
ICHRANGE	IQUANT	2	Ich Range
ICHRANGEMODE	TOGGLE	F	Ich Auto Range
ICHOFFSETENABLE	TOGGLE	T	Ich Offset Enable
ICHOFFSET	QUANT	0	Ich Offset (V)
ICHFILTER	IQUANT	3	Ich Filter
VCHRANGE	IQUANT	2	Vch Range
VCHRANGEMODE	TOGGLE	F	Vch Auto Range
VCHOFFSETENABLE	TOGGLE	T	Vch Offset Enable
VCHOFFSET	QUANT	0	Vch Offset (V)
VCHFILTER	IQUANT	3	Vch Filter
ACHRANGE	IQUANT	2	Ach Range
ACHOFFSETENABLE	TOGGLE	F	Ach Offset Enable
ACHOFFSET	QUANT	0	Ach Offset (V)
ACHFILTER	IQUANT	3	Ach Filter
IERANGELOWERLIMIT	IQUANT	1	I/E Range Lower Limit
IERANGEMODE	TOGGLE	F	I/E AutoRange
IERANGE	IQUANT	6	I/E Range
POSFEEDENABLE	TOGGLE	F	Positive Feedback IR Comp
POSFEEDRESISTANCE	QUANT	0	Positive Feedback Resistance (ohm)
ACHSELECT	IQUANT	0	Ach Select
CABLEID	IQUANT	14	Cable ID
DCCALDATE	LABEL	8/19/2019	DC Calibration Date
ACCALDATE	LABEL	8/19/2019	AC Calibration Date
THERMOSELECT	IQUANT	1	Thermo Select
FRAMEWORKVERSION	QUANT	6.33	Framework Version
INSTRUMENTVERSION	LABEL	3.50	Instrument Version
ZCURVE	TABLE
	Pt	Time	Freq	Zreal	Zimag	Zsig	Zmod	Zphz	Idc	Vdc	IERange
	#	s	Hz	ohm	ohm	V	ohm	°	A	V	#
	0	1	1000078	2087.889	-1078.291	1	2349.892	-27.3141	-4.823682E-006	0.0119535	8
	1	3	794390.6	2273.015	-990.213	1	2479.338	-23.53979	6.455866E-006	0.0095739	8
	2	4	630984.4	2420.372	-880.4304	1	2575.531	-19.98928	-2.536595E-006	0.0101992	8
	3	5	501234.4	2543.999	-766.2582	1	2656.893	-16.76242	-5.808589E-007	0.0100778	8
	4	7	398109.4	2640.269	-667.176	1	2723.26	-14.18134	-2.106437E-006	0.0105105	8
	5	8	316265.6	2711.654	-575.7834	1	2772.11	-11.98794	-3.378113E-007	0.010068	8
	6	10	251203.1	2770.531	-504.7726	1	2816.139	-10.32566	-1.070082E-006	0.0104566	8
	7	11	199546.9	2809.371	-442.8758	1	2844.065	-8.958516	-2.948658E-006	0.0106581	8
	8	12	158578.1	2848.973	-391.0706	1	2875.688	-7.815988	-3.050269E-007	0.010196	8
	9	14	125953.1	2902.153	-326.9676	1	2920.513	-6.428055	1.421002E-006	0.0072297	7
	10	15	100078.1	2916.51	-302.7122	1	2932.177	-5.925662	7.7066E-008	0.0098578	7
	11	16	79453.13	2941.293	-295.3041	1	2956.08	-5.73325	-3.127539E-008	0.0100128	7
	12	18	63140.62	2968.094	-295.225	1	2982.74	-5.680309	-1.102575E-008	0.0100351	7
	13	19	50203.12	2995.982	-300.7201	1	3011.037	-5.731834	-1.257592E-008	0.0100661	7
	14	20	39890.62	3025.582	-311.948	1	3041.621	-5.886594	-6.943957E-009	0.0099596	7
	15	22	31640.63	3057.487	-330.0463	1	3075.25	-6.161046	-5.670385E-008	0.010079	7
	16	23	25171.88	3090.806	-354.2784	1	3111.044	-6.538894	7.90303E-008	0.0098457	7
	17	25	20015.62	3128.693	-388.0387	1	3152.664	-7.070053	8.014607E-008	0.0098406	7
	18	26	15890.62	3168.23	-423.2927	1	3196.382	-7.609961	7.976164E-008	0.0098393	7
	19	27	12609.37	3213.667	-470.2573	1	3247.891	-8.325031	4.268474E-008	0.0099624	7
	20	29	10078.13	3260.745	-522.9092	1	3302.407	-9.110662	-4.293947E-008	0.0100994	7
	21	30	8015.625	3310.541	-588.283	1	3362.404	-10.07628	1.210641E-007	0.0098163	7
	22	31	6328.125	3371.636	-665.3222	1	3436.653	-11.16272	-2.768738E-008	0.009986	7
	23	33	5015.625	3433.197	-756.6925	1	3515.597	-12.42953	1.223565E-007	0.0098161	7
	24	34	3984.375	3496.41	-864.6495	1	3601.736	-13.89036	-7.510478E-008	0.01011	7
	25	35	3170.956	3565.64	-994.152	1	3701.639	-15.57925	-1.8198E-009	0.0099508	7
	26	37	2527.573	3636.193	-1150.526	1	3813.87	-17.55786	-4.213778E-008	0.0100973	7
	27	38	1976.103	3719.15	-1357.485	1	3959.146	-20.05202	-1.026622E-008	0.0100223	7
	28	39	1577.524	3799.023	-1593.615	1	4119.731	-22.75709	5.751174E-008	0.0099036	7
	29	41	1265.625	3880.319	-1875.642	1	4309.862	-25.79788	-5.645225E-008	0.0100733	7
	30	42	998.264	3977.927	-2254.36	1	4572.313	-29.54098	1.235629E-007	0.0098145	7
	31	43	796.875	4081.94	-2700.917	1	4894.608	-33.4916	-4.133299E-008	0.0100935	7
	32	45	627.7902	4204.33	-3291.417	1	5339.458	-38.0561	1.47356E-008	0.0100902	7
	33	46	505.5147	4339.753	-3950.105	1	5868.287	-42.30891	-7.073633E-009	0.010029	7
	34	47	397.9953	4515.386	-4848.508	1	6625.461	-47.03745	6.144408E-009	0.010029	7
	35	48	315.5048	4725.906	-5934.195	1	7586.096	-51.46669	5.07329E-009	0.0100197	7
	36	50	252.4038	4979.512	-7221.218	1	8771.633	-55.41114	5.207688E-009	0.0100225	7
	37	51	198.6229	5328.085	-8921.399	1	10391.34	-59.15328	9.306597E-010	0.0099647	6
	38	52	158.3615	5748.987	-10901.32	1	12324.35	-62.19434	9.506571E-010	0.0099593	6
	39	54	125.558	6310.433	-13384.52	1	14797.53	-64.75741	1.08933E-009	0.0099626	6
	40	55	100.4464	7017.365	-16292.65	1	17739.61	-66.6981	1.923581E-009	0.0099599	6
	41	57	79.00281	7984.658	-20122.24	1	21648.54	-68.35645	1.469571E-009	0.0099615	6
	42	58	63.3446	9209.046	-24205.07	1	25897.72	-69.17021	1.081476E-009	0.0099589	6
	43	59	49.86702	10922.91	-29992.88	1	31919.95	-69.98921	1.421355E-009	0.0099598	6
	44	61	39.72458	12912.98	-36229.61	1	38462.06	-70.38288	1.318408E-009	0.0099626	6
	45	62	31.6723	15578.37	-43692.23	1	46386.38	-70.37642	8.800978E-010	0.0099653	6
	46	63	24.93351	19332.06	-53208.88	1	56611.96	-70.03271	1.136474E-009	0.0099644	6
	47	65	19.86229	23843.21	-63805	1	68114.43	-69.50985	1.433856E-009	0.0099709	6
	48	66	15.83615	29393.06	-76392.69	1	81852.27	-68.95513	2.038129E-009	0.0099595	6
	49	67	12.40079	37183.24	-92094.75	1	99317.9	-68.01362	4.440725E-010	0.0099569	6
	50	69	9.93114	45888.89	-107818	1	117177.3	-66.94469	8.470449E-010	0.0099688	5
	51	70	7.944915	56809.36	-126406.2	1	138585.1	-65.79994	1.187171E-009	0.0099656	5
	52	72	6.317385	69673.74	-148069.2	1	163642.6	-64.80074	8.746194E-010	0.0099572	5
	53	74	5.008013	85613.48	-173133	1	193144.2	-63.68781	6.948924E-010	0.0099763	5
	54	77	3.945707	104910.5	-202434.6	1	228004.3	-62.60482	3.325543E-010	0.0099651	5
	55	79	3.158693	125575	-233293.2	1	264943.1	-61.7077	5.515552E-010	0.0099867	5
	56	83	2.504006	150344.6	-270273.3	1	309275.2	-60.91418	1.066257E-011	0.0099584	5
	57	85	1.998082	177348.2	-311092.5	1	358093.5	-60.31331	-6.495819E-011	0.0099588	5
	58	88	1.584686	210106.1	-359049.1	1	416005.8	-59.66495	2.563438E-010	0.0100152	5
	59	92	1.266892	243591.9	-414150.5	1	480476.5	-59.53714	4.71134E-011	0.00995	5
	60	96	0.999041	286219.9	-481485.4	1	560133.9	-59.27055	5.485746E-010	0.0100025	5
