EXPLAIN
TAG	EISPOT
TITLE	LABEL	Potentiostatic IDE	Test &Identifier
DATE	LABEL	9/6/2019	Date
TIME	LABEL	8:03:36	Time
NOTES	NOTES	1	&Notes...
	
PSTAT	PSTAT	REF600-11020	Potentiostat
VDC	POTEN	0.00000E+000	T	DC &Voltage (V)
FREQINIT	QUANT	1.00000E+006	Initial Fre&q. (Hz)
FREQFINAL	QUANT	1.00000E+000	Final Fre&q. (Hz)
PTSPERDEC	QUANT	1.00000E+001	Points/&decade
VAC	QUANT	2.50000E+001	AC &Voltage (mV rms)
AREA	QUANT	1.00000E-002	&Area (cm^2)
CONDIT	TWOPARAM	T	5.00000E+000	0.00000E+000	Conditionin&g	Time(s)	E(V)
DELAY	TWOPARAM	T	5.00000E+000	0.00000E+000	Init. De&lay	Time(s)	Stab.(mV/s)
SPEED	SELECTOR	1	&Optimize for:
ZGUESS	QUANT	1.00000E+007	E&stimated Z (ohms)
OCVCURVE	TABLE	19
	Pt	T	Vf	Vm	Ach	Over
	#	s	V vs. Ref.	V	V	bits
	0	0.258333	5.64415E-003	5.64415E-003	5.71132E-004	...........
	1	0.516667	5.63873E-003	5.36006E-003	5.74466E-004	...........
	2	0.775	5.60538E-003	5.08986E-003	5.65299E-004	...........
	3	1.03333	5.51317E-003	4.94448E-003	5.68599E-004	...........
	4	1.29167	5.35796E-003	4.82472E-003	5.74332E-004	...........
	5	1.55	5.17302E-003	4.69747E-003	5.68566E-004	...........
	6	1.80833	4.99623E-003	4.57550E-003	5.69699E-004	...........
	7	2.06667	4.84226E-003	4.43531E-003	5.65766E-004	...........
	8	2.325	4.70912E-003	4.48946E-003	5.68632E-004	...........
	9	2.58333	4.60006E-003	4.49227E-003	5.73432E-004	...........
	10	2.84167	4.52332E-003	4.30099E-003	5.69999E-004	...........
	11	3.1	4.46592E-003	4.08599E-003	5.69866E-004	...........
	12	3.35833	4.39346E-003	4.05235E-003	5.67999E-004	...........
	13	3.61667	4.29061E-003	4.00219E-003	5.62499E-004	...........
	14	3.875	4.17837E-003	3.96570E-003	5.65366E-004	...........
	15	4.13333	4.08410E-003	3.92262E-003	5.67899E-004	...........
	16	4.39167	4.01506E-003	3.85012E-003	5.68366E-004	...........
	17	4.65	3.96234E-003	3.84346E-003	5.67466E-004	...........
	18	4.90833	3.91633E-003	3.78096E-003	5.65966E-004	...........
EOC	QUANT	0.0039163	Open Circuit (V)
PSTATMODEL	IQUANT	4	Pstat Model
PSTATSECTION	LABEL	REF600-11020	Pstat Section
PSTATSERIALNO	LABEL	11020	Pstat Serial Number
CTRLMODE	IQUANT	1	Control Mode
IESTAB	IQUANT	0	I/E Stability
CASPEED	IQUANT	1	Control Amp Speed
CONVENTION	IQUANT	1	Current Convention
ICHRANGE	IQUANT	2	Ich Range
ICHRANGEMODE	TOGGLE	F	Ich Auto Range
ICHOFFSETENABLE	TOGGLE	T	Ich Offset Enable
ICHOFFSET	QUANT	0	Ich Offset (V)
ICHFILTER	IQUANT	3	Ich Filter
VCHRANGE	IQUANT	2	Vch Range
VCHRANGEMODE	TOGGLE	F	Vch Auto Range
VCHOFFSETENABLE	TOGGLE	T	Vch Offset Enable
VCHOFFSET	QUANT	0	Vch Offset (V)
VCHFILTER	IQUANT	3	Vch Filter
ACHRANGE	IQUANT	2	Ach Range
ACHOFFSETENABLE	TOGGLE	F	Ach Offset Enable
ACHOFFSET	QUANT	0	Ach Offset (V)
ACHFILTER	IQUANT	3	Ach Filter
IERANGELOWERLIMIT	IQUANT	1	I/E Range Lower Limit
IERANGEMODE	TOGGLE	F	I/E AutoRange
IERANGE	IQUANT	2	I/E Range
POSFEEDENABLE	TOGGLE	F	Positive Feedback IR Comp
POSFEEDRESISTANCE	QUANT	0	Positive Feedback Resistance (ohm)
ACHSELECT	IQUANT	0	Ach Select
CABLEID	IQUANT	14	Cable ID
DCCALDATE	LABEL	8/19/2019	DC Calibration Date
ACCALDATE	LABEL	8/19/2019	AC Calibration Date
THERMOSELECT	IQUANT	1	Thermo Select
FRAMEWORKVERSION	QUANT	6.33	Framework Version
INSTRUMENTVERSION	LABEL	3.50	Instrument Version
ZCURVE	TABLE
	Pt	Time	Freq	Zreal	Zimag	Zsig	Zmod	Zphz	Idc	Vdc	IERange
	#	s	Hz	ohm	ohm	V	ohm	°	A	V	#
	0	2	1000078	2347.909	-1761.099	1	2934.987	-36.87251	7.559875E-007	0.0061092	8
	1	3	794390.6	2714.375	-1677.355	1	3190.823	-31.71409	4.578248E-007	0.0058155	8
	2	4	630984.4	3023.952	-1549.14	1	3397.664	-27.12561	1.215892E-006	0.0055785	8
	3	6	501234.4	3283.557	-1374.348	1	3559.576	-22.71198	2.565633E-006	0.0052221	8
	4	7	398109.4	3500.359	-1205.128	1	3702.006	-18.99791	-1.360812E-006	0.0058761	8
	5	8	316265.6	3638.959	-1027.362	1	3781.203	-15.76559	1.114383E-006	0.0054053	8
	6	10	251203.1	3743.042	-904.433	1	3850.762	-13.58403	1.216902E-006	0.0053992	8
	7	11	199546.9	3805.995	-769.824	1	3883.069	-11.43473	-1.30246E-006	0.0057901	8
	8	12	158578.1	3887.322	-675.9116	1	3945.646	-9.86374	2.036937E-007	0.0055594	8
	9	14	125953.1	3961.096	-569.684	1	4001.852	-8.184147	4.32954E-007	0.0044806	7
	10	15	100078.1	3998.252	-515.895	1	4031.398	-7.352259	-2.854217E-008	0.0056365	7
	11	16	79453.13	4035.805	-487.3672	1	4065.125	-6.885744	-3.765349E-009	0.0056302	7
	12	18	63140.62	4071.453	-468.4444	1	4098.313	-6.563354	-4.332386E-008	0.0056662	7
	13	19	50203.12	4109.379	-464.9195	1	4135.595	-6.45478	4.073913E-008	0.0056012	7
	14	20	39890.62	4144.533	-472.8428	1	4171.418	-6.508638	-2.769829E-008	0.0056405	7
	15	22	31640.63	4183.307	-493.6378	1	4212.332	-6.729884	-2.744358E-008	0.0056404	7
	16	23	25171.88	4221.171	-528.5319	1	4254.131	-7.136851	3.229112E-008	0.005497	7
	17	24	20015.62	4264.422	-576.0323	1	4303.151	-7.692873	-1.481689E-008	0.0055891	7
	18	26	15890.62	4308.907	-642.5531	1	4356.553	-8.481564	-2.755923E-008	0.0056303	7
	19	27	12609.37	4359.691	-724.1196	1	4419.418	-9.430409	-2.873907E-008	0.0056141	7
	20	28	10078.13	4412.535	-823.7407	1	4488.765	-10.57437	-9.584919E-009	0.005637	7
	21	30	8015.625	4473.266	-953.049	1	4573.665	-12.02729	5.200316E-008	0.0055078	7
	22	31	6328.125	4545.574	-1113.852	1	4680.054	-13.76851	8.88863E-008	0.0054729	7
	23	32	5015.625	4627.561	-1308.263	1	4808.937	-15.78619	3.483989E-008	0.0054958	7
	24	34	3984.375	4720.665	-1541.078	1	4965.843	-18.07946	-2.871878E-008	0.0056205	7
	25	35	3170.956	4830.982	-1823.348	1	5163.622	-20.67791	-3.564471E-008	0.0056614	7
	26	36	2527.573	4958.821	-2156.974	1	5407.628	-23.50794	-2.554959E-008	0.0056225	7
	27	38	1976.103	5127.251	-2598.841	1	5748.276	-26.879	-1.142268E-008	0.0056031	7
	28	39	1577.524	5307.373	-3083.775	1	6138.23	-30.15813	3.550092E-008	0.0054986	7
	29	40	1265.625	5520.352	-3646.711	1	6616.101	-33.44851	-2.671696E-008	0.0056349	7
	30	42	998.264	5792.08	-4375.652	1	7259.099	-37.06939	-2.221198E-008	0.005704	7
	31	43	796.875	6090.148	-5192.868	1	8003.486	-40.45313	-2.879958E-008	0.0056154	7
	32	44	627.7902	6470.161	-6236.784	1	8986.683	-43.94782	-2.802736E-008	0.0056343	7
	33	46	505.5147	6873.728	-7359.454	1	10070.24	-46.95453	-6.235556E-009	0.0055948	6
	34	47	397.9953	7384.667	-8858.864	1	11533.12	-50.18573	8.270956E-010	0.005548	6
	35	48	315.5048	7962.827	-10611.59	1	13266.97	-53.11581	8.508474E-010	0.0055499	6
	36	50	252.4038	8606.077	-12641.61	1	15292.97	-55.75399	9.389202E-010	0.0055491	6
	37	51	198.6229	9411.456	-15284.42	1	17949.63	-58.37712	8.230766E-010	0.0055515	6
	38	52	158.3615	10309.86	-18323.73	1	21025.04	-60.6357	9.241117E-010	0.0055444	6
	39	54	125.558	11393.27	-22100.84	1	24864.71	-62.7283	9.634112E-010	0.0055483	6
	40	55	100.4464	12649.84	-26505.24	1	29369.14	-64.48682	9.70066E-010	0.0055443	6
	41	56	79.00281	14251.1	-32266.05	1	35273.11	-66.17016	8.012218E-010	0.0055426	6
	42	58	63.3446	16002.8	-38637.1	1	41820.03	-67.50153	5.151451E-010	0.0055465	6
	43	59	49.86702	18512.09	-47265.89	1	50761.81	-68.61178	7.157959E-010	0.005548	6
	44	60	39.72458	21242.47	-57011.66	1	60840.54	-69.56467	7.398216E-010	0.0055507	6
	45	62	31.6723	24610.65	-68885.49	1	73149.81	-70.33977	9.505132E-010	0.0055479	6
	46	63	24.93351	29153.04	-84005.06	1	88919.91	-70.86123	8.125673E-010	0.0055397	6
	47	65	19.86229	34495.02	-101441	1	107145.6	-71.21939	1.034359E-009	0.0055539	5
	48	66	15.83615	41301.19	-122417.9	1	129197.3	-71.3567	8.908723E-010	0.0055434	5
	49	67	12.40079	50422.37	-149676.6	1	157941.5	-71.3826	4.888357E-010	0.0055534	5
	50	69	9.93114	61187.26	-179833.3	1	189957.6	-71.20942	5.83749E-010	0.0055445	5
	51	70	7.944915	75020.2	-215347	1	228040.3	-70.79325	3.206225E-010	0.0055479	5
	52	72	6.317385	92956.91	-258587.1	1	274787.7	-70.2275	1.783191E-010	0.0055454	5
	53	74	5.008013	116914	-310685.5	1	331955.3	-69.37818	4.286095E-010	0.0055547	5
	54	76	3.945707	148392.6	-373442.3	1	401845.1	-68.3289	2.608652E-010	0.0055474	5
	55	79	3.158693	185479.4	-440159.2	1	477642.9	-67.14985	2.384886E-010	0.0055714	5
	56	82	2.504006	234089.9	-520762.4	1	570956.8	-65.79543	-3.137959E-011	0.0055425	5
	57	85	1.998082	292081.5	-607359.6	1	673941.6	-64.31693	-2.190531E-013	0.0055263	5
	58	88	1.584686	366813.8	-704420.6	1	794204.5	-62.4926	1.573106E-010	0.0055984	5
	59	92	1.266892	448378.7	-809763.9	1	925613.9	-61.02603	-6.279877E-011	0.0055482	5
	60	96	0.999041	552694.7	-930741.1	1	1082474	-59.29722	3.21175E-010	0.0055635	4
