EXPLAIN
TAG	EISPOT
TITLE	LABEL	Potentiostatic IDE	Test &Identifier
DATE	LABEL	9/8/2019	Date
TIME	LABEL	8:56:04	Time
NOTES	NOTES	1	&Notes...
	
PSTAT	PSTAT	REF600-11020	Potentiostat
VDC	POTEN	0.00000E+000	T	DC &Voltage (V)
FREQINIT	QUANT	1.00000E+006	Initial Fre&q. (Hz)
FREQFINAL	QUANT	1.00000E+000	Final Fre&q. (Hz)
PTSPERDEC	QUANT	1.00000E+001	Points/&decade
VAC	QUANT	2.50000E+001	AC &Voltage (mV rms)
AREA	QUANT	1.00000E-002	&Area (cm^2)
CONDIT	TWOPARAM	T	5.00000E+000	0.00000E+000	Conditionin&g	Time(s)	E(V)
DELAY	TWOPARAM	T	5.00000E+000	0.00000E+000	Init. De&lay	Time(s)	Stab.(mV/s)
SPEED	SELECTOR	1	&Optimize for:
ZGUESS	QUANT	1.00000E+007	E&stimated Z (ohms)
OCVCURVE	TABLE	19
	Pt	T	Vf	Vm	Ach	Over
	#	s	V vs. Ref.	V	V	bits
	0	0.258333	-1.56021E-003	-1.56021E-003	5.61899E-004	...........
	1	0.516667	-1.56921E-003	-2.03175E-003	5.56966E-004	...........
	2	0.775	-1.62423E-003	-2.46291E-003	5.61566E-004	...........
	3	1.03333	-1.77854E-003	-2.86017E-003	5.61166E-004	...........
	4	1.29167	-2.05111E-003	-3.23166E-003	5.63999E-004	...........
	5	1.55	-2.40742E-003	-3.58073E-003	5.63266E-004	...........
	6	1.80833	-2.79447E-003	-3.90924E-003	5.62866E-004	...........
	7	2.06667	-3.17580E-003	-4.25332E-003	5.65766E-004	...........
	8	2.325	-3.53865E-003	-4.57458E-003	5.63799E-004	...........
	9	2.58333	-3.88416E-003	-4.85913E-003	5.65899E-004	...........
	10	2.84167	-4.21451E-003	-5.13233E-003	5.65599E-004	...........
	11	3.1	-4.52842E-003	-5.40275E-003	5.68266E-004	...........
	12	3.35833	-4.82496E-003	-5.66243E-003	5.57833E-004	...........
	13	3.61667	-5.10636E-003	-5.91171E-003	5.63732E-004	...........
	14	3.875	-5.37578E-003	-6.15004E-003	5.64032E-004	...........
	15	4.13333	-5.63506E-003	-6.38114E-003	5.71699E-004	...........
	16	4.39167	-5.88473E-003	-6.60002E-003	5.70099E-004	...........
	17	4.65	-6.12478E-003	-6.80830E-003	5.70832E-004	...........
	18	4.90833	-6.35500E-003	-7.00976E-003	5.64266E-004	...........
EOC	QUANT	-0.006355	Open Circuit (V)
PSTATMODEL	IQUANT	4	Pstat Model
PSTATSECTION	LABEL	REF600-11020	Pstat Section
PSTATSERIALNO	LABEL	11020	Pstat Serial Number
CTRLMODE	IQUANT	1	Control Mode
IESTAB	IQUANT	0	I/E Stability
CASPEED	IQUANT	1	Control Amp Speed
CONVENTION	IQUANT	1	Current Convention
ICHRANGE	IQUANT	2	Ich Range
ICHRANGEMODE	TOGGLE	F	Ich Auto Range
ICHOFFSETENABLE	TOGGLE	T	Ich Offset Enable
ICHOFFSET	QUANT	0	Ich Offset (V)
ICHFILTER	IQUANT	3	Ich Filter
VCHRANGE	IQUANT	2	Vch Range
VCHRANGEMODE	TOGGLE	F	Vch Auto Range
VCHOFFSETENABLE	TOGGLE	T	Vch Offset Enable
VCHOFFSET	QUANT	0	Vch Offset (V)
VCHFILTER	IQUANT	3	Vch Filter
ACHRANGE	IQUANT	2	Ach Range
ACHOFFSETENABLE	TOGGLE	F	Ach Offset Enable
ACHOFFSET	QUANT	0	Ach Offset (V)
ACHFILTER	IQUANT	3	Ach Filter
IERANGELOWERLIMIT	IQUANT	1	I/E Range Lower Limit
IERANGEMODE	TOGGLE	F	I/E AutoRange
IERANGE	IQUANT	3	I/E Range
POSFEEDENABLE	TOGGLE	F	Positive Feedback IR Comp
POSFEEDRESISTANCE	QUANT	0	Positive Feedback Resistance (ohm)
ACHSELECT	IQUANT	0	Ach Select
CABLEID	IQUANT	14	Cable ID
DCCALDATE	LABEL	8/19/2019	DC Calibration Date
ACCALDATE	LABEL	8/19/2019	AC Calibration Date
THERMOSELECT	IQUANT	1	Thermo Select
FRAMEWORKVERSION	QUANT	6.33	Framework Version
INSTRUMENTVERSION	LABEL	3.50	Instrument Version
ZCURVE	TABLE
	Pt	Time	Freq	Zreal	Zimag	Zsig	Zmod	Zphz	Idc	Vdc	IERange
	#	s	Hz	ohm	ohm	V	ohm	°	A	V	#
	0	2	1000078	2566.801	-1587.51	1	3018.055	-31.73589	4.109807E-006	-0.0043704	8
	1	4	794390.6	2851.82	-1464.052	1	3205.671	-27.17482	-5.628369E-008	-0.0045294	8
	2	5	630984.4	3105.661	-1341.704	1	3383.09	-23.36525	-1.791363E-006	-0.0040602	8
	3	6	501234.4	3324.636	-1160.922	1	3521.497	-19.24857	-1.083827E-006	-0.0044441	8
	4	8	398109.4	3473.946	-1025.38	1	3622.113	-16.44465	1.51194E-006	-0.0048036	8
	5	9	316265.6	3599.667	-864.085	1	3701.924	-13.49822	-3.728802E-006	-0.0038637	8
	6	11	251203.1	3683.634	-748.7594	1	3758.962	-11.48978	2.203115E-006	-0.0051465	8
	7	12	199546.9	3759.776	-636.272	1	3813.235	-9.60524	-3.607486E-006	-0.0038865	8
	8	13	158578.1	3810.326	-571.3489	1	3852.924	-8.527824	2.128383E-006	-0.0050221	8
	9	15	125953.1	3882.714	-443.0709	1	3907.913	-6.510073	-1.349109E-006	-0.0021052	7
	10	16	100078.1	3902.936	-396.3221	1	3923.007	-5.798203	-6.796942E-008	-0.0045545	7
	11	17	79453.13	3930.981	-369.7216	1	3948.329	-5.373049	-3.955307E-008	-0.0045158	7
	12	19	63140.62	3961.452	-353.7476	1	3977.215	-5.102832	-1.13789E-008	-0.0046068	7
	13	20	50203.12	3990.229	-345.4754	1	4005.156	-4.948349	-2.280702E-008	-0.004673	7
	14	21	39890.62	4025.207	-348.6645	1	4040.28	-4.950619	-2.204912E-008	-0.0046748	7
	15	23	31640.63	4049.083	-353.6968	1	4064.502	-4.992248	7.982879E-008	-0.0046897	7
	16	24	25171.88	4079.558	-370.671	1	4096.363	-5.191672	-1.588417E-008	-0.0046041	7
	17	25	20015.62	4113.125	-394.5848	1	4132.009	-5.479791	1.507604E-007	-0.0048915	7
	18	27	15890.62	4140.426	-435.6936	1	4163.287	-6.00708	9.781564E-008	-0.004861	7
	19	28	12609.37	4185.125	-473.8426	1	4211.863	-6.459559	-4.674936E-008	-0.0046296	7
	20	29	10078.13	4223.521	-529.6802	1	4256.605	-7.148257	-5.711797E-008	-0.0045506	7
	21	31	8015.625	4266.274	-597.8347	1	4307.958	-7.976937	-6.459484E-009	-0.0046249	7
	22	32	6328.125	4312.646	-686.6182	1	4366.963	-9.04616	2.726855E-008	-0.0047655	7
	23	33	5015.625	4362.802	-795.1771	1	4434.675	-10.32951	3.840132E-008	-0.0046969	7
	24	35	3984.375	4418.816	-926.6404	1	4514.93	-11.8435	2.827026E-008	-0.0047669	7
	25	36	3170.956	4479.837	-1088.032	1	4610.071	-13.65129	-3.151449E-008	-0.0046503	7
	26	37	2527.573	4549.557	-1281.946	1	4726.717	-15.73644	2.623091E-008	-0.0047713	7
	27	39	1976.103	4635.764	-1542.285	1	4885.585	-18.40191	-5.759771E-008	-0.00456	7
	28	40	1577.524	4727.666	-1837.667	1	5072.263	-21.24135	3.76137E-008	-0.0047037	7
	29	41	1265.625	4834.352	-2178.85	1	5302.673	-24.26117	-2.082862E-008	-0.004512	7
	30	43	998.264	4966.063	-2626.746	1	5617.969	-27.87613	-4.203604E-008	-0.0046092	7
	31	44	796.875	5112.624	-3145.631	1	6002.826	-31.60263	-5.60725E-008	-0.0045522	7
	32	45	627.7902	5293.685	-3809.365	1	6521.837	-35.739	9.79247E-008	-0.0048662	7
	33	47	505.5147	5488.538	-4543.978	1	7125.432	-39.62147	-2.007651E-008	-0.0046783	7
	34	48	397.9953	5734.45	-5529.288	1	7965.987	-43.95651	6.06093E-009	-0.0046525	7
	35	49	315.5048	6011.987	-6700.139	1	9001.991	-48.0986	7.314075E-009	-0.0046506	7
	36	51	252.4038	6324.276	-8075.778	1	10257.42	-51.93491	1.694617E-009	-0.0047157	6
	37	52	198.6229	6714.619	-9896.68	1	11959.53	-55.84421	1.411012E-009	-0.0047156	6
	38	53	158.3615	7155.247	-12016.6	1	13985.58	-59.22845	1.378428E-009	-0.0047177	6
	39	55	125.558	7709.036	-14697.59	1	16596.64	-62.32254	1.532095E-009	-0.0047168	6
	40	56	100.4464	8384.609	-17867.69	1	19737.17	-64.86116	1.570405E-009	-0.0047229	6
	41	57	79.00281	9288.564	-22082.67	1	23956.66	-67.18707	1.085915E-009	-0.0047242	6
	42	59	63.3446	10411.92	-26593.11	1	28558.73	-68.61832	9.430107E-010	-0.0047185	6
	43	60	49.86702	11921.18	-33156.96	1	35234.9	-70.22456	1.681542E-009	-0.0047244	6
	44	61	39.72458	13693.22	-40270.03	1	42534.45	-71.22017	1.389902E-009	-0.004718	6
	45	63	31.6723	16261.81	-49114.65	1	51736.79	-71.68034	4.479051E-010	-0.0047243	6
	46	64	24.93351	19549.45	-60321.28	1	63410.07	-72.04307	2.277243E-009	-0.0047248	6
	47	65	19.86229	23813.46	-73071.34	1	76853.77	-71.94956	1.795599E-009	-0.0047134	6
	48	67	15.83615	29890.5	-88430.15	1	93345.23	-71.3241	2.44576E-009	-0.0047215	6
	49	68	12.40079	37614.88	-108401.5	1	114742.2	-70.86343	1.530494E-009	-0.004717	5
	50	69	9.93114	46505.08	-128779.3	1	136919.1	-70.14422	9.379826E-010	-0.004714	5
	51	71	7.944915	58789.66	-153470.8	1	164345.7	-69.03979	5.937267E-010	-0.0047173	5
	52	73	6.317385	73584.98	-181824.8	1	196150.5	-67.96669	7.909549E-010	-0.0047219	5
	53	75	5.008013	93265.95	-215322.5	1	234653.6	-66.58038	4.89253E-010	-0.0047024	5
	54	77	3.945707	117906.8	-254333.1	1	280334.3	-65.12793	4.864498E-010	-0.0047047	5
	55	80	3.158693	146589.2	-295528.7	1	329887.2	-63.61751	-8.288797E-012	-0.0047064	5
	56	83	2.504006	181827.4	-343039.5	1	388249	-62.07426	-1.172005E-010	-0.0047207	5
	57	86	1.998082	222044.3	-394324.4	1	452543.3	-60.61611	-3.323049E-010	-0.0047374	5
	58	89	1.584686	271134.4	-450095.7	1	525452.2	-58.93555	-1.209894E-010	-0.0046664	5
	59	93	1.266892	323614.8	-511980	1	605681.5	-57.70364	-4.398572E-010	-0.0047382	5
	60	97	0.999041	387423.7	-581464.6	1	698711.8	-56.3249	1.053611E-011	-0.0046863	5
