EXPLAIN
TAG	EISPOT
TITLE	LABEL	Potentiostatic IDE	Test &Identifier
DATE	LABEL	9/16/2019	Date
TIME	LABEL	10:19:40	Time
NOTES	NOTES	1	&Notes...
	
PSTAT	PSTAT	REF600-11020	Potentiostat
VDC	POTEN	0.00000E+000	T	DC &Voltage (V)
FREQINIT	QUANT	1.00000E+006	Initial Fre&q. (Hz)
FREQFINAL	QUANT	1.00000E+000	Final Fre&q. (Hz)
PTSPERDEC	QUANT	1.00000E+001	Points/&decade
VAC	QUANT	2.50000E+001	AC &Voltage (mV rms)
AREA	QUANT	1.00000E-002	&Area (cm^2)
CONDIT	TWOPARAM	T	5.00000E+000	0.00000E+000	Conditionin&g	Time(s)	E(V)
DELAY	TWOPARAM	T	5.00000E+000	0.00000E+000	Init. De&lay	Time(s)	Stab.(mV/s)
SPEED	SELECTOR	1	&Optimize for:
ZGUESS	QUANT	1.00000E+007	E&stimated Z (ohms)
OCVCURVE	TABLE	19
	Pt	T	Vf	Vm	Ach	Over
	#	s	V vs. Ref.	V	V	bits
	0	0.258333	2.18249E-003	2.18249E-003	5.37833E-004	...........
	1	0.516667	2.17578E-003	1.83151E-003	5.44366E-004	...........
	2	0.775	2.13395E-003	1.46445E-003	5.53766E-004	...........
	3	1.03333	2.01952E-003	1.43054E-003	5.53299E-004	...........
	4	1.29167	1.82903E-003	9.75467E-004	5.41266E-004	...........
	5	1.55	1.58705E-003	5.09194E-004	5.45299E-004	...........
	6	1.80833	1.29818E-003	8.90479E-005	5.54966E-004	...........
	7	2.06667	9.56379E-004	-7.91372E-005	5.46166E-004	...........
	8	2.325	5.89435E-004	-2.91294E-004	5.45066E-004	...........
	9	2.58333	2.46865E-004	-6.02941E-004	5.46333E-004	...........
	10	2.84167	-5.10227E-005	-9.11809E-004	5.57566E-004	...........
	11	3.1	-3.24110E-004	-1.19535E-003	5.44199E-004	...........
	12	3.35833	-5.98927E-004	-1.52040E-003	5.40233E-004	...........
	13	3.61667	-8.83086E-004	-1.66272E-003	5.51433E-004	...........
	14	3.875	-1.16061E-003	-1.69841E-003	5.57599E-004	...........
	15	4.13333	-1.39966E-003	-1.79201E-003	5.48099E-004	...........
	16	4.39167	-1.57896E-003	-1.94501E-003	5.42366E-004	...........
	17	4.65	-1.70969E-003	-2.06522E-003	5.55333E-004	...........
	18	4.90833	-1.82238E-003	-2.22907E-003	5.55766E-004	...........
EOC	QUANT	-0.0018224	Open Circuit (V)
PSTATMODEL	IQUANT	4	Pstat Model
PSTATSECTION	LABEL	REF600-11020	Pstat Section
PSTATSERIALNO	LABEL	11020	Pstat Serial Number
CTRLMODE	IQUANT	1	Control Mode
IESTAB	IQUANT	0	I/E Stability
CASPEED	IQUANT	1	Control Amp Speed
CONVENTION	IQUANT	1	Current Convention
ICHRANGE	IQUANT	2	Ich Range
ICHRANGEMODE	TOGGLE	F	Ich Auto Range
ICHOFFSETENABLE	TOGGLE	T	Ich Offset Enable
ICHOFFSET	QUANT	0	Ich Offset (V)
ICHFILTER	IQUANT	3	Ich Filter
VCHRANGE	IQUANT	2	Vch Range
VCHRANGEMODE	TOGGLE	F	Vch Auto Range
VCHOFFSETENABLE	TOGGLE	T	Vch Offset Enable
VCHOFFSET	QUANT	0	Vch Offset (V)
VCHFILTER	IQUANT	3	Vch Filter
ACHRANGE	IQUANT	2	Ach Range
ACHOFFSETENABLE	TOGGLE	F	Ach Offset Enable
ACHOFFSET	QUANT	0	Ach Offset (V)
ACHFILTER	IQUANT	3	Ach Filter
IERANGELOWERLIMIT	IQUANT	1	I/E Range Lower Limit
IERANGEMODE	TOGGLE	F	I/E AutoRange
IERANGE	IQUANT	2	I/E Range
POSFEEDENABLE	TOGGLE	F	Positive Feedback IR Comp
POSFEEDRESISTANCE	QUANT	0	Positive Feedback Resistance (ohm)
ACHSELECT	IQUANT	0	Ach Select
CABLEID	IQUANT	14	Cable ID
DCCALDATE	LABEL	8/19/2019	DC Calibration Date
ACCALDATE	LABEL	8/19/2019	AC Calibration Date
THERMOSELECT	IQUANT	1	Thermo Select
FRAMEWORKVERSION	QUANT	6.33	Framework Version
INSTRUMENTVERSION	LABEL	3.50	Instrument Version
ZCURVE	TABLE
	Pt	Time	Freq	Zreal	Zimag	Zsig	Zmod	Zphz	Idc	Vdc	IERange
	#	s	Hz	ohm	ohm	V	ohm	°	A	V	#
	0	2	1000078	2667.701	-2041.557	1	3359.253	-37.42635	-1.029728E-005	0.0024119	8
	1	3	794390.6	3082.547	-1989.683	1	3668.915	-32.84092	4.23564E-006	5.483783E-005	8
	2	5	630984.4	3472.104	-1894.594	1	3955.375	-28.6196	-4.115693E-007	-0.0001053	8
	3	6	501234.4	3792.692	-1700.041	1	4156.279	-24.14389	-1.39057E-006	0.0002829	8
	4	8	398109.4	4055.052	-1565.437	1	4346.728	-21.10889	5.889669E-006	-0.0011546	8
	5	9	316265.6	4263.97	-1361.806	1	4476.154	-17.71219	-1.554178E-006	0.000121	8
	6	11	251203.1	4435.452	-1199.433	1	4594.766	-15.13198	1.980564E-006	-0.000545	8
	7	12	199546.9	4553.26	-1039.752	1	4670.467	-12.86313	-3.99334E-006	0.0006934	8
	8	14	158578.1	4682.747	-946.8457	1	4777.514	-11.43102	5.422402E-006	-0.0011368	8
	9	15	125953.1	4775.876	-766.3632	1	4836.973	-9.116278	1.495413E-006	-0.0029508	7
	10	17	100078.1	4820.478	-704.313	1	4871.659	-8.312584	2.329457E-008	-0.0002849	7
	11	18	79453.13	4878.442	-667.468	1	4923.892	-7.79083	-2.205692E-008	-0.0002182	7
	12	19	63140.62	4935.229	-649.0526	1	4977.726	-7.49221	2.310392E-008	-0.000292	7
	13	21	50203.12	4988.673	-645.3586	1	5030.243	-7.371119	-1.391519E-008	-0.0001353	7
	14	22	39890.62	5040.799	-649.4496	1	5082.464	-7.341467	9.785316E-008	-0.0003986	7
	15	23	31640.63	5108.003	-686.0131	1	5153.863	-7.649146	-1.837673E-008	-3.636713E-005	7
	16	25	25171.88	5171.137	-729.035	1	5222.274	-8.024762	7.925374E-008	-0.0003325	7
	17	26	20015.62	5239.669	-790.1751	1	5298.916	-8.575941	-1.614831E-008	-4.678131E-005	7
	18	28	15890.62	5314.984	-872.3834	1	5386.103	-9.32122	-2.108336E-008	-0.0002213	7
	19	29	12609.37	5399.353	-955.782	1	5483.296	-10.03839	-1.333386E-008	-0.0001357	7
	20	30	10078.13	5486.987	-1069.379	1	5590.223	-11.02834	7.873182E-008	-0.0003394	7
	21	32	8015.625	5585.527	-1205.306	1	5714.094	-12.17719	-2.175221E-008	-0.0002199	7
	22	33	6328.125	5695.614	-1376.865	1	5859.673	-13.59003	-4.6915E-008	-0.0001714	7
	23	34	5015.625	5815.177	-1578.147	1	6025.515	-15.18347	-1.634523E-008	-4.701547E-005	7
	24	36	3984.375	5948.275	-1819.471	1	6220.326	-17.00794	-7.869031E-008	-8.220244E-005	7
	25	37	3170.956	6089.353	-2104.864	1	6442.877	-19.06837	7.711143E-008	-0.0003394	7
	26	38	2527.573	6248.087	-2446.963	1	6710.158	-21.387	-5.2733E-008	-8.496794E-005	7
	27	40	1976.103	6439.881	-2899.117	1	7062.361	-24.2364	-2.146218E-008	-0.0002237	7
	28	41	1577.524	6639.208	-3402.995	1	7460.527	-27.13787	-1.549793E-008	-4.432018E-005	7
	29	42	1265.625	6843.318	-3962.107	1	7907.547	-30.06975	-3.737481E-008	-0.0001547	7
	30	44	998.264	7107.893	-4756.894	1	8552.788	-33.79206	-1.409976E-008	-3.631169E-005	7
	31	45	796.875	7384.465	-5653.712	1	9300.258	-37.43848	-5.481438E-008	-8.375724E-005	7
	32	46	627.7902	7720.472	-6794.39	1	10284.43	-41.34934	2.554388E-009	-0.0002012	6
	33	47	505.5147	8064.703	-8071.547	1	11410.05	-45.0243	1.761396E-009	-0.0001986	6
	34	49	397.9953	8497.896	-9798.43	1	12970.1	-49.06584	5.02777E-010	-0.000238	6
	35	50	315.5048	8987.358	-11863.46	1	14883.36	-52.85365	1.663461E-009	-0.000238	6
	36	51	252.4038	9544.36	-14293.21	1	17186.93	-56.2668	1.069983E-009	-0.0002354	6
	37	53	198.6229	10253.98	-17510.62	1	20292.02	-59.64735	1.179755E-009	-0.0002415	6
	38	54	158.3615	11074.8	-21246.39	1	23959.56	-62.46896	1.31947E-009	-0.0002382	6
	39	55	125.558	12095.03	-25962.17	1	28641.29	-65.02055	1.121922E-009	-0.0002348	6
	40	57	100.4464	13282.37	-31560.09	1	34241.21	-67.17574	7.463803E-010	-0.0002438	6
	41	58	79.00281	14899.09	-38943.2	1	41695.99	-69.06389	1.193721E-009	-0.0002461	6
	42	59	63.3446	17495.69	-46705.98	1	49875.32	-69.46445	3.632481E-010	-0.0002413	6
	43	61	49.86702	19764.82	-58640.46	1	61881.75	-71.37357	8.290127E-011	-0.0002446	6
	44	62	39.72458	23433.17	-70676.9	1	74460.3	-71.65688	1.073572E-009	-0.0002384	6
	45	64	31.6723	28456.98	-86329.59	1	90898.84	-71.75613	-8.388167E-011	-0.0002449	6
	46	65	24.93351	34842.41	-105450.5	1	111057.6	-71.71568	4.976955E-010	-0.0002419	5
	47	66	19.86229	42956.89	-127799.7	1	134826	-71.42113	-1.173674E-010	-0.0002417	5
	48	68	15.83615	55775.12	-151909.6	1	161825.2	-69.83878	-1.013654E-009	-0.0002393	5
	49	69	12.40079	69460.77	-188652.7	1	201033.9	-69.7866	-1.893392E-010	-0.0002406	5
	50	70	9.93114	87730.86	-220753.1	1	237547.2	-68.32633	5.827069E-010	-0.0002355	5
	51	72	7.944915	109740.2	-260457.3	1	282632.1	-67.15252	1.122423E-009	-0.0002413	5
	52	74	6.317385	141803	-305510.9	1	336816	-65.10161	6.380098E-010	-0.0002506	5
	53	76	5.008013	179738.7	-357199.9	1	399872.2	-63.28902	4.982627E-010	-0.0002296	5
	54	78	3.945707	226839.4	-413459.6	1	471598.3	-61.24918	2.67293E-010	-0.0002389	5
	55	81	3.158693	280353	-471418.6	1	548482.8	-59.26002	2.485442E-010	-0.0002482	5
	56	84	2.504006	342845.1	-534880.4	1	635326.6	-57.34114	3.463054E-010	-0.0002313	5
	57	87	1.998082	412061.7	-600387.1	1	728189.2	-55.53715	5.61688E-010	-0.0002343	5
	58	90	1.584686	491483.3	-670694.8	1	831497	-53.76614	2.807928E-010	-0.0002914	5
	59	94	1.266892	576763.6	-746281.8	1	943182.3	-52.30137	3.287642E-010	-0.0002294	5
	60	98	0.999041	668396.8	-830061.3	1	1065719	-51.15767	-5.785063E-011	-0.0002728	4
