EXPLAIN
TAG	EISPOT
TITLE	LABEL	Potentiostatic EIS	Test &Identifier
DATE	LABEL	11/15/2019	Date
TIME	LABEL	12:07:53	Time
NOTES	NOTES	4	&Notes...
	
	
	
	
PSTAT	PSTAT	REF600-11020	Potentiostat
VDC	POTEN	0.00000E+000	T	DC &Voltage (V)
FREQINIT	QUANT	1.00000E+006	Initial Fre&q. (Hz)
FREQFINAL	QUANT	1.00000E+000	Final Fre&q. (Hz)
PTSPERDEC	QUANT	1.00000E+001	Points/&decade
VAC	QUANT	2.50000E+001	AC &Voltage (mV rms)
AREA	QUANT	1.00000E-002	&Area (cm^2)
CONDIT	TWOPARAM	T	5.00000E+000	0.00000E+000	Conditionin&g	Time(s)	E(V)
DELAY	TWOPARAM	T	5.00000E+000	0.00000E+000	Init. De&lay	Time(s)	Stab.(mV/s)
SPEED	SELECTOR	0	&Optimize for:
ZGUESS	QUANT	1.00000E+005	E&stimated Z (ohms)
OCVCURVE	TABLE	19
	Pt	T	Vf	Vm	Ach	Over
	#	s	V vs. Ref.	V	V	bits
	0	0.258333	-9.85692E-003	-9.85692E-003	5.96399E-004	...........
	1	0.516667	-9.87798E-003	-1.09590E-002	5.87832E-004	...........
	2	0.775	-9.97256E-003	-1.01873E-002	5.89799E-004	...........
	3	1.03333	-1.01465E-002	-1.05820E-002	5.86832E-004	...........
	4	1.29167	-1.03193E-002	-1.04541E-002	5.89999E-004	...........
	5	1.55	-1.04288E-002	-1.06218E-002	5.91499E-004	...........
	6	1.80833	-1.05059E-002	-1.15184E-002	5.93865E-004	...........
	7	2.06667	-1.06641E-002	-1.28528E-002	5.90965E-004	...........
	8	2.325	-1.10101E-002	-1.16497E-002	5.82532E-004	...........
	9	2.58333	-1.14643E-002	-1.16956E-002	5.78366E-004	...........
	10	2.84167	-1.17875E-002	-1.15283E-002	5.83099E-004	...........
	11	3.1	-1.18682E-002	-1.19501E-002	5.83765E-004	...........
	12	3.35833	-1.18182E-002	-1.18708E-002	5.79266E-004	...........
	13	3.61667	-1.17857E-002	-1.19851E-002	5.80999E-004	...........
	14	3.875	-1.18145E-002	-1.19274E-002	5.81632E-004	...........
	15	4.13333	-1.18682E-002	-1.18352E-002	5.85599E-004	...........
	16	4.39167	-1.19063E-002	-1.20386E-002	5.80465E-004	...........
	17	4.65	-1.19245E-002	-1.20040E-002	5.84265E-004	...........
	18	4.90833	-1.19465E-002	-1.21988E-002	5.83032E-004	...........
EOC	QUANT	-0.0119465	Open Circuit (V)
PSTATMODEL	IQUANT	4	Pstat Model
PSTATSECTION	LABEL	REF600-11020	Pstat Section
PSTATSERIALNO	LABEL	11020	Pstat Serial Number
CTRLMODE	IQUANT	1	Control Mode
IESTAB	IQUANT	0	I/E Stability
CASPEED	IQUANT	1	Control Amp Speed
CONVENTION	IQUANT	1	Current Convention
ICHRANGE	IQUANT	2	Ich Range
ICHRANGEMODE	TOGGLE	F	Ich Auto Range
ICHOFFSETENABLE	TOGGLE	T	Ich Offset Enable
ICHOFFSET	QUANT	0	Ich Offset (V)
ICHFILTER	IQUANT	3	Ich Filter
VCHRANGE	IQUANT	2	Vch Range
VCHRANGEMODE	TOGGLE	F	Vch Auto Range
VCHOFFSETENABLE	TOGGLE	T	Vch Offset Enable
VCHOFFSET	QUANT	0	Vch Offset (V)
VCHFILTER	IQUANT	3	Vch Filter
ACHRANGE	IQUANT	2	Ach Range
ACHOFFSETENABLE	TOGGLE	F	Ach Offset Enable
ACHOFFSET	QUANT	0	Ach Offset (V)
ACHFILTER	IQUANT	3	Ach Filter
IERANGELOWERLIMIT	IQUANT	1	I/E Range Lower Limit
IERANGEMODE	TOGGLE	F	I/E AutoRange
IERANGE	IQUANT	5	I/E Range
POSFEEDENABLE	TOGGLE	F	Positive Feedback IR Comp
POSFEEDRESISTANCE	QUANT	0	Positive Feedback Resistance (ohm)
ACHSELECT	IQUANT	0	Ach Select
CABLEID	IQUANT	14	Cable ID
DCCALDATE	LABEL	8/19/2019	DC Calibration Date
ACCALDATE	LABEL	8/19/2019	AC Calibration Date
THERMOSELECT	IQUANT	1	Thermo Select
FRAMEWORKVERSION	QUANT	6.33	Framework Version
INSTRUMENTVERSION	LABEL	3.50	Instrument Version
ZCURVE	TABLE
	Pt	Time	Freq	Zreal	Zimag	Zsig	Zmod	Zphz	Idc	Vdc	IERange
	#	s	Hz	ohm	ohm	V	ohm	°	A	V	#
	0	1	1000078	709.3664	-7988.646	1	8020.079	-84.92563	5.523646E-006	-0.0091741	8
	1	2	794390.6	800.1704	-10011.13	1	10043.06	-85.43018	-1.269341E-006	-0.0095505	8
	2	2	630984.4	936.5417	-12528.93	1	12563.89	-85.72507	-9.501992E-007	-0.0096952	8
	3	3	501234.4	1062.748	-15619.57	1	15655.68	-86.10762	-1.458011E-006	-0.009926	8
	4	3	398109.4	1751.666	-19182.09	1	19261.91	-84.78235	1.954363E-007	-0.0107789	8
	5	3	316265.6	1239.791	-24420.19	1	24451.64	-87.09364	4.177931E-008	-0.0107844	8
	6	4	251203.1	1799.586	-30342.09	1	30395.41	-86.60577	-4.57886E-006	-0.010137	8
	7	5	199546.9	2789.013	-37440.73	1	37544.47	-85.73982	-2.836479E-006	-0.0099012	8
	8	5	158578.1	2733.038	-47126.36	1	47205.55	-86.68092	-1.436761E-006	-0.0107205	8
	9	6	125953.1	2777.176	-59530.79	1	59595.54	-87.32903	-2.045265E-007	-0.0137132	7
	10	6	100078.1	5213.548	-73592.54	1	73776.98	-85.94774	-1.631809E-006	-0.0092269	7
	11	6	79453.13	6664.669	-91421.58	1	91664.19	-85.83049	1.342948E-006	-0.0112478	7
	12	7	63140.62	7539.306	-114901.2	1	115148.3	-86.24589	1.518996E-006	-0.0118921	7
	13	7	50203.12	9561.43	-144865.7	1	145180.9	-86.22384	1.466361E-006	-0.0128303	7
	14	8	39890.62	10312.24	-180329.5	1	180624.1	-86.72707	1.465201E-006	-0.0128328	7
	15	8	31640.63	13769.37	-221387.7	1	221815.5	-86.44103	1.346214E-006	-0.0112533	7
	16	8	25171.88	18969.8	-280375.8	1	281016.8	-86.12936	-1.685525E-006	-0.008687	7
	17	9	20015.62	23866.73	-348044.1	1	348861.4	-86.07715	-1.564331E-006	-0.0083851	7
	18	9	15890.62	48053.4	-438195.6	1	440822.6	-83.74184	1.343484E-006	-0.0112566	7
	19	10	12609.37	38503.45	-544154.5	1	545515	-85.95259	1.802164E-007	-0.0098785	6
	20	10	10078.13	58891.57	-682780.8	1	685315.9	-85.0703	3.104655E-007	-0.0146027	6
	21	11	8015.625	125701	-876362.8	1	885331.9	-81.83746	1.813416E-007	-0.009879	6
	22	11	6328.125	105781.9	-1045326	1	1050664	-84.22162	-5.157839E-008	-0.0133871	6
	23	11	5015.625	148459.4	-1305537	1	1313951	-83.51247	-2.217611E-007	-0.0054554	6
	24	12	3984.375	184830.2	-1630805	1	1641245	-83.53387	8.829146E-008	-0.0084047	6
	25	12	3170.956	243430.4	-1926577	1	1941896	-82.79862	2.555416E-007	-0.0113912	6
	26	13	2527.573	290983.4	-2618229	1	2634349	-83.65832	-5.22746E-008	-0.013385	6
	27	13	1976.103	171043.6	-2822627	1	2827805	-86.53227	5.016959E-008	-0.0144913	6
	28	14	1577.524	43087.33	-3290622	1	3290903	-89.24982	-2.458451E-007	-0.0102466	6
	29	14	1265.625	862194.7	-4912268	1	4987359	-80.04492	-7.101882E-009	-0.006514	5
	30	15	998.264	1004363	-5983444	1	6067153	-80.47133	-1.727495E-008	-0.0055723	5
	31	15	796.875	999799	-7107603	1	7177577	-81.99296	-3.387006E-008	-0.0053306	5
	32	16	627.7902	2048350	-9309403	1	9.532089E+006	-77.59093	1.798381E-008	-0.0153835	5
	33	16	505.5147	2226936	-1.094388E+007	1	1.116816E+007	-78.49809	1.818179E-008	-0.0153851	5
	34	17	397.9953	2553333	-1.353881E+007	1	1.377748E+007	-79.31982	6.235135E-010	-0.0105541	5
	35	17	315.5048	5173737	-1.202269E+007	1	1.308864E+007	-66.71628	3.010136E-010	-0.0105542	5
	36	18	252.4038	3590379	-1.81811E+007	1	1.853222E+007	-78.82904	2.169207E-010	-0.0105569	5
	37	19	198.6229	1.713971E+007	-3.881178E+007	1	4.242787E+007	-66.17322	9.061353E-012	-0.0105723	5
	38	19	158.3615	7806228	-1.447833E+007	1	1.644868E+007	-61.66794	-1.922659E-010	-0.0105677	5
	39	20	125.558	2.172103E+007	-3.706575E+007	1	4.29613E+007	-59.62912	-2.339055E-010	-0.0105696	4
	40	20	100.4464	3.428239E+007	1.88779E+007	1	3.91364E+007	28.83976	-8.642806E-010	-0.0105705	4
	41	21	79.00281	1.046967E+007	-6018767	1	1.20764E+007	-29.89359	8.017897E-010	-0.0105622	4
	42	21	63.3446	1094212	-4329737	1	4465862	-75.81715	4.116289E-010	-0.0105833	4
	43	22	49.86702	-5.213778E+007	-4.202117E+007	1	6.696363E+007	-141.1324	2.380151E-011	-0.0105627	4
	44	22	39.72458	1606634	-4.092592E+007	1	4.095744E+007	-87.75188	-5.458215E-011	-0.0105719	6
	45	23	31.6723	1.583268E+007	2276177	1	1.599546E+007	8.181044	-6.221708E-010	-0.0105795	4
	46	23	24.93351	9.518871E+007	-3.09443E+007	1	1.000922E+008	-18.0085	-3.614922E-011	-0.0105692	4
	47	24	19.86229	1.797549E+007	-2.918012E+007	1	3.427241E+007	-58.36617	3.519939E-010	-0.0105867	4
	48	24	15.83615	1.175019E+007	8382700	1	1.443387E+007	35.50443	-9.629785E-010	-0.0105639	4
	49	25	12.40079	3.411829E+007	3.830437E+007	1	5.129603E+007	48.30805	-1.982304E-010	-0.0105707	4
	50	26	9.93114	4.406828E+007	1.141398E+007	1	4.552244E+007	14.52089	2.235689E-010	-0.0105645	4
	51	26	7.944915	9.956034E+007	7.490326E+007	1	1.245904E+008	36.95562	1.567425E-010	-0.0105818	4
	52	27	6.317385	8.505161E+007	-1.814275E+007	1	8.696514E+007	-12.04155	2.877542E-011	-0.0105492	4
	53	29	5.008013	8.023046E+007	-1.544375E+007	1	8.170334E+007	-10.89573	8.710715E-010	-0.0105777	6
	54	31	3.945707	8.460899E+007	1.977092E+007	1	8.688826E+007	13.15253	6.243874E-010	-0.0105669	6
	55	33	3.158693	9.133196E+007	-1.958464E+007	1	9.340816E+007	-12.10285	3.132102E-010	-0.0105746	6
	56	36	2.504006	2.315837E+008	-3.775676E+007	1	2.346414E+008	-9.259871	-9.784219E-012	-0.0105678	3
	57	38	1.998082	2.424085E+008	-4.044074E+007	1	2.457587E+008	-9.471365	-1.260335E-011	-0.0106147	3
	58	41	1.584686	2.410596E+008	-3.421E+007	1	2.434749E+008	-8.077203	-1.329202E-011	-0.0105839	3
	59	44	1.266892	2.608587E+009	-8.063142E+008	1	2.73036E+009	-17.17638	-5.895973E-012	-0.0105393	2
	60	47	0.999041	2.732845E+009	-6.818962E+008	1	2.816633E+009	-14.01029	-5.853535E-012	-0.010528	2
