EXPLAIN
TAG	EISPOT
TITLE	LABEL	Potentiostatic EIS	Test &Identifier
DATE	LABEL	10/22/2019	Date
TIME	LABEL	8:50:47	Time
NOTES	NOTES	1	&Notes...
	
PSTAT	PSTAT	REF600-11020	Potentiostat
VDC	POTEN	0.00000E+000	T	DC &Voltage (V)
FREQINIT	QUANT	1.00000E+006	Initial Fre&q. (Hz)
FREQFINAL	QUANT	1.00000E+000	Final Fre&q. (Hz)
PTSPERDEC	QUANT	1.00000E+001	Points/&decade
VAC	QUANT	2.50000E+001	AC &Voltage (mV rms)
AREA	QUANT	1.00000E-002	&Area (cm^2)
CONDIT	TWOPARAM	T	5.00000E+000	0.00000E+000	Conditionin&g	Time(s)	E(V)
DELAY	TWOPARAM	T	5.00000E+000	0.00000E+000	Init. De&lay	Time(s)	Stab.(mV/s)
SPEED	SELECTOR	1	&Optimize for:
ZGUESS	QUANT	1.00000E+005	E&stimated Z (ohms)
OCVCURVE	TABLE	19
	Pt	T	Vf	Vm	Ach	Over
	#	s	V vs. Ref.	V	V	bits
	0	0.258333	6.88722E-003	6.88722E-003	5.69599E-004	...........
	1	0.516667	6.88590E-003	6.81833E-003	5.65666E-004	...........
	2	0.775	6.87833E-003	6.77955E-003	5.64432E-004	...........
	3	1.03333	6.86236E-003	6.94004E-003	5.70866E-004	...........
	4	1.29167	6.85188E-003	7.00775E-003	5.70366E-004	...........
	5	1.55	6.86913E-003	7.07712E-003	5.73066E-004	...........
	6	1.80833	6.91982E-003	7.14795E-003	5.66899E-004	...........
	7	2.06667	6.99103E-003	7.24985E-003	5.74266E-004	...........
	8	2.325	7.06966E-003	7.30395E-003	5.69199E-004	...........
	9	2.58333	7.14933E-003	7.37169E-003	5.76732E-004	...........
	10	2.84167	7.22616E-003	7.43200E-003	5.68932E-004	...........
	11	3.1	7.29778E-003	7.49782E-003	5.73266E-004	...........
	12	3.35833	7.36476E-003	7.56146E-003	5.75999E-004	...........
	13	3.61667	7.42920E-003	7.62370E-003	5.80465E-004	...........
	14	3.875	7.49272E-003	7.68681E-003	5.75699E-004	...........
	15	4.13333	7.55585E-003	7.74507E-003	5.73266E-004	...........
	16	4.39167	7.61837E-003	7.80461E-003	5.74599E-004	...........
	17	4.65	7.67984E-003	7.86138E-003	5.72932E-004	...........
	18	4.90833	7.74000E-003	7.91836E-003	5.75899E-004	...........
EOC	QUANT	0.00774	Open Circuit (V)
PSTATMODEL	IQUANT	4	Pstat Model
PSTATSECTION	LABEL	REF600-11020	Pstat Section
PSTATSERIALNO	LABEL	11020	Pstat Serial Number
CTRLMODE	IQUANT	1	Control Mode
IESTAB	IQUANT	0	I/E Stability
CASPEED	IQUANT	1	Control Amp Speed
CONVENTION	IQUANT	1	Current Convention
ICHRANGE	IQUANT	2	Ich Range
ICHRANGEMODE	TOGGLE	F	Ich Auto Range
ICHOFFSETENABLE	TOGGLE	T	Ich Offset Enable
ICHOFFSET	QUANT	0	Ich Offset (V)
ICHFILTER	IQUANT	3	Ich Filter
VCHRANGE	IQUANT	2	Vch Range
VCHRANGEMODE	TOGGLE	F	Vch Auto Range
VCHOFFSETENABLE	TOGGLE	T	Vch Offset Enable
VCHOFFSET	QUANT	0	Vch Offset (V)
VCHFILTER	IQUANT	3	Vch Filter
ACHRANGE	IQUANT	2	Ach Range
ACHOFFSETENABLE	TOGGLE	F	Ach Offset Enable
ACHOFFSET	QUANT	0	Ach Offset (V)
ACHFILTER	IQUANT	3	Ach Filter
IERANGELOWERLIMIT	IQUANT	1	I/E Range Lower Limit
IERANGEMODE	TOGGLE	F	I/E AutoRange
IERANGE	IQUANT	5	I/E Range
POSFEEDENABLE	TOGGLE	F	Positive Feedback IR Comp
POSFEEDRESISTANCE	QUANT	0	Positive Feedback Resistance (ohm)
ACHSELECT	IQUANT	0	Ach Select
CABLEID	IQUANT	14	Cable ID
DCCALDATE	LABEL	8/19/2019	DC Calibration Date
ACCALDATE	LABEL	8/19/2019	AC Calibration Date
THERMOSELECT	IQUANT	1	Thermo Select
FRAMEWORKVERSION	QUANT	6.33	Framework Version
INSTRUMENTVERSION	LABEL	3.50	Instrument Version
ZCURVE	TABLE
	Pt	Time	Freq	Zreal	Zimag	Zsig	Zmod	Zphz	Idc	Vdc	IERange
	#	s	Hz	ohm	ohm	V	ohm	°	A	V	#
	0	2	1000078	2508.597	-1580.991	1	2965.23	-32.22031	-1.033287E-006	0.0107429	8
	1	4	794390.6	2815.837	-1488.945	1	3185.262	-27.86878	-5.138392E-006	0.0110339	8
	2	5	630984.4	3071.228	-1354.125	1	3356.501	-23.79301	1.14278E-006	0.009662	8
	3	7	501234.4	3298.528	-1200.223	1	3510.103	-19.99474	1.076253E-006	0.0091769	8
	4	8	398109.4	3445.948	-1038.373	1	3598.996	-16.76921	-5.585527E-008	0.009469	8
	5	9	316265.6	3601.65	-889.2529	1	3709.805	-13.86903	1.584819E-006	0.0091993	8
	6	11	251203.1	3683.938	-770.5721	1	3763.666	-11.81426	3.850285E-006	0.0085954	8
	7	12	199546.9	3733.127	-662.4694	1	3791.451	-10.06278	-2.910761E-006	0.0099211	8
	8	13	158578.1	3821.782	-566.777	1	3863.581	-8.43558	1.61811E-006	0.0091714	8
	9	15	125953.1	3850.146	-442.8697	1	3875.534	-6.561707	-1.666998E-007	0.0097846	7
	10	16	100078.1	3888.306	-396.8604	1	3908.507	-5.827719	-3.421169E-008	0.0093212	7
	11	18	79453.13	3916.064	-367.9808	1	3933.315	-5.36815	5.968703E-008	0.0091841	7
	12	19	63140.62	3945.078	-348.0397	1	3960.401	-5.041652	-1.590919E-008	0.0092515	7
	13	20	50203.12	3970.743	-337.925	1	3985.096	-4.864362	-5.547556E-008	0.0094528	7
	14	22	39890.62	3998.236	-336.0969	1	4012.338	-4.80506	-3.27193E-008	0.009306	7
	15	23	31640.63	4025.871	-342.8012	1	4040.439	-4.866972	-3.649067E-010	0.0092832	7
	16	24	25171.88	4054.124	-359.3055	1	4070.014	-5.06473	-2.772956E-008	0.0092823	7
	17	26	20015.62	4067.374	-381.9621	1	4085.27	-5.364842	-2.082862E-008	0.0093349	7
	18	27	15890.62	4115.5	-418.2199	1	4136.696	-5.802516	-3.859042E-008	0.0092938	7
	19	28	12609.37	4150.494	-464.4042	1	4176.395	-6.384345	9.103191E-008	0.009206	7
	20	30	10078.13	4185.209	-518.9187	1	4217.256	-7.067958	4.235185E-008	0.0092278	7
	21	31	8015.625	4230.282	-590.0703	1	4271.237	-7.940793	7.602385E-010	0.0092775	7
	22	32	6328.125	4265.859	-681.6067	1	4319.97	-9.078087	-3.228962E-008	0.0093015	7
	23	34	5015.625	4310.203	-794.7984	1	4382.871	-10.44794	-3.15004E-008	0.0092946	7
	24	35	3984.375	4350.591	-931.0871	1	4449.108	-12.07987	9.224305E-008	0.0092091	7
	25	36	3170.956	4412.562	-1104.649	1	4548.731	-14.05467	1.135076E-008	0.0092109	7
	26	38	2527.573	4473.429	-1314.355	1	4662.521	-16.37352	8.743149E-010	0.0092803	7
	27	39	1976.103	4548.457	-1593.489	1	4819.509	-19.3072	-4.665714E-008	0.0093134	7
	28	40	1577.524	4650.134	-1909.763	1	5027.021	-22.32747	3.911236E-008	0.0091438	7
	29	42	1265.625	4722.602	-2287.577	1	5247.474	-25.84505	-8.067498E-009	0.0094027	7
	30	43	998.264	4841.097	-2783.332	1	5584.188	-29.89625	3.887083E-008	0.0091418	7
	31	45	796.875	4969.966	-3355.244	1	5996.518	-34.02345	1.004588E-008	0.0091975	7
	32	46	627.7902	5135.92	-4105.275	1	6575.025	-38.63625	-1.879101E-008	0.0093337	7
	33	47	505.5147	5307.281	-4926.99	1	7241.717	-42.87194	-3.829259E-008	0.0092946	7
	34	49	397.9953	5531.227	-6057.586	1	8202.977	-47.60057	5.531865E-009	0.0092941	7
	35	50	315.5048	5793.854	-7410.331	1	9406.474	-51.97951	5.737436E-009	0.0092956	7
	36	51	252.4038	6104.377	-9006.79	1	10880.52	-55.87243	1.121306E-009	0.0092303	6
	37	53	198.6229	6511.056	-11123.51	1	12889	-59.65777	7.03511E-010	0.0092312	6
	38	54	158.3615	6999.866	-13592.03	1	15288.6	-62.75163	1.32061E-009	0.0092312	6
	39	55	125.558	7634.698	-16705.67	1	18367.58	-65.43901	7.368458E-010	0.0092362	6
	40	57	100.4464	8415.12	-20379.91	1	22048.92	-67.56365	7.673929E-010	0.0092303	6
	41	58	79.00281	9528.22	-25232.79	1	26971.85	-69.31283	1.206745E-009	0.0092246	6
	42	59	63.3446	10711.03	-30801.68	1	32610.88	-70.8253	5.576493E-010	0.0092266	6
	43	61	49.86702	12699.39	-37577.21	1	39665.12	-71.32709	-8.235326E-011	0.0092221	6
	44	62	39.72458	15131.27	-45955.18	1	48382.16	-71.77528	8.339736E-010	0.0092298	6
	45	64	31.6723	18210.05	-55780.37	1	58677.55	-71.92021	-1.807471E-010	0.0092256	6
	46	65	24.93351	22751.81	-68349.84	1	72037.12	-71.5888	7.167311E-010	0.009222	6
	47	67	19.86229	28376.5	-82468	1	87213.52	-71.01212	9.607657E-010	0.0092279	6
	48	68	15.83615	35289.14	-99019.1	1	105119.4	-70.38457	1.490908E-009	0.0092257	6
	49	69	12.40079	46228.12	-120678.2	1	129229.5	-69.0397	-1.061141E-009	0.009232	5
	50	71	9.93114	57614.42	-141735.2	1	152997.7	-67.87859	5.375103E-010	0.0092283	5
	51	72	7.944915	73313.75	-166533.1	1	181956.5	-66.23921	-1.172485E-010	0.009228	5
	52	74	6.317385	91768.77	-195030.5	1	215542.1	-64.80135	2.238134E-010	0.0092206	5
	53	76	5.008013	115324.6	-227356.2	1	254932.6	-63.10397	-6.743446E-011	0.0092349	5
	54	79	3.945707	144052.3	-263343.7	1	300168.2	-61.32079	6.423226E-011	0.0092339	5
	55	81	3.158693	174643	-300001.5	1	347132.7	-59.79458	-1.178639E-010	0.0092166	5
	56	85	2.504006	210867.1	-341627.1	1	401464.8	-58.31531	1.945178E-010	0.0092334	5
	57	87	1.998082	249308.6	-385684.3	1	459246.3	-57.12113	3.487101E-010	0.0092088	5
	58	90	1.584686	293908.8	-437069.4	1	526699.2	-56.08101	-7.817024E-011	0.00918	5
	59	94	1.266892	337782.4	-491464.4	1	596350.8	-55.49934	1.683032E-010	0.0091966	5
	60	98	0.999041	388125.6	-561082.3	1	682242.4	-55.32666	-2.001078E-010	0.0092385	5
