EXPLAIN
TAG	EISPOT
TITLE	LABEL	Potentiostatic IDE	Test &Identifier
DATE	LABEL	9/16/2019	Date
TIME	LABEL	10:07:15	Time
NOTES	NOTES	1	&Notes...
	
PSTAT	PSTAT	REF600-11020	Potentiostat
VDC	POTEN	0.00000E+000	T	DC &Voltage (V)
FREQINIT	QUANT	1.00000E+006	Initial Fre&q. (Hz)
FREQFINAL	QUANT	1.00000E+000	Final Fre&q. (Hz)
PTSPERDEC	QUANT	1.00000E+001	Points/&decade
VAC	QUANT	2.50000E+001	AC &Voltage (mV rms)
AREA	QUANT	1.00000E-002	&Area (cm^2)
CONDIT	TWOPARAM	T	5.00000E+000	0.00000E+000	Conditionin&g	Time(s)	E(V)
DELAY	TWOPARAM	T	5.00000E+000	0.00000E+000	Init. De&lay	Time(s)	Stab.(mV/s)
SPEED	SELECTOR	1	&Optimize for:
ZGUESS	QUANT	1.00000E+007	E&stimated Z (ohms)
OCVCURVE	TABLE	19
	Pt	T	Vf	Vm	Ach	Over
	#	s	V vs. Ref.	V	V	bits
	0	0.258333	-1.03776E-003	-1.03776E-003	5.67032E-004	...........
	1	0.516667	-1.04779E-003	-1.56292E-003	5.67266E-004	...........
	2	0.775	-1.10913E-003	-2.04661E-003	5.64266E-004	...........
	3	1.03333	-1.28144E-003	-2.49481E-003	5.63066E-004	...........
	4	1.29167	-1.58653E-003	-2.91773E-003	5.64266E-004	...........
	5	1.55	-1.98671E-003	-3.31683E-003	5.60399E-004	...........
	6	1.80833	-2.42328E-003	-3.68647E-003	5.62999E-004	...........
	7	2.06667	-2.85452E-003	-4.05055E-003	5.64266E-004	...........
	8	2.325	-3.26299E-003	-4.38930E-003	5.66999E-004	...........
	9	2.58333	-3.64654E-003	-4.71227E-003	5.69966E-004	...........
	10	2.84167	-4.00822E-003	-5.02394E-003	5.64399E-004	...........
	11	3.1	-4.35124E-003	-5.32482E-003	5.70132E-004	...........
	12	3.35833	-4.67808E-003	-5.59917E-003	5.70732E-004	...........
	13	3.61667	-4.99003E-003	-5.87260E-003	5.72199E-004	...........
	14	3.875	-5.28770E-003	-6.13985E-003	5.69199E-004	...........
	15	4.13333	-5.57259E-003	-6.39563E-003	5.71432E-004	...........
	16	4.39167	-5.84689E-003	-6.63902E-003	5.64132E-004	...........
	17	4.65	-6.11184E-003	-6.87643E-003	5.65399E-004	...........
	18	4.90833	-6.36756E-003	-7.10502E-003	5.67166E-004	...........
EOC	QUANT	-0.0063676	Open Circuit (V)
PSTATMODEL	IQUANT	4	Pstat Model
PSTATSECTION	LABEL	REF600-11020	Pstat Section
PSTATSERIALNO	LABEL	11020	Pstat Serial Number
CTRLMODE	IQUANT	1	Control Mode
IESTAB	IQUANT	0	I/E Stability
CASPEED	IQUANT	1	Control Amp Speed
CONVENTION	IQUANT	1	Current Convention
ICHRANGE	IQUANT	2	Ich Range
ICHRANGEMODE	TOGGLE	F	Ich Auto Range
ICHOFFSETENABLE	TOGGLE	T	Ich Offset Enable
ICHOFFSET	QUANT	0	Ich Offset (V)
ICHFILTER	IQUANT	3	Ich Filter
VCHRANGE	IQUANT	2	Vch Range
VCHRANGEMODE	TOGGLE	F	Vch Auto Range
VCHOFFSETENABLE	TOGGLE	T	Vch Offset Enable
VCHOFFSET	QUANT	0	Vch Offset (V)
VCHFILTER	IQUANT	3	Vch Filter
ACHRANGE	IQUANT	2	Ach Range
ACHOFFSETENABLE	TOGGLE	F	Ach Offset Enable
ACHOFFSET	QUANT	0	Ach Offset (V)
ACHFILTER	IQUANT	3	Ach Filter
IERANGELOWERLIMIT	IQUANT	1	I/E Range Lower Limit
IERANGEMODE	TOGGLE	F	I/E AutoRange
IERANGE	IQUANT	3	I/E Range
POSFEEDENABLE	TOGGLE	F	Positive Feedback IR Comp
POSFEEDRESISTANCE	QUANT	0	Positive Feedback Resistance (ohm)
ACHSELECT	IQUANT	0	Ach Select
CABLEID	IQUANT	14	Cable ID
DCCALDATE	LABEL	8/19/2019	DC Calibration Date
ACCALDATE	LABEL	8/19/2019	AC Calibration Date
THERMOSELECT	IQUANT	1	Thermo Select
FRAMEWORKVERSION	QUANT	6.33	Framework Version
INSTRUMENTVERSION	LABEL	3.50	Instrument Version
ZCURVE	TABLE
	Pt	Time	Freq	Zreal	Zimag	Zsig	Zmod	Zphz	Idc	Vdc	IERange
	#	s	Hz	ohm	ohm	V	ohm	°	A	V	#
	0	1	1000078	2496.769	-1704.667	1	3023.201	-34.32328	-2.004158E-006	-0.0021614	8
	1	3	794390.6	2831.606	-1630.873	1	3267.681	-29.93994	6.966466E-007	-0.004407	8
	2	4	630984.4	3146.215	-1510.237	1	3489.912	-25.6418	-1.576555E-006	-0.0041288	8
	3	5	501234.4	3402.902	-1377.017	1	3670.956	-22.03119	-2.169423E-006	-0.0040854	8
	4	7	398109.4	3593.523	-1221.748	1	3795.534	-18.77732	-8.69993E-007	-0.0042583	8
	5	9	316265.6	3768.774	-1057.456	1	3914.316	-15.67324	-1.206967E-006	-0.0043711	8
	6	10	251203.1	3880.933	-906.1002	1	3985.305	-13.14171	5.457338E-007	-0.0048299	8
	7	11	199546.9	3964.279	-802.4822	1	4044.686	-11.44365	4.155871E-006	-0.0054241	8
	8	13	158578.1	4051.079	-680.2911	1	4107.802	-9.53264	-1.266863E-006	-0.0044048	8
	9	14	125953.1	4118.604	-551.9179	1	4155.42	-7.632511	1.07789E-006	-0.007007	7
	10	16	100078.1	4159.251	-484.6811	1	4187.396	-6.646748	-4.828862E-008	-0.0046451	7
	11	17	79453.13	4195.492	-445.7112	1	4219.101	-6.064116	1.478162E-007	-0.0049093	7
	12	18	63140.62	4228.412	-420.2591	1	4249.246	-5.67595	-1.146015E-008	-0.0046515	7
	13	20	50203.12	4261.847	-406.4124	1	4281.181	-5.447289	-1.080386E-008	-0.0046481	7
	14	21	39890.62	4289.61	-404.0806	1	4308.6	-5.381374	-7.845679E-008	-0.0045661	7
	15	22	31640.63	4324.224	-410.9615	1	4343.708	-5.428916	-4.22175E-008	-0.0046671	7
	16	24	25171.88	4357.033	-429.1751	1	4378.119	-5.625585	-1.45434E-008	-0.0046319	7
	17	25	20015.62	4390.278	-459.9574	1	4414.306	-5.980903	-5.666787E-008	-0.0045786	7
	18	26	15890.62	4429.547	-503.3336	1	4458.053	-6.482766	-4.193307E-008	-0.0046476	7
	19	28	12609.37	4469.719	-558.7714	1	4504.51	-7.125731	8.261046E-008	-0.0048414	7
	20	29	10078.13	4513.142	-627.6959	1	4556.583	-7.918006	-4.22503E-008	-0.0046518	7
	21	30	8015.625	4562.761	-714.9453	1	4618.435	-8.905343	8.42388E-008	-0.0047331	7
	22	32	6328.125	4618.854	-826.0504	1	4692.139	-10.13976	1.506041E-007	-0.0049241	7
	23	33	5015.625	4681.094	-959.016	1	4778.321	-11.57799	1.532888E-007	-0.0049199	7
	24	34	3984.375	4749.354	-1121.422	1	4879.954	-13.28539	-4.532103E-008	-0.0046641	7
	25	36	3170.956	4825.606	-1317.436	1	5002.211	-15.27016	-9.633363E-009	-0.0046653	7
	26	37	2527.573	4911.574	-1549.533	1	5150.205	-17.50976	4.052035E-008	-0.0047357	7
	27	38	1976.103	5018.598	-1864.447	1	5353.736	-20.38041	-5.665383E-008	-0.0045965	7
	28	39	1577.524	5132.501	-2210.833	1	5588.412	-23.30404	-3.930145E-008	-0.004682	7
	29	41	1265.625	5250.55	-2620.788	1	5868.288	-26.52587	-4.080949E-008	-0.0046559	7
	30	42	998.264	5402.519	-3159.392	1	6258.512	-30.31909	1.513705E-007	-0.0049184	7
	31	44	796.875	5571.097	-3784.618	1	6735.017	-34.18948	-4.273745E-009	-0.0047617	7
	32	45	627.7902	5773.475	-4594.616	1	7378.585	-38.51329	8.166936E-008	-0.0048411	7
	33	46	505.5147	5997.63	-5491.328	1	8131.805	-42.47668	-3.89966E-008	-0.0046443	7
	34	48	397.9953	6277.226	-6704.694	1	9184.579	-46.88595	6.556299E-009	-0.0046825	7
	35	49	315.5048	6609.083	-8151.042	1	10493.78	-50.96394	6.515625E-010	-0.0047473	6
	36	50	252.4038	6987.497	-9852.85	1	12079.07	-54.6563	6.593554E-010	-0.0047461	6
	37	52	198.6229	7478.136	-12096.38	1	14221.29	-58.27512	1.579435E-009	-0.0047455	6
	38	53	158.3615	8046.744	-14705.8	1	16763.38	-61.31334	5.432735E-010	-0.0047481	6
	39	54	125.558	8763.74	-17979.85	1	20001.95	-64.01446	1.6538E-009	-0.0047464	6
	40	56	100.4464	9608.93	-21832.96	1	23853.92	-66.24518	3.548298E-010	-0.0047521	6
	41	57	79.00281	10839.22	-26928.94	1	29028.55	-68.07462	4.363301E-010	-0.0047489	6
	42	58	63.3446	11868.4	-32474.05	1	34574.89	-69.92399	1.138035E-009	-0.0047479	6
	43	60	49.86702	14371.36	-40202.04	1	42693.56	-70.32912	1.881566E-009	-0.0047512	6
	44	61	39.72458	16459.47	-48966.14	1	51658.46	-71.42046	1.541095E-009	-0.0047499	6
	45	62	31.6723	19868.57	-59598.63	1	62823.22	-71.563	2.226489E-010	-0.0047557	6
	46	64	24.93351	24199.13	-73210.65	1	77106.4	-71.70915	1.330102E-009	-0.0047556	6
	47	65	19.86229	29807.56	-88627.95	1	93506.17	-71.41106	1.820563E-009	-0.004744	6
	48	66	15.83615	37396.36	-106078.2	1	112477	-70.58063	4.273821E-010	-0.0047455	5
	49	68	12.40079	49206.73	-130610.8	1	139572.5	-69.35643	-7.568925E-011	-0.0047446	5
	50	69	9.93114	61934.04	-154427.4	1	166384	-68.14645	1.666886E-010	-0.0047451	5
	51	71	7.944915	78617.77	-182610.8	1	198815.2	-66.70712	7.258142E-010	-0.0047505	5
	52	72	6.317385	100808.3	-213063.7	1	235708.4	-64.67945	2.557019E-010	-0.0047503	5
	53	74	5.008013	128322	-247671.6	1	278940.4	-62.61071	3.758497E-010	-0.0047509	5
	54	77	3.945707	162614.7	-285582.4	1	328634.8	-60.3422	4.364509E-010	-0.0047507	5
	55	79	3.158693	198618.3	-322855.2	1	379057.6	-58.40045	6.504916E-010	-0.0047323	5
	56	83	2.504006	242064.3	-364419	1	437488.7	-56.40601	-8.467261E-011	-0.0047471	5
	57	85	1.998082	287204.8	-404845.9	1	496373.7	-54.64743	4.687739E-010	-0.0047908	5
	58	88	1.584686	336639.9	-452623.5	1	564087.3	-53.35988	1.529488E-010	-0.0047826	5
	59	92	1.266892	386098.1	-501097.1	1	632589.9	-52.38554	5.224537E-010	-0.0047858	5
	60	96	0.999041	441431	-563442.8	1	715771.8	-51.92297	1.068439E-010	-0.0047325	5
