EXPLAIN
TAG	EISPOT
TITLE	LABEL	Potentiostatic EIS	Test &Identifier
DATE	LABEL	10/18/2019	Date
TIME	LABEL	10:07:09	Time
NOTES	NOTES	1	&Notes...
	
PSTAT	PSTAT	REF600-11020	Potentiostat
VDC	POTEN	0.00000E+000	T	DC &Voltage (V)
FREQINIT	QUANT	1.00000E+006	Initial Fre&q. (Hz)
FREQFINAL	QUANT	1.00000E+000	Final Fre&q. (Hz)
PTSPERDEC	QUANT	1.00000E+001	Points/&decade
VAC	QUANT	2.50000E+001	AC &Voltage (mV rms)
AREA	QUANT	1.00000E-002	&Area (cm^2)
CONDIT	TWOPARAM	T	5.00000E+000	0.00000E+000	Conditionin&g	Time(s)	E(V)
DELAY	TWOPARAM	T	5.00000E+000	0.00000E+000	Init. De&lay	Time(s)	Stab.(mV/s)
SPEED	SELECTOR	0	&Optimize for:
ZGUESS	QUANT	1.00000E+005	E&stimated Z (ohms)
OCVCURVE	TABLE	19
	Pt	T	Vf	Vm	Ach	Over
	#	s	V vs. Ref.	V	V	bits
	0	0.258333	2.91135E-002	2.91135E-002	4.93700E-004	...........
	1	0.516667	3.48168E-002	3.27661E-001	4.94767E-004	.........v.
	2	0.775	7.52334E-002	8.93033E-001	4.95233E-004	...........
	3	1.03333	1.87830E-001	4.06142E-001	5.00433E-004	...........
	4	1.29167	3.47334E-001	4.17452E-001	4.93833E-004	...........
	5	1.55	4.59097E-001	1.10676E-001	4.98800E-004	...........
	6	1.80833	4.62803E-001	3.27661E-001	4.94667E-004	.........v.
	7	2.06667	3.86931E-001	1.10156E-002	4.97233E-004	...........
	8	2.325	2.93851E-001	3.27661E-001	4.95100E-004	.........v.
	9	2.58333	1.60654E-001	-3.26322E+000	4.96000E-004	.........v.
	10	2.84167	-1.73551E-001	-1.40399E+000	4.93733E-004	...........
	11	3.1	-7.42825E-001	-9.60639E-001	4.91567E-004	...........
	12	3.35833	-1.23794E+000	-5.27910E-001	4.93467E-004	...........
	13	3.61667	-1.35228E+000	-3.71426E-001	4.94433E-004	...........
	14	3.875	-1.12779E+000	-3.75138E-001	4.93867E-004	...........
	15	4.13333	-7.83157E-001	5.85609E-001	4.94433E-004	...........
	16	4.39167	-4.30184E-001	8.40247E-001	4.97600E-004	...........
	17	4.65	-2.84527E-002	2.48241E+000	4.98333E-004	...........
	18	4.90833	4.78258E-001	1.12542E+000	5.01700E-004	...........
EOC	QUANT	0.4782577	Open Circuit (V)
PSTATMODEL	IQUANT	4	Pstat Model
PSTATSECTION	LABEL	REF600-11020	Pstat Section
PSTATSERIALNO	LABEL	11020	Pstat Serial Number
CTRLMODE	IQUANT	1	Control Mode
IESTAB	IQUANT	0	I/E Stability
CASPEED	IQUANT	1	Control Amp Speed
CONVENTION	IQUANT	1	Current Convention
ICHRANGE	IQUANT	2	Ich Range
ICHRANGEMODE	TOGGLE	F	Ich Auto Range
ICHOFFSETENABLE	TOGGLE	T	Ich Offset Enable
ICHOFFSET	QUANT	0	Ich Offset (V)
ICHFILTER	IQUANT	3	Ich Filter
VCHRANGE	IQUANT	2	Vch Range
VCHRANGEMODE	TOGGLE	F	Vch Auto Range
VCHOFFSETENABLE	TOGGLE	T	Vch Offset Enable
VCHOFFSET	QUANT	0	Vch Offset (V)
VCHFILTER	IQUANT	3	Vch Filter
ACHRANGE	IQUANT	2	Ach Range
ACHOFFSETENABLE	TOGGLE	F	Ach Offset Enable
ACHOFFSET	QUANT	0	Ach Offset (V)
ACHFILTER	IQUANT	3	Ach Filter
IERANGELOWERLIMIT	IQUANT	1	I/E Range Lower Limit
IERANGEMODE	TOGGLE	F	I/E AutoRange
IERANGE	IQUANT	6	I/E Range
POSFEEDENABLE	TOGGLE	F	Positive Feedback IR Comp
POSFEEDRESISTANCE	QUANT	0	Positive Feedback Resistance (ohm)
ACHSELECT	IQUANT	0	Ach Select
CABLEID	IQUANT	14	Cable ID
DCCALDATE	LABEL	8/19/2019	DC Calibration Date
ACCALDATE	LABEL	8/19/2019	AC Calibration Date
THERMOSELECT	IQUANT	1	Thermo Select
FRAMEWORKVERSION	QUANT	6.33	Framework Version
INSTRUMENTVERSION	LABEL	3.50	Instrument Version
ZCURVE	TABLE
	Pt	Time	Freq	Zreal	Zimag	Zsig	Zmod	Zphz	Idc	Vdc	IERange
	#	s	Hz	ohm	ohm	V	ohm	°	A	V	#
	0	1	1000078	1624.173	-10943.28	1	11063.15	-81.55793	1.22825E-006	0.479758	8
	1	2	794390.6	1453.67	-13434.37	1	13512.79	-83.82432	4.361516E-006	0.4791012	8
	2	2	630984.4	1522.197	-16330.68	1	16401.47	-84.6748	3.328398E-006	0.4791165	8
	3	3	501234.4	1515.596	-20172.35	1	20229.2	-85.70331	1.657542E-006	0.4796921	8
	4	3	398109.4	1952.827	-25280.42	1	25355.73	-85.58286	3.428044E-006	0.4792668	8
	5	4	316265.6	2964.46	-32152.95	1	32289.32	-84.73229	2.249795E-007	0.4798446	8
	6	4	251203.1	2661.49	-40453.31	1	40540.77	-86.23584	8.901026E-007	0.4797753	8
	7	5	199546.9	3891.876	-49329.07	1	49482.36	-85.48892	2.354015E-007	0.479854	8
	8	5	158578.1	11865.38	-66905.3	1	67949.29	-79.94339	3.280242E-006	0.4792709	8
	9	5	125953.1	5516.026	-75215.38	1	75417.38	-85.80564	3.478198E-007	0.4787821	7
	10	6	100078.1	8114.525	-96774.9	1	97114.5	-85.20699	-2.475728E-008	0.4797833	7
	11	6	79453.13	9106.651	-120145.7	1	120490.4	-85.66546	9.996674E-009	0.4797523	7
	12	7	63140.62	10851.72	-149960.9	1	150353	-85.86108	4.81039E-008	0.4796571	7
	13	7	50203.12	13371.49	-185893.2	1	186373.5	-85.88574	-5.437335E-008	0.4798201	7
	14	8	39890.62	18729.96	-233725.1	1	234474.4	-85.4183	-5.414794E-008	0.4798191	7
	15	8	31640.63	19562.91	-290822.9	1	291480.1	-86.15166	1.210976E-007	0.479708	7
	16	9	25171.88	23287.97	-364030.1	1	364774.3	-86.33962	1.044872E-007	0.4795934	7
	17	9	20015.62	148707.3	-325673.3	1	358018.1	-65.45785	1.409566E-009	0.479861	7
	18	10	15890.62	37662.49	-545799.8	1	547097.6	-86.0526	-2.275812E-008	0.4797654	7
	19	10	12609.37	49201.07	-710102.4	1	711804.9	-86.03647	-1.209607E-008	0.4799474	6
	20	10	10078.13	54397.19	-874980.3	1	876669.6	-86.44252	8.765509E-010	0.4796928	6
	21	11	8015.625	-298329.6	-1514051	1	1543162	-101.1468	-1.349983E-008	0.4798635	6
	22	11	6328.125	89431.02	-1378767	1	1381664	-86.28882	2.992476E-009	0.4798613	6
	23	12	5015.625	88505.23	-1688759	1	1691077	-86.99996	4.576444E-009	0.4798256	6
	24	12	3984.375	-81112.74	-1531431	1	1533578	-93.03186	8.750771E-009	0.4795377	6
	25	13	3170.956	506920.7	-2732914	1	2779530	-79.49179	-1.082175E-008	0.4800091	6
	26	13	2527.573	156254.9	-3648627	1	3651972	-87.54777	-1.098743E-008	0.479875	6
	27	14	1976.103	-458516.1	-3872874	1	3899922	-96.7519	1.984461E-008	0.4796012	6
	28	14	1577.524	-666144.1	-1600540	1	1733631	-112.5971	2.295277E-009	0.4796781	6
	29	14	1265.625	230251.1	-7203957	1	7207635	-88.16935	4.978467E-010	0.4800176	5
	30	15	998.264	-3530834	-8312713	1	9031499	-113.0134	2.929162E-008	0.4793712	6
	31	15	796.875	2739212	-1.085679E+007	1	1.119702E+007	-75.83958	1.973324E-009	0.4795553	5
	32	16	627.7902	2583999	-1.182521E+007	1	1.210424E+007	-77.67371	5.340268E-010	0.479688	5
	33	17	505.5147	1920534	-1.502983E+007	1	1.515204E+007	-82.71812	-2.961986E-010	0.479694	5
	34	17	397.9953	3104675	-1.960052E+007	1	1.984489E+007	-80.99927	1.138776E-009	0.479757	5
	35	18	315.5048	-1871288	-2.877979E+007	1	2.884056E+007	-93.72018	1.090466E-009	0.4797561	5
	36	18	252.4038	1.405854E+007	-3.953918E+007	1	4.196414E+007	-70.42667	1.669319E-009	0.4797506	5
	37	19	198.6229	7975465	-2.546758E+007	1	2.668719E+007	-72.61146	9.877508E-010	0.4797516	5
	38	19	158.3615	-6.584931E+008	-3.129753E+008	1	7.290862E+008	-154.5787	1.578448E-009	0.4797534	5
	39	20	125.558	-1.044262E+007	-5.15957E+007	1	5.264185E+007	-101.4417	7.464681E-010	0.4797518	6
	40	20	100.4464	8043731	-7349801	1	1.089593E+007	-42.4189	6.76651E-010	0.4797539	5
	41	21	79.00281	4436385	-6009794	1	7469882	-53.56554	1.141025E-009	0.479753	5
	42	22	63.3446	2652975	1570427	1	3082939	30.62338	1.679595E-009	0.4797482	6
	43	22	49.86702	-2.216152E+007	5428800	1	2.281676E+007	166.2356	1.106466E-009	0.4797484	5
	44	23	39.72458	-9.617138E+006	-2.548494E+007	1	2.723916E+007	-110.6748	1.13676E-009	0.4797533	5
	45	24	31.6723	1.712843E+007	6583278	1	1.835E+007	21.02417	3.940735E-010	0.4797482	5
	46	24	24.93351	-3.738281E+007	-9.046846E+007	1	9.788778E+007	-112.4511	1.003087E-009	0.4797454	5
	47	25	19.86229	4.391534E+007	-7.017952E+007	1	8.278721E+007	-57.96343	8.310654E-010	0.4797456	5
	48	25	15.83615	-225794.9	6948659	1	6952327	91.86116	3.61399E-009	0.4797429	6
	49	26	12.40079	1.044189E+007	-3203798	1	1.092233E+007	-17.05715	-1.889549E-010	0.4797473	6
	50	27	9.93114	-2.014338E+008	2.078193E+007	1	2.02503E+008	174.1096	7.382102E-010	0.479741	5
	51	28	7.944915	1.620778E+007	8.761896E+007	1	8.910541E+007	79.51987	1.088637E-009	0.4797446	5
	52	30	6.317385	2.242626E+008	-9.93723E+007	1	2.452928E+008	-23.89846	8.82853E-010	0.4797598	5
	53	31	5.008013	1.454511E+008	1.022476E+008	1	1.777937E+008	35.10603	8.294678E-010	0.4797489	5
	54	33	3.945707	-1.32548E+008	2.415782E+007	1	1.347315E+008	169.6708	7.13607E-010	0.4797372	5
	55	36	3.158693	6.023372E+008	-4.545989E+008	1	7.546325E+008	-37.04277	8.449024E-010	0.4797327	5
	56	39	2.504006	2.208582E+009	-7.39701E+008	1	2.329162E+009	-18.51679	1.939767E-010	0.4797311	3
	57	42	1.998082	5.60805E+009	-1.25415E+009	1	5.746574E+009	-12.60586	1.878333E-010	0.4797441	3
	58	45	1.584686	2.389946E+009	-6.527907E+008	1	2.477494E+009	-15.27715	1.9036E-010	0.4797541	3
	59	49	1.266892	2.394115E+010	-4.780923E+009	1	2.441385E+010	-11.29311	1.108835E-011	0.4796878	2
	60	55	0.999041	2.518685E+010	-8.452671E+009	1	2.656737E+010	-18.55168	1.058366E-011	0.4797067	2
