EXPLAIN
TAG	EISPOT
TITLE	LABEL	Potentiostatic IDE	Test &Identifier
DATE	LABEL	9/4/2019	Date
TIME	LABEL	11:12:47	Time
NOTES	NOTES	1	&Notes...
	
PSTAT	PSTAT	REF600-11020	Potentiostat
VDC	POTEN	0.00000E+000	T	DC &Voltage (V)
FREQINIT	QUANT	1.00000E+006	Initial Fre&q. (Hz)
FREQFINAL	QUANT	1.00000E+000	Final Fre&q. (Hz)
PTSPERDEC	QUANT	1.00000E+001	Points/&decade
VAC	QUANT	2.50000E+001	AC &Voltage (mV rms)
AREA	QUANT	1.00000E-002	&Area (cm^2)
CONDIT	TWOPARAM	T	5.00000E+000	0.00000E+000	Conditionin&g	Time(s)	E(V)
DELAY	TWOPARAM	T	5.00000E+000	0.00000E+000	Init. De&lay	Time(s)	Stab.(mV/s)
SPEED	SELECTOR	1	&Optimize for:
ZGUESS	QUANT	1.00000E+007	E&stimated Z (ohms)
OCVCURVE	TABLE	19
	Pt	T	Vf	Vm	Ach	Over
	#	s	V vs. Ref.	V	V	bits
	0	0.258333	8.10215E-002	8.10215E-002	5.72999E-004	...........
	1	0.516667	8.10628E-002	8.31794E-002	5.72732E-004	...........
	2	0.775	8.13159E-002	8.52241E-002	5.73366E-004	...........
	3	1.03333	8.20303E-002	8.71008E-002	5.72199E-004	...........
	4	1.29167	8.33017E-002	8.89305E-002	5.74099E-004	...........
	5	1.55	8.49796E-002	9.06139E-002	5.77732E-004	...........
	6	1.80833	8.68221E-002	9.22101E-002	5.80232E-004	...........
	7	2.06667	8.86526E-002	9.37513E-002	5.73166E-004	...........
	8	2.325	9.03924E-002	9.51687E-002	5.76766E-004	...........
	9	2.58333	9.20258E-002	9.65267E-002	5.73799E-004	...........
	10	2.84167	9.35598E-002	9.78152E-002	5.73532E-004	...........
	11	3.1	9.50053E-002	9.90380E-002	5.72499E-004	...........
	12	3.35833	9.63721E-002	1.00205E-001	5.74066E-004	...........
	13	3.61667	9.76685E-002	1.01316E-001	5.75165E-004	...........
	14	3.875	9.89009E-002	1.02377E-001	5.75899E-004	...........
	15	4.13333	1.00074E-001	1.03393E-001	5.75899E-004	...........
	16	4.39167	1.01193E-001	1.04385E-001	5.76999E-004	...........
	17	4.65	1.02263E-001	1.05287E-001	5.76799E-004	...........
	18	4.90833	1.03286E-001	1.06195E-001	5.76866E-004	...........
EOC	QUANT	0.1032859	Open Circuit (V)
PSTATMODEL	IQUANT	4	Pstat Model
PSTATSECTION	LABEL	REF600-11020	Pstat Section
PSTATSERIALNO	LABEL	11020	Pstat Serial Number
CTRLMODE	IQUANT	1	Control Mode
IESTAB	IQUANT	0	I/E Stability
CASPEED	IQUANT	1	Control Amp Speed
CONVENTION	IQUANT	1	Current Convention
ICHRANGE	IQUANT	2	Ich Range
ICHRANGEMODE	TOGGLE	F	Ich Auto Range
ICHOFFSETENABLE	TOGGLE	T	Ich Offset Enable
ICHOFFSET	QUANT	0	Ich Offset (V)
ICHFILTER	IQUANT	3	Ich Filter
VCHRANGE	IQUANT	2	Vch Range
VCHRANGEMODE	TOGGLE	F	Vch Auto Range
VCHOFFSETENABLE	TOGGLE	T	Vch Offset Enable
VCHOFFSET	QUANT	0	Vch Offset (V)
VCHFILTER	IQUANT	3	Vch Filter
ACHRANGE	IQUANT	2	Ach Range
ACHOFFSETENABLE	TOGGLE	F	Ach Offset Enable
ACHOFFSET	QUANT	0	Ach Offset (V)
ACHFILTER	IQUANT	3	Ach Filter
IERANGELOWERLIMIT	IQUANT	1	I/E Range Lower Limit
IERANGEMODE	TOGGLE	F	I/E AutoRange
IERANGE	IQUANT	4	I/E Range
POSFEEDENABLE	TOGGLE	F	Positive Feedback IR Comp
POSFEEDRESISTANCE	QUANT	0	Positive Feedback Resistance (ohm)
ACHSELECT	IQUANT	0	Ach Select
CABLEID	IQUANT	14	Cable ID
DCCALDATE	LABEL	8/19/2019	DC Calibration Date
ACCALDATE	LABEL	8/19/2019	AC Calibration Date
THERMOSELECT	IQUANT	1	Thermo Select
FRAMEWORKVERSION	QUANT	6.33	Framework Version
INSTRUMENTVERSION	LABEL	3.50	Instrument Version
ZCURVE	TABLE
	Pt	Time	Freq	Zreal	Zimag	Zsig	Zmod	Zphz	Idc	Vdc	IERange
	#	s	Hz	ohm	ohm	V	ohm	°	A	V	#
	0	2	1000078	2533.416	-1845.05	1	3134.072	-36.06531	1.05392E-005	0.1048457	8
	1	3	794390.6	2866.43	-1765.28	1	3366.398	-31.62668	1.032461E-005	0.1050807	8
	2	5	630984.4	3180.181	-1644.921	1	3580.407	-27.34988	1.324975E-005	0.1041712	8
	3	7	501234.4	3436.77	-1504.232	1	3751.546	-23.6384	1.27117E-005	0.1041866	8
	4	8	398109.4	3644.549	-1354.326	1	3888.051	-20.38523	1.023964E-005	0.1045649	8
	5	10	316265.6	3802.906	-1233.703	1	3998.014	-17.97361	1.18889E-005	0.1042955	8
	6	11	251203.1	3943.121	-1107.333	1	4095.655	-15.68614	1.180155E-005	0.1042916	8
	7	13	199546.9	4050.186	-1031.027	1	4179.356	-14.28203	1.02311E-005	0.1045902	8
	8	14	158578.1	4145.201	-945.9495	1	4251.766	-12.85497	1.043544E-005	0.1045896	8
	9	16	125953.1	4226.282	-914.9225	1	4324.181	-12.21513	5.632601E-007	0.1053024	7
	10	17	100078.1	4296.958	-900.2356	1	4390.248	-11.83263	1.103939E-006	0.1046053	7
	11	19	79453.13	4369.589	-923.9244	1	4466.201	-11.93901	1.131328E-006	0.1044501	7
	12	20	63140.62	4443.316	-975.067	1	4549.046	-12.37713	1.150033E-006	0.1044766	7
	13	21	50203.12	4523.027	-1048.535	1	4642.973	-13.05184	1.068396E-006	0.1045834	7
	14	23	39890.62	4611.417	-1152.031	1	4753.14	-14.02662	1.068553E-006	0.1045775	7
	15	24	31640.63	4705.454	-1293.995	1	4880.135	-15.3762	1.069012E-006	0.104582	7
	16	25	25171.88	4817.09	-1460.762	1	5033.705	-16.8697	1.083433E-006	0.1046079	7
	17	27	20015.62	4941.403	-1668.956	1	5215.638	-18.66237	1.102617E-006	0.1044919	7
	18	28	15890.62	5088.158	-1922.925	1	5439.393	-20.70267	1.090779E-006	0.1045585	7
	19	29	12609.37	5255.86	-2229.652	1	5709.239	-22.98773	1.152167E-006	0.1044661	7
	20	31	10078.13	5445.583	-2583.857	1	6027.495	-25.38372	1.113663E-006	0.1045287	7
	21	32	8015.625	5669.045	-3008.318	1	6417.792	-27.95296	1.076347E-006	0.1045526	7
	22	34	6328.125	5940.884	-3530.806	1	6910.911	-30.724	1.096175E-006	0.1045584	7
	23	35	5015.625	6251.62	-4146.659	1	7501.835	-33.55606	1.09154E-006	0.1045604	7
	24	36	3984.375	6609.147	-4856.164	1	8201.412	-36.30711	1.081877E-006	0.1045964	7
	25	38	3170.956	7021.199	-5691.717	1	9038.411	-39.02987	1.083974E-006	0.1046073	7
	26	39	2527.573	7499.224	-6664.167	1	10032.42	-41.62582	1.162332E-006	0.1044491	7
	27	40	1976.103	8139.988	-7924.45	1	11360.3	-44.2313	1.08587E-006	0.1045109	7
	28	42	1577.524	8803.601	-9289.979	1	12798.71	-46.53981	1.158646E-006	0.1044304	7
	29	43	1265.625	9580.92	-10858.98	1	14481.42	-48.57791	1.032639E-007	0.1045445	6
	30	44	998.264	10549.17	-12843.7	1	16620.64	-50.60203	1.046206E-007	0.1044823	6
	31	46	796.875	11625.47	-15074.8	1	19036.84	-52.36109	1.16844E-007	0.1043324	6
	32	47	627.7902	13017.63	-17866.43	1	22105.84	-53.92261	1.030704E-007	0.1045264	6
	33	48	505.5147	14462.72	-20847.6	1	25373.07	-55.2496	1.047501E-007	0.1045199	6
	34	50	397.9953	16364.25	-24704.25	1	29632.56	-56.47926	1.093508E-007	0.1041303	6
	35	51	315.5048	18557.25	-29134.32	1	34542.44	-57.5047	1.091052E-007	0.1041268	6
	36	52	252.4038	21050	-34124.09	1	40094.34	-58.33096	1.096144E-007	0.1041281	6
	37	54	198.6229	24218.96	-40439.94	1	47137.53	-59.08315	1.093173E-007	0.1041271	6
	38	55	158.3615	27756.72	-47465.25	1	54985.32	-59.68176	1.095035E-007	0.1041237	6
	39	56	125.558	32065.36	-55889.04	1	64434.25	-60.15571	1.091942E-007	0.1041183	6
	40	58	100.4464	37062.77	-65346.68	1	75125.48	-60.43933	1.094307E-007	0.1041224	6
	41	59	79.00281	43448.19	-77327.29	1	88697.55	-60.6695	1.090405E-007	0.1041253	6
	42	60	63.3446	50406.94	-89044.03	1	102321.5	-60.48623	1.093149E-007	0.1041219	6
	43	62	49.86702	58519.86	-107476.9	1	122375.9	-61.43225	1.095191E-007	0.1041214	6
	44	63	39.72458	68105.09	-124247.1	1	141688.5	-61.27099	1.081388E-008	0.1041333	5
	45	64	31.6723	79127.22	-144961.5	1	165151.3	-61.37209	1.11734E-008	0.1041313	5
	46	66	24.93351	92638.2	-171534.8	1	194951.4	-61.62852	1.087664E-008	0.1041328	5
	47	67	19.86229	107279.7	-200494.6	1	227391.8	-61.84987	1.121352E-008	0.1041387	5
	48	69	15.83615	124995.2	-234059.4	1	265344.3	-61.89635	1.133665E-008	0.1041272	5
	49	70	12.40079	144919.5	-278385.4	1	313847.2	-62.49981	1.117127E-008	0.1041301	5
	50	71	9.93114	167419	-324957.8	1	365549.8	-62.74237	1.079918E-008	0.104133	5
	51	73	7.944915	192856.4	-382110.6	1	428021.1	-63.2193	1.113234E-008	0.1041299	5
	52	75	6.317385	223928.8	-450338.3	1	502940.1	-63.56134	1.100453E-008	0.1041219	5
	53	77	5.008013	260056.5	-534196.4	1	594133.9	-64.04234	1.088446E-008	0.1041232	5
	54	79	3.945707	304991.8	-637836.1	1	707004.2	-64.44444	1.092478E-007	0.1041257	6
	55	82	3.158693	355488.5	-750505.5	1	830440	-64.65471	1.095466E-008	0.1041483	5
	56	86	2.504006	419173.1	-893095.1	1	986572	-64.85704	1.077067E-008	0.1044111	5
	57	89	1.998082	493908.4	-1055762	1	1165581	-64.92878	1.082662E-008	0.1043805	5
	58	92	1.584686	591063.1	-1251363	1	1383931	-64.71697	1.086008E-008	0.1044478	5
	59	95	1.266892	704250.9	-1480066	1	1639074	-64.55376	9.78158E-010	0.1043902	4
	60	100	0.999041	857763.8	-1757968	1	1956070	-63.9909	1.091126E-009	0.1044567	4
