EXPLAIN
TAG	EISPOT
TITLE	LABEL	Potentiostatic EIS	Test &Identifier
DATE	LABEL	11/22/2019	Date
TIME	LABEL	1:54:59	Time
NOTES	NOTES	4	&Notes...
	
	
	
	
PSTAT	PSTAT	REF600-11020	Potentiostat
VDC	POTEN	0.00000E+000	T	DC &Voltage (V)
FREQINIT	QUANT	1.00000E+006	Initial Fre&q. (Hz)
FREQFINAL	QUANT	1.00000E+000	Final Fre&q. (Hz)
PTSPERDEC	QUANT	1.00000E+001	Points/&decade
VAC	QUANT	2.50000E+001	AC &Voltage (mV rms)
AREA	QUANT	1.00000E-002	&Area (cm^2)
CONDIT	TWOPARAM	T	5.00000E+000	0.00000E+000	Conditionin&g	Time(s)	E(V)
DELAY	TWOPARAM	T	5.00000E+000	0.00000E+000	Init. De&lay	Time(s)	Stab.(mV/s)
SPEED	SELECTOR	1	&Optimize for:
ZGUESS	QUANT	1.00000E+005	E&stimated Z (ohms)
OCVCURVE	TABLE	19
	Pt	T	Vf	Vm	Ach	Over
	#	s	V vs. Ref.	V	V	bits
	0	0.258333	9.10027E-003	9.10027E-003	5.48199E-004	...........
	1	0.516667	9.09190E-003	8.66206E-003	5.45866E-004	...........
	2	0.775	9.04933E-003	8.70925E-003	5.44666E-004	...........
	3	1.03333	8.95327E-003	8.49279E-003	5.48966E-004	...........
	4	1.29167	8.81852E-003	8.39230E-003	5.49333E-004	...........
	5	1.55	8.67298E-003	8.23484E-003	5.51166E-004	...........
	6	1.80833	8.54035E-003	8.66234E-003	5.45099E-004	...........
	7	2.06667	8.45277E-003	8.37113E-003	5.43699E-004	...........
	8	2.325	8.41872E-003	8.04565E-003	5.52366E-004	...........
	9	2.58333	8.38306E-003	7.86812E-003	5.49333E-004	...........
	10	2.84167	8.28592E-003	7.90583E-003	5.47099E-004	...........
	11	3.1	8.13978E-003	7.82231E-003	5.48933E-004	...........
	12	3.35833	8.00055E-003	7.76837E-003	5.47166E-004	...........
	13	3.61667	7.89637E-003	7.61075E-003	5.41333E-004	...........
	14	3.875	7.81880E-003	7.78685E-003	5.41766E-004	...........
	15	4.13333	7.75603E-003	7.44419E-003	5.52866E-004	...........
	16	4.39167	7.70275E-003	7.72462E-003	5.43433E-004	...........
	17	4.65	7.65374E-003	7.32575E-003	5.48166E-004	...........
	18	4.90833	7.60604E-003	7.66594E-003	5.46133E-004	...........
EOC	QUANT	0.007606	Open Circuit (V)
PSTATMODEL	IQUANT	4	Pstat Model
PSTATSECTION	LABEL	REF600-11020	Pstat Section
PSTATSERIALNO	LABEL	11020	Pstat Serial Number
CTRLMODE	IQUANT	1	Control Mode
IESTAB	IQUANT	0	I/E Stability
CASPEED	IQUANT	1	Control Amp Speed
CONVENTION	IQUANT	1	Current Convention
ICHRANGE	IQUANT	2	Ich Range
ICHRANGEMODE	TOGGLE	F	Ich Auto Range
ICHOFFSETENABLE	TOGGLE	T	Ich Offset Enable
ICHOFFSET	QUANT	0	Ich Offset (V)
ICHFILTER	IQUANT	3	Ich Filter
VCHRANGE	IQUANT	2	Vch Range
VCHRANGEMODE	TOGGLE	F	Vch Auto Range
VCHOFFSETENABLE	TOGGLE	T	Vch Offset Enable
VCHOFFSET	QUANT	0	Vch Offset (V)
VCHFILTER	IQUANT	3	Vch Filter
ACHRANGE	IQUANT	2	Ach Range
ACHOFFSETENABLE	TOGGLE	F	Ach Offset Enable
ACHOFFSET	QUANT	0	Ach Offset (V)
ACHFILTER	IQUANT	3	Ach Filter
IERANGELOWERLIMIT	IQUANT	1	I/E Range Lower Limit
IERANGEMODE	TOGGLE	F	I/E AutoRange
IERANGE	IQUANT	5	I/E Range
POSFEEDENABLE	TOGGLE	F	Positive Feedback IR Comp
POSFEEDRESISTANCE	QUANT	0	Positive Feedback Resistance (ohm)
ACHSELECT	IQUANT	0	Ach Select
CABLEID	IQUANT	14	Cable ID
DCCALDATE	LABEL	8/19/2019	DC Calibration Date
ACCALDATE	LABEL	8/19/2019	AC Calibration Date
THERMOSELECT	IQUANT	1	Thermo Select
FRAMEWORKVERSION	QUANT	6.33	Framework Version
INSTRUMENTVERSION	LABEL	3.50	Instrument Version
ZCURVE	TABLE
	Pt	Time	Freq	Zreal	Zimag	Zsig	Zmod	Zphz	Idc	Vdc	IERange
	#	s	Hz	ohm	ohm	V	ohm	°	A	V	#
	0	1	1000078	1272.529	-9035.722	1	9124.889	-81.98357	-5.604278E-006	0.0092119	8
	1	2	794390.6	1302.669	-11234.9	1	11310.17	-83.38618	-3.291632E-006	0.0095882	8
	2	4	630984.4	1928.474	-13897.58	1	14030.75	-82.0999	7.390094E-006	0.0079048	8
	3	6	501234.4	2243.84	-17199.83	1	17345.57	-82.56734	-7.450558E-008	0.0087839	8
	4	8	398109.4	3066.4	-21259.5	1	21479.5	-81.79245	-1.03859E-006	0.0095632	8
	5	10	316265.6	3962.797	-26251.25	1	26548.67	-81.41564	-4.309154E-007	0.0095209	8
	6	12	251203.1	5673.675	-32280.93	1	32775.74	-80.03155	-9.545771E-007	0.0095005	8
	7	14	199546.9	7265.979	-40080.35	1	40733.63	-79.72471	-5.616913E-007	0.0087402	8
	8	15	158578.1	8912.664	-48895.51	1	49701.17	-79.66956	-4.529181E-007	0.0094916	8
	9	17	125953.1	14522.56	-58510.33	1	60285.68	-76.06059	2.43152E-006	0.0016786	7
	10	18	100078.1	17165.55	-71334.88	1	73371.12	-76.46996	1.422893E-006	0.0067508	7
	11	20	79453.13	21754.69	-85407.15	1	88134.26	-75.70965	-1.31557E-006	0.0094437	7
	12	22	63140.62	26488.89	-103125	1	106472.6	-75.59432	-1.520252E-006	0.011064	7
	13	24	50203.12	30771.25	-123548.4	1	127322.7	-76.01434	-2.635421E-007	0.007611	7
	14	25	39890.62	36345.95	-150029.2	1	154369	-76.38194	1.313283E-006	0.0082525	7
	15	27	31640.63	42595.86	-181631.4	1	186559.3	-76.80161	3.581216E-007	0.0099429	7
	16	29	25171.88	47517.3	-222284.2	1	227306.3	-77.93359	-9.612301E-007	0.0111731	7
	17	31	20015.62	70894.61	-259184.5	1	268705.5	-74.70211	3.221806E-007	0.0069301	7
	18	32	15890.62	67383.42	-336568.3	1	343247.3	-78.67865	1.515816E-006	0.007118	7
	19	34	12609.37	76067.14	-413188.2	1	420131.8	-79.56876	2.214074E-007	0.0041817	6
	20	36	10078.13	89405.23	-504974.3	1	512827.8	-79.95988	3.070121E-007	0.0059103	6
	21	38	8015.625	90980.88	-630047.4	1	636582.4	-81.7831	8.189652E-008	0.0110862	6
	22	39	6328.125	134717.6	-781684	1	793207.9	-80.22154	2.20297E-007	0.0041782	6
	23	41	5015.625	174306.9	-973540	1	989022	-79.84907	2.91821E-007	0.006884	6
	24	43	3984.375	114029.6	-1250174	1	1255363	-84.78841	-1.468013E-007	0.0075548	6
	25	44	3170.956	293711.5	-1466984	1	1496098	-78.67825	-3.468505E-007	0.0124954	6
	26	46	2527.573	362177.8	-1804809	1	1840790	-78.65295	1.449911E-007	0.0044248	6
	27	48	1976.103	492731.8	-2296235	1	2348505	-77.88898	-1.209339E-007	0.0132813	6
	28	50	1577.524	2760350	-2569108	1	3770921	-42.94489	-2.974583E-007	0.0140748	6
	29	52	1265.625	995581	-3386841	1	3530138	-73.619	2.927018E-008	0.0045684	5
	30	54	998.264	1400897	-4027540	1	4264223	-70.82082	1.903354E-008	0.004228	5
	31	55	796.875	1929625	-4752075	1	5128905	-67.89992	-1.723825E-008	0.013833	5
	32	57	627.7902	2293006	-5918881	1	6347522	-68.82337	-2.004994E-008	0.0084054	5
	33	58	505.5147	3075318	-6741983	1	7410257	-65.48016	-1.966434E-008	0.0083946	5
	34	60	397.9953	4821682	-7802202	1	9171857	-58.28436	5.554789E-010	0.0089417	5
	35	62	315.5048	4964598	-8995097	1	1.027419E+007	-61.1047	-3.825633E-010	0.0089536	5
	36	63	252.4038	6366127	-9294706	1	1.126584E+007	-55.59199	1.511594E-010	0.0089324	5
	37	65	198.6229	1.066844E+007	-1.136406E+007	1	1.558709E+007	-46.80836	1.452118E-010	0.0089472	5
	38	66	158.3615	1.415258E+007	-1.2127E+007	1	1.863759E+007	-40.59245	5.1537E-011	0.0089395	5
	39	68	125.558	1.412568E+007	-1.360256E+007	1	1.961032E+007	-43.91918	-1.03343E-011	0.0089561	4
	40	69	100.4464	1.71899E+007	-1.178174E+007	1	2.083991E+007	-34.42624	-4.916107E-011	0.0089325	4
	41	71	79.00281	2.626508E+007	215350.6	1	2.626596E+007	0.4697647	8.128409E-010	0.0089355	4
	42	73	63.3446	4633498	-798456	1	4701790	-9.77733	-6.614763E-010	0.0089417	4
	43	75	49.86702	1.530648E+007	-3352616	1	1.566934E+007	-12.35453	4.993588E-010	0.008939	4
	44	76	39.72458	2.621203E+007	491482	1	2.621664E+007	1.074184	3.386222E-010	0.0089385	4
	45	78	31.6723	1.689001E+007	-6186826	1	1.798748E+007	-20.11783	-1.485086E-010	0.0089541	4
	46	79	24.93351	2.257577E+007	-7777696	1	2.387798E+007	-19.00961	-4.946379E-011	0.0089489	4
	47	81	19.86229	2.22308E+007	-2435353	1	2.23638E+007	-6.251741	-1.937106E-010	0.0089439	4
	48	83	15.83615	1.611834E+007	3.858477E+007	1	4.181609E+007	67.32784	7.321178E-010	0.0089501	4
	49	84	12.40079	2.667934E+007	2.958738E+007	1	3.983968E+007	47.95859	-3.411997E-010	0.0089621	4
	50	86	9.93114	2.537816E+007	-1.306882E+007	1	2.854549E+007	-27.24681	1.085341E-010	0.0089563	4
	51	88	7.944915	1.780099E+007	-1.007471E+007	1	2.045422E+007	-29.50826	-3.038033E-010	0.00893	4
	52	90	6.317385	2.732909E+007	-3891120	1	2.760471E+007	-8.103319	5.988365E-011	0.0089344	4
	53	92	5.008013	2.956857E+007	-2289412	1	2.965707E+007	-4.427419	-2.286611E-011	0.0089425	4
	54	95	3.945707	2.70804E+007	-3855810	1	2.735353E+007	-8.10352	7.12411E-011	0.0089322	4
	55	99	3.158693	2.871545E+007	-1602258	1	2.876012E+007	-3.193665	1.442754E-009	0.0089322	4
	56	102	2.504006	6.412389E+007	-6520307	1	6.445454E+007	-5.80605	1.329527E-010	0.0089109	3
	57	106	1.998082	7.169941E+007	-3317762	1	7.177613E+007	-2.649369	7.035254E-011	0.0089591	3
	58	111	1.584686	8.808342E+007	1.099045E+007	1	8.876643E+007	7.112221	-6.41722E-011	0.0088898	3
	59	118	1.266892	7.683238E+007	-9302161	1	7.739345E+007	-6.903249	1.721256E-011	0.008894	3
	60	125	0.999041	7.619444E+007	-6520809	1	7.647296E+007	-4.891521	2.339856E-011	0.008961	3
