EXPLAIN
TAG	EISPOT
TITLE	LABEL	Potentiostatic IDE	Test &Identifier
DATE	LABEL	9/4/2019	Date
TIME	LABEL	11:01:32	Time
NOTES	NOTES	1	&Notes...
	
PSTAT	PSTAT	REF600-11020	Potentiostat
VDC	POTEN	0.00000E+000	T	DC &Voltage (V)
FREQINIT	QUANT	1.00000E+006	Initial Fre&q. (Hz)
FREQFINAL	QUANT	1.00000E+000	Final Fre&q. (Hz)
PTSPERDEC	QUANT	1.00000E+001	Points/&decade
VAC	QUANT	2.50000E+001	AC &Voltage (mV rms)
AREA	QUANT	1.00000E-002	&Area (cm^2)
CONDIT	TWOPARAM	T	5.00000E+000	0.00000E+000	Conditionin&g	Time(s)	E(V)
DELAY	TWOPARAM	T	5.00000E+000	0.00000E+000	Init. De&lay	Time(s)	Stab.(mV/s)
SPEED	SELECTOR	1	&Optimize for:
ZGUESS	QUANT	1.00000E+007	E&stimated Z (ohms)
OCVCURVE	TABLE	19
	Pt	T	Vf	Vm	Ach	Over
	#	s	V vs. Ref.	V	V	bits
	0	0.258333	7.28711E-002	7.28711E-002	5.74665E-004	...........
	1	0.516667	7.29589E-002	7.74673E-002	5.78632E-004	...........
	2	0.775	7.34943E-002	8.16275E-002	5.75332E-004	...........
	3	1.03333	7.49927E-002	8.54210E-002	5.70832E-004	...........
	4	1.29167	7.76297E-002	8.89018E-002	5.73666E-004	...........
	5	1.55	8.10557E-002	9.20992E-002	5.70932E-004	...........
	6	1.80833	8.47411E-002	9.50556E-002	5.67799E-004	...........
	7	2.06667	8.83148E-002	9.77848E-002	5.71399E-004	...........
	8	2.325	9.16247E-002	1.00342E-001	5.72066E-004	...........
	9	2.58333	9.46557E-002	1.02738E-001	5.73132E-004	...........
	10	2.84167	9.74485E-002	1.05229E-001	5.67832E-004	...........
	11	3.1	1.00033E-001	1.05975E-001	5.69799E-004	...........
	12	3.35833	1.02373E-001	1.08230E-001	5.70032E-004	...........
	13	3.61667	1.04433E-001	1.10167E-001	5.71666E-004	...........
	14	3.875	1.06307E-001	1.12156E-001	5.71466E-004	...........
	15	4.13333	1.08151E-001	1.14058E-001	5.70899E-004	...........
	16	4.39167	1.10033E-001	1.15665E-001	5.67032E-004	...........
	17	4.65	1.11920E-001	1.17214E-001	5.64632E-004	...........
	18	4.90833	1.13740E-001	1.18729E-001	5.70466E-004	...........
EOC	QUANT	0.1137397	Open Circuit (V)
PSTATMODEL	IQUANT	4	Pstat Model
PSTATSECTION	LABEL	REF600-11020	Pstat Section
PSTATSERIALNO	LABEL	11020	Pstat Serial Number
CTRLMODE	IQUANT	1	Control Mode
IESTAB	IQUANT	0	I/E Stability
CASPEED	IQUANT	1	Control Amp Speed
CONVENTION	IQUANT	1	Current Convention
ICHRANGE	IQUANT	2	Ich Range
ICHRANGEMODE	TOGGLE	F	Ich Auto Range
ICHOFFSETENABLE	TOGGLE	T	Ich Offset Enable
ICHOFFSET	QUANT	0	Ich Offset (V)
ICHFILTER	IQUANT	3	Ich Filter
VCHRANGE	IQUANT	2	Vch Range
VCHRANGEMODE	TOGGLE	F	Vch Auto Range
VCHOFFSETENABLE	TOGGLE	T	Vch Offset Enable
VCHOFFSET	QUANT	0	Vch Offset (V)
VCHFILTER	IQUANT	3	Vch Filter
ACHRANGE	IQUANT	2	Ach Range
ACHOFFSETENABLE	TOGGLE	F	Ach Offset Enable
ACHOFFSET	QUANT	0	Ach Offset (V)
ACHFILTER	IQUANT	3	Ach Filter
IERANGELOWERLIMIT	IQUANT	1	I/E Range Lower Limit
IERANGEMODE	TOGGLE	F	I/E AutoRange
IERANGE	IQUANT	4	I/E Range
POSFEEDENABLE	TOGGLE	F	Positive Feedback IR Comp
POSFEEDRESISTANCE	QUANT	0	Positive Feedback Resistance (ohm)
ACHSELECT	IQUANT	0	Ach Select
CABLEID	IQUANT	14	Cable ID
DCCALDATE	LABEL	8/19/2019	DC Calibration Date
ACCALDATE	LABEL	8/19/2019	AC Calibration Date
THERMOSELECT	IQUANT	1	Thermo Select
FRAMEWORKVERSION	QUANT	6.33	Framework Version
INSTRUMENTVERSION	LABEL	3.50	Instrument Version
ZCURVE	TABLE
	Pt	Time	Freq	Zreal	Zimag	Zsig	Zmod	Zphz	Idc	Vdc	IERange
	#	s	Hz	ohm	ohm	V	ohm	°	A	V	#
	0	2	1000078	2440.877	-2252.626	1	3321.477	-42.70317	-1.689942E-006	0.1167739	8
	1	3	794390.6	2885.938	-2243.49	1	3655.391	-37.86102	6.094409E-008	0.1159323	8
	2	4	630984.4	3331.627	-2173.906	1	3978.141	-33.12468	-1.009949E-006	0.115738	8
	3	6	501234.4	3721.682	-2035.906	1	4242.149	-28.68039	3.358949E-006	0.1154522	8
	4	7	398109.4	4061.11	-1848.33	1	4461.943	-24.47167	8.99607E-007	0.1152815	8
	5	8	316265.6	4316.435	-1660.525	1	4624.819	-21.04165	-2.649415E-006	0.1158149	8
	6	10	251203.1	4540.207	-1489.36	1	4778.25	-18.16145	2.492314E-007	0.1154744	8
	7	11	199546.9	4728.694	-1356.91	1	4919.528	-16.01095	-2.074443E-006	0.1157443	8
	8	12	158578.1	4847.973	-1223.399	1	4999.955	-14.16304	8.696963E-007	0.1154329	8
	9	14	125953.1	4994.696	-1082.943	1	5110.749	-12.23343	-1.812049E-007	0.115518	7
	10	15	100078.1	5088.469	-1010.389	1	5187.813	-11.23083	1.993318E-008	0.1153227	7
	11	16	79453.13	5181.22	-977.09	1	5272.546	-10.67958	7.681751E-008	0.1152294	7
	12	18	63140.62	5266.463	-965.256	1	5354.19	-10.3861	-2.564803E-008	0.1153661	7
	13	19	50203.12	5353.057	-978.471	1	5441.748	-10.35859	2.519794E-008	0.1152707	7
	14	20	39890.62	5444.896	-1012.885	1	5538.306	-10.53797	-3.526254E-009	0.1153627	7
	15	22	31640.63	5536.175	-1073.199	1	5639.236	-10.97083	2.701069E-008	0.1152682	7
	16	23	25171.88	5636.374	-1155.594	1	5753.617	-11.58647	-3.452827E-009	0.1153599	7
	17	24	20015.62	5746.145	-1263.597	1	5883.439	-12.40214	1.438865E-008	0.1152693	7
	18	26	15890.62	5867.195	-1405.338	1	6033.155	-13.46998	-6.39386E-009	0.1153438	7
	19	27	12609.37	6002.267	-1569.925	1	6204.182	-14.65766	-2.264423E-008	0.1154071	7
	20	28	10078.13	6149.464	-1762.792	1	6397.135	-15.99536	4.391876E-008	0.115278	7
	21	30	8015.625	6316.872	-2004.13	1	6627.171	-17.60247	-2.457406E-009	0.1153115	7
	22	31	6328.125	6513.728	-2297.927	1	6907.178	-19.43193	7.837176E-008	0.1152149	7
	23	32	5015.625	6734.009	-2639.865	1	7232.963	-21.40616	-2.149593E-008	0.1154071	7
	24	34	3984.375	6981.521	-3038.901	1	7614.233	-23.52242	2.506041E-008	0.1152582	7
	25	35	3170.956	7260.104	-3503.906	1	8061.418	-25.76311	5.073267E-008	0.115222	7
	26	36	2527.573	7579.804	-4053.669	1	8595.677	-28.13782	4.684981E-008	0.1152845	7
	27	38	1976.103	7975.279	-4759.713	1	9287.623	-30.82911	-2.129838E-009	0.1153628	7
	28	39	1577.524	8398.284	-5513.801	1	10046.55	-33.28646	-4.339051E-009	0.1153077	6
	29	40	1265.625	8867.945	-6396.486	1	10934.14	-35.80307	-1.531522E-009	0.1152255	6
	30	42	998.264	9453.106	-7499.639	1	12066.72	-38.42679	-1.141943E-009	0.115285	6
	31	43	796.875	10097.63	-8748.872	1	13360.57	-40.90658	3.119653E-009	0.1151383	6
	32	44	627.7902	10889.73	-10312.69	1	14997.92	-43.44104	-2.660399E-009	0.1153456	6
	33	46	505.5147	11728.28	-11979.06	1	16764.56	-45.60604	2.675551E-010	0.1153236	6
	34	47	397.9953	12807.45	-14146.55	1	19082.86	-47.84416	2.374752E-010	0.1152794	6
	35	48	315.5048	14027.91	-16638.94	1	21763.19	-49.86653	-2.705444E-010	0.1152771	6
	36	50	252.4038	15387.01	-19457.94	1	24806.68	-51.66365	1.872316E-010	0.1152776	6
	37	51	198.6229	17071.39	-23038.02	1	28673.72	-53.4612	4.754241E-011	0.1152864	6
	38	52	158.3615	18907.58	-27046.65	1	33000.27	-55.04364	1.630433E-010	0.11528	6
	39	54	125.558	21089.41	-31914.35	1	38252.95	-56.54276	1.492309E-010	0.1152829	6
	40	55	100.4464	23517.63	-37476.28	1	44244.21	-57.89034	-4.218506E-010	0.1152734	6
	41	57	79.00281	26550.2	-44656.21	1	51952.77	-59.26655	2.292766E-010	0.1152792	6
	42	58	63.3446	29262.55	-52714.25	1	60291.7	-60.96463	-1.346284E-010	0.1152719	6
	43	59	49.86702	33830.3	-62485.5	1	71055.8	-61.56842	2.091067E-010	0.1152783	6
	44	61	39.72458	38068.7	-74414.91	1	83587.11	-62.90692	1.392599E-011	0.1152836	6
	45	62	31.6723	43320.73	-88459.74	1	98497.8	-63.90796	-3.794992E-010	0.1152759	6
	46	63	24.93351	49526.32	-106251.1	1	117227	-65.00859	-1.256086E-010	0.1152767	5
	47	65	19.86229	56537.35	-126698	1	138740.3	-65.9518	-1.123469E-011	0.1152891	5
	48	66	15.83615	65372.79	-150257.7	1	163862.7	-66.48753	-7.95327E-010	0.1152819	5
	49	67	12.40079	76719.35	-182842.8	1	198286	-67.23747	5.16337E-010	0.1152805	5
	50	69	9.93114	88493.81	-218825.3	1	236041.6	-67.98139	1.089534E-010	0.1152827	5
	51	70	7.944915	103767.9	-261971.8	1	281774.7	-68.39133	-8.906482E-011	0.115287	5
	52	72	6.317385	123007.3	-314175.8	1	337397.8	-68.61848	-5.374636E-011	0.1152742	5
	53	74	5.008013	147573.7	-378000	1	405785.7	-68.674	-1.399617E-010	0.1152845	5
	54	76	3.945707	179741.3	-456407.2	1	490524.7	-68.5046	-2.777594E-010	0.1152791	5
	55	79	3.158693	218484.8	-543083.8	1	585385	-68.08488	-3.958502E-010	0.1152726	5
	56	82	2.504006	266511.3	-641739.8	1	694880	-67.44713	-4.289262E-010	0.1152851	5
	57	85	1.998082	326560	-768947.8	1	835417.4	-66.98983	-1.726719E-010	0.1153158	5
	58	88	1.584686	413392.5	-904924.6	1	994878	-65.44788	-1.264998E-009	0.1152834	5
	59	92	1.266892	503013.1	-1065158	1	1177957	-64.72131	-7.508547E-010	0.115332	4
	60	96	0.999041	613251.7	-1259040	1	1400450	-64.03027	-2.67681E-010	0.1152546	4
