EXPLAIN
TAG	EISPOT
TITLE	LABEL	Potentiostatic IDE	Test &Identifier
DATE	LABEL	9/16/2019	Date
TIME	LABEL	9:51:11	Time
NOTES	NOTES	1	&Notes...
	
PSTAT	PSTAT	REF600-11020	Potentiostat
VDC	POTEN	0.00000E+000	T	DC &Voltage (V)
FREQINIT	QUANT	1.00000E+006	Initial Fre&q. (Hz)
FREQFINAL	QUANT	1.00000E+000	Final Fre&q. (Hz)
PTSPERDEC	QUANT	1.00000E+001	Points/&decade
VAC	QUANT	2.50000E+001	AC &Voltage (mV rms)
AREA	QUANT	1.00000E-002	&Area (cm^2)
CONDIT	TWOPARAM	T	5.00000E+000	0.00000E+000	Conditionin&g	Time(s)	E(V)
DELAY	TWOPARAM	T	5.00000E+000	0.00000E+000	Init. De&lay	Time(s)	Stab.(mV/s)
SPEED	SELECTOR	1	&Optimize for:
ZGUESS	QUANT	1.00000E+007	E&stimated Z (ohms)
OCVCURVE	TABLE	19
	Pt	T	Vf	Vm	Ach	Over
	#	s	V vs. Ref.	V	V	bits
	0	0.258333	7.64046E-003	7.64046E-003	5.66432E-004	...........
	1	0.516667	7.63215E-003	7.20524E-003	5.66566E-004	...........
	2	0.775	7.58215E-003	6.84784E-003	5.60799E-004	...........
	3	1.03333	7.44532E-003	6.56381E-003	5.63232E-004	...........
	4	1.29167	7.21249E-003	6.30492E-003	5.67499E-004	...........
	5	1.55	6.92335E-003	6.08281E-003	5.64932E-004	...........
	6	1.80833	6.62846E-003	5.87858E-003	5.65799E-004	...........
	7	2.06667	6.35758E-003	5.68875E-003	5.72299E-004	...........
	8	2.325	6.11795E-003	5.51524E-003	5.72032E-004	...........
	9	2.58333	5.90533E-003	5.35438E-003	5.66099E-004	...........
	10	2.84167	5.71345E-003	5.20775E-003	5.66132E-004	...........
	11	3.1	5.53776E-003	5.06382E-003	5.66932E-004	...........
	12	3.35833	5.37540E-003	4.93807E-003	5.71466E-004	...........
	13	3.61667	5.22471E-003	4.82501E-003	5.63666E-004	...........
	14	3.875	5.08505E-003	4.70611E-003	5.67266E-004	...........
	15	4.13333	4.95570E-003	4.60340E-003	5.69099E-004	...........
	16	4.39167	4.83528E-003	4.51115E-003	5.67632E-004	...........
	17	4.65	4.72295E-003	4.42031E-003	5.67299E-004	...........
	18	4.90833	4.61862E-003	4.33776E-003	5.67432E-004	...........
EOC	QUANT	0.0046186	Open Circuit (V)
PSTATMODEL	IQUANT	4	Pstat Model
PSTATSECTION	LABEL	REF600-11020	Pstat Section
PSTATSERIALNO	LABEL	11020	Pstat Serial Number
CTRLMODE	IQUANT	1	Control Mode
IESTAB	IQUANT	0	I/E Stability
CASPEED	IQUANT	1	Control Amp Speed
CONVENTION	IQUANT	1	Current Convention
ICHRANGE	IQUANT	2	Ich Range
ICHRANGEMODE	TOGGLE	F	Ich Auto Range
ICHOFFSETENABLE	TOGGLE	T	Ich Offset Enable
ICHOFFSET	QUANT	0	Ich Offset (V)
ICHFILTER	IQUANT	3	Ich Filter
VCHRANGE	IQUANT	2	Vch Range
VCHRANGEMODE	TOGGLE	F	Vch Auto Range
VCHOFFSETENABLE	TOGGLE	T	Vch Offset Enable
VCHOFFSET	QUANT	0	Vch Offset (V)
VCHFILTER	IQUANT	3	Vch Filter
ACHRANGE	IQUANT	2	Ach Range
ACHOFFSETENABLE	TOGGLE	F	Ach Offset Enable
ACHOFFSET	QUANT	0	Ach Offset (V)
ACHFILTER	IQUANT	3	Ach Filter
IERANGELOWERLIMIT	IQUANT	1	I/E Range Lower Limit
IERANGEMODE	TOGGLE	F	I/E AutoRange
IERANGE	IQUANT	2	I/E Range
POSFEEDENABLE	TOGGLE	F	Positive Feedback IR Comp
POSFEEDRESISTANCE	QUANT	0	Positive Feedback Resistance (ohm)
ACHSELECT	IQUANT	0	Ach Select
CABLEID	IQUANT	14	Cable ID
DCCALDATE	LABEL	8/19/2019	DC Calibration Date
ACCALDATE	LABEL	8/19/2019	AC Calibration Date
THERMOSELECT	IQUANT	1	Thermo Select
FRAMEWORKVERSION	QUANT	6.33	Framework Version
INSTRUMENTVERSION	LABEL	3.50	Instrument Version
ZCURVE	TABLE
	Pt	Time	Freq	Zreal	Zimag	Zsig	Zmod	Zphz	Idc	Vdc	IERange
	#	s	Hz	ohm	ohm	V	ohm	°	A	V	#
	0	2	1000078	2678.38	-1966.058	1	3322.515	-36.28044	-4.2083E-006	0.0071891	8
	1	4	794390.6	3044.624	-1918.512	1	3598.669	-32.2163	6.947698E-006	0.0053854	8
	2	5	630984.4	3380.928	-1833.469	1	3846.074	-28.47087	-1.629754E-006	0.0066012	8
	3	7	501234.4	3708.364	-1706.271	1	4082.073	-24.70784	1.795353E-006	0.0057792	8
	4	8	398109.4	3999.559	-1561.528	1	4293.582	-21.32692	-9.823232E-008	0.0060154	8
	5	10	316265.6	4219.058	-1427.307	1	4453.948	-18.69067	2.081204E-006	0.0057132	8
	6	11	251203.1	4399.54	-1242.424	1	4571.605	-15.76961	2.254452E-006	0.0056762	8
	7	13	199546.9	4557.421	-1113.077	1	4691.378	-13.72489	-3.946139E-006	0.0069629	8
	8	14	158578.1	4665.095	-997.251	1	4770.495	-12.06642	-3.574668E-006	0.006921	8
	9	15	125953.1	4799.942	-855.7377	1	4875.626	-10.10854	3.956669E-007	0.0054274	7
	10	17	100078.1	4864.003	-794.9812	1	4928.542	-9.282448	-4.745414E-008	0.0061454	7
	11	18	79453.13	4934.64	-759.5132	1	4992.748	-8.749994	-1.229152E-008	0.0061497	7
	12	19	63140.62	5004.04	-740.2504	1	5058.497	-8.414768	-5.799776E-008	0.006221	7
	13	21	50203.12	5070.431	-740.1049	1	5124.161	-8.304526	-4.332859E-008	0.0061555	7
	14	22	39890.62	5138.617	-758.5881	1	5194.309	-8.397634	-5.223387E-009	0.0060447	7
	15	23	31640.63	5215.3	-788.4124	1	5274.557	-8.596481	-4.154552E-008	0.0061514	7
	16	25	25171.88	5296.538	-837.9333	1	5362.41	-8.989913	-9.553657E-009	0.0061264	7
	17	26	20015.62	5383.09	-900.7786	1	5457.936	-9.499567	-1.470748E-008	0.0061611	7
	18	27	15890.62	5457.875	-991.693	1	5547.238	-10.29826	-4.201434E-008	0.006126	7
	19	29	12609.37	5585.204	-1086.468	1	5689.896	-11.00805	-2.137244E-008	0.006262	7
	20	30	10078.13	5699.546	-1204.975	1	5825.529	-11.93746	5.193284E-008	0.0059441	7
	21	31	8015.625	5829.25	-1343.125	1	5981.984	-12.97514	-9.359892E-009	0.006134	7
	22	33	6328.125	5983.213	-1514.016	1	6171.798	-14.20027	-5.770869E-008	0.0062096	7
	23	34	5015.625	6154.833	-1703.474	1	6386.219	-15.4705	-1.003688E-008	0.0061296	7
	24	35	3984.375	6345.381	-1918.621	1	6629.1	-16.82348	-4.145615E-008	0.0061129	7
	25	37	3170.956	6556.896	-2169.126	1	6906.373	-18.30504	8.138075E-008	0.0059517	7
	26	38	2527.573	6796.929	-2450.021	1	7225.016	-19.82221	-4.866853E-008	0.0061227	7
	27	39	1976.103	7090.035	-2791.899	1	7619.927	-21.49342	-1.176538E-008	0.0061296	7
	28	41	1577.524	7387.198	-3144.634	1	8028.663	-23.05882	2.368055E-008	0.0059996	7
	29	42	1265.625	7717.601	-3487.548	1	8469.023	-24.31799	7.998977E-008	0.0059486	7
	30	43	998.264	8030.692	-4008.911	1	8975.711	-26.52831	-1.47568E-008	0.0061449	7
	31	45	796.875	8362.929	-4533.803	1	9512.83	-28.46349	-1.820292E-009	0.0059642	6
	32	46	627.7902	8701.783	-5226.188	1	10150.57	-30.98853	4.126984E-009	0.0059119	6
	33	47	505.5147	9000.158	-6003.174	1	10818.55	-33.70359	1.812962E-009	0.0060804	6
	34	49	397.9953	9328.662	-7086.76	1	11715.21	-37.22306	2.273625E-010	0.0060499	6
	35	50	315.5048	9652.84	-8423.49	1	12811.42	-41.10937	1.672342E-009	0.0060522	6
	36	51	252.4038	9986.75	-10042.66	1	14162.99	-45.15993	1.238171E-009	0.0060494	6
	37	53	198.6229	10391.93	-12238.93	1	16055.64	-49.6658	5.750038E-010	0.0060478	6
	38	54	158.3615	10847.49	-14845.56	1	18386.37	-53.84481	1.576439E-009	0.00605	6
	39	55	125.558	11417.2	-18178.77	1	21466.72	-57.86908	6.812758E-010	0.006049	6
	40	57	100.4464	12092	-22142.63	1	25229.21	-61.36122	1.718169E-009	0.0060476	6
	41	58	79.00281	13112.08	-27459.55	1	30429.49	-64.47527	1.500009E-009	0.0060461	6
	42	59	63.3446	13909.95	-33194.89	1	35991.49	-67.26442	1.149285E-009	0.0060419	6
	43	61	49.86702	16032.92	-41535.26	1	44522.27	-68.89304	7.415804E-010	0.0060383	6
	44	62	39.72458	17791.75	-50616.88	1	53652.73	-70.63351	1.10686E-009	0.0060498	6
	45	64	31.6723	20638.27	-61799.84	1	65154.88	-71.53307	1.210948E-009	0.006044	6
	46	65	24.93351	24085.39	-76255.48	1	79968.77	-72.47121	6.229182E-010	0.0060441	6
	47	66	19.86229	28622.41	-92802.73	1	97116.4	-72.85909	9.14977E-010	0.0060478	6
	48	68	15.83615	33634.43	-113186.3	1	118078	-73.45016	-5.141803E-010	0.0060432	5
	49	69	12.40079	42920.39	-139486.4	1	145940.4	-72.89671	1.337697E-009	0.0060435	5
	50	71	9.93114	51510.1	-166779.4	1	174552.8	-72.83661	5.112342E-010	0.0060449	5
	51	72	7.944915	63840.29	-199935.8	1	209880.7	-72.29152	6.873126E-010	0.0060495	5
	52	74	6.317385	77546.45	-241313.5	1	253467.3	-72.18511	2.142208E-010	0.0060606	5
	53	76	5.008013	96269.4	-290506.8	1	306042.4	-71.66562	3.366847E-010	0.0060494	5
	54	78	3.945707	118925.7	-351154.8	1	370746.6	-71.29029	9.051488E-011	0.0060372	5
	55	81	3.158693	146526.2	-417538.8	1	442502.7	-70.66259	3.090585E-010	0.0060567	5
	56	84	2.504006	180949	-499299.4	1	531076.7	-70.07919	1.57719E-010	0.0060525	5
	57	87	1.998082	220908.9	-591459.1	1	631367.2	-69.51943	3.02505E-010	0.0060258	5
	58	90	1.584686	271638.3	-706084.1	1	756533	-68.95772	1.950197E-010	0.0059953	5
	59	94	1.266892	328791.9	-833369.6	1	895884.4	-68.46912	2.947755E-010	0.0060436	5
	60	98	0.999041	405346.7	-998843	1	1077958	-67.9119	8.422405E-011	0.0060092	4
