EXPLAIN
TAG	EISPOT
TITLE	LABEL	Potentiostatic EIS	Test &Identifier
DATE	LABEL	11/12/2019	Date
TIME	LABEL	23:50:09	Time
NOTES	NOTES	3	&Notes...
	
	
	
PSTAT	PSTAT	REF600-11020	Potentiostat
VDC	POTEN	0.00000E+000	T	DC &Voltage (V)
FREQINIT	QUANT	1.00000E+006	Initial Fre&q. (Hz)
FREQFINAL	QUANT	1.00000E+000	Final Fre&q. (Hz)
PTSPERDEC	QUANT	1.00000E+001	Points/&decade
VAC	QUANT	2.50000E+001	AC &Voltage (mV rms)
AREA	QUANT	1.00000E-002	&Area (cm^2)
CONDIT	TWOPARAM	T	5.00000E+000	0.00000E+000	Conditionin&g	Time(s)	E(V)
DELAY	TWOPARAM	T	5.00000E+000	0.00000E+000	Init. De&lay	Time(s)	Stab.(mV/s)
SPEED	SELECTOR	1	&Optimize for:
ZGUESS	QUANT	1.00000E+005	E&stimated Z (ohms)
OCVCURVE	TABLE	19
	Pt	T	Vf	Vm	Ach	Over
	#	s	V vs. Ref.	V	V	bits
	0	0.258333	6.77874E-003	6.77874E-003	5.64999E-004	...........
	1	0.516667	6.77886E-003	6.78502E-003	5.66699E-004	...........
	2	0.775	6.78016E-003	6.81994E-003	5.63099E-004	...........
	3	1.03333	6.78498E-003	6.81867E-003	5.67866E-004	...........
	4	1.29167	6.79449E-003	6.82898E-003	5.69799E-004	...........
	5	1.55	6.80673E-003	6.84927E-003	5.66066E-004	...........
	6	1.80833	6.82018E-003	6.89877E-003	5.66232E-004	...........
	7	2.06667	6.83732E-003	6.93273E-003	5.62366E-004	...........
	8	2.325	6.86187E-003	6.98073E-003	5.64699E-004	...........
	9	2.58333	6.89452E-003	7.01885E-003	5.59399E-004	...........
	10	2.84167	6.93281E-003	7.05579E-003	5.56566E-004	...........
	11	3.1	6.97346E-003	7.09923E-003	5.65266E-004	...........
	12	3.35833	7.01473E-003	7.16150E-003	5.64532E-004	...........
	13	3.61667	7.05778E-003	7.21577E-003	5.62699E-004	...........
	14	3.875	7.10510E-003	7.28275E-003	5.58499E-004	...........
	15	4.13333	7.15694E-003	7.29229E-003	5.66099E-004	...........
	16	4.39167	7.20906E-003	7.33224E-003	5.63466E-004	...........
	17	4.65	7.25683E-003	7.42396E-003	5.59999E-004	...........
	18	4.90833	7.30214E-003	7.45793E-003	5.71432E-004	...........
EOC	QUANT	0.0073021	Open Circuit (V)
PSTATMODEL	IQUANT	4	Pstat Model
PSTATSECTION	LABEL	REF600-11020	Pstat Section
PSTATSERIALNO	LABEL	11020	Pstat Serial Number
CTRLMODE	IQUANT	1	Control Mode
IESTAB	IQUANT	0	I/E Stability
CASPEED	IQUANT	1	Control Amp Speed
CONVENTION	IQUANT	1	Current Convention
ICHRANGE	IQUANT	2	Ich Range
ICHRANGEMODE	TOGGLE	F	Ich Auto Range
ICHOFFSETENABLE	TOGGLE	T	Ich Offset Enable
ICHOFFSET	QUANT	0	Ich Offset (V)
ICHFILTER	IQUANT	3	Ich Filter
VCHRANGE	IQUANT	2	Vch Range
VCHRANGEMODE	TOGGLE	F	Vch Auto Range
VCHOFFSETENABLE	TOGGLE	T	Vch Offset Enable
VCHOFFSET	QUANT	0	Vch Offset (V)
VCHFILTER	IQUANT	3	Vch Filter
ACHRANGE	IQUANT	2	Ach Range
ACHOFFSETENABLE	TOGGLE	F	Ach Offset Enable
ACHOFFSET	QUANT	0	Ach Offset (V)
ACHFILTER	IQUANT	3	Ach Filter
IERANGELOWERLIMIT	IQUANT	1	I/E Range Lower Limit
IERANGEMODE	TOGGLE	F	I/E AutoRange
IERANGE	IQUANT	5	I/E Range
POSFEEDENABLE	TOGGLE	F	Positive Feedback IR Comp
POSFEEDRESISTANCE	QUANT	0	Positive Feedback Resistance (ohm)
ACHSELECT	IQUANT	0	Ach Select
CABLEID	IQUANT	14	Cable ID
DCCALDATE	LABEL	8/19/2019	DC Calibration Date
ACCALDATE	LABEL	8/19/2019	AC Calibration Date
THERMOSELECT	IQUANT	1	Thermo Select
FRAMEWORKVERSION	QUANT	6.33	Framework Version
INSTRUMENTVERSION	LABEL	3.50	Instrument Version
ZCURVE	TABLE
	Pt	Time	Freq	Zreal	Zimag	Zsig	Zmod	Zphz	Idc	Vdc	IERange
	#	s	Hz	ohm	ohm	V	ohm	°	A	V	#
	0	2	1000078	2066.905	-1662.756	1	2652.707	-38.81551	-1.867769E-006	0.0098674	8
	1	3	794390.6	2397.939	-1667.296	1	2920.614	-34.81103	-2.323178E-006	0.0097609	8
	2	4	630984.4	2714.931	-1628.863	1	3166.077	-30.96227	-2.111288E-006	0.0088948	8
	3	6	501234.4	3009.158	-1537.146	1	3379.031	-27.05897	-1.22985E-006	0.0086887	8
	4	7	398109.4	3267.067	-1447.504	1	3573.373	-23.89618	1.869463E-006	0.0084247	8
	5	8	316265.6	3496.46	-1304.738	1	3731.967	-20.46354	-6.902408E-007	0.008538	8
	6	10	251203.1	3684.962	-1180.03	1	3869.291	-17.75655	-1.373409E-006	0.0085978	8
	7	11	199546.9	3833.396	-1052.64	1	3975.296	-15.3548	-4.004105E-006	0.0091152	8
	8	13	158578.1	3960.291	-939.0717	1	4070.105	-13.33971	-6.57014E-007	0.0091728	8
	9	14	125953.1	4081.096	-799.9632	1	4158.76	-11.09032	-2.070531E-006	0.0094788	7
	10	15	100078.1	4167.707	-725.7958	1	4230.432	-9.87885	7.008838E-007	0.0071426	7
	11	17	79453.13	4239.782	-675.5165	1	4293.259	-9.052738	7.679132E-007	0.0085324	7
	12	18	63140.62	4305.457	-633.7557	1	4351.851	-8.373706	3.626627E-007	0.0092256	7
	13	19	50203.12	4363.917	-602.324	1	4405.289	-7.858523	-5.580628E-007	0.0102025	7
	14	21	39890.62	4424.55	-584.9308	1	4463.046	-7.5309	4.338427E-007	0.0072372	7
	15	22	31640.63	4477.622	-578.4423	1	4514.83	-7.360996	-8.120161E-007	0.0102861	7
	16	24	25171.88	4533.758	-584.7098	1	4571.307	-7.348759	7.682217E-008	0.0096172	7
	17	25	20015.62	4586.468	-602.765	1	4625.907	-7.487045	3.661428E-007	0.0092225	7
	18	26	15890.62	4633.748	-633.5958	1	4676.864	-7.786058	-9.97196E-007	0.0102323	7
	19	28	12609.37	4683.199	-680.8864	1	4732.437	-8.272224	-1.114459E-006	0.00975	7
	20	29	10078.13	4747.691	-756.2797	1	4807.549	-9.050842	4.352554E-007	0.0072292	7
	21	31	8015.625	4798.421	-835.2352	1	4870.571	-9.87424	8.919551E-007	0.0071994	7
	22	32	6328.125	4844.235	-947.9037	1	4936.105	-11.07155	-9.970804E-007	0.0102282	7
	23	33	5015.625	4904.356	-1095.494	1	5025.218	-12.59154	-5.575877E-007	0.0101982	7
	24	35	3984.375	4960.435	-1275.643	1	5121.833	-14.42189	-2.930657E-007	0.0079818	7
	25	36	3170.956	5035.765	-1511.282	1	5257.652	-16.70501	-5.577784E-007	0.0101952	7
	26	37	2527.573	5110.761	-1796.471	1	5417.304	-19.36695	-2.558747E-007	0.0099754	7
	27	39	1976.103	5208.96	-2181.584	1	5647.351	-22.72461	7.052328E-007	0.007123	7
	28	40	1577.524	5290.699	-2595.388	1	5893.007	-26.13057	-2.903154E-007	0.0079843	7
	29	42	1265.625	5427.663	-3145.832	1	6273.419	-30.09625	4.342224E-007	0.0072289	7
	30	43	998.264	5577.265	-3843.408	1	6773.306	-34.57152	9.929182E-007	0.0074001	7
	31	45	796.875	5744.096	-4657.52	1	7395.075	-39.03638	7.741344E-007	0.0085208	7
	32	46	627.7902	5967.226	-5715.363	1	8262.758	-43.76496	3.681789E-007	0.0092246	7
	33	47	505.5147	6207.957	-6905.277	1	9285.558	-48.04395	4.307051E-007	0.007227	7
	34	49	397.9953	6546.449	-8500.91	1	10729.47	-52.40057	4.877038E-009	0.0087648	7
	35	50	315.5048	6967.607	-10423.05	1	12537.45	-56.23804	7.073592E-010	0.0087087	6
	36	51	252.4038	7479.46	-12689.16	1	14729.47	-59.48334	1.372567E-009	0.0086988	6
	37	53	198.6229	8200.423	-15673.6	1	17689.23	-62.38145	8.150684E-010	0.008699	6
	38	54	158.3615	9108.379	-19127.2	1	21185.19	-64.53619	7.935174E-010	0.008706	6
	39	56	125.558	10340.8	-23432.46	1	25612.74	-66.18803	6.625023E-010	0.0087043	6
	40	57	100.4464	11938.14	-28442.11	1	30845.95	-67.23052	4.278083E-010	0.0086939	6
	41	58	79.00281	14303	-34900.21	1	37717.38	-67.71492	-5.90441E-011	0.008695	6
	42	60	63.3446	17439.39	-42123.73	1	45591.02	-67.51025	5.892163E-010	0.0087025	6
	43	61	49.86702	21083.41	-51124.14	1	55300.89	-67.58893	7.396259E-010	0.0087021	6
	44	63	39.72458	26575.74	-60791.52	1	66346.66	-66.38688	2.299898E-010	0.0087079	6
	45	64	31.6723	33201.71	-71928.46	1	79221.57	-65.22226	-6.544115E-011	0.0087015	6
	46	65	24.93351	42392.04	-84856.66	1	94856.41	-63.45455	-3.319546E-010	0.0087034	6
	47	67	19.86229	52970.76	-98097.6	1	111485.6	-61.63184	1.404956E-009	0.008709	5
	48	68	15.83615	66315.55	-112488.3	1	130580.9	-59.47924	7.327414E-010	0.0087058	5
	49	70	12.40079	80895.8	-128149	1	151546.4	-57.73728	5.090975E-010	0.0087134	5
	50	71	9.93114	96067	-144091.4	1	173179.7	-56.30828	1.59749E-010	0.0087061	5
	51	73	7.944915	112597.8	-160537	1	196087.7	-54.95486	-5.312111E-010	0.0086956	5
	52	74	6.317385	130336.3	-180662.8	1	222770.2	-54.19203	3.953713E-010	0.0087017	5
	53	76	5.008013	149375.9	-203622.3	1	252537.5	-53.73648	2.927614E-010	0.0087127	5
	54	79	3.945707	170121.7	-232027.4	1	287711.8	-53.75126	3.782204E-011	0.00872	5
	55	82	3.158693	190958	-263600.7	1	325500	-54.07962	-5.561909E-012	0.0087143	5
	56	85	2.504006	214799.2	-303503.5	1	371824	-54.71173	3.518301E-010	0.008708	5
	57	88	1.998082	240735.3	-349785.5	1	424621.4	-55.46282	-5.158626E-011	0.0087489	5
	58	91	1.584686	271169.5	-406149.1	1	488354.3	-56.27054	7.063707E-011	0.0086765	5
	59	95	1.266892	305592.1	-473151.4	1	563257.3	-57.14299	1.31838E-010	0.008727	5
	60	99	0.999041	349438	-556736.3	1	657314.4	-57.88538	-2.273067E-010	0.0086797	5
