EXPLAIN
TAG	EISPOT
TITLE	LABEL	Potentiostatic EIS	Test &Identifier
DATE	LABEL	10/8/2019	Date
TIME	LABEL	8:39:31	Time
NOTES	NOTES	2	&Notes...
	
	
PSTAT	PSTAT	REF600-11020	Potentiostat
VDC	POTEN	0.00000E+000	T	DC &Voltage (V)
FREQINIT	QUANT	1.00000E+006	Initial Fre&q. (Hz)
FREQFINAL	QUANT	1.00000E+000	Final Fre&q. (Hz)
PTSPERDEC	QUANT	1.00000E+001	Points/&decade
VAC	QUANT	2.50000E+001	AC &Voltage (mV rms)
AREA	QUANT	1.00000E-002	&Area (cm^2)
CONDIT	TWOPARAM	T	5.00000E+000	0.00000E+000	Conditionin&g	Time(s)	E(V)
DELAY	TWOPARAM	T	5.00000E+000	0.00000E+000	Init. De&lay	Time(s)	Stab.(mV/s)
SPEED	SELECTOR	1	&Optimize for:
ZGUESS	QUANT	1.00000E+004	E&stimated Z (ohms)
OCVCURVE	TABLE	19
	Pt	T	Vf	Vm	Ach	Over
	#	s	V vs. Ref.	V	V	bits
	0	0.258333	4.84509E-003	4.84509E-003	5.60799E-004	...........
	1	0.516667	4.84509E-003	4.84516E-003	5.60666E-004	...........
	2	0.775	4.84594E-003	4.88908E-003	5.61899E-004	...........
	3	1.03333	4.85078E-003	4.91358E-003	5.52666E-004	...........
	4	1.29167	4.86364E-003	4.95170E-003	5.59999E-004	...........
	5	1.55	4.88594E-003	4.99898E-003	5.66566E-004	...........
	6	1.80833	4.91638E-003	5.03605E-003	5.61832E-004	...........
	7	2.06667	4.95276E-003	5.08084E-003	5.60866E-004	...........
	8	2.325	4.99262E-003	5.11642E-003	5.59266E-004	...........
	9	2.58333	5.03376E-003	5.16238E-003	5.62032E-004	...........
	10	2.84167	5.07503E-003	5.20271E-003	5.60766E-004	...........
	11	3.1	5.11642E-003	5.24722E-003	5.57732E-004	...........
	12	3.35833	5.15825E-003	5.29012E-003	5.59932E-004	...........
	13	3.61667	5.20072E-003	5.33584E-003	5.54433E-004	...........
	14	3.875	5.24380E-003	5.37560E-003	5.53699E-004	...........
	15	4.13333	5.28714E-003	5.41789E-003	5.55066E-004	...........
	16	4.39167	5.33013E-003	5.45676E-003	5.60599E-004	...........
	17	4.65	5.37234E-003	5.50089E-003	5.54966E-004	...........
	18	4.90833	5.41392E-003	5.54106E-003	5.50766E-004	...........
EOC	QUANT	0.0054139	Open Circuit (V)
PSTATMODEL	IQUANT	4	Pstat Model
PSTATSECTION	LABEL	REF600-11020	Pstat Section
PSTATSERIALNO	LABEL	11020	Pstat Serial Number
CTRLMODE	IQUANT	1	Control Mode
IESTAB	IQUANT	0	I/E Stability
CASPEED	IQUANT	1	Control Amp Speed
CONVENTION	IQUANT	1	Current Convention
ICHRANGE	IQUANT	2	Ich Range
ICHRANGEMODE	TOGGLE	F	Ich Auto Range
ICHOFFSETENABLE	TOGGLE	T	Ich Offset Enable
ICHOFFSET	QUANT	0	Ich Offset (V)
ICHFILTER	IQUANT	3	Ich Filter
VCHRANGE	IQUANT	2	Vch Range
VCHRANGEMODE	TOGGLE	F	Vch Auto Range
VCHOFFSETENABLE	TOGGLE	T	Vch Offset Enable
VCHOFFSET	QUANT	0	Vch Offset (V)
VCHFILTER	IQUANT	3	Vch Filter
ACHRANGE	IQUANT	2	Ach Range
ACHOFFSETENABLE	TOGGLE	F	Ach Offset Enable
ACHOFFSET	QUANT	0	Ach Offset (V)
ACHFILTER	IQUANT	3	Ach Filter
IERANGELOWERLIMIT	IQUANT	1	I/E Range Lower Limit
IERANGEMODE	TOGGLE	F	I/E AutoRange
IERANGE	IQUANT	6	I/E Range
POSFEEDENABLE	TOGGLE	F	Positive Feedback IR Comp
POSFEEDRESISTANCE	QUANT	0	Positive Feedback Resistance (ohm)
ACHSELECT	IQUANT	0	Ach Select
CABLEID	IQUANT	14	Cable ID
DCCALDATE	LABEL	8/19/2019	DC Calibration Date
ACCALDATE	LABEL	8/19/2019	AC Calibration Date
THERMOSELECT	IQUANT	1	Thermo Select
FRAMEWORKVERSION	QUANT	6.33	Framework Version
INSTRUMENTVERSION	LABEL	3.50	Instrument Version
ZCURVE	TABLE
	Pt	Time	Freq	Zreal	Zimag	Zsig	Zmod	Zphz	Idc	Vdc	IERange
	#	s	Hz	ohm	ohm	V	ohm	°	A	V	#
	0	1	1000078	2448.508	-917.8049	1	2614.872	-20.54814	-3.105235E-006	0.0077272	8
	1	3	794390.6	2576.685	-806.881	1	2700.067	-17.38779	3.097242E-006	0.0067802	8
	2	4	630984.4	2680.615	-706.5599	1	2772.17	-14.76625	-4.046291E-006	0.008	8
	3	5	501234.4	2762.711	-604.974	1	2828.173	-12.35158	2.244807E-006	0.0066512	8
	4	7	398109.4	2829.552	-522.6019	1	2877.408	-10.46428	7.324871E-007	0.0069032	8
	5	8	316265.6	2870.654	-439.728	1	2904.138	-8.708897	-1.967366E-007	0.0072315	8
	6	9	251203.1	2905.404	-367.2719	1	2928.525	-7.204543	9.966169E-007	0.0068354	8
	7	11	199546.9	2935.189	-325.3065	1	2953.161	-6.324273	8.569289E-007	0.0068722	8
	8	12	158578.1	2968.963	-287.4839	1	2982.849	-5.530693	9.793921E-007	0.0068445	8
	9	13	125953.1	3001.556	-219.7938	1	3009.592	-4.188101	-6.836829E-007	0.0082519	7
	10	15	100078.1	3015.034	-196.6528	1	3021.44	-3.731778	-7.899749E-008	0.0071967	7
	11	16	79453.13	3029.789	-186.2714	1	3035.51	-3.518115	-8.07071E-008	0.0071872	7
	12	18	63140.62	3045.415	-180.7598	1	3050.775	-3.39679	-9.759421E-010	0.0070538	7
	13	19	50203.12	3060.362	-178.087	1	3065.54	-3.33037	-4.304259E-008	0.0070929	7
	14	20	39890.62	3075.752	-180.0205	1	3081.015	-3.349639	-3.998593E-008	0.0070913	7
	15	22	31640.63	3089.545	-185.7766	1	3095.125	-3.441094	-8.03367E-008	0.0071784	7
	16	23	25171.88	3103.267	-197.0815	1	3109.519	-3.633845	6.726656E-009	0.0069843	7
	17	24	20015.62	3117.112	-213.1709	1	3124.392	-3.912213	7.211773E-010	0.0070518	7
	18	26	15890.62	3132.493	-236.242	1	3141.389	-4.312889	4.636956E-008	0.0069071	7
	19	27	12609.37	3148.467	-267.9638	1	3159.849	-4.86468	-4.097511E-008	0.0070909	7
	20	28	10078.13	3165.127	-306.4566	1	3179.928	-5.530302	4.853865E-008	0.0068965	7
	21	30	8015.625	3186.821	-357.0729	1	3206.763	-6.393141	-4.040001E-008	0.0071343	7
	22	31	6328.125	3203.749	-421.7094	1	3231.384	-7.498732	-4.977102E-010	0.0070489	7
	23	32	5015.625	3226.882	-501.9956	1	3265.696	-8.842441	8.169941E-008	0.0070026	7
	24	34	3984.375	3253.973	-596.8589	1	3308.26	-10.39392	-7.860212E-008	0.0071732	7
	25	35	3170.956	3285.167	-719.1291	1	3362.956	-12.34739	-3.154727E-008	0.0070616	7
	26	37	2527.573	3321.022	-864.0687	1	3431.589	-14.58396	-4.158145E-008	0.0070847	7
	27	38	1976.103	3366.708	-1059	1	3529.334	-17.461	8.239378E-009	0.0069879	7
	28	39	1577.524	3411.769	-1277.675	1	3643.161	-20.53045	6.915078E-008	0.0069353	7
	29	41	1265.625	3469.049	-1538.183	1	3794.773	-23.91259	-7.835367E-008	0.0071774	7
	30	42	998.264	3539.179	-1881.649	1	4008.291	-27.99791	3.489632E-008	0.0070166	7
	31	43	796.875	3616.531	-2284.667	1	4277.733	-32.28179	-3.797318E-008	0.0070821	7
	32	45	627.7902	3710.53	-2809.931	1	4654.433	-37.13613	-2.023966E-008	0.0071946	7
	33	46	505.5147	3815.099	-3400.731	1	5110.768	-41.71341	-1.461374E-008	0.0070839	7
	34	47	397.9953	3956.3	-4200.117	1	5770.034	-46.71222	6.057568E-009	0.0070644	7
	35	49	315.5048	4125.093	-5163.759	1	6609.145	-51.38023	7.092444E-009	0.007062	7
	36	50	252.4038	4326.785	-6302.208	1	7644.534	-55.52843	5.558921E-009	0.0070567	7
	37	51	198.6229	4601.142	-7810.693	1	9065.177	-59.49841	5.726489E-009	0.00706	7
	38	53	158.3615	4937.58	-9570.37	1	10769.01	-62.70971	4.586147E-010	0.0069916	6
	39	54	125.558	5380.127	-11783.17	1	12953.34	-65.45885	1.286902E-009	0.0069941	6
	40	56	100.4464	5931.813	-14393.3	1	15567.71	-67.60231	9.375222E-010	0.0069925	6
	41	57	79.00281	6725.684	-17815.37	1	19042.64	-69.31741	7.561972E-010	0.0069953	6
	42	58	63.3446	7726.724	-21715.24	1	23048.95	-70.41341	4.704779E-010	0.006995	6
	43	60	49.86702	8938.772	-26729.16	1	28184.21	-71.50902	4.497394E-010	0.0069958	6
	44	61	39.72458	10703.29	-32572.19	1	34285.68	-71.80937	6.136328E-010	0.0069983	6
	45	62	31.6723	12975.63	-39617.39	1	41688.18	-71.86516	7.479431E-010	0.0069922	6
	46	64	24.93351	16100.45	-48403.98	1	51011.46	-71.6015	1.249612E-009	0.0069922	6
	47	65	19.86229	20019.22	-58430.98	1	61765.27	-71.08786	9.439463E-010	0.0069889	6
	48	67	15.83615	25282.29	-70139.28	1	74556.78	-70.17787	2.250478E-010	0.0069946	6
	49	68	12.40079	32026.05	-84969.2	1	90804.36	-69.34789	6.783721E-010	0.0069913	6
	50	69	9.93114	40590.37	-100431.4	1	108323.8	-67.9934	-9.14776E-011	0.007003	5
	51	71	7.944915	51068.54	-117722.3	1	128322	-66.54854	1.277302E-009	0.0069966	5
	52	73	6.317385	63994.59	-138233.6	1	152328	-65.15844	-2.98778E-010	0.0070107	5
	53	75	5.008013	80053.14	-161238.5	1	180017.6	-63.5961	-1.980445E-010	0.0069916	5
	54	77	3.945707	99866.4	-187239.1	1	212206.9	-61.9262	3.776827E-010	0.0069994	5
	55	80	3.158693	121009.5	-214306.1	1	246110.6	-60.54845	-1.055486E-010	0.006985	5
	56	83	2.504006	145878.6	-245364.8	1	285454.8	-59.26691	3.939168E-010	0.0069978	5
	57	86	1.998082	172902	-278736.8	1	328008.2	-58.18844	4.8393E-010	0.0070024	5
	58	89	1.584686	204560.1	-316795.3	1	377099.6	-57.14898	-5.355325E-011	0.0069439	5
	59	93	1.266892	235585.9	-358563.4	1	429032	-56.694	2.912318E-010	0.0069804	5
	60	97	0.999041	272581.2	-410899.3	1	493091.1	-56.44062	-3.268255E-010	0.0069802	5
