EXPLAIN
TAG	EISPOT
TITLE	LABEL	Potentiostatic EIS	Test &Identifier
DATE	LABEL	10/28/2019	Date
TIME	LABEL	9:15:50	Time
NOTES	NOTES	1	&Notes...
	
PSTAT	PSTAT	REF600-11020	Potentiostat
VDC	POTEN	0.00000E+000	T	DC &Voltage (V)
FREQINIT	QUANT	1.00000E+006	Initial Fre&q. (Hz)
FREQFINAL	QUANT	1.00000E+000	Final Fre&q. (Hz)
PTSPERDEC	QUANT	1.00000E+001	Points/&decade
VAC	QUANT	2.50000E+001	AC &Voltage (mV rms)
AREA	QUANT	1.00000E-002	&Area (cm^2)
CONDIT	TWOPARAM	T	5.00000E+000	0.00000E+000	Conditionin&g	Time(s)	E(V)
DELAY	TWOPARAM	T	5.00000E+000	0.00000E+000	Init. De&lay	Time(s)	Stab.(mV/s)
SPEED	SELECTOR	1	&Optimize for:
ZGUESS	QUANT	1.00000E+005	E&stimated Z (ohms)
OCVCURVE	TABLE	19
	Pt	T	Vf	Vm	Ach	Over
	#	s	V vs. Ref.	V	V	bits
	0	0.258333	8.74731E-003	8.74731E-003	5.57333E-004	...........
	1	0.516667	8.74551E-003	8.65332E-003	5.46666E-004	...........
	2	0.775	8.73785E-003	8.74024E-003	5.52232E-004	...........
	3	1.03333	8.72701E-003	8.80604E-003	5.52166E-004	...........
	4	1.29167	8.72775E-003	8.86693E-003	5.56599E-004	...........
	5	1.55	8.75285E-003	8.94111E-003	5.60732E-004	...........
	6	1.80833	8.80133E-003	9.01648E-003	5.62466E-004	...........
	7	2.06667	8.86460E-003	9.08586E-003	5.58366E-004	...........
	8	2.325	8.93502E-003	9.16124E-003	5.60799E-004	...........
	9	2.58333	9.00785E-003	9.22792E-003	5.61799E-004	...........
	10	2.84167	9.08072E-003	9.30071E-003	5.52666E-004	...........
	11	3.1	9.15272E-003	9.36991E-003	5.58032E-004	...........
	12	3.35833	9.22380E-003	9.43799E-003	5.58432E-004	...........
	13	3.61667	9.29416E-003	9.50917E-003	5.53266E-004	...........
	14	3.875	9.36397E-003	9.57593E-003	5.56799E-004	...........
	15	4.13333	9.43328E-003	9.64043E-003	5.55599E-004	...........
	16	4.39167	9.50170E-003	9.70091E-003	5.58099E-004	...........
	17	4.65	9.56825E-003	9.75014E-003	5.57266E-004	...........
	18	4.90833	9.63137E-003	9.79307E-003	5.50299E-004	...........
EOC	QUANT	0.0096314	Open Circuit (V)
PSTATMODEL	IQUANT	4	Pstat Model
PSTATSECTION	LABEL	REF600-11020	Pstat Section
PSTATSERIALNO	LABEL	11020	Pstat Serial Number
CTRLMODE	IQUANT	1	Control Mode
IESTAB	IQUANT	0	I/E Stability
CASPEED	IQUANT	1	Control Amp Speed
CONVENTION	IQUANT	1	Current Convention
ICHRANGE	IQUANT	2	Ich Range
ICHRANGEMODE	TOGGLE	F	Ich Auto Range
ICHOFFSETENABLE	TOGGLE	T	Ich Offset Enable
ICHOFFSET	QUANT	0	Ich Offset (V)
ICHFILTER	IQUANT	3	Ich Filter
VCHRANGE	IQUANT	2	Vch Range
VCHRANGEMODE	TOGGLE	F	Vch Auto Range
VCHOFFSETENABLE	TOGGLE	T	Vch Offset Enable
VCHOFFSET	QUANT	0	Vch Offset (V)
VCHFILTER	IQUANT	3	Vch Filter
ACHRANGE	IQUANT	2	Ach Range
ACHOFFSETENABLE	TOGGLE	F	Ach Offset Enable
ACHOFFSET	QUANT	0	Ach Offset (V)
ACHFILTER	IQUANT	3	Ach Filter
IERANGELOWERLIMIT	IQUANT	1	I/E Range Lower Limit
IERANGEMODE	TOGGLE	F	I/E AutoRange
IERANGE	IQUANT	5	I/E Range
POSFEEDENABLE	TOGGLE	F	Positive Feedback IR Comp
POSFEEDRESISTANCE	QUANT	0	Positive Feedback Resistance (ohm)
ACHSELECT	IQUANT	0	Ach Select
CABLEID	IQUANT	14	Cable ID
DCCALDATE	LABEL	8/19/2019	DC Calibration Date
ACCALDATE	LABEL	8/19/2019	AC Calibration Date
THERMOSELECT	IQUANT	1	Thermo Select
FRAMEWORKVERSION	QUANT	6.33	Framework Version
INSTRUMENTVERSION	LABEL	3.50	Instrument Version
ZCURVE	TABLE
	Pt	Time	Freq	Zreal	Zimag	Zsig	Zmod	Zphz	Idc	Vdc	IERange
	#	s	Hz	ohm	ohm	V	ohm	°	A	V	#
	0	1	1000078	2416.152	-1330.253	1	2758.145	-28.83572	3.744556E-006	0.011508	8
	1	3	794390.6	2669.024	-1229.252	1	2938.495	-24.72902	4.950638E-006	0.0106614	8
	2	4	630984.4	2869.447	-1097.546	1	3072.187	-20.93155	4.646002E-006	0.0105677	8
	3	6	501234.4	3018.094	-973.92	1	3171.342	-17.88456	4.236848E-008	0.0112267	8
	4	7	398109.4	3156.018	-827.0977	1	3262.597	-14.68525	-5.393138E-006	0.0126096	8
	5	9	316265.6	3258.384	-703.0803	1	3333.375	-12.17636	5.43623E-006	0.0104707	8
	6	10	251203.1	3307.948	-621.6905	1	3365.86	-10.64392	-1.325418E-006	0.0116311	8
	7	12	199546.9	3362.512	-531.0681	1	3404.191	-8.97504	9.402904E-007	0.0110707	8
	8	13	158578.1	3408.156	-458.3875	1	3438.843	-7.660156	1.14042E-006	0.0111151	8
	9	15	125953.1	3459.082	-362.9739	1	3478.074	-5.99033	6.797702E-007	0.0093927	7
	10	16	100078.1	3481.073	-327.9523	1	3496.487	-5.381958	-1.75969E-008	0.0114299	7
	11	17	79453.13	3506.189	-317.75	1	3520.557	-5.178312	-7.311702E-008	0.0113853	7
	12	19	63140.62	3532.633	-314.942	1	3546.644	-5.094575	-2.549645E-008	0.011259	7
	13	20	50203.12	3558.993	-317.7149	1	3573.146	-5.10133	3.854353E-008	0.0112333	7
	14	22	39890.62	3587.401	-327.4716	1	3602.317	-5.215721	-2.461666E-008	0.0112585	7
	15	23	31640.63	3615.959	-347.2515	1	3632.595	-5.485465	-4.644619E-008	0.0114189	7
	16	24	25171.88	3648.492	-374.8107	1	3667.693	-5.865437	-5.001852E-008	0.0113037	7
	17	26	20015.62	3677.89	-400.4916	1	3699.631	-6.214548	-1.05678E-008	0.0112167	7
	18	27	15890.62	3716.833	-456.5826	1	3744.772	-7.003232	-9.863085E-009	0.0112187	7
	19	28	12609.37	3756.532	-510.584	1	3791.073	-7.740152	-3.706988E-008	0.011279	7
	20	30	10078.13	3800.144	-580.8202	1	3844.274	-8.68993	8.107278E-008	0.0112338	7
	21	31	8015.625	3834.487	-672.4135	1	3892.997	-9.94623	2.201939E-008	0.0111747	7
	22	32	6328.125	3897.786	-769.6243	1	3973.041	-11.16947	8.320745E-008	0.0111295	7
	23	34	5015.625	3953.463	-897.3079	1	4054.015	-12.78764	-4.486629E-008	0.0113005	7
	24	35	3984.375	4005.366	-1056.508	1	4142.362	-14.77652	-5.460198E-008	0.011376	7
	25	37	3170.956	4078.551	-1240.955	1	4263.161	-16.92311	-1.096165E-008	0.0113019	7
	26	38	2527.573	4151.758	-1469.058	1	4404.001	-19.48582	-5.552555E-008	0.0113825	7
	27	39	1976.103	4243.098	-1777.005	1	4600.177	-22.72388	-2.567461E-008	0.0112587	7
	28	41	1577.524	4354.851	-2146.704	1	4855.21	-26.24079	-9.114546E-009	0.0112093	7
	29	42	1265.625	4437.67	-2530.291	1	5108.354	-29.69112	-7.155896E-008	0.0113726	7
	30	43	998.264	4563.338	-3069.824	1	5499.807	-33.9293	-4.713568E-008	0.0112957	7
	31	45	796.875	4704.89	-3698.469	1	5984.536	-38.17055	-4.647431E-008	0.011296	7
	32	46	627.7902	4871.828	-4519.447	1	6645.307	-42.85115	-1.245093E-008	0.0113134	7
	33	47	505.5147	5042.515	-5435.467	1	7414.26	-47.14774	-2.513471E-008	0.011256	7
	34	49	397.9953	5274.279	-6684.814	1	8514.973	-51.72677	5.463799E-009	0.0112832	7
	35	50	315.5048	5537.741	-8191.416	1	9887.66	-55.93966	4.766363E-009	0.0112856	7
	36	52	252.4038	5850.012	-9979.91	1	11568.11	-59.62207	1.318802E-009	0.0112247	6
	37	53	198.6229	6265.204	-12356.6	1	13854.18	-63.11349	1.193639E-009	0.0112243	6
	38	54	158.3615	6755.683	-15137.86	1	16576.91	-65.94987	6.915082E-010	0.0112212	6
	39	56	125.558	7412.515	-18639.61	1	20059.42	-68.31349	1.179606E-009	0.0112257	6
	40	57	100.4464	8229.011	-22808.04	1	24247.13	-70.16085	1.805465E-009	0.0112238	6
	41	58	79.00281	9290.554	-28277.59	1	29764.68	-71.81215	-1.554991E-011	0.0112182	6
	42	60	63.3446	10370.49	-34180.31	1	35718.91	-73.12193	1.353376E-009	0.0112156	6
	43	61	49.86702	13011.41	-42345.61	1	44299.52	-72.91953	-7.691582E-010	0.011221	6
	44	63	39.72458	15244.9	-51927.45	1	54119	-73.63877	1.234221E-009	0.01123	6
	45	64	31.6723	18226.16	-63505.1	1	66068.84	-73.98636	1.610329E-009	0.0112204	6
	46	65	24.93351	22986.07	-77726.05	1	81053.67	-73.52537	9.535528E-010	0.0112219	6
	47	67	19.86229	28675.39	-94299.21	1	98562.8	-73.08604	7.292503E-010	0.0112194	6
	48	68	15.83615	36969.84	-113519.8	1	119388.1	-71.9612	1.479022E-009	0.0112241	5
	49	70	12.40079	47287.22	-139777.2	1	147559.3	-71.3091	1.935168E-009	0.0112231	5
	50	71	9.93114	58749.84	-164621.2	1	174790.4	-70.35959	-3.046561E-010	0.0112285	5
	51	73	7.944915	73420.28	-194728.2	1	208109.6	-69.34156	1.173831E-009	0.0112229	5
	52	74	6.317385	94412.7	-231784.7	1	250275.7	-67.83749	3.830777E-010	0.0112332	5
	53	76	5.008013	119469.2	-273459.1	1	298417.1	-66.40037	3.594229E-010	0.0112257	5
	54	79	3.945707	150987.9	-321949	1	355595.9	-64.87433	1.96655E-010	0.0112234	5
	55	81	3.158693	186334.7	-372279.6	1	416308.4	-63.41096	8.373793E-011	0.0112326	5
	56	85	2.504006	229398	-431059.5	1	488298.8	-61.97932	1.565114E-010	0.0112158	5
	57	88	1.998082	277190.4	-494258.3	1	566679.7	-60.71538	-1.314894E-010	0.0112555	5
	58	91	1.584686	332766.6	-567506.1	1	657872.9	-59.61407	1.627053E-010	0.011248	5
	59	94	1.266892	395196.8	-645623.4	1	756974.3	-58.5285	-7.056398E-011	0.0112639	5
	60	99	0.999041	466354.6	-739598.6	1	874352.8	-57.76648	7.789417E-011	0.0111894	5
