EXPLAIN
TAG	EISPOT
TITLE	LABEL	Potentiostatic EIS	Test &Identifier
DATE	LABEL	11/5/2019	Date
TIME	LABEL	8:14:37	Time
NOTES	NOTES	2	&Notes...
	
	
PSTAT	PSTAT	REF600-11020	Potentiostat
VDC	POTEN	0.00000E+000	T	DC &Voltage (V)
FREQINIT	QUANT	1.00000E+006	Initial Fre&q. (Hz)
FREQFINAL	QUANT	1.00000E+000	Final Fre&q. (Hz)
PTSPERDEC	QUANT	1.00000E+001	Points/&decade
VAC	QUANT	2.50000E+001	AC &Voltage (mV rms)
AREA	QUANT	1.00000E-002	&Area (cm^2)
CONDIT	TWOPARAM	T	5.00000E+000	0.00000E+000	Conditionin&g	Time(s)	E(V)
DELAY	TWOPARAM	T	5.00000E+000	0.00000E+000	Init. De&lay	Time(s)	Stab.(mV/s)
SPEED	SELECTOR	1	&Optimize for:
ZGUESS	QUANT	1.00000E+005	E&stimated Z (ohms)
OCVCURVE	TABLE	19
	Pt	T	Vf	Vm	Ach	Over
	#	s	V vs. Ref.	V	V	bits
	0	0.258333	1.93741E-004	1.93741E-004	5.83165E-004	...........
	1	0.516667	1.86044E-004	-2.09134E-004	5.75465E-004	...........
	2	0.775	1.39216E-004	-5.68366E-004	5.72566E-004	...........
	3	1.03333	8.47701E-006	-8.97724E-004	5.77732E-004	...........
	4	1.29167	-2.21053E-004	-1.19738E-003	5.74699E-004	...........
	5	1.55	-5.18766E-004	-1.48544E-003	5.73199E-004	...........
	6	1.80833	-8.39543E-004	-1.75801E-003	5.73466E-004	...........
	7	2.06667	-1.15333E-003	-2.01685E-003	5.74799E-004	...........
	8	2.325	-1.44897E-003	-2.25579E-003	5.72732E-004	...........
	9	2.58333	-1.72540E-003	-2.48269E-003	5.70399E-004	...........
	10	2.84167	-1.98450E-003	-2.71058E-003	5.71466E-004	...........
	11	3.1	-2.22903E-003	-2.92297E-003	5.73066E-004	...........
	12	3.35833	-2.46213E-003	-3.13460E-003	5.69166E-004	...........
	13	3.61667	-2.68633E-003	-3.33858E-003	5.72099E-004	...........
	14	3.875	-2.90338E-003	-3.54463E-003	5.69366E-004	...........
	15	4.13333	-3.11451E-003	-3.72750E-003	5.75832E-004	...........
	16	4.39167	-3.32027E-003	-3.93611E-003	5.79465E-004	...........
	17	4.65	-3.52116E-003	-4.11344E-003	5.66566E-004	...........
	18	4.90833	-3.71754E-003	-4.28326E-003	5.75066E-004	...........
EOC	QUANT	-0.0037175	Open Circuit (V)
PSTATMODEL	IQUANT	4	Pstat Model
PSTATSECTION	LABEL	REF600-11020	Pstat Section
PSTATSERIALNO	LABEL	11020	Pstat Serial Number
CTRLMODE	IQUANT	1	Control Mode
IESTAB	IQUANT	0	I/E Stability
CASPEED	IQUANT	1	Control Amp Speed
CONVENTION	IQUANT	1	Current Convention
ICHRANGE	IQUANT	2	Ich Range
ICHRANGEMODE	TOGGLE	F	Ich Auto Range
ICHOFFSETENABLE	TOGGLE	T	Ich Offset Enable
ICHOFFSET	QUANT	0	Ich Offset (V)
ICHFILTER	IQUANT	3	Ich Filter
VCHRANGE	IQUANT	2	Vch Range
VCHRANGEMODE	TOGGLE	F	Vch Auto Range
VCHOFFSETENABLE	TOGGLE	T	Vch Offset Enable
VCHOFFSET	QUANT	0	Vch Offset (V)
VCHFILTER	IQUANT	3	Vch Filter
ACHRANGE	IQUANT	2	Ach Range
ACHOFFSETENABLE	TOGGLE	F	Ach Offset Enable
ACHOFFSET	QUANT	0	Ach Offset (V)
ACHFILTER	IQUANT	3	Ach Filter
IERANGELOWERLIMIT	IQUANT	1	I/E Range Lower Limit
IERANGEMODE	TOGGLE	F	I/E AutoRange
IERANGE	IQUANT	4	I/E Range
POSFEEDENABLE	TOGGLE	F	Positive Feedback IR Comp
POSFEEDRESISTANCE	QUANT	0	Positive Feedback Resistance (ohm)
ACHSELECT	IQUANT	0	Ach Select
CABLEID	IQUANT	14	Cable ID
DCCALDATE	LABEL	8/19/2019	DC Calibration Date
ACCALDATE	LABEL	8/19/2019	AC Calibration Date
THERMOSELECT	IQUANT	1	Thermo Select
FRAMEWORKVERSION	QUANT	6.33	Framework Version
INSTRUMENTVERSION	LABEL	3.50	Instrument Version
ZCURVE	TABLE
	Pt	Time	Freq	Zreal	Zimag	Zsig	Zmod	Zphz	Idc	Vdc	IERange
	#	s	Hz	ohm	ohm	V	ohm	°	A	V	#
	0	1	1000078	1283.984	-2368.704	1	2694.322	-61.53958	-2.656797E-006	-0.0022078	8
	1	3	794390.6	1505.131	-2789.382	1	3169.554	-61.64901	9.510086E-008	-0.0023913	8
	2	4	630984.4	1746.994	-3314.737	1	3746.927	-62.20905	4.803437E-006	-0.0021321	8
	3	5	501234.4	2062.296	-3930.587	1	4438.759	-62.31495	-1.786799E-006	-0.0016551	8
	4	7	398109.4	2473.529	-4663.664	1	5279.025	-62.05927	-2.635966E-006	-0.0023276	8
	5	8	316265.6	2950.256	-5515.559	1	6255.03	-61.85781	-1.990821E-006	-0.0021282	8
	6	10	251203.1	3645.005	-6423.36	1	7385.5	-60.42679	6.488112E-006	-0.0030202	8
	7	12	199546.9	4383.322	-7460.844	1	8653.19	-59.56533	-2.091688E-006	-0.0021313	8
	8	13	158578.1	5442.491	-8653.171	1	10222.43	-57.83178	6.310353E-006	-0.0030036	8
	9	15	125953.1	6592.142	-9784.55	1	11798.04	-56.03068	-5.44094E-007	-0.0050218	7
	10	17	100078.1	7828.073	-10967.48	1	13474.58	-54.48254	8.331253E-007	-0.0020528	7
	11	18	79453.13	9265.441	-12436.3	1	15508.39	-53.31272	-4.740009E-007	-0.0032998	7
	12	20	63140.62	10769.9	-13964.76	1	17635.34	-52.35987	-4.749857E-007	-0.0033037	7
	13	21	50203.12	12409.15	-15604.88	1	19937.38	-51.50794	-7.738385E-007	-0.0002258	7
	14	22	39890.62	14248.65	-17768.4	1	22775.87	-51.27354	1.126706E-006	-0.0026471	7
	15	24	31640.63	16480.02	-20103.66	1	25995.16	-50.65673	8.364027E-007	-0.0020685	7
	16	25	25171.88	19269.74	-23008.9	1	30012.2	-50.05415	1.125805E-006	-0.0026466	7
	17	27	20015.62	22530	-25828.67	1	34274.2	-48.90225	-1.138727E-006	-0.0001123	7
	18	29	15890.62	26766.48	-29472.21	1	39812.75	-47.75446	-1.386415E-006	-0.0015652	7
	19	30	12609.37	32443.09	-32420.94	1	45865.8	-44.98043	2.312215E-007	-0.0054582	6
	20	32	10078.13	38365.02	-35252.32	1	52101.84	-42.57885	1.000351E-007	-0.0057138	6
	21	33	8015.625	45493.61	-37084.34	1	58693.41	-39.18537	2.051644E-007	-0.0058819	6
	22	34	6328.125	53068.23	-38014.57	1	65278.97	-35.61531	2.298527E-007	-0.005462	6
	23	36	5015.625	60473.66	-37506.37	1	71160.32	-31.80761	2.729938E-008	-0.0051479	6
	24	38	3984.375	66967.37	-35900.19	1	75983.23	-28.19509	-2.208541E-007	0.0016483	6
	25	39	3170.956	73702.77	-34363.77	1	81320.15	-24.9972	9.779922E-008	-0.0057149	6
	26	41	2527.573	78410.82	-31660.41	1	84561.45	-21.98768	-2.400803E-007	-0.0006418	6
	27	43	1976.103	83581.05	-29128.71	1	88511.43	-19.21388	-5.820379E-010	8.895872E-005	6
	28	45	1577.524	87591.4	-27682.53	1	91861.72	-17.53871	1.990752E-007	-0.0031628	6
	29	46	1265.625	90711.5	-25301.92	1	94174.11	-15.58524	2.371937E-007	-0.0048448	6
	30	48	998.264	93516.13	-23646.45	1	96459.4	-14.19034	2.040802E-007	-0.0058793	6
	31	50	796.875	95958.1	-22439.76	1	98546.9	-13.16207	2.365642E-007	-0.0048393	6
	32	51	627.7902	97740.2	-21945.77	1	100173.6	-12.65484	2.366386E-007	-0.0048483	6
	33	53	505.5147	99637.4	-21766.52	1	101987.2	-12.32308	1.992884E-007	-0.0031587	6
	34	54	397.9953	101261.9	-22463.84	1	103723.7	-12.50788	1.704848E-009	-0.0023473	6
	35	56	315.5048	102983.5	-23229.32	1	105570.8	-12.71111	5.791069E-010	-0.0023393	5
	36	57	252.4038	104744.3	-25248.53	1	107744.4	-13.55256	1.368062E-009	-0.0023476	5
	37	59	198.6229	106912.1	-28258.44	1	110583.6	-14.80553	7.654605E-010	-0.0023291	5
	38	60	158.3615	109519.9	-31964	1	114089	-16.27018	1.118243E-009	-0.0023379	5
	39	61	125.558	112256.5	-36391.9	1	118008	-17.96193	8.712853E-010	-0.0023378	5
	40	63	100.4464	115829.2	-41646.8	1	123088.9	-19.77622	8.694712E-010	-0.0023345	5
	41	64	79.00281	120854.5	-48762.27	1	130321	-21.97305	8.488137E-010	-0.0023526	5
	42	66	63.3446	123637.9	-59249.89	1	137101.7	-25.60472	4.465191E-010	-0.0023403	5
	43	68	49.86702	129842.8	-64351.29	1	144914.5	-26.36345	6.232242E-010	-0.0023415	5
	44	69	39.72458	137575	-74760.77	1	156576	-28.52048	4.34759E-010	-0.0023356	5
	45	71	31.6723	145741.4	-85885.73	1	169165.3	-30.51094	9.477633E-010	-0.0023538	5
	46	72	24.93351	155590.9	-98411.4	1	184101.5	-32.3134	2.480881E-010	-0.0023421	5
	47	74	19.86229	166837.9	-112044.3	1	200969.7	-33.88435	1.083924E-009	-0.0023533	5
	48	75	15.83615	179896.6	-129631.1	1	221736.3	-35.77602	6.372672E-010	-0.002344	5
	49	76	12.40079	190725.1	-147808	1	241294.9	-37.77494	-3.347618E-010	-0.0023423	5
	50	78	9.93114	210002.9	-167330.5	1	268515.7	-38.54787	-3.177688E-010	-0.0023305	5
	51	80	7.944915	230513.1	-191508.5	1	299686.1	-39.71954	3.869159E-010	-0.0023383	5
	52	81	6.317385	249048	-217842.6	1	330878.1	-41.17623	5.146404E-010	-0.0023362	5
	53	83	5.008013	272656.4	-249077.6	1	369298.2	-42.41238	7.124169E-010	-0.0023356	5
	54	86	3.945707	301138.2	-286408	1	415588.4	-43.56386	1.047995E-010	-0.0023539	5
	55	88	3.158693	331354.4	-326424.1	1	465132.7	-44.57055	1.746431E-010	-0.0023402	5
	56	92	2.504006	367251.6	-374312.8	1	524389	-45.54556	6.523582E-011	-0.0023295	5
	57	94	1.998082	404899.1	-426892.3	1	588370.9	-46.5146	1.154321E-009	-0.0023583	5
	58	97	1.584686	451072.7	-492188.1	1	667619.4	-47.49586	1.698837E-010	-0.0023706	5
	59	101	1.266892	502488.7	-559994.9	1	752389	-48.09808	4.8477E-010	-0.0023849	5
	60	105	0.999041	563830.4	-646016.1	1	857462.2	-48.88617	2.584844E-010	-0.0023018	5
