EXPLAIN
TAG	EISPOT
TITLE	LABEL	Potentiostatic EIS	Test &Identifier
DATE	LABEL	11/12/2019	Date
TIME	LABEL	21:55:31	Time
NOTES	NOTES	3	&Notes...
	
	
	
PSTAT	PSTAT	REF600-11020	Potentiostat
VDC	POTEN	0.00000E+000	T	DC &Voltage (V)
FREQINIT	QUANT	1.00000E+006	Initial Fre&q. (Hz)
FREQFINAL	QUANT	1.00000E+000	Final Fre&q. (Hz)
PTSPERDEC	QUANT	1.00000E+001	Points/&decade
VAC	QUANT	2.50000E+001	AC &Voltage (mV rms)
AREA	QUANT	1.00000E-002	&Area (cm^2)
CONDIT	TWOPARAM	T	5.00000E+000	0.00000E+000	Conditionin&g	Time(s)	E(V)
DELAY	TWOPARAM	T	5.00000E+000	0.00000E+000	Init. De&lay	Time(s)	Stab.(mV/s)
SPEED	SELECTOR	1	&Optimize for:
ZGUESS	QUANT	1.00000E+005	E&stimated Z (ohms)
OCVCURVE	TABLE	19
	Pt	T	Vf	Vm	Ach	Over
	#	s	V vs. Ref.	V	V	bits
	0	0.258333	2.49180E-003	2.49180E-003	5.42099E-004	...........
	1	0.516667	2.48625E-003	2.20140E-003	5.37633E-004	...........
	2	0.775	2.45247E-003	1.94107E-003	5.43033E-004	...........
	3	1.03333	2.35827E-003	1.71298E-003	5.35933E-004	...........
	4	1.29167	2.19368E-003	1.50994E-003	5.44499E-004	...........
	5	1.55	1.98241E-003	1.32162E-003	5.41599E-004	...........
	6	1.80833	1.75869E-003	1.14853E-003	5.43166E-004	...........
	7	2.06667	1.54517E-003	9.91790E-004	5.40633E-004	...........
	8	2.325	1.34996E-003	8.42467E-004	5.39999E-004	...........
	9	2.58333	1.17273E-003	6.99035E-004	5.53233E-004	...........
	10	2.84167	1.01017E-003	5.68690E-004	5.47533E-004	...........
	11	3.1	8.59018E-004	4.44065E-004	5.51733E-004	...........
	12	3.35833	7.17275E-004	3.22324E-004	5.51499E-004	...........
	13	3.61667	5.83601E-004	2.06973E-004	5.45366E-004	...........
	14	3.875	4.56755E-004	9.91101E-005	5.47366E-004	...........
	15	4.13333	3.35916E-004	-4.13636E-006	5.45199E-004	...........
	16	4.39167	2.20798E-004	-1.05229E-004	5.47099E-004	...........
	17	4.65	1.11115E-004	-2.00278E-004	5.47633E-004	...........
	18	4.90833	6.28016E-006	-2.95900E-004	5.47733E-004	...........
EOC	QUANT	6.280159E-006	Open Circuit (V)
PSTATMODEL	IQUANT	4	Pstat Model
PSTATSECTION	LABEL	REF600-11020	Pstat Section
PSTATSERIALNO	LABEL	11020	Pstat Serial Number
CTRLMODE	IQUANT	1	Control Mode
IESTAB	IQUANT	0	I/E Stability
CASPEED	IQUANT	1	Control Amp Speed
CONVENTION	IQUANT	1	Current Convention
ICHRANGE	IQUANT	2	Ich Range
ICHRANGEMODE	TOGGLE	F	Ich Auto Range
ICHOFFSETENABLE	TOGGLE	T	Ich Offset Enable
ICHOFFSET	QUANT	0	Ich Offset (V)
ICHFILTER	IQUANT	3	Ich Filter
VCHRANGE	IQUANT	2	Vch Range
VCHRANGEMODE	TOGGLE	F	Vch Auto Range
VCHOFFSETENABLE	TOGGLE	T	Vch Offset Enable
VCHOFFSET	QUANT	0	Vch Offset (V)
VCHFILTER	IQUANT	3	Vch Filter
ACHRANGE	IQUANT	2	Ach Range
ACHOFFSETENABLE	TOGGLE	F	Ach Offset Enable
ACHOFFSET	QUANT	0	Ach Offset (V)
ACHFILTER	IQUANT	3	Ach Filter
IERANGELOWERLIMIT	IQUANT	1	I/E Range Lower Limit
IERANGEMODE	TOGGLE	F	I/E AutoRange
IERANGE	IQUANT	2	I/E Range
POSFEEDENABLE	TOGGLE	F	Positive Feedback IR Comp
POSFEEDRESISTANCE	QUANT	0	Positive Feedback Resistance (ohm)
ACHSELECT	IQUANT	0	Ach Select
CABLEID	IQUANT	14	Cable ID
DCCALDATE	LABEL	8/19/2019	DC Calibration Date
ACCALDATE	LABEL	8/19/2019	AC Calibration Date
THERMOSELECT	IQUANT	1	Thermo Select
FRAMEWORKVERSION	QUANT	6.33	Framework Version
INSTRUMENTVERSION	LABEL	3.50	Instrument Version
ZCURVE	TABLE
	Pt	Time	Freq	Zreal	Zimag	Zsig	Zmod	Zphz	Idc	Vdc	IERange
	#	s	Hz	ohm	ohm	V	ohm	°	A	V	#
	0	2	1000078	1965.846	-1465.807	1	2452.171	-36.70957	-4.693949E-006	0.0029675	8
	1	4	794390.6	2259.093	-1435.345	1	2676.512	-32.43037	-1.165607E-006	0.0017996	8
	2	5	630984.4	2530.8	-1366.652	1	2876.228	-28.36941	4.32755E-006	0.0016987	8
	3	6	501234.4	2774.868	-1269.02	1	3051.279	-24.57586	1.279552E-006	0.0012134	8
	4	8	398109.4	2981.652	-1149.854	1	3195.687	-21.08881	3.508469E-006	0.0015588	8
	5	9	316265.6	3150.456	-1020.655	1	3311.663	-17.9508	-2.476194E-006	0.0020269	8
	6	10	251203.1	3291.152	-903.6876	1	3412.966	-15.35393	-9.822064E-008	0.001323	8
	7	12	199546.9	3392.054	-785.6952	1	3481.86	-13.04133	-3.42134E-008	0.0012998	8
	8	13	158578.1	3495.63	-686.1212	1	3562.329	-11.10483	-5.641946E-007	0.0013107	8
	9	15	125953.1	3543.017	-560.9709	1	3587.152	-8.997036	-8.641628E-007	0.0024899	7
	10	16	100078.1	3602.575	-491.2337	1	3635.912	-7.764751	9.278804E-007	0.0002584	7
	11	17	79453.13	3635.627	-448.3597	1	3663.17	-7.03044	-1.048925E-006	0.0027652	7
	12	19	63140.62	3678.38	-417.2138	1	3701.965	-6.471018	7.210709E-007	0.0013105	7
	13	20	50203.12	3712.892	-394.1194	1	3733.751	-6.059196	9.266786E-007	0.0002507	7
	14	22	39890.62	3735.09	-380.131	1	3754.384	-5.81115	-1.047911E-006	0.0024559	7
	15	23	31640.63	3771.589	-380.4565	1	3790.729	-5.760189	3.431554E-007	0.001954	7
	16	24	25171.88	3795.952	-386.6307	1	3815.591	-5.815715	-9.082542E-007	0.0019741	7
	17	26	20015.62	3826.535	-404.3641	1	3847.841	-6.032269	-9.490239E-007	0.0029295	7
	18	27	15890.62	3861.462	-433.3732	1	3885.704	-6.40353	-9.147895E-007	0.0019776	7
	19	28	12609.37	3893.984	-472.3416	1	3922.527	-6.916208	-7.7152E-007	0.0029666	7
	20	30	10078.13	3941.648	-525.6318	1	3976.541	-7.595767	7.342602E-007	0.0012927	7
	21	31	8015.625	3975.032	-590.7768	1	4018.693	-8.453528	8.475678E-007	3.581047E-005	7
	22	33	6328.125	4009.573	-676.7061	1	4066.277	-9.57968	-7.665396E-007	0.0029536	7
	23	34	5015.625	4060.375	-785.0707	1	4135.575	-10.94307	5.425887E-007	0.0016669	7
	24	35	3984.375	4102.806	-917.7269	1	4204.193	-12.60853	-9.150098E-007	0.0019612	7
	25	37	3170.956	4157.572	-1081.391	1	4295.906	-14.57966	-2.738819E-007	0.0007723	7
	26	38	2527.573	4214.241	-1282.183	1	4404.977	-16.92238	-1.060644E-006	0.0024542	7
	27	39	1976.103	4289.845	-1551.872	1	4561.916	-19.88783	-1.053136E-006	0.0024465	7
	28	41	1577.524	4366.611	-1848.653	1	4741.815	-22.9459	8.486805E-007	3.102165E-005	7
	29	42	1265.625	4466.612	-2215.184	1	4985.746	-26.37877	-7.728217E-007	0.0029623	7
	30	44	998.264	4585.305	-2694.462	1	5318.378	-30.43977	6.72544E-007	-3.88855E-005	7
	31	45	796.875	4714.542	-3249.429	1	5725.879	-34.57599	9.337046E-007	0.0002306	7
	32	46	627.7902	4867.901	-3952.308	1	6270.343	-39.07356	-7.62537E-007	0.0029412	7
	33	48	505.5147	5037.064	-4749.861	1	6923.381	-43.3191	-2.820661E-007	0.0007662	7
	34	49	397.9953	5247.133	-5828.218	1	7842.228	-48.00336	6.882924E-009	0.0015212	7
	35	50	315.5048	5491.726	-7123.931	1	8994.968	-52.37194	6.951826E-009	0.0015185	7
	36	52	252.4038	5777.908	-8657.015	1	10408.08	-56.27986	9.468664E-010	0.0014601	6
	37	53	198.6229	6150.683	-10693.56	1	12336.25	-60.0935	9.840015E-010	0.0014518	6
	38	55	158.3615	6593.572	-13076.98	1	14645.22	-63.2422	9.317125E-010	0.0014565	6
	39	56	125.558	7167.625	-16080.74	1	17605.82	-65.97616	1.295771E-009	0.0014546	6
	40	57	100.4464	7866.332	-19621.17	1	21139.28	-68.15363	1.091325E-009	0.0014514	6
	41	59	79.00281	8877.563	-24300.03	1	25870.88	-69.93117	1.388811E-009	0.0014566	6
	42	60	63.3446	10232.93	-29535.61	1	31258.04	-70.89082	5.182702E-010	0.0014453	6
	43	62	49.86702	11870.92	-36732.2	1	38602.76	-72.09048	1.017394E-009	0.0014469	6
	44	63	39.72458	14057.15	-44697.97	1	46856.29	-72.54206	1.125023E-009	0.0014598	6
	45	64	31.6723	16923.18	-54394.68	1	56966.44	-72.71813	-4.724979E-011	0.0014579	6
	46	66	24.93351	21177.59	-66833.55	1	70108.59	-72.41812	5.095179E-010	0.0014539	6
	47	67	19.86229	26524.04	-80876.7	1	85115.01	-71.84276	3.345927E-010	0.0014542	6
	48	69	15.83615	33828.95	-97325.9	1	103037.5	-70.83335	-3.274467E-010	0.0014546	6
	49	70	12.40079	43114.72	-118659	1	126249.1	-70.03139	1.518279E-009	0.0014535	5
	50	72	9.93114	55044.66	-139979	1	150412.8	-68.53349	7.773628E-010	0.0014491	5
	51	73	7.944915	69890.06	-164252.1	1	178503.1	-66.95001	-2.310072E-010	0.0014605	5
	52	75	6.317385	88178.11	-192598	1	211823.9	-65.40004	7.227778E-010	0.0014622	5
	53	77	5.008013	110956.7	-224358.4	1	250296	-63.68525	5.444806E-010	0.0014773	5
	54	79	3.945707	138412.2	-260403.7	1	294903.4	-62.00805	3.891534E-010	0.0014735	5
	55	82	3.158693	167855	-297527.4	1	341610.7	-60.56976	1.632061E-010	0.0014674	5
	56	86	2.504006	201907.3	-340213.9	1	395616	-59.31207	7.802985E-010	0.0014674	5
	57	88	1.998082	238534.4	-386465.7	1	454152.4	-58.31628	5.324335E-010	0.00147	5
	58	91	1.584686	281408.7	-440895.2	1	523048.3	-57.45126	2.65183E-010	0.0014216	5
	59	95	1.266892	325402.8	-500582.3	1	597050.7	-56.97418	5.00806E-010	0.0014403	5
	60	99	0.999041	378284.6	-575980.2	1	689095.4	-56.70443	1.261858E-010	0.0014915	5
