EXPLAIN
TAG	EISPOT
TITLE	LABEL	Potentiostatic EIS	Test &Identifier
DATE	LABEL	11/3/2019	Date
TIME	LABEL	10:48:02	Time
NOTES	NOTES	1	&Notes...
	
PSTAT	PSTAT	REF600-11020	Potentiostat
VDC	POTEN	0.00000E+000	T	DC &Voltage (V)
FREQINIT	QUANT	1.00000E+006	Initial Fre&q. (Hz)
FREQFINAL	QUANT	1.00000E+000	Final Fre&q. (Hz)
PTSPERDEC	QUANT	1.00000E+001	Points/&decade
VAC	QUANT	2.50000E+001	AC &Voltage (mV rms)
AREA	QUANT	1.00000E-002	&Area (cm^2)
CONDIT	TWOPARAM	T	5.00000E+000	0.00000E+000	Conditionin&g	Time(s)	E(V)
DELAY	TWOPARAM	T	5.00000E+000	0.00000E+000	Init. De&lay	Time(s)	Stab.(mV/s)
SPEED	SELECTOR	1	&Optimize for:
ZGUESS	QUANT	1.00000E+005	E&stimated Z (ohms)
OCVCURVE	TABLE	19
	Pt	T	Vf	Vm	Ach	Over
	#	s	V vs. Ref.	V	V	bits
	0	0.258333	1.80508E-002	1.80508E-002	5.78266E-004	...........
	1	0.516667	1.80557E-002	1.83082E-002	5.73932E-004	...........
	2	0.775	1.80547E-002	1.69210E-002	5.71399E-004	...........
	3	1.03333	1.79721E-002	1.68269E-002	5.75132E-004	...........
	4	1.29167	1.77244E-002	1.66157E-002	5.75465E-004	...........
	5	1.55	1.73505E-002	1.63885E-002	5.73332E-004	...........
	6	1.80833	1.69717E-002	1.61380E-002	5.71599E-004	...........
	7	2.06667	1.66546E-002	1.58962E-002	5.69366E-004	...........
	8	2.325	1.63963E-002	1.59897E-002	5.67999E-004	...........
	9	2.58333	1.61913E-002	1.59312E-002	5.72432E-004	...........
	10	2.84167	1.60528E-002	1.60373E-002	5.72166E-004	...........
	11	3.1	1.59822E-002	1.57996E-002	5.77666E-004	...........
	12	3.35833	1.59407E-002	1.53569E-002	5.69832E-004	...........
	13	3.61667	1.58558E-002	1.49731E-002	5.71532E-004	...........
	14	3.875	1.56718E-002	1.47475E-002	5.70166E-004	...........
	15	4.13333	1.53996E-002	1.46027E-002	5.72166E-004	...........
	16	4.39167	1.51075E-002	1.46592E-002	5.72832E-004	...........
	17	4.65	1.48664E-002	1.44985E-002	5.71499E-004	...........
	18	4.90833	1.47004E-002	1.42921E-002	5.74499E-004	...........
EOC	QUANT	0.0147004	Open Circuit (V)
PSTATMODEL	IQUANT	4	Pstat Model
PSTATSECTION	LABEL	REF600-11020	Pstat Section
PSTATSERIALNO	LABEL	11020	Pstat Serial Number
CTRLMODE	IQUANT	1	Control Mode
IESTAB	IQUANT	0	I/E Stability
CASPEED	IQUANT	1	Control Amp Speed
CONVENTION	IQUANT	1	Current Convention
ICHRANGE	IQUANT	2	Ich Range
ICHRANGEMODE	TOGGLE	F	Ich Auto Range
ICHOFFSETENABLE	TOGGLE	T	Ich Offset Enable
ICHOFFSET	QUANT	0	Ich Offset (V)
ICHFILTER	IQUANT	3	Ich Filter
VCHRANGE	IQUANT	2	Vch Range
VCHRANGEMODE	TOGGLE	F	Vch Auto Range
VCHOFFSETENABLE	TOGGLE	T	Vch Offset Enable
VCHOFFSET	QUANT	0	Vch Offset (V)
VCHFILTER	IQUANT	3	Vch Filter
ACHRANGE	IQUANT	2	Ach Range
ACHOFFSETENABLE	TOGGLE	F	Ach Offset Enable
ACHOFFSET	QUANT	0	Ach Offset (V)
ACHFILTER	IQUANT	3	Ach Filter
IERANGELOWERLIMIT	IQUANT	1	I/E Range Lower Limit
IERANGEMODE	TOGGLE	F	I/E AutoRange
IERANGE	IQUANT	5	I/E Range
POSFEEDENABLE	TOGGLE	F	Positive Feedback IR Comp
POSFEEDRESISTANCE	QUANT	0	Positive Feedback Resistance (ohm)
ACHSELECT	IQUANT	0	Ach Select
CABLEID	IQUANT	14	Cable ID
DCCALDATE	LABEL	8/19/2019	DC Calibration Date
ACCALDATE	LABEL	8/19/2019	AC Calibration Date
THERMOSELECT	IQUANT	1	Thermo Select
FRAMEWORKVERSION	QUANT	6.33	Framework Version
INSTRUMENTVERSION	LABEL	3.50	Instrument Version
ZCURVE	TABLE
	Pt	Time	Freq	Zreal	Zimag	Zsig	Zmod	Zphz	Idc	Vdc	IERange
	#	s	Hz	ohm	ohm	V	ohm	°	A	V	#
	0	2	1000078	2050.609	-1328.588	1	2443.387	-32.93918	4.875564E-009	0.0176102	8
	1	3	794390.6	2315.58	-1250.203	1	2631.524	-28.36503	-6.507386E-008	0.016164	8
	2	4	630984.4	2544.449	-1141.905	1	2788.936	-24.16972	8.546992E-006	0.0155122	8
	3	6	501234.4	2729.1	-1016.901	1	2912.4	-20.4361	6.742665E-006	0.0154923	8
	4	7	398109.4	2866.081	-897.6494	1	3003.364	-17.39043	-2.666725E-006	0.0164256	8
	5	8	316265.6	2986.62	-780.9789	1	3087.042	-14.65429	7.486602E-008	0.0159497	8
	6	10	251203.1	3068.222	-669.9389	1	3140.51	-12.31708	-4.106327E-007	0.0167514	8
	7	11	199546.9	3142.156	-580.7964	1	3195.382	-10.47236	6.081443E-006	0.0151521	8
	8	12	158578.1	3164.335	-504.3709	1	3204.279	-9.05633	-7.984045E-007	0.0159833	8
	9	14	125953.1	3245.647	-400.0743	1	3270.212	-7.027109	1.211884E-006	0.0177683	7
	10	15	100078.1	3268.908	-357.7349	1	3288.424	-6.245346	-6.385409E-007	0.0178654	7
	11	17	79453.13	3298.827	-333.554	1	3315.647	-5.773721	5.037726E-007	0.0145399	7
	12	18	63140.62	3324.855	-320.6192	1	3340.279	-5.50806	1.113018E-006	0.0150951	7
	13	19	50203.12	3345.927	-310.5487	1	3360.308	-5.302655	-9.159788E-007	0.0179337	7
	14	21	39890.62	3373.179	-312.8774	1	3387.658	-5.299277	3.913291E-007	0.0167716	7
	15	22	31640.63	3399.9	-320.5028	1	3414.973	-5.385262	8.003989E-007	0.014434	7
	16	23	25171.88	3420.779	-335.6493	1	3437.206	-5.603965	-1.236616E-006	0.0173174	7
	17	25	20015.62	3447.391	-360.809	1	3466.221	-5.974907	-1.250887E-006	0.0177091	7
	18	26	15890.62	3479.796	-397.2084	1	3502.393	-6.511959	6.141376E-007	0.0164451	7
	19	27	12609.37	3510.031	-443.647	1	3537.957	-7.203648	5.04768E-007	0.0145317	7
	20	29	10078.13	3536.956	-499.977	1	3572.119	-8.045908	-1.23533E-006	0.0173124	7
	21	30	8015.625	3569.18	-573.1217	1	3614.901	-9.122407	-1.236011E-006	0.0173177	7
	22	32	6328.125	3606.541	-668.6031	1	3667.993	-10.50261	-1.235724E-006	0.0173169	7
	23	33	5015.625	3650.611	-788.0377	1	3734.697	-12.18122	7.99891E-007	0.0144311	7
	24	34	3984.375	3693.192	-934.0136	1	3809.468	-14.1926	1.331908E-007	0.0148239	7
	25	36	3170.956	3744.315	-1111.916	1	3905.925	-16.53937	8.00513E-007	0.0144227	7
	26	37	2527.573	3800.077	-1328.995	1	4025.769	-19.27619	-2.958724E-007	0.0153344	7
	27	38	1976.103	3873.93	-1623.218	1	4200.258	-22.7342	1.11708E-006	0.0150793	7
	28	40	1577.524	3957.021	-1946.662	1	4409.933	-26.19495	6.584256E-008	0.0172055	7
	29	41	1265.625	4043.724	-2342.802	1	4673.374	-30.08661	6.131922E-007	0.0164342	7
	30	43	998.264	4157.29	-2858.266	1	5045.071	-34.50973	1.022604E-006	0.0155163	7
	31	44	796.875	4283.075	-3455.71	1	5503.332	-38.8976	-2.956583E-007	0.0153298	7
	32	45	627.7902	4449.35	-4227.941	1	6137.769	-43.53837	-1.119558E-006	0.0178552	7
	33	47	505.5147	4609.305	-5113.085	1	6883.991	-47.96621	1.104719E-006	0.0147434	7
	34	48	397.9953	4844.658	-6280.511	1	7931.931	-52.35414	1.453716E-009	0.0162518	7
	35	49	315.5048	5115.333	-7694.651	1	9239.82	-56.38441	3.320228E-009	0.0162523	7
	36	51	252.4038	5435.989	-9364.814	1	10828.19	-59.86614	1.496157E-009	0.0161811	6
	37	52	198.6229	5863.058	-11577.86	1	12977.76	-63.14222	8.50599E-010	0.0161893	6
	38	54	158.3615	6377.121	-14154.26	1	15524.52	-65.74633	9.683184E-010	0.0161797	6
	39	55	125.558	7053.216	-17404.23	1	18779.12	-67.93932	6.069692E-010	0.0161888	6
	40	56	100.4464	7896.802	-21197.63	1	22620.77	-69.56802	1.607228E-009	0.0161822	6
	41	58	79.00281	9140.716	-26255.44	1	27801.09	-70.80466	8.150247E-010	0.0161821	6
	42	59	63.3446	10705.24	-32115.18	1	33852.43	-71.56476	3.763715E-010	0.0161822	6
	43	61	49.86702	12395.72	-39356.28	1	41262.22	-72.51757	6.161706E-010	0.0161737	6
	44	62	39.72458	15177.7	-47859.51	1	50208.52	-72.4046	6.730151E-010	0.0161814	6
	45	63	31.6723	18608.7	-57830.43	1	60750.66	-72.16284	-2.990672E-010	0.0161828	6
	46	65	24.93351	23506.79	-70884	1	74680.05	-71.65327	1.116967E-010	0.0161769	6
	47	66	19.86229	29495.55	-85384.08	1	90335.09	-70.94276	1.817983E-009	0.0161786	6
	48	67	15.83615	37686.08	-102679.5	1	109377	-69.84554	-9.410688E-010	0.0161908	5
	49	69	12.40079	48520.61	-122093.6	1	131381.5	-68.32687	1.044823E-009	0.0161827	5
	50	70	9.93114	61522.5	-145068.5	1	157575	-67.01855	7.428697E-010	0.0161834	5
	51	72	7.944915	78052.9	-169958.3	1	187024.3	-65.33318	1.367611E-010	0.0161892	5
	52	74	6.317385	97676.8	-196712.4	1	219628.1	-63.59349	1.704305E-010	0.0161818	5
	53	76	5.008013	121831.5	-227520.4	1	258086.1	-61.83205	1.784748E-010	0.0161941	5
	54	78	3.945707	150488.3	-261503	1	301712.7	-60.08068	6.762099E-012	0.0161781	5
	55	81	3.158693	180832.6	-296226	1	347059.5	-58.59782	3.038804E-010	0.0162003	5
	56	84	2.504006	215783.4	-336042.1	1	399357.9	-57.29418	-2.087347E-010	0.0161896	5
	57	87	1.998082	251689.8	-378044.5	1	454164.5	-56.34561	1.532749E-010	0.0161372	5
	58	90	1.584686	290186.8	-428174.9	1	517244.8	-55.87334	-1.735294E-011	0.016192	5
	59	94	1.266892	331083.5	-484874.4	1	587128.2	-55.67383	3.68978E-011	0.0161451	5
	60	98	0.999041	377128.8	-555660.5	1	671554	-55.83512	1.960954E-010	0.0162317	5
