EXPLAIN
TAG	EISPOT
TITLE	LABEL	Potentiostatic EIS	Test &Identifier
DATE	LABEL	8/14/2018	Date
TIME	LABEL	5:03:14	Time
NOTES	NOTES	1	&Notes...
	
PSTAT	PSTAT	REF600-11020	Potentiostat
VDC	POTEN	0.00000E+000	T	DC &Voltage (V)
FREQINIT	QUANT	1.00000E+006	Initial Fre&q. (Hz)
FREQFINAL	QUANT	1.00000E+000	Final Fre&q. (Hz)
PTSPERDEC	QUANT	1.00000E+001	Points/&decade
VAC	QUANT	2.50000E+001	AC &Voltage (mV rms)
AREA	QUANT	1.00000E-002	&Area (cm^2)
CONDIT	TWOPARAM	T	5.00000E+000	0.00000E+000	Conditionin&g	Time(s)	E(V)
DELAY	TWOPARAM	T	5.00000E+000	0.00000E+000	Init. De&lay	Time(s)	Stab.(mV/s)
SPEED	SELECTOR	0	&Optimize for:
ZGUESS	QUANT	1.00000E+005	E&stimated Z (ohms)
OCVCURVE	TABLE	19
	Pt	T	Vf	Vm	Ach	Over
	#	s	V vs. Ref.	V	V	bits
	0	0.258333	1.00938E-002	1.00938E-002	5.36499E-004	...........
	1	0.516667	1.01000E-002	1.04174E-002	5.42033E-004	...........
	2	0.775	1.01381E-002	1.07315E-002	5.38166E-004	...........
	3	1.03333	1.02462E-002	1.10260E-002	5.38199E-004	...........
	4	1.29167	1.04400E-002	1.13097E-002	5.33300E-004	...........
	5	1.55	1.06980E-002	1.15859E-002	5.35833E-004	...........
	6	1.80833	1.09846E-002	1.18603E-002	5.34200E-004	...........
	7	2.06667	1.12748E-002	1.21177E-002	5.37566E-004	...........
	8	2.325	1.15574E-002	1.23722E-002	5.42833E-004	...........
	9	2.58333	1.18298E-002	1.26108E-002	5.37533E-004	...........
	10	2.84167	1.20920E-002	1.28536E-002	5.34633E-004	...........
	11	3.1	1.23450E-002	1.30793E-002	5.42133E-004	...........
	12	3.35833	1.25898E-002	1.33031E-002	5.44966E-004	...........
	13	3.61667	1.28272E-002	1.35184E-002	5.46866E-004	...........
	14	3.875	1.30574E-002	1.37290E-002	5.39999E-004	...........
	15	4.13333	1.32807E-002	1.39348E-002	5.47366E-004	...........
	16	4.39167	1.34977E-002	1.41352E-002	5.37299E-004	...........
	17	4.65	1.37089E-002	1.43252E-002	5.35533E-004	...........
	18	4.90833	1.39144E-002	1.45179E-002	5.35399E-004	...........
EOC	QUANT	0.0139144	Open Circuit (V)
PSTATMODEL	IQUANT	4	Pstat Model
PSTATSECTION	LABEL	REF600-11020	Pstat Section
PSTATSERIALNO	LABEL	11020	Pstat Serial Number
CTRLMODE	IQUANT	1	Control Mode
IESTAB	IQUANT	0	I/E Stability
CASPEED	IQUANT	1	Control Amp Speed
CONVENTION	IQUANT	1	Current Convention
ICHRANGE	IQUANT	2	Ich Range
ICHRANGEMODE	TOGGLE	F	Ich Auto Range
ICHOFFSETENABLE	TOGGLE	T	Ich Offset Enable
ICHOFFSET	QUANT	0	Ich Offset (V)
ICHFILTER	IQUANT	3	Ich Filter
VCHRANGE	IQUANT	2	Vch Range
VCHRANGEMODE	TOGGLE	F	Vch Auto Range
VCHOFFSETENABLE	TOGGLE	T	Vch Offset Enable
VCHOFFSET	QUANT	0	Vch Offset (V)
VCHFILTER	IQUANT	3	Vch Filter
ACHRANGE	IQUANT	2	Ach Range
ACHOFFSETENABLE	TOGGLE	F	Ach Offset Enable
ACHOFFSET	QUANT	0	Ach Offset (V)
ACHFILTER	IQUANT	3	Ach Filter
IERANGELOWERLIMIT	IQUANT	1	I/E Range Lower Limit
IERANGEMODE	TOGGLE	F	I/E AutoRange
IERANGE	IQUANT	5	I/E Range
POSFEEDENABLE	TOGGLE	F	Positive Feedback IR Comp
POSFEEDRESISTANCE	QUANT	0	Positive Feedback Resistance (ohm)
ACHSELECT	IQUANT	0	Ach Select
CABLEID	IQUANT	14	Cable ID
DCCALDATE	LABEL	8/19/2019	DC Calibration Date
ACCALDATE	LABEL	8/19/2019	AC Calibration Date
THERMOSELECT	IQUANT	1	Thermo Select
FRAMEWORKVERSION	QUANT	6.33	Framework Version
INSTRUMENTVERSION	LABEL	3.50	Instrument Version
ZCURVE	TABLE
	Pt	Time	Freq	Zreal	Zimag	Zsig	Zmod	Zphz	Idc	Vdc	IERange
	#	s	Hz	ohm	ohm	V	ohm	°	A	V	#
	0	1	1000078	1759.391	-655.135	1	1877.407	-20.42356	1.202188E-008	0.0154894	8
	1	1	794390.6	1842.275	-579.1093	1	1931.151	-17.45027	1.846172E-006	0.0155308	8
	2	2	630984.4	1921.948	-503.8739	1	1986.901	-14.69052	-3.830006E-006	0.0165403	8
	3	2	501234.4	1975.886	-439.0273	1	2024.073	-12.52719	3.778205E-007	0.0156628	8
	4	2	398109.4	2019.262	-374.9774	1	2053.784	-10.52	-2.607547E-007	0.0156088	8
	5	3	316265.6	2055.092	-325.2727	1	2080.674	-8.993965	3.539488E-006	0.0149039	8
	6	3	251203.1	2079.78	-288.8534	1	2099.743	-7.907027	4.787668E-007	0.0152722	8
	7	3	199546.9	2103.461	-259.359	1	2119.39	-7.029153	-2.79734E-006	0.0162199	8
	8	4	158578.1	2112.138	-230.0833	1	2124.633	-6.216935	-2.182806E-006	0.0159129	8
	9	4	125953.1	2154.383	-184.131	1	2162.237	-4.88509	4.055535E-007	0.0147981	7
	10	4	100078.1	2163.013	-173.5291	1	2169.962	-4.586768	-4.103254E-009	0.0156195	7
	11	5	79453.13	2183.064	-178.9506	1	2190.386	-4.686183	-5.153321E-008	0.0156046	7
	12	5	63140.62	2199.807	-187.7995	1	2207.809	-4.87956	3.663411E-009	0.0154626	7
	13	5	50203.12	2218.633	-199.5504	1	2227.589	-5.139522	-4.150212E-008	0.0155607	7
	14	6	39890.62	2238.428	-214.2993	1	2248.663	-5.468632	-8.058437E-009	0.0155589	7
	15	6	31640.63	2261.445	-232.8456	1	2273.4	-5.878642	-5.193478E-008	0.0156041	7
	16	6	25171.88	2285.151	-255.2945	1	2299.367	-6.374588	-3.166163E-008	0.0155306	7
	17	7	20015.62	2314.003	-282.6066	1	2331.197	-6.962986	-3.416976E-008	0.015529	7
	18	7	15890.62	2341.591	-315.2465	1	2362.716	-7.667582	-3.810775E-008	0.0155923	7
	19	7	12609.37	2373.89	-355.5349	1	2400.366	-8.517817	6.885212E-008	0.0153972	7
	20	7	10078.13	2409.402	-398.7872	1	2442.181	-9.397993	1.009534E-007	0.0153767	7
	21	8	8015.625	2445.32	-451.2774	1	2486.613	-10.45614	-3.40025E-008	0.0155345	7
	22	8	6328.125	2489.012	-516.5832	1	2542.054	-11.72502	-1.888791E-008	0.015575	7
	23	8	5015.625	2534.557	-592.965	1	2602.996	-13.16764	-1.798462E-008	0.0155725	7
	24	9	3984.375	2581.014	-684.5264	1	2670.246	-14.85379	-2.053026E-008	0.0155791	7
	25	9	3170.956	2636.175	-791.4521	1	2752.419	-16.7112	-3.414783E-010	0.0155966	7
	26	9	2527.573	2691.995	-920.2037	1	2844.927	-18.87195	3.049617E-009	0.0154736	7
	27	10	1976.103	2756.973	-1089.079	1	2964.287	-21.55536	-3.383661E-008	0.0155281	7
	28	10	1577.524	2824.276	-1281.344	1	3101.351	-24.40328	5.946513E-008	0.0153822	7
	29	10	1265.625	2886.777	-1512.231	1	3258.883	-27.64768	-4.454591E-008	0.015561	7
	30	11	998.264	2963.234	-1817.356	1	3476.139	-31.52085	2.262381E-008	0.015485	7
	31	11	796.875	3043.863	-2178.59	1	3743.175	-35.59251	5.587091E-008	0.0154889	7
	32	11	627.7902	3138.98	-2654.113	1	4110.658	-40.21564	1.029334E-007	0.0153702	7
	33	12	505.5147	3240.875	-3186.8	1	4545.213	-44.51799	2.27445E-008	0.0154873	7
	34	12	397.9953	3374.143	-3920.383	1	5172.45	-49.28252	1.543056E-009	0.0155342	7
	35	12	315.5048	3532.659	-4806.039	1	5964.704	-53.6824	4.774755E-010	0.0155313	7
	36	13	252.4038	3721.625	-5853.348	1	6936.294	-57.55134	8.864431E-011	0.0155334	7
	37	13	198.6229	3978.294	-7244.301	1	8264.788	-61.22609	7.417261E-011	0.0155341	7
	38	13	158.3615	4287.971	-8864.571	1	9847.2	-64.18601	4.351375E-010	0.015535	7
	39	14	125.558	4701.831	-10901.82	1	11872.53	-66.67002	-1.509718E-010	0.0154696	6
	40	14	100.4464	5202.585	-13299.61	1	14280.98	-68.63539	-1.413444E-009	0.015469	6
	41	14	79.00281	5893.745	-16443.3	1	17467.64	-70.28088	-2.452218E-010	0.0154683	6
	42	15	63.3446	6920.88	-19962.02	1	21127.73	-70.87845	-5.312089E-010	0.0154683	6
	43	15	49.86702	8070.724	-24628.79	1	25917.44	-71.8563	-2.632239E-010	0.0154641	6
	44	15	39.72458	9443.543	-29950.95	1	31404.45	-72.49992	-3.030855E-010	0.0154742	6
	45	16	31.6723	11275.66	-36352.15	1	38060.73	-72.76723	-2.733948E-010	0.0154656	6
	46	16	24.93351	13913.26	-44546.16	1	46668.4	-72.65466	-5.077977E-010	0.0154636	6
	47	16	19.86229	17075.41	-53849.03	1	56491.48	-72.40629	9.111308E-010	0.01547	6
	48	17	15.83615	20552.48	-64932.72	1	68107.73	-72.4364	4.39198E-010	0.0154676	6
	49	17	12.40079	26948.6	-78640.55	1	83129.79	-71.0844	-2.678827E-009	0.0154722	6
	50	17	9.93114	33015.45	-94144.41	1	99765.7	-70.67477	9.547831E-011	0.0154723	6
	51	18	7.944915	40769.48	-111682	1	118890.8	-69.9454	6.459978E-010	0.0154685	5
	52	18	6.317385	50952.36	-133079.2	1	142499.9	-69.04954	2.509545E-010	0.015463	5
	53	19	5.008013	63560.04	-158319.6	1	170601.8	-68.12619	9.118307E-011	0.0154758	5
	54	20	3.945707	79587.07	-188294.5	1	204423.4	-67.08752	-4.736886E-010	0.0154701	5
	55	22	3.158693	97554.5	-220455.9	1	241076.1	-66.13	-4.23479E-010	0.0154543	5
	56	23	2.504006	120174.2	-259060	1	285576.4	-65.1141	-1.122193E-010	0.0154634	5
	57	24	1.998082	145700.4	-301237.6	1	334623.3	-64.18821	-3.543567E-010	0.0154511	5
	58	26	1.584686	177317.9	-352281.5	1	394390.5	-63.28198	-4.68078E-010	0.0154196	5
	59	28	1.266892	211565.9	-408454.4	1	459994.7	-62.61733	-4.194552E-010	0.0154353	5
	60	31	0.999041	254236	-476151.9	1	539774.6	-61.90051	-3.913263E-010	0.0154575	5
