EXPLAIN
TAG	EISPOT
TITLE	LABEL	Potentiostatic IDE	Test &Identifier
DATE	LABEL	9/12/2019	Date
TIME	LABEL	11:21:20	Time
NOTES	NOTES	1	&Notes...
	
PSTAT	PSTAT	REF600-11020	Potentiostat
VDC	POTEN	0.00000E+000	T	DC &Voltage (V)
FREQINIT	QUANT	1.00000E+006	Initial Fre&q. (Hz)
FREQFINAL	QUANT	1.00000E+000	Final Fre&q. (Hz)
PTSPERDEC	QUANT	1.00000E+001	Points/&decade
VAC	QUANT	2.50000E+001	AC &Voltage (mV rms)
AREA	QUANT	1.00000E-002	&Area (cm^2)
CONDIT	TWOPARAM	T	5.00000E+000	0.00000E+000	Conditionin&g	Time(s)	E(V)
DELAY	TWOPARAM	T	5.00000E+000	0.00000E+000	Init. De&lay	Time(s)	Stab.(mV/s)
SPEED	SELECTOR	1	&Optimize for:
ZGUESS	QUANT	1.00000E+007	E&stimated Z (ohms)
OCVCURVE	TABLE	19
	Pt	T	Vf	Vm	Ach	Over
	#	s	V vs. Ref.	V	V	bits
	0	0.258333	6.98064E-003	6.98064E-003	5.58266E-004	...........
	1	0.516667	6.97914E-003	6.90190E-003	5.52932E-004	...........
	2	0.775	6.97019E-003	6.84251E-003	5.59332E-004	...........
	3	1.03333	6.94611E-003	6.79877E-003	5.55766E-004	...........
	4	1.29167	6.90618E-003	6.76636E-003	5.58332E-004	...........
	5	1.55	6.85871E-003	6.74009E-003	5.56666E-004	...........
	6	1.80833	6.81363E-003	6.72431E-003	5.56599E-004	...........
	7	2.06667	6.77655E-003	6.71072E-003	5.55233E-004	...........
	8	2.325	6.74859E-003	6.70127E-003	5.53633E-004	...........
	9	2.58333	6.72849E-003	6.69780E-003	5.54099E-004	...........
	10	2.84167	6.71437E-003	6.69054E-003	5.58766E-004	...........
	11	3.1	6.70456E-003	6.68874E-003	5.59699E-004	...........
	12	3.35833	6.69777E-003	6.69113E-003	5.51733E-004	...........
	13	3.61667	6.69343E-003	6.69395E-003	5.57999E-004	...........
	14	3.875	6.69153E-003	6.69635E-003	5.61399E-004	...........
	15	4.13333	6.69184E-003	6.70054E-003	5.65299E-004	...........
	16	4.39167	6.69381E-003	6.70673E-003	5.54199E-004	...........
	17	4.65	6.69703E-003	6.71343E-003	5.58466E-004	...........
	18	4.90833	6.70136E-003	6.71805E-003	5.65599E-004	...........
EOC	QUANT	0.0067014	Open Circuit (V)
PSTATMODEL	IQUANT	4	Pstat Model
PSTATSECTION	LABEL	REF600-11020	Pstat Section
PSTATSERIALNO	LABEL	11020	Pstat Serial Number
CTRLMODE	IQUANT	1	Control Mode
IESTAB	IQUANT	0	I/E Stability
CASPEED	IQUANT	1	Control Amp Speed
CONVENTION	IQUANT	1	Current Convention
ICHRANGE	IQUANT	2	Ich Range
ICHRANGEMODE	TOGGLE	F	Ich Auto Range
ICHOFFSETENABLE	TOGGLE	T	Ich Offset Enable
ICHOFFSET	QUANT	0	Ich Offset (V)
ICHFILTER	IQUANT	3	Ich Filter
VCHRANGE	IQUANT	2	Vch Range
VCHRANGEMODE	TOGGLE	F	Vch Auto Range
VCHOFFSETENABLE	TOGGLE	T	Vch Offset Enable
VCHOFFSET	QUANT	0	Vch Offset (V)
VCHFILTER	IQUANT	3	Vch Filter
ACHRANGE	IQUANT	2	Ach Range
ACHOFFSETENABLE	TOGGLE	F	Ach Offset Enable
ACHOFFSET	QUANT	0	Ach Offset (V)
ACHFILTER	IQUANT	3	Ach Filter
IERANGELOWERLIMIT	IQUANT	1	I/E Range Lower Limit
IERANGEMODE	TOGGLE	F	I/E AutoRange
IERANGE	IQUANT	3	I/E Range
POSFEEDENABLE	TOGGLE	F	Positive Feedback IR Comp
POSFEEDRESISTANCE	QUANT	0	Positive Feedback Resistance (ohm)
ACHSELECT	IQUANT	0	Ach Select
CABLEID	IQUANT	14	Cable ID
DCCALDATE	LABEL	8/19/2019	DC Calibration Date
ACCALDATE	LABEL	8/19/2019	AC Calibration Date
THERMOSELECT	IQUANT	1	Thermo Select
FRAMEWORKVERSION	QUANT	6.33	Framework Version
INSTRUMENTVERSION	LABEL	3.50	Instrument Version
ZCURVE	TABLE
	Pt	Time	Freq	Zreal	Zimag	Zsig	Zmod	Zphz	Idc	Vdc	IERange
	#	s	Hz	ohm	ohm	V	ohm	°	A	V	#
	0	2	1000078	2683.59	-2016.556	1	3356.807	-36.92264	1.174848E-006	0.0093009	8
	1	4	794390.6	3087.511	-1955.6	1	3654.736	-32.34977	-5.222261E-006	0.0097463	8
	2	5	630984.4	3469.336	-1814.983	1	3915.412	-27.61631	3.4335E-007	0.0087327	8
	3	7	501234.4	3788.408	-1649.649	1	4131.995	-23.53055	-8.075012E-007	0.0086188	8
	4	8	398109.4	4025.936	-1459.613	1	4282.363	-19.92824	5.553184E-006	0.0074477	8
	5	10	316265.6	4213.478	-1293.47	1	4407.546	-17.06565	-3.021318E-007	0.0086187	8
	6	11	251203.1	4352.356	-1112.967	1	4492.404	-14.34406	-8.700322E-007	0.0086307	8
	7	13	199546.9	4483.283	-980.474	1	4589.244	-12.33611	5.042376E-007	0.00818	8
	8	14	158578.1	4550.894	-866.2707	1	4632.608	-10.77742	-8.320313E-007	0.0086174	8
	9	16	125953.1	4643.641	-715.3247	1	4698.413	-8.757233	1.532463E-006	0.0049545	7
	10	17	100078.1	4699.083	-664.9999	1	4745.905	-8.054836	-4.375206E-008	0.0085083	7
	11	18	79453.13	4754.688	-636.7671	1	4797.137	-7.627896	-4.774012E-008	0.0084151	7
	12	20	63140.62	4806.745	-625.8263	1	4847.314	-7.418041	4.981226E-008	0.0081918	7
	13	21	50203.12	4860.667	-630.9717	1	4901.45	-7.396305	-4.084541E-008	0.0084972	7
	14	22	39890.62	4916.668	-653.4361	1	4959.9	-7.570372	-5.519737E-008	0.0084562	7
	15	23	31640.63	4973.893	-688.216	1	5021.28	-7.87775	-4.241909E-008	0.0083732	7
	16	25	25171.88	5037.827	-738.1135	1	5091.612	-8.335342	-2.947044E-008	0.0083465	7
	17	26	20015.62	5106.313	-805.8793	1	5169.514	-8.968459	-1.263375E-008	0.0084795	7
	18	27	15890.62	5179.119	-896.4459	1	5256.128	-9.81994	-4.668998E-008	0.0083715	7
	19	29	12609.37	5264.884	-997.547	1	5358.554	-10.72875	8.554523E-008	0.0081954	7
	20	30	10078.13	5354.026	-1119.243	1	5469.762	-11.80747	-4.579296E-008	0.0084008	7
	21	31	8015.625	5456.587	-1278.989	1	5604.476	-13.19162	-4.692438E-008	0.0083721	7
	22	33	6328.125	5569.493	-1469.288	1	5760.04	-14.7785	9.326192E-008	0.0081533	7
	23	34	5015.625	5698.254	-1697.76	1	5945.795	-16.5911	-1.031782E-008	0.0084808	7
	24	35	3984.375	5840.377	-1965.831	1	6162.345	-18.60288	-4.871464E-008	0.0083695	7
	25	37	3170.956	5997.028	-2289.26	1	6419.117	-20.89347	-9.629325E-009	0.0084889	7
	26	38	2527.573	6177.317	-2665.585	1	6727.896	-23.34076	-8.326795E-009	0.00839	7
	27	39	1976.103	6399.423	-3160.034	1	7137.116	-26.28015	2.316733E-008	0.0082624	7
	28	41	1577.524	6639.083	-3702.536	1	7601.723	-29.14788	-2.908181E-008	0.0083432	7
	29	42	1265.625	6888.683	-4347.196	1	8145.678	-32.25453	3.549672E-009	0.0082627	7
	30	43	998.264	7197.144	-5162.624	1	8857.289	-35.65247	-4.155107E-008	0.0083616	7
	31	45	796.875	7535.825	-6100.218	1	9695.43	-38.99002	7.42354E-009	0.0080494	6
	32	46	627.7902	7937.057	-7307.998	1	10789.05	-42.63713	-1.076415E-008	0.0083779	6
	33	48	505.5147	8356.415	-8640.684	1	12020.44	-45.95816	-9.238605E-009	0.0083887	6
	34	49	397.9953	8860.419	-10425.58	1	13682.09	-49.63968	5.621814E-010	0.0082945	6
	35	50	315.5048	9440.151	-12557.48	1	15710.09	-53.0658	2.187128E-009	0.0082968	6
	36	52	252.4038	10089.55	-15057.87	1	18125.63	-56.17588	9.41062E-010	0.0082964	6
	37	53	198.6229	10917.65	-18354.49	1	21356.08	-59.25488	3.698833E-010	0.0082918	6
	38	54	158.3615	11851.13	-22177.48	1	25145.38	-61.88099	1.713035E-009	0.0082873	6
	39	56	125.558	13023.38	-26971.18	1	29950.84	-64.22582	8.364688E-010	0.0082896	6
	40	57	100.4464	14476.11	-32605.89	1	35674.95	-66.06011	8.066552E-010	0.0082871	6
	41	58	79.00281	16294.63	-39862.73	1	43064.52	-67.7668	7.639781E-010	0.0082841	6
	42	60	63.3446	17813.85	-48520.61	1	51687.36	-69.8398	1.391583E-010	0.008281	6
	43	61	49.86702	21554.06	-58835.02	1	62658.9	-69.87982	4.110681E-010	0.0082838	6
	44	62	39.72458	24963.93	-72123.64	1	76321.8	-70.90789	1.007431E-009	0.0082946	6
	45	64	31.6723	29782.04	-86986.55	1	91943.62	-71.10007	1.054968E-009	0.0082918	6
	46	65	24.93351	36257.29	-106811.8	1	112797.8	-71.25021	4.902281E-010	0.0082936	5
	47	66	19.86229	44327.14	-129272.7	1	136661.3	-71.07334	2.390878E-010	0.0082988	5
	48	68	15.83615	55687.02	-155633.3	1	165296	-70.31232	7.257079E-010	0.0082903	5
	49	69	12.40079	69984.95	-189612.6	1	202115.9	-69.74118	5.336039E-010	0.0082936	5
	50	70	9.93114	88571.63	-225811.8	1	242561.1	-68.58307	1.960783E-010	0.0082977	5
	51	72	7.944915	112312.1	-265666	1	288431	-67.08346	2.612868E-010	0.0082832	5
	52	74	6.317385	141772.9	-313652.1	1	344205.2	-65.6767	2.826217E-010	0.0082788	5
	53	76	5.008013	179959.3	-367807	1	409472	-63.92859	-1.197906E-010	0.0082889	5
	54	78	3.945707	228248.5	-428460.3	1	485464.3	-61.95498	3.859838E-010	0.008296	5
	55	81	3.158693	283437.3	-489513.2	1	565649.9	-59.92836	8.700769E-011	0.0083041	5
	56	84	2.504006	349108.4	-557490.7	1	657778.5	-57.94463	4.094658E-011	0.0082828	5
	57	87	1.998082	422105	-627592.2	1	756336.3	-56.07607	-1.13098E-010	0.0082708	5
	58	90	1.584686	505174.6	-700481.5	1	863640.9	-54.20154	-3.209653E-011	0.0083213	5
	59	93	1.266892	594278.1	-778421.1	1	979340	-52.64042	-8.669453E-011	0.0082571	5
	60	98	0.999041	696707.8	-866424.3	1	1111797	-51.1966	2.130699E-010	0.0083316	4
