EXPLAIN
TAG	EISPOT
TITLE	LABEL	Potentiostatic IDE	Test &Identifier
DATE	LABEL	9/16/2019	Date
TIME	LABEL	9:36:48	Time
NOTES	NOTES	1	&Notes...
	
PSTAT	PSTAT	REF600-11020	Potentiostat
VDC	POTEN	0.00000E+000	T	DC &Voltage (V)
FREQINIT	QUANT	1.00000E+006	Initial Fre&q. (Hz)
FREQFINAL	QUANT	1.00000E+000	Final Fre&q. (Hz)
PTSPERDEC	QUANT	1.00000E+001	Points/&decade
VAC	QUANT	2.50000E+001	AC &Voltage (mV rms)
AREA	QUANT	1.00000E-002	&Area (cm^2)
CONDIT	TWOPARAM	T	5.00000E+000	0.00000E+000	Conditionin&g	Time(s)	E(V)
DELAY	TWOPARAM	T	5.00000E+000	0.00000E+000	Init. De&lay	Time(s)	Stab.(mV/s)
SPEED	SELECTOR	1	&Optimize for:
ZGUESS	QUANT	1.00000E+007	E&stimated Z (ohms)
OCVCURVE	TABLE	19
	Pt	T	Vf	Vm	Ach	Over
	#	s	V vs. Ref.	V	V	bits
	0	0.258333	5.09610E-003	5.09610E-003	5.70299E-004	...........
	1	0.516667	5.09258E-003	4.91178E-003	5.71832E-004	...........
	2	0.775	5.07134E-003	4.75707E-003	5.68499E-004	...........
	3	1.03333	5.01285E-003	4.62577E-003	5.73132E-004	...........
	4	1.29167	4.91197E-003	4.49325E-003	5.76266E-004	...........
	5	1.55	4.78354E-003	4.38077E-003	5.71666E-004	...........
	6	1.80833	4.64774E-003	4.28186E-003	5.70032E-004	...........
	7	2.06667	4.51838E-003	4.19500E-003	5.69766E-004	...........
	8	2.325	4.40154E-003	4.10799E-003	5.70832E-004	...........
	9	2.58333	4.29782E-003	4.03738E-003	5.70799E-004	...........
	10	2.84167	4.20497E-003	3.94957E-003	5.69766E-004	...........
	11	3.1	4.11981E-003	3.88521E-003	5.74432E-004	...........
	12	3.35833	4.03992E-003	3.82524E-003	5.72032E-004	...........
	13	3.61667	3.96500E-003	3.76706E-003	5.70899E-004	...........
	14	3.875	3.89591E-003	3.71624E-003	5.67466E-004	...........
	15	4.13333	3.83268E-003	3.65560E-003	5.68132E-004	...........
	16	4.39167	3.77322E-003	3.57142E-003	5.68732E-004	...........
	17	4.65	3.71477E-003	3.57658E-003	5.63966E-004	...........
	18	4.90833	3.65859E-003	3.53626E-003	5.66032E-004	...........
EOC	QUANT	0.0036586	Open Circuit (V)
PSTATMODEL	IQUANT	4	Pstat Model
PSTATSECTION	LABEL	REF600-11020	Pstat Section
PSTATSERIALNO	LABEL	11020	Pstat Serial Number
CTRLMODE	IQUANT	1	Control Mode
IESTAB	IQUANT	0	I/E Stability
CASPEED	IQUANT	1	Control Amp Speed
CONVENTION	IQUANT	1	Current Convention
ICHRANGE	IQUANT	2	Ich Range
ICHRANGEMODE	TOGGLE	F	Ich Auto Range
ICHOFFSETENABLE	TOGGLE	T	Ich Offset Enable
ICHOFFSET	QUANT	0	Ich Offset (V)
ICHFILTER	IQUANT	3	Ich Filter
VCHRANGE	IQUANT	2	Vch Range
VCHRANGEMODE	TOGGLE	F	Vch Auto Range
VCHOFFSETENABLE	TOGGLE	T	Vch Offset Enable
VCHOFFSET	QUANT	0	Vch Offset (V)
VCHFILTER	IQUANT	3	Vch Filter
ACHRANGE	IQUANT	2	Ach Range
ACHOFFSETENABLE	TOGGLE	F	Ach Offset Enable
ACHOFFSET	QUANT	0	Ach Offset (V)
ACHFILTER	IQUANT	3	Ach Filter
IERANGELOWERLIMIT	IQUANT	1	I/E Range Lower Limit
IERANGEMODE	TOGGLE	F	I/E AutoRange
IERANGE	IQUANT	2	I/E Range
POSFEEDENABLE	TOGGLE	F	Positive Feedback IR Comp
POSFEEDRESISTANCE	QUANT	0	Positive Feedback Resistance (ohm)
ACHSELECT	IQUANT	0	Ach Select
CABLEID	IQUANT	14	Cable ID
DCCALDATE	LABEL	8/19/2019	DC Calibration Date
ACCALDATE	LABEL	8/19/2019	AC Calibration Date
THERMOSELECT	IQUANT	1	Thermo Select
FRAMEWORKVERSION	QUANT	6.33	Framework Version
INSTRUMENTVERSION	LABEL	3.50	Instrument Version
ZCURVE	TABLE
	Pt	Time	Freq	Zreal	Zimag	Zsig	Zmod	Zphz	Idc	Vdc	IERange
	#	s	Hz	ohm	ohm	V	ohm	°	A	V	#
	0	1	1000078	2473.961	-1906.984	1	3123.631	-37.62584	-6.078944E-007	0.0066707	8
	1	3	794390.6	2876.859	-1878.674	1	3435.948	-33.14573	3.178196E-006	0.0049768	8
	2	4	630984.4	3217.551	-1765.153	1	3669.931	-28.74924	4.378859E-006	0.0046906	8
	3	5	501234.4	3538.321	-1601.133	1	3883.728	-24.34732	-4.290488E-007	0.0053413	8
	4	7	398109.4	3801.059	-1438.624	1	4064.196	-20.73064	4.578887E-006	0.0046104	8
	5	8	316265.6	3995.593	-1282.606	1	4196.409	-17.7969	-2.852004E-006	0.0057356	8
	6	10	251203.1	4162.871	-1107.831	1	4307.758	-14.90227	2.817897E-007	0.0052307	8
	7	11	199546.9	4286.34	-971.872	1	4395.139	-12.77508	-1.542304E-007	0.005693	8
	8	13	158578.1	4354.887	-827.0065	1	4432.717	-10.75261	2.138607E-006	0.0049521	8
	9	14	125953.1	4468.597	-672.0634	1	4518.853	-8.553008	-1.035962E-006	0.0081382	7
	10	15	100078.1	4512.82	-600.0441	1	4552.537	-7.573869	-2.835554E-009	0.0052907	7
	11	17	79453.13	4560.523	-552.5181	1	4593.871	-6.907852	-5.870877E-008	0.0054707	7
	12	18	63140.62	4604.636	-521.7507	1	4634.101	-6.464605	9.910023E-008	0.0051458	7
	13	19	50203.12	4645.986	-507.0612	1	4673.574	-6.228588	-5.795557E-008	0.0054626	7
	14	21	39890.62	4690.398	-497.6127	1	4716.721	-6.055958	9.986751E-008	0.0051421	7
	15	22	31640.63	4728.543	-508.8024	1	4755.838	-6.141531	-2.163499E-008	0.0055012	7
	16	23	25171.88	4773.181	-530.0134	1	4802.517	-6.336159	-7.746758E-008	0.0054553	7
	17	25	20015.62	4818.922	-563.0737	1	4851.707	-6.664585	-3.534624E-008	0.0053461	7
	18	26	15890.62	4870.124	-608.435	1	4907.983	-7.121189	-4.793701E-008	0.0054979	7
	19	27	12609.37	4921.997	-673.8743	1	4967.913	-7.79594	-1.508811E-009	0.0052755	7
	20	29	10078.13	4982.315	-746.6249	1	5037.947	-8.522642	1.010505E-007	0.0051383	7
	21	30	8015.625	5043.421	-842.469	1	5113.302	-9.483309	-5.821146E-010	0.0052735	7
	22	31	6328.125	5114.654	-961.405	1	5204.228	-10.64571	-4.168302E-008	0.0053931	7
	23	33	5015.625	5191.673	-1107.077	1	5308.398	-12.03751	-3.039572E-010	0.0052689	7
	24	34	3984.375	5275.891	-1283.524	1	5429.775	-13.67334	-1.983789E-008	0.0053131	7
	25	36	3170.956	5369.87	-1490.182	1	5572.804	-15.50977	2.732169E-008	0.0052458	7
	26	37	2527.573	5467.818	-1748.042	1	5740.443	-17.7289	-3.627918E-008	0.005342	7
	27	38	1976.103	5590.21	-2084.741	1	5966.288	-20.45185	-2.331804E-008	0.0054894	7
	28	40	1577.524	5714.371	-2462.719	1	6222.461	-23.31457	-3.741247E-008	0.0053427	7
	29	41	1265.625	5851.68	-2908.348	1	6534.573	-26.42788	-3.743702E-008	0.0053375	7
	30	42	998.264	6031.485	-3499.726	1	6973.299	-30.12415	-4.149741E-008	0.0053855	7
	31	44	796.875	6210.182	-4186.609	1	7489.597	-33.98597	-5.673668E-008	0.0054429	7
	32	45	627.7902	6441.013	-5058.966	1	8190.225	-38.14716	-1.416618E-009	0.0052705	7
	33	46	505.5147	6678.988	-6042.821	1	9006.917	-42.13725	-2.942931E-009	0.0052594	7
	34	47	397.9953	6971.767	-7355.679	1	10134.67	-46.5349	1.168092E-009	0.0052862	6
	35	49	315.5048	7297.586	-8938.838	1	11539.39	-50.77211	1.254777E-009	0.0052907	6
	36	50	252.4038	7659.927	-10809.61	1	13248.48	-54.67777	2.008578E-009	0.0052895	6
	37	51	198.6229	8114.435	-13294.56	1	15575.28	-58.60189	1.344626E-009	0.0052874	6
	38	53	158.3615	8631.781	-16213.88	1	18368.38	-61.9705	1.563047E-009	0.0052841	6
	39	54	125.558	9280.726	-19903.4	1	21960.81	-65.0009	1.525652E-009	0.005282	6
	40	55	100.4464	10058.69	-24301.88	1	26301.3	-67.51505	3.072685E-010	0.0052819	6
	41	57	79.00281	11180.43	-30081.88	1	32092.39	-69.61157	4.173163E-010	0.0052811	6
	42	58	63.3446	12050.44	-36469.24	1	38408.58	-71.71502	1.417758E-009	0.0052816	6
	43	60	49.86702	14496.14	-45396.76	1	47655.05	-72.29062	1.462375E-009	0.0052839	6
	44	61	39.72458	16439.46	-55823.13	1	58193.45	-73.59073	1.228944E-009	0.0052897	6
	45	62	31.6723	19517.24	-68082.21	1	70824.5	-74.0039	1.278142E-009	0.0052837	6
	46	64	24.93351	23765.5	-84167.02	1	87457.91	-74.23238	7.878128E-010	0.0052834	6
	47	65	19.86229	29107.52	-102760.6	1	106803.5	-74.18493	1.222335E-009	0.0052942	5
	48	66	15.83615	37213.44	-125844.1	1	131231	-73.52649	2.518081E-009	0.0052857	5
	49	68	12.40079	47714.18	-153952	1	161176.5	-72.78028	1.787219E-009	0.0052849	5
	50	69	9.93114	58876.75	-183970.1	1	193161.8	-72.25354	9.19582E-010	0.0052833	5
	51	71	7.944915	74987.46	-220077	1	232501.7	-71.18434	7.100012E-010	0.0052953	5
	52	72	6.317385	95202	-264531.4	1	281141	-70.20674	2.64831E-010	0.0053038	5
	53	74	5.008013	122943.5	-316050.7	1	339121.1	-68.744	3.262475E-010	0.0052895	5
	54	77	3.945707	158761.7	-376097.2	1	408233.3	-67.11396	1.73325E-010	0.0052853	5
	55	79	3.158693	201125.3	-439640.3	1	483461.5	-65.41699	4.431495E-010	0.0053058	5
	56	83	2.504006	255873	-513228.2	1	573475.6	-63.50117	-7.477514E-011	0.0052867	5
	57	85	1.998082	320155.5	-588251.8	1	669731.1	-61.4428	2.975456E-010	0.0052466	5
	58	89	1.584686	396694.5	-674094.1	1	782156.9	-59.52381	9.833993E-011	0.005259	5
	59	92	1.266892	481933.2	-757943.8	1	898186.2	-57.55005	3.613514E-010	0.0052528	5
	60	96	0.999041	584312.4	-859699	1	1039473	-55.79719	-5.834586E-011	0.0053014	4
