EXPLAIN
TAG	EISPOT
TITLE	LABEL	Potentiostatic EIS	Test &Identifier
DATE	LABEL	9/24/2019	Date
TIME	LABEL	9:14:20	Time
NOTES	NOTES	1	&Notes...
	
PSTAT	PSTAT	REF600-11020	Potentiostat
VDC	POTEN	0.00000E+000	T	DC &Voltage (V)
FREQINIT	QUANT	1.00000E+006	Initial Fre&q. (Hz)
FREQFINAL	QUANT	1.00000E+000	Final Fre&q. (Hz)
PTSPERDEC	QUANT	1.00000E+001	Points/&decade
VAC	QUANT	2.50000E+001	AC &Voltage (mV rms)
AREA	QUANT	1.00000E-002	&Area (cm^2)
CONDIT	TWOPARAM	T	5.00000E+000	0.00000E+000	Conditionin&g	Time(s)	E(V)
DELAY	TWOPARAM	T	5.00000E+000	0.00000E+000	Init. De&lay	Time(s)	Stab.(mV/s)
SPEED	SELECTOR	1	&Optimize for:
ZGUESS	QUANT	1.00000E+004	E&stimated Z (ohms)
OCVCURVE	TABLE	19
	Pt	T	Vf	Vm	Ach	Over
	#	s	V vs. Ref.	V	V	bits
	0	0.258333	1.71405E-002	1.71405E-002	5.58032E-004	...........
	1	0.516667	1.71530E-002	1.77977E-002	5.65432E-004	...........
	2	0.775	1.72301E-002	1.84190E-002	5.62432E-004	...........
	3	1.03333	1.74478E-002	1.90041E-002	5.64266E-004	...........
	4	1.29167	1.78359E-002	1.95554E-002	5.64066E-004	...........
	5	1.55	1.83492E-002	2.00802E-002	5.66432E-004	...........
	6	1.80833	1.89138E-002	2.05750E-002	5.68099E-004	...........
	7	2.06667	1.94761E-002	2.10470E-002	5.63099E-004	...........
	8	2.325	2.00121E-002	2.14984E-002	5.62799E-004	...........
	9	2.58333	2.05173E-002	2.19235E-002	5.65666E-004	...........
	10	2.84167	2.09943E-002	2.23334E-002	5.64332E-004	...........
	11	3.1	2.14468E-002	2.27257E-002	5.63466E-004	...........
	12	3.35833	2.18775E-002	2.30988E-002	5.63332E-004	...........
	13	3.61667	2.22888E-002	2.34546E-002	5.65566E-004	...........
	14	3.875	2.26818E-002	2.37985E-002	5.68066E-004	...........
	15	4.13333	2.30574E-002	2.41250E-002	5.66032E-004	...........
	16	4.39167	2.34167E-002	2.44456E-002	5.65799E-004	...........
	17	4.65	2.37613E-002	2.47505E-002	5.69566E-004	...........
	18	4.90833	2.40925E-002	2.50445E-002	5.68132E-004	...........
EOC	QUANT	0.0240925	Open Circuit (V)
PSTATMODEL	IQUANT	4	Pstat Model
PSTATSECTION	LABEL	REF600-11020	Pstat Section
PSTATSERIALNO	LABEL	11020	Pstat Serial Number
CTRLMODE	IQUANT	1	Control Mode
IESTAB	IQUANT	0	I/E Stability
CASPEED	IQUANT	1	Control Amp Speed
CONVENTION	IQUANT	1	Current Convention
ICHRANGE	IQUANT	2	Ich Range
ICHRANGEMODE	TOGGLE	F	Ich Auto Range
ICHOFFSETENABLE	TOGGLE	T	Ich Offset Enable
ICHOFFSET	QUANT	0	Ich Offset (V)
ICHFILTER	IQUANT	3	Ich Filter
VCHRANGE	IQUANT	2	Vch Range
VCHRANGEMODE	TOGGLE	F	Vch Auto Range
VCHOFFSETENABLE	TOGGLE	T	Vch Offset Enable
VCHOFFSET	QUANT	0	Vch Offset (V)
VCHFILTER	IQUANT	3	Vch Filter
ACHRANGE	IQUANT	2	Ach Range
ACHOFFSETENABLE	TOGGLE	F	Ach Offset Enable
ACHOFFSET	QUANT	0	Ach Offset (V)
ACHFILTER	IQUANT	3	Ach Filter
IERANGELOWERLIMIT	IQUANT	1	I/E Range Lower Limit
IERANGEMODE	TOGGLE	F	I/E AutoRange
IERANGE	IQUANT	6	I/E Range
POSFEEDENABLE	TOGGLE	F	Positive Feedback IR Comp
POSFEEDRESISTANCE	QUANT	0	Positive Feedback Resistance (ohm)
ACHSELECT	IQUANT	0	Ach Select
CABLEID	IQUANT	14	Cable ID
DCCALDATE	LABEL	8/19/2019	DC Calibration Date
ACCALDATE	LABEL	8/19/2019	AC Calibration Date
THERMOSELECT	IQUANT	1	Thermo Select
FRAMEWORKVERSION	QUANT	6.33	Framework Version
INSTRUMENTVERSION	LABEL	3.50	Instrument Version
ZCURVE	TABLE
	Pt	Time	Freq	Zreal	Zimag	Zsig	Zmod	Zphz	Idc	Vdc	IERange
	#	s	Hz	ohm	ohm	V	ohm	°	A	V	#
	0	1	1000078	2258.146	-1722.71	1	2840.238	-37.33953	3.730693E-006	0.0254129	8
	1	2	794390.6	2626.807	-1690.553	1	3123.793	-32.7644	3.598608E-006	0.0250709	8
	2	4	630984.4	2931.311	-1591.372	1	3335.423	-28.49699	3.659234E-006	0.0249846	8
	3	5	501234.4	3219.948	-1467.221	1	3538.475	-24.49714	9.754441E-007	0.0253965	8
	4	7	398109.4	3453.831	-1308.694	1	3693.458	-20.75224	-1.200436E-006	0.0259181	8
	5	8	316265.6	3632.013	-1145.737	1	3808.443	-17.50815	7.247302E-007	0.025594	8
	6	9	251203.1	3773.984	-1005.871	1	3905.73	-14.92397	-2.400674E-006	0.0260679	8
	7	11	199546.9	3880.988	-867.8575	1	3976.839	-12.60497	-3.774153E-007	0.0256813	8
	8	12	158578.1	3962.558	-752.6997	1	4033.413	-10.75537	-3.962039E-007	0.02568	8
	9	13	125953.1	4049.359	-635.9476	1	4098.992	-8.925341	2.972158E-007	0.0251922	7
	10	15	100078.1	4098.496	-568.9381	1	4137.796	-7.903084	-5.547241E-008	0.0256609	7
	11	16	79453.13	4144.989	-527.8446	1	4178.463	-7.257283	8.884255E-008	0.0254916	7
	12	17	63140.62	4188.792	-501.4776	1	4218.704	-6.826896	-4.262536E-008	0.0256636	7
	13	19	50203.12	4230.427	-488.049	1	4258.486	-6.580913	7.618304E-008	0.0253972	7
	14	20	39890.62	4272.334	-484.1544	1	4299.68	-6.465356	-4.124704E-008	0.0256636	7
	15	21	31640.63	4317.055	-493.2933	1	4345.146	-6.518696	4.464749E-008	0.0255071	7
	16	23	25171.88	4363.137	-513.6761	1	4393.271	-6.714577	1.983316E-008	0.0256451	7
	17	24	20015.62	4412.966	-543.6336	1	4446.325	-7.022888	-2.070832E-008	0.0256032	7
	18	26	15890.62	4466.264	-584.4313	1	4504.339	-7.45506	-4.008126E-008	0.0256694	7
	19	27	12609.37	4523.18	-634.0968	1	4567.41	-7.98019	-2.063484E-008	0.0256028	7
	20	28	10078.13	4582.832	-697.4957	1	4635.606	-8.653865	-3.992811E-008	0.0256658	7
	21	30	8015.625	4646.896	-774.3519	1	4710.973	-9.460753	-6.088409E-008	0.025642	7
	22	31	6328.125	4716.482	-872.2994	1	4796.469	-10.47828	-3.046587E-008	0.0255654	7
	23	32	5015.625	4789.053	-990.433	1	4890.397	-11.68472	-2.357357E-009	0.0256011	7
	24	34	3984.375	4866.589	-1133.782	1	4996.914	-13.11442	-6.089659E-008	0.0256412	7
	25	35	3170.956	4947.149	-1308.008	1	5117.145	-14.8099	-6.18264E-008	0.0256273	7
	26	36	2527.573	5034.25	-1520.089	1	5258.74	-16.80166	-1.968784E-008	0.025527	7
	27	38	1976.103	5136.347	-1807.653	1	5445.151	-19.38868	4.04821E-009	0.0255242	7
	28	39	1577.524	5242.684	-2130.958	1	5659.215	-22.11993	9.025995E-008	0.0254886	7
	29	40	1265.625	5352.608	-2495.382	1	5905.705	-24.9949	-4.744632E-008	0.0256126	7
	30	42	998.264	5495.642	-3029.327	1	6275.261	-28.86459	4.107048E-009	0.0255101	7
	31	43	796.875	5653.159	-3625.169	1	6715.658	-32.6706	-1.875664E-008	0.0255354	7
	32	44	627.7902	5841.948	-4404.985	1	7316.574	-37.01727	-8.484236E-009	0.0255651	7
	33	46	505.5147	6043.996	-5266.826	1	8016.816	-41.06937	-3.9364E-008	0.0256566	7
	34	47	397.9953	6308.772	-6429.652	1	9007.831	-45.54369	4.521822E-009	0.0255762	7
	35	48	315.5048	6617.495	-7821.532	1	10245.37	-49.76674	1.056459E-009	0.0255137	6
	36	50	252.4038	6966.065	-9456.127	1	11744.97	-53.62196	-1.061865E-010	0.0255159	6
	37	51	198.6229	7414.713	-11615.69	1	13780.5	-57.44843	7.242403E-010	0.0255215	6
	38	52	158.3615	7926.254	-14128.98	1	16200.42	-60.7079	1.157865E-009	0.0255189	6
	39	54	125.558	8570.854	-17290.43	1	19298.15	-63.63242	6.493319E-010	0.0255168	6
	40	55	100.4464	9331.819	-20999.44	1	22979.54	-66.0404	1.201374E-009	0.0255142	6
	41	56	79.00281	10424.02	-25943	1	27958.89	-68.1095	1.226016E-009	0.025517	6
	42	58	63.3446	11279.53	-31436.33	1	33398.66	-70.26174	4.616992E-010	0.0255127	6
	43	59	49.86702	13432.95	-38715.54	1	40979.71	-70.86501	1.207654E-009	0.0255145	6
	44	61	39.72458	15501.42	-47544.34	1	50007.58	-71.94189	1.039273E-009	0.0255157	6
	45	62	31.6723	18146.68	-57793.73	1	60575.71	-72.56821	1.129461E-009	0.0255143	6
	46	63	24.93351	22121.63	-71361.87	1	74712	-72.77696	4.162667E-010	0.025515	6
	47	65	19.86229	26964.57	-86483.88	1	90590	-72.68319	9.258767E-010	0.0255118	6
	48	66	15.83615	33729.12	-105959.1	1	111198	-72.34258	-1.873445E-009	0.025522	5
	49	67	12.40079	42778.43	-129117.5	1	136019.5	-71.66924	8.921864E-010	0.0255208	5
	50	69	9.93114	53625.38	-153590.2	1	162682.6	-70.75356	3.160958E-010	0.0255079	5
	51	70	7.944915	67299.45	-182680.8	1	194683	-69.77625	-5.130869E-010	0.0255196	5
	52	72	6.317385	85870.27	-218032.7	1	234333	-68.50344	-1.145917E-010	0.0255088	5
	53	74	5.008013	109498.7	-258986.6	1	281183.3	-67.08152	-3.738633E-010	0.0255065	5
	54	77	3.945707	140344.4	-305962.3	1	336614.7	-65.35915	2.115648E-010	0.025527	5
	55	79	3.158693	176042.9	-355569.7	1	396763	-63.65994	-3.290635E-010	0.0255107	5
	56	83	2.504006	221304.4	-411590.4	1	467313.9	-61.73392	2.908445E-010	0.0255101	5
	57	85	1.998082	273030.3	-469991.4	1	543541.6	-59.84657	-1.853125E-010	0.0255581	5
	58	88	1.584686	332854.5	-534724.3	1	629858.8	-58.09861	4.860419E-011	0.0255303	5
	59	92	1.266892	400808.2	-600927.3	1	722330.1	-56.29739	-2.300631E-010	0.0255655	5
	60	96	0.999041	477714.1	-676490.3	1	828160.6	-54.77158	-6.866428E-011	0.0254853	5
