EXPLAIN
TAG	EISPOT
TITLE	LABEL	Potentiostatic EIS	Test &Identifier
DATE	LABEL	10/6/2019	Date
TIME	LABEL	9:01:38	Time
NOTES	NOTES	2	&Notes...
	
	
PSTAT	PSTAT	REF600-11020	Potentiostat
VDC	POTEN	0.00000E+000	T	DC &Voltage (V)
FREQINIT	QUANT	1.00000E+006	Initial Fre&q. (Hz)
FREQFINAL	QUANT	1.00000E+000	Final Fre&q. (Hz)
PTSPERDEC	QUANT	1.00000E+001	Points/&decade
VAC	QUANT	2.50000E+001	AC &Voltage (mV rms)
AREA	QUANT	1.00000E-002	&Area (cm^2)
CONDIT	TWOPARAM	T	5.00000E+000	0.00000E+000	Conditionin&g	Time(s)	E(V)
DELAY	TWOPARAM	T	5.00000E+000	0.00000E+000	Init. De&lay	Time(s)	Stab.(mV/s)
SPEED	SELECTOR	1	&Optimize for:
ZGUESS	QUANT	1.00000E+004	E&stimated Z (ohms)
OCVCURVE	TABLE	19
	Pt	T	Vf	Vm	Ach	Over
	#	s	V vs. Ref.	V	V	bits
	0	0.258333	4.38795E-003	4.38795E-003	5.62999E-004	...........
	1	0.516667	4.38600E-003	4.28603E-003	5.62332E-004	...........
	2	0.775	4.37419E-003	4.19714E-003	5.62232E-004	...........
	3	1.03333	4.34265E-003	4.18384E-003	5.64832E-004	...........
	4	1.29167	4.29227E-003	4.12377E-003	5.67599E-004	...........
	5	1.55	4.23559E-003	4.10739E-003	5.66032E-004	...........
	6	1.80833	4.18408E-003	4.07337E-003	5.65699E-004	...........
	7	2.06667	4.14173E-003	4.05227E-003	5.65232E-004	...........
	8	2.325	4.10760E-003	4.02940E-003	5.66166E-004	...........
	9	2.58333	4.07946E-003	4.02196E-003	5.62232E-004	...........
	10	2.84167	4.05588E-003	3.99556E-003	5.67232E-004	...........
	11	3.1	4.03557E-003	3.97256E-003	5.70366E-004	...........
	12	3.35833	4.01531E-003	3.89855E-003	5.65832E-004	...........
	13	3.61667	3.99054E-003	3.90479E-003	5.66066E-004	...........
	14	3.875	3.96042E-003	3.88065E-003	5.69199E-004	...........
	15	4.13333	3.93093E-003	3.91244E-003	5.67999E-004	...........
	16	4.39167	3.91164E-003	3.98631E-003	5.64932E-004	...........
	17	4.65	3.91240E-003	4.07708E-003	5.69166E-004	...........
	18	4.90833	3.93750E-003	4.01267E-003	5.69366E-004	...........
EOC	QUANT	0.0039375	Open Circuit (V)
PSTATMODEL	IQUANT	4	Pstat Model
PSTATSECTION	LABEL	REF600-11020	Pstat Section
PSTATSERIALNO	LABEL	11020	Pstat Serial Number
CTRLMODE	IQUANT	1	Control Mode
IESTAB	IQUANT	0	I/E Stability
CASPEED	IQUANT	1	Control Amp Speed
CONVENTION	IQUANT	1	Current Convention
ICHRANGE	IQUANT	2	Ich Range
ICHRANGEMODE	TOGGLE	F	Ich Auto Range
ICHOFFSETENABLE	TOGGLE	T	Ich Offset Enable
ICHOFFSET	QUANT	0	Ich Offset (V)
ICHFILTER	IQUANT	3	Ich Filter
VCHRANGE	IQUANT	2	Vch Range
VCHRANGEMODE	TOGGLE	F	Vch Auto Range
VCHOFFSETENABLE	TOGGLE	T	Vch Offset Enable
VCHOFFSET	QUANT	0	Vch Offset (V)
VCHFILTER	IQUANT	3	Vch Filter
ACHRANGE	IQUANT	2	Ach Range
ACHOFFSETENABLE	TOGGLE	F	Ach Offset Enable
ACHOFFSET	QUANT	0	Ach Offset (V)
ACHFILTER	IQUANT	3	Ach Filter
IERANGELOWERLIMIT	IQUANT	1	I/E Range Lower Limit
IERANGEMODE	TOGGLE	F	I/E AutoRange
IERANGE	IQUANT	5	I/E Range
POSFEEDENABLE	TOGGLE	F	Positive Feedback IR Comp
POSFEEDRESISTANCE	QUANT	0	Positive Feedback Resistance (ohm)
ACHSELECT	IQUANT	0	Ach Select
CABLEID	IQUANT	14	Cable ID
DCCALDATE	LABEL	8/19/2019	DC Calibration Date
ACCALDATE	LABEL	8/19/2019	AC Calibration Date
THERMOSELECT	IQUANT	1	Thermo Select
FRAMEWORKVERSION	QUANT	6.33	Framework Version
INSTRUMENTVERSION	LABEL	3.50	Instrument Version
ZCURVE	TABLE
	Pt	Time	Freq	Zreal	Zimag	Zsig	Zmod	Zphz	Idc	Vdc	IERange
	#	s	Hz	ohm	ohm	V	ohm	°	A	V	#
	0	2	1000078	2263.521	-1407.8	1	2665.601	-31.8796	1.027324E-006	0.0061488	8
	1	3	794390.6	2533.427	-1297.332	1	2846.282	-27.11634	-3.472969E-006	0.0067247	8
	2	4	630984.4	2764.216	-1177.961	1	3004.743	-23.08111	6.750281E-006	0.0044576	8
	3	6	501234.4	2941.243	-1039.497	1	3119.529	-19.46448	1.52147E-006	0.0050749	8
	4	7	398109.4	3091.088	-890.4615	1	3216.792	-16.0703	-6.904646E-007	0.0056231	8
	5	8	316265.6	3186.233	-770.877	1	3278.16	-13.60078	-2.426116E-006	0.0062155	8
	6	10	251203.1	3232.881	-624.4238	1	3292.632	-10.93194	-7.239229E-007	0.0054581	8
	7	11	199546.9	3309.118	-558.1212	1	3355.855	-9.5735	-2.369141E-006	0.0061826	8
	8	12	158578.1	3353.833	-457.3137	1	3384.868	-7.764711	-2.159968E-006	0.0060039	8
	9	14	125953.1	3399.66	-345.0779	1	3417.129	-5.795879	1.095753E-006	0.0030945	7
	10	15	100078.1	3422.083	-302.5573	1	3435.432	-5.052564	6.105756E-008	0.0054152	7
	11	16	79453.13	3442.804	-271.5098	1	3453.494	-4.509183	-7.142613E-008	0.0056411	7
	12	18	63140.62	3461.693	-251.6398	1	3470.827	-4.157671	6.039807E-008	0.005405	7
	13	19	50203.12	3480.294	-236.0954	1	3488.293	-3.880872	4.269878E-008	0.0054577	7
	14	21	39890.62	3498.026	-226.8711	1	3505.376	-3.710828	-5.053058E-009	0.0054499	7
	15	22	31640.63	3513.34	-225.2386	1	3520.552	-3.668186	4.985757E-008	0.0053478	7
	16	23	25171.88	3528.168	-229.858	1	3535.648	-3.727517	-7.126676E-008	0.0056296	7
	17	25	20015.62	3538.558	-242.672	1	3546.87	-3.923164	-4.19893E-008	0.0055	7
	18	26	15890.62	3558.849	-261.0921	1	3568.414	-4.195941	1.299003E-008	0.0055966	7
	19	27	12609.37	3572.166	-288.0092	1	3583.758	-4.609554	1.057308E-007	0.0053991	7
	20	29	10078.13	3587.841	-328.3327	1	3602.833	-5.228723	1.525757E-008	0.0054218	7
	21	30	8015.625	3603.66	-380.6481	1	3623.708	-6.02969	1.27244E-008	0.0055952	7
	22	32	6328.125	3621.585	-449.9245	1	3649.426	-7.081808	1.21712E-008	0.0055984	7
	23	33	5015.625	3642.117	-537.1528	1	3681.514	-8.389712	-1.335415E-008	0.0055342	7
	24	34	3984.375	3664.322	-645.5214	1	3720.746	-9.99094	-8.403256E-008	0.0056107	7
	25	36	3170.956	3690.834	-780.4567	1	3772.449	-11.93977	1.066168E-007	0.0054053	7
	26	37	2527.573	3721.404	-947.5207	1	3840.136	-14.28477	-8.274019E-008	0.00561	7
	27	38	1976.103	3762.53	-1171.507	1	3940.693	-17.29457	-5.376503E-009	0.0054453	7
	28	40	1577.524	3810.327	-1426.565	1	4068.621	-20.52562	9.475534E-009	0.0054705	7
	29	41	1265.625	3866.745	-1733.184	1	4237.41	-24.14326	-3.33247E-009	0.0054458	7
	30	42	998.264	3941.759	-2141.173	1	4485.765	-28.51091	8.662735E-008	0.0053285	7
	31	44	796.875	4032.971	-2617.328	1	4807.834	-32.98287	-4.681342E-008	0.0056027	7
	32	45	627.7902	4156.871	-3237.397	1	5268.806	-37.91168	-4.138502E-009	0.0054436	7
	33	47	505.5147	4283.997	-3929.992	1	5813.559	-42.5322	-1.123669E-008	0.0054859	7
	34	48	397.9953	4509.692	-4857.455	1	6628.136	-47.12617	5.156422E-009	0.0055251	7
	35	49	315.5048	4773.043	-5963.09	1	7638.088	-51.32513	4.338371E-009	0.0055249	7
	36	51	252.4038	5105.238	-7254.671	1	8870.947	-54.86528	5.784905E-009	0.0055189	7
	37	52	198.6229	5576.139	-8936.479	1	10533.47	-58.03687	1.168779E-009	0.0054616	6
	38	53	158.3615	6161.484	-10860.02	1	12486.15	-60.43137	1.408306E-009	0.0054594	6
	39	55	125.558	6944.864	-13223.51	1	14936.28	-62.29197	1.013617E-009	0.0054616	6
	40	56	100.4464	7924.537	-15935.55	1	17797.2	-63.55946	4.374489E-010	0.0054616	6
	41	58	79.00281	9323.378	-19341.34	1	21471.21	-64.26389	7.012406E-010	0.0054607	6
	42	59	63.3446	11083.89	-23067.39	1	25592.13	-64.3357	2.588815E-010	0.0054659	6
	43	60	49.86702	13120.12	-27814.98	1	30754.04	-64.7471	1.317396E-010	0.0054608	6
	44	62	39.72458	15808.34	-32842.71	1	36449.24	-64.29687	7.577939E-010	0.0054648	6
	45	63	31.6723	18972.61	-38673.05	1	43076.27	-63.8679	-1.680212E-010	0.0054578	6
	46	65	24.93351	22994.17	-45551.11	1	51025.84	-63.21539	5.179547E-010	0.0054612	6
	47	66	19.86229	27436.3	-53085.94	1	59756.74	-62.66881	3.630149E-010	0.0054628	6
	48	67	15.83615	32510.13	-61403.75	1	69478.98	-62.10108	-1.38592E-010	0.0054604	6
	49	69	12.40079	38154.12	-72638.74	1	82049.52	-62.28891	3.77111E-010	0.0054686	6
	50	70	9.93114	44341.51	-83979.77	1	94967.21	-62.16584	8.813039E-010	0.005462	6
	51	72	7.944915	51291.59	-97811.8	1	110444.5	-62.32791	-1.395916E-010	0.0054641	5
	52	73	6.317385	59069.8	-114585.7	1	128915.2	-62.72856	4.245716E-010	0.0054502	5
	53	75	5.008013	68378.32	-135145.9	1	151459.6	-63.16245	1.656675E-010	0.0054691	5
	54	78	3.945707	79547.43	-160681	1	179293.5	-63.66162	-2.248711E-010	0.0054557	5
	55	80	3.158693	92008.2	-189003.9	1	210209.4	-64.04291	3.733838E-010	0.0054751	5
	56	84	2.504006	107675.2	-224389.4	1	248886.6	-64.36557	-2.415685E-010	0.0054666	5
	57	86	1.998082	125637.1	-264693.3	1	292997	-64.60858	6.250996E-011	0.0054307	5
	58	90	1.584686	147797	-313021.4	1	346159.4	-64.72507	4.870062E-011	0.0054816	5
	59	93	1.266892	173901	-369361.1	1	408251.4	-64.78822	4.002705E-011	0.0054198	5
	60	98	0.999041	206683.6	-438418.9	1	484695	-64.75943	1.392243E-010	0.0055026	5
