EXPLAIN
TAG	EISPOT
TITLE	LABEL	Potentiostatic EIS	Test &Identifier
DATE	LABEL	11/21/2019	Date
TIME	LABEL	23:02:23	Time
NOTES	NOTES	4	&Notes...
	
	
	
	
PSTAT	PSTAT	REF600-11020	Potentiostat
VDC	POTEN	0.00000E+000	T	DC &Voltage (V)
FREQINIT	QUANT	1.00000E+006	Initial Fre&q. (Hz)
FREQFINAL	QUANT	1.00000E+000	Final Fre&q. (Hz)
PTSPERDEC	QUANT	1.00000E+001	Points/&decade
VAC	QUANT	2.50000E+001	AC &Voltage (mV rms)
AREA	QUANT	1.00000E-002	&Area (cm^2)
CONDIT	TWOPARAM	T	5.00000E+000	0.00000E+000	Conditionin&g	Time(s)	E(V)
DELAY	TWOPARAM	T	5.00000E+000	0.00000E+000	Init. De&lay	Time(s)	Stab.(mV/s)
SPEED	SELECTOR	1	&Optimize for:
ZGUESS	QUANT	1.00000E+005	E&stimated Z (ohms)
OCVCURVE	TABLE	19
	Pt	T	Vf	Vm	Ach	Over
	#	s	V vs. Ref.	V	V	bits
	0	0.258333	3.68961E-003	3.68961E-003	5.73066E-004	...........
	1	0.516667	3.68525E-003	3.46166E-003	5.72632E-004	...........
	2	0.775	3.65386E-003	3.00200E-003	5.73699E-004	...........
	3	1.03333	3.55230E-003	2.70314E-003	5.75032E-004	...........
	4	1.29167	3.36080E-003	2.85056E-003	5.77266E-004	...........
	5	1.55	3.12891E-003	2.74820E-003	5.66699E-004	...........
	6	1.80833	2.93318E-003	2.51312E-003	5.72399E-004	...........
	7	2.06667	2.79002E-003	2.22967E-003	5.68199E-004	...........
	8	2.325	2.65424E-003	2.10137E-003	5.72999E-004	...........
	9	2.58333	2.49192E-003	1.99058E-003	5.73166E-004	...........
	10	2.84167	2.31418E-003	1.85929E-003	5.77032E-004	...........
	11	3.1	2.14704E-003	1.73400E-003	5.78799E-004	...........
	12	3.35833	1.99986E-003	1.59370E-003	5.91999E-004	...........
	13	3.61667	1.86529E-003	1.43188E-003	5.80632E-004	...........
	14	3.875	1.73223E-003	1.30008E-003	5.71299E-004	...........
	15	4.13333	1.59518E-003	1.18753E-003	5.66999E-004	...........
	16	4.39167	1.45725E-003	1.07859E-003	5.69732E-004	...........
	17	4.65	1.32573E-003	9.95872E-004	5.73899E-004	...........
	18	4.90833	1.20666E-003	9.40415E-004	5.81799E-004	...........
EOC	QUANT	0.0012067	Open Circuit (V)
PSTATMODEL	IQUANT	4	Pstat Model
PSTATSECTION	LABEL	REF600-11020	Pstat Section
PSTATSERIALNO	LABEL	11020	Pstat Serial Number
CTRLMODE	IQUANT	1	Control Mode
IESTAB	IQUANT	0	I/E Stability
CASPEED	IQUANT	1	Control Amp Speed
CONVENTION	IQUANT	1	Current Convention
ICHRANGE	IQUANT	2	Ich Range
ICHRANGEMODE	TOGGLE	F	Ich Auto Range
ICHOFFSETENABLE	TOGGLE	T	Ich Offset Enable
ICHOFFSET	QUANT	0	Ich Offset (V)
ICHFILTER	IQUANT	3	Ich Filter
VCHRANGE	IQUANT	2	Vch Range
VCHRANGEMODE	TOGGLE	F	Vch Auto Range
VCHOFFSETENABLE	TOGGLE	T	Vch Offset Enable
VCHOFFSET	QUANT	0	Vch Offset (V)
VCHFILTER	IQUANT	3	Vch Filter
ACHRANGE	IQUANT	2	Ach Range
ACHOFFSETENABLE	TOGGLE	F	Ach Offset Enable
ACHOFFSET	QUANT	0	Ach Offset (V)
ACHFILTER	IQUANT	3	Ach Filter
IERANGELOWERLIMIT	IQUANT	1	I/E Range Lower Limit
IERANGEMODE	TOGGLE	F	I/E AutoRange
IERANGE	IQUANT	4	I/E Range
POSFEEDENABLE	TOGGLE	F	Positive Feedback IR Comp
POSFEEDRESISTANCE	QUANT	0	Positive Feedback Resistance (ohm)
ACHSELECT	IQUANT	0	Ach Select
CABLEID	IQUANT	14	Cable ID
DCCALDATE	LABEL	8/19/2019	DC Calibration Date
ACCALDATE	LABEL	8/19/2019	AC Calibration Date
THERMOSELECT	IQUANT	1	Thermo Select
FRAMEWORKVERSION	QUANT	6.33	Framework Version
INSTRUMENTVERSION	LABEL	3.50	Instrument Version
ZCURVE	TABLE
	Pt	Time	Freq	Zreal	Zimag	Zsig	Zmod	Zphz	Idc	Vdc	IERange
	#	s	Hz	ohm	ohm	V	ohm	°	A	V	#
	0	2	1000078	2218.528	-1282.053	1	2562.328	-30.02296	6.704992E-007	0.003103	8
	1	3	794390.6	2451.504	-1195.821	1	2727.611	-26.00269	-8.062244E-006	0.0043128	8
	2	5	630984.4	2651.797	-1079.068	1	2862.938	-22.14236	-1.230823E-006	0.0036202	8
	3	6	501234.4	2814.101	-967.86	1	2975.889	-18.97974	2.29948E-006	0.0032125	8
	4	7	398109.4	2947.427	-858.9297	1	3070.03	-16.24701	-6.496453E-006	0.003778	8
	5	9	316265.6	3045.299	-744.8089	1	3135.057	-13.74341	-9.095857E-007	0.0032197	8
	6	10	251203.1	3122.945	-648.6017	1	3189.588	-11.73291	5.797256E-006	0.0021233	8
	7	11	199546.9	3184.771	-576.836	1	3236.588	-10.2663	-2.693287E-006	0.0033227	8
	8	13	158578.1	3235.295	-511.4807	1	3275.476	-8.983766	-3.433111E-006	0.0033532	8
	9	14	125953.1	3284.616	-436.547	1	3313.499	-7.570617	-2.690213E-006	0.0050566	7
	10	15	100078.1	3317.498	-403.1616	1	3341.906	-6.928938	-1.181043E-006	0.004194	7
	11	17	79453.13	3353.691	-393.0984	1	3376.651	-6.685343	-1.013539E-006	0.0032939	7
	12	18	63140.62	3387.689	-394.2835	1	3410.557	-6.638625	-1.179072E-006	0.0038375	7
	13	19	50203.12	3428.282	-406.6147	1	3452.312	-6.764021	1.059428E-006	0.0016721	7
	14	21	39890.62	3464.062	-423.7182	1	3489.88	-6.973681	5.967837E-007	0.0029566	7
	15	22	31640.63	3503.708	-450.788	1	3532.588	-7.331413	3.849423E-007	0.0032665	7
	16	23	25171.88	3545.075	-485.7459	1	3578.199	-7.802078	-2.759306E-007	0.0040695	7
	17	25	20015.62	3591.136	-534.4054	1	3630.681	-8.464204	-1.015125E-006	0.0032801	7
	18	26	15890.62	3644.93	-590.125	1	3692.392	-9.196557	-1.181729E-006	0.0038285	7
	19	27	12609.37	3703.443	-660.3155	1	3761.849	-10.10947	-1.179479E-006	0.0038247	7
	20	29	10078.13	3775.073	-741.7042	1	3847.245	-11.11556	8.104847E-007	0.0025334	7
	21	30	8015.625	3848.587	-837.5636	1	3938.672	-12.27777	-7.069987E-007	0.0026183	7
	22	32	6328.125	3931.827	-959.185	1	4047.135	-13.70976	5.959351E-007	0.0029517	7
	23	33	5015.625	4024.362	-1097.265	1	4171.269	-15.2513	-5.960148E-007	0.0043005	7
	24	34	3984.375	4139.152	-1259.69	1	4326.592	-16.92686	-8.619949E-007	0.0043825	7
	25	36	3170.956	4256.675	-1445.137	1	4495.298	-18.7523	7.479777E-007	0.0010561	7
	26	37	2527.573	4385.568	-1658.812	1	4688.802	-20.71879	-7.059126E-007	0.0026126	7
	27	38	1976.103	4545.872	-1935.517	1	4940.767	-23.06307	-2.968678E-007	0.0019383	7
	28	40	1577.524	4711.125	-2222.769	1	5209.165	-25.25854	1.113706E-007	0.0014438	7
	29	41	1265.625	4892.004	-2571.387	1	5526.639	-27.72779	8.111973E-007	0.002521	7
	30	42	998.264	5095.952	-3009.044	1	5918.03	-30.56088	-2.74783E-007	0.0040547	7
	31	44	796.875	5310.186	-3513.294	1	6367.205	-33.48919	1.060909E-006	0.0016573	7
	32	45	627.7902	5554.293	-4145.001	1	6930.455	-36.73286	3.905404E-007	0.0032515	7
	33	47	505.5147	5802.861	-4843.238	1	7558.449	-39.84937	-8.581962E-007	0.0043737	7
	34	48	397.9953	6085.794	-5803.277	1	8409.217	-43.63875	1.970967E-009	0.0027855	7
	35	49	315.5048	6394.911	-6947.201	1	9442.377	-47.37038	1.938482E-009	0.0027844	7
	36	51	252.4038	6727.858	-8301.816	1	10685.7	-50.97842	7.200819E-010	0.0027132	6
	37	52	198.6229	7137.631	-10103.32	1	12370.24	-54.76017	7.541022E-010	0.0027177	6
	38	53	158.3615	7594.946	-12219.23	1	14387.24	-58.13669	9.31724E-010	0.0027186	6
	39	55	125.558	8157.518	-14890.72	1	16978.77	-61.28495	7.623785E-010	0.0027189	6
	40	56	100.4464	8812.404	-18050.29	1	20086.59	-63.97771	3.104205E-010	0.0027159	6
	41	57	79.00281	9760.87	-22236.97	1	24284.92	-66.30104	1.251819E-009	0.0027206	6
	42	59	63.3446	10820.87	-26786.38	1	28889.47	-68.00282	8.414327E-010	0.0027194	6
	43	60	49.86702	12299.1	-33335.99	1	35532.46	-69.74878	8.302576E-010	0.0027164	6
	44	62	39.72458	13985.58	-40527.79	1	42873.04	-70.96116	6.956733E-010	0.0027264	6
	45	63	31.6723	16345.92	-49384.58	1	52019.48	-71.68585	2.400626E-010	0.002715	6
	46	64	24.93351	19430.71	-60623.24	1	63661.06	-72.22852	4.204456E-010	0.002726	6
	47	66	19.86229	23329.23	-73584.72	1	77194.33	-72.40935	9.215027E-010	0.0027243	6
	48	67	15.83615	28500.17	-88528.28	1	93002.77	-72.15492	1.772587E-009	0.0027208	6
	49	68	12.40079	36073.53	-109492.9	1	115282.2	-71.76501	-5.405984E-010	0.0027347	5
	50	70	9.93114	43610.03	-131068.3	1	138133	-71.59629	3.011872E-010	0.0027243	5
	51	71	7.944915	54625.2	-156844.9	1	166085	-70.79803	4.820188E-010	0.0027276	5
	52	73	6.317385	68346.77	-187272.2	1	199354.4	-69.94997	5.191089E-010	0.0027323	5
	53	75	5.008013	85959.02	-223571.6	1	239527.1	-68.9692	3.520368E-010	0.0027259	5
	54	77	3.945707	108523.9	-265914.5	1	287207.2	-67.79887	-1.993374E-010	0.0027206	5
	55	80	3.158693	133999.3	-313132.8	1	340599.4	-66.83241	4.167309E-010	0.0027418	5
	56	83	2.504006	166672.3	-368371.7	1	404323.3	-65.6553	-6.119122E-011	0.0027293	5
	57	86	1.998082	202637.1	-429302.3	1	474723.3	-64.73199	2.402118E-010	0.0026829	5
	58	89	1.584686	247388.3	-500439.9	1	558248.2	-63.6949	1.34841E-011	0.0027251	5
	59	93	1.266892	300809.2	-581417.2	1	654623.7	-62.6442	1.964842E-010	0.0026872	5
	60	97	0.999041	364629.1	-676936.9	1	768893.9	-61.69107	1.628919E-010	0.0027656	5
