EXPLAIN
TAG	EISPOT
TITLE	LABEL	Potentiostatic EIS	Test &Identifier
DATE	LABEL	11/7/2019	Date
TIME	LABEL	10:47:50	Time
NOTES	NOTES	2	&Notes...
	
	
PSTAT	PSTAT	REF600-11020	Potentiostat
VDC	POTEN	0.00000E+000	T	DC &Voltage (V)
FREQINIT	QUANT	1.00000E+006	Initial Fre&q. (Hz)
FREQFINAL	QUANT	1.00000E+000	Final Fre&q. (Hz)
PTSPERDEC	QUANT	1.00000E+001	Points/&decade
VAC	QUANT	2.50000E+001	AC &Voltage (mV rms)
AREA	QUANT	1.00000E-002	&Area (cm^2)
CONDIT	TWOPARAM	T	5.00000E+000	0.00000E+000	Conditionin&g	Time(s)	E(V)
DELAY	TWOPARAM	T	5.00000E+000	0.00000E+000	Init. De&lay	Time(s)	Stab.(mV/s)
SPEED	SELECTOR	1	&Optimize for:
ZGUESS	QUANT	1.00000E+005	E&stimated Z (ohms)
OCVCURVE	TABLE	19
	Pt	T	Vf	Vm	Ach	Over
	#	s	V vs. Ref.	V	V	bits
	0	0.258333	5.27302E-003	5.27302E-003	5.68899E-004	...........
	1	0.516667	5.27332E-003	5.28889E-003	5.74232E-004	...........
	2	0.775	5.27531E-003	5.31051E-003	5.68899E-004	...........
	3	1.03333	5.28157E-003	5.34253E-003	5.72299E-004	...........
	4	1.29167	5.29463E-003	5.37972E-003	5.74399E-004	...........
	5	1.55	5.31560E-003	5.41469E-003	5.75999E-004	...........
	6	1.80833	5.34381E-003	5.46057E-003	5.76699E-004	...........
	7	2.06667	5.37772E-003	5.50392E-003	5.67366E-004	...........
	8	2.325	5.41602E-003	5.55175E-003	5.73866E-004	...........
	9	2.58333	5.45776E-003	5.59809E-003	5.71232E-004	...........
	10	2.84167	5.50196E-003	5.64242E-003	5.71432E-004	...........
	11	3.1	5.54757E-003	5.69248E-003	5.73466E-004	...........
	12	3.35833	5.59385E-003	5.73687E-003	5.73932E-004	...........
	13	3.61667	5.64046E-003	5.78398E-003	5.68132E-004	...........
	14	3.875	5.68714E-003	5.82940E-003	5.70699E-004	...........
	15	4.13333	5.73367E-003	5.87703E-003	5.71999E-004	...........
	16	4.39167	5.78005E-003	5.92085E-003	5.77299E-004	...........
	17	4.65	5.82626E-003	5.96799E-003	5.71732E-004	...........
	18	4.90833	5.87225E-003	6.01090E-003	5.73266E-004	...........
EOC	QUANT	0.0058723	Open Circuit (V)
PSTATMODEL	IQUANT	4	Pstat Model
PSTATSECTION	LABEL	REF600-11020	Pstat Section
PSTATSERIALNO	LABEL	11020	Pstat Serial Number
CTRLMODE	IQUANT	1	Control Mode
IESTAB	IQUANT	0	I/E Stability
CASPEED	IQUANT	1	Control Amp Speed
CONVENTION	IQUANT	1	Current Convention
ICHRANGE	IQUANT	2	Ich Range
ICHRANGEMODE	TOGGLE	F	Ich Auto Range
ICHOFFSETENABLE	TOGGLE	T	Ich Offset Enable
ICHOFFSET	QUANT	0	Ich Offset (V)
ICHFILTER	IQUANT	3	Ich Filter
VCHRANGE	IQUANT	2	Vch Range
VCHRANGEMODE	TOGGLE	F	Vch Auto Range
VCHOFFSETENABLE	TOGGLE	T	Vch Offset Enable
VCHOFFSET	QUANT	0	Vch Offset (V)
VCHFILTER	IQUANT	3	Vch Filter
ACHRANGE	IQUANT	2	Ach Range
ACHOFFSETENABLE	TOGGLE	F	Ach Offset Enable
ACHOFFSET	QUANT	0	Ach Offset (V)
ACHFILTER	IQUANT	3	Ach Filter
IERANGELOWERLIMIT	IQUANT	1	I/E Range Lower Limit
IERANGEMODE	TOGGLE	F	I/E AutoRange
IERANGE	IQUANT	5	I/E Range
POSFEEDENABLE	TOGGLE	F	Positive Feedback IR Comp
POSFEEDRESISTANCE	QUANT	0	Positive Feedback Resistance (ohm)
ACHSELECT	IQUANT	0	Ach Select
CABLEID	IQUANT	14	Cable ID
DCCALDATE	LABEL	8/19/2019	DC Calibration Date
ACCALDATE	LABEL	8/19/2019	AC Calibration Date
THERMOSELECT	IQUANT	1	Thermo Select
FRAMEWORKVERSION	QUANT	6.33	Framework Version
INSTRUMENTVERSION	LABEL	3.50	Instrument Version
ZCURVE	TABLE
	Pt	Time	Freq	Zreal	Zimag	Zsig	Zmod	Zphz	Idc	Vdc	IERange
	#	s	Hz	ohm	ohm	V	ohm	°	A	V	#
	0	2	1000078	2312.442	-1533.869	1	2774.913	-33.55677	-2.35217E-006	0.0074574	8
	1	3	794390.6	2590.37	-1474.561	1	2980.662	-29.65059	-8.046809E-006	0.008839	8
	2	5	630984.4	2844.04	-1397.995	1	3169.062	-26.17654	9.801905E-006	0.0059775	8
	3	6	501234.4	3078.182	-1310.286	1	3345.453	-23.05793	-4.623066E-006	0.0072672	8
	4	8	398109.4	3280.521	-1213.288	1	3497.698	-20.29672	5.075639E-006	0.0072992	8
	5	10	316265.6	3458.392	-1122.435	1	3635.978	-17.98105	-4.523678E-006	0.0079605	8
	6	11	251203.1	3603.302	-1025.467	1	3746.38	-15.88588	-4.970897E-006	0.0076895	8
	7	13	199546.9	3743.12	-936.6802	1	3858.538	-14.04921	-6.597336E-006	0.008268	8
	8	14	158578.1	3883.868	-869.1567	1	3979.933	-12.61418	-4.916023E-006	0.0076831	8
	9	16	125953.1	3989.225	-698.7071	1	4049.952	-9.93451	-1.103449E-006	0.0084895	7
	10	17	100078.1	4077.584	-626.6061	1	4125.449	-8.736353	-1.219823E-006	0.0078806	7
	11	19	79453.13	4138.956	-597.806	1	4181.905	-8.218623	-1.431874E-006	0.0089708	7
	12	20	63140.62	4209.082	-561.5021	1	4246.37	-7.598538	-1.04482E-006	0.0092232	7
	13	21	50203.12	4263.747	-531.9219	1	4296.798	-7.111171	-1.280077E-006	0.0091495	7
	14	23	39890.62	4317.14	-514.4272	1	4347.681	-6.795283	-3.556399E-007	0.0062621	7
	15	24	31640.63	4368.992	-503.3965	1	4397.897	-6.572653	5.677672E-007	0.0053199	7
	16	25	25171.88	4419.387	-501.5911	1	4447.761	-6.47524	1.185464E-006	0.0064243	7
	17	27	20015.62	4461.883	-515.4539	1	4491.558	-6.589817	1.186592E-006	0.0064228	7
	18	28	15890.62	4498.603	-536.6463	1	4530.498	-6.802768	-1.220326E-006	0.0078608	7
	19	29	12609.37	4548.19	-570.2649	1	4583.802	-7.146611	1.367444E-007	0.0056613	7
	20	31	10078.13	4584.699	-653.8356	1	4631.086	-8.116368	9.103201E-007	0.0051923	7
	21	32	8015.625	4629.65	-692.0362	1	4681.086	-8.501578	-3.357715E-007	0.0088355	7
	22	34	6328.125	4673.004	-794.7684	1	4740.108	-9.65231	-1.044718E-006	0.0092231	7
	23	35	5015.625	4723.065	-918.9228	1	4811.628	-11.00996	5.654356E-007	0.0053132	7
	24	36	3984.375	4775.851	-1081.43	1	4896.758	-12.75873	1.143699E-006	0.0052851	7
	25	38	3170.956	4833.313	-1271.951	1	4997.877	-14.74385	1.268247E-006	0.0055482	7
	26	39	2527.573	4897.056	-1508.273	1	5124.065	-17.11861	-7.235557E-007	0.0091224	7
	27	40	1976.103	4984.456	-1839.18	1	5312.945	-20.25321	1.287578E-006	0.0059312	7
	28	42	1577.524	5055.856	-2206.551	1	5516.389	-23.57813	-1.278319E-006	0.0091531	7
	29	43	1265.625	5153.987	-2643.256	1	5792.269	-27.15132	-8.463661E-007	0.0070653	7
	30	44	998.264	5286.531	-3223.438	1	6191.765	-31.37256	-3.522588E-007	0.0062648	7
	31	46	796.875	5431.375	-3909.586	1	6692.136	-35.74691	8.429193E-008	0.0083815	7
	32	47	627.7902	5621.317	-4796.986	1	7389.877	-40.47599	9.723851E-007	0.0070086	7
	33	49	505.5147	5808.581	-5803.555	1	8211.021	-44.9752	9.763062E-007	0.0070062	7
	34	50	397.9953	6111.787	-7129.258	1	9390.435	-49.3941	5.354558E-009	0.0072847	7
	35	51	315.5048	6473.031	-8737.295	1	10873.84	-53.46708	4.085048E-011	0.0072252	6
	36	53	252.4038	6910.549	-10629.01	1	12678	-56.96973	1.686052E-009	0.0072261	6
	37	54	198.6229	7519.845	-13113.19	1	15116.35	-60.16761	3.107168E-010	0.0072261	6
	38	55	158.3615	8276.764	-15979.39	1	17995.71	-62.61743	1.155841E-009	0.0072278	6
	39	57	125.558	9294.349	-19551.71	1	21648.43	-64.57487	9.979829E-010	0.0072273	6
	40	58	100.4464	10574.89	-23675.35	1	25929.72	-65.93148	1.675974E-009	0.0072183	6
	41	60	79.00281	12411.83	-29113.53	1	31648.87	-66.91024	1.868027E-009	0.0072136	6
	42	61	63.3446	14769.56	-35403.09	1	38360.37	-67.35494	-1.296261E-010	0.0072179	6
	43	62	49.86702	17713.98	-42162.61	1	45732.6	-67.21102	-1.101623E-009	0.0072159	6
	44	64	39.72458	22099.93	-50594.43	1	55210.54	-66.40402	1.508779E-010	0.0072124	6
	45	65	31.6723	27553.75	-60375.65	1	66365.87	-65.46938	-4.113583E-010	0.0072272	6
	46	66	24.93351	34330.57	-71510.44	1	79324.21	-64.35537	-1.344286E-010	0.0072297	6
	47	68	19.86229	42534.05	-83377.55	1	93600.01	-62.97215	-1.609394E-010	0.0072189	6
	48	69	15.83615	52480.77	-95832	1	109261.2	-61.29343	2.229597E-010	0.0072132	5
	49	71	12.40079	64889.69	-111428.8	1	128945.9	-59.78596	1.654426E-010	0.0072224	5
	50	72	9.93114	78392.91	-127856.9	1	149976.1	-58.48629	1.865154E-012	0.007221	5
	51	74	7.944915	94078.78	-144772.3	1	172655.2	-56.98259	3.855209E-010	0.0072145	5
	52	75	6.317385	110457.5	-162913	1	196828.6	-55.86212	5.182161E-010	0.0072344	5
	53	77	5.008013	129238.2	-184409	1	225187	-54.97632	5.373748E-010	0.0072235	5
	54	80	3.945707	150787.3	-209569.1	1	258178.3	-54.26457	1.165768E-010	0.0072291	5
	55	82	3.158693	172495.2	-236204.9	1	292484.8	-53.86018	2.626493E-010	0.0072351	5
	56	86	2.504006	197416.9	-268869.5	1	333562.9	-53.7121	-1.012222E-010	0.0072162	5
	57	89	1.998082	223844.8	-305752.2	1	378933.9	-53.79171	-3.186777E-010	0.0072228	5
	58	92	1.584686	255147.2	-349332.2	1	432588.8	-53.85615	9.110997E-011	0.007273	5
	59	95	1.266892	287470.9	-399618.7	1	492275	-54.27016	-2.546259E-010	0.0072151	5
	60	100	0.999041	327782.4	-463219	1	567462	-54.71606	8.848456E-011	0.007239	5
