EXPLAIN
TAG	EISPOT
TITLE	LABEL	Potentiostatic EIS	Test &Identifier
DATE	LABEL	10/6/2019	Date
TIME	LABEL	8:39:28	Time
NOTES	NOTES	2	&Notes...
	
	
PSTAT	PSTAT	REF600-11020	Potentiostat
VDC	POTEN	0.00000E+000	T	DC &Voltage (V)
FREQINIT	QUANT	1.00000E+006	Initial Fre&q. (Hz)
FREQFINAL	QUANT	1.00000E+000	Final Fre&q. (Hz)
PTSPERDEC	QUANT	1.00000E+001	Points/&decade
VAC	QUANT	2.50000E+001	AC &Voltage (mV rms)
AREA	QUANT	1.00000E-002	&Area (cm^2)
CONDIT	TWOPARAM	T	5.00000E+000	0.00000E+000	Conditionin&g	Time(s)	E(V)
DELAY	TWOPARAM	T	5.00000E+000	0.00000E+000	Init. De&lay	Time(s)	Stab.(mV/s)
SPEED	SELECTOR	1	&Optimize for:
ZGUESS	QUANT	1.00000E+004	E&stimated Z (ohms)
OCVCURVE	TABLE	19
	Pt	T	Vf	Vm	Ach	Over
	#	s	V vs. Ref.	V	V	bits
	0	0.258333	5.18100E-002	5.18100E-002	5.62266E-004	...........
	1	0.516667	5.18847E-002	5.57237E-002	5.61932E-004	...........
	2	0.775	5.23397E-002	5.92161E-002	5.60866E-004	...........
	3	1.03333	5.36108E-002	6.24564E-002	5.63166E-004	...........
	4	1.29167	5.58474E-002	6.54811E-002	5.64066E-004	...........
	5	1.55	5.87609E-002	6.83030E-002	5.59599E-004	...........
	6	1.80833	6.19164E-002	7.09468E-002	5.57599E-004	...........
	7	2.06667	6.50099E-002	7.34317E-002	5.53699E-004	...........
	8	2.325	6.79155E-002	7.57734E-002	5.54133E-004	...........
	9	2.58333	7.06164E-002	7.79898E-002	5.57032E-004	...........
	10	2.84167	7.31360E-002	8.00971E-002	5.63632E-004	...........
	11	3.1	7.55025E-002	8.20960E-002	5.61732E-004	...........
	12	3.35833	7.77380E-002	8.40114E-002	5.65566E-004	...........
	13	3.61667	7.98585E-002	8.58374E-002	5.65532E-004	...........
	14	3.875	8.18761E-002	8.75943E-002	5.62732E-004	...........
	15	4.13333	8.38010E-002	8.92747E-002	5.62699E-004	...........
	16	4.39167	8.56414E-002	9.08888E-002	5.61532E-004	...........
	17	4.65	8.74041E-002	9.24383E-002	5.60799E-004	...........
	18	4.90833	8.90943E-002	9.39298E-002	5.61799E-004	...........
EOC	QUANT	0.0890943	Open Circuit (V)
PSTATMODEL	IQUANT	4	Pstat Model
PSTATSECTION	LABEL	REF600-11020	Pstat Section
PSTATSERIALNO	LABEL	11020	Pstat Serial Number
CTRLMODE	IQUANT	1	Control Mode
IESTAB	IQUANT	0	I/E Stability
CASPEED	IQUANT	1	Control Amp Speed
CONVENTION	IQUANT	1	Current Convention
ICHRANGE	IQUANT	2	Ich Range
ICHRANGEMODE	TOGGLE	F	Ich Auto Range
ICHOFFSETENABLE	TOGGLE	T	Ich Offset Enable
ICHOFFSET	QUANT	0	Ich Offset (V)
ICHFILTER	IQUANT	3	Ich Filter
VCHRANGE	IQUANT	2	Vch Range
VCHRANGEMODE	TOGGLE	F	Vch Auto Range
VCHOFFSETENABLE	TOGGLE	T	Vch Offset Enable
VCHOFFSET	QUANT	0	Vch Offset (V)
VCHFILTER	IQUANT	3	Vch Filter
ACHRANGE	IQUANT	2	Ach Range
ACHOFFSETENABLE	TOGGLE	F	Ach Offset Enable
ACHOFFSET	QUANT	0	Ach Offset (V)
ACHFILTER	IQUANT	3	Ach Filter
IERANGELOWERLIMIT	IQUANT	1	I/E Range Lower Limit
IERANGEMODE	TOGGLE	F	I/E AutoRange
IERANGE	IQUANT	7	I/E Range
POSFEEDENABLE	TOGGLE	F	Positive Feedback IR Comp
POSFEEDRESISTANCE	QUANT	0	Positive Feedback Resistance (ohm)
ACHSELECT	IQUANT	0	Ach Select
CABLEID	IQUANT	14	Cable ID
DCCALDATE	LABEL	8/19/2019	DC Calibration Date
ACCALDATE	LABEL	8/19/2019	AC Calibration Date
THERMOSELECT	IQUANT	1	Thermo Select
FRAMEWORKVERSION	QUANT	6.33	Framework Version
INSTRUMENTVERSION	LABEL	3.50	Instrument Version
ZCURVE	TABLE
	Pt	Time	Freq	Zreal	Zimag	Zsig	Zmod	Zphz	Idc	Vdc	IERange
	#	s	Hz	ohm	ohm	V	ohm	°	A	V	#
	0	1	1000078	1730.438	-578.3145	1	1824.517	-18.47969	-2.613101E-006	0.090754	8
	1	3	794390.6	1798.701	-505.0314	1	1868.256	-15.68345	-3.688622E-006	0.0916008	8
	2	4	630984.4	1863.929	-437.818	1	1914.658	-13.21857	2.165623E-006	0.0903347	8
	3	5	501234.4	1902.375	-383.6644	1	1940.677	-11.40227	-4.293842E-006	0.0912927	8
	4	7	398109.4	1947.844	-318.7888	1	1973.759	-9.29476	9.312201E-007	0.0905889	8
	5	8	316265.6	1973.432	-283.363	1	1993.672	-8.171186	3.394772E-008	0.0903045	8
	6	9	251203.1	1997.982	-254.663	1	2014.146	-7.263761	4.58436E-007	0.0905797	8
	7	11	199546.9	2018.73	-231.7658	1	2031.991	-6.549321	1.305689E-006	0.0903046	8
	8	12	158578.1	2033.081	-213.9701	1	2044.31	-6.007934	-5.325428E-007	0.0907724	8
	9	13	125953.1	2070.817	-175.8222	1	2078.268	-4.853045	6.684525E-008	0.090054	7
	10	15	100078.1	2081.883	-175.2434	1	2089.246	-4.811554	-9.205491E-009	0.0904622	7
	11	16	79453.13	2099.19	-181.4977	1	2107.022	-4.941552	-6.773386E-008	0.0906075	7
	12	17	63140.62	2118.144	-192.1414	1	2126.841	-5.183237	1.08098E-007	0.0903317	7
	13	19	50203.12	2139.242	-205.4135	1	2149.082	-5.484818	2.858875E-008	0.0903823	7
	14	20	39890.62	2162.156	-221.585	1	2173.481	-5.851434	-6.502249E-008	0.0906684	7
	15	22	31640.63	2187.485	-241.5314	1	2200.779	-6.300797	-2.048827E-008	0.0905357	7
	16	23	25171.88	2214.41	-265.5202	1	2230.272	-6.837441	-9.489891E-009	0.0905928	7
	17	24	20015.62	2243.431	-291.2731	1	2262.261	-7.397545	6.853169E-008	0.0904492	7
	18	26	15890.62	2277.778	-328.0227	1	2301.276	-8.194824	3.153448E-008	0.090383	7
	19	27	12609.37	2313.354	-367.5644	1	2342.372	-9.028152	2.555242E-008	0.0904639	7
	20	28	10078.13	2352.029	-412.7034	1	2387.962	-9.9522	-5.475538E-008	0.0905519	7
	21	30	8015.625	2395.886	-462.9262	1	2440.198	-10.93577	-2.193836E-008	0.090484	7
	22	31	6328.125	2442.074	-530.7321	1	2499.08	-12.26133	3.056258E-008	0.0903858	7
	23	32	5015.625	2492.404	-606.6299	1	2565.166	-13.67933	6.082454E-008	0.0903782	7
	24	34	3984.375	2547.442	-696.0244	1	2640.816	-15.28165	6.07949E-008	0.0903767	7
	25	35	3170.956	2603.641	-801.6874	1	2724.27	-17.11413	-6.118818E-009	0.0904547	7
	26	37	2527.573	2661.009	-929.0405	1	2818.525	-19.24568	-2.894068E-008	0.0904762	7
	27	38	1976.103	2725.874	-1100.135	1	2939.504	-21.9785	3.116752E-008	0.0903734	7
	28	39	1577.524	2788.073	-1296.009	1	3074.571	-24.93092	-2.287891E-008	0.0904731	7
	29	41	1265.625	2854.923	-1527.848	1	3238.04	-28.15402	-2.786555E-008	0.0904783	7
	30	42	998.264	2932.855	-1842.399	1	3463.535	-32.13675	-6.255127E-009	0.0905907	7
	31	43	796.875	3017.805	-2213.965	1	3742.832	-36.26505	-6.111008E-009	0.0904426	7
	32	45	627.7902	3121.2	-2702.307	1	4128.481	-40.88572	-6.25337E-009	0.0905853	7
	33	46	505.5147	3238.195	-3252.699	1	4589.767	-45.12803	-3.751318E-009	0.0904455	7
	34	47	397.9953	3391.053	-3995.624	1	5240.635	-49.67901	1.08814E-009	0.0905093	7
	35	49	315.5048	3579.69	-4891.543	1	6061.466	-53.80289	1.293233E-009	0.0905105	7
	36	50	252.4038	3806.114	-5944.633	1	7058.694	-57.37017	1.933491E-010	0.0905118	7
	37	52	198.6229	4115.78	-7332.45	1	8408.595	-60.69405	4.974713E-010	0.0905152	7
	38	53	158.3615	4492.272	-8939.44	1	10004.7	-63.31943	3.871508E-010	0.0905108	7
	39	54	125.558	4988.121	-10942.02	1	12025.36	-65.49326	-3.205703E-009	0.0904537	6
	40	56	100.4464	5590.007	-13270.76	1	14400.04	-67.15784	-3.167474E-009	0.0904506	6
	41	57	79.00281	6428.916	-16306.3	1	17527.88	-68.48269	-3.440944E-009	0.0904498	6
	42	59	63.3446	7516.936	-19679.68	1	21066.42	-69.09493	-2.899942E-009	0.09045	6
	43	60	49.86702	8759.876	-24164.95	1	25703.7	-70.07425	-3.469097E-009	0.0904454	6
	44	61	39.72458	10431.95	-29141.56	1	30952.48	-70.3039	-2.679169E-009	0.0904471	6
	45	63	31.6723	12469.73	-35132.19	1	37279.55	-70.45831	-3.603505E-009	0.090448	6
	46	64	24.93351	15246.03	-42596.91	1	45243.11	-70.30701	-3.231896E-009	0.090447	6
	47	65	19.86229	18527.59	-51110.57	1	54365.08	-70.07441	-2.854974E-009	0.0904489	6
	48	67	15.83615	22418.9	-61354.7	1	65322.32	-69.92779	-4.25593E-009	0.0904444	6
	49	68	12.40079	27795.11	-73858.16	1	78915.12	-69.37713	-2.553106E-009	0.0904461	6
	50	70	9.93114	33854.67	-87648.92	1	93959.95	-68.88079	-2.372551E-009	0.0904403	6
	51	71	7.944915	40923.27	-103679.8	1	111464	-68.46045	-2.262016E-009	0.09045	5
	52	73	6.317385	50075.93	-123237.3	1	133022.7	-67.88625	-2.639718E-009	0.09047	5
	53	75	5.008013	61195.75	-146579.6	1	158841.1	-67.33987	-2.55764E-009	0.0904556	5
	54	78	3.945707	75137.2	-174466.4	1	189958.2	-66.69997	-2.378257E-009	0.0904622	5
	55	80	3.158693	91019.71	-205345.1	1	224613.4	-66.09457	-2.894858E-009	0.0904544	5
	56	84	2.504006	110908.4	-242728.3	1	266866.5	-65.44321	-2.131958E-009	0.0904509	5
	57	86	1.998082	133895.2	-284882.6	1	314779.3	-64.82642	-2.375605E-009	0.0904836	5
	58	89	1.584686	162994.6	-334463.8	1	372066.3	-64.01859	-2.282735E-009	0.0904101	5
	59	93	1.266892	195316.3	-391227.3	1	437272.5	-63.4698	-1.92726E-009	0.0904609	5
	60	97	0.999041	237900.2	-461286.2	1	519019.7	-62.71838	-2.307538E-009	0.090431	5
