EXPLAIN
TAG	EISPOT
TITLE	LABEL	Potentiostatic IDE	Test &Identifier
DATE	LABEL	9/4/2019	Date
TIME	LABEL	12:50:59	Time
NOTES	NOTES	1	&Notes...
	
PSTAT	PSTAT	REF600-11020	Potentiostat
VDC	POTEN	0.00000E+000	T	DC &Voltage (V)
FREQINIT	QUANT	1.00000E+006	Initial Fre&q. (Hz)
FREQFINAL	QUANT	1.00000E+000	Final Fre&q. (Hz)
PTSPERDEC	QUANT	1.00000E+001	Points/&decade
VAC	QUANT	2.50000E+001	AC &Voltage (mV rms)
AREA	QUANT	1.00000E-002	&Area (cm^2)
CONDIT	TWOPARAM	T	5.00000E+000	0.00000E+000	Conditionin&g	Time(s)	E(V)
DELAY	TWOPARAM	T	5.00000E+000	0.00000E+000	Init. De&lay	Time(s)	Stab.(mV/s)
SPEED	SELECTOR	1	&Optimize for:
ZGUESS	QUANT	1.00000E+007	E&stimated Z (ohms)
OCVCURVE	TABLE	19
	Pt	T	Vf	Vm	Ach	Over
	#	s	V vs. Ref.	V	V	bits
	0	0.258333	5.36072E-002	5.36072E-002	5.72466E-004	...........
	1	0.516667	5.36056E-002	5.35274E-002	5.72099E-004	...........
	2	0.775	5.35983E-002	5.35582E-002	5.73399E-004	...........
	3	1.03333	5.35851E-002	5.36268E-002	5.75199E-004	...........
	4	1.29167	5.35788E-002	5.37461E-002	5.73965E-004	...........
	5	1.55	5.35990E-002	5.38779E-002	5.78032E-004	...........
	6	1.80833	5.36578E-002	5.40430E-002	5.69799E-004	...........
	7	2.06667	5.37550E-002	5.42019E-002	5.71899E-004	...........
	8	2.325	5.40027E-002	6.06420E-002	5.71499E-004	...........
	9	2.58333	5.47908E-002	6.17280E-002	5.68732E-004	...........
	10	2.84167	5.64014E-002	6.06928E-002	5.72266E-004	...........
	11	3.1	5.83798E-002	6.01906E-002	5.71232E-004	...........
	12	3.35833	5.99539E-002	6.45952E-002	5.75465E-004	...........
	13	3.61667	6.10053E-002	6.34613E-002	5.75165E-004	...........
	14	3.875	6.18946E-002	6.28553E-002	5.77032E-004	...........
	15	4.13333	6.26464E-002	6.24460E-002	5.75265E-004	...........
	16	4.39167	6.30049E-002	6.21591E-002	5.71232E-004	...........
	17	4.65	6.29345E-002	6.19363E-002	5.72032E-004	...........
	18	4.90833	6.26341E-002	6.17715E-002	5.73832E-004	...........
EOC	QUANT	0.0626341	Open Circuit (V)
PSTATMODEL	IQUANT	4	Pstat Model
PSTATSECTION	LABEL	REF600-11020	Pstat Section
PSTATSERIALNO	LABEL	11020	Pstat Serial Number
CTRLMODE	IQUANT	1	Control Mode
IESTAB	IQUANT	0	I/E Stability
CASPEED	IQUANT	1	Control Amp Speed
CONVENTION	IQUANT	1	Current Convention
ICHRANGE	IQUANT	2	Ich Range
ICHRANGEMODE	TOGGLE	F	Ich Auto Range
ICHOFFSETENABLE	TOGGLE	T	Ich Offset Enable
ICHOFFSET	QUANT	0	Ich Offset (V)
ICHFILTER	IQUANT	3	Ich Filter
VCHRANGE	IQUANT	2	Vch Range
VCHRANGEMODE	TOGGLE	F	Vch Auto Range
VCHOFFSETENABLE	TOGGLE	T	Vch Offset Enable
VCHOFFSET	QUANT	0	Vch Offset (V)
VCHFILTER	IQUANT	3	Vch Filter
ACHRANGE	IQUANT	2	Ach Range
ACHOFFSETENABLE	TOGGLE	F	Ach Offset Enable
ACHOFFSET	QUANT	0	Ach Offset (V)
ACHFILTER	IQUANT	3	Ach Filter
IERANGELOWERLIMIT	IQUANT	1	I/E Range Lower Limit
IERANGEMODE	TOGGLE	F	I/E AutoRange
IERANGE	IQUANT	4	I/E Range
POSFEEDENABLE	TOGGLE	F	Positive Feedback IR Comp
POSFEEDRESISTANCE	QUANT	0	Positive Feedback Resistance (ohm)
ACHSELECT	IQUANT	0	Ach Select
CABLEID	IQUANT	14	Cable ID
DCCALDATE	LABEL	8/19/2019	DC Calibration Date
ACCALDATE	LABEL	8/19/2019	AC Calibration Date
THERMOSELECT	IQUANT	1	Thermo Select
FRAMEWORKVERSION	QUANT	6.33	Framework Version
INSTRUMENTVERSION	LABEL	3.50	Instrument Version
ZCURVE	TABLE
	Pt	Time	Freq	Zreal	Zimag	Zsig	Zmod	Zphz	Idc	Vdc	IERange
	#	s	Hz	ohm	ohm	V	ohm	°	A	V	#
	0	3	1000078	2284.516	-1891.466	1	2965.916	-39.62307	1.320603E-005	0.0634537	8
	1	4	794390.6	2646.453	-1834.018	1	3219.835	-34.72235	9.203399E-006	0.0643522	8
	2	6	630984.4	2994.359	-1721.83	1	3454.111	-29.89996	1.058582E-005	0.0641662	8
	3	7	501234.4	3262.225	-1578.288	1	3623.963	-25.81803	1.350349E-005	0.0634169	8
	4	9	398109.4	3498.438	-1425.526	1	3777.723	-22.16967	1.079436E-005	0.0642142	8
	5	10	316265.6	3688.237	-1280.906	1	3904.332	-19.15186	1.041628E-005	0.0640798	8
	6	12	251203.1	3824.802	-1162.941	1	3997.692	-16.91203	1.20646E-005	0.0637578	8
	7	13	199546.9	3906.028	-1023.011	1	4037.773	-14.67644	1.317394E-005	0.0634587	8
	8	15	158578.1	4033.923	-971.462	1	4149.25	-13.54032	1.199176E-005	0.0637657	8
	9	16	125953.1	4122.585	-908.8035	1	4221.568	-12.43174	9.046258E-007	0.0640264	7
	10	18	100078.1	4191.036	-870.1077	1	4280.405	-11.72865	1.045131E-006	0.0641064	7
	11	19	79453.13	4260.771	-880.0192	1	4350.702	-11.66977	1.044959E-006	0.0640688	7
	12	21	63140.62	4325.517	-908.0315	1	4419.798	-11.85563	1.094836E-006	0.0640005	7
	13	22	50203.12	4400.138	-966.442	1	4505.022	-12.38769	1.042544E-006	0.0641461	7
	14	23	39890.62	4478.015	-1047.873	1	4598.984	-13.17046	1.03455E-006	0.0640898	7
	15	25	31640.63	4561.806	-1161.989	1	4707.472	-14.29055	1.126332E-006	0.0639481	7
	16	26	25171.88	4653.77	-1307.374	1	4833.922	-15.69153	1.036425E-006	0.0641016	7
	17	28	20015.62	4748.017	-1478.332	1	4972.839	-17.29439	1.073461E-006	0.0640505	7
	18	29	15890.62	4873.435	-1709.611	1	5164.604	-19.33097	1.088584E-006	0.0639989	7
	19	30	12609.37	5026.745	-1983.305	1	5403.856	-21.53174	1.078815E-006	0.0640886	7
	20	32	10078.13	5180.007	-2312.822	1	5672.884	-24.06029	1.04361E-006	0.0641233	7
	21	33	8015.625	5364.835	-2694.086	1	6003.295	-26.66466	1.03382E-006	0.0641131	7
	22	34	6328.125	5590.176	-3172.435	1	6427.629	-29.57499	1.035096E-006	0.0640718	7
	23	36	5015.625	5848.817	-3724.056	1	6933.776	-32.4857	1.081033E-006	0.0640398	7
	24	37	3984.375	6152.832	-4417.384	1	7574.339	-35.6762	1.075829E-006	0.0640544	7
	25	38	3170.956	6508.976	-5191.383	1	8325.696	-38.57492	1.073167E-006	0.0639997	7
	26	40	2527.573	6902.839	-6089.102	1	9204.691	-41.41602	1.052623E-006	0.0641167	7
	27	41	1976.103	7458.654	-7325.664	1	10454.51	-44.48462	1.03085E-006	0.0641297	7
	28	42	1577.524	8018.393	-8628.306	1	11778.89	-47.0983	1.036987E-006	0.0640735	7
	29	44	1265.625	8705.336	-10142.68	1	13366.26	-49.36091	1.000913E-007	0.0640753	6
	30	45	998.264	9555.8	-12070.73	1	15395.32	-51.63308	1.067994E-007	0.0640557	6
	31	46	796.875	10503.95	-14258.73	1	17710.01	-53.6221	1.021336E-007	0.0640745	6
	32	48	627.7902	11709.58	-16973.61	1	20620.81	-55.39937	1.033974E-007	0.0639743	6
	33	49	505.5147	13076.42	-19922.81	1	23830.89	-56.72093	1.002581E-007	0.0640774	6
	34	50	397.9953	14736.71	-23555.1	1	27785.13	-57.9688	1.085009E-007	0.0636308	6
	35	52	315.5048	16751.73	-28196.02	1	32796.89	-59.28474	1.05751E-007	0.0636309	6
	36	53	252.4038	19007.23	-33209.32	1	38264	-60.21549	1.060544E-007	0.0636336	6
	37	54	198.6229	21920.25	-39585.44	1	45249.36	-61.02472	1.061515E-007	0.0636295	6
	38	56	158.3615	25183.56	-46720.31	1	53075.41	-61.67409	1.059011E-007	0.0636299	6
	39	57	125.558	29134.83	-54652.04	1	61932.89	-61.93806	1.090744E-007	0.0636296	6
	40	58	100.4464	33749.34	-64281.18	1	72602.25	-62.29933	1.091549E-007	0.0636235	6
	41	60	79.00281	39304.91	-76596.3	1	86092.22	-62.83566	1.091209E-007	0.0636197	6
	42	61	63.3446	46831.08	-89161.79	1	100712.3	-62.28988	1.090376E-007	0.063619	6
	43	62	49.86702	53513.54	-106821.6	1	119476.1	-63.39087	1.091171E-007	0.0636211	6
	44	64	39.72458	63548.66	-124938.7	1	140171.7	-63.04035	1.109717E-008	0.0636308	5
	45	65	31.6723	74679.6	-147131.6	1	164999.3	-63.08902	1.123765E-008	0.0636254	5
	46	67	24.93351	88322.6	-174054.8	1	195181.8	-63.09487	1.089773E-008	0.0636246	5
	47	68	19.86229	103481	-204106.9	1	228840.4	-63.11525	1.110438E-008	0.0636304	5
	48	69	15.83615	123454.5	-241309.8	1	271056.2	-62.90563	1.166303E-008	0.0636214	5
	49	71	12.40079	146027.1	-285357.8	1	320551	-62.89967	1.093352E-008	0.0636282	5
	50	72	9.93114	169626.4	-331613.1	1	372478.7	-62.90939	1.100282E-008	0.0636235	5
	51	74	7.944915	200861.3	-387142.7	1	436147.6	-62.57835	1.102447E-008	0.0636312	5
	52	75	6.317385	234690.5	-453695	1	510802.1	-62.64806	1.089078E-008	0.0636471	5
	53	77	5.008013	276781.6	-532499	1	600136	-62.53555	1.100262E-008	0.0636236	5
	54	80	3.945707	328779.6	-629751.3	1	710410.3	-62.43191	1.086153E-007	0.0636282	6
	55	83	3.158693	383711.2	-732617.4	1	827020.3	-62.35653	1.102485E-008	0.0636376	5
	56	86	2.504006	457888.5	-871596.2	1	984552	-62.28504	1.074216E-008	0.0639167	5
	57	89	1.998082	523531.4	-1022397	1	1148643	-62.88472	1.050044E-008	0.0638791	5
	58	92	1.584686	628168.4	-1176945	1	1334090	-61.90992	1.043903E-008	0.0639109	5
	59	96	1.266892	733882.6	-1383025	1	1565676	-62.04797	1.022507E-009	0.063876	4
	60	100	0.999041	878238.2	-1620999	1	1843622	-61.55169	1.076585E-009	0.0639517	4
