EXPLAIN
TAG	EISPOT
TITLE	LABEL	Potentiostatic EIS	Test &Identifier
DATE	LABEL	11/3/2019	Date
TIME	LABEL	12:05:13	Time
NOTES	NOTES	1	&Notes...
	
PSTAT	PSTAT	REF600-11020	Potentiostat
VDC	POTEN	0.00000E+000	T	DC &Voltage (V)
FREQINIT	QUANT	1.00000E+006	Initial Fre&q. (Hz)
FREQFINAL	QUANT	1.00000E+000	Final Fre&q. (Hz)
PTSPERDEC	QUANT	1.00000E+001	Points/&decade
VAC	QUANT	2.50000E+001	AC &Voltage (mV rms)
AREA	QUANT	1.00000E-002	&Area (cm^2)
CONDIT	TWOPARAM	T	5.00000E+000	0.00000E+000	Conditionin&g	Time(s)	E(V)
DELAY	TWOPARAM	T	5.00000E+000	0.00000E+000	Init. De&lay	Time(s)	Stab.(mV/s)
SPEED	SELECTOR	1	&Optimize for:
ZGUESS	QUANT	1.00000E+005	E&stimated Z (ohms)
OCVCURVE	TABLE	19
	Pt	T	Vf	Vm	Ach	Over
	#	s	V vs. Ref.	V	V	bits
	0	0.258333	8.13887E-003	8.13887E-003	5.61299E-004	...........
	1	0.516667	8.14025E-003	8.21070E-003	5.63966E-004	...........
	2	0.775	8.15249E-003	8.47843E-003	5.63432E-004	...........
	3	1.03333	8.18891E-003	8.16567E-003	5.63999E-004	...........
	4	1.29167	8.23021E-003	7.81781E-003	5.62366E-004	...........
	5	1.55	8.21771E-003	7.84442E-003	5.65299E-004	...........
	6	1.80833	8.12625E-003	7.89035E-003	5.60566E-004	...........
	7	2.06667	8.00872E-003	8.03893E-003	5.67999E-004	...........
	8	2.325	7.94047E-003	8.20892E-003	5.62966E-004	...........
	9	2.58333	7.95701E-003	8.36754E-003	5.58632E-004	...........
	10	2.84167	8.04880E-003	8.49635E-003	5.61699E-004	...........
	11	3.1	8.18387E-003	8.60548E-003	5.59699E-004	...........
	12	3.35833	8.32979E-003	8.70656E-003	5.63366E-004	...........
	13	3.61667	8.46622E-003	8.79336E-003	5.63166E-004	...........
	14	3.875	8.58626E-003	8.88450E-003	5.65199E-004	...........
	15	4.13333	8.69157E-003	8.97343E-003	5.62832E-004	...........
	16	4.39167	8.78717E-003	9.06064E-003	5.64399E-004	...........
	17	4.65	8.87782E-003	9.14961E-003	5.65632E-004	...........
	18	4.90833	8.96634E-003	9.22969E-003	5.64299E-004	...........
EOC	QUANT	0.0089663	Open Circuit (V)
PSTATMODEL	IQUANT	4	Pstat Model
PSTATSECTION	LABEL	REF600-11020	Pstat Section
PSTATSERIALNO	LABEL	11020	Pstat Serial Number
CTRLMODE	IQUANT	1	Control Mode
IESTAB	IQUANT	0	I/E Stability
CASPEED	IQUANT	1	Control Amp Speed
CONVENTION	IQUANT	1	Current Convention
ICHRANGE	IQUANT	2	Ich Range
ICHRANGEMODE	TOGGLE	F	Ich Auto Range
ICHOFFSETENABLE	TOGGLE	T	Ich Offset Enable
ICHOFFSET	QUANT	0	Ich Offset (V)
ICHFILTER	IQUANT	3	Ich Filter
VCHRANGE	IQUANT	2	Vch Range
VCHRANGEMODE	TOGGLE	F	Vch Auto Range
VCHOFFSETENABLE	TOGGLE	T	Vch Offset Enable
VCHOFFSET	QUANT	0	Vch Offset (V)
VCHFILTER	IQUANT	3	Vch Filter
ACHRANGE	IQUANT	2	Ach Range
ACHOFFSETENABLE	TOGGLE	F	Ach Offset Enable
ACHOFFSET	QUANT	0	Ach Offset (V)
ACHFILTER	IQUANT	3	Ach Filter
IERANGELOWERLIMIT	IQUANT	1	I/E Range Lower Limit
IERANGEMODE	TOGGLE	F	I/E AutoRange
IERANGE	IQUANT	5	I/E Range
POSFEEDENABLE	TOGGLE	F	Positive Feedback IR Comp
POSFEEDRESISTANCE	QUANT	0	Positive Feedback Resistance (ohm)
ACHSELECT	IQUANT	0	Ach Select
CABLEID	IQUANT	14	Cable ID
DCCALDATE	LABEL	8/19/2019	DC Calibration Date
ACCALDATE	LABEL	8/19/2019	AC Calibration Date
THERMOSELECT	IQUANT	1	Thermo Select
FRAMEWORKVERSION	QUANT	6.33	Framework Version
INSTRUMENTVERSION	LABEL	3.50	Instrument Version
ZCURVE	TABLE
	Pt	Time	Freq	Zreal	Zimag	Zsig	Zmod	Zphz	Idc	Vdc	IERange
	#	s	Hz	ohm	ohm	V	ohm	°	A	V	#
	0	2	1000078	1712.642	-922.8518	1	1945.456	-28.31787	-7.486291E-006	0.0121234	8
	1	3	794390.6	1885.411	-888.5486	1	2084.296	-25.23337	-2.108512E-006	0.0116589	8
	2	4	630984.4	2035.012	-837.2669	1	2200.521	-22.36378	1.360313E-006	0.0112066	8
	3	6	501234.4	2163.401	-770.5001	1	2296.513	-19.60347	-5.747415E-007	0.0103554	8
	4	7	398109.4	2274.627	-703.3581	1	2380.891	-17.18261	-2.893282E-006	0.0111663	8
	5	9	316265.6	2362.691	-648.2263	1	2450.001	-15.34212	-2.424601E-006	0.0104664	8
	6	10	251203.1	2438.874	-603.4655	1	2512.424	-13.8979	-1.877995E-006	0.01066	8
	7	11	199546.9	2510.668	-549.5952	1	2570.118	-12.34751	8.001363E-007	0.0109123	8
	8	13	158578.1	2569.568	-516.7608	1	2621.015	-11.37097	7.319394E-007	0.0109036	8
	9	14	125953.1	2656.074	-454.2399	1	2694.636	-9.7048	2.578424E-006	0.0088405	7
	10	15	100078.1	2686.142	-435.8696	1	2721.275	-9.216825	-2.406243E-007	0.0117167	7
	11	17	79453.13	2734.413	-438.7344	1	2769.387	-9.115371	-2.394852E-007	0.0117117	7
	12	18	63140.62	2782.449	-446.1837	1	2817.996	-9.110189	-8.055512E-007	0.0120348	7
	13	19	50203.12	2838.704	-459.8938	1	2875.716	-9.202442	5.892748E-007	0.0106216	7
	14	21	39890.62	2897.015	-477.0971	1	2936.038	-9.351857	8.789174E-007	0.0089381	7
	15	22	31640.63	2951.603	-500.1549	1	2993.679	-9.61752	3.918932E-007	0.0109197	7
	16	24	25171.88	3006.332	-525.2341	1	3051.868	-9.91008	-9.765448E-007	0.0110032	7
	17	25	20015.62	3074.893	-560.8985	1	3125.631	-10.3378	4.165232E-007	0.0089875	7
	18	26	15890.62	3136.573	-601.146	1	3193.66	-10.84957	-8.041948E-007	0.0120296	7
	19	28	12609.37	3205.137	-647.8566	1	3269.957	-11.42727	-1.130533E-006	0.0118613	7
	20	29	10078.13	3284.401	-706.382	1	3359.504	-12.13781	4.186703E-007	0.008985	7
	21	30	8015.625	3355.865	-771.7025	1	3443.45	-12.95039	-2.383177E-007	0.0117033	7
	22	32	6328.125	3434.52	-849.5049	1	3538.02	-13.89288	-9.974414E-007	0.0119789	7
	23	33	5015.625	3526.375	-949.2573	1	3651.905	-15.0662	6.910184E-007	0.008873	7
	24	34	3984.375	3605.02	-1063.089	1	3758.501	-16.43032	4.184109E-007	0.0089829	7
	25	36	3170.956	3692.657	-1206.514	1	3884.764	-18.09393	8.809849E-007	0.0089367	7
	26	37	2527.573	3767.305	-1372.362	1	4009.484	-20.01578	-1.131252E-006	0.0118507	7
	27	39	1976.103	3865.262	-1610.915	1	4187.517	-22.62477	-3.012325E-007	0.0097303	7
	28	40	1577.524	3963.557	-1884.009	1	4388.539	-25.42327	4.196611E-007	0.0089819	7
	29	41	1265.625	4065.508	-2217.931	1	4631.152	-28.6146	1.011801E-006	0.0094028	7
	30	43	998.264	4175.75	-2646.762	1	4943.91	-32.3682	-2.386948E-007	0.0116954	7
	31	44	796.875	4302.143	-3163.321	1	5339.947	-36.32666	-5.468753E-007	0.0119323	7
	32	45	627.7902	4459.663	-3859.659	1	5897.928	-40.87487	7.806751E-007	0.010236	7
	33	47	505.5147	4629.019	-4606.197	1	6530.304	-44.85841	-8.049339E-007	0.0120196	7
	34	48	397.9953	4851.839	-5652.145	1	7448.965	-49.35699	5.79824E-009	0.0104974	7
	35	50	315.5048	5122.456	-6900.397	1	8593.896	-53.41195	4.143315E-009	0.0105038	7
	36	51	252.4038	5450.103	-8372.607	1	9990.2	-56.93811	2.157245E-009	0.0105017	7
	37	52	198.6229	5900.826	-10309.03	1	11878.38	-60.21345	9.55875E-010	0.0104312	6
	38	54	158.3615	6444.67	-12551.1	1	14109	-62.82066	1.202738E-009	0.0104292	6
	39	55	125.558	7155.164	-15339.11	1	16925.86	-64.99258	1.040017E-009	0.0104388	6
	40	56	100.4464	8023.794	-18576.49	1	20235.29	-66.6389	-5.544184E-010	0.0104382	6
	41	58	79.00281	9253.234	-22778.99	1	24586.68	-67.89213	1.005954E-009	0.0104401	6
	42	59	63.3446	10872.41	-27620.69	1	29683.53	-68.51376	5.673357E-010	0.0104411	6
	43	61	49.86702	12455.67	-33603.57	1	35837.75	-69.66202	1.312746E-009	0.0104346	6
	44	62	39.72458	14996.39	-40485.57	1	43173.76	-69.67471	8.710894E-010	0.0104338	6
	45	63	31.6723	18137.73	-48634.02	1	51906.11	-69.54733	5.863131E-010	0.0104358	6
	46	65	24.93351	22032.08	-58952.38	1	62934.85	-69.50794	1.027083E-009	0.0104293	6
	47	66	19.86229	26745.28	-70462.97	1	75368.03	-69.21499	8.781748E-010	0.0104399	6
	48	68	15.83615	31919.61	-83822.65	1	89694.47	-69.1532	-1.215095E-009	0.0104374	6
	49	69	12.40079	40205.29	-100572	1	108310.6	-68.21014	-3.404577E-010	0.010453	5
	50	70	9.93114	49113.37	-119797.7	1	129474.3	-67.70787	-2.168715E-011	0.0104404	5
	51	72	7.944915	59930.65	-141005.4	1	153213	-66.97336	6.25977E-010	0.0104359	5
	52	74	6.317385	73044.06	-166370.5	1	181699.2	-66.29639	1.100809E-010	0.0104626	5
	53	76	5.008013	89097.3	-196321	1	215592.8	-65.5898	2.48203E-011	0.0104279	5
	54	78	3.945707	108940	-231518.5	1	255868.6	-64.80088	8.075211E-010	0.0104448	5
	55	81	3.158693	130825.7	-270354.3	1	300344.4	-64.17744	-2.290728E-010	0.010433	5
	56	84	2.504006	157641	-316013.1	1	353150	-63.48799	3.262792E-010	0.0104509	5
	57	87	1.998082	187997.8	-367091.4	1	412430.9	-62.88174	1.383645E-010	0.0104727	5
	58	90	1.584686	224308.4	-426151.4	1	481579.9	-62.23954	-1.324545E-011	0.0104061	5
	59	94	1.266892	262630.6	-495251.3	1	560578.9	-62.0631	-1.047068E-010	0.0104616	5
	60	98	0.999041	310995.6	-580589.6	1	658636.9	-61.82406	-4.932594E-010	0.0104116	5
