EXPLAIN
TAG	EISPOT
TITLE	LABEL	Potentiostatic EIS	Test &Identifier
DATE	LABEL	10/24/2019	Date
TIME	LABEL	8:38:40	Time
NOTES	NOTES	1	&Notes...
	
PSTAT	PSTAT	REF600-11020	Potentiostat
VDC	POTEN	0.00000E+000	T	DC &Voltage (V)
FREQINIT	QUANT	1.00000E+006	Initial Fre&q. (Hz)
FREQFINAL	QUANT	1.00000E+000	Final Fre&q. (Hz)
PTSPERDEC	QUANT	1.00000E+001	Points/&decade
VAC	QUANT	2.50000E+001	AC &Voltage (mV rms)
AREA	QUANT	1.00000E-002	&Area (cm^2)
CONDIT	TWOPARAM	T	5.00000E+000	0.00000E+000	Conditionin&g	Time(s)	E(V)
DELAY	TWOPARAM	T	5.00000E+000	0.00000E+000	Init. De&lay	Time(s)	Stab.(mV/s)
SPEED	SELECTOR	1	&Optimize for:
ZGUESS	QUANT	1.00000E+005	E&stimated Z (ohms)
OCVCURVE	TABLE	19
	Pt	T	Vf	Vm	Ach	Over
	#	s	V vs. Ref.	V	V	bits
	0	0.258333	4.54631E-003	4.54631E-003	5.18166E-004	...........
	1	0.516667	4.54477E-003	4.46580E-003	5.14866E-004	...........
	2	0.775	4.53579E-003	4.41334E-003	5.21400E-004	...........
	3	1.03333	4.51132E-003	4.33397E-003	5.14633E-004	...........
	4	1.29167	4.46738E-003	4.22281E-003	5.20633E-004	...........
	5	1.55	4.40693E-003	4.25651E-003	5.21933E-004	...........
	6	1.80833	4.34171E-003	4.23250E-003	5.20433E-004	...........
	7	2.06667	4.28763E-003	4.20181E-003	5.23566E-004	...........
	8	2.325	4.25093E-003	4.17974E-003	5.19033E-004	...........
	9	2.58333	4.22564E-003	4.16771E-003	5.21500E-004	...........
	10	2.84167	4.20477E-003	4.15191E-003	5.20100E-004	...........
	11	3.1	4.18577E-003	4.12858E-003	5.25600E-004	...........
	12	3.35833	4.16812E-003	4.12701E-003	5.21366E-004	...........
	13	3.61667	4.15189E-003	4.11547E-003	5.29299E-004	...........
	14	3.875	4.13833E-003	4.13168E-003	5.24300E-004	...........
	15	4.13333	4.12964E-003	4.14477E-003	5.19066E-004	...........
	16	4.39167	4.12649E-003	4.08591E-003	5.20933E-004	...........
	17	4.65	4.12489E-003	4.11330E-003	5.25800E-004	...........
	18	4.90833	4.12050E-003	4.11496E-003	5.17966E-004	...........
EOC	QUANT	0.0041205	Open Circuit (V)
PSTATMODEL	IQUANT	4	Pstat Model
PSTATSECTION	LABEL	REF600-11020	Pstat Section
PSTATSERIALNO	LABEL	11020	Pstat Serial Number
CTRLMODE	IQUANT	1	Control Mode
IESTAB	IQUANT	0	I/E Stability
CASPEED	IQUANT	1	Control Amp Speed
CONVENTION	IQUANT	1	Current Convention
ICHRANGE	IQUANT	2	Ich Range
ICHRANGEMODE	TOGGLE	F	Ich Auto Range
ICHOFFSETENABLE	TOGGLE	T	Ich Offset Enable
ICHOFFSET	QUANT	0	Ich Offset (V)
ICHFILTER	IQUANT	3	Ich Filter
VCHRANGE	IQUANT	2	Vch Range
VCHRANGEMODE	TOGGLE	F	Vch Auto Range
VCHOFFSETENABLE	TOGGLE	T	Vch Offset Enable
VCHOFFSET	QUANT	0	Vch Offset (V)
VCHFILTER	IQUANT	3	Vch Filter
ACHRANGE	IQUANT	2	Ach Range
ACHOFFSETENABLE	TOGGLE	F	Ach Offset Enable
ACHOFFSET	QUANT	0	Ach Offset (V)
ACHFILTER	IQUANT	3	Ach Filter
IERANGELOWERLIMIT	IQUANT	1	I/E Range Lower Limit
IERANGEMODE	TOGGLE	F	I/E AutoRange
IERANGE	IQUANT	4	I/E Range
POSFEEDENABLE	TOGGLE	F	Positive Feedback IR Comp
POSFEEDRESISTANCE	QUANT	0	Positive Feedback Resistance (ohm)
ACHSELECT	IQUANT	0	Ach Select
CABLEID	IQUANT	14	Cable ID
DCCALDATE	LABEL	8/19/2019	DC Calibration Date
ACCALDATE	LABEL	8/19/2019	AC Calibration Date
THERMOSELECT	IQUANT	1	Thermo Select
FRAMEWORKVERSION	QUANT	6.33	Framework Version
INSTRUMENTVERSION	LABEL	3.50	Instrument Version
ZCURVE	TABLE
	Pt	Time	Freq	Zreal	Zimag	Zsig	Zmod	Zphz	Idc	Vdc	IERange
	#	s	Hz	ohm	ohm	V	ohm	°	A	V	#
	0	2	1000078	2194.268	-1200.663	1	2501.28	-28.68666	2.356377E-006	0.0060337	8
	1	3	794390.6	2404.623	-1088.009	1	2639.313	-24.34512	-8.23128E-008	0.005764	8
	2	5	630984.4	2577.594	-967.194	1	2753.081	-20.56765	8.71926E-007	0.0055357	8
	3	6	501234.4	2714.561	-840.1151	1	2841.591	-17.1965	-3.635092E-006	0.0063097	8
	4	8	398109.4	2817.774	-732.8681	1	2911.52	-14.57892	1.159741E-006	0.0054733	8
	5	9	316265.6	2895.23	-641.3648	1	2965.418	-12.49072	-1.904744E-006	0.005986	8
	6	10	251203.1	2965.329	-549.1252	1	3015.744	-10.49129	-3.781039E-007	0.0056197	8
	7	12	199546.9	2997.158	-488.7842	1	3036.752	-9.262403	-2.870626E-006	0.0060706	8
	8	13	158578.1	3044.241	-430.7166	1	3074.56	-8.053082	-8.522147E-007	0.0057053	8
	9	14	125953.1	3104.51	-361.9374	1	3125.536	-6.649775	-4.848505E-007	0.0060067	7
	10	16	100078.1	3124.81	-333.8193	1	3142.59	-6.097705	5.502701E-008	0.0054252	7
	11	17	79453.13	3152.705	-323.6488	1	3169.273	-5.86131	-4.709941E-008	0.0056561	7
	12	18	63140.62	3183.097	-322.9406	1	3199.437	-5.793111	-4.213934E-008	0.0055552	7
	13	20	50203.12	3213.809	-328.0314	1	3230.506	-5.82796	-4.374791E-009	0.0054745	7
	14	21	39890.62	3245.672	-338.2339	1	3263.248	-5.949362	-1.706403E-008	0.0055594	7
	15	22	31640.63	3280.004	-357.8068	1	3299.462	-6.225625	-5.20454E-008	0.005593	7
	16	24	25171.88	3316.717	-383.1737	1	3338.777	-6.590052	3.081592E-008	0.0054651	7
	17	25	20015.62	3357.308	-411.6187	1	3382.447	-6.989795	-1.370581E-008	0.0055467	7
	18	27	15890.62	3400.993	-457.3664	1	3431.609	-7.659199	-2.302895E-008	0.0055035	7
	19	28	12609.37	3449.537	-506.5276	1	3486.528	-8.353575	-3.371574E-009	0.0054672	7
	20	29	10078.13	3500.321	-563.5165	1	3545.391	-9.145574	-4.925749E-008	0.0055833	7
	21	31	8015.625	3561.743	-628.4045	1	3616.754	-10.00582	-7.753407E-009	0.0055355	7
	22	32	6328.125	3622.666	-712.9636	1	3692.157	-11.13388	4.746731E-009	0.0055843	7
	23	33	5015.625	3690.857	-807.5139	1	3778.162	-12.34114	3.262554E-008	0.0054618	7
	24	35	3984.375	3759.633	-927.7952	1	3872.421	-13.86237	-2.939698E-008	0.0055267	7
	25	36	3170.956	3837.075	-1055.921	1	3979.713	-15.38631	-2.487758E-008	0.0055518	7
	26	37	2527.573	3914.874	-1216.437	1	4099.507	-17.26116	-4.229403E-008	0.0055521	7
	27	39	1976.103	4004.179	-1431.257	1	4252.287	-19.66896	5.656317E-008	0.0054066	7
	28	40	1577.524	4107.608	-1673.707	1	4435.509	-22.16918	-5.003261E-008	0.005585	7
	29	42	1265.625	4180.226	-1969.195	1	4620.824	-25.22389	-1.569668E-008	0.0054867	7
	30	43	998.264	4284.431	-2358.423	1	4890.655	-28.83118	-5.048162E-008	0.0055787	7
	31	44	796.875	4394.224	-2819.052	1	5220.752	-32.68163	1.433799E-009	0.0054991	7
	32	46	627.7902	4525.282	-3422.057	1	5673.504	-37.09688	-1.419023E-008	0.0054826	7
	33	47	505.5147	4664.946	-4106.205	1	6214.711	-41.35506	7.368063E-010	0.0055005	7
	34	48	397.9953	4841.518	-5032.938	1	6983.606	-46.11056	5.187723E-009	0.0055198	7
	35	50	315.5048	5052.633	-6157.596	1	7965.242	-50.62931	4.326791E-009	0.0055202	7
	36	51	252.4038	5304.18	-7490.752	1	9178.545	-54.6978	4.978736E-009	0.0055207	7
	37	53	198.6229	5646.757	-9260.069	1	10845.96	-58.62531	6.052285E-010	0.0054552	6
	38	54	158.3615	6060.841	-11324.53	1	12844.4	-61.84449	1.224403E-010	0.0054531	6
	39	55	125.558	6607.752	-13919.16	1	15407.96	-64.6052	6.946612E-010	0.0054592	6
	40	57	100.4464	7295.717	-16959.18	1	18461.89	-66.72298	1.702564E-009	0.0054539	6
	41	58	79.00281	8243.029	-20942.93	1	22506.75	-68.51566	1.108323E-009	0.0054553	6
	42	59	63.3446	9294.002	-25617.97	1	27251.77	-70.05962	9.014511E-010	0.0054517	6
	43	61	49.86702	11024.04	-31216.44	1	33105.82	-70.54941	4.192727E-010	0.0054522	6
	44	62	39.72458	13138.13	-38059.91	1	40263.72	-70.95552	1.217617E-009	0.0054606	6
	45	64	31.6723	15936.84	-46115.82	1	48791.93	-70.93572	1.64158E-009	0.0054578	6
	46	65	24.93351	19552.31	-56365.54	1	59660.43	-70.86915	1.319694E-010	0.0054517	6
	47	66	19.86229	24125.34	-67713.77	1	71883.15	-70.38982	7.79572E-010	0.0054536	6
	48	68	15.83615	29745.47	-81183.88	1	86461.64	-69.87736	6.465471E-010	0.0054519	6
	49	69	12.40079	38488.06	-98565.2	1	105813.2	-68.67018	2.070087E-009	0.0054529	6
	50	71	9.93114	47167.13	-115982.3	1	125206.3	-67.86964	2.060954E-010	0.0054614	5
	51	72	7.944915	58514.18	-135826.5	1	147894.4	-66.69358	1.201984E-009	0.0054656	5
	52	74	6.317385	72769.21	-159937.6	1	175713.9	-65.53517	-1.192463E-010	0.0054741	5
	53	76	5.008013	90066.05	-187281.5	1	207813	-64.31651	1.126646E-010	0.0054495	5
	54	78	3.945707	111001.1	-219128.8	1	245639.3	-63.13522	4.941519E-010	0.0054614	5
	55	81	3.158693	133909.3	-252901.6	1	286165.9	-62.09916	-1.736471E-010	0.0054484	5
	56	84	2.504006	161367.3	-292766.7	1	334292.8	-61.13731	5.324502E-010	0.0054594	5
	57	87	1.998082	191464.8	-336202.5	1	386899	-60.33881	3.604699E-010	0.0054779	5
	58	90	1.584686	227102.6	-386414.3	1	448209.3	-59.55648	1.874924E-010	0.0054213	5
	59	94	1.266892	265706.8	-443880.5	1	517329.7	-59.09526	3.253326E-010	0.0054755	5
	60	98	0.999041	311616.4	-515189.8	1	602100.7	-58.83204	-2.131963E-010	0.0054335	5
