EXPLAIN
TAG	EISPOT
TITLE	LABEL	Potentiostatic IDE	Test &Identifier
DATE	LABEL	9/16/2019	Date
TIME	LABEL	7:43:45	Time
NOTES	NOTES	1	&Notes...
	
PSTAT	PSTAT	REF600-11020	Potentiostat
VDC	POTEN	0.00000E+000	T	DC &Voltage (V)
FREQINIT	QUANT	1.00000E+006	Initial Fre&q. (Hz)
FREQFINAL	QUANT	1.00000E+000	Final Fre&q. (Hz)
PTSPERDEC	QUANT	1.00000E+001	Points/&decade
VAC	QUANT	2.50000E+001	AC &Voltage (mV rms)
AREA	QUANT	1.00000E-002	&Area (cm^2)
CONDIT	TWOPARAM	T	5.00000E+000	0.00000E+000	Conditionin&g	Time(s)	E(V)
DELAY	TWOPARAM	T	5.00000E+000	0.00000E+000	Init. De&lay	Time(s)	Stab.(mV/s)
SPEED	SELECTOR	1	&Optimize for:
ZGUESS	QUANT	1.00000E+007	E&stimated Z (ohms)
OCVCURVE	TABLE	19
	Pt	T	Vf	Vm	Ach	Over
	#	s	V vs. Ref.	V	V	bits
	0	0.258333	1.15919E-002	1.15919E-002	5.60332E-004	...........
	1	0.516667	1.15991E-002	1.19663E-002	5.61299E-004	...........
	2	0.775	1.16432E-002	1.23310E-002	5.61199E-004	...........
	3	1.03333	1.17687E-002	1.26855E-002	5.61866E-004	...........
	4	1.29167	1.19948E-002	1.30286E-002	5.64732E-004	...........
	5	1.55	1.22983E-002	1.33588E-002	5.62732E-004	...........
	6	1.80833	1.26385E-002	1.36808E-002	5.63366E-004	...........
	7	2.06667	1.29847E-002	1.39935E-002	5.61799E-004	...........
	8	2.325	1.33223E-002	1.42940E-002	5.61799E-004	...........
	9	2.58333	1.36475E-002	1.45796E-002	5.65866E-004	...........
	10	2.84167	1.39603E-002	1.48562E-002	5.64732E-004	...........
	11	3.1	1.42608E-002	1.51222E-002	5.67132E-004	...........
	12	3.35833	1.45496E-002	1.53826E-002	5.68766E-004	...........
	13	3.61667	1.48277E-002	1.56328E-002	5.73965E-004	...........
	14	3.875	1.50962E-002	1.58740E-002	5.70566E-004	...........
	15	4.13333	1.53558E-002	1.61115E-002	5.68366E-004	...........
	16	4.39167	1.56072E-002	1.63394E-002	5.68799E-004	...........
	17	4.65	1.58509E-002	1.65587E-002	5.67232E-004	...........
	18	4.90833	1.60869E-002	1.67694E-002	5.66932E-004	...........
EOC	QUANT	0.0160869	Open Circuit (V)
PSTATMODEL	IQUANT	4	Pstat Model
PSTATSECTION	LABEL	REF600-11020	Pstat Section
PSTATSERIALNO	LABEL	11020	Pstat Serial Number
CTRLMODE	IQUANT	1	Control Mode
IESTAB	IQUANT	0	I/E Stability
CASPEED	IQUANT	1	Control Amp Speed
CONVENTION	IQUANT	1	Current Convention
ICHRANGE	IQUANT	2	Ich Range
ICHRANGEMODE	TOGGLE	F	Ich Auto Range
ICHOFFSETENABLE	TOGGLE	T	Ich Offset Enable
ICHOFFSET	QUANT	0	Ich Offset (V)
ICHFILTER	IQUANT	3	Ich Filter
VCHRANGE	IQUANT	2	Vch Range
VCHRANGEMODE	TOGGLE	F	Vch Auto Range
VCHOFFSETENABLE	TOGGLE	T	Vch Offset Enable
VCHOFFSET	QUANT	0	Vch Offset (V)
VCHFILTER	IQUANT	3	Vch Filter
ACHRANGE	IQUANT	2	Ach Range
ACHOFFSETENABLE	TOGGLE	F	Ach Offset Enable
ACHOFFSET	QUANT	0	Ach Offset (V)
ACHFILTER	IQUANT	3	Ach Filter
IERANGELOWERLIMIT	IQUANT	1	I/E Range Lower Limit
IERANGEMODE	TOGGLE	F	I/E AutoRange
IERANGE	IQUANT	3	I/E Range
POSFEEDENABLE	TOGGLE	F	Positive Feedback IR Comp
POSFEEDRESISTANCE	QUANT	0	Positive Feedback Resistance (ohm)
ACHSELECT	IQUANT	0	Ach Select
CABLEID	IQUANT	14	Cable ID
DCCALDATE	LABEL	8/19/2019	DC Calibration Date
ACCALDATE	LABEL	8/19/2019	AC Calibration Date
THERMOSELECT	IQUANT	1	Thermo Select
FRAMEWORKVERSION	QUANT	6.33	Framework Version
INSTRUMENTVERSION	LABEL	3.50	Instrument Version
ZCURVE	TABLE
	Pt	Time	Freq	Zreal	Zimag	Zsig	Zmod	Zphz	Idc	Vdc	IERange
	#	s	Hz	ohm	ohm	V	ohm	°	A	V	#
	0	2	1000078	2234.664	-1017.462	1	2455.392	-24.48019	3.334373E-006	0.0181455	8
	1	3	794390.6	2405.268	-899.3107	1	2567.893	-20.50037	-6.086105E-006	0.0190699	8
	2	4	630984.4	2525.402	-786.8774	1	2645.153	-17.30625	-1.867823E-008	0.0181297	8
	3	6	501234.4	2626.727	-673.6437	1	2711.732	-14.38393	-4.135966E-006	0.018634	8
	4	7	398109.4	2705.274	-595.4256	1	2770.025	-12.41278	1.853622E-006	0.0172788	8
	5	8	316265.6	2754.852	-517.9286	1	2803.116	-10.64766	1.968069E-006	0.017036	8
	6	10	251203.1	2803.313	-461.3303	1	2841.02	-9.345181	-1.237261E-006	0.0178796	8
	7	11	199546.9	2852.789	-414.038	1	2882.678	-8.257933	5.676685E-006	0.016592	8
	8	12	158578.1	2862.431	-366.5133	1	2885.8	-7.296603	2.201078E-006	0.017177	8
	9	14	125953.1	2922.221	-312.5423	1	2938.887	-6.104789	2.172662E-007	0.0171044	7
	10	15	100078.1	2942.186	-297.0821	1	2957.146	-5.7658	-3.451955E-008	0.0176073	7
	11	16	79453.13	2968.608	-301.3012	1	2983.859	-5.795435	-1.912058E-008	0.0176555	7
	12	18	63140.62	2998.322	-311.974	1	3014.509	-5.940224	-3.987249E-009	0.0176147	7
	13	19	50203.12	3030.453	-329.539	1	3048.318	-6.2061	-4.001875E-008	0.0176187	7
	14	20	39890.62	3064.902	-352.6325	1	3085.122	-6.563309	8.240419E-008	0.0174405	7
	15	22	31640.63	3103.374	-381.664	1	3126.755	-7.011231	-5.046079E-008	0.017689	7
	16	23	25171.88	3144.013	-418.1127	1	3171.693	-7.575143	1.429187E-007	0.0173782	7
	17	25	20015.62	3188.328	-462.0329	1	3221.632	-8.245553	5.018264E-008	0.0174306	7
	18	26	15890.62	3237.054	-513.6367	1	3277.551	-9.016191	7.770355E-008	0.0175669	7
	19	27	12609.37	3289.467	-575.4755	1	3339.426	-9.92318	9.053811E-008	0.0174049	7
	20	29	10078.13	3344.322	-647.8197	1	3406.488	-10.96284	-3.187391E-008	0.0175882	7
	21	30	8015.625	3403.375	-734.4427	1	3481.719	-12.1776	-4.668369E-008	0.0176139	7
	22	31	6328.125	3469.199	-843.535	1	3570.28	-13.66625	8.946921E-008	0.0174023	7
	23	32	5015.625	3537.809	-973.612	1	3669.334	-15.38701	7.626429E-008	0.0175649	7
	24	34	3984.375	3611.242	-1131.872	1	3784.469	-17.40256	-3.601291E-009	0.017611	7
	25	35	3170.956	3690.15	-1321.738	1	3919.719	-19.70651	-4.40452E-009	0.017516	7
	26	37	2527.573	3774.63	-1550.905	1	4080.825	-22.33659	-4.601021E-008	0.0176034	7
	27	38	1976.103	3877.715	-1859.805	1	4300.645	-25.62302	-1.485592E-008	0.0175587	7
	28	39	1577.524	3983.324	-2208.554	1	4554.622	-29.00618	-3.275371E-008	0.0175778	7
	29	41	1265.625	4094.53	-2621.861	1	4862.029	-32.63276	-3.952918E-009	0.0176002	7
	30	42	998.264	4236.982	-3162.494	1	5287.097	-36.73775	-4.335393E-008	0.0176126	7
	31	43	796.875	4384.507	-3800.727	1	5802.537	-40.92051	-3.123106E-009	0.0176069	7
	32	45	627.7902	4562.17	-4631.625	1	6501.181	-45.43283	1.450832E-007	0.0173729	7
	33	46	505.5147	4739.206	-5577.943	1	7319.394	-49.64766	-4.959288E-008	0.0176914	7
	34	47	397.9953	4991.85	-6834.891	1	8463.704	-53.85754	7.11351E-009	0.0175977	7
	35	48	315.5048	5276.188	-8369.379	1	9893.67	-57.77203	5.909643E-009	0.0175899	7
	36	50	252.4038	5616.624	-10186.93	1	11632.71	-61.12959	1.690141E-009	0.0175312	6
	37	51	198.6229	6071.863	-12601.56	1	13988.09	-64.27364	8.717277E-010	0.0175367	6
	38	52	158.3615	6627.387	-15423	1	16786.63	-66.74641	1.465266E-009	0.0175298	6
	39	54	125.558	7353.622	-18976.09	1	20351.11	-68.81763	9.934734E-010	0.0175396	6
	40	55	100.4464	8291.662	-23138.58	1	24579.37	-70.28497	1.652991E-009	0.0175352	6
	41	56	79.00281	9541.03	-28570.33	1	30121.34	-71.53331	1.387236E-009	0.0175317	6
	42	58	63.3446	11241.35	-35124.46	1	36879.48	-72.25308	2.789617E-011	0.0175368	6
	43	59	49.86702	13150.49	-42617.22	1	44600.04	-72.85123	-1.706462E-010	0.0175331	6
	44	61	39.72458	16120.77	-52210.27	1	54642.4	-72.84108	4.710367E-010	0.0175369	6
	45	62	31.6723	19682.23	-63066.82	1	66066.73	-72.66763	2.308019E-010	0.017536	6
	46	64	24.93351	24685.75	-77170.45	1	81022.62	-72.26125	9.189557E-010	0.0175317	6
	47	65	19.86229	30912.26	-93002.88	1	98005.6	-71.61424	6.240029E-010	0.0175371	6
	48	66	15.83615	38952.47	-111194	1	117819.4	-70.69408	1.094515E-009	0.0175285	5
	49	67	12.40079	49401.39	-135600.7	1	144319.3	-69.98256	1.284079E-010	0.0175399	5
	50	69	9.93114	61752.67	-159776	1	171294.4	-68.86872	8.772624E-010	0.0175398	5
	51	70	7.944915	77456.84	-188657.4	1	203939.2	-67.67848	7.18023E-010	0.0175299	5
	52	72	6.317385	97436.4	-222978.4	1	243337.7	-66.3958	3.253239E-010	0.0175194	5
	53	74	5.008013	122163.6	-262631.8	1	289653.9	-65.05442	2.459345E-010	0.0175397	5
	54	77	3.945707	153568.5	-308398	1	344518	-63.52873	-8.996915E-011	0.0175379	5
	55	79	3.158693	188999.2	-356530.3	1	403527.6	-62.07163	-2.114857E-010	0.0175294	5
	56	83	2.504006	231683.8	-412162.4	1	472816.2	-60.65889	6.985028E-011	0.0175481	5
	57	85	1.998082	281413.6	-470822.8	1	548514.1	-59.13299	2.365805E-010	0.0175455	5
	58	88	1.584686	341753.7	-537070.3	1	636584.7	-57.5302	-6.777404E-011	0.0174966	5
	59	92	1.266892	407347.2	-609208.7	1	732848.6	-56.23134	2.788457E-011	0.0175695	5
	60	96	0.999041	486946.8	-690834.4	1	845203.8	-54.82123	-2.946945E-010	0.0174927	5
