EXPLAIN
TAG	EISPOT
TITLE	LABEL	Potentiostatic IDE	Test &Identifier
DATE	LABEL	9/14/2019	Date
TIME	LABEL	13:16:55	Time
NOTES	NOTES	1	&Notes...
	
PSTAT	PSTAT	REF600-11020	Potentiostat
VDC	POTEN	0.00000E+000	T	DC &Voltage (V)
FREQINIT	QUANT	1.00000E+006	Initial Fre&q. (Hz)
FREQFINAL	QUANT	1.00000E+000	Final Fre&q. (Hz)
PTSPERDEC	QUANT	1.00000E+001	Points/&decade
VAC	QUANT	2.50000E+001	AC &Voltage (mV rms)
AREA	QUANT	1.00000E-002	&Area (cm^2)
CONDIT	TWOPARAM	T	5.00000E+000	0.00000E+000	Conditionin&g	Time(s)	E(V)
DELAY	TWOPARAM	T	5.00000E+000	0.00000E+000	Init. De&lay	Time(s)	Stab.(mV/s)
SPEED	SELECTOR	1	&Optimize for:
ZGUESS	QUANT	1.00000E+007	E&stimated Z (ohms)
OCVCURVE	TABLE	18
	Pt	T	Vf	Vm	Ach	Over
	#	s	V vs. Ref.	V	V	bits
	0	0.258333	4.18719E-003	4.18719E-003	5.75566E-004	...........
	1	0.516667	4.17976E-003	3.79830E-003	5.73432E-004	...........
	2	0.775	4.13647E-003	3.55181E-003	5.72099E-004	...........
	3	1.03333	4.02049E-003	3.24799E-003	5.75932E-004	...........
	4	1.29167	3.82225E-003	2.94929E-003	5.76066E-004	...........
	5	1.55	3.56515E-003	2.68426E-003	5.69366E-004	...........
	6	1.80833	3.28146E-003	2.44230E-003	5.77132E-004	...........
	7	2.06667	2.99656E-003	2.20669E-003	5.75766E-004	...........
	8	2.325	2.72505E-003	1.98559E-003	5.79099E-004	...........
	9	2.58333	2.47191E-003	1.80583E-003	5.73632E-004	...........
	10	2.84167	2.23855E-003	1.65213E-003	5.74832E-004	...........
	11	3.1	2.02685E-003	1.48361E-003	5.77332E-004	...........
	12	3.35833	1.83633E-003	1.31643E-003	5.75732E-004	...........
	13	3.61667	1.66086E-003	1.13095E-003	5.78799E-004	...........
	14	3.875	1.49121E-003	9.56311E-004	5.79566E-004	...........
	15	4.13333	1.32048E-003	7.79705E-004	5.75766E-004	...........
	16	4.39167	1.14739E-003	6.45666E-004	5.78266E-004	...........
	17	4.65	9.77177E-004	5.53309E-004	5.77166E-004	...........
EOC	QUANT	0.0008196	Open Circuit (V)
PSTATMODEL	IQUANT	4	Pstat Model
PSTATSECTION	LABEL	REF600-11020	Pstat Section
PSTATSERIALNO	LABEL	11020	Pstat Serial Number
CTRLMODE	IQUANT	1	Control Mode
IESTAB	IQUANT	0	I/E Stability
CASPEED	IQUANT	1	Control Amp Speed
CONVENTION	IQUANT	1	Current Convention
ICHRANGE	IQUANT	2	Ich Range
ICHRANGEMODE	TOGGLE	F	Ich Auto Range
ICHOFFSETENABLE	TOGGLE	T	Ich Offset Enable
ICHOFFSET	QUANT	0	Ich Offset (V)
ICHFILTER	IQUANT	3	Ich Filter
VCHRANGE	IQUANT	2	Vch Range
VCHRANGEMODE	TOGGLE	F	Vch Auto Range
VCHOFFSETENABLE	TOGGLE	T	Vch Offset Enable
VCHOFFSET	QUANT	0	Vch Offset (V)
VCHFILTER	IQUANT	3	Vch Filter
ACHRANGE	IQUANT	2	Ach Range
ACHOFFSETENABLE	TOGGLE	F	Ach Offset Enable
ACHOFFSET	QUANT	0	Ach Offset (V)
ACHFILTER	IQUANT	3	Ach Filter
IERANGELOWERLIMIT	IQUANT	1	I/E Range Lower Limit
IERANGEMODE	TOGGLE	F	I/E AutoRange
IERANGE	IQUANT	2	I/E Range
POSFEEDENABLE	TOGGLE	F	Positive Feedback IR Comp
POSFEEDRESISTANCE	QUANT	0	Positive Feedback Resistance (ohm)
ACHSELECT	IQUANT	0	Ach Select
CABLEID	IQUANT	14	Cable ID
DCCALDATE	LABEL	8/19/2019	DC Calibration Date
ACCALDATE	LABEL	8/19/2019	AC Calibration Date
THERMOSELECT	IQUANT	1	Thermo Select
FRAMEWORKVERSION	QUANT	6.33	Framework Version
INSTRUMENTVERSION	LABEL	3.50	Instrument Version
ZCURVE	TABLE
	Pt	Time	Freq	Zreal	Zimag	Zsig	Zmod	Zphz	Idc	Vdc	IERange
	#	s	Hz	ohm	ohm	V	ohm	°	A	V	#
	0	2	1000078	2222.972	-1782.061	1	2849.096	-38.71764	-1.797778E-006	0.0030812	8
	1	3	794390.6	2579.8	-1757.673	1	3121.663	-34.26744	-3.719648E-006	0.0036579	8
	2	4	630984.4	2921.701	-1670.629	1	3365.611	-29.76092	7.042767E-007	0.0024836	8
	3	6	501234.4	3232.314	-1568.246	1	3592.667	-25.88162	4.664603E-006	0.0016039	8
	4	7	398109.4	3482.051	-1400.006	1	3752.958	-21.90327	-3.232735E-007	0.0026138	8
	5	9	316265.6	3665.938	-1252.462	1	3873.985	-18.86264	-6.596439E-007	0.002541	8
	6	10	251203.1	3829.475	-1110.559	1	3987.257	-16.17231	1.768043E-006	0.0019448	8
	7	11	199546.9	3923.816	-981.951	1	4044.819	-14.04994	-1.065004E-007	0.0022738	8
	8	13	158578.1	4048.198	-896.1512	1	4146.203	-12.48229	4.926754E-007	0.0023963	8
	9	14	125953.1	4161.246	-753.0272	1	4228.832	-10.25735	-7.572372E-007	0.0038898	7
	10	15	100078.1	4223.481	-699.3163	1	4280.985	-9.401631	2.385717E-008	0.0022599	7
	11	17	79453.13	4287.566	-668.6799	1	4339.396	-8.864322	-8.687918E-009	0.002336	7
	12	18	63140.62	4347.557	-652.61	1	4396.266	-8.536906	-7.641434E-008	0.0025718	7
	13	19	50203.12	4409.033	-653.5444	1	4457.207	-8.431474	-1.135078E-008	0.0023931	7
	14	21	39890.62	4468.232	-665.754	1	4517.558	-8.474566	1.825326E-008	0.0024203	7
	15	22	31640.63	4538.17	-693.4634	1	4590.848	-8.687981	-7.500008E-008	0.0025736	7
	16	23	25171.88	4609.27	-734.0596	1	4667.356	-9.048778	2.45635E-008	0.0022392	7
	17	25	20015.62	4686.026	-788.7556	1	4751.945	-9.55451	-7.358738E-008	0.0025699	7
	18	26	15890.62	4771.749	-852.6289	1	4847.326	-10.13085	1.135147E-007	0.0021755	7
	19	27	12609.37	4863.066	-942.4401	1	4953.545	-10.96771	5.551526E-009	0.0023174	7
	20	29	10078.13	4962.831	-1042.175	1	5071.077	-11.85956	-2.737795E-008	0.00232	7
	21	30	8015.625	5078.793	-1156.198	1	5208.736	-12.82493	2.440723E-008	0.0022341	7
	22	31	6328.125	5211.517	-1299.686	1	5371.135	-14.00319	-6.151857E-008	0.0024465	7
	23	33	5015.625	5357.132	-1462.963	1	5553.299	-15.2743	4.422397E-008	0.00228	7
	24	34	3984.375	5520.804	-1648.822	1	5761.761	-16.62858	-1.237591E-008	0.0023605	7
	25	35	3170.956	5703.782	-1857.702	1	5998.682	-18.04025	-5.987301E-008	0.0024109	7
	26	37	2527.573	5909.836	-2098.52	1	6271.359	-19.54941	1.135059E-007	0.0021684	7
	27	38	1976.103	6162.495	-2395.092	1	6611.566	-21.23892	4.553148E-008	0.0022849	7
	28	39	1577.524	6423.415	-2698.466	1	6967.208	-22.7872	-9.286603E-009	0.0023854	7
	29	41	1265.625	6712.19	-3044.864	1	7370.529	-24.40056	4.554633E-008	0.0022783	7
	30	42	998.264	7031.367	-3445.409	1	7830.131	-26.10511	6.111344E-008	0.0022286	7
	31	43	796.875	7354.891	-3888.889	1	8319.729	-27.86759	4.66155E-009	0.0023071	7
	32	45	627.7902	7704.776	-4432.949	1	8889.017	-29.91401	4.700978E-008	0.0021912	7
	33	46	505.5147	8027.305	-5027.849	1	9471.9	-32.0607	1.463666E-008	0.0020225	6
	34	47	397.9953	8376.633	-5839.624	1	10211.23	-34.88161	5.607312E-010	0.0022896	6
	35	49	315.5048	8709.43	-6831.371	1	11068.96	-38.10939	1.008959E-009	0.0022905	6
	36	50	252.4038	9035.316	-8029.914	1	12087.86	-41.6283	1.290878E-009	0.0022876	6
	37	51	198.6229	9406.872	-9656.74	1	13481.17	-45.75094	6.003915E-010	0.0022868	6
	38	53	158.3615	9801.5	-11596.29	1	15183.66	-49.7946	1.382224E-009	0.0022854	6
	39	54	125.558	10272.87	-14090.88	1	17438.02	-53.90631	5.925589E-010	0.0022887	6
	40	55	100.4464	10831.48	-17056.69	1	20205.23	-57.58331	-2.028187E-010	0.0022884	6
	41	57	79.00281	11561.16	-21095.97	1	24056.2	-61.27608	-6.807541E-013	0.0022915	6
	42	58	63.3446	12630.05	-25487.42	1	28445.16	-63.63971	2.607352E-010	0.0022832	6
	43	60	49.86702	13551.45	-31772.51	1	34541.78	-66.90103	1.356111E-009	0.0022821	6
	44	61	39.72458	15127.36	-38688.88	1	41541.14	-68.6445	1.228359E-009	0.0022857	6
	45	62	31.6723	17183.93	-47133.11	1	50167.89	-69.969	2.208653E-010	0.002277	6
	46	64	24.93351	19826.19	-58277.26	1	61557.42	-71.21146	5.59527E-010	0.0022783	6
	47	65	19.86229	23150.57	-70998.91	1	74677.93	-71.94044	1.141961E-009	0.0022843	6
	48	66	15.83615	26983.3	-86484.39	1	90596.07	-72.67197	1.873848E-010	0.002282	6
	49	68	12.40079	33382.47	-106669.6	1	111771.2	-72.62238	7.721597E-010	0.0022926	5
	50	69	9.93114	40424.54	-127820.2	1	134060.2	-72.44987	8.233691E-010	0.0022819	5
	51	71	7.944915	48440	-153994.7	1	161433.6	-72.5387	7.34553E-010	0.0022826	5
	52	72	6.317385	60231.73	-185824.9	1	195342.7	-72.04086	5.33474E-010	0.0022732	5
	53	74	5.008013	74640.02	-224275.7	1	236369.9	-71.59232	9.199363E-011	0.0022811	5
	54	77	3.945707	93500.51	-271306.9	1	286966.5	-70.98451	1.63063E-010	0.0022874	5
	55	79	3.158693	115371.4	-322816.3	1	342813.2	-70.3336	1.325441E-010	0.0022734	5
	56	83	2.504006	143590.6	-386221.1	1	412049.7	-69.6057	4.273397E-010	0.0022981	5
	57	85	1.998082	177629.4	-457963.2	1	491205.1	-68.80031	3.126511E-010	0.0023269	5
	58	89	1.584686	219579.9	-542617.4	1	585362.3	-67.96839	2.739072E-010	0.002293	5
	59	92	1.266892	271720.3	-639075.6	1	694441.9	-66.96592	1.727559E-010	0.0023285	5
	60	96	0.999041	335268.2	-754897.6	1	825999.4	-66.05284	2.159963E-010	0.0022573	5
