EXPLAIN
TAG	EISPOT
TITLE	LABEL	Potentiostatic IDE	Test &Identifier
DATE	LABEL	9/8/2019	Date
TIME	LABEL	8:33:45	Time
NOTES	NOTES	1	&Notes...
	
PSTAT	PSTAT	REF600-11020	Potentiostat
VDC	POTEN	0.00000E+000	T	DC &Voltage (V)
FREQINIT	QUANT	1.00000E+006	Initial Fre&q. (Hz)
FREQFINAL	QUANT	1.00000E+000	Final Fre&q. (Hz)
PTSPERDEC	QUANT	1.00000E+001	Points/&decade
VAC	QUANT	2.50000E+001	AC &Voltage (mV rms)
AREA	QUANT	1.00000E-002	&Area (cm^2)
CONDIT	TWOPARAM	T	5.00000E+000	0.00000E+000	Conditionin&g	Time(s)	E(V)
DELAY	TWOPARAM	T	5.00000E+000	0.00000E+000	Init. De&lay	Time(s)	Stab.(mV/s)
SPEED	SELECTOR	1	&Optimize for:
ZGUESS	QUANT	1.00000E+007	E&stimated Z (ohms)
OCVCURVE	TABLE	19
	Pt	T	Vf	Vm	Ach	Over
	#	s	V vs. Ref.	V	V	bits
	0	0.258333	1.46906E-002	1.46906E-002	5.60899E-004	...........
	1	0.516667	1.47053E-002	1.54604E-002	5.59566E-004	...........
	2	0.775	1.47956E-002	1.61892E-002	5.61132E-004	...........
	3	1.03333	1.50508E-002	1.68818E-002	5.59732E-004	...........
	4	1.29167	1.55066E-002	1.75389E-002	5.57566E-004	...........
	5	1.55	1.61110E-002	1.81618E-002	5.62766E-004	...........
	6	1.80833	1.67782E-002	1.87564E-002	5.59432E-004	...........
	7	2.06667	1.74453E-002	1.93243E-002	5.59199E-004	...........
	8	2.325	1.80839E-002	1.98667E-002	5.62232E-004	...........
	9	2.58333	1.86884E-002	2.03814E-002	5.57699E-004	...........
	10	2.84167	1.92612E-002	2.08754E-002	5.58732E-004	...........
	11	3.1	1.98059E-002	2.13557E-002	5.58399E-004	...........
	12	3.35833	2.03263E-002	2.18151E-002	5.58566E-004	...........
	13	3.61667	2.08252E-002	2.22573E-002	5.61766E-004	...........
	14	3.875	2.13047E-002	2.26774E-002	5.61932E-004	...........
	15	4.13333	2.17657E-002	2.30861E-002	5.63166E-004	...........
	16	4.39167	2.22086E-002	2.34813E-002	5.60099E-004	...........
	17	4.65	2.26344E-002	2.38659E-002	5.60399E-004	...........
	18	4.90833	2.30451E-002	2.42340E-002	5.62599E-004	...........
EOC	QUANT	0.0230451	Open Circuit (V)
PSTATMODEL	IQUANT	4	Pstat Model
PSTATSECTION	LABEL	REF600-11020	Pstat Section
PSTATSERIALNO	LABEL	11020	Pstat Serial Number
CTRLMODE	IQUANT	1	Control Mode
IESTAB	IQUANT	0	I/E Stability
CASPEED	IQUANT	1	Control Amp Speed
CONVENTION	IQUANT	1	Current Convention
ICHRANGE	IQUANT	2	Ich Range
ICHRANGEMODE	TOGGLE	F	Ich Auto Range
ICHOFFSETENABLE	TOGGLE	T	Ich Offset Enable
ICHOFFSET	QUANT	0	Ich Offset (V)
ICHFILTER	IQUANT	3	Ich Filter
VCHRANGE	IQUANT	2	Vch Range
VCHRANGEMODE	TOGGLE	F	Vch Auto Range
VCHOFFSETENABLE	TOGGLE	T	Vch Offset Enable
VCHOFFSET	QUANT	0	Vch Offset (V)
VCHFILTER	IQUANT	3	Vch Filter
ACHRANGE	IQUANT	2	Ach Range
ACHOFFSETENABLE	TOGGLE	F	Ach Offset Enable
ACHOFFSET	QUANT	0	Ach Offset (V)
ACHFILTER	IQUANT	3	Ach Filter
IERANGELOWERLIMIT	IQUANT	1	I/E Range Lower Limit
IERANGEMODE	TOGGLE	F	I/E AutoRange
IERANGE	IQUANT	3	I/E Range
POSFEEDENABLE	TOGGLE	F	Positive Feedback IR Comp
POSFEEDRESISTANCE	QUANT	0	Positive Feedback Resistance (ohm)
ACHSELECT	IQUANT	0	Ach Select
CABLEID	IQUANT	14	Cable ID
DCCALDATE	LABEL	8/19/2019	DC Calibration Date
ACCALDATE	LABEL	8/19/2019	AC Calibration Date
THERMOSELECT	IQUANT	1	Thermo Select
FRAMEWORKVERSION	QUANT	6.33	Framework Version
INSTRUMENTVERSION	LABEL	3.50	Instrument Version
ZCURVE	TABLE
	Pt	Time	Freq	Zreal	Zimag	Zsig	Zmod	Zphz	Idc	Vdc	IERange
	#	s	Hz	ohm	ohm	V	ohm	°	A	V	#
	0	2	1000078	2588.687	-1017.066	1	2781.317	-21.44931	-7.271022E-006	0.0267004	8
	1	4	794390.6	2739.559	-895.6946	1	2882.265	-18.10507	1.397291E-006	0.0253076	8
	2	5	630984.4	2867.081	-773.6494	1	2969.627	-15.10096	6.382527E-006	0.0236477	8
	3	6	501234.4	2934.385	-648.2007	1	3005.126	-12.4565	-2.604622E-006	0.0250627	8
	4	8	398109.4	3005.33	-542.5469	1	3053.91	-10.23328	1.322341E-006	0.0244263	8
	5	9	316265.6	3049.707	-467.7046	1	3085.362	-8.718979	2.398002E-006	0.0242021	8
	6	10	251203.1	3081.499	-403.7886	1	3107.842	-7.4653	-3.899429E-007	0.0247141	8
	7	12	199546.9	3114.577	-341.007	1	3133.189	-6.248278	-8.716338E-007	0.0250218	8
	8	13	158578.1	3127.308	-290.0776	1	3140.733	-5.299383	-7.804572E-007	0.025011	8
	9	14	125953.1	3176.793	-224.4091	1	3184.709	-4.040669	-9.331437E-007	0.0264166	7
	10	16	100078.1	3189.678	-200.1595	1	3195.952	-3.59073	-5.884162E-008	0.0247555	7
	11	17	79453.13	3205.337	-193.466	1	3211.171	-3.454037	2.357428E-008	0.024541	7
	12	18	63140.62	3220.765	-189.6028	1	3226.341	-3.369051	-1.985507E-008	0.0246819	7
	13	20	50203.12	3237.97	-188.8146	1	3243.47	-3.33729	-3.343033E-008	0.0246366	7
	14	21	39890.62	3255.218	-191.4814	1	3260.844	-3.366426	2.881094E-008	0.0246104	7
	15	22	31640.63	3271.271	-198.7363	1	3277.302	-3.47656	-4.899965E-008	0.0246996	7
	16	24	25171.88	3288.172	-210.2732	1	3294.888	-3.658988	-1.008809E-008	0.0246686	7
	17	25	20015.62	3305.751	-226.6566	1	3313.513	-3.922307	-2.30914E-008	0.0246196	7
	18	26	15890.62	3323.486	-250.5846	1	3332.919	-4.311835	-2.191469E-008	0.024697	7
	19	28	12609.37	3343.271	-278.0743	1	3354.816	-4.754593	-7.042288E-008	0.0247412	7
	20	29	10078.13	3362.151	-313.328	1	3376.719	-5.324172	7.284351E-008	0.0246112	7
	21	30	8015.625	3382.983	-360.1762	1	3402.103	-6.077219	8.356217E-008	0.0244757	7
	22	32	6328.125	3406.784	-421.1233	1	3432.714	-7.046765	-2.045826E-008	0.0246872	7
	23	33	5015.625	3432.829	-495.4834	1	3468.403	-8.213163	-2.156619E-008	0.0246932	7
	24	34	3984.375	3462.515	-586.633	1	3511.858	-9.61596	-8.050362E-009	0.0246602	7
	25	36	3170.956	3496.963	-697.8788	1	3565.92	-11.28608	2.486041E-008	0.0245325	7
	26	37	2527.573	3535.76	-834.1445	1	3632.822	-13.27431	-1.368392E-008	0.0246577	7
	27	38	1976.103	3585.289	-1014.615	1	3726.089	-15.80119	-6.857732E-008	0.0247183	7
	28	40	1577.524	3641.831	-1217.474	1	3839.945	-18.48491	7.126519E-008	0.0246093	7
	29	41	1265.625	3702.519	-1454.222	1	3977.865	-21.44319	-1.891276E-008	0.0246808	7
	30	42	998.264	3787.174	-1769.339	1	4180.102	-25.04162	2.605138E-008	0.0245297	7
	31	44	796.875	3879.115	-2130.732	1	4425.782	-28.77925	3.304276E-008	0.024596	7
	32	45	627.7902	3994.419	-2596.818	1	4764.331	-33.02836	-4.74847E-008	0.024695	7
	33	46	505.5147	4118.799	-3114.857	1	5163.995	-37.09853	2.679818E-008	0.0245252	7
	34	48	397.9953	4279.629	-3808.365	1	5728.776	-41.66531	6.866706E-009	0.0246415	7
	35	49	315.5048	4467.695	-4637.794	1	6439.676	-46.07021	5.031221E-009	0.0246444	7
	36	50	252.4038	4685.065	-5612.089	1	7310.635	-50.14431	5.626311E-009	0.0246385	7
	37	52	198.6229	4972.468	-6897.189	1	8502.744	-54.21061	5.291878E-009	0.0246424	7
	38	53	158.3615	5311.836	-8391.873	1	9931.72	-57.66726	4.348397E-009	0.0246417	7
	39	54	125.558	5753.789	-10265.39	1	11767.93	-60.72921	-2.001199E-010	0.0245769	6
	40	56	100.4464	6284.393	-12460.6	1	13955.65	-63.23632	-4.025979E-010	0.024576	6
	41	57	79.00281	7058.37	-15334.47	1	16880.95	-65.28365	-5.769718E-011	0.0245781	6
	42	58	63.3446	7986.824	-18481.13	1	20133.09	-66.62788	-2.689841E-010	0.024579	6
	43	60	49.86702	9249.167	-22854.72	1	24655.33	-67.96712	3.583508E-010	0.0245784	6
	44	61	39.72458	10781.12	-27628.84	1	29657.8	-68.68365	-6.640696E-010	0.0245784	6
	45	63	31.6723	12895.99	-33342.73	1	35749.75	-68.855	9.254164E-010	0.0245746	6
	46	64	24.93351	15640.16	-40545.68	1	43457.64	-68.90629	-3.846579E-010	0.024573	6
	47	65	19.86229	19038.03	-48647.72	1	52240.29	-68.62737	-4.198974E-010	0.0245796	6
	48	67	15.83615	23461.78	-57808.03	1	62387.69	-67.9099	5.782765E-010	0.0245744	6
	49	68	12.40079	29682.88	-69813.84	1	75862.02	-66.96616	1.476625E-009	0.0245756	6
	50	69	9.93114	36281.86	-82412.73	1	90045.72	-66.23871	-1.244658E-010	0.0245777	6
	51	71	7.944915	44618.45	-96645.4	1	106447.8	-65.21856	-7.125507E-010	0.0245846	5
	52	73	6.317385	55129.54	-113246.1	1	125952.1	-64.04263	-6.972544E-010	0.0245664	5
	53	75	5.008013	68108.34	-132492.7	1	148973.4	-62.79441	-2.020429E-009	0.0245701	5
	54	77	3.945707	84135.14	-154300.6	1	175748.1	-61.39779	-1.004973E-009	0.0245824	5
	55	80	3.158693	102173.2	-177311	1	204642.5	-60.04786	-1.744517E-009	0.02459	5
	56	83	2.504006	123755.7	-203523.8	1	238196.2	-58.69769	-1.586672E-009	0.0245757	5
	57	86	1.998082	147780.4	-232204.2	1	275241.4	-57.52633	-2.088678E-009	0.0245719	5
	58	89	1.584686	176558.3	-263328.6	1	317040.6	-56.15867	-1.6708E-009	0.0246226	5
	59	92	1.266892	207923.5	-298211.9	1	363541.6	-55.11448	-1.836528E-009	0.0245531	5
	60	97	0.999041	245246	-337433.6	1	417141.5	-53.99043	-1.265376E-009	0.024627	5
