EXPLAIN
TAG	EISPOT
TITLE	LABEL	Potentiostatic IDE	Test &Identifier
DATE	LABEL	9/4/2019	Date
TIME	LABEL	10:52:28	Time
NOTES	NOTES	1	&Notes...
	
PSTAT	PSTAT	REF600-11020	Potentiostat
VDC	POTEN	0.00000E+000	T	DC &Voltage (V)
FREQINIT	QUANT	1.00000E+006	Initial Fre&q. (Hz)
FREQFINAL	QUANT	1.00000E+000	Final Fre&q. (Hz)
PTSPERDEC	QUANT	1.00000E+001	Points/&decade
VAC	QUANT	2.50000E+001	AC &Voltage (mV rms)
AREA	QUANT	1.00000E-002	&Area (cm^2)
CONDIT	TWOPARAM	T	5.00000E+000	0.00000E+000	Conditionin&g	Time(s)	E(V)
DELAY	TWOPARAM	T	5.00000E+000	0.00000E+000	Init. De&lay	Time(s)	Stab.(mV/s)
SPEED	SELECTOR	1	&Optimize for:
ZGUESS	QUANT	1.00000E+007	E&stimated Z (ohms)
OCVCURVE	TABLE	19
	Pt	T	Vf	Vm	Ach	Over
	#	s	V vs. Ref.	V	V	bits
	0	0.258333	1.48565E-001	1.48565E-001	4.75634E-004	...........
	1	0.516667	1.48723E-001	1.56832E-001	4.81334E-004	...........
	2	0.775	1.49685E-001	1.64279E-001	4.81600E-004	...........
	3	1.03333	1.52375E-001	1.71011E-001	4.75500E-004	...........
	4	1.29167	1.57098E-001	1.77107E-001	4.76967E-004	...........
	5	1.55	1.63210E-001	1.82670E-001	4.77000E-004	...........
	6	1.80833	1.69746E-001	1.87743E-001	4.71567E-004	...........
	7	2.06667	1.76033E-001	1.92428E-001	4.74367E-004	...........
	8	2.325	1.81803E-001	1.96713E-001	4.68167E-004	...........
	9	2.58333	1.87033E-001	2.00668E-001	4.69101E-004	...........
	10	2.84167	1.91788E-001	2.04317E-001	4.74834E-004	...........
	11	3.1	1.96140E-001	2.07674E-001	4.72300E-004	...........
	12	3.35833	2.00141E-001	2.10877E-001	4.78200E-004	...........
	13	3.61667	2.03840E-001	2.13924E-001	4.79700E-004	...........
	14	3.875	2.07279E-001	2.16554E-001	4.73100E-004	...........
	15	4.13333	2.10483E-001	2.18988E-001	4.79700E-004	...........
	16	4.39167	2.13450E-001	2.21312E-001	4.78300E-004	...........
	17	4.65	2.16183E-001	2.23649E-001	4.82267E-004	...........
	18	4.90833	2.18712E-001	2.25500E-001	4.83267E-004	...........
EOC	QUANT	0.218712	Open Circuit (V)
PSTATMODEL	IQUANT	4	Pstat Model
PSTATSECTION	LABEL	REF600-11020	Pstat Section
PSTATSERIALNO	LABEL	11020	Pstat Serial Number
CTRLMODE	IQUANT	1	Control Mode
IESTAB	IQUANT	0	I/E Stability
CASPEED	IQUANT	1	Control Amp Speed
CONVENTION	IQUANT	1	Current Convention
ICHRANGE	IQUANT	2	Ich Range
ICHRANGEMODE	TOGGLE	F	Ich Auto Range
ICHOFFSETENABLE	TOGGLE	T	Ich Offset Enable
ICHOFFSET	QUANT	0	Ich Offset (V)
ICHFILTER	IQUANT	3	Ich Filter
VCHRANGE	IQUANT	2	Vch Range
VCHRANGEMODE	TOGGLE	F	Vch Auto Range
VCHOFFSETENABLE	TOGGLE	T	Vch Offset Enable
VCHOFFSET	QUANT	0	Vch Offset (V)
VCHFILTER	IQUANT	3	Vch Filter
ACHRANGE	IQUANT	2	Ach Range
ACHOFFSETENABLE	TOGGLE	F	Ach Offset Enable
ACHOFFSET	QUANT	0	Ach Offset (V)
ACHFILTER	IQUANT	3	Ach Filter
IERANGELOWERLIMIT	IQUANT	1	I/E Range Lower Limit
IERANGEMODE	TOGGLE	F	I/E AutoRange
IERANGE	IQUANT	4	I/E Range
POSFEEDENABLE	TOGGLE	F	Positive Feedback IR Comp
POSFEEDRESISTANCE	QUANT	0	Positive Feedback Resistance (ohm)
ACHSELECT	IQUANT	0	Ach Select
CABLEID	IQUANT	14	Cable ID
DCCALDATE	LABEL	8/19/2019	DC Calibration Date
ACCALDATE	LABEL	8/19/2019	AC Calibration Date
THERMOSELECT	IQUANT	1	Thermo Select
FRAMEWORKVERSION	QUANT	6.33	Framework Version
INSTRUMENTVERSION	LABEL	3.50	Instrument Version
ZCURVE	TABLE
	Pt	Time	Freq	Zreal	Zimag	Zsig	Zmod	Zphz	Idc	Vdc	IERange
	#	s	Hz	ohm	ohm	V	ohm	°	A	V	#
	0	2	1000078	2578.237	-1797.827	1	3143.165	-34.88841	1.304818E-005	0.2201126	8
	1	3	794390.6	2883.739	-1700.608	1	3347.838	-30.52884	1.140328E-005	0.2199018	8
	2	5	630984.4	3167.556	-1544.703	1	3524.133	-25.99682	9.896908E-006	0.2202107	8
	3	6	501234.4	3404.531	-1415.345	1	3687.009	-22.57383	1.145648E-005	0.2199863	8
	4	8	398109.4	3563.806	-1275.274	1	3785.108	-19.68926	1.282622E-005	0.2195051	8
	5	9	316265.6	3732.271	-1151.732	1	3905.935	-17.14957	1.172854E-005	0.2197176	8
	6	11	251203.1	3847.509	-1063.348	1	3991.745	-15.44937	9.918233E-006	0.2200714	8
	7	12	199546.9	3911.973	-951.651	1	4026.061	-13.67255	1.000304E-005	0.2200665	8
	8	14	158578.1	4100.042	-975.461	1	4214.483	-13.38272	1.137008E-005	0.2198962	8
	9	16	125953.1	4130.469	-879.0887	1	4222.981	-12.015	1.449794E-006	0.2185165	7
	10	17	100078.1	4197.872	-865.7132	1	4286.208	-11.65256	1.045362E-006	0.2200153	7
	11	18	79453.13	4270.448	-887.337	1	4361.662	-11.7382	1.035725E-006	0.2200805	7
	12	20	63140.62	4346.142	-930.9622	1	4444.731	-12.0903	1.098927E-006	0.2199675	7
	13	21	50203.12	4428.919	-998.832	1	4540.153	-12.709	1.040886E-006	0.22007	7
	14	22	39890.62	4513.495	-1093.563	1	4644.084	-13.61959	1.036336E-006	0.2200728	7
	15	24	31640.63	4612.194	-1214.597	1	4769.442	-14.75357	1.049216E-006	0.2200033	7
	16	25	25171.88	4716.964	-1365.843	1	4910.73	-16.14889	1.036922E-006	0.2200711	7
	17	26	20015.62	4841.081	-1555.931	1	5084.976	-17.81749	1.090487E-006	0.2199891	7
	18	28	15890.62	4979.269	-1771.285	1	5284.938	-19.5821	1.077568E-006	0.2199545	7
	19	29	12609.37	5138.816	-2049.825	1	5532.56	-21.74659	1.0237E-006	0.2200946	7
	20	30	10078.13	5321.443	-2362.37	1	5822.247	-23.93807	1.018147E-006	0.22009	7
	21	32	8015.625	5526.642	-2740.03	1	6168.593	-26.37155	1.048444E-006	0.2200008	7
	22	33	6328.125	5780.738	-3201.778	1	6608.2	-28.98076	1.092955E-006	0.2199909	7
	23	34	5015.625	6071.543	-3741.035	1	7131.548	-31.63967	1.026851E-006	0.2200988	7
	24	36	3984.375	6406.538	-4364.965	1	7752.203	-34.26777	1.017363E-006	0.220093	7
	25	37	3170.956	6791.511	-5100.83	1	8493.708	-36.90873	1.051585E-006	0.2200946	7
	26	38	2527.573	7246.731	-5948.195	1	9375.294	-39.37952	1.050615E-006	0.2200057	7
	27	40	1976.103	7818.799	-7054.223	1	10530.7	-42.05719	1.020904E-006	0.2200512	7
	28	41	1577.524	8444.776	-8232.491	1	11793.56	-44.27072	1.046919E-006	0.2200171	7
	29	43	1265.625	9156.89	-9566.62	1	13242.69	-46.25361	1.033427E-007	0.2199614	6
	30	44	998.264	10071.11	-11277.2	1	15119.61	-48.23353	9.977798E-008	0.2200731	6
	31	45	796.875	11098.74	-13174.39	1	17226.33	-49.88761	1.05182E-007	0.2198976	6
	32	47	627.7902	12351.3	-15501.26	1	19820.28	-51.4524	1.048712E-007	0.2198796	6
	33	48	505.5147	13714.08	-17983.8	1	22616.21	-52.67158	1.001686E-007	0.2200308	6
	34	49	397.9953	15472.23	-21140.5	1	26197.53	-53.80049	1.046469E-007	0.2196348	6
	35	51	315.5048	17474.69	-24731.88	1	30282.52	-54.75631	1.045618E-007	0.2196354	6
	36	52	252.4038	19715.48	-28747.69	1	34858.71	-55.55725	1.048408E-007	0.2196424	6
	37	53	198.6229	22517.55	-33767.47	1	40586.73	-56.30299	1.042737E-007	0.2196434	6
	38	55	158.3615	25578.21	-39309.02	1	46898.22	-56.94812	1.042658E-007	0.2196338	6
	39	56	125.558	29206.47	-45916.95	1	54418.6	-57.54071	1.046044E-007	0.2196288	6
	40	57	100.4464	33211.95	-53408.76	1	62893	-58.12481	1.048049E-007	0.2196293	6
	41	59	79.00281	38035.69	-62510.31	1	73172.76	-58.68072	1.064358E-007	0.2196318	6
	42	60	63.3446	43818.76	-73426.32	1	85507.36	-59.17244	1.088276E-007	0.2196247	6
	43	62	49.86702	49200.56	-85319.72	1	98489.3	-60.02962	1.085244E-007	0.2196269	6
	44	63	39.72458	56663.78	-100265.7	1	115169.4	-60.52763	1.08799E-007	0.2196283	6
	45	64	31.6723	64419.01	-117812.1	1	134273.9	-61.33039	1.086158E-007	0.2196275	6
	46	66	24.93351	73608.01	-139149.9	1	157419.3	-62.1219	1.175845E-008	0.2196252	5
	47	67	19.86229	83887.3	-164262.9	1	184443.5	-62.94709	1.221309E-008	0.219634	5
	48	68	15.83615	94346.12	-194321.5	1	216014	-64.10271	1.167444E-008	0.2196349	5
	49	70	12.40079	110129.5	-232583	1	257339	-64.66216	1.173189E-008	0.2196329	5
	50	71	9.93114	125903.8	-275532.3	1	302935.4	-65.44208	1.177499E-008	0.2196323	5
	51	73	7.944915	146289.2	-327110.6	1	358332.1	-65.90504	1.192827E-008	0.2196378	5
	52	74	6.317385	168923	-390627.5	1	425587.6	-66.6144	1.179785E-008	0.2196453	5
	53	76	5.008013	198124.6	-467770.9	1	507999	-67.04489	1.195318E-008	0.2196326	5
	54	79	3.945707	235792.2	-563510.6	1	610853.6	-67.29388	1.193192E-008	0.2196288	5
	55	81	3.158693	278520	-671111.6	1	726611.4	-67.46091	1.093181E-007	0.2196338	6
	56	85	2.504006	335516.2	-800706.9	1	868160.4	-67.2651	1.180018E-008	0.2199198	5
	57	88	1.998082	404260.8	-950540	1	1032934	-66.96014	1.180516E-008	0.2199551	5
	58	91	1.584686	490131.2	-1129066	1	1230861	-66.53419	1.178211E-008	0.2199192	5
	59	95	1.266892	600437.1	-1332810	1	1461816	-65.74821	1.997164E-009	0.2199542	4
	60	99	0.999041	739931.1	-1578111	1	1742967	-64.87946	2.022343E-009	0.2198711	4
