EXPLAIN
TAG	EISPOT
TITLE	LABEL	Potentiostatic EIS	Test &Identifier
DATE	LABEL	11/27/2019	Date
TIME	LABEL	13:04:16	Time
NOTES	NOTES	3	&Notes...
	
	
	
PSTAT	PSTAT	REF600-11020	Potentiostat
VDC	POTEN	0.00000E+000	T	DC &Voltage (V)
FREQINIT	QUANT	1.00000E+006	Initial Fre&q. (Hz)
FREQFINAL	QUANT	1.00000E+000	Final Fre&q. (Hz)
PTSPERDEC	QUANT	1.00000E+001	Points/&decade
VAC	QUANT	2.50000E+001	AC &Voltage (mV rms)
AREA	QUANT	1.00000E-002	&Area (cm^2)
CONDIT	TWOPARAM	T	5.00000E+000	0.00000E+000	Conditionin&g	Time(s)	E(V)
DELAY	TWOPARAM	T	5.00000E+000	0.00000E+000	Init. De&lay	Time(s)	Stab.(mV/s)
SPEED	SELECTOR	0	&Optimize for:
ZGUESS	QUANT	1.00000E+005	E&stimated Z (ohms)
OCVCURVE	TABLE	19
	Pt	T	Vf	Vm	Ach	Over
	#	s	V vs. Ref.	V	V	bits
	0	0.258333	4.63914E-003	4.63914E-003	5.44766E-004	...........
	1	0.516667	4.63463E-003	4.40287E-003	5.47099E-004	...........
	2	0.775	4.60955E-003	4.31688E-003	5.48533E-004	...........
	3	1.03333	4.54638E-003	4.18315E-003	5.53633E-004	...........
	4	1.29167	4.44548E-003	4.02485E-003	5.49633E-004	...........
	5	1.55	4.32331E-003	4.01022E-003	5.48966E-004	...........
	6	1.80833	4.19933E-003	3.88227E-003	5.55666E-004	...........
	7	2.06667	4.08718E-003	3.80204E-003	5.49699E-004	...........
	8	2.325	3.98981E-003	3.78815E-003	5.48733E-004	...........
	9	2.58333	3.90522E-003	3.67525E-003	5.43966E-004	...........
	10	2.84167	3.83174E-003	3.66089E-003	5.43633E-004	...........
	11	3.1	3.76734E-003	3.62792E-003	5.47133E-004	...........
	12	3.35833	3.71038E-003	3.50945E-003	5.49599E-004	...........
	13	3.61667	3.65785E-003	3.53891E-003	5.43466E-004	...........
	14	3.875	3.60703E-003	3.46180E-003	5.50833E-004	...........
	15	4.13333	3.55863E-003	3.39637E-003	5.53899E-004	...........
	16	4.39167	3.51281E-003	3.42782E-003	5.55966E-004	...........
	17	4.65	3.47139E-003	3.42138E-003	5.51266E-004	...........
	18	4.90833	3.44158E-003	3.44560E-003	5.52532E-004	...........
EOC	QUANT	0.0034416	Open Circuit (V)
PSTATMODEL	IQUANT	4	Pstat Model
PSTATSECTION	LABEL	REF600-11020	Pstat Section
PSTATSERIALNO	LABEL	11020	Pstat Serial Number
CTRLMODE	IQUANT	1	Control Mode
IESTAB	IQUANT	0	I/E Stability
CASPEED	IQUANT	1	Control Amp Speed
CONVENTION	IQUANT	1	Current Convention
ICHRANGE	IQUANT	2	Ich Range
ICHRANGEMODE	TOGGLE	F	Ich Auto Range
ICHOFFSETENABLE	TOGGLE	T	Ich Offset Enable
ICHOFFSET	QUANT	0	Ich Offset (V)
ICHFILTER	IQUANT	3	Ich Filter
VCHRANGE	IQUANT	2	Vch Range
VCHRANGEMODE	TOGGLE	F	Vch Auto Range
VCHOFFSETENABLE	TOGGLE	T	Vch Offset Enable
VCHOFFSET	QUANT	0	Vch Offset (V)
VCHFILTER	IQUANT	3	Vch Filter
ACHRANGE	IQUANT	2	Ach Range
ACHOFFSETENABLE	TOGGLE	F	Ach Offset Enable
ACHOFFSET	QUANT	0	Ach Offset (V)
ACHFILTER	IQUANT	3	Ach Filter
IERANGELOWERLIMIT	IQUANT	1	I/E Range Lower Limit
IERANGEMODE	TOGGLE	F	I/E AutoRange
IERANGE	IQUANT	4	I/E Range
POSFEEDENABLE	TOGGLE	F	Positive Feedback IR Comp
POSFEEDRESISTANCE	QUANT	0	Positive Feedback Resistance (ohm)
ACHSELECT	IQUANT	0	Ach Select
CABLEID	IQUANT	14	Cable ID
DCCALDATE	LABEL	8/19/2019	DC Calibration Date
ACCALDATE	LABEL	8/19/2019	AC Calibration Date
THERMOSELECT	IQUANT	1	Thermo Select
FRAMEWORKVERSION	QUANT	6.33	Framework Version
INSTRUMENTVERSION	LABEL	3.50	Instrument Version
ZCURVE	TABLE
	Pt	Time	Freq	Zreal	Zimag	Zsig	Zmod	Zphz	Idc	Vdc	IERange
	#	s	Hz	ohm	ohm	V	ohm	°	A	V	#
	0	1	1000078	2083.214	-1778.019	1	2738.82	-40.48069	-2.032226E-008	0.0062332	8
	1	2	794390.6	2432.775	-1801.808	1	3027.36	-36.52509	-5.566781E-006	0.0058297	8
	2	2	630984.4	2786.757	-1757.751	1	3294.8	-32.24173	1.039055E-006	0.0049146	8
	3	2	501234.4	3101.547	-1681.853	1	3528.204	-28.46932	-1.512728E-006	0.0055564	8
	4	3	398109.4	3397.185	-1557.337	1	3737.133	-24.62766	5.777962E-006	0.0043851	8
	5	3	316265.6	3647.185	-1444.47	1	3922.811	-21.60607	-5.833797E-006	0.0058978	8
	6	3	251203.1	3851.532	-1296.656	1	4063.941	-18.6063	-1.169035E-007	0.0054881	8
	7	4	199546.9	4048.254	-1153.568	1	4209.403	-15.90514	-1.68176E-007	0.0047996	8
	8	4	158578.1	4180.85	-1010.613	1	4301.261	-13.58911	1.635863E-006	0.0053421	8
	9	4	125953.1	4300.256	-885.647	1	4390.509	-11.63747	3.10592E-008	0.0075222	7
	10	5	100078.1	4402.139	-794.1569	1	4473.199	-10.22631	1.047129E-006	0.0039494	7
	11	5	79453.13	4486.493	-721.2091	1	4544.09	-9.132238	4.544611E-007	0.003438	7
	12	5	63140.62	4552.486	-665.9746	1	4600.94	-8.322658	-1.039857E-006	0.0065628	7
	13	5	50203.12	4611.91	-633.3388	1	4655.194	-7.819337	7.207779E-008	0.0059293	7
	14	6	39890.62	4659.772	-607.9082	1	4699.259	-7.43276	-6.945157E-007	0.0048737	7
	15	6	31640.63	4713.517	-602.4668	1	4751.863	-7.283871	-6.948611E-007	0.0048728	7
	16	6	25171.88	4771.152	-615.4042	1	4810.677	-7.349683	9.260972E-007	0.0034145	7
	17	7	20015.62	4813.253	-637.8458	1	4855.332	-7.548777	-1.155763E-006	0.0060446	7
	18	7	15890.62	4867.838	-678.0364	1	4914.833	-7.929654	-6.955831E-007	0.0048736	7
	19	7	12609.37	4927.304	-735.9916	1	4981.968	-8.495462	1.028364E-006	0.0036284	7
	20	8	10078.13	4978.896	-812.0363	1	5044.681	-9.263133	1.036524E-007	0.0037231	7
	21	8	8015.625	5040.866	-909.3199	1	5122.226	-10.22559	-2.743069E-007	0.0063028	7
	22	8	6328.125	5110.391	-1043.695	1	5215.879	-11.54278	3.70059E-007	0.0055218	7
	23	9	5015.625	5183.538	-1206.372	1	5322.067	-13.10131	1.039946E-007	0.0037106	7
	24	9	3984.375	5259.822	-1405.852	1	5444.46	-14.96429	5.839835E-007	0.0052095	7
	25	9	3170.956	5343.801	-1649.274	1	5592.523	-17.15196	-1.04066E-006	0.0065562	7
	26	10	2527.573	5447.258	-1949.013	1	5785.436	-19.68706	1.031638E-006	0.0036151	7
	27	10	1976.103	5561.104	-2351.938	1	6038.003	-22.92479	-8.506152E-007	0.0066067	7
	28	10	1577.524	5694.161	-2810.779	1	6350.114	-26.27209	-8.454785E-007	0.0066031	7
	29	11	1265.625	5840.628	-3346.323	1	6731.331	-29.81007	-1.159367E-006	0.0063884	7
	30	11	998.264	6031.872	-4062.534	1	7272.39	-33.96071	3.736734E-007	0.0055088	7
	31	12	796.875	6240.944	-4893.419	1	7930.633	-38.0994	7.305336E-007	0.003328	7
	32	12	627.7902	6515.359	-5940.222	1	8816.811	-42.35624	4.522662E-007	0.0034263	7
	33	12	505.5147	6800.729	-7122.883	1	9848.12	-46.32543	4.57064E-007	0.0034196	7
	34	12	397.9953	7210.214	-8703.442	1	11302.08	-50.36055	7.444421E-010	0.0049728	6
	35	13	315.5048	7678.958	-10593.7	1	13084.07	-54.06311	8.728714E-010	0.0049675	6
	36	13	252.4038	8237.396	-12806.52	1	15227.01	-57.25012	1.155156E-009	0.0049737	6
	37	13	198.6229	8995.465	-15725.41	1	18116.48	-60.22898	4.458844E-010	0.004969	6
	38	14	158.3615	9900.54	-19082.79	1	21498.23	-62.57879	1.675546E-009	0.0049684	6
	39	14	125.558	11113.07	-23289.36	1	25804.94	-64.49075	9.128805E-010	0.0049721	6
	40	14	100.4464	12589.29	-28195.11	1	30878.06	-65.93894	-2.608942E-010	0.0049683	6
	41	15	79.00281	14679.4	-34542.43	1	37532.18	-66.9761	7.954919E-010	0.004966	6
	42	15	63.3446	18032.52	-41202.34	1	44975.59	-66.36304	-2.60892E-010	0.0049732	6
	43	15	49.86702	21729.76	-50379.07	1	54865.59	-66.66825	-8.668301E-010	0.0049741	6
	44	16	39.72458	26011.19	-60316.72	1	65686.29	-66.6722	3.122259E-010	0.0049753	6
	45	16	31.6723	31783.92	-71913.16	1	78623.92	-66.1557	-2.387007E-010	0.004976	6
	46	16	24.93351	40509.25	-85586.55	1	94689.27	-64.67118	-2.065018E-010	0.0049646	6
	47	17	19.86229	50452.62	-100078.8	1	112076.9	-63.24599	-1.903253E-009	0.0049654	5
	48	17	15.83615	62440.86	-117342	1	132921	-61.98134	1.793054E-009	0.0049697	5
	49	17	12.40079	78401.12	-135429	1	156485.6	-59.93304	4.037037E-010	0.0049765	5
	50	18	9.93114	94598.51	-153191.7	1	180046	-58.30396	3.629983E-010	0.0049692	5
	51	18	7.944915	113188.5	-173068.8	1	206795.7	-56.81496	-9.985519E-010	0.0049841	5
	52	19	6.317385	134940.8	-195310.1	1	237392.2	-55.35919	-7.094299E-010	0.0049888	5
	53	20	5.008013	158953.5	-219680.5	1	271156.2	-54.11176	-2.164844E-010	0.0049754	5
	54	21	3.945707	186285.5	-246389.1	1	308884.9	-52.90845	2.042683E-010	0.0049679	5
	55	22	3.158693	212195.2	-276084.5	1	348208.9	-52.45456	2.377297E-010	0.0049892	5
	56	24	2.504006	241806.8	-310568.2	1	393602.8	-52.09586	6.791365E-011	0.0049761	5
	57	25	1.998082	271507.5	-350402.4	1	443281.2	-52.22987	-2.82639E-011	0.0049502	5
	58	27	1.584686	304727.3	-397402.1	1	500786.6	-52.51907	1.015154E-010	0.0049946	5
	59	29	1.266892	340114	-454314.9	1	567520.6	-53.18036	1.689909E-010	0.0050066	5
	60	31	0.999041	379913.8	-526437.3	1	649207.7	-54.18316	1.480926E-010	0.0049994	5
