EXPLAIN
TAG	EISPOT
TITLE	LABEL	Potentiostatic EIS	Test &Identifier
DATE	LABEL	11/3/2019	Date
TIME	LABEL	11:01:27	Time
NOTES	NOTES	1	&Notes...
	
PSTAT	PSTAT	REF600-11020	Potentiostat
VDC	POTEN	0.00000E+000	T	DC &Voltage (V)
FREQINIT	QUANT	1.00000E+006	Initial Fre&q. (Hz)
FREQFINAL	QUANT	1.00000E+000	Final Fre&q. (Hz)
PTSPERDEC	QUANT	1.00000E+001	Points/&decade
VAC	QUANT	2.50000E+001	AC &Voltage (mV rms)
AREA	QUANT	1.00000E-002	&Area (cm^2)
CONDIT	TWOPARAM	T	5.00000E+000	0.00000E+000	Conditionin&g	Time(s)	E(V)
DELAY	TWOPARAM	T	5.00000E+000	0.00000E+000	Init. De&lay	Time(s)	Stab.(mV/s)
SPEED	SELECTOR	1	&Optimize for:
ZGUESS	QUANT	1.00000E+005	E&stimated Z (ohms)
OCVCURVE	TABLE	19
	Pt	T	Vf	Vm	Ach	Over
	#	s	V vs. Ref.	V	V	bits
	0	0.258333	-3.25716E-004	-3.25716E-004	5.70966E-004	...........
	1	0.516667	-3.28079E-004	-4.49381E-004	5.74765E-004	...........
	2	0.775	-3.40023E-004	-4.32489E-004	5.66699E-004	...........
	3	1.03333	-3.70509E-004	-6.88965E-004	5.68499E-004	...........
	4	1.29167	-4.44805E-004	-1.64250E-003	5.70566E-004	...........
	5	1.55	-6.36244E-004	-2.55112E-003	5.71966E-004	...........
	6	1.80833	-1.02884E-003	-3.05830E-003	5.71166E-004	...........
	7	2.06667	-1.61044E-003	-3.33862E-003	5.69732E-004	...........
	8	2.325	-2.25237E-003	-3.62227E-003	5.67266E-004	...........
	9	2.58333	-2.81885E-003	-3.92124E-003	5.64966E-004	...........
	10	2.84167	-3.26139E-003	-4.21170E-003	5.64032E-004	...........
	11	3.1	-3.60992E-003	-4.54824E-003	5.63066E-004	...........
	12	3.35833	-3.91608E-003	-4.86919E-003	5.65632E-004	...........
	13	3.61667	-4.21672E-003	-5.19802E-003	5.65032E-004	...........
	14	3.875	-4.52635E-003	-5.50933E-003	5.62932E-004	...........
	15	4.13333	-4.84529E-003	-5.88249E-003	5.65932E-004	...........
	16	4.39167	-5.17066E-003	-6.16205E-003	5.73199E-004	...........
	17	4.65	-5.49731E-003	-6.40113E-003	5.68066E-004	...........
	18	4.90833	-5.81306E-003	-6.62753E-003	5.67032E-004	...........
EOC	QUANT	-0.0058131	Open Circuit (V)
PSTATMODEL	IQUANT	4	Pstat Model
PSTATSECTION	LABEL	REF600-11020	Pstat Section
PSTATSERIALNO	LABEL	11020	Pstat Serial Number
CTRLMODE	IQUANT	1	Control Mode
IESTAB	IQUANT	0	I/E Stability
CASPEED	IQUANT	1	Control Amp Speed
CONVENTION	IQUANT	1	Current Convention
ICHRANGE	IQUANT	2	Ich Range
ICHRANGEMODE	TOGGLE	F	Ich Auto Range
ICHOFFSETENABLE	TOGGLE	T	Ich Offset Enable
ICHOFFSET	QUANT	0	Ich Offset (V)
ICHFILTER	IQUANT	3	Ich Filter
VCHRANGE	IQUANT	2	Vch Range
VCHRANGEMODE	TOGGLE	F	Vch Auto Range
VCHOFFSETENABLE	TOGGLE	T	Vch Offset Enable
VCHOFFSET	QUANT	0	Vch Offset (V)
VCHFILTER	IQUANT	3	Vch Filter
ACHRANGE	IQUANT	2	Ach Range
ACHOFFSETENABLE	TOGGLE	F	Ach Offset Enable
ACHOFFSET	QUANT	0	Ach Offset (V)
ACHFILTER	IQUANT	3	Ach Filter
IERANGELOWERLIMIT	IQUANT	1	I/E Range Lower Limit
IERANGEMODE	TOGGLE	F	I/E AutoRange
IERANGE	IQUANT	5	I/E Range
POSFEEDENABLE	TOGGLE	F	Positive Feedback IR Comp
POSFEEDRESISTANCE	QUANT	0	Positive Feedback Resistance (ohm)
ACHSELECT	IQUANT	0	Ach Select
CABLEID	IQUANT	14	Cable ID
DCCALDATE	LABEL	8/19/2019	DC Calibration Date
ACCALDATE	LABEL	8/19/2019	AC Calibration Date
THERMOSELECT	IQUANT	1	Thermo Select
FRAMEWORKVERSION	QUANT	6.33	Framework Version
INSTRUMENTVERSION	LABEL	3.50	Instrument Version
ZCURVE	TABLE
	Pt	Time	Freq	Zreal	Zimag	Zsig	Zmod	Zphz	Idc	Vdc	IERange
	#	s	Hz	ohm	ohm	V	ohm	°	A	V	#
	0	2	1000078	2073.024	-1516.098	1	2568.264	-36.17971	2.290555E-006	-0.0027705	8
	1	3	794390.6	2400.873	-1468.266	1	2814.249	-31.44808	-5.701371E-006	-0.0030633	8
	2	5	630984.4	2679.909	-1374.904	1	3012.022	-27.1597	3.978402E-006	-0.0046259	8
	3	6	501234.4	2903.95	-1238.189	1	3156.904	-23.09247	-3.629529E-006	-0.0034978	8
	4	7	398109.4	3092.912	-1097.361	1	3281.815	-19.53462	-7.670336E-008	-0.0036824	8
	5	9	316265.6	3253.061	-965.444	1	3393.3	-16.52985	6.226905E-006	-0.0049635	8
	6	10	251203.1	3362.794	-854.4514	1	3469.65	-14.25657	-3.950895E-006	-0.0036579	8
	7	11	199546.9	3452.564	-736.8862	1	3530.326	-12.04796	2.391911E-006	-0.0047584	8
	8	13	158578.1	3514.29	-649.3929	1	3573.785	-10.46939	2.241456E-006	-0.0047569	8
	9	15	125953.1	3605.663	-527.6217	1	3644.062	-8.325086	1.217728E-006	-0.0027443	7
	10	16	100078.1	3638.728	-479.325	1	3670.162	-7.504293	3.977909E-007	-0.0037293	7
	11	17	79453.13	3679.505	-440.7771	1	3705.812	-6.831052	1.216705E-007	-0.0056766	7
	12	19	63140.62	3717.489	-423.6731	1	3741.553	-6.501807	4.996938E-007	-0.0059779	7
	13	20	50203.12	3751.318	-413.307	1	3774.018	-6.287288	1.223299E-007	-0.0056766	7
	14	21	39890.62	3786.065	-414.3157	1	3808.667	-6.245128	3.998193E-007	-0.0037366	7
	15	23	31640.63	3820.407	-423.981	1	3843.862	-6.332655	-2.966849E-007	-0.0028927	7
	16	24	25171.88	3859.507	-443.6394	1	3884.92	-6.55721	7.444061E-008	-0.0032931	7
	17	25	20015.62	3900.082	-476.4466	1	3929.077	-6.964926	-1.069986E-006	-0.0037548	7
	18	27	15890.62	3939.752	-516.428	1	3973.455	-7.467832	6.292178E-007	-0.0040699	7
	19	28	12609.37	3986.204	-573.4751	1	4027.244	-8.186684	7.99741E-007	-0.0060946	7
	20	29	10078.13	4019.176	-640.051	1	4069.82	-9.048336	1.113471E-006	-0.005774	7
	21	31	8015.625	4083.375	-721.6251	1	4146.649	-10.02199	1.127706E-006	-0.0054372	7
	22	32	6328.125	4134.938	-831.9857	1	4217.81	-11.37651	8.002833E-007	-0.0060939	7
	23	33	5015.625	4186.329	-962.736	1	4295.604	-12.95121	-1.255303E-006	-0.0027928	7
	24	35	3984.375	4255.33	-1124.641	1	4401.438	-14.80421	1.112332E-006	-0.0057759	7
	25	36	3170.956	4324.788	-1326.786	1	4523.732	-17.05531	1.004547E-006	-0.0060139	7
	26	38	2527.573	4400.487	-1570.677	1	4672.399	-19.64313	1.126326E-006	-0.005446	7
	27	39	1976.103	4490.251	-1893.839	1	4873.292	-22.8684	-1.246088E-006	-0.0031791	7
	28	40	1577.524	4583.938	-2278.904	1	5119.169	-26.43426	8.007724E-007	-0.0060972	7
	29	42	1265.625	4707.809	-2703.953	1	5429.073	-29.87112	1.004389E-006	-0.0060105	7
	30	43	998.264	4847.895	-3271.358	1	5848.407	-34.01147	-9.172039E-007	-0.0025626	7
	31	44	796.875	5008.155	-3937.833	1	6370.882	-38.17741	-1.243E-006	-0.003178	7
	32	46	627.7902	5206.884	-4820.829	1	7095.917	-42.79527	1.038302E-006	-0.0050128	7
	33	47	505.5147	5412.739	-5781.99	1	7920.173	-46.88918	4.95986E-007	-0.0059925	7
	34	48	397.9953	5700.294	-7082.632	1	9091.591	-51.17195	1.850275E-009	-0.004258	7
	35	50	315.5048	6029.866	-8645.441	1	10540.54	-55.10569	9.728429E-010	-0.0043176	6
	36	51	252.4038	6411.614	-10492.53	1	12296.42	-58.57236	1.345375E-009	-0.0043203	6
	37	53	198.6229	6918.226	-12933.35	1	14667.42	-61.85706	1.287404E-009	-0.0043194	6
	38	54	158.3615	7521.285	-15771.27	1	17472.91	-64.50362	1.144912E-009	-0.0043209	6
	39	55	125.558	8307.862	-19349.22	1	21057.37	-66.76305	1.141233E-009	-0.0043282	6
	40	57	100.4464	9287.979	-23569.45	1	25333.49	-68.49216	1.396703E-009	-0.0043191	6
	41	58	79.00281	10670.22	-29012.74	1	30912.67	-69.80764	7.300312E-011	-0.0043195	6
	42	59	63.3446	11996.22	-35278.59	1	37262.42	-71.21979	5.620246E-010	-0.004325	6
	43	61	49.86702	14747.25	-43066.7	1	45521.66	-71.09736	1.664744E-009	-0.0043245	6
	44	62	39.72458	17795.64	-52628.78	1	55556.04	-71.31779	1.548518E-009	-0.0043308	6
	45	63	31.6723	21579.36	-63730.45	1	67284.76	-71.29372	1.555074E-009	-0.004334	6
	46	65	24.93351	27150.59	-77630.09	1	82241.02	-70.72307	1.143922E-009	-0.0043305	6
	47	66	19.86229	34183.88	-93286.41	1	99352.4	-69.87514	1.504662E-010	-0.0043253	6
	48	68	15.83615	42583.54	-111512.1	1	119366.3	-69.09946	6.661388E-010	-0.004332	5
	49	69	12.40079	55212.75	-133822.1	1	144764.7	-67.57979	1.012243E-009	-0.0043229	5
	50	71	9.93114	69916.8	-156928.9	1	171799.4	-65.98551	1.303881E-009	-0.0043272	5
	51	72	7.944915	86774.73	-183316.1	1	202816.8	-64.66894	-1.160753E-012	-0.004312	5
	52	74	6.317385	109738.5	-212509.6	1	239171.2	-62.68848	1.099597E-010	-0.0043004	5
	53	76	5.008013	136656.6	-244692.5	1	280266.7	-60.81738	6.438199E-010	-0.004314	5
	54	78	3.945707	168658.7	-280728.8	1	327497.2	-59.00303	6.051301E-010	-0.0043153	5
	55	81	3.158693	202008.6	-316196.7	1	375217	-57.42672	5.35355E-010	-0.0042982	5
	56	84	2.504006	239646.4	-357350.9	1	430267.4	-56.15343	1.965122E-010	-0.0043234	5
	57	87	1.998082	279447.8	-401505.2	1	489180.5	-55.16206	1.969975E-010	-0.0043376	5
	58	90	1.584686	322740.8	-451494.9	1	554985.8	-54.44178	3.606777E-010	-0.0042771	5
	59	94	1.266892	367032.7	-510700.3	1	628909.9	-54.29576	2.443532E-010	-0.0043359	5
	60	98	0.999041	419872.3	-584183.9	1	719418.9	-54.29395	3.543192E-010	-0.0042807	5
