EXPLAIN
TAG	EISPOT
TITLE	LABEL	Potentiostatic EIS	Test &Identifier
DATE	LABEL	9/20/2019	Date
TIME	LABEL	9:59:52	Time
NOTES	NOTES	1	&Notes...
	
PSTAT	PSTAT	REF600-11020	Potentiostat
VDC	POTEN	0.00000E+000	T	DC &Voltage (V)
FREQINIT	QUANT	1.00000E+006	Initial Fre&q. (Hz)
FREQFINAL	QUANT	1.00000E+000	Final Fre&q. (Hz)
PTSPERDEC	QUANT	1.00000E+001	Points/&decade
VAC	QUANT	2.50000E+001	AC &Voltage (mV rms)
AREA	QUANT	1.00000E-002	&Area (cm^2)
CONDIT	TWOPARAM	T	5.00000E+000	0.00000E+000	Conditionin&g	Time(s)	E(V)
DELAY	TWOPARAM	T	5.00000E+000	0.00000E+000	Init. De&lay	Time(s)	Stab.(mV/s)
SPEED	SELECTOR	1	&Optimize for:
ZGUESS	QUANT	1.00000E+004	E&stimated Z (ohms)
OCVCURVE	TABLE	19
	Pt	T	Vf	Vm	Ach	Over
	#	s	V vs. Ref.	V	V	bits
	0	0.258333	6.09225E-002	6.09225E-002	5.76532E-004	...........
	1	0.516667	6.09822E-002	6.40461E-002	5.76499E-004	...........
	2	0.775	6.13441E-002	6.67696E-002	5.76832E-004	...........
	3	1.03333	6.23489E-002	6.91796E-002	5.78299E-004	...........
	4	1.29167	6.40973E-002	7.13299E-002	5.76232E-004	...........
	5	1.55	6.63339E-002	7.32666E-002	5.79132E-004	...........
	6	1.80833	6.86929E-002	7.50242E-002	5.76632E-004	...........
	7	2.06667	7.09297E-002	7.66285E-002	5.75632E-004	...........
	8	2.325	7.29551E-002	7.81093E-002	5.70999E-004	...........
	9	2.58333	7.47725E-002	7.94835E-002	5.82165E-004	...........
	10	2.84167	7.64157E-002	8.07408E-002	5.81365E-004	...........
	11	3.1	7.79173E-002	8.19051E-002	5.75099E-004	...........
	12	3.35833	7.92990E-002	8.29956E-002	5.74932E-004	...........
	13	3.61667	8.05751E-002	8.40033E-002	5.78199E-004	...........
	14	3.875	8.17570E-002	8.49371E-002	5.75499E-004	...........
	15	4.13333	8.28536E-002	8.58183E-002	5.70266E-004	...........
	16	4.39167	8.38731E-002	8.66564E-002	5.76232E-004	...........
	17	4.65	8.48246E-002	8.74562E-002	5.74932E-004	...........
	18	4.90833	8.57183E-002	8.82065E-002	5.74999E-004	...........
EOC	QUANT	0.0857183	Open Circuit (V)
PSTATMODEL	IQUANT	4	Pstat Model
PSTATSECTION	LABEL	REF600-11020	Pstat Section
PSTATSERIALNO	LABEL	11020	Pstat Serial Number
CTRLMODE	IQUANT	1	Control Mode
IESTAB	IQUANT	0	I/E Stability
CASPEED	IQUANT	1	Control Amp Speed
CONVENTION	IQUANT	1	Current Convention
ICHRANGE	IQUANT	2	Ich Range
ICHRANGEMODE	TOGGLE	F	Ich Auto Range
ICHOFFSETENABLE	TOGGLE	T	Ich Offset Enable
ICHOFFSET	QUANT	0	Ich Offset (V)
ICHFILTER	IQUANT	3	Ich Filter
VCHRANGE	IQUANT	2	Vch Range
VCHRANGEMODE	TOGGLE	F	Vch Auto Range
VCHOFFSETENABLE	TOGGLE	T	Vch Offset Enable
VCHOFFSET	QUANT	0	Vch Offset (V)
VCHFILTER	IQUANT	3	Vch Filter
ACHRANGE	IQUANT	2	Ach Range
ACHOFFSETENABLE	TOGGLE	F	Ach Offset Enable
ACHOFFSET	QUANT	0	Ach Offset (V)
ACHFILTER	IQUANT	3	Ach Filter
IERANGELOWERLIMIT	IQUANT	1	I/E Range Lower Limit
IERANGEMODE	TOGGLE	F	I/E AutoRange
IERANGE	IQUANT	7	I/E Range
POSFEEDENABLE	TOGGLE	F	Positive Feedback IR Comp
POSFEEDRESISTANCE	QUANT	0	Positive Feedback Resistance (ohm)
ACHSELECT	IQUANT	0	Ach Select
CABLEID	IQUANT	14	Cable ID
DCCALDATE	LABEL	8/19/2019	DC Calibration Date
ACCALDATE	LABEL	8/19/2019	AC Calibration Date
THERMOSELECT	IQUANT	1	Thermo Select
FRAMEWORKVERSION	QUANT	6.33	Framework Version
INSTRUMENTVERSION	LABEL	3.50	Instrument Version
ZCURVE	TABLE
	Pt	Time	Freq	Zreal	Zimag	Zsig	Zmod	Zphz	Idc	Vdc	IERange
	#	s	Hz	ohm	ohm	V	ohm	°	A	V	#
	0	2	1000078	2343.862	-1470.951	1	2767.198	-32.11139	-2.15277E-006	0.0891462	8
	1	3	794390.6	2625.896	-1374.464	1	2963.862	-27.62875	-3.642609E-006	0.0887022	8
	2	5	630984.4	2876.091	-1241.351	1	3132.547	-23.34554	6.015689E-006	0.0865932	8
	3	6	501234.4	3071.337	-1113.523	1	3266.962	-19.92827	5.273995E-007	0.0871615	8
	4	8	398109.4	3218.483	-976.824	1	3363.453	-16.88328	3.179426E-006	0.0867297	8
	5	9	316265.6	3335.792	-863.075	1	3445.636	-14.50613	-6.184352E-007	0.0875691	8
	6	10	251203.1	3407.891	-726.0135	1	3484.367	-12.02644	-6.327019E-009	0.0872675	8
	7	12	199546.9	3490.512	-640.8046	1	3548.845	-10.40279	1.057849E-006	0.0873311	8
	8	13	158578.1	3546.27	-563.422	1	3590.748	-9.02755	-4.332513E-006	0.0883606	8
	9	14	125953.1	3608.226	-454.9224	1	3636.791	-7.185892	-6.857882E-007	0.0893492	7
	10	16	100078.1	3639.634	-417.6205	1	3663.515	-6.545632	4.780105E-008	0.0871957	7
	11	17	79453.13	3671.527	-397.3779	1	3692.969	-6.177209	-8.697202E-008	0.0874191	7
	12	18	63140.62	3705.021	-387.9143	1	3725.273	-5.977071	2.347428E-008	0.0872586	7
	13	20	50203.12	3739.39	-386.8802	1	3759.35	-5.906851	-5.11749E-008	0.0873308	7
	14	21	39890.62	3774.417	-394.0269	1	3794.928	-5.959754	-5.092023E-008	0.0873301	7
	15	23	31640.63	3812.336	-411.9852	1	3834.532	-6.167809	-4.699624E-008	0.0873102	7
	16	24	25171.88	3852.461	-436.9099	1	3877.157	-6.470303	2.516203E-008	0.0871648	7
	17	25	20015.62	3895.362	-471.3806	1	3923.779	-6.899856	-2.322739E-008	0.0873401	7
	18	27	15890.62	3944.117	-515.2867	1	3977.635	-7.443357	-5.736485E-008	0.0873146	7
	19	28	12609.37	3996.515	-569.1451	1	4036.838	-8.105014	5.004823E-008	0.0871835	7
	20	29	10078.13	4051.255	-632.653	1	4100.356	-8.875749	-5.005449E-008	0.0873266	7
	21	31	8015.625	4114.027	-708.8892	1	4174.655	-9.77665	6.49987E-008	0.0871182	7
	22	32	6328.125	4185.644	-803.5469	1	4262.077	-10.86725	2.382865E-010	0.0872113	7
	23	33	5015.625	4262.085	-915.3562	1	4359.271	-12.12113	-5.309864E-008	0.0873087	7
	24	35	3984.375	4343.421	-1046.362	1	4467.682	-13.54488	-1.723752E-008	0.0872962	7
	25	36	3170.956	4431.912	-1203.247	1	4592.346	-15.18945	6.393606E-008	0.0871198	7
	26	37	2527.573	4529.133	-1388.647	1	4737.234	-17.04571	-2.886722E-008	0.0874163	7
	27	39	1976.103	4643.679	-1632.402	1	4922.244	-19.36821	2.349618E-008	0.0871532	7
	28	40	1577.524	4765.126	-1905.284	1	5131.914	-21.79346	-4.551168E-008	0.0873031	7
	29	41	1265.625	4883.222	-2230.707	1	5368.604	-24.55141	-2.526204E-008	0.0872489	7
	30	43	998.264	5050.131	-2644.976	1	5700.853	-27.64303	-2.846995E-008	0.0873285	7
	31	44	796.875	5221.465	-3134.344	1	6089.976	-30.97557	-1.456217E-008	0.0872933	7
	32	45	627.7902	5432.045	-3764.763	1	6609.126	-34.72449	5.014267E-008	0.087179	7
	33	47	505.5147	5661.373	-4463.384	1	7209.226	-38.25198	-4.601959E-008	0.0872977	7
	34	48	397.9953	5968.2	-5408.587	1	8054.33	-42.18395	-9.170146E-009	0.0873104	7
	35	50	315.5048	6346.179	-6532.26	1	9107.382	-45.82781	-9.777178E-009	0.087306	7
	36	51	252.4038	6815.728	-7839.53	1	10388.09	-48.99614	-1.42373E-008	0.0872442	6
	37	52	198.6229	7475.74	-9533.32	1	12114.9	-51.89754	-1.328266E-008	0.0872451	6
	38	54	158.3615	8304.872	-11447.15	1	14142.43	-54.03924	-1.416685E-008	0.0872458	6
	39	55	125.558	9425.261	-13748.77	1	16669.26	-55.56801	-1.357625E-008	0.0872506	6
	40	56	100.4464	10847.34	-16312.01	1	19589.45	-56.37646	-1.470108E-008	0.0872445	6
	41	58	79.00281	12840.82	-19431.76	1	23291.2	-56.54262	-1.434599E-008	0.0872487	6
	42	59	63.3446	15292.34	-22591.79	1	27280.84	-55.90601	-1.44205E-008	0.0872495	6
	43	60	49.86702	18188.99	-26553.85	1	32186.12	-55.58944	-1.504129E-008	0.0872469	6
	44	62	39.72458	21835.82	-30240.24	1	37299.8	-54.16778	-1.279979E-008	0.0872472	6
	45	63	31.6723	26134.63	-34298.46	1	43120.8	-52.69345	-1.525476E-008	0.0872461	6
	46	65	24.93351	31231.26	-38525.53	1	49594.44	-50.96956	-1.324504E-008	0.087242	6
	47	66	19.86229	36798.81	-42708.66	1	56375.37	-49.25102	-1.445684E-008	0.0872483	6
	48	67	15.83615	42716.58	-47114.6	1	63596.32	-47.80289	-1.157678E-008	0.0872444	6
	49	69	12.40079	49565.84	-51731.04	1	71644.07	-46.22449	-1.314792E-008	0.0872473	6
	50	70	9.93114	56450.26	-56407.88	1	79802.77	-44.97849	-1.404545E-008	0.0872535	6
	51	72	7.944915	63803.49	-61391.9	1	88542.94	-43.89647	-1.245657E-008	0.0872509	6
	52	73	6.317385	71480.69	-66964.53	1	97947.6	-43.13165	-1.341609E-008	0.0872573	6
	53	75	5.008013	80140.59	-73584.2	1	108798.7	-42.55781	-1.510534E-008	0.0872494	5
	54	78	3.945707	89708.46	-81268.02	1	121045.9	-42.17382	-1.352668E-008	0.0872598	5
	55	80	3.158693	99552.2	-89492.93	1	133864.2	-41.9541	-1.438266E-008	0.0872394	5
	56	83	2.504006	111033.8	-99212.8	1	148901.6	-41.78197	-1.233776E-008	0.0872489	5
	57	86	1.998082	123306.5	-109520.8	1	164922.2	-41.61147	-1.340257E-008	0.0872902	5
	58	89	1.584686	137220.5	-121957.1	1	183583.8	-41.62966	-1.315537E-008	0.0872566	5
	59	93	1.266892	152731	-134802.1	1	203711.5	-41.43197	-1.365616E-008	0.0872971	5
	60	97	0.999041	171134.5	-150317.5	1	227777	-41.29475	-1.320454E-008	0.0872193	5
