EXPLAIN
TAG	EISPOT
TITLE	LABEL	Potentiostatic IDE	Test &Identifier
DATE	LABEL	9/18/2019	Date
TIME	LABEL	7:41:45	Time
NOTES	NOTES	1	&Notes...
	
PSTAT	PSTAT	REF600-11020	Potentiostat
VDC	POTEN	0.00000E+000	T	DC &Voltage (V)
FREQINIT	QUANT	1.00000E+006	Initial Fre&q. (Hz)
FREQFINAL	QUANT	1.00000E+000	Final Fre&q. (Hz)
PTSPERDEC	QUANT	1.00000E+001	Points/&decade
VAC	QUANT	2.50000E+001	AC &Voltage (mV rms)
AREA	QUANT	1.00000E-002	&Area (cm^2)
CONDIT	TWOPARAM	T	5.00000E+000	0.00000E+000	Conditionin&g	Time(s)	E(V)
DELAY	TWOPARAM	T	5.00000E+000	0.00000E+000	Init. De&lay	Time(s)	Stab.(mV/s)
SPEED	SELECTOR	1	&Optimize for:
ZGUESS	QUANT	1.00000E+007	E&stimated Z (ohms)
OCVCURVE	TABLE	19
	Pt	T	Vf	Vm	Ach	Over
	#	s	V vs. Ref.	V	V	bits
	0	0.258333	3.09442E-002	3.09442E-002	5.72732E-004	...........
	1	0.516667	3.09724E-002	3.24210E-002	5.72266E-004	...........
	2	0.775	3.11445E-002	3.37616E-002	5.75532E-004	...........
	3	1.03333	3.16254E-002	3.49308E-002	5.75232E-004	...........
	4	1.29167	3.24681E-002	3.60183E-002	5.69066E-004	...........
	5	1.55	3.35559E-002	3.70447E-002	5.73132E-004	...........
	6	1.80833	3.47197E-002	3.79671E-002	5.72299E-004	...........
	7	2.06667	3.58456E-002	3.88330E-002	5.70266E-004	...........
	8	2.325	3.68883E-002	3.96244E-002	5.74132E-004	...........
	9	2.58333	3.78427E-002	4.03808E-002	5.70532E-004	...........
	10	2.84167	3.87196E-002	4.11067E-002	5.73666E-004	...........
	11	3.1	3.95339E-002	4.17827E-002	5.73532E-004	...........
	12	3.35833	4.02984E-002	4.24318E-002	5.68032E-004	...........
	13	3.61667	4.10208E-002	4.30312E-002	5.71099E-004	...........
	14	3.875	4.17046E-002	4.36072E-002	5.71799E-004	...........
	15	4.13333	4.23513E-002	4.41599E-002	5.69399E-004	...........
	16	4.39167	4.29636E-002	4.46925E-002	5.75832E-004	...........
	17	4.65	4.35457E-002	4.52012E-002	5.74565E-004	...........
	18	4.90833	4.41030E-002	4.57470E-002	5.73965E-004	...........
EOC	QUANT	0.044103	Open Circuit (V)
PSTATMODEL	IQUANT	4	Pstat Model
PSTATSECTION	LABEL	REF600-11020	Pstat Section
PSTATSERIALNO	LABEL	11020	Pstat Serial Number
CTRLMODE	IQUANT	1	Control Mode
IESTAB	IQUANT	0	I/E Stability
CASPEED	IQUANT	1	Control Amp Speed
CONVENTION	IQUANT	1	Current Convention
ICHRANGE	IQUANT	2	Ich Range
ICHRANGEMODE	TOGGLE	F	Ich Auto Range
ICHOFFSETENABLE	TOGGLE	T	Ich Offset Enable
ICHOFFSET	QUANT	0	Ich Offset (V)
ICHFILTER	IQUANT	3	Ich Filter
VCHRANGE	IQUANT	2	Vch Range
VCHRANGEMODE	TOGGLE	F	Vch Auto Range
VCHOFFSETENABLE	TOGGLE	T	Vch Offset Enable
VCHOFFSET	QUANT	0	Vch Offset (V)
VCHFILTER	IQUANT	3	Vch Filter
ACHRANGE	IQUANT	2	Ach Range
ACHOFFSETENABLE	TOGGLE	F	Ach Offset Enable
ACHOFFSET	QUANT	0	Ach Offset (V)
ACHFILTER	IQUANT	3	Ach Filter
IERANGELOWERLIMIT	IQUANT	1	I/E Range Lower Limit
IERANGEMODE	TOGGLE	F	I/E AutoRange
IERANGE	IQUANT	3	I/E Range
POSFEEDENABLE	TOGGLE	F	Positive Feedback IR Comp
POSFEEDRESISTANCE	QUANT	0	Positive Feedback Resistance (ohm)
ACHSELECT	IQUANT	0	Ach Select
CABLEID	IQUANT	14	Cable ID
DCCALDATE	LABEL	8/19/2019	DC Calibration Date
ACCALDATE	LABEL	8/19/2019	AC Calibration Date
THERMOSELECT	IQUANT	1	Thermo Select
FRAMEWORKVERSION	QUANT	6.33	Framework Version
INSTRUMENTVERSION	LABEL	3.50	Instrument Version
ZCURVE	TABLE
	Pt	Time	Freq	Zreal	Zimag	Zsig	Zmod	Zphz	Idc	Vdc	IERange
	#	s	Hz	ohm	ohm	V	ohm	°	A	V	#
	0	2	1000078	1367.589	-1498.888	1	2029.031	-47.6226	-2.001465E-006	0.0459351	8
	1	4	794390.6	1493.047	-1709.848	1	2269.971	-48.87239	-8.41711E-007	0.0461214	8
	2	5	630984.4	1575.571	-1977.571	1	2528.48	-51.45496	6.740678E-007	0.0456292	8
	3	6	501234.4	1663.897	-2337.063	1	2868.87	-54.55063	-4.25236E-006	0.0464743	8
	4	8	398109.4	1797.222	-2793.519	1	3321.71	-57.24463	-1.493819E-006	0.0459392	8
	5	9	316265.6	1957.78	-3364.6	1	3892.742	-59.8059	-8.482206E-007	0.0456979	8
	6	10	251203.1	2181.314	-4064.243	1	4612.613	-61.77716	2.035928E-006	0.0451811	8
	7	12	199546.9	2455.2	-4907.687	1	5487.568	-63.42228	2.014192E-006	0.0451104	8
	8	13	158578.1	2843.078	-5990.818	1	6631.213	-64.61227	-3.42531E-006	0.0463148	8
	9	15	125953.1	3413.02	-7218.299	1	7984.519	-64.69387	-2.462865E-007	0.0465433	7
	10	16	100078.1	4172.837	-8664.347	1	9616.83	-64.28406	4.011045E-008	0.045492	7
	11	18	79453.13	5150.731	-10380.53	1	11588.16	-63.60978	1.63686E-008	0.0455861	7
	12	19	63140.62	6483.683	-12283.45	1	13889.61	-62.17316	6.014833E-008	0.0453863	7
	13	20	50203.12	8195.989	-14380.99	1	16552.56	-60.3204	6.294371E-008	0.045489	7
	14	22	39890.62	10407.34	-16568.57	1	19566.05	-57.86553	-3.108562E-009	0.0455196	7
	15	23	31640.63	13076.27	-18772.85	1	22878.13	-55.14077	-1.855041E-008	0.0456233	7
	16	25	25171.88	16242.14	-20886.49	1	26458.51	-52.13	1.982365E-008	0.0455695	7
	17	26	20015.62	19820.96	-22683.41	1	30123.21	-48.85276	-3.740526E-008	0.0455845	7
	18	27	15890.62	23924.91	-24364.22	1	34146.98	-45.52124	2.076596E-008	0.0454454	7
	19	29	12609.37	28029.64	-25430.84	1	37846.91	-42.21696	8.946983E-009	0.0452631	6
	20	30	10078.13	32000.54	-26425.67	1	41501.21	-39.54949	9.678791E-009	0.0452508	6
	21	31	8015.625	36165.91	-27401.2	1	45373.99	-37.14949	8.354558E-009	0.0453322	6
	22	33	6328.125	40355.05	-28325.83	1	49303.98	-35.06561	6.930467E-009	0.0454096	6
	23	34	5015.625	44500.12	-29242.24	1	53248.19	-33.31001	-1.604529E-009	0.0455533	6
	24	35	3984.375	48384.32	-30279.05	1	57077.7	-32.03846	2.882916E-009	0.0454998	6
	25	37	3170.956	52542.69	-31422.18	1	61221.63	-30.88075	-1.954265E-009	0.0454993	6
	26	38	2527.573	56743.87	-33015.83	1	65649.92	-30.19254	-9.026385E-009	0.0455514	7
	27	40	1976.103	61415.06	-34799.18	1	70588.9	-29.53689	8.057022E-009	0.0453987	6
	28	41	1577.524	65885.39	-36935.64	1	75532.28	-29.27518	4.280511E-010	0.045498	6
	29	43	1265.625	70456.13	-39044.31	1	80551.38	-28.99368	1.5952E-009	0.0453342	6
	30	44	998.264	76132.55	-42137.03	1	87015.49	-28.96318	1.906782E-009	0.0455087	6
	31	45	796.875	81697.55	-45119.49	1	93328.77	-28.91076	5.910376E-009	0.045405	6
	32	47	627.7902	88449.29	-48117.19	1	100690.3	-28.54658	-1.03756E-009	0.0455751	5
	33	48	505.5147	94893.08	-51595.18	1	108012.8	-28.53377	-1.280829E-009	0.0455759	5
	34	49	397.9953	102536.5	-55561.3	1	116622.4	-28.45188	-2.252528E-009	0.0454835	5
	35	50	315.5048	110625.8	-59378.61	1	125554.3	-28.22476	-7.516022E-010	0.0454815	5
	36	52	252.4038	118472.4	-63214.32	1	134282.4	-28.08341	-7.807725E-010	0.045485	5
	37	53	198.6229	127157.9	-67714.98	1	144064	-28.0365	-7.05576E-010	0.0454872	5
	38	54	158.3615	135328.8	-72729.53	1	153634.2	-28.25484	-6.674752E-010	0.0454807	5
	39	56	125.558	143956.3	-78517.2	1	163976.7	-28.60911	-7.803604E-010	0.0454814	5
	40	57	100.4464	153318.9	-85662.95	1	175626.9	-29.19315	-1.195565E-009	0.0454766	5
	41	59	79.00281	163632	-95426.5	1	189424.5	-30.24978	-2.354354E-010	0.0454741	5
	42	60	63.3446	169330.8	-99228	1	196262.9	-30.37033	-8.087017E-010	0.045479	5
	43	61	49.86702	185813.6	-116500.4	1	219315	-32.08667	-5.945557E-010	0.0454802	5
	44	63	39.72458	198093.8	-131872.2	1	237973.6	-33.65194	-3.432976E-010	0.0454757	5
	45	64	31.6723	212581	-146342.3	1	258082.9	-34.54381	-6.602199E-010	0.0454785	5
	46	66	24.93351	231692.4	-166462.7	1	285291.5	-35.69589	-6.909152E-010	0.0454778	5
	47	67	19.86229	250857.7	-187482.5	1	313176.1	-36.77317	-6.892663E-010	0.045482	5
	48	69	15.83615	269028.5	-211299.1	1	342087.2	-38.14663	-3.346829E-010	0.0454822	5
	49	70	12.40079	301025.4	-238659.1	1	384154.2	-38.40811	-4.30077E-010	0.045479	5
	50	71	9.93114	324150.3	-269059.7	1	421267.8	-39.69424	-1.078877E-009	0.0454822	5
	51	73	7.944915	355960.2	-306348.9	1	469635.3	-40.71618	-5.416587E-010	0.0454705	5
	52	75	6.317385	390633.6	-345341.5	1	521397.5	-41.47845	-6.870949E-010	0.045471	5
	53	77	5.008013	432335.5	-392593.1	1	583989.1	-42.24181	-7.933015E-010	0.0454709	5
	54	79	3.945707	480800.5	-448923.7	1	657800.6	-43.03631	-5.616735E-010	0.0454778	5
	55	82	3.158693	535937.9	-508247.4	1	738610.1	-43.48094	-2.767477E-011	0.0454719	6
	56	86	2.504006	602667.8	-575949.5	1	833622.4	-43.70137	-8.436027E-010	0.045482	5
	57	88	1.998082	676462.3	-646564.3	1	935759.9	-43.70544	-5.436461E-010	0.0454321	5
	58	91	1.584686	770449.9	-723744.1	1	1057071	-43.20962	-6.930796E-010	0.0454349	4
	59	95	1.266892	860976.8	-794179.4	1	1171325	-42.68896	-5.809275E-010	0.0454498	4
	60	99	0.999041	977366	-901071.5	1	1329351	-42.67417	-8.625189E-010	0.0454645	4
