EXPLAIN
TAG	EISPOT
TITLE	LABEL	Potentiostatic IDE	Test &Identifier
DATE	LABEL	9/18/2019	Date
TIME	LABEL	7:47:05	Time
NOTES	NOTES	1	&Notes...
	
PSTAT	PSTAT	REF600-11020	Potentiostat
VDC	POTEN	0.00000E+000	T	DC &Voltage (V)
FREQINIT	QUANT	1.00000E+006	Initial Fre&q. (Hz)
FREQFINAL	QUANT	1.00000E+000	Final Fre&q. (Hz)
PTSPERDEC	QUANT	1.00000E+001	Points/&decade
VAC	QUANT	2.50000E+001	AC &Voltage (mV rms)
AREA	QUANT	1.00000E-002	&Area (cm^2)
CONDIT	TWOPARAM	T	5.00000E+000	0.00000E+000	Conditionin&g	Time(s)	E(V)
DELAY	TWOPARAM	T	5.00000E+000	0.00000E+000	Init. De&lay	Time(s)	Stab.(mV/s)
SPEED	SELECTOR	1	&Optimize for:
ZGUESS	QUANT	1.00000E+007	E&stimated Z (ohms)
OCVCURVE	TABLE	19
	Pt	T	Vf	Vm	Ach	Over
	#	s	V vs. Ref.	V	V	bits
	0	0.258333	2.46531E-002	2.46531E-002	5.40333E-004	...........
	1	0.516667	2.46764E-002	2.58728E-002	5.47633E-004	...........
	2	0.775	2.48186E-002	2.69840E-002	5.47399E-004	...........
	3	1.03333	2.52175E-002	2.80196E-002	5.44066E-004	...........
	4	1.29167	2.59238E-002	2.90510E-002	5.43566E-004	...........
	5	1.55	2.68556E-002	3.00855E-002	5.42733E-004	...........
	6	1.80833	2.78871E-002	3.09570E-002	5.48399E-004	...........
	7	2.06667	2.89242E-002	3.17792E-002	5.42466E-004	...........
	8	2.325	2.99137E-002	3.25968E-002	5.44733E-004	...........
	9	2.58333	3.08369E-002	3.34031E-002	5.46766E-004	...........
	10	2.84167	3.17025E-002	3.42097E-002	5.45566E-004	...........
	11	3.1	3.25331E-002	3.50815E-002	5.46899E-004	...........
	12	3.35833	3.33455E-002	3.55743E-002	5.44799E-004	...........
	13	3.61667	3.41320E-002	3.62375E-002	5.42499E-004	...........
	14	3.875	3.48688E-002	3.68814E-002	5.42233E-004	...........
	15	4.13333	3.55509E-002	3.75217E-002	5.40499E-004	...........
	16	4.39167	3.61993E-002	3.81490E-002	5.45399E-004	...........
	17	4.65	3.68344E-002	3.87273E-002	5.47866E-004	...........
	18	4.90833	3.74608E-002	3.92932E-002	5.41399E-004	...........
EOC	QUANT	0.0374608	Open Circuit (V)
PSTATMODEL	IQUANT	4	Pstat Model
PSTATSECTION	LABEL	REF600-11020	Pstat Section
PSTATSERIALNO	LABEL	11020	Pstat Serial Number
CTRLMODE	IQUANT	1	Control Mode
IESTAB	IQUANT	0	I/E Stability
CASPEED	IQUANT	1	Control Amp Speed
CONVENTION	IQUANT	1	Current Convention
ICHRANGE	IQUANT	2	Ich Range
ICHRANGEMODE	TOGGLE	F	Ich Auto Range
ICHOFFSETENABLE	TOGGLE	T	Ich Offset Enable
ICHOFFSET	QUANT	0	Ich Offset (V)
ICHFILTER	IQUANT	3	Ich Filter
VCHRANGE	IQUANT	2	Vch Range
VCHRANGEMODE	TOGGLE	F	Vch Auto Range
VCHOFFSETENABLE	TOGGLE	T	Vch Offset Enable
VCHOFFSET	QUANT	0	Vch Offset (V)
VCHFILTER	IQUANT	3	Vch Filter
ACHRANGE	IQUANT	2	Ach Range
ACHOFFSETENABLE	TOGGLE	F	Ach Offset Enable
ACHOFFSET	QUANT	0	Ach Offset (V)
ACHFILTER	IQUANT	3	Ach Filter
IERANGELOWERLIMIT	IQUANT	1	I/E Range Lower Limit
IERANGEMODE	TOGGLE	F	I/E AutoRange
IERANGE	IQUANT	3	I/E Range
POSFEEDENABLE	TOGGLE	F	Positive Feedback IR Comp
POSFEEDRESISTANCE	QUANT	0	Positive Feedback Resistance (ohm)
ACHSELECT	IQUANT	0	Ach Select
CABLEID	IQUANT	14	Cable ID
DCCALDATE	LABEL	8/19/2019	DC Calibration Date
ACCALDATE	LABEL	8/19/2019	AC Calibration Date
THERMOSELECT	IQUANT	1	Thermo Select
FRAMEWORKVERSION	QUANT	6.33	Framework Version
INSTRUMENTVERSION	LABEL	3.50	Instrument Version
ZCURVE	TABLE
	Pt	Time	Freq	Zreal	Zimag	Zsig	Zmod	Zphz	Idc	Vdc	IERange
	#	s	Hz	ohm	ohm	V	ohm	°	A	V	#
	0	2	1000078	2179.53	-1205.101	1	2490.506	-28.93898	-2.238813E-006	0.0403483	8
	1	3	794390.6	2397.92	-1110.132	1	2642.426	-24.84206	4.29042E-007	0.0394406	8
	2	5	630984.4	2569.244	-986.032	1	2751.958	-20.99596	-1.9949E-006	0.0397593	8
	3	6	501234.4	2702.772	-855.1362	1	2834.825	-17.55697	1.311818E-006	0.0389784	8
	4	7	398109.4	2803.53	-740.238	1	2899.609	-14.7907	-4.216449E-007	0.0391419	8
	5	9	316265.6	2881.377	-635.2792	1	2950.579	-12.43352	-2.519876E-007	0.039117	8
	6	10	251203.1	2943.583	-558.7977	1	2996.154	-10.74889	-1.312792E-006	0.0393754	8
	7	11	199546.9	2987.639	-499.6603	1	3029.133	-9.494422	-1.302968E-006	0.0393848	8
	8	13	158578.1	3028.044	-449.536	1	3061.231	-8.444314	-9.65816E-007	0.0392838	8
	9	14	125953.1	3071.899	-385.6216	1	3096.008	-7.155025	-3.600769E-007	0.0397066	7
	10	15	100078.1	3100.314	-362.6419	1	3121.451	-6.671538	-4.970206E-009	0.0390718	7
	11	17	79453.13	3130.816	-357.4741	1	3151.158	-6.513779	1.680685E-009	0.0390071	7
	12	18	63140.62	3162.695	-360.1501	1	3183.135	-6.496539	-9.597414E-009	0.0390818	7
	13	19	50203.12	3197.48	-370.335	1	3218.855	-6.606613	8.131547E-009	0.039005	7
	14	21	39890.62	3234.809	-388.7636	1	3258.086	-6.853016	-3.906055E-009	0.0390328	7
	15	22	31640.63	3273.422	-413.924	1	3299.488	-7.2068	2.813656E-009	0.0390017	7
	16	23	25171.88	3315.388	-446.9515	1	3345.379	-7.677825	-3.573065E-008	0.0390973	7
	17	25	20015.62	3361.129	-488.1835	1	3396.397	-8.264072	5.180003E-008	0.0390119	7
	18	26	15890.62	3414.097	-539.3221	1	3456.433	-8.976788	8.878544E-009	0.0389975	7
	19	27	12609.37	3465.992	-601.0816	1	3517.727	-9.83853	3.281615E-008	0.0390008	7
	20	29	10078.13	3522.049	-674.1894	1	3585.995	-10.83645	6.713023E-008	0.0389612	7
	21	30	8015.625	3584.315	-760.4998	1	3664.106	-11.97905	-1.246655E-008	0.0390366	7
	22	31	6328.125	3652.634	-869.1875	1	3754.626	-13.38527	-3.265311E-009	0.0390544	7
	23	32	5015.625	3722.318	-999.369	1	3854.139	-15.02839	4.273224E-009	0.0389974	7
	24	34	3984.375	3796.964	-1157.494	1	3969.475	-16.9537	-9.517679E-009	0.0390377	7
	25	35	3170.956	3876.738	-1349.833	1	4105.014	-19.19749	-1.24478E-008	0.0390361	7
	26	36	2527.573	3963.63	-1581.877	1	4267.634	-21.75685	-3.448147E-009	0.0390344	7
	27	38	1976.103	4067.68	-1894.041	1	4487.026	-24.96818	-3.459089E-009	0.0390366	7
	28	39	1577.524	4171.775	-2244.62	1	4737.301	-28.28244	-1.150079E-008	0.0390358	7
	29	40	1265.625	4289.879	-2663.525	1	5049.498	-31.83556	-9.05673E-009	0.0390366	7
	30	42	998.264	4427.427	-3217.216	1	5472.896	-36.00425	8.019406E-009	0.0389938	7
	31	43	796.875	4574.257	-3864.326	1	5988.058	-40.19108	-1.263221E-008	0.0390294	7
	32	44	627.7902	4749.186	-4710.562	1	6689.107	-44.76607	5.206343E-008	0.0390069	7
	33	46	505.5147	4934.587	-5655.789	1	7505.871	-48.89581	1.780004E-008	0.0389715	7
	34	47	397.9953	5167.063	-6950.029	1	8660.337	-53.3707	6.449855E-009	0.0390598	7
	35	48	315.5048	5440.273	-8515.066	1	10104.6	-57.42551	5.719142E-009	0.0390622	7
	36	50	252.4038	5760.309	-10371.74	1	11863.98	-60.95286	-1.652334E-011	0.0389994	6
	37	51	198.6229	6189.428	-12842.61	1	14256.28	-64.26849	5.140611E-010	0.0390006	6
	38	52	158.3615	6703.32	-15737.27	1	17105.44	-66.92832	5.035449E-011	0.0389996	6
	39	54	125.558	7383.723	-19389.86	1	20748.15	-69.153	3.114351E-010	0.0390013	6
	40	55	100.4464	8243.605	-23690.76	1	25084.04	-70.81379	-2.836458E-010	0.0390013	6
	41	56	79.00281	9407.854	-29414.59	1	30882.45	-72.26384	-2.150531E-010	0.0390018	6
	42	58	63.3446	10760.42	-35598.55	1	37189.29	-73.18145	1.789282E-011	0.0389985	6
	43	59	49.86702	13126.15	-44371.37	1	46272.18	-73.52048	-4.820136E-010	0.0389994	6
	44	61	39.72458	15570.98	-54064.03	1	56261.66	-73.93307	6.468411E-010	0.0390007	6
	45	62	31.6723	19167.22	-65748.47	1	68485.35	-73.74735	-2.336559E-010	0.0390026	6
	46	63	24.93351	23845.13	-80701.68	1	84150.77	-73.53904	4.012953E-010	0.0390021	6
	47	65	19.86229	29819.38	-97812.4	1	102256.9	-73.04548	8.084848E-011	0.0389958	6
	48	66	15.83615	37270.91	-117963.6	1	123711.5	-72.46593	-1.960821E-010	0.0390031	5
	49	67	12.40079	48897.3	-143547.2	1	151646.8	-71.18932	-3.010625E-010	0.0390049	5
	50	69	9.93114	61244.73	-171260.8	1	181882.3	-70.3224	-2.949031E-010	0.0390112	5
	51	70	7.944915	77671.44	-203093.9	1	217439.6	-69.0711	-9.934113E-011	0.0390019	5
	52	72	6.317385	98881.5	-240180.7	1	259738.9	-67.62322	-3.708179E-010	0.0390029	5
	53	74	5.008013	125932.1	-283675.5	1	310371.9	-66.06212	-5.806236E-010	0.0389952	5
	54	77	3.945707	159934.5	-333644.6	1	369997	-64.38899	-1.201834E-010	0.0390078	5
	55	79	3.158693	199262.3	-386509.1	1	434850.3	-62.72691	-5.509984E-010	0.0390064	5
	56	83	2.504006	248249.4	-445986.2	1	510422.8	-60.89837	-2.083657E-010	0.0390009	5
	57	85	1.998082	302775.7	-509801.2	1	592933.7	-59.29353	-6.978062E-010	0.0390209	5
	58	88	1.584686	370544.9	-579735.6	1	688038.4	-57.41483	-3.822138E-010	0.039058	5
	59	92	1.266892	441774.7	-654619.5	1	789741.4	-55.98627	-7.150512E-010	0.0390024	5
	60	96	0.999041	529421.7	-737973.3	1	908235.6	-54.34436	-2.03518E-010	0.0390303	5
