EXPLAIN
TAG	EISPOT
TITLE	LABEL	Potentiostatic IDE	Test &Identifier
DATE	LABEL	9/12/2019	Date
TIME	LABEL	9:08:36	Time
NOTES	NOTES	1	&Notes...
	
PSTAT	PSTAT	REF600-11020	Potentiostat
VDC	POTEN	0.00000E+000	T	DC &Voltage (V)
FREQINIT	QUANT	1.00000E+006	Initial Fre&q. (Hz)
FREQFINAL	QUANT	1.00000E+000	Final Fre&q. (Hz)
PTSPERDEC	QUANT	1.00000E+001	Points/&decade
VAC	QUANT	2.50000E+001	AC &Voltage (mV rms)
AREA	QUANT	1.00000E-002	&Area (cm^2)
CONDIT	TWOPARAM	T	5.00000E+000	0.00000E+000	Conditionin&g	Time(s)	E(V)
DELAY	TWOPARAM	T	5.00000E+000	0.00000E+000	Init. De&lay	Time(s)	Stab.(mV/s)
SPEED	SELECTOR	1	&Optimize for:
ZGUESS	QUANT	1.00000E+007	E&stimated Z (ohms)
OCVCURVE	TABLE	19
	Pt	T	Vf	Vm	Ach	Over
	#	s	V vs. Ref.	V	V	bits
	0	0.258333	5.79448E-003	5.79448E-003	5.65299E-004	...........
	1	0.516667	5.79183E-003	5.65581E-003	5.71066E-004	...........
	2	0.775	5.77606E-003	5.55017E-003	5.66132E-004	...........
	3	1.03333	5.73376E-003	5.48461E-003	5.65199E-004	...........
	4	1.29167	5.66464E-003	5.44309E-003	5.64399E-004	...........
	5	1.55	5.58495E-003	5.40271E-003	5.67199E-004	...........
	6	1.80833	5.51227E-003	5.36186E-003	5.62499E-004	...........
	7	2.06667	5.45355E-003	5.32870E-003	5.64732E-004	...........
	8	2.325	5.40662E-003	5.29293E-003	5.64932E-004	...........
	9	2.58333	5.36696E-003	5.26627E-003	5.63199E-004	...........
	10	2.84167	5.33176E-003	5.24968E-003	5.65999E-004	...........
	11	3.1	5.30054E-003	5.22737E-003	5.69932E-004	...........
	12	3.35833	5.27359E-003	5.20562E-003	5.65499E-004	...........
	13	3.61667	5.25001E-003	5.18128E-003	5.70166E-004	...........
	14	3.875	5.22805E-003	5.16458E-003	5.68932E-004	...........
	15	4.13333	5.20670E-003	5.14729E-003	5.73565E-004	...........
	16	4.39167	5.18647E-003	5.14622E-003	5.72766E-004	...........
	17	4.65	5.16901E-003	5.14121E-003	5.72199E-004	...........
	18	4.90833	5.15572E-003	5.12787E-003	5.72932E-004	...........
EOC	QUANT	0.0051557	Open Circuit (V)
PSTATMODEL	IQUANT	4	Pstat Model
PSTATSECTION	LABEL	REF600-11020	Pstat Section
PSTATSERIALNO	LABEL	11020	Pstat Serial Number
CTRLMODE	IQUANT	1	Control Mode
IESTAB	IQUANT	0	I/E Stability
CASPEED	IQUANT	1	Control Amp Speed
CONVENTION	IQUANT	1	Current Convention
ICHRANGE	IQUANT	2	Ich Range
ICHRANGEMODE	TOGGLE	F	Ich Auto Range
ICHOFFSETENABLE	TOGGLE	T	Ich Offset Enable
ICHOFFSET	QUANT	0	Ich Offset (V)
ICHFILTER	IQUANT	3	Ich Filter
VCHRANGE	IQUANT	2	Vch Range
VCHRANGEMODE	TOGGLE	F	Vch Auto Range
VCHOFFSETENABLE	TOGGLE	T	Vch Offset Enable
VCHOFFSET	QUANT	0	Vch Offset (V)
VCHFILTER	IQUANT	3	Vch Filter
ACHRANGE	IQUANT	2	Ach Range
ACHOFFSETENABLE	TOGGLE	F	Ach Offset Enable
ACHOFFSET	QUANT	0	Ach Offset (V)
ACHFILTER	IQUANT	3	Ach Filter
IERANGELOWERLIMIT	IQUANT	1	I/E Range Lower Limit
IERANGEMODE	TOGGLE	F	I/E AutoRange
IERANGE	IQUANT	2	I/E Range
POSFEEDENABLE	TOGGLE	F	Positive Feedback IR Comp
POSFEEDRESISTANCE	QUANT	0	Positive Feedback Resistance (ohm)
ACHSELECT	IQUANT	0	Ach Select
CABLEID	IQUANT	14	Cable ID
DCCALDATE	LABEL	8/19/2019	DC Calibration Date
ACCALDATE	LABEL	8/19/2019	AC Calibration Date
THERMOSELECT	IQUANT	1	Thermo Select
FRAMEWORKVERSION	QUANT	6.33	Framework Version
INSTRUMENTVERSION	LABEL	3.50	Instrument Version
ZCURVE	TABLE
	Pt	Time	Freq	Zreal	Zimag	Zsig	Zmod	Zphz	Idc	Vdc	IERange
	#	s	Hz	ohm	ohm	V	ohm	°	A	V	#
	0	2	1000078	2397.201	-1667.166	1	2919.934	-34.8172	1.212903E-005	0.0060695	8
	1	4	794390.6	2733.65	-1582.508	1	3158.667	-30.06651	-1.492086E-006	0.0065219	8
	2	5	630984.4	3035.972	-1448.721	1	3363.914	-25.50979	-8.039203E-007	0.0074286	8
	3	6	501234.4	3253.277	-1270.63	1	3492.608	-21.33409	4.072075E-007	0.0069553	8
	4	8	398109.4	3452.032	-1124.479	1	3630.561	-18.04271	-3.875448E-006	0.0077577	8
	5	9	316265.6	3613.349	-994.492	1	3747.706	-15.38835	-7.443825E-007	0.0071785	8
	6	11	251203.1	3696.287	-830.8716	1	3788.52	-12.66868	2.159738E-006	0.0064884	8
	7	12	199546.9	3750.62	-715.4719	1	3818.252	-10.80004	-1.693978E-006	0.0071823	8
	8	13	158578.1	3839.637	-636.1437	1	3891.978	-9.407203	-3.552422E-006	0.0076381	8
	9	15	125953.1	3900.155	-507.2813	1	3933.007	-7.410685	1.459368E-006	0.0036882	7
	10	16	100078.1	3938.985	-454.0428	1	3965.067	-6.575407	-7.0015E-008	0.0069715	7
	11	17	79453.13	3971.472	-425.3881	1	3994.188	-6.113696	-4.876216E-008	0.0068912	7
	12	19	63140.62	4005.049	-406.959	1	4025.672	-5.801996	-2.179908E-008	0.0070001	7
	13	20	50203.12	4039.592	-399.222	1	4059.271	-5.644061	1.471285E-009	0.0067872	7
	14	21	39890.62	4071.572	-402.378	1	4091.407	-5.643997	-1.096323E-008	0.0068944	7
	15	23	31640.63	4105.859	-416.6303	1	4126.943	-5.794093	-3.935928E-008	0.0069832	7
	16	24	25171.88	4141.333	-438.6822	1	4164.502	-6.046666	-3.882797E-008	0.0069826	7
	17	25	20015.62	4178.303	-472.6794	1	4204.954	-6.454268	-2.067391E-008	0.0069968	7
	18	27	15890.62	4220.08	-518.155	1	4251.771	-6.999924	-2.101304E-008	0.0069938	7
	19	28	12609.37	4263.964	-577.0707	1	4302.836	-7.707391	-2.315394E-008	0.0068449	7
	20	29	10078.13	4312.964	-645.7458	1	4361.037	-8.515191	4.959345E-008	0.006695	7
	21	31	8015.625	4363.045	-736.7678	1	4424.815	-9.58486	-1.975036E-008	0.0069934	7
	22	32	6328.125	4423.769	-850.642	1	4504.811	-10.88449	-4.025783E-008	0.0069776	7
	23	33	5015.625	4487.612	-986.59	1	4594.782	-12.39908	7.174803E-008	0.0068307	7
	24	35	3984.375	4559.408	-1151.289	1	4702.517	-14.17143	1.405996E-007	0.0066447	7
	25	36	3170.956	4638.87	-1350.729	1	4831.52	-16.23431	2.38259E-008	0.0067632	7
	26	37	2527.573	4727.979	-1589.166	1	4987.908	-18.5785	-4.459593E-008	0.006907	7
	27	39	1976.103	4835.749	-1907.548	1	5198.385	-21.52765	-4.219093E-008	0.0068754	7
	28	40	1577.524	4950.194	-2265.687	1	5444.057	-24.59341	7.113859E-008	0.0068276	7
	29	41	1265.625	5078.101	-2667.167	1	5735.93	-27.70977	-4.532417E-008	0.0068766	7
	30	43	998.264	5236.166	-3233.463	1	6154.081	-31.69637	2.458935E-008	0.0067521	7
	31	44	796.875	5407.714	-3872.64	1	6651.37	-35.60769	-3.243274E-008	0.0068494	7
	32	45	627.7902	5620.349	-4696.979	1	7324.611	-39.88583	9.020369E-008	0.0066634	7
	33	47	505.5147	5842.974	-5612.771	1	8102.07	-43.8488	-2.781663E-008	0.0068468	7
	34	48	397.9953	6127.398	-6848.181	1	9189.265	-48.17946	5.892322E-009	0.0068494	7
	35	49	315.5048	6458.055	-8321.654	1	10533.58	-52.1866	1.830299E-009	0.0067917	6
	36	51	252.4038	6827.69	-10055.87	1	12154.74	-55.82444	9.593925E-010	0.0067908	6
	37	52	198.6229	7302.5	-12349.31	1	14346.84	-59.40295	9.480967E-010	0.0067899	6
	38	53	158.3615	7845.257	-15016.8	1	16942.62	-62.41599	9.011353E-010	0.0067878	6
	39	55	125.558	8517.177	-18386.24	1	20263.17	-65.14471	1.386918E-009	0.0067901	6
	40	56	100.4464	9310.596	-22384.22	1	24243.36	-67.4154	9.754499E-010	0.0067909	6
	41	57	79.00281	10375.71	-27683.84	1	29564.35	-69.45435	1.300242E-009	0.0067901	6
	42	59	63.3446	11846.85	-33332.44	1	35375.12	-70.43403	1.379002E-009	0.0067861	6
	43	60	49.86702	13452.95	-41717.32	1	43832.83	-72.12659	6.290635E-010	0.0067868	6
	44	62	39.72458	15697.19	-50618.55	1	52996.6	-72.77094	1.545002E-009	0.006791	6
	45	63	31.6723	18738.17	-61821.11	1	64598.52	-73.13778	9.765426E-010	0.0067908	6
	46	64	24.93351	22730.63	-76140.78	1	79461.31	-73.37783	9.994963E-010	0.0067882	6
	47	65	19.86229	27823.59	-92416.42	1	96514	-73.24465	8.991546E-010	0.0067873	6
	48	67	15.83615	34576.04	-113046.6	1	118216.1	-72.99342	2.012205E-009	0.0067886	5
	49	68	12.40079	43639.23	-136208.1	1	143028	-72.23524	2.773636E-009	0.0067932	5
	50	70	9.93114	55460.19	-164504.3	1	173601.6	-71.36923	3.420213E-010	0.0067985	5
	51	71	7.944915	70205.81	-195541.4	1	207762.6	-70.25019	5.032538E-010	0.0067939	5
	52	73	6.317385	89262.53	-233242.5	1	249739.6	-69.05801	7.342464E-010	0.0067867	5
	53	75	5.008013	114086.9	-277293.8	1	299846.1	-67.63628	6.483659E-011	0.0067874	5
	54	77	3.945707	145730	-328467.7	1	359344.2	-66.07475	3.13978E-010	0.0067973	5
	55	80	3.158693	181680.5	-382987.8	1	423895.6	-64.62143	-2.08262E-011	0.0067736	5
	56	83	2.504006	227438.7	-444995.2	1	499749	-62.92825	5.963397E-010	0.0067879	5
	57	86	1.998082	281321	-511782.2	1	584005.6	-61.20289	3.177004E-010	0.0068302	5
	58	89	1.584686	344135.3	-584846.8	1	678583	-59.52661	4.333654E-010	0.0067843	5
	59	93	1.266892	418582.8	-664567.7	1	785405.5	-57.79493	4.271968E-010	0.0068291	5
	60	97	0.999041	498572.5	-755615.9	1	905278.9	-56.58227	1.165607E-010	0.006746	5
