EXPLAIN
TAG	EISPOT
TITLE	LABEL	Potentiostatic EIS	Test &Identifier
DATE	LABEL	10/8/2019	Date
TIME	LABEL	9:46:58	Time
NOTES	NOTES	2	&Notes...
	
	
PSTAT	PSTAT	REF600-11020	Potentiostat
VDC	POTEN	0.00000E+000	T	DC &Voltage (V)
FREQINIT	QUANT	1.00000E+006	Initial Fre&q. (Hz)
FREQFINAL	QUANT	1.00000E+000	Final Fre&q. (Hz)
PTSPERDEC	QUANT	1.00000E+001	Points/&decade
VAC	QUANT	2.50000E+001	AC &Voltage (mV rms)
AREA	QUANT	1.00000E-002	&Area (cm^2)
CONDIT	TWOPARAM	T	5.00000E+000	0.00000E+000	Conditionin&g	Time(s)	E(V)
DELAY	TWOPARAM	T	5.00000E+000	0.00000E+000	Init. De&lay	Time(s)	Stab.(mV/s)
SPEED	SELECTOR	1	&Optimize for:
ZGUESS	QUANT	1.00000E+004	E&stimated Z (ohms)
OCVCURVE	TABLE	19
	Pt	T	Vf	Vm	Ach	Over
	#	s	V vs. Ref.	V	V	bits
	0	0.258333	7.97497E-003	7.97497E-003	5.21066E-004	...........
	1	0.516667	7.97294E-003	7.86863E-003	5.18866E-004	...........
	2	0.775	7.96088E-003	7.78940E-003	5.22466E-004	...........
	3	1.03333	7.92831E-003	7.72289E-003	5.14400E-004	...........
	4	1.29167	7.87371E-003	7.67149E-003	5.17366E-004	...........
	5	1.55	7.80737E-003	7.62988E-003	5.17466E-004	...........
	6	1.80833	7.74201E-003	7.59094E-003	5.19200E-004	...........
	7	2.06667	7.68480E-003	7.55335E-003	5.11700E-004	...........
	8	2.325	7.63641E-003	7.51131E-003	5.18633E-004	...........
	9	2.58333	7.59438E-003	7.49547E-003	5.20366E-004	...........
	10	2.84167	7.55758E-003	7.49822E-003	5.19800E-004	...........
	11	3.1	7.52873E-003	7.52105E-003	5.21366E-004	...........
	12	3.35833	7.51203E-003	7.52014E-003	5.12500E-004	...........
	13	3.61667	7.50812E-003	7.53592E-003	5.18766E-004	...........
	14	3.875	7.51310E-003	7.54351E-003	5.20600E-004	...........
	15	4.13333	7.52167E-003	7.52463E-003	5.14567E-004	...........
	16	4.39167	7.52867E-003	7.51095E-003	5.18133E-004	...........
	17	4.65	7.52965E-003	7.49017E-003	5.22266E-004	...........
	18	4.90833	7.52314E-003	7.48675E-003	5.24633E-004	...........
EOC	QUANT	0.0075231	Open Circuit (V)
PSTATMODEL	IQUANT	4	Pstat Model
PSTATSECTION	LABEL	REF600-11020	Pstat Section
PSTATSERIALNO	LABEL	11020	Pstat Serial Number
CTRLMODE	IQUANT	1	Control Mode
IESTAB	IQUANT	0	I/E Stability
CASPEED	IQUANT	1	Control Amp Speed
CONVENTION	IQUANT	1	Current Convention
ICHRANGE	IQUANT	2	Ich Range
ICHRANGEMODE	TOGGLE	F	Ich Auto Range
ICHOFFSETENABLE	TOGGLE	T	Ich Offset Enable
ICHOFFSET	QUANT	0	Ich Offset (V)
ICHFILTER	IQUANT	3	Ich Filter
VCHRANGE	IQUANT	2	Vch Range
VCHRANGEMODE	TOGGLE	F	Vch Auto Range
VCHOFFSETENABLE	TOGGLE	T	Vch Offset Enable
VCHOFFSET	QUANT	0	Vch Offset (V)
VCHFILTER	IQUANT	3	Vch Filter
ACHRANGE	IQUANT	2	Ach Range
ACHOFFSETENABLE	TOGGLE	F	Ach Offset Enable
ACHOFFSET	QUANT	0	Ach Offset (V)
ACHFILTER	IQUANT	3	Ach Filter
IERANGELOWERLIMIT	IQUANT	1	I/E Range Lower Limit
IERANGEMODE	TOGGLE	F	I/E AutoRange
IERANGE	IQUANT	6	I/E Range
POSFEEDENABLE	TOGGLE	F	Positive Feedback IR Comp
POSFEEDRESISTANCE	QUANT	0	Positive Feedback Resistance (ohm)
ACHSELECT	IQUANT	0	Ach Select
CABLEID	IQUANT	14	Cable ID
DCCALDATE	LABEL	8/19/2019	DC Calibration Date
ACCALDATE	LABEL	8/19/2019	AC Calibration Date
THERMOSELECT	IQUANT	1	Thermo Select
FRAMEWORKVERSION	QUANT	6.33	Framework Version
INSTRUMENTVERSION	LABEL	3.50	Instrument Version
ZCURVE	TABLE
	Pt	Time	Freq	Zreal	Zimag	Zsig	Zmod	Zphz	Idc	Vdc	IERange
	#	s	Hz	ohm	ohm	V	ohm	°	A	V	#
	0	2	1000078	2198.572	-1000.833	1	2415.654	-24.47595	-3.676085E-007	0.0096889	8
	1	3	794390.6	2362.118	-920.9125	1	2535.287	-21.29918	1.98065E-008	0.0095302	8
	2	4	630984.4	2488.289	-831.4315	1	2623.521	-18.47642	-7.163857E-007	0.0093036	8
	3	6	501234.4	2597.452	-734.7291	1	2699.367	-15.79437	3.760958E-006	0.0084225	8
	4	7	398109.4	2682.801	-663.7449	1	2763.689	-13.89636	-1.021023E-006	0.0092722	8
	5	8	316265.6	2753.71	-587.5137	1	2815.686	-12.04368	4.195325E-006	0.0083197	8
	6	10	251203.1	2820.196	-540.052	1	2871.439	-10.84059	-1.281442E-006	0.0093281	8
	7	11	199546.9	2864.831	-499.2357	1	2908.005	-9.8853	9.111333E-007	0.0087327	8
	8	12	158578.1	2897.532	-465.6772	1	2934.714	-9.130223	3.269115E-006	0.0083968	8
	9	14	125953.1	2974.782	-392.1284	1	3000.515	-7.509295	6.845107E-008	0.0085337	7
	10	15	100078.1	3003.446	-411.7542	1	3031.539	-7.806241	1.42714E-007	0.0088416	7
	11	17	79453.13	3046.188	-422.5032	1	3075.349	-7.896489	-8.05399E-008	0.0091873	7
	12	18	63140.62	3090.747	-441.8378	1	3122.169	-8.135598	7.147614E-008	0.0089281	7
	13	19	50203.12	3140.413	-465.7709	1	3174.766	-8.436333	7.045723E-008	0.008923	7
	14	21	39890.62	3194.497	-495.2437	1	3232.657	-8.812428	-4.225498E-008	0.0090624	7
	15	22	31640.63	3252.527	-533.3066	1	3295.959	-9.311749	-1.649675E-008	0.0090065	7
	16	23	25171.88	3314.306	-576.6646	1	3364.099	-9.87023	-1.500127E-008	0.009077	7
	17	25	20015.62	3376.425	-624.8057	1	3433.749	-10.48396	-8.177756E-008	0.0091776	7
	18	26	15890.62	3454.197	-687.8376	1	3522.016	-11.26205	-9.842759E-009	0.0089998	7
	19	27	12609.37	3532.02	-755.5139	1	3611.92	-12.07386	8.873163E-008	0.0089864	7
	20	29	10078.13	3611.781	-833.1407	1	3706.627	-12.98939	-9.727146E-009	0.0089999	7
	21	30	8015.625	3698.29	-925.5992	1	3812.359	-14.05122	8.544366E-008	0.0088635	7
	22	32	6328.125	3792.283	-1039.251	1	3932.105	-15.3253	-8.261276E-009	0.009	7
	23	33	5015.625	3890.348	-1171.459	1	4062.896	-16.75807	9.647428E-009	0.0089714	7
	24	34	3984.375	3989.287	-1333.155	1	4206.152	-18.4788	-1.66312E-008	0.0091899	7
	25	36	3170.956	4096.069	-1520.273	1	4369.098	-20.36261	-1.689371E-008	0.0091901	7
	26	37	2527.573	4202.357	-1746.953	1	4551.005	-22.57304	-4.146428E-008	0.0091278	7
	27	38	1976.103	4323.114	-2057.345	1	4787.691	-25.44951	8.586871E-008	0.0089898	7
	28	40	1577.524	4442.22	-2407.633	1	5052.723	-28.45719	-4.011719E-008	0.009128	7
	29	41	1265.625	4556.333	-2832.396	1	5364.945	-31.8667	-3.965618E-008	0.0090721	7
	30	42	998.264	4695.547	-3405.622	1	5800.554	-35.95291	8.763268E-008	0.0089872	7
	31	44	796.875	4843.024	-4078.513	1	6331.6	-40.10213	-3.779814E-008	0.0090485	7
	32	45	627.7902	5015.106	-4970.56	1	7061.002	-44.74441	-8.749041E-009	0.0089959	7
	33	46	505.5147	5222.098	-5972.976	1	7933.898	-48.8372	-4.044944E-008	0.0090467	7
	34	48	397.9953	5476.462	-7342.45	1	9159.869	-53.2821	4.287753E-009	0.0090488	7
	35	49	315.5048	5786.449	-8989.996	1	10691.26	-57.23247	8.189266E-010	0.0089887	6
	36	51	252.4038	6153.161	-10939.53	1	12551.28	-60.64354	1.013897E-009	0.0089892	6
	37	52	198.6229	6645.158	-13520.08	1	15064.88	-63.82575	6.132826E-010	0.0089902	6
	38	53	158.3615	7236.961	-16531.34	1	18046.02	-66.35753	7.037839E-010	0.0089885	6
	39	55	125.558	8007.747	-20305.39	1	21827.35	-68.47743	8.182691E-010	0.0089916	6
	40	56	100.4464	8959.447	-24759.86	1	26331.01	-70.10715	-3.004663E-011	0.0089904	6
	41	58	79.00281	10339.71	-30597.22	1	32297.05	-71.32835	9.722682E-011	0.0089875	6
	42	59	63.3446	11851.06	-37433.79	1	39264.95	-72.43288	7.092294E-010	0.0089877	6
	43	60	49.86702	13966.78	-45665.14	1	47753.29	-72.99363	6.177362E-010	0.0089836	6
	44	62	39.72458	16845.56	-55726.97	1	58217.42	-73.1806	5.515158E-010	0.0089822	6
	45	63	31.6723	20656.84	-67788.48	1	70865.95	-73.05272	1.218536E-009	0.0089839	6
	46	65	24.93351	25426.36	-82911.66	1	86722.8	-72.9509	2.107401E-010	0.0089864	6
	47	66	19.86229	31681.6	-100425.9	1	105304.7	-72.49094	7.407756E-010	0.0089819	6
	48	67	15.83615	39126.45	-121246.7	1	127403.5	-72.11506	1.390383E-009	0.0089826	5
	49	69	12.40079	51493.72	-146574	1	155356.2	-70.64284	-3.767687E-010	0.0089903	5
	50	70	9.93114	64207.35	-175011.6	1	186418	-69.85319	8.987616E-011	0.0089892	5
	51	72	7.944915	80891.64	-207432.1	1	222646.6	-68.69586	3.91742E-011	0.0089888	5
	52	73	6.317385	102755.4	-244763.8	1	265458.1	-67.22662	-2.340716E-010	0.0089956	5
	53	75	5.008013	130056.9	-288074.1	1	316071.9	-65.70224	-1.087288E-010	0.0089769	5
	54	78	3.945707	163873.7	-336858.3	1	374603.9	-64.05816	3.20637E-010	0.0089884	5
	55	81	3.158693	200917	-388184	1	437097.7	-62.63474	-8.642715E-011	0.0089735	5
	56	84	2.504006	245088.2	-446876.5	1	509673.3	-61.25756	3.51305E-010	0.0089978	5
	57	87	1.998082	293466.9	-512008.3	1	590148.6	-60.18003	2.730498E-010	0.0089969	5
	58	90	1.584686	350163.6	-583707.4	1	680682.7	-59.04064	6.195943E-011	0.0089411	5
	59	93	1.266892	407653.8	-665596.6	1	780513	-58.51404	1.874935E-010	0.0089897	5
	60	98	0.999041	476975.5	-766402	1	902705.8	-58.10365	-1.300582E-010	0.0089708	5
