EXPLAIN
TAG	EISPOT
TITLE	LABEL	Potentiostatic EIS	Test &Identifier
DATE	LABEL	6/20/2000	Date
TIME	LABEL	9:15:05	Time
NOTES	NOTES	2	&Notes...
	
	
PSTAT	PSTAT	REF600-11020	Potentiostat
VDC	POTEN	0.00000E+000	T	DC &Voltage (V)
FREQINIT	QUANT	1.00000E+006	Initial Fre&q. (Hz)
FREQFINAL	QUANT	1.00000E+000	Final Fre&q. (Hz)
PTSPERDEC	QUANT	1.00000E+001	Points/&decade
VAC	QUANT	2.50000E+001	AC &Voltage (mV rms)
AREA	QUANT	1.00000E-002	&Area (cm^2)
CONDIT	TWOPARAM	T	5.00000E+000	0.00000E+000	Conditionin&g	Time(s)	E(V)
DELAY	TWOPARAM	T	5.00000E+000	0.00000E+000	Init. De&lay	Time(s)	Stab.(mV/s)
SPEED	SELECTOR	0	&Optimize for:
ZGUESS	QUANT	1.00000E+005	E&stimated Z (ohms)
OCVCURVE	TABLE	19
	Pt	T	Vf	Vm	Ach	Over
	#	s	V vs. Ref.	V	V	bits
	0	0.258333	2.81174E-003	2.81174E-003	5.68766E-004	...........
	1	0.516667	2.80959E-003	2.69943E-003	5.65099E-004	...........
	2	0.775	2.79645E-003	2.59440E-003	5.59966E-004	...........
	3	1.03333	2.75932E-003	2.49212E-003	5.65232E-004	...........
	4	1.29167	2.69298E-003	2.39616E-003	5.70132E-004	...........
	5	1.55	2.60520E-003	2.32153E-003	5.66532E-004	...........
	6	1.80833	2.51039E-003	2.28698E-003	5.66832E-004	...........
	7	2.06667	2.42204E-003	2.22299E-003	5.65432E-004	...........
	8	2.325	2.34696E-003	2.16087E-003	5.65432E-004	...........
	9	2.58333	2.28308E-003	2.10552E-003	5.59566E-004	...........
	10	2.84167	2.22436E-003	2.04692E-003	5.62099E-004	...........
	11	3.1	2.16644E-003	1.96956E-003	5.66132E-004	...........
	12	3.35833	2.10713E-003	1.92232E-003	5.68666E-004	...........
	13	3.61667	2.04633E-003	1.87524E-003	5.66632E-004	...........
	14	3.875	1.98670E-003	1.83015E-003	5.71732E-004	...........
	15	4.13333	1.93133E-003	1.78695E-003	5.69932E-004	...........
	16	4.39167	1.88104E-003	1.74635E-003	5.68632E-004	...........
	17	4.65	1.83485E-003	1.70612E-003	5.72666E-004	...........
	18	4.90833	1.79153E-003	1.66886E-003	5.73099E-004	...........
EOC	QUANT	0.0017915	Open Circuit (V)
PSTATMODEL	IQUANT	4	Pstat Model
PSTATSECTION	LABEL	REF600-11020	Pstat Section
PSTATSERIALNO	LABEL	11020	Pstat Serial Number
CTRLMODE	IQUANT	1	Control Mode
IESTAB	IQUANT	0	I/E Stability
CASPEED	IQUANT	1	Control Amp Speed
CONVENTION	IQUANT	1	Current Convention
ICHRANGE	IQUANT	2	Ich Range
ICHRANGEMODE	TOGGLE	F	Ich Auto Range
ICHOFFSETENABLE	TOGGLE	T	Ich Offset Enable
ICHOFFSET	QUANT	0	Ich Offset (V)
ICHFILTER	IQUANT	3	Ich Filter
VCHRANGE	IQUANT	2	Vch Range
VCHRANGEMODE	TOGGLE	F	Vch Auto Range
VCHOFFSETENABLE	TOGGLE	T	Vch Offset Enable
VCHOFFSET	QUANT	0	Vch Offset (V)
VCHFILTER	IQUANT	3	Vch Filter
ACHRANGE	IQUANT	2	Ach Range
ACHOFFSETENABLE	TOGGLE	F	Ach Offset Enable
ACHOFFSET	QUANT	0	Ach Offset (V)
ACHFILTER	IQUANT	3	Ach Filter
IERANGELOWERLIMIT	IQUANT	1	I/E Range Lower Limit
IERANGEMODE	TOGGLE	F	I/E AutoRange
IERANGE	IQUANT	4	I/E Range
POSFEEDENABLE	TOGGLE	F	Positive Feedback IR Comp
POSFEEDRESISTANCE	QUANT	0	Positive Feedback Resistance (ohm)
ACHSELECT	IQUANT	0	Ach Select
CABLEID	IQUANT	14	Cable ID
DCCALDATE	LABEL	8/19/2019	DC Calibration Date
ACCALDATE	LABEL	8/19/2019	AC Calibration Date
THERMOSELECT	IQUANT	1	Thermo Select
FRAMEWORKVERSION	QUANT	6.33	Framework Version
INSTRUMENTVERSION	LABEL	3.50	Instrument Version
ZCURVE	TABLE
	Pt	Time	Freq	Zreal	Zimag	Zsig	Zmod	Zphz	Idc	Vdc	IERange
	#	s	Hz	ohm	ohm	V	ohm	°	A	V	#
	0	2	1000078	1886.868	-836.0607	1	2063.8	-23.89786	-8.189617E-006	0.0049618	8
	1	2	794390.6	2018.548	-830.4348	1	2182.695	-22.36237	1.115878E-005	0.0022039	8
	2	2	630984.4	2126.851	-833.9517	1	2284.507	-21.41046	-5.668271E-006	0.0034508	8
	3	3	501234.4	2235.026	-842.3264	1	2388.484	-20.65019	-2.93581E-008	0.003111	8
	4	3	398109.4	2351.269	-863.9313	1	2504.963	-20.17495	-1.603254E-006	0.0038647	8
	5	3	316265.6	2482.907	-887.8658	1	2636.88	-19.6766	-2.061911E-006	0.0035057	8
	6	4	251203.1	2619.521	-915.6464	1	2774.942	-19.26693	-2.887648E-006	0.003945	8
	7	4	199546.9	2772.244	-933.0919	1	2925.064	-18.60239	2.065482E-006	0.0036498	8
	8	4	158578.1	2939.46	-940.9004	1	3086.377	-17.7495	-6.375451E-006	0.0042684	8
	9	4	125953.1	3141.961	-891.2334	1	3265.917	-15.83626	4.029426E-006	-0.003515	7
	10	5	100078.1	3295.322	-863.8611	1	3406.67	-14.68942	8.637825E-007	0.0030109	7
	11	5	79453.13	3444.04	-811.275	1	3538.302	-13.2549	-1.091289E-006	0.0049678	7
	12	5	63140.62	3585.487	-754.7101	1	3664.056	-11.88668	4.432503E-007	0.0037522	7
	13	6	50203.12	3698.827	-684.9941	1	3761.72	-10.49187	6.618034E-007	0.003418	7
	14	6	39890.62	3779.005	-611.5178	1	3828.163	-9.191913	-1.093187E-006	0.0049619	7
	15	6	31640.63	3861.733	-550.8325	1	3900.82	-8.117835	1.037458E-006	0.002515	7
	16	7	25171.88	3909.719	-496.0899	1	3941.067	-7.231408	7.362667E-007	0.0015382	7
	17	7	20015.62	3957.362	-459.7826	1	3983.982	-6.627147	8.652921E-007	0.0030017	7
	18	7	15890.62	3988.262	-434.0787	1	4011.815	-6.211569	1.197859E-007	0.004211	7
	19	8	12609.37	4004.058	-419.7988	1	4026.004	-5.985214	-1.082955E-006	0.0038755	7
	20	8	10078.13	4052.208	-427.512	1	4074.697	-6.022484	1.038105E-006	0.0025026	7
	21	8	8015.625	4058.583	-449.56	1	4083.405	-6.320756	7.376497E-007	0.0015345	7
	22	9	6328.125	4075.447	-489.1658	1	4104.699	-6.844328	-1.244642E-006	0.0048183	7
	23	9	5015.625	4115.312	-551.6201	1	4152.117	-7.634472	1.107672E-006	0.0020926	7
	24	9	3984.375	4137.897	-633.7095	1	4186.142	-8.707066	8.652062E-007	0.0029969	7
	25	10	3170.956	4155.793	-735.8831	1	4220.443	-10.04151	-1.092828E-006	0.0049505	7
	26	10	2527.573	4195.845	-873.377	1	4285.779	-11.75838	4.468039E-007	0.0037428	7
	27	10	1976.103	4238.186	-1058.664	1	4368.408	-14.02501	6.590797E-007	0.0034092	7
	28	11	1577.524	4266.114	-1262.802	1	4449.09	-16.48915	-7.672288E-007	0.0031896	7
	29	11	1265.625	4311.989	-1523.471	1	4573.206	-19.45885	-1.241118E-006	0.004816	7
	30	11	998.264	4381.65	-1871.208	1	4764.481	-23.12517	-5.875357E-007	0.0048809	7
	31	11	796.875	4444.635	-2271.078	1	4991.25	-27.0657	-1.242456E-006	0.0044393	7
	32	12	627.7902	4538.199	-2798.878	1	5331.882	-31.6637	-1.080205E-006	0.0038703	7
	33	12	505.5147	4651.574	-3398.623	1	5760.884	-36.15334	-5.885951E-007	0.0048774	7
	34	12	397.9953	4797.517	-4203.987	1	6378.846	-41.22757	2.72207E-009	0.003316	7
	35	13	315.5048	4975.788	-5171.59	1	7176.615	-46.10543	-1.574064E-010	0.0033156	7
	36	13	252.4038	5194.798	-6313.269	1	8175.774	-50.55115	1.447001E-009	0.0033079	7
	37	13	198.6229	5499.759	-7819.956	1	9560.29	-54.88136	7.747769E-011	0.0033095	7
	38	14	158.3615	5879.897	-9569.93	1	11231.95	-58.43285	5.715682E-010	0.0032501	6
	39	14	125.558	6384.051	-11765.48	1	13385.91	-61.51536	5.69814E-010	0.0032439	6
	40	14	100.4464	7027.285	-14337.79	1	15967.31	-63.88945	8.884122E-010	0.0032422	6
	41	15	79.00281	7927.662	-17715.16	1	19408.11	-65.89114	-2.053789E-010	0.0032462	6
	42	15	63.3446	9037.722	-21276.75	1	23116.68	-66.98568	-3.883833E-010	0.0032491	6
	43	15	49.86702	10654.42	-26183.75	1	28268.46	-67.85811	5.009209E-010	0.0032379	6
	44	16	39.72458	12626.51	-31819.89	1	34233.52	-68.35623	5.102988E-010	0.003249	6
	45	16	31.6723	15232.47	-38398.71	1	41309.68	-68.36215	3.340482E-010	0.0032439	6
	46	16	24.93351	18923.57	-46451.47	1	50158.16	-67.83482	1.405881E-009	0.0032419	6
	47	17	19.86229	23357.34	-55350.3	1	60076.79	-67.12068	2.49727E-009	0.0032391	6
	48	17	15.83615	29078.92	-66279.06	1	72377.47	-66.31127	-2.241242E-009	0.0032428	6
	49	17	12.40079	36708.67	-78210.13	1	86396.47	-64.85654	1.616201E-009	0.0032469	6
	50	18	9.93114	45202	-91059.04	1	101661.1	-63.60005	1.488548E-009	0.0032493	6
	51	18	7.944915	55479.12	-104956.8	1	118717.5	-62.13951	2.353795E-009	0.0032375	5
	52	19	6.317385	68214.84	-121088.7	1	138981.1	-60.60544	1.420439E-009	0.0032363	5
	53	20	5.008013	83222.46	-139079.8	1	162077.6	-59.10456	6.723935E-010	0.0032509	5
	54	21	3.945707	100684.4	-158924.5	1	188133.9	-57.64428	8.297391E-011	0.003254	5
	55	22	3.158693	118469.8	-179523.2	1	215089.9	-56.57864	-2.456381E-010	0.0032406	5
	56	24	2.504006	139062.8	-202969.3	1	246038.6	-55.58331	2.951107E-010	0.0032365	5
	57	25	1.998082	159748.6	-228957.9	1	279179.8	-55.09573	2.645272E-010	0.0032586	5
	58	26	1.584686	183104	-258913.4	1	317117.1	-54.73198	-4.910589E-011	0.0032069	5
	59	28	1.266892	206977.4	-294228.3	1	359736	-54.87521	-8.873001E-011	0.0031951	5
	60	31	0.999041	233073.4	-338950.1	1	411351.9	-55.48628	-9.814786E-011	0.0032021	5
