EXPLAIN
TAG	EISPOT
TITLE	LABEL	Potentiostatic EIS	Test &Identifier
DATE	LABEL	10/24/2019	Date
TIME	LABEL	10:18:42	Time
NOTES	NOTES	1	&Notes...
	
PSTAT	PSTAT	REF600-11020	Potentiostat
VDC	POTEN	0.00000E+000	T	DC &Voltage (V)
FREQINIT	QUANT	1.00000E+006	Initial Fre&q. (Hz)
FREQFINAL	QUANT	1.00000E+000	Final Fre&q. (Hz)
PTSPERDEC	QUANT	1.00000E+001	Points/&decade
VAC	QUANT	2.50000E+001	AC &Voltage (mV rms)
AREA	QUANT	1.00000E-002	&Area (cm^2)
CONDIT	TWOPARAM	T	5.00000E+000	0.00000E+000	Conditionin&g	Time(s)	E(V)
DELAY	TWOPARAM	T	5.00000E+000	0.00000E+000	Init. De&lay	Time(s)	Stab.(mV/s)
SPEED	SELECTOR	1	&Optimize for:
ZGUESS	QUANT	1.00000E+005	E&stimated Z (ohms)
OCVCURVE	TABLE	19
	Pt	T	Vf	Vm	Ach	Over
	#	s	V vs. Ref.	V	V	bits
	0	0.258333	7.91390E-003	7.91390E-003	5.55499E-004	...........
	1	0.516667	7.90515E-003	7.45604E-003	5.55733E-004	...........
	2	0.775	7.85778E-003	7.35401E-003	5.58299E-004	...........
	3	1.03333	7.74509E-003	7.26802E-003	5.55499E-004	...........
	4	1.29167	7.58550E-003	7.19754E-003	5.53433E-004	...........
	5	1.55	7.42707E-003	7.10432E-003	5.59266E-004	...........
	6	1.80833	7.29784E-003	7.00381E-003	5.54733E-004	...........
	7	2.06667	7.19497E-003	6.94723E-003	5.53066E-004	...........
	8	2.325	7.10656E-003	6.87976E-003	5.59866E-004	...........
	9	2.58333	7.02705E-003	6.83971E-003	5.58599E-004	...........
	10	2.84167	6.95662E-003	6.78963E-003	5.61099E-004	...........
	11	3.1	6.89573E-003	6.74759E-003	5.63066E-004	...........
	12	3.35833	6.84257E-003	6.68949E-003	5.61566E-004	...........
	13	3.61667	6.79413E-003	6.67625E-003	5.59799E-004	...........
	14	3.875	6.74934E-003	6.64102E-003	5.63832E-004	...........
	15	4.13333	6.70941E-003	6.60787E-003	5.64766E-004	...........
	16	4.39167	6.67462E-003	6.59036E-003	5.59199E-004	...........
	17	4.65	6.64378E-003	6.56487E-003	5.64199E-004	...........
	18	4.90833	6.61590E-003	6.53451E-003	5.63732E-004	...........
EOC	QUANT	0.0066159	Open Circuit (V)
PSTATMODEL	IQUANT	4	Pstat Model
PSTATSECTION	LABEL	REF600-11020	Pstat Section
PSTATSERIALNO	LABEL	11020	Pstat Serial Number
CTRLMODE	IQUANT	1	Control Mode
IESTAB	IQUANT	0	I/E Stability
CASPEED	IQUANT	1	Control Amp Speed
CONVENTION	IQUANT	1	Current Convention
ICHRANGE	IQUANT	2	Ich Range
ICHRANGEMODE	TOGGLE	F	Ich Auto Range
ICHOFFSETENABLE	TOGGLE	T	Ich Offset Enable
ICHOFFSET	QUANT	0	Ich Offset (V)
ICHFILTER	IQUANT	3	Ich Filter
VCHRANGE	IQUANT	2	Vch Range
VCHRANGEMODE	TOGGLE	F	Vch Auto Range
VCHOFFSETENABLE	TOGGLE	T	Vch Offset Enable
VCHOFFSET	QUANT	0	Vch Offset (V)
VCHFILTER	IQUANT	3	Vch Filter
ACHRANGE	IQUANT	2	Ach Range
ACHOFFSETENABLE	TOGGLE	F	Ach Offset Enable
ACHOFFSET	QUANT	0	Ach Offset (V)
ACHFILTER	IQUANT	3	Ach Filter
IERANGELOWERLIMIT	IQUANT	1	I/E Range Lower Limit
IERANGEMODE	TOGGLE	F	I/E AutoRange
IERANGE	IQUANT	5	I/E Range
POSFEEDENABLE	TOGGLE	F	Positive Feedback IR Comp
POSFEEDRESISTANCE	QUANT	0	Positive Feedback Resistance (ohm)
ACHSELECT	IQUANT	0	Ach Select
CABLEID	IQUANT	14	Cable ID
DCCALDATE	LABEL	8/19/2019	DC Calibration Date
ACCALDATE	LABEL	8/19/2019	AC Calibration Date
THERMOSELECT	IQUANT	1	Thermo Select
FRAMEWORKVERSION	QUANT	6.33	Framework Version
INSTRUMENTVERSION	LABEL	3.50	Instrument Version
ZCURVE	TABLE
	Pt	Time	Freq	Zreal	Zimag	Zsig	Zmod	Zphz	Idc	Vdc	IERange
	#	s	Hz	ohm	ohm	V	ohm	°	A	V	#
	0	1	1000078	2489.323	-2044.597	1	3221.352	-39.39785	4.358464E-006	0.0075071	8
	1	3	794390.6	2908.011	-2035.51	1	3549.624	-34.99073	2.929469E-007	0.0079669	8
	2	5	630984.4	3286.16	-1959.26	1	3825.905	-30.80405	-3.882001E-006	0.0089027	8
	3	6	501234.4	3657.535	-1832.237	1	4090.801	-26.60851	1.418598E-006	0.0078824	8
	4	7	398109.4	3962.462	-1697.749	1	4310.854	-23.19311	-1.598581E-006	0.0083511	8
	5	9	316265.6	4199.4	-1531.876	1	4470.079	-20.04118	-7.788976E-007	0.0083827	8
	6	10	251203.1	4416.281	-1374.958	1	4625.37	-17.29337	2.902082E-006	0.0075376	8
	7	11	199546.9	4563.742	-1226.613	1	4725.708	-15.04406	-4.122626E-007	0.0080985	8
	8	13	158578.1	4702.508	-1109.137	1	4831.539	-13.27128	-3.464024E-007	0.0080954	8
	9	14	125953.1	4842.464	-962.568	1	4937.205	-11.24252	1.100196E-006	0.0056958	7
	10	15	100078.1	4921.677	-905.1612	1	5004.22	-10.421	6.748028E-008	0.0078936	7
	11	17	79453.13	5005.981	-867.4088	1	5080.576	-9.83029	-4.276911E-008	0.0080765	7
	12	18	63140.62	5086.606	-851.5201	1	5157.388	-9.50344	-3.265306E-009	0.0080277	7
	13	20	50203.12	5164.727	-855.6653	1	5235.128	-9.407022	-2.368304E-009	0.0080088	7
	14	21	39890.62	5244.634	-877.2228	1	5317.49	-9.495453	8.454978E-008	0.0079525	7
	15	22	31640.63	5332.074	-920.6373	1	5410.969	-9.79612	3.869979E-008	0.0079111	7
	16	24	25171.88	5423.83	-983.096	1	5512.206	-10.2736	-5.949642E-008	0.0082096	7
	17	25	20015.62	5505.048	-1091.48	1	5612.208	-11.21453	3.957804E-008	0.0079778	7
	18	26	15890.62	5635.999	-1164.066	1	5754.957	-11.66984	-5.069521E-008	0.0081125	7
	19	28	12609.37	5758.256	-1291.787	1	5901.375	-12.64419	-4.41547E-009	0.0080589	7
	20	29	10078.13	5893.286	-1433.117	1	6065.034	-13.66777	-1.192241E-009	0.0080149	7
	21	31	8015.625	6036.942	-1604.232	1	6246.458	-14.88161	1.456335E-008	0.0080946	7
	22	32	6328.125	6221.228	-1811.861	1	6479.7	-16.23759	1.003525E-008	0.0079411	7
	23	33	5015.625	6416.674	-2052.83	1	6737.048	-17.74057	-5.34331E-008	0.008192	7
	24	35	3984.375	6639.476	-2330.85	1	7036.725	-19.3441	-1.299257E-008	0.0080417	7
	25	36	3170.956	6878.084	-2646.996	1	7369.846	-21.04897	8.590433E-008	0.0079471	7
	26	37	2527.573	7153.788	-3004.515	1	7759.11	-22.78189	3.744555E-008	0.0079006	7
	27	39	1976.103	7495.324	-3464.399	1	8257.235	-24.80676	-7.849779E-010	0.0080158	7
	28	40	1577.524	7826.075	-3979.092	1	8779.557	-26.95062	3.770715E-008	0.0079025	7
	29	41	1265.625	8229.093	-4487.711	1	9373.234	-28.60571	5.196143E-008	0.0079386	7
	30	43	998.264	8686.562	-5143.491	1	10095.14	-30.63064	-2.767647E-009	0.007959	6
	31	44	796.875	9156.376	-5881.969	1	10882.87	-32.7163	-5.539218E-009	0.0079929	6
	32	46	627.7902	9680.71	-6792.42	1	11825.95	-35.05521	5.543782E-011	0.0080073	6
	33	47	505.5147	10195.11	-7768.49	1	12817.55	-37.30675	-8.471652E-009	0.008032	6
	34	48	397.9953	10766.38	-9063.248	1	14073.29	-40.09101	4.041609E-011	0.0079821	6
	35	50	315.5048	11333.46	-10614.12	1	15527.62	-43.1228	5.694145E-010	0.0079803	6
	36	51	252.4038	11904.11	-12459.69	1	17232.29	-46.30632	6.783338E-010	0.0079792	6
	37	52	198.6229	12544.23	-14941.43	1	19509.08	-49.98451	6.121061E-010	0.007985	6
	38	54	158.3615	13218.69	-17882.79	1	22237.98	-53.52874	7.789117E-013	0.0079807	6
	39	55	125.558	13998.68	-21661.04	1	25790.77	-57.127	5.458238E-010	0.0079773	6
	40	57	100.4464	14937.4	-26156.73	1	30121.43	-60.27049	1.433517E-009	0.0079737	6
	41	58	79.00281	16049.75	-32233.98	1	36008.66	-63.53064	1.26248E-009	0.0079755	6
	42	59	63.3446	17140.54	-38836.8	1	42451.09	-66.18584	-2.805026E-011	0.0079754	6
	43	61	49.86702	19752.87	-47925.7	1	51836.75	-67.60069	1.06662E-009	0.0079767	6
	44	62	39.72458	21993.85	-58858.11	1	62833.17	-69.51051	2.612455E-010	0.0079797	6
	45	64	31.6723	25305.52	-72124.52	1	76435.05	-70.66614	6.582889E-010	0.0079774	6
	46	65	24.93351	29980.68	-88778.02	1	93703.67	-71.33997	7.559973E-010	0.0079787	6
	47	66	19.86229	35851.51	-108303.1	1	114082.8	-71.68393	3.296817E-010	0.0079862	5
	48	68	15.83615	42615.64	-131890.1	1	138604.1	-72.09358	-1.2737E-009	0.0079786	5
	49	69	12.40079	54714.9	-160116	1	169206.6	-71.13366	3.734154E-010	0.0079787	5
	50	71	9.93114	69266	-193826.1	1	205830.9	-70.33507	-1.583488E-010	0.0079749	5
	51	72	7.944915	86868.9	-231799.9	1	247542.8	-69.45611	1.230731E-010	0.0079735	5
	52	74	6.317385	111382.6	-274230.2	1	295987	-67.89475	3.097937E-010	0.0079746	5
	53	76	5.008013	142710.3	-324200.7	1	354220.7	-66.24133	3.621541E-010	0.00799	5
	54	78	3.945707	183110.9	-381493.2	1	423162.7	-64.3597	1.572823E-010	0.007984	5
	55	81	3.158693	228598.1	-439338	1	495252.4	-62.51095	1.254187E-010	0.0079922	5
	56	84	2.504006	283420.5	-504584	1	578733.3	-60.67745	2.118501E-010	0.0079764	5
	57	87	1.998082	342514.1	-572469.8	1	667111.3	-59.10752	-5.24402E-011	0.0080016	5
	58	90	1.584686	414034.4	-645888.2	1	767200.1	-57.33886	1.466519E-010	0.0080216	5
	59	94	1.266892	484283.8	-731206.6	1	877036.9	-56.48318	4.333098E-011	0.008011	5
	60	98	0.999041	559704.4	-829712.1	1	1000845	-55.99732	1.816429E-010	0.0079663	4
