EXPLAIN
TAG	EISPOT
TITLE	LABEL	Potentiostatic IDE	Test &Identifier
DATE	LABEL	9/8/2019	Date
TIME	LABEL	10:51:20	Time
NOTES	NOTES	1	&Notes...
	
PSTAT	PSTAT	REF600-11020	Potentiostat
VDC	POTEN	0.00000E+000	T	DC &Voltage (V)
FREQINIT	QUANT	1.00000E+006	Initial Fre&q. (Hz)
FREQFINAL	QUANT	1.00000E+000	Final Fre&q. (Hz)
PTSPERDEC	QUANT	1.00000E+001	Points/&decade
VAC	QUANT	2.50000E+001	AC &Voltage (mV rms)
AREA	QUANT	1.00000E-002	&Area (cm^2)
CONDIT	TWOPARAM	T	5.00000E+000	0.00000E+000	Conditionin&g	Time(s)	E(V)
DELAY	TWOPARAM	T	5.00000E+000	0.00000E+000	Init. De&lay	Time(s)	Stab.(mV/s)
SPEED	SELECTOR	1	&Optimize for:
ZGUESS	QUANT	1.00000E+007	E&stimated Z (ohms)
OCVCURVE	TABLE	19
	Pt	T	Vf	Vm	Ach	Over
	#	s	V vs. Ref.	V	V	bits
	0	0.258333	4.54987E-003	4.54987E-003	5.61932E-004	...........
	1	0.516667	4.54404E-003	4.24454E-003	5.62599E-004	...........
	2	0.775	4.50845E-003	3.96722E-003	5.60266E-004	...........
	3	1.03333	4.40898E-003	3.72369E-003	5.62499E-004	...........
	4	1.29167	4.23450E-003	3.49602E-003	5.58599E-004	...........
	5	1.55	4.00895E-003	3.28858E-003	5.58599E-004	...........
	6	1.80833	3.76751E-003	3.08997E-003	5.65599E-004	...........
	7	2.06667	3.53374E-003	2.90818E-003	5.58832E-004	...........
	8	2.325	3.31647E-003	2.73747E-003	5.56432E-004	...........
	9	2.58333	3.11613E-003	2.57321E-003	5.57566E-004	...........
	10	2.84167	2.93026E-003	2.41638E-003	5.60766E-004	...........
	11	3.1	2.75591E-003	2.26397E-003	5.62532E-004	...........
	12	3.35833	2.59057E-003	2.12248E-003	5.59799E-004	...........
	13	3.61667	2.43278E-003	1.98597E-003	5.59799E-004	...........
	14	3.875	2.28196E-003	1.85035E-003	5.58599E-004	...........
	15	4.13333	2.13755E-003	1.72265E-003	5.62032E-004	...........
	16	4.39167	1.99874E-003	1.59706E-003	5.60999E-004	...........
	17	4.65	1.86471E-003	1.47301E-003	5.60466E-004	...........
	18	4.90833	1.73446E-003	1.33490E-003	5.58032E-004	...........
EOC	QUANT	0.0017345	Open Circuit (V)
PSTATMODEL	IQUANT	4	Pstat Model
PSTATSECTION	LABEL	REF600-11020	Pstat Section
PSTATSERIALNO	LABEL	11020	Pstat Serial Number
CTRLMODE	IQUANT	1	Control Mode
IESTAB	IQUANT	0	I/E Stability
CASPEED	IQUANT	1	Control Amp Speed
CONVENTION	IQUANT	1	Current Convention
ICHRANGE	IQUANT	2	Ich Range
ICHRANGEMODE	TOGGLE	F	Ich Auto Range
ICHOFFSETENABLE	TOGGLE	T	Ich Offset Enable
ICHOFFSET	QUANT	0	Ich Offset (V)
ICHFILTER	IQUANT	3	Ich Filter
VCHRANGE	IQUANT	2	Vch Range
VCHRANGEMODE	TOGGLE	F	Vch Auto Range
VCHOFFSETENABLE	TOGGLE	T	Vch Offset Enable
VCHOFFSET	QUANT	0	Vch Offset (V)
VCHFILTER	IQUANT	3	Vch Filter
ACHRANGE	IQUANT	2	Ach Range
ACHOFFSETENABLE	TOGGLE	F	Ach Offset Enable
ACHOFFSET	QUANT	0	Ach Offset (V)
ACHFILTER	IQUANT	3	Ach Filter
IERANGELOWERLIMIT	IQUANT	1	I/E Range Lower Limit
IERANGEMODE	TOGGLE	F	I/E AutoRange
IERANGE	IQUANT	2	I/E Range
POSFEEDENABLE	TOGGLE	F	Positive Feedback IR Comp
POSFEEDRESISTANCE	QUANT	0	Positive Feedback Resistance (ohm)
ACHSELECT	IQUANT	0	Ach Select
CABLEID	IQUANT	14	Cable ID
DCCALDATE	LABEL	8/19/2019	DC Calibration Date
ACCALDATE	LABEL	8/19/2019	AC Calibration Date
THERMOSELECT	IQUANT	1	Thermo Select
FRAMEWORKVERSION	QUANT	6.33	Framework Version
INSTRUMENTVERSION	LABEL	3.50	Instrument Version
ZCURVE	TABLE
	Pt	Time	Freq	Zreal	Zimag	Zsig	Zmod	Zphz	Idc	Vdc	IERange
	#	s	Hz	ohm	ohm	V	ohm	°	A	V	#
	0	2	1000078	2808.896	-1801.995	1	3337.227	-32.68144	5.750812E-006	0.0027461	8
	1	4	794390.6	3185.881	-1704.418	1	3613.154	-28.14639	-1.937527E-006	0.0037352	8
	2	5	630984.4	3478.919	-1537.389	1	3803.478	-23.84138	-4.029633E-006	0.004626	8
	3	7	501234.4	3729.233	-1351.787	1	3966.675	-19.92476	2.901753E-006	0.0031208	8
	4	8	398109.4	3895.823	-1191.097	1	4073.837	-17.00033	1.213472E-006	0.0032378	8
	5	9	316265.6	4034.962	-1020.053	1	4161.902	-14.18733	7.925804E-007	0.0032483	8
	6	11	251203.1	4132.003	-874.6477	1	4223.56	-11.95174	-1.869984E-006	0.0036478	8
	7	12	199546.9	4225.492	-767.7965	1	4294.682	-10.29861	-1.837335E-006	0.0036568	8
	8	14	158578.1	4281.127	-629.9544	1	4327.227	-8.370823	-2.019839E-006	0.0036783	8
	9	15	125953.1	4357.121	-521.9756	1	4388.275	-6.831381	-5.690457E-007	0.0046702	7
	10	17	100078.1	4387.7	-474.7371	1	4413.308	-6.175223	8.136968E-008	0.0032602	7
	11	18	79453.13	4422.034	-442.9535	1	4444.164	-5.720216	-4.334732E-008	0.003536	7
	12	19	63140.62	4455.473	-424.3021	1	4475.63	-5.439967	-2.409312E-008	0.0033922	7
	13	21	50203.12	4487.08	-418.491	1	4506.553	-5.328322	-4.338014E-008	0.0035252	7
	14	22	39890.62	4520.601	-425.2847	1	4540.562	-5.374399	-9.90218E-009	0.003411	7
	15	23	31640.63	4551.971	-439.2671	1	4573.116	-5.511999	-4.435999E-008	0.0035302	7
	16	25	25171.88	4586.674	-468.8246	1	4610.572	-5.83619	-1.036627E-008	0.0034073	7
	17	26	20015.62	4623.742	-509.9359	1	4651.776	-6.293512	-3.415077E-008	0.0033911	7
	18	27	15890.62	4661.461	-569.1256	1	4696.076	-6.960886	5.133439E-010	0.0033208	7
	19	29	12609.37	4705.768	-639.9799	1	4749.087	-7.744656	-1.10195E-008	0.0034284	7
	20	30	10078.13	4749.013	-727.0175	1	4804.339	-8.70373	-4.974822E-008	0.0034757	7
	21	31	8015.625	4807.667	-840.0801	1	4880.512	-9.91166	-3.841071E-008	0.0033942	7
	22	33	6328.125	4870.672	-981.32	1	4968.545	-11.39118	2.355244E-008	0.0032915	7
	23	34	5015.625	4940.488	-1151.986	1	5073.017	-13.12529	8.853783E-008	0.0031973	7
	24	35	3984.375	5021.744	-1357.92	1	5202.101	-15.13137	7.169492E-008	0.0033592	7
	25	37	3170.956	5115.399	-1604.373	1	5361.093	-17.4133	3.953897E-008	0.0033403	7
	26	38	2527.573	5224.164	-1901.466	1	5559.448	-20.00026	-1.053662E-008	0.003422	7
	27	39	1976.103	5361.79	-2290.448	1	5830.518	-23.13119	-6.719119E-008	0.0034731	7
	28	41	1577.524	5507.397	-2720.582	1	6142.718	-26.28877	-1.588108E-008	0.0035022	7
	29	42	1265.625	5676.873	-3225.774	1	6529.357	-29.60657	-6.82954E-010	0.0033134	7
	30	43	998.264	5889.271	-3878.498	1	7051.685	-33.36771	-3.843503E-008	0.0034265	7
	31	45	796.875	6118.688	-4630.42	1	7673.274	-37.11723	-4.173134E-008	0.003405	7
	32	46	627.7902	6403.94	-5594.722	1	8503.608	-41.14168	2.411586E-008	0.0032908	7
	33	47	505.5147	6700.77	-6657.966	1	9446.101	-44.81641	1.400284E-007	0.0031722	7
	34	49	397.9953	7089.007	-8079.233	1	10748.4	-48.73513	9.163349E-010	0.0033355	6
	35	50	315.5048	7526.595	-9772.55	1	12335.01	-52.39736	2.089737E-009	0.003341	6
	36	51	252.4038	8023.767	-11754.02	1	14231.58	-55.68099	1.010807E-009	0.0033416	6
	37	53	198.6229	8658.775	-14358.9	1	16767.6	-58.90897	1.083271E-009	0.0033433	6
	38	54	158.3615	9384.965	-17378.39	1	19750.6	-61.62934	7.350306E-010	0.0033374	6
	39	55	125.558	10288.71	-21158.36	1	23527.3	-64.06765	1.363124E-009	0.0033412	6
	40	57	100.4464	11341.29	-25564.81	1	27967.56	-66.07655	1.878442E-009	0.0033435	6
	41	58	79.00281	12828.94	-31413.81	1	33932.43	-67.78561	9.6791E-010	0.0033368	6
	42	59	63.3446	14267.89	-38243.18	1	40818.05	-69.5403	8.41437E-010	0.0033358	6
	43	61	49.86702	16548.62	-46319.96	1	49187.35	-70.33984	1.572153E-009	0.0033322	6
	44	62	39.72458	19331.29	-56592.51	1	59803.1	-71.14048	1.176593E-009	0.0033321	6
	45	63	31.6723	22539.64	-68505.79	1	72118.5	-71.78786	7.623865E-010	0.003339	6
	46	65	24.93351	27257.91	-83892.91	1	88210.05	-72.00034	5.101234E-010	0.0033408	6
	47	66	19.86229	32869.13	-101407.8	1	106601.7	-72.04102	9.983023E-010	0.0033427	5
	48	67	15.83615	39068.92	-123298.8	1	129340.5	-72.41848	-5.287472E-011	0.0033375	5
	49	69	12.40079	50191.48	-151092.2	1	159210.6	-71.62397	1.242172E-009	0.0033461	5
	50	70	9.93114	61557.49	-179556	1	189814.9	-71.07666	1.058962E-009	0.0033379	5
	51	72	7.944915	76011.41	-214863.7	1	227912.5	-70.51796	1.476566E-010	0.0033357	5
	52	73	6.317385	95613.7	-257608	1	274779.6	-69.63709	1.690465E-010	0.0033548	5
	53	75	5.008013	121410.2	-307506	1	330606	-68.45479	4.341622E-010	0.0033481	5
	54	78	3.945707	153993.7	-366755	1	397772.9	-67.22336	4.749895E-010	0.0033369	5
	55	80	3.158693	192153	-429384.4	1	470418.7	-65.8911	4.102491E-010	0.0033534	5
	56	84	2.504006	241121.2	-504330.4	1	559006.8	-64.44746	4.799559E-011	0.0033326	5
	57	86	1.998082	298299.9	-583908.9	1	655692.3	-62.939	1.566256E-010	0.0033039	5
	58	90	1.584686	367501.3	-673485.2	1	767228.4	-61.37999	1.299912E-010	0.0033447	5
	59	93	1.266892	446631.3	-770089.4	1	890234.3	-59.88741	2.092773E-010	0.0032922	5
	60	97	0.999041	542108.4	-882569.7	1	1035766	-58.44014	8.579859E-011	0.0033691	4
