EXPLAIN
TAG	EISPOT
TITLE	LABEL	Potentiostatic EIS	Test &Identifier
DATE	LABEL	10/24/2019	Date
TIME	LABEL	8:55:29	Time
NOTES	NOTES	1	&Notes...
	
PSTAT	PSTAT	REF600-11020	Potentiostat
VDC	POTEN	0.00000E+000	T	DC &Voltage (V)
FREQINIT	QUANT	1.00000E+006	Initial Fre&q. (Hz)
FREQFINAL	QUANT	1.00000E+000	Final Fre&q. (Hz)
PTSPERDEC	QUANT	1.00000E+001	Points/&decade
VAC	QUANT	2.50000E+001	AC &Voltage (mV rms)
AREA	QUANT	1.00000E-002	&Area (cm^2)
CONDIT	TWOPARAM	T	5.00000E+000	0.00000E+000	Conditionin&g	Time(s)	E(V)
DELAY	TWOPARAM	T	5.00000E+000	0.00000E+000	Init. De&lay	Time(s)	Stab.(mV/s)
SPEED	SELECTOR	1	&Optimize for:
ZGUESS	QUANT	1.00000E+005	E&stimated Z (ohms)
OCVCURVE	TABLE	19
	Pt	T	Vf	Vm	Ach	Over
	#	s	V vs. Ref.	V	V	bits
	0	0.258333	4.97727E-003	4.97727E-003	5.61899E-004	...........
	1	0.516667	4.97443E-003	4.82879E-003	5.62666E-004	...........
	2	0.775	4.95764E-003	4.72078E-003	5.62566E-004	...........
	3	1.03333	4.91184E-003	4.59743E-003	5.62932E-004	...........
	4	1.29167	4.83336E-003	4.53580E-003	5.58499E-004	...........
	5	1.55	4.73544E-003	4.46175E-003	5.57732E-004	...........
	6	1.80833	4.63650E-003	4.38425E-003	5.56633E-004	...........
	7	2.06667	4.54710E-003	4.33031E-003	5.55833E-004	...........
	8	2.325	4.46879E-003	4.28520E-003	5.62999E-004	...........
	9	2.58333	4.40051E-003	4.23426E-003	5.61399E-004	...........
	10	2.84167	4.34116E-003	4.19527E-003	5.62999E-004	...........
	11	3.1	4.28906E-003	4.15649E-003	5.64532E-004	...........
	12	3.35833	4.24243E-003	4.11910E-003	5.61232E-004	...........
	13	3.61667	4.19992E-003	4.08426E-003	5.61799E-004	...........
	14	3.875	4.16086E-003	4.07060E-003	5.61099E-004	...........
	15	4.13333	4.12538E-003	4.02279E-003	5.59966E-004	...........
	16	4.39167	4.09311E-003	4.00272E-003	5.60966E-004	...........
	17	4.65	4.06277E-003	3.98541E-003	5.56966E-004	...........
	18	4.90833	4.03403E-003	3.95006E-003	5.60699E-004	...........
EOC	QUANT	0.004034	Open Circuit (V)
PSTATMODEL	IQUANT	4	Pstat Model
PSTATSECTION	LABEL	REF600-11020	Pstat Section
PSTATSERIALNO	LABEL	11020	Pstat Serial Number
CTRLMODE	IQUANT	1	Control Mode
IESTAB	IQUANT	0	I/E Stability
CASPEED	IQUANT	1	Control Amp Speed
CONVENTION	IQUANT	1	Current Convention
ICHRANGE	IQUANT	2	Ich Range
ICHRANGEMODE	TOGGLE	F	Ich Auto Range
ICHOFFSETENABLE	TOGGLE	T	Ich Offset Enable
ICHOFFSET	QUANT	0	Ich Offset (V)
ICHFILTER	IQUANT	3	Ich Filter
VCHRANGE	IQUANT	2	Vch Range
VCHRANGEMODE	TOGGLE	F	Vch Auto Range
VCHOFFSETENABLE	TOGGLE	T	Vch Offset Enable
VCHOFFSET	QUANT	0	Vch Offset (V)
VCHFILTER	IQUANT	3	Vch Filter
ACHRANGE	IQUANT	2	Ach Range
ACHOFFSETENABLE	TOGGLE	F	Ach Offset Enable
ACHOFFSET	QUANT	0	Ach Offset (V)
ACHFILTER	IQUANT	3	Ach Filter
IERANGELOWERLIMIT	IQUANT	1	I/E Range Lower Limit
IERANGEMODE	TOGGLE	F	I/E AutoRange
IERANGE	IQUANT	4	I/E Range
POSFEEDENABLE	TOGGLE	F	Positive Feedback IR Comp
POSFEEDRESISTANCE	QUANT	0	Positive Feedback Resistance (ohm)
ACHSELECT	IQUANT	0	Ach Select
CABLEID	IQUANT	14	Cable ID
DCCALDATE	LABEL	8/19/2019	DC Calibration Date
ACCALDATE	LABEL	8/19/2019	AC Calibration Date
THERMOSELECT	IQUANT	1	Thermo Select
FRAMEWORKVERSION	QUANT	6.33	Framework Version
INSTRUMENTVERSION	LABEL	3.50	Instrument Version
ZCURVE	TABLE
	Pt	Time	Freq	Zreal	Zimag	Zsig	Zmod	Zphz	Idc	Vdc	IERange
	#	s	Hz	ohm	ohm	V	ohm	°	A	V	#
	0	2	1000078	2336.515	-1542.939	1	2799.993	-33.43914	3.210587E-006	0.0058794	8
	1	4	794390.6	2646.07	-1457.583	1	3020.966	-28.84808	8.705285E-008	0.0058335	8
	2	5	630984.4	2909.008	-1332.905	1	3199.838	-24.6172	-3.082842E-006	0.0063883	8
	3	6	501234.4	3133.216	-1171.736	1	3345.147	-20.50441	1.619057E-006	0.0053333	8
	4	8	398109.4	3296.662	-1025.753	1	3452.557	-17.28348	1.188532E-006	0.0053112	8
	5	9	316265.6	3417.479	-879.7755	1	3528.905	-14.43642	-5.400022E-007	0.0057413	8
	6	10	251203.1	3504.27	-755.7603	1	3584.841	-12.17048	-3.814396E-006	0.0064394	8
	7	12	199546.9	3573.313	-653.9744	1	3632.664	-10.37128	-3.747739E-007	0.0057177	8
	8	13	158578.1	3593.069	-552.3866	1	3635.282	-8.740035	-9.729774E-007	0.0057469	8
	9	15	125953.1	3687.399	-448.6683	1	3714.595	-6.937424	1.076039E-006	0.0031541	7
	10	16	100078.1	3720.731	-409.6916	1	3743.219	-6.283554	1.120676E-007	0.0053437	7
	11	17	79453.13	3751.241	-381.6071	1	3770.601	-5.808617	-3.308339E-008	0.005525	7
	12	19	63140.62	3780	-363.6106	1	3797.448	-5.494564	-3.473676E-008	0.0055264	7
	13	20	50203.12	3809.564	-355.376	1	3826.104	-5.329425	-9.747406E-009	0.0055424	7
	14	21	39890.62	3837.955	-358.3024	1	3854.644	-5.33354	1.086631E-008	0.0054406	7
	15	23	31640.63	3869.299	-367.6236	1	3886.724	-5.427402	-2.946887E-008	0.0055175	7
	16	24	25171.88	3901.223	-387.188	1	3920.39	-5.667921	-7.88624E-009	0.0054618	7
	17	25	20015.62	3936.57	-417.3832	1	3958.635	-6.052295	5.880254E-008	0.0053989	7
	18	27	15890.62	3971.477	-455.0515	1	3997.462	-6.53644	3.813254E-008	0.0053826	7
	19	28	12609.37	4011.429	-504.9307	1	4043.083	-7.174261	-5.985427E-008	0.0055969	7
	20	29	10078.13	4049.258	-564.9876	1	4088.484	-7.943123	5.960576E-008	0.0053965	7
	21	31	8015.625	4094.894	-641.5012	1	4144.837	-8.903523	-3.257084E-008	0.0055137	7
	22	32	6328.125	4145.766	-737.7617	1	4210.898	-10.09047	-5.95315E-009	0.0055294	7
	23	34	5015.625	4195.698	-853.6348	1	4281.656	-11.50014	-3.170201E-008	0.0055159	7
	24	35	3984.375	4250.602	-1009.173	1	4368.758	-13.35582	-2.98455E-008	0.0055254	7
	25	36	3170.956	4305.414	-1175.38	1	4462.971	-15.26969	-1.228528E-008	0.005616	7
	26	38	2527.573	4365.473	-1391.94	1	4582.014	-17.68498	6.849135E-008	0.0053595	7
	27	39	1976.103	4437.92	-1685.228	1	4747.118	-20.79346	-3.641922E-009	0.0055291	7
	28	40	1577.524	4497.376	-2022.309	1	4931.138	-24.21174	-2.925948E-008	0.0055096	7
	29	42	1265.625	4588.897	-2426.835	1	5191.099	-27.87209	-1.304008E-008	0.0054709	7
	30	43	998.264	4693.172	-2967.135	1	5552.455	-32.30204	-6.183926E-009	0.0054599	7
	31	44	796.875	4807.95	-3608.875	1	6011.686	-36.8921	7.139175E-008	0.0054577	7
	32	46	627.7902	4956.038	-4443.794	1	6656.547	-41.88075	-4.6561E-009	0.0055293	7
	33	47	505.5147	5118.524	-5384.415	1	7429.079	-46.45018	-1.389506E-008	0.0056109	7
	34	48	397.9953	5344.296	-6653.01	1	8533.7	-51.22544	5.617811E-009	0.0055178	7
	35	50	315.5048	5620.194	-8185.611	1	9929.29	-55.52673	5.486296E-009	0.0055166	7
	36	51	252.4038	5956.944	-9992.57	1	11633.43	-59.19926	1.718074E-009	0.0054538	6
	37	53	198.6229	6415.708	-12380.12	1	13943.77	-62.6056	9.033734E-010	0.0054565	6
	38	54	158.3615	6981.064	-15156.83	1	16687.26	-65.26973	1.439591E-009	0.0054549	6
	39	55	125.558	7724.385	-18635.98	1	20173.39	-67.4866	7.995217E-010	0.0054556	6
	40	57	100.4464	8664.563	-22698.03	1	24295.58	-69.10654	1.51346E-009	0.0054535	6
	41	58	79.00281	9911.16	-28025.1	1	29726.04	-70.52371	1.672167E-009	0.0054516	6
	42	60	63.3446	11482.82	-33709.02	1	35611.14	-71.18884	5.129565E-010	0.0054496	6
	43	61	49.86702	13982.8	-41888.66	1	44160.82	-71.54053	1.428774E-009	0.005448	6
	44	62	39.72458	16456.52	-50828.99	1	53426.61	-72.05999	6.472305E-010	0.0054538	6
	45	64	31.6723	19940.63	-61484.74	1	64637.46	-72.03117	3.021267E-010	0.0054544	6
	46	65	24.93351	24748.06	-75189.59	1	79157.7	-71.78145	7.41527E-010	0.0054533	6
	47	67	19.86229	30708.61	-90557.7	1	95622.8	-71.26792	5.32312E-010	0.0054446	6
	48	68	15.83615	39097.14	-109191.3	1	115979.9	-70.29955	-9.175922E-010	0.0054545	5
	49	70	12.40079	47630.44	-131821.7	1	140162.8	-70.13395	-3.895551E-010	0.0054499	5
	50	71	9.93114	60649.27	-155911.5	1	167292.3	-68.74406	4.754328E-011	0.0054552	5
	51	73	7.944915	75735.9	-183126.7	1	198169.9	-67.53143	1.219645E-009	0.0054525	5
	52	74	6.317385	95004.2	-217354.8	1	237210.7	-66.39021	1.256138E-011	0.0054696	5
	53	76	5.008013	119224.6	-255359.4	1	281820.8	-64.97263	1.409911E-010	0.0054558	5
	54	79	3.945707	149417.7	-299252	1	334480.8	-63.46686	4.859583E-010	0.0054654	5
	55	82	3.158693	183136.6	-345946	1	391430.3	-62.10419	-7.001739E-011	0.0054394	5
	56	85	2.504006	224378.7	-399564.9	1	458255.3	-60.68328	4.255233E-010	0.0054526	5
	57	88	1.998082	271859.8	-455136.9	1	530148.4	-59.14953	2.419001E-010	0.0054841	5
	58	91	1.584686	325898.3	-516894.8	1	611056.4	-57.76888	1.830918E-010	0.0054193	5
	59	94	1.266892	383672.4	-585480	1	699993.8	-56.76267	2.385995E-010	0.0054724	5
	60	99	0.999041	452362.2	-666403.9	1	805435.1	-55.83091	-1.71494E-010	0.0054262	5
