EXPLAIN
TAG	EISPOT
TITLE	LABEL	Potentiostatic IDE	Test &Identifier
DATE	LABEL	9/8/2019	Date
TIME	LABEL	8:30:58	Time
NOTES	NOTES	1	&Notes...
	
PSTAT	PSTAT	REF600-11020	Potentiostat
VDC	POTEN	0.00000E+000	T	DC &Voltage (V)
FREQINIT	QUANT	1.00000E+006	Initial Fre&q. (Hz)
FREQFINAL	QUANT	1.00000E+000	Final Fre&q. (Hz)
PTSPERDEC	QUANT	1.00000E+001	Points/&decade
VAC	QUANT	2.50000E+001	AC &Voltage (mV rms)
AREA	QUANT	1.00000E-002	&Area (cm^2)
CONDIT	TWOPARAM	T	5.00000E+000	0.00000E+000	Conditionin&g	Time(s)	E(V)
DELAY	TWOPARAM	T	5.00000E+000	0.00000E+000	Init. De&lay	Time(s)	Stab.(mV/s)
SPEED	SELECTOR	1	&Optimize for:
ZGUESS	QUANT	1.00000E+007	E&stimated Z (ohms)
OCVCURVE	TABLE	19
	Pt	T	Vf	Vm	Ach	Over
	#	s	V vs. Ref.	V	V	bits
	0	0.258333	3.11849E-002	3.11849E-002	5.62966E-004	...........
	1	0.516667	3.12205E-002	3.30510E-002	5.66699E-004	...........
	2	0.775	3.14376E-002	3.47265E-002	5.65132E-004	...........
	3	1.03333	3.20442E-002	3.62456E-002	5.66899E-004	...........
	4	1.29167	3.31095E-002	3.76414E-002	5.63366E-004	...........
	5	1.55	3.44902E-002	3.89288E-002	5.68699E-004	...........
	6	1.80833	3.59724E-002	4.01137E-002	5.67866E-004	...........
	7	2.06667	3.74082E-002	4.12250E-002	5.61199E-004	...........
	8	2.325	3.87387E-002	4.22495E-002	5.67132E-004	...........
	9	2.58333	3.99587E-002	4.32182E-002	5.70699E-004	...........
	10	2.84167	4.10823E-002	4.41113E-002	5.67032E-004	...........
	11	3.1	4.21242E-002	4.49624E-002	5.70866E-004	...........
	12	3.35833	4.30956E-002	4.57520E-002	5.72232E-004	...........
	13	3.61667	4.40046E-002	4.65037E-002	5.68399E-004	...........
	14	3.875	4.48571E-002	4.72054E-002	5.65332E-004	...........
	15	4.13333	4.56581E-002	4.78613E-002	5.65399E-004	...........
	16	4.39167	4.64112E-002	4.84982E-002	5.69132E-004	...........
	17	4.65	4.71200E-002	4.90880E-002	5.68666E-004	...........
	18	4.90833	4.77890E-002	4.96577E-002	5.65099E-004	...........
EOC	QUANT	0.047789	Open Circuit (V)
PSTATMODEL	IQUANT	4	Pstat Model
PSTATSECTION	LABEL	REF600-11020	Pstat Section
PSTATSERIALNO	LABEL	11020	Pstat Serial Number
CTRLMODE	IQUANT	1	Control Mode
IESTAB	IQUANT	0	I/E Stability
CASPEED	IQUANT	1	Control Amp Speed
CONVENTION	IQUANT	1	Current Convention
ICHRANGE	IQUANT	2	Ich Range
ICHRANGEMODE	TOGGLE	F	Ich Auto Range
ICHOFFSETENABLE	TOGGLE	T	Ich Offset Enable
ICHOFFSET	QUANT	0	Ich Offset (V)
ICHFILTER	IQUANT	3	Ich Filter
VCHRANGE	IQUANT	2	Vch Range
VCHRANGEMODE	TOGGLE	F	Vch Auto Range
VCHOFFSETENABLE	TOGGLE	T	Vch Offset Enable
VCHOFFSET	QUANT	0	Vch Offset (V)
VCHFILTER	IQUANT	3	Vch Filter
ACHRANGE	IQUANT	2	Ach Range
ACHOFFSETENABLE	TOGGLE	F	Ach Offset Enable
ACHOFFSET	QUANT	0	Ach Offset (V)
ACHFILTER	IQUANT	3	Ach Filter
IERANGELOWERLIMIT	IQUANT	1	I/E Range Lower Limit
IERANGEMODE	TOGGLE	F	I/E AutoRange
IERANGE	IQUANT	3	I/E Range
POSFEEDENABLE	TOGGLE	F	Positive Feedback IR Comp
POSFEEDRESISTANCE	QUANT	0	Positive Feedback Resistance (ohm)
ACHSELECT	IQUANT	0	Ach Select
CABLEID	IQUANT	14	Cable ID
DCCALDATE	LABEL	8/19/2019	DC Calibration Date
ACCALDATE	LABEL	8/19/2019	AC Calibration Date
THERMOSELECT	IQUANT	1	Thermo Select
FRAMEWORKVERSION	QUANT	6.33	Framework Version
INSTRUMENTVERSION	LABEL	3.50	Instrument Version
ZCURVE	TABLE
	Pt	Time	Freq	Zreal	Zimag	Zsig	Zmod	Zphz	Idc	Vdc	IERange
	#	s	Hz	ohm	ohm	V	ohm	°	A	V	#
	0	3	1000078	2560.278	-1784.725	1	3120.94	-34.87968	-4.192543E-006	0.050671	8
	1	4	794390.6	2929.812	-1713.547	1	3394.118	-30.3219	9.663597E-006	0.0482851	8
	2	6	630984.4	3245.257	-1553.312	1	3597.843	-25.57767	-3.465199E-006	0.0499982	8
	3	7	501234.4	3481.338	-1394.32	1	3750.179	-21.82673	3.517766E-006	0.0489279	8
	4	9	398109.4	3696.077	-1226.521	1	3894.27	-18.35811	-1.412013E-006	0.0497389	8
	5	10	316265.6	3829.66	-1023.715	1	3964.125	-14.96595	-2.014226E-006	0.0497824	8
	6	12	251203.1	3917.723	-898.3646	1	4019.405	-12.91509	1.825435E-008	0.0496644	8
	7	13	199546.9	4033.084	-769.501	1	4105.837	-10.80204	2.708276E-006	0.0488614	8
	8	15	158578.1	4109.269	-684.6397	1	4165.912	-9.459088	4.700017E-006	0.0484895	8
	9	16	125953.1	4159.181	-548.1157	1	4195.142	-7.507436	-1.088472E-006	0.0513643	7
	10	17	100078.1	4193.222	-494.7224	1	4222.305	-6.728734	9.920026E-008	0.0491287	7
	11	19	79453.13	4230.54	-466.3991	1	4256.172	-6.291211	-2.278986E-008	0.0494965	7
	12	20	63140.62	4263.442	-452.5753	1	4287.396	-6.059402	-2.010041E-008	0.0494024	7
	13	21	50203.12	4299.238	-449.9205	1	4322.716	-5.974327	-2.114746E-008	0.0494021	7
	14	23	39890.62	4330.842	-460.7785	1	4355.285	-6.073119	3.899828E-008	0.0493006	7
	15	24	31640.63	4377.279	-482.4621	1	4403.787	-6.289732	1.022569E-007	0.0491209	7
	16	25	25171.88	4417.173	-516.2405	1	4447.238	-6.665989	-8.37169E-008	0.0494582	7
	17	27	20015.62	4463.605	-560.9338	1	4498.713	-7.162716	-8.477328E-008	0.0494565	7
	18	28	15890.62	4516.676	-619.8121	1	4559.005	-7.813752	-5.841655E-008	0.0493766	7
	19	29	12609.37	4572.339	-695.4509	1	4624.925	-8.64838	8.708295E-008	0.0491732	7
	20	31	10078.13	4633.085	-782.8513	1	4698.759	-9.59066	-4.872776E-008	0.0493903	7
	21	32	8015.625	4703.434	-892.5062	1	4787.365	-10.74449	8.611407E-008	0.0491763	7
	22	33	6328.125	4783.621	-1026.739	1	4892.568	-12.11396	-4.010003E-008	0.0493389	7
	23	35	5015.625	4872.72	-1187.311	1	5015.288	-13.69412	5.068422E-008	0.0491627	7
	24	36	3984.375	4974.182	-1378.085	1	5161.551	-15.48526	-8.423885E-008	0.0494585	7
	25	37	3170.956	5088.664	-1600.677	1	5334.479	-17.46136	-5.211102E-008	0.0493613	7
	26	39	2527.573	5216.904	-1866.574	1	5540.775	-19.68688	-2.71467E-008	0.049322	7
	27	40	1976.103	5375.835	-2212.497	1	5813.325	-22.37027	-4.150645E-008	0.0493302	7
	28	41	1577.524	5546.069	-2594.122	1	6122.773	-25.0674	-5.725235E-008	0.049374	7
	29	43	1265.625	5734.126	-3037.938	1	6489.166	-27.91463	4.988553E-008	0.0491637	7
	30	44	998.264	5963.858	-3606.829	1	6969.707	-31.16476	1.601964E-007	0.0490797	7
	31	45	796.875	6223.731	-4262.295	1	7543.341	-34.40512	-5.144376E-008	0.0494869	7
	32	47	627.7902	6543.491	-5092.334	1	8291.511	-37.89109	1.613979E-007	0.0490786	7
	33	48	505.5147	6878.561	-6005.384	1	9131.224	-41.12285	-6.35787E-008	0.049447	7
	34	49	397.9953	7333.365	-7206.935	1	10281.93	-44.50182	-1.478815E-009	0.0492933	6
	35	51	315.5048	7856.528	-8631.593	1	11671.74	-47.69135	-1.244455E-009	0.0492859	6
	36	52	252.4038	8471.051	-10274.99	1	13316.69	-50.49668	-2.677367E-009	0.0492825	6
	37	53	198.6229	9285.451	-12399.09	1	15490.55	-53.17114	-2.290018E-009	0.0492868	6
	38	55	158.3615	10250.44	-14803.57	1	18006.03	-55.30009	-2.71228E-009	0.049277	6
	39	56	125.558	11484.23	-17733.22	1	21127.11	-57.07244	-1.970446E-009	0.0492839	6
	40	57	100.4464	12971.78	-21043.78	1	24720.6	-58.34954	-9.100611E-010	0.0492804	6
	41	59	79.00281	15031.86	-25304.07	1	29432.18	-59.28761	-1.263888E-009	0.0492795	6
	42	60	63.3446	17040.48	-30030.39	1	34528.28	-60.42764	-2.253644E-009	0.049281	6
	43	61	49.86702	20437.72	-35250.44	1	40746.71	-59.89543	-2.859662E-009	0.049279	6
	44	63	39.72458	24178.12	-41717.86	1	48217.85	-59.90502	-2.243762E-009	0.0492814	6
	45	64	31.6723	28647.13	-48826.75	1	56610.16	-59.59944	-1.321965E-009	0.0492758	6
	46	66	24.93351	34435.59	-57097.31	1	66677.67	-58.90567	-2.048621E-009	0.0492807	6
	47	67	19.86229	41104.68	-66098.59	1	77837.13	-58.12379	-3.220156E-009	0.0492789	6
	48	68	15.83615	48736.99	-75920.95	1	90217.98	-57.30181	-2.275662E-009	0.0492834	6
	49	70	12.40079	59043.02	-87492.21	1	105550.8	-55.98705	-1.39456E-009	0.0492814	5
	50	71	9.93114	69440.48	-99422.3	1	121271.5	-55.06804	-3.029808E-009	0.0492948	5
	51	73	7.944915	81596.05	-112285.3	1	138801.7	-53.99467	-2.355164E-009	0.0492826	5
	52	74	6.317385	95506.8	-127132.5	1	159010.1	-53.08473	-2.512594E-009	0.0492793	5
	53	76	5.008013	111898	-143423.8	1	181910.8	-52.03894	-2.752922E-009	0.0492876	5
	54	79	3.945707	130483.7	-161879.7	1	207920.7	-51.12931	-2.313623E-009	0.0492919	5
	55	81	3.158693	150000.8	-181407.5	1	235391	-50.4136	-2.89593E-009	0.049282	5
	56	85	2.504006	173087.2	-203515	1	267165.7	-49.61922	-1.922208E-009	0.049283	5
	57	87	1.998082	197423.9	-227323.4	1	301084.9	-49.02662	-2.865087E-009	0.0493161	5
	58	90	1.584686	226435.6	-255303.6	1	341252.1	-48.42932	-2.276829E-009	0.049331	5
	59	94	1.266892	256894.9	-285012.9	1	383702.1	-47.97025	-2.767945E-009	0.0493216	5
	60	98	0.999041	293914.2	-321253.9	1	435418.9	-47.5447	-2.062543E-009	0.0492865	5
