EXPLAIN
TAG	EISPOT
TITLE	LABEL	Potentiostatic IDE	Test &Identifier
DATE	LABEL	9/12/2019	Date
TIME	LABEL	9:30:00	Time
NOTES	NOTES	1	&Notes...
	
PSTAT	PSTAT	REF600-11020	Potentiostat
VDC	POTEN	0.00000E+000	T	DC &Voltage (V)
FREQINIT	QUANT	1.00000E+006	Initial Fre&q. (Hz)
FREQFINAL	QUANT	1.00000E+000	Final Fre&q. (Hz)
PTSPERDEC	QUANT	1.00000E+001	Points/&decade
VAC	QUANT	2.50000E+001	AC &Voltage (mV rms)
AREA	QUANT	1.00000E-002	&Area (cm^2)
CONDIT	TWOPARAM	T	5.00000E+000	0.00000E+000	Conditionin&g	Time(s)	E(V)
DELAY	TWOPARAM	T	5.00000E+000	0.00000E+000	Init. De&lay	Time(s)	Stab.(mV/s)
SPEED	SELECTOR	1	&Optimize for:
ZGUESS	QUANT	1.00000E+007	E&stimated Z (ohms)
OCVCURVE	TABLE	19
	Pt	T	Vf	Vm	Ach	Over
	#	s	V vs. Ref.	V	V	bits
	0	0.258333	3.48199E-003	3.48199E-003	5.47933E-004	...........
	1	0.516667	3.47762E-003	3.25341E-003	5.48899E-004	...........
	2	0.775	3.45116E-003	3.05497E-003	5.48166E-004	...........
	3	1.03333	3.37762E-003	2.87372E-003	5.45333E-004	...........
	4	1.29167	3.24933E-003	2.71425E-003	5.40499E-004	...........
	5	1.55	3.08452E-003	2.56752E-003	5.44533E-004	...........
	6	1.80833	2.90963E-003	2.43211E-003	5.47766E-004	...........
	7	2.06667	2.74238E-003	2.30366E-003	5.50466E-004	...........
	8	2.325	2.58891E-003	2.18295E-003	5.50766E-004	...........
	9	2.58333	2.44854E-003	2.06939E-003	5.47466E-004	...........
	10	2.84167	2.31868E-003	1.96282E-003	5.46266E-004	...........
	11	3.1	2.19720E-003	1.85949E-003	5.45366E-004	...........
	12	3.35833	2.08274E-003	1.76263E-003	5.44399E-004	...........
	13	3.61667	1.97444E-003	1.67416E-003	5.47233E-004	...........
	14	3.875	1.87191E-003	1.58446E-003	5.39633E-004	...........
	15	4.13333	1.77487E-003	1.50373E-003	5.47733E-004	...........
	16	4.39167	1.68288E-003	1.42363E-003	5.45866E-004	...........
	17	4.65	1.59539E-003	1.34585E-003	5.41933E-004	...........
	18	4.90833	1.51177E-003	1.27060E-003	5.44233E-004	...........
EOC	QUANT	0.0015118	Open Circuit (V)
PSTATMODEL	IQUANT	4	Pstat Model
PSTATSECTION	LABEL	REF600-11020	Pstat Section
PSTATSERIALNO	LABEL	11020	Pstat Serial Number
CTRLMODE	IQUANT	1	Control Mode
IESTAB	IQUANT	0	I/E Stability
CASPEED	IQUANT	1	Control Amp Speed
CONVENTION	IQUANT	1	Current Convention
ICHRANGE	IQUANT	2	Ich Range
ICHRANGEMODE	TOGGLE	F	Ich Auto Range
ICHOFFSETENABLE	TOGGLE	T	Ich Offset Enable
ICHOFFSET	QUANT	0	Ich Offset (V)
ICHFILTER	IQUANT	3	Ich Filter
VCHRANGE	IQUANT	2	Vch Range
VCHRANGEMODE	TOGGLE	F	Vch Auto Range
VCHOFFSETENABLE	TOGGLE	T	Vch Offset Enable
VCHOFFSET	QUANT	0	Vch Offset (V)
VCHFILTER	IQUANT	3	Vch Filter
ACHRANGE	IQUANT	2	Ach Range
ACHOFFSETENABLE	TOGGLE	F	Ach Offset Enable
ACHOFFSET	QUANT	0	Ach Offset (V)
ACHFILTER	IQUANT	3	Ach Filter
IERANGELOWERLIMIT	IQUANT	1	I/E Range Lower Limit
IERANGEMODE	TOGGLE	F	I/E AutoRange
IERANGE	IQUANT	2	I/E Range
POSFEEDENABLE	TOGGLE	F	Positive Feedback IR Comp
POSFEEDRESISTANCE	QUANT	0	Positive Feedback Resistance (ohm)
ACHSELECT	IQUANT	0	Ach Select
CABLEID	IQUANT	14	Cable ID
DCCALDATE	LABEL	8/19/2019	DC Calibration Date
ACCALDATE	LABEL	8/19/2019	AC Calibration Date
THERMOSELECT	IQUANT	1	Thermo Select
FRAMEWORKVERSION	QUANT	6.33	Framework Version
INSTRUMENTVERSION	LABEL	3.50	Instrument Version
ZCURVE	TABLE
	Pt	Time	Freq	Zreal	Zimag	Zsig	Zmod	Zphz	Idc	Vdc	IERange
	#	s	Hz	ohm	ohm	V	ohm	°	A	V	#
	0	2	1000078	2598.371	-1423.593	1	2962.794	-28.71741	-6.766147E-006	0.0054849	8
	1	3	794390.6	2869.502	-1306.498	1	3152.932	-24.47999	2.503734E-006	0.0033334	8
	2	5	630984.4	3067.772	-1155.161	1	3278.052	-20.63373	1.933063E-006	0.002642	8
	3	6	501234.4	3219.601	-980.648	1	3365.635	-16.94004	2.455636E-006	0.0027244	8
	4	7	398109.4	3325.294	-862.8845	1	3435.426	-14.54691	-1.079575E-006	0.0033628	8
	5	9	316265.6	3431.71	-738.731	1	3510.322	-12.14845	-9.174254E-007	0.0035349	8
	6	10	251203.1	3490.917	-645.6722	1	3550.125	-10.47888	6.087249E-007	0.0029707	8
	7	11	199546.9	3538.615	-569.745	1	3584.188	-9.146577	-3.628661E-006	0.0039086	8
	8	13	158578.1	3595.927	-495.5368	1	3629.91	-7.846227	-3.630769E-006	0.0039429	8
	9	14	125953.1	3660.728	-412.6641	1	3683.913	-6.43165	-5.776821E-007	0.0044226	7
	10	15	100078.1	3682.226	-384.0956	1	3702.205	-5.955028	-7.139248E-009	0.0031636	7
	11	17	79453.13	3714.217	-375.019	1	3733.102	-5.765531	8.717357E-008	0.0029402	7
	12	18	63140.62	3744.663	-374.257	1	3763.319	-5.707422	-4.093135E-008	0.0032555	7
	13	19	50203.12	3779.914	-380.6018	1	3799.027	-5.749768	-4.182056E-008	0.0032513	7
	14	20	39890.62	3813.214	-397.7234	1	3833.899	-5.954498	-1.63374E-008	0.0031692	7
	15	22	31640.63	3854.66	-419.3921	1	3877.408	-6.20943	-2.0302E-008	0.0032684	7
	16	23	25171.88	3897.08	-451.2646	1	3923.12	-6.605179	-1.987692E-008	0.0032645	7
	17	24	20015.62	3942.295	-490.8413	1	3972.734	-7.097174	-4.120171E-008	0.003248	7
	18	26	15890.62	3992.187	-540.721	1	4028.639	-7.713477	4.767755E-008	0.0029578	7
	19	27	12609.37	4046.345	-601.785	1	4090.85	-8.459202	4.935283E-008	0.0029635	7
	20	28	10078.13	4105.833	-672.2635	1	4160.505	-9.298744	-4.096105E-008	0.0031421	7
	21	30	8015.625	4169.454	-756.25	1	4237.483	-10.28047	-4.631179E-008	0.0031499	7
	22	31	6328.125	4244.058	-861.072	1	4330.528	-11.469	-7.462743E-009	0.0031382	7
	23	32	5015.625	4322.705	-984.037	1	4433.295	-12.82448	-3.134725E-008	0.003112	7
	24	34	3984.375	4408.702	-1126.707	1	4550.398	-14.33591	-1.891683E-009	0.0030564	7
	25	35	3170.956	4502.075	-1302.112	1	4686.595	-16.13118	-4.414748E-010	0.0030534	7
	26	36	2527.573	4602.424	-1505.712	1	4842.466	-18.11584	-6.985562E-008	0.0032089	7
	27	38	1976.103	4724.525	-1773.332	1	5046.369	-20.57343	4.914027E-008	0.0029656	7
	28	39	1577.524	4844.984	-2071.813	1	5269.373	-23.15253	-2.107864E-008	0.0030901	7
	29	40	1265.625	4975.178	-2407.595	1	5527.106	-25.82334	-7.990927E-009	0.0031394	7
	30	42	998.264	5134.435	-2880.554	1	5887.275	-29.29358	-3.905126E-008	0.0031674	7
	31	43	796.875	5294.35	-3412.338	1	6298.745	-32.80276	9.028182E-008	0.0029242	7
	32	44	627.7902	5480.317	-4103.977	1	6846.642	-36.82798	-3.972096E-008	0.0031374	7
	33	46	505.5147	5665.676	-4874.976	1	7474.307	-40.71003	-4.549107E-008	0.0031467	7
	34	47	397.9953	5893.288	-5923.458	1	8355.729	-45.14629	7.28801E-009	0.0031165	7
	35	48	315.5048	6146.523	-7192.942	1	9461.404	-49.4854	7.282177E-009	0.0031162	7
	36	50	252.4038	6432.761	-8703.239	1	10822.51	-53.53106	1.58289E-009	0.003048	6
	37	51	198.6229	6796.661	-10718.28	1	12691.58	-57.62045	1.170749E-009	0.0030485	6
	38	52	158.3615	7226.537	-13081.25	1	14944.63	-61.08221	9.493526E-010	0.0030518	6
	39	54	125.558	7774.108	-16074.11	1	17855.36	-64.18966	9.780216E-010	0.0030547	6
	40	55	100.4464	8459.227	-19634.24	1	21379.01	-66.69167	1.046674E-009	0.0030516	6
	41	56	79.00281	9414.703	-24266.97	1	26029.26	-68.79556	7.22317E-010	0.0030522	6
	42	58	63.3446	10292.11	-29707.5	1	31439.84	-70.89145	5.098273E-010	0.0030478	6
	43	59	49.86702	12023.67	-36476.88	1	38407.44	-71.75652	1.181869E-009	0.0030491	6
	44	61	39.72458	14194.63	-44725.54	1	46924	-72.39202	1.182065E-009	0.0030543	6
	45	62	31.6723	16952.95	-54699.03	1	57265.93	-72.78014	1.730209E-009	0.0030532	6
	46	63	24.93351	20616.33	-67184.27	1	70276.3	-72.94071	7.204806E-010	0.0030508	6
	47	65	19.86229	25420.49	-81659.09	1	85524.32	-72.70863	1.657611E-009	0.0030495	6
	48	66	15.83615	30885.68	-99160.9	1	103859.5	-72.69973	2.221825E-009	0.0030414	6
	49	67	12.40079	39988.6	-119666	1	126170.7	-71.522	-3.351496E-010	0.0030524	5
	50	69	9.93114	50979.89	-143402.5	1	152194.7	-70.42959	1.003882E-009	0.0030508	5
	51	70	7.944915	63851.94	-170727.5	1	182277.1	-69.49425	5.982363E-010	0.0030488	5
	52	72	6.317385	80780.09	-202489.2	1	218007.6	-68.2512	5.803727E-010	0.0030418	5
	53	74	5.008013	101995.4	-239689.4	1	260488.1	-66.94871	4.162659E-011	0.0030473	5
	54	77	3.945707	128583.2	-282954.5	1	310800.4	-65.56151	6.028691E-010	0.0030582	5
	55	79	3.158693	159084.7	-328687.3	1	365162	-64.17302	1.707419E-010	0.0030611	5
	56	82	2.504006	196052.7	-382243.9	1	429589.4	-62.84673	2.69886E-010	0.0030442	5
	57	85	1.998082	237719.3	-441380.8	1	501325.8	-61.69394	-2.663425E-011	0.003039	5
	58	88	1.584686	289411.7	-507654.2	1	584356	-60.3127	1.791874E-010	0.0030988	5
	59	92	1.266892	346027.6	-582419.5	1	677456.7	-59.28456	3.581679E-011	0.0030277	5
	60	96	0.999041	416783.9	-667781	1	787172.3	-58.03037	3.521953E-010	0.0030996	5
