EXPLAIN
TAG	EISPOT
TITLE	LABEL	Potentiostatic EIS	Test &Identifier
DATE	LABEL	11/11/2019	Date
TIME	LABEL	14:21:43	Time
NOTES	NOTES	3	&Notes...
	
	
	
PSTAT	PSTAT	REF600-11020	Potentiostat
VDC	POTEN	0.00000E+000	T	DC &Voltage (V)
FREQINIT	QUANT	1.00000E+006	Initial Fre&q. (Hz)
FREQFINAL	QUANT	1.00000E+000	Final Fre&q. (Hz)
PTSPERDEC	QUANT	1.00000E+001	Points/&decade
VAC	QUANT	2.50000E+001	AC &Voltage (mV rms)
AREA	QUANT	1.00000E-002	&Area (cm^2)
CONDIT	TWOPARAM	T	5.00000E+000	0.00000E+000	Conditionin&g	Time(s)	E(V)
DELAY	TWOPARAM	T	5.00000E+000	0.00000E+000	Init. De&lay	Time(s)	Stab.(mV/s)
SPEED	SELECTOR	1	&Optimize for:
ZGUESS	QUANT	1.00000E+005	E&stimated Z (ohms)
OCVCURVE	TABLE	19
	Pt	T	Vf	Vm	Ach	Over
	#	s	V vs. Ref.	V	V	bits
	0	0.258333	5.41317E-003	5.41317E-003	5.70599E-004	...........
	1	0.516667	5.42355E-003	5.95652E-003	5.69466E-004	...........
	2	0.775	5.47515E-003	5.83630E-003	5.70499E-004	...........
	3	1.03333	5.58318E-003	5.84546E-003	5.62666E-004	...........
	4	1.29167	5.70885E-003	5.86071E-003	5.65232E-004	...........
	5	1.55	5.80098E-003	5.88852E-003	5.69199E-004	...........
	6	1.80833	5.84955E-003	5.91657E-003	5.67066E-004	...........
	7	2.06667	5.87460E-003	5.95561E-003	5.63099E-004	...........
	8	2.325	5.89575E-003	5.99912E-003	5.69032E-004	...........
	9	2.58333	5.92254E-003	6.04525E-003	5.65632E-004	...........
	10	2.84167	5.95641E-003	6.06297E-003	5.67932E-004	...........
	11	3.1	5.98526E-003	5.64728E-003	5.69832E-004	...........
	12	3.35833	5.99036E-003	6.37639E-003	5.70866E-004	...........
	13	3.61667	5.98753E-003	6.07369E-003	5.70166E-004	...........
	14	3.875	6.01782E-003	6.26274E-003	5.65766E-004	...........
	15	4.13333	6.07956E-003	6.05175E-003	5.58632E-004	...........
	16	4.39167	6.13017E-003	6.10710E-003	5.71599E-004	...........
	17	4.65	6.14583E-003	6.18647E-003	5.70432E-004	...........
	18	4.90833	6.14379E-003	6.30049E-003	5.64899E-004	...........
EOC	QUANT	0.0061438	Open Circuit (V)
PSTATMODEL	IQUANT	4	Pstat Model
PSTATSECTION	LABEL	REF600-11020	Pstat Section
PSTATSERIALNO	LABEL	11020	Pstat Serial Number
CTRLMODE	IQUANT	1	Control Mode
IESTAB	IQUANT	0	I/E Stability
CASPEED	IQUANT	1	Control Amp Speed
CONVENTION	IQUANT	1	Current Convention
ICHRANGE	IQUANT	2	Ich Range
ICHRANGEMODE	TOGGLE	F	Ich Auto Range
ICHOFFSETENABLE	TOGGLE	T	Ich Offset Enable
ICHOFFSET	QUANT	0	Ich Offset (V)
ICHFILTER	IQUANT	3	Ich Filter
VCHRANGE	IQUANT	2	Vch Range
VCHRANGEMODE	TOGGLE	F	Vch Auto Range
VCHOFFSETENABLE	TOGGLE	T	Vch Offset Enable
VCHOFFSET	QUANT	0	Vch Offset (V)
VCHFILTER	IQUANT	3	Vch Filter
ACHRANGE	IQUANT	2	Ach Range
ACHOFFSETENABLE	TOGGLE	F	Ach Offset Enable
ACHOFFSET	QUANT	0	Ach Offset (V)
ACHFILTER	IQUANT	3	Ach Filter
IERANGELOWERLIMIT	IQUANT	1	I/E Range Lower Limit
IERANGEMODE	TOGGLE	F	I/E AutoRange
IERANGE	IQUANT	5	I/E Range
POSFEEDENABLE	TOGGLE	F	Positive Feedback IR Comp
POSFEEDRESISTANCE	QUANT	0	Positive Feedback Resistance (ohm)
ACHSELECT	IQUANT	0	Ach Select
CABLEID	IQUANT	14	Cable ID
DCCALDATE	LABEL	8/19/2019	DC Calibration Date
ACCALDATE	LABEL	8/19/2019	AC Calibration Date
THERMOSELECT	IQUANT	1	Thermo Select
FRAMEWORKVERSION	QUANT	6.33	Framework Version
INSTRUMENTVERSION	LABEL	3.50	Instrument Version
ZCURVE	TABLE
	Pt	Time	Freq	Zreal	Zimag	Zsig	Zmod	Zphz	Idc	Vdc	IERange
	#	s	Hz	ohm	ohm	V	ohm	°	A	V	#
	0	1	1000078	2303.437	-1101.45	1	2553.236	-25.55604	2.175209E-006	0.0085635	8
	1	3	794390.6	2496.503	-1021.213	1	2697.295	-22.24737	-2.265984E-006	0.0087083	8
	2	4	630984.4	2652.423	-927.4591	1	2809.898	-19.27294	-1.264094E-007	0.0077929	8
	3	5	501234.4	2785.74	-831.3671	1	2907.15	-16.61703	1.669308E-006	0.0082274	8
	4	7	398109.4	2885.291	-741.9153	1	2979.152	-14.42046	-4.19244E-006	0.0082298	8
	5	8	316265.6	2973.84	-652.4451	1	3044.57	-12.37434	-1.562406E-006	0.0079861	8
	6	9	251203.1	3040.432	-586.2939	1	3096.444	-10.91452	-4.843243E-006	0.0085511	8
	7	11	199546.9	3096.784	-531.8736	1	3142.127	-9.74548	-2.858464E-006	0.0082925	8
	8	12	158578.1	3149.188	-495.7687	1	3187.973	-8.946505	1.664761E-006	0.0074741	8
	9	13	125953.1	3219.689	-407.4704	1	3245.371	-7.21277	9.208031E-007	0.0089863	7
	10	15	100078.1	3253.429	-388.9858	1	3276.6	-6.818021	-2.369034E-007	0.0071105	7
	11	16	79453.13	3291.445	-383.7302	1	3313.738	-6.649759	3.097993E-007	0.0081956	7
	12	18	63140.62	3334.226	-384.887	1	3356.367	-6.584804	-2.372237E-007	0.0071044	7
	13	19	50203.12	3376.758	-390.3774	1	3399.248	-6.594529	5.807897E-008	0.0085337	7
	14	20	39890.62	3420.585	-399.5518	1	3443.842	-6.662415	-8.675112E-007	0.0090592	7
	15	22	31640.63	3467.664	-415.6422	1	3492.485	-6.834997	3.125481E-007	0.0081825	7
	16	23	25171.88	3514.02	-435.9412	1	3540.958	-7.07185	6.130405E-007	0.0063798	7
	17	24	20015.62	3561.737	-461.677	1	3591.533	-7.385575	-2.381395E-007	0.0070918	7
	18	26	15890.62	3612.704	-496.2623	1	3646.629	-7.821536	8.019882E-007	0.0072033	7
	19	27	12609.37	3664.228	-537.9891	1	3703.512	-8.3526	8.028008E-007	0.0072052	7
	20	28	10078.13	3715.616	-586.0958	1	3761.557	-8.963894	-5.723006E-007	0.0076398	7
	21	30	8015.625	3768.281	-652.8026	1	3824.407	-9.82816	-2.370425E-007	0.0070928	7
	22	31	6328.125	3827.427	-733.3884	1	3897.057	-10.84719	9.489492E-008	0.0066861	7
	23	32	5015.625	3885.165	-829.533	1	3972.736	-12.05242	-9.714331E-007	0.0089234	7
	24	34	3984.375	3946.541	-950.836	1	4059.468	-13.54606	9.614043E-008	0.0066901	7
	25	35	3170.956	4010.154	-1097.947	1	4157.743	-15.31187	3.852939E-007	0.0064604	7
	26	36	2527.573	4073.722	-1278.607	1	4269.666	-17.42535	-2.30665E-007	0.0088407	7
	27	38	1976.103	4150.543	-1527.003	1	4422.527	-20.1988	6.146299E-007	0.0063771	7
	28	39	1577.524	4222.701	-1810.949	1	4594.643	-23.21258	-9.656777E-007	0.0086283	7
	29	40	1265.625	4302.494	-2157.236	1	4813.016	-26.62882	6.137234E-007	0.0063787	7
	30	42	998.264	4403.117	-2617.904	1	5122.583	-30.73389	6.151507E-007	0.006382	7
	31	43	796.875	4513.505	-3160.785	1	5510.199	-35.00337	4.860873E-007	0.0079283	7
	32	44	627.7902	4655.614	-3878.551	1	6059.529	-39.79738	8.68338E-007	0.0068768	7
	33	46	505.5147	4815.526	-4679.751	1	6714.861	-44.18077	3.870457E-007	0.0064536	7
	34	48	397.9953	5034.329	-5756.498	1	7647.335	-48.82877	1.861743E-009	0.0077947	7
	35	49	315.5048	5301.415	-7057.374	1	8826.751	-53.08656	4.334441E-009	0.0077937	7
	36	50	252.4038	5631.024	-8587.468	1	10269.03	-56.74611	1.270543E-009	0.0077256	6
	37	52	198.6229	6080.669	-10604.46	1	12224.12	-60.16976	2.934995E-010	0.0077374	6
	38	53	158.3615	6632.365	-12943.81	1	14544.09	-62.86954	2.577504E-010	0.0077351	6
	39	54	125.558	7364.699	-15860.8	1	17487.25	-65.09299	1.012753E-009	0.0077262	6
	40	56	100.4464	8286.989	-19275.72	1	20981.6	-66.73623	1.24089E-009	0.0077202	6
	41	57	79.00281	9605.59	-23686.65	1	25560.22	-67.9261	5.720432E-010	0.0077225	6
	42	58	63.3446	11071.15	-28524.54	1	30597.71	-68.78741	5.882759E-010	0.0077185	6
	43	60	49.86702	13543.84	-35077.13	1	37601.07	-68.88763	4.539517E-011	0.0077253	6
	44	61	39.72458	16312.08	-42342.95	1	45376.31	-68.93146	1.418947E-010	0.007732	6
	45	63	31.6723	20086.1	-50820.07	1	54645.5	-68.43411	8.459442E-010	0.0077225	6
	46	64	24.93351	25179.28	-61286.75	1	66257.54	-67.665	1.242111E-009	0.0077286	6
	47	65	19.86229	31557.75	-72706.22	1	79259.61	-66.53699	-5.778678E-010	0.0077323	6
	48	67	15.83615	39223.76	-85253.48	1	93843.8	-65.2936	7.537858E-010	0.0077258	6
	49	68	12.40079	50424.75	-100724.3	1	112641.2	-63.40647	1.70123E-009	0.0077326	5
	50	69	9.93114	61517.55	-116264.1	1	131536.1	-62.11583	6.182952E-010	0.0077256	5
	51	71	7.944915	75012.8	-132854.3	1	152568.6	-60.54986	-5.318789E-010	0.0077314	5
	52	73	6.317385	90168.86	-151561.6	1	176355.8	-59.25024	-2.695976E-010	0.0077313	5
	53	75	5.008013	107199.4	-172922.5	1	203455	-58.2041	-1.649233E-010	0.0077271	5
	54	77	3.945707	125886.9	-197326.7	1	234062.7	-57.46368	3.95313E-010	0.007734	5
	55	80	3.158693	144754.5	-224061.8	1	266753.7	-57.13563	-5.056205E-011	0.0077314	5
	56	83	2.504006	166338.3	-256947.8	1	306089.2	-57.08252	3.183792E-010	0.0077319	5
	57	86	1.998082	188697.8	-294578	1	349832.9	-57.35761	-1.624279E-010	0.0077684	5
	58	89	1.584686	214446	-341938.8	1	403620.1	-57.90623	9.916434E-011	0.0077727	5
	59	93	1.266892	242262.5	-395495.8	1	463797.4	-58.51028	-1.965188E-010	0.0077478	5
	60	97	0.999041	275679.3	-465116.2	1	540677.5	-59.34433	2.252097E-010	0.0077306	5
