EXPLAIN
TAG	EISPOT
TITLE	LABEL	Potentiostatic EIS	Test &Identifier
DATE	LABEL	10/16/2019	Date
TIME	LABEL	10:12:34	Time
NOTES	NOTES	1	&Notes...
	
PSTAT	PSTAT	REF600-11020	Potentiostat
VDC	POTEN	0.00000E+000	T	DC &Voltage (V)
FREQINIT	QUANT	1.00000E+006	Initial Fre&q. (Hz)
FREQFINAL	QUANT	1.00000E+000	Final Fre&q. (Hz)
PTSPERDEC	QUANT	1.00000E+001	Points/&decade
VAC	QUANT	2.50000E+001	AC &Voltage (mV rms)
AREA	QUANT	1.00000E-002	&Area (cm^2)
CONDIT	TWOPARAM	T	5.00000E+000	0.00000E+000	Conditionin&g	Time(s)	E(V)
DELAY	TWOPARAM	T	5.00000E+000	0.00000E+000	Init. De&lay	Time(s)	Stab.(mV/s)
SPEED	SELECTOR	0	&Optimize for:
ZGUESS	QUANT	1.00000E+005	E&stimated Z (ohms)
OCVCURVE	TABLE	19
	Pt	T	Vf	Vm	Ach	Over
	#	s	V vs. Ref.	V	V	bits
	0	0.258333	1.54566E-002	1.54566E-002	5.49133E-004	...........
	1	0.516667	1.54554E-002	1.53969E-002	5.49933E-004	...........
	2	0.775	1.54522E-002	1.55380E-002	5.49299E-004	...........
	3	1.03333	1.54558E-002	1.56839E-002	5.44266E-004	...........
	4	1.29167	1.54838E-002	1.56298E-002	5.50333E-004	...........
	5	1.55	1.55382E-002	1.57193E-002	5.47833E-004	...........
	6	1.80833	1.56021E-002	1.58350E-002	5.47399E-004	...........
	7	2.06667	1.56666E-002	1.58901E-002	5.43866E-004	...........
	8	2.325	1.57351E-002	1.59546E-002	5.40999E-004	...........
	9	2.58333	1.58086E-002	1.60505E-002	5.45233E-004	...........
	10	2.84167	1.58834E-002	1.60967E-002	5.42833E-004	...........
	11	3.1	1.59572E-002	1.61654E-002	5.47366E-004	...........
	12	3.35833	1.60284E-002	1.62413E-002	5.41766E-004	...........
	13	3.61667	1.60966E-002	1.62885E-002	5.45466E-004	...........
	14	3.875	1.61625E-002	1.63473E-002	5.40933E-004	...........
	15	4.13333	1.62256E-002	1.64079E-002	5.45333E-004	...........
	16	4.39167	1.62857E-002	1.64569E-002	5.47333E-004	...........
	17	4.65	1.63435E-002	1.65137E-002	5.45599E-004	...........
	18	4.90833	1.63996E-002	1.65632E-002	5.49099E-004	...........
EOC	QUANT	0.0163996	Open Circuit (V)
PSTATMODEL	IQUANT	4	Pstat Model
PSTATSECTION	LABEL	REF600-11020	Pstat Section
PSTATSERIALNO	LABEL	11020	Pstat Serial Number
CTRLMODE	IQUANT	1	Control Mode
IESTAB	IQUANT	0	I/E Stability
CASPEED	IQUANT	1	Control Amp Speed
CONVENTION	IQUANT	1	Current Convention
ICHRANGE	IQUANT	2	Ich Range
ICHRANGEMODE	TOGGLE	F	Ich Auto Range
ICHOFFSETENABLE	TOGGLE	T	Ich Offset Enable
ICHOFFSET	QUANT	0	Ich Offset (V)
ICHFILTER	IQUANT	3	Ich Filter
VCHRANGE	IQUANT	2	Vch Range
VCHRANGEMODE	TOGGLE	F	Vch Auto Range
VCHOFFSETENABLE	TOGGLE	T	Vch Offset Enable
VCHOFFSET	QUANT	0	Vch Offset (V)
VCHFILTER	IQUANT	3	Vch Filter
ACHRANGE	IQUANT	2	Ach Range
ACHOFFSETENABLE	TOGGLE	F	Ach Offset Enable
ACHOFFSET	QUANT	0	Ach Offset (V)
ACHFILTER	IQUANT	3	Ach Filter
IERANGELOWERLIMIT	IQUANT	1	I/E Range Lower Limit
IERANGEMODE	TOGGLE	F	I/E AutoRange
IERANGE	IQUANT	5	I/E Range
POSFEEDENABLE	TOGGLE	F	Positive Feedback IR Comp
POSFEEDRESISTANCE	QUANT	0	Positive Feedback Resistance (ohm)
ACHSELECT	IQUANT	0	Ach Select
CABLEID	IQUANT	14	Cable ID
DCCALDATE	LABEL	8/19/2019	DC Calibration Date
ACCALDATE	LABEL	8/19/2019	AC Calibration Date
THERMOSELECT	IQUANT	1	Thermo Select
FRAMEWORKVERSION	QUANT	6.33	Framework Version
INSTRUMENTVERSION	LABEL	3.50	Instrument Version
ZCURVE	TABLE
	Pt	Time	Freq	Zreal	Zimag	Zsig	Zmod	Zphz	Idc	Vdc	IERange
	#	s	Hz	ohm	ohm	V	ohm	°	A	V	#
	0	2	1000078	2269.789	-1562.25	1	2755.462	-34.53886	-2.287814E-006	0.0196242	8
	1	2	794390.6	2573.276	-1523.908	1	2990.659	-30.63424	1.553579E-006	0.018351	8
	2	2	630984.4	2848.177	-1455.505	1	3198.532	-27.06841	-3.271655E-006	0.0188995	8
	3	2	501234.4	3100.631	-1348.624	1	3381.227	-23.5067	6.349428E-008	0.0184028	8
	4	3	398109.4	3318.929	-1229.777	1	3539.441	-20.3314	-4.85345E-007	0.0183439	8
	5	3	316265.6	3510.151	-1091.045	1	3675.804	-17.26659	-2.474397E-006	0.0186271	8
	6	3	251203.1	3646.123	-970.644	1	3773.11	-14.90713	6.958812E-007	0.017996	8
	7	4	199546.9	3774.602	-852.3876	1	3869.649	-12.7252	-4.636627E-008	0.0180372	8
	8	4	158578.1	3878.334	-734.5359	1	3947.28	-10.72449	2.273361E-007	0.0181567	8
	9	4	125953.1	3975.167	-596.5737	1	4019.683	-8.534977	4.243643E-007	0.0170965	7
	10	5	100078.1	4010.95	-520.6348	1	4044.599	-7.395832	5.845405E-008	0.0179296	7
	11	5	79453.13	4056.458	-468.3583	1	4083.406	-6.586203	2.726073E-008	0.0179603	7
	12	5	63140.62	4095.038	-428.2299	1	4117.368	-5.969886	2.703415E-008	0.0180146	7
	13	6	50203.12	4130.329	-399.4664	1	4149.601	-5.524203	-1.465064E-009	0.0180148	7
	14	6	39890.62	4160.839	-379.9926	1	4178.154	-5.218117	5.419877E-008	0.017956	7
	15	6	31640.63	4192.201	-372.525	1	4208.72	-5.078047	1.171275E-009	0.0181337	7
	16	7	25171.88	4220.649	-374.6681	1	4237.247	-5.072864	6.649732E-008	0.0180049	7
	17	7	20015.62	4252.809	-370.2761	1	4268.897	-4.97598	-2.387437E-008	0.0180526	7
	18	7	15890.62	4279.817	-408.9167	1	4299.308	-5.457778	5.380031E-008	0.0179555	7
	19	8	12609.37	4312.806	-440.9138	1	4335.286	-5.837275	9.713745E-008	0.0179085	7
	20	8	10078.13	4343.743	-484.7368	1	4370.706	-6.367535	-2.95745E-009	0.0180082	7
	21	8	8015.625	4375.096	-533.5051	1	4407.504	-6.9524	3.235829E-008	0.0180058	7
	22	8	6328.125	4410.908	-623.9236	1	4454.817	-8.051085	5.60459E-008	0.0179603	7
	23	9	5015.625	4447.566	-722.8467	1	4505.924	-9.231358	9.793597E-008	0.0179107	7
	24	9	3984.375	4484.479	-846.29	1	4563.634	-10.68691	-3.329377E-009	0.0180075	7
	25	9	3170.956	4526.779	-1001.961	1	4636.341	-12.48068	3.30412E-008	0.0180106	7
	26	10	2527.573	4573.006	-1194.352	1	4726.4	-14.63722	-3.099722E-008	0.0181132	7
	27	10	1976.103	4629.543	-1454.992	1	4852.8	-17.44711	-2.387593E-008	0.0181077	7
	28	10	1577.524	4727.184	-1731.451	1	5034.301	-20.11653	-4.151344E-009	0.0180729	7
	29	11	1265.625	4751.796	-2115.964	1	5201.622	-24.0033	-1.57287E-009	0.0180723	7
	30	11	998.264	4835.85	-2596.102	1	5488.642	-28.2289	-3.621579E-008	0.0180786	7
	31	11	796.875	4939.761	-3161.172	1	5864.661	-32.61698	-3.412733E-008	0.0180774	7
	32	12	627.7902	5068.133	-3902.99	1	6396.82	-37.60001	9.808548E-008	0.0178979	7
	33	12	505.5147	5213.39	-4730.784	1	7039.869	-42.22153	5.743557E-009	0.018113	7
	34	12	397.9953	5416.032	-5852.511	1	7974.039	-47.2182	2.220292E-009	0.0180578	7
	35	13	315.5048	5663.955	-7200.76	1	9161.404	-51.81221	1.089154E-009	0.0180572	7
	36	13	252.4038	5969.112	-8789.497	1	10624.76	-55.81884	-1.489696E-010	0.0179938	6
	37	13	198.6229	6388.038	-10889.08	1	12624.54	-59.60214	3.898018E-010	0.0179962	6
	38	14	158.3615	6898.769	-13328.92	1	15008.44	-62.63488	-6.260414E-011	0.0179929	6
	39	14	125.558	7585.163	-16382.67	1	18053.43	-65.1559	6.766182E-011	0.0179938	6
	40	14	100.4464	8462.629	-19940.08	1	21661.56	-67.00349	7.002058E-010	0.0179956	6
	41	15	79.00281	9651.17	-24598.64	1	26424.2	-68.57765	9.32242E-010	0.0179946	6
	42	15	63.3446	11282.51	-30106.31	1	32150.97	-69.45623	-5.874974E-010	0.0179936	6
	43	15	49.86702	13311.49	-36915.97	1	39242.64	-70.17126	-1.003955E-009	0.0179917	6
	44	16	39.72458	15907.24	-44427.43	1	47189.37	-70.30009	5.186961E-010	0.017997	6
	45	16	31.6723	19257.97	-53538.43	1	56896.69	-70.21616	7.285404E-011	0.0179923	6
	46	16	24.93351	23912.38	-65200.12	1	69446.8	-69.85931	7.404853E-010	0.0179919	6
	47	17	19.86229	29730.82	-78036.8	1	83508.46	-69.14393	9.375987E-010	0.0179893	6
	48	17	15.83615	36479.11	-92971.84	1	99872.4	-68.57658	7.771858E-010	0.0179918	6
	49	17	12.40079	46066.36	-111716	1	120841.1	-67.59109	1.300954E-009	0.0179985	5
	50	18	9.93114	58423.57	-131365	1	143770.9	-66.02325	1.00568E-009	0.0179973	5
	51	18	7.944915	72434.93	-153578.6	1	169803.4	-64.74922	9.08472E-010	0.0179943	5
	52	19	6.317385	90383.14	-179052	1	200571	-63.21594	9.384111E-010	0.0179858	5
	53	19	5.008013	112358.7	-207853	1	236278.1	-61.60575	4.542559E-010	0.0179995	5
	54	21	3.945707	139955.9	-239994.2	1	277821.6	-59.75082	-1.068663E-010	0.0179949	5
	55	22	3.158693	168335.4	-272431.2	1	320243	-58.28806	-1.327836E-010	0.0179778	5
	56	24	2.504006	202816.9	-308470.4	1	369173	-56.67539	2.596739E-010	0.0179843	5
	57	25	1.998082	238165.2	-346433.6	1	420403.3	-55.49237	1.793659E-010	0.0179968	5
	58	26	1.584686	278812.8	-388487.5	1	478183.2	-54.33345	-5.771213E-011	0.0179539	5
	59	28	1.266892	319578.5	-436028.5	1	540602.6	-53.76118	-8.279029E-011	0.0179481	5
	60	31	0.999041	363484.7	-494222.3	1	613495.6	-53.66671	-9.436885E-011	0.0179665	5
