EXPLAIN
TAG	EISPOT
TITLE	LABEL	Potentiostatic EIS	Test &Identifier
DATE	LABEL	11/7/2019	Date
TIME	LABEL	9:00:03	Time
NOTES	NOTES	2	&Notes...
	
	
PSTAT	PSTAT	REF600-11020	Potentiostat
VDC	POTEN	0.00000E+000	T	DC &Voltage (V)
FREQINIT	QUANT	1.00000E+006	Initial Fre&q. (Hz)
FREQFINAL	QUANT	1.00000E+000	Final Fre&q. (Hz)
PTSPERDEC	QUANT	1.00000E+001	Points/&decade
VAC	QUANT	2.50000E+001	AC &Voltage (mV rms)
AREA	QUANT	1.00000E-002	&Area (cm^2)
CONDIT	TWOPARAM	T	5.00000E+000	0.00000E+000	Conditionin&g	Time(s)	E(V)
DELAY	TWOPARAM	T	5.00000E+000	0.00000E+000	Init. De&lay	Time(s)	Stab.(mV/s)
SPEED	SELECTOR	1	&Optimize for:
ZGUESS	QUANT	1.00000E+005	E&stimated Z (ohms)
OCVCURVE	TABLE	19
	Pt	T	Vf	Vm	Ach	Over
	#	s	V vs. Ref.	V	V	bits
	0	0.258333	5.67257E-003	5.67257E-003	5.61732E-004	...........
	1	0.516667	5.66981E-003	5.52824E-003	5.60432E-004	...........
	2	0.775	5.65348E-003	5.42268E-003	5.61332E-004	...........
	3	1.03333	5.61007E-003	5.36386E-003	5.62699E-004	...........
	4	1.29167	5.54003E-003	5.32031E-003	5.66299E-004	...........
	5	1.55	5.46059E-003	5.29139E-003	5.63699E-004	...........
	6	1.80833	5.39012E-003	5.26727E-003	5.64099E-004	...........
	7	2.06667	5.33655E-003	5.24753E-003	5.58832E-004	...........
	8	2.325	5.29854E-003	5.23159E-003	5.59732E-004	...........
	9	2.58333	5.27136E-003	5.21855E-003	5.62266E-004	...........
	10	2.84167	5.25072E-003	5.20218E-003	5.61399E-004	...........
	11	3.1	5.23378E-003	5.19200E-003	5.59899E-004	...........
	12	3.35833	5.21890E-003	5.18022E-003	5.66799E-004	...........
	13	3.61667	5.20545E-003	5.17214E-003	5.66099E-004	...........
	14	3.875	5.19339E-003	5.16522E-003	5.63632E-004	...........
	15	4.13333	5.18292E-003	5.16207E-003	5.64332E-004	...........
	16	4.39167	5.17427E-003	5.15576E-003	5.64832E-004	...........
	17	4.65	5.16736E-003	5.15249E-003	5.64199E-004	...........
	18	4.90833	5.16178E-003	5.14953E-003	5.72299E-004	...........
EOC	QUANT	0.0051618	Open Circuit (V)
PSTATMODEL	IQUANT	4	Pstat Model
PSTATSECTION	LABEL	REF600-11020	Pstat Section
PSTATSERIALNO	LABEL	11020	Pstat Serial Number
CTRLMODE	IQUANT	1	Control Mode
IESTAB	IQUANT	0	I/E Stability
CASPEED	IQUANT	1	Control Amp Speed
CONVENTION	IQUANT	1	Current Convention
ICHRANGE	IQUANT	2	Ich Range
ICHRANGEMODE	TOGGLE	F	Ich Auto Range
ICHOFFSETENABLE	TOGGLE	T	Ich Offset Enable
ICHOFFSET	QUANT	0	Ich Offset (V)
ICHFILTER	IQUANT	3	Ich Filter
VCHRANGE	IQUANT	2	Vch Range
VCHRANGEMODE	TOGGLE	F	Vch Auto Range
VCHOFFSETENABLE	TOGGLE	T	Vch Offset Enable
VCHOFFSET	QUANT	0	Vch Offset (V)
VCHFILTER	IQUANT	3	Vch Filter
ACHRANGE	IQUANT	2	Ach Range
ACHOFFSETENABLE	TOGGLE	F	Ach Offset Enable
ACHOFFSET	QUANT	0	Ach Offset (V)
ACHFILTER	IQUANT	3	Ach Filter
IERANGELOWERLIMIT	IQUANT	1	I/E Range Lower Limit
IERANGEMODE	TOGGLE	F	I/E AutoRange
IERANGE	IQUANT	4	I/E Range
POSFEEDENABLE	TOGGLE	F	Positive Feedback IR Comp
POSFEEDRESISTANCE	QUANT	0	Positive Feedback Resistance (ohm)
ACHSELECT	IQUANT	0	Ach Select
CABLEID	IQUANT	14	Cable ID
DCCALDATE	LABEL	8/19/2019	DC Calibration Date
ACCALDATE	LABEL	8/19/2019	AC Calibration Date
THERMOSELECT	IQUANT	1	Thermo Select
FRAMEWORKVERSION	QUANT	6.33	Framework Version
INSTRUMENTVERSION	LABEL	3.50	Instrument Version
ZCURVE	TABLE
	Pt	Time	Freq	Zreal	Zimag	Zsig	Zmod	Zphz	Idc	Vdc	IERange
	#	s	Hz	ohm	ohm	V	ohm	°	A	V	#
	0	2	1000078	2078.309	-1392.635	1	2501.76	-33.82528	-6.470846E-007	0.0081723	8
	1	3	794390.6	2355.254	-1333.369	1	2706.491	-29.5153	1.428461E-007	0.0067131	8
	2	4	630984.4	2605.892	-1244.731	1	2887.91	-25.53195	-1.129873E-006	0.0075567	8
	3	6	501234.4	2824.385	-1129.21	1	3041.754	-21.79189	-2.879706E-006	0.0068015	8
	4	8	398109.4	2990.058	-1009.801	1	3155.97	-18.66084	-2.655969E-006	0.0067513	8
	5	9	316265.6	3136.097	-883.327	1	3258.124	-15.73064	2.251051E-006	0.0071285	8
	6	11	251203.1	3234.617	-766.3254	1	3324.155	-13.32842	-8.238761E-007	0.0064919	8
	7	12	199546.9	3311.665	-662.3682	1	3377.256	-11.31052	-4.750466E-006	0.0071539	8
	8	14	158578.1	3374.687	-579.9743	1	3424.162	-9.7516	-6.250684E-006	0.007713	8
	9	15	125953.1	3453.254	-447.8433	1	3482.173	-7.389294	-2.935407E-006	0.009216	7
	10	16	100078.1	3482.812	-405.4803	1	3506.336	-6.640665	4.138275E-007	0.0073279	7
	11	18	79453.13	3514.614	-372.9841	1	3534.35	-6.057771	1.356739E-007	0.0052819	7
	12	19	63140.62	3544.009	-351.7977	1	3561.427	-5.668921	5.291698E-007	0.0049608	7
	13	20	50203.12	3569.947	-340.8466	1	3586.182	-5.453877	-1.176733E-006	0.0084781	7
	14	22	39890.62	3602.216	-339.2033	1	3618.151	-5.379405	1.168079E-006	0.0051779	7
	15	23	31640.63	3631.744	-343.6633	1	3647.968	-5.405666	8.854668E-007	0.0065246	7
	16	25	25171.88	3656.151	-357.5053	1	3673.588	-5.584734	-7.690821E-007	0.0065487	7
	17	26	20015.62	3682.018	-377.743	1	3701.344	-5.857555	-1.302072E-006	0.0078938	7
	18	27	15890.62	3724.839	-410.4189	1	3747.382	-6.287734	8.867278E-007	0.0065264	7
	19	29	12609.37	3757.84	-449.9336	1	3784.68	-6.827634	5.300121E-007	0.0049508	7
	20	30	10078.13	3791.381	-502.4483	1	3824.529	-7.549067	-7.707808E-007	0.0065478	7
	21	31	8015.625	3834.841	-576.7247	1	3877.966	-8.552662	-7.70423E-007	0.0065543	7
	22	33	6328.125	3875.311	-655.3172	1	3930.328	-9.59795	5.31356E-007	0.0049556	7
	23	34	5015.625	3918.218	-759.9003	1	3991.225	-10.9757	-3.152766E-007	0.005815	7
	24	35	3984.375	3972.352	-873.3539	1	4067.226	-12.39966	-1.319712E-006	0.0083042	7
	25	37	3170.956	4017.938	-1049.04	1	4152.626	-14.63266	-1.11419E-006	0.0072886	7
	26	38	2527.573	4078.167	-1243.135	1	4263.429	-16.95263	-6.674433E-007	0.0084603	7
	27	39	1976.103	4153.227	-1498.771	1	4415.383	-19.84295	-1.319112E-006	0.0083019	7
	28	41	1577.524	4204.001	-1744.512	1	4551.588	-22.53673	-1.320085E-006	0.0083011	7
	29	42	1265.625	4324.153	-2142.595	1	4825.87	-26.35818	-7.689337E-007	0.0065515	7
	30	44	998.264	4433.133	-2604.507	1	5141.607	-30.43463	-1.301624E-006	0.0078907	7
	31	45	796.875	4555.021	-3131.241	1	5527.467	-34.50565	-1.318083E-006	0.0082971	7
	32	46	627.7902	4702.251	-3830.692	1	6065.094	-39.16801	1.373617E-007	0.0052571	7
	33	48	505.5147	4861.386	-4598.673	1	6691.851	-43.40926	8.005961E-008	0.0077767	7
	34	49	397.9953	5055.442	-5649.567	1	7581.234	-48.17664	7.17549E-009	0.0067645	7
	35	50	315.5048	5285.465	-6914.846	1	8703.519	-52.60698	3.272883E-009	0.0067623	7
	36	52	252.4038	5551.987	-8413.726	1	10080.44	-56.58027	6.439092E-009	0.0067642	7
	37	53	198.6229	5910.07	-10406.59	1	11967.71	-60.40705	1.625885E-009	0.0066946	6
	38	54	158.3615	6338.271	-12738.35	1	14228.12	-63.54626	1.654579E-009	0.0066897	6
	39	56	125.558	6885.36	-15682.29	1	17127.24	-66.29597	1.150094E-009	0.0067035	6
	40	57	100.4464	7551.096	-19146.56	1	20581.79	-68.47652	8.319154E-010	0.0066935	6
	41	58	79.00281	8518.275	-23804.97	1	25283.15	-70.31097	8.895358E-010	0.0067026	6
	42	60	63.3446	9890.38	-29179.89	1	30810.48	-71.27616	4.426348E-010	0.0066916	6
	43	61	49.86702	11181.02	-35866.56	1	37568.94	-72.68568	-1.339224E-010	0.0066927	6
	44	63	39.72458	13496.21	-43714.98	1	45750.92	-72.84286	1.096701E-009	0.0067022	6
	45	64	31.6723	16465.27	-53379.97	1	55861.68	-72.85741	-9.569463E-011	0.0067051	6
	46	66	24.93351	20499.06	-65453.98	1	68588.88	-72.61034	4.648258E-010	0.0067068	6
	47	67	19.86229	25566.78	-79128.73	1	83156.57	-72.09417	4.389017E-010	0.0066989	6
	48	68	15.83615	32527.26	-94850.37	1	100272.7	-71.0715	7.913673E-010	0.0067008	6
	49	70	12.40079	42566.89	-115775.1	1	123352.4	-69.8131	1.556641E-009	0.0066984	5
	50	71	9.93114	53522.11	-136855.9	1	146949.5	-68.64034	1.015225E-009	0.0066991	5
	51	73	7.944915	67357.9	-160982.9	1	174506.7	-67.29476	-4.006244E-010	0.0067163	5
	52	74	6.317385	85783.15	-189154	1	207696.9	-65.60526	9.676229E-012	0.0067036	5
	53	76	5.008013	107840.5	-220588.9	1	245538.3	-63.94712	-9.759741E-011	0.0067164	5
	54	79	3.945707	134964.7	-256055.5	1	289447.5	-62.20667	1.883315E-010	0.0067065	5
	55	82	3.158693	162698.2	-292736.1	1	334910.6	-60.93538	-3.356847E-011	0.006685	5
	56	85	2.504006	195808.8	-335154.4	1	388161.8	-59.70506	4.807876E-010	0.0067158	5
	57	88	1.998082	231355.4	-381625.5	1	446277.2	-58.77422	3.646027E-010	0.0067327	5
	58	91	1.584686	271696.8	-434952.3	1	512837.8	-58.00868	1.823332E-010	0.0066683	5
	59	95	1.266892	313849.3	-497183.6	1	587956.6	-57.73765	2.653184E-010	0.0067286	5
	60	99	0.999041	364754.4	-573445.6	1	679621.6	-57.54058	-6.530703E-011	0.0066607	5
