EXPLAIN
TAG	EISPOT
TITLE	LABEL	Potentiostatic EIS	Test &Identifier
DATE	LABEL	8/14/2018	Date
TIME	LABEL	5:02:11	Time
NOTES	NOTES	1	&Notes...
	
PSTAT	PSTAT	REF600-11020	Potentiostat
VDC	POTEN	0.00000E+000	T	DC &Voltage (V)
FREQINIT	QUANT	1.00000E+006	Initial Fre&q. (Hz)
FREQFINAL	QUANT	1.00000E+000	Final Fre&q. (Hz)
PTSPERDEC	QUANT	1.00000E+001	Points/&decade
VAC	QUANT	2.50000E+001	AC &Voltage (mV rms)
AREA	QUANT	1.00000E-002	&Area (cm^2)
CONDIT	TWOPARAM	T	5.00000E+000	0.00000E+000	Conditionin&g	Time(s)	E(V)
DELAY	TWOPARAM	T	5.00000E+000	0.00000E+000	Init. De&lay	Time(s)	Stab.(mV/s)
SPEED	SELECTOR	0	&Optimize for:
ZGUESS	QUANT	1.00000E+005	E&stimated Z (ohms)
OCVCURVE	TABLE	19
	Pt	T	Vf	Vm	Ach	Over
	#	s	V vs. Ref.	V	V	bits
	0	0.258333	5.56013E-003	5.56013E-003	5.80699E-004	...........
	1	0.516667	5.56040E-003	5.57430E-003	5.79799E-004	...........
	2	0.775	5.56237E-003	5.60408E-003	5.80899E-004	...........
	3	1.03333	5.56896E-003	5.63055E-003	5.76432E-004	...........
	4	1.29167	5.58291E-003	5.67348E-003	5.75899E-004	...........
	5	1.55	5.60527E-003	5.71649E-003	5.76499E-004	...........
	6	1.80833	5.63567E-003	5.76546E-003	5.81699E-004	...........
	7	2.06667	5.67290E-003	5.80721E-003	5.78366E-004	...........
	8	2.325	5.71504E-003	5.86171E-003	5.80232E-004	...........
	9	2.58333	5.76031E-003	5.91034E-003	5.76766E-004	...........
	10	2.84167	5.80778E-003	5.96313E-003	5.80965E-004	...........
	11	3.1	5.85700E-003	6.01357E-003	5.77199E-004	...........
	12	3.35833	5.90745E-003	6.06700E-003	5.81499E-004	...........
	13	3.61667	5.95870E-003	6.11948E-003	5.82299E-004	...........
	14	3.875	6.01059E-003	6.17453E-003	5.75932E-004	...........
	15	4.13333	6.06304E-003	6.22408E-003	5.82965E-004	...........
	16	4.39167	6.11565E-003	6.26896E-003	5.79932E-004	...........
	17	4.65	6.16717E-003	6.30358E-003	5.82999E-004	...........
	18	4.90833	6.21624E-003	6.36841E-003	5.81165E-004	...........
EOC	QUANT	0.0062162	Open Circuit (V)
PSTATMODEL	IQUANT	4	Pstat Model
PSTATSECTION	LABEL	REF600-11020	Pstat Section
PSTATSERIALNO	LABEL	11020	Pstat Serial Number
CTRLMODE	IQUANT	1	Control Mode
IESTAB	IQUANT	0	I/E Stability
CASPEED	IQUANT	1	Control Amp Speed
CONVENTION	IQUANT	1	Current Convention
ICHRANGE	IQUANT	2	Ich Range
ICHRANGEMODE	TOGGLE	F	Ich Auto Range
ICHOFFSETENABLE	TOGGLE	T	Ich Offset Enable
ICHOFFSET	QUANT	0	Ich Offset (V)
ICHFILTER	IQUANT	3	Ich Filter
VCHRANGE	IQUANT	2	Vch Range
VCHRANGEMODE	TOGGLE	F	Vch Auto Range
VCHOFFSETENABLE	TOGGLE	T	Vch Offset Enable
VCHOFFSET	QUANT	0	Vch Offset (V)
VCHFILTER	IQUANT	3	Vch Filter
ACHRANGE	IQUANT	2	Ach Range
ACHOFFSETENABLE	TOGGLE	F	Ach Offset Enable
ACHOFFSET	QUANT	0	Ach Offset (V)
ACHFILTER	IQUANT	3	Ach Filter
IERANGELOWERLIMIT	IQUANT	1	I/E Range Lower Limit
IERANGEMODE	TOGGLE	F	I/E AutoRange
IERANGE	IQUANT	5	I/E Range
POSFEEDENABLE	TOGGLE	F	Positive Feedback IR Comp
POSFEEDRESISTANCE	QUANT	0	Positive Feedback Resistance (ohm)
ACHSELECT	IQUANT	0	Ach Select
CABLEID	IQUANT	14	Cable ID
DCCALDATE	LABEL	8/19/2019	DC Calibration Date
ACCALDATE	LABEL	8/19/2019	AC Calibration Date
THERMOSELECT	IQUANT	1	Thermo Select
FRAMEWORKVERSION	QUANT	6.33	Framework Version
INSTRUMENTVERSION	LABEL	3.50	Instrument Version
ZCURVE	TABLE
	Pt	Time	Freq	Zreal	Zimag	Zsig	Zmod	Zphz	Idc	Vdc	IERange
	#	s	Hz	ohm	ohm	V	ohm	°	A	V	#
	0	1	1000078	1910.544	-938.5921	1	2128.646	-26.16349	-3.490787E-007	0.0085108	8
	1	1	794390.6	2082.05	-874.2316	1	2258.143	-22.77704	-5.236923E-007	0.0083309	8
	2	2	630984.4	2235.991	-788.7544	1	2371.032	-19.43048	-2.648244E-006	0.0084284	8
	3	2	501234.4	2331.881	-694.8945	1	2433.218	-16.59392	6.698329E-007	0.0077591	8
	4	2	398109.4	2421.641	-617.4821	1	2499.125	-14.30475	4.281768E-006	0.0071394	8
	5	3	316265.6	2497.946	-545.8176	1	2556.883	-12.32578	2.134427E-006	0.0073498	8
	6	3	251203.1	2558.461	-484.1526	1	2603.868	-10.7157	-1.096037E-006	0.008193	8
	7	3	199546.9	2600.452	-434.8554	1	2636.561	-9.493332	-2.712084E-006	0.0083911	8
	8	4	158578.1	2629.91	-392.9512	1	2659.105	-8.498049	-4.140796E-008	0.0078988	8
	9	4	125953.1	2701.328	-309.7528	1	2719.03	-6.541357	-2.554381E-007	0.0083725	7
	10	4	100078.1	2719.052	-287.1193	1	2734.169	-6.027832	1.060386E-007	0.0076595	7
	11	5	79453.13	2748.502	-277.9844	1	2762.524	-5.775275	-3.997826E-008	0.007883	7
	12	5	63140.62	2773.961	-276.3119	1	2787.689	-5.688419	2.304601E-008	0.0077707	7
	13	5	50203.12	2800.441	-278.4264	1	2814.248	-5.677822	-1.872836E-008	0.0078394	7
	14	6	39890.62	2826.619	-286.19	1	2841.071	-5.78139	-3.9975E-008	0.0078767	7
	15	6	31640.63	2854.035	-300.709	1	2869.833	-6.01465	-1.940966E-008	0.0078563	7
	16	6	25171.88	2881.566	-319.4337	1	2899.218	-6.325649	6.89664E-008	0.0076743	7
	17	6	20015.62	2908.923	-344.9738	1	2929.307	-6.763211	6.418919E-008	0.0077713	7
	18	7	15890.62	2939.915	-382.905	1	2964.745	-7.420635	-4.463812E-008	0.0078424	7
	19	7	12609.37	2969.188	-429.1668	1	3000.044	-8.224579	1.08564E-007	0.0076451	7
	20	7	10078.13	2997.988	-495.0626	1	3038.588	-9.376727	-7.011109E-009	0.0078343	7
	21	8	8015.625	3033.792	-556.0556	1	3084.33	-10.38631	6.414543E-008	0.0077697	7
	22	8	6328.125	3073.148	-646.8018	1	3140.476	-11.8855	6.383607E-008	0.0076526	7
	23	8	5015.625	3114.405	-759.3682	1	3205.645	-13.70275	-3.771997E-008	0.0078056	7
	24	9	3984.375	3160.136	-898.9493	1	3285.509	-15.87922	-1.796106E-008	0.0078514	7
	25	9	3170.956	3210.478	-1065.629	1	3382.711	-18.36215	2.185483E-009	0.0077498	7
	26	9	2527.573	3267.415	-1270.687	1	3505.802	-21.2509	-3.94327E-008	0.0079294	7
	27	10	1976.103	3339.762	-1542.813	1	3678.897	-24.79472	-1.816573E-008	0.0078496	7
	28	10	1577.524	3411.72	-1856.892	1	3884.313	-28.55807	2.409313E-008	0.0077667	7
	29	10	1265.625	3495.868	-2221.444	1	4141.969	-32.43385	-4.01625E-008	0.0078743	7
	30	11	998.264	3598.07	-2709.618	1	4504.236	-36.98251	-3.557508E-008	0.0078161	7
	31	11	796.875	3709.07	-3284.045	1	4954.004	-41.52198	-1.581233E-008	0.0078301	7
	32	11	627.7902	3848.775	-4032.846	1	5574.667	-46.33788	1.068541E-007	0.0076382	7
	33	12	505.5147	4005.198	-4875.764	1	6309.888	-50.59859	-1.869864E-008	0.0078485	7
	34	12	397.9953	4212.349	-6017.613	1	7345.444	-55.00785	-2.583263E-010	0.0078156	7
	35	12	315.5048	4467.275	-7398.753	1	8642.806	-58.87694	1.356363E-009	0.007816	7
	36	13	252.4038	4779.091	-9028.757	1	10215.58	-62.10689	2.458659E-009	0.0078136	7
	37	13	198.6229	5216.285	-11183.8	1	12340.46	-64.99498	4.648002E-010	0.0077566	6
	38	13	158.3615	5755.471	-13691.98	1	14852.46	-67.20038	8.685359E-010	0.0077528	6
	39	13	125.558	6477.742	-16832.84	1	18036.23	-68.9519	5.074757E-010	0.0077509	6
	40	14	100.4464	7364.394	-20483.65	1	21767.28	-70.2252	-1.682166E-010	0.0077491	6
	41	14	79.00281	8738.3	-25275.82	1	26743.69	-70.92882	-7.333416E-010	0.0077476	6
	42	15	63.3446	10014.71	-30828.65	1	32414.5	-72.00359	5.517119E-010	0.0077504	6
	43	15	49.86702	12264.72	-37667.12	1	39613.57	-71.96433	3.087084E-010	0.0077522	6
	44	15	39.72458	15319.48	-45537.01	1	48044.83	-71.40612	4.948709E-010	0.0077518	6
	45	16	31.6723	19068.22	-55067.29	1	58275.24	-70.90051	1.160268E-009	0.0077509	6
	46	16	24.93351	24171.82	-66528.1	1	70783.23	-70.03227	-2.65268E-010	0.0077501	6
	47	16	19.86229	30414.83	-79458.25	1	85080.41	-69.05428	5.966173E-010	0.0077525	6
	48	16	15.83615	37662.39	-95278.3	1	102452	-68.43169	9.848683E-010	0.0077527	6
	49	17	12.40079	49499.86	-113332.5	1	123670.9	-66.4059	5.57982E-010	0.0077562	5
	50	17	9.93114	62154.27	-131391.9	1	145351.2	-64.68375	-1.063011E-009	0.0077557	5
	51	18	7.944915	78028.94	-152325.2	1	171147.5	-62.8761	-9.033772E-010	0.0077579	5
	52	18	6.317385	96632.9	-175457.4	1	200307.8	-61.1563	-9.588698E-010	0.0077688	5
	53	19	5.008013	119055.5	-200809.3	1	233449.3	-59.3372	-4.964513E-010	0.0077524	5
	54	20	3.945707	146224.9	-228727.2	1	271473.5	-57.40929	7.698288E-011	0.0077471	5
	55	22	3.158693	172843.3	-257157.8	1	309846.6	-56.09378	4.725645E-011	0.0077647	5
	56	23	2.504006	204506.3	-289542.6	1	354482.4	-54.76613	-3.393199E-010	0.0077566	5
	57	25	1.998082	236363	-324451.2	1	401417.6	-53.92663	-2.617411E-010	0.0077436	5
	58	26	1.584686	272786.3	-364265.5	1	455084.3	-53.17168	-3.646157E-011	0.0077907	5
	59	28	1.266892	310118.3	-410596.2	1	514550.8	-52.93669	9.026205E-012	0.0077875	5
	60	31	0.999041	351692.6	-467938.6	1	585366.8	-53.07227	1.521061E-011	0.0077701	5
