EXPLAIN
TAG	EISPOT
TITLE	LABEL	Potentiostatic EIS	Test &Identifier
DATE	LABEL	10/4/2019	Date
TIME	LABEL	9:40:26	Time
NOTES	NOTES	2	&Notes...
	
	
PSTAT	PSTAT	REF600-11020	Potentiostat
VDC	POTEN	0.00000E+000	T	DC &Voltage (V)
FREQINIT	QUANT	1.00000E+006	Initial Fre&q. (Hz)
FREQFINAL	QUANT	1.00000E+000	Final Fre&q. (Hz)
PTSPERDEC	QUANT	1.00000E+001	Points/&decade
VAC	QUANT	2.50000E+001	AC &Voltage (mV rms)
AREA	QUANT	1.00000E-002	&Area (cm^2)
CONDIT	TWOPARAM	T	5.00000E+000	0.00000E+000	Conditionin&g	Time(s)	E(V)
DELAY	TWOPARAM	T	5.00000E+000	0.00000E+000	Init. De&lay	Time(s)	Stab.(mV/s)
SPEED	SELECTOR	1	&Optimize for:
ZGUESS	QUANT	1.00000E+004	E&stimated Z (ohms)
OCVCURVE	TABLE	19
	Pt	T	Vf	Vm	Ach	Over
	#	s	V vs. Ref.	V	V	bits
	0	0.258333	6.00904E-003	6.00904E-003	5.42433E-004	...........
	1	0.516667	6.00759E-003	5.93295E-003	5.40166E-004	...........
	2	0.775	5.99897E-003	5.87713E-003	5.39933E-004	...........
	3	1.03333	5.97575E-003	5.82971E-003	5.36766E-004	...........
	4	1.29167	5.93690E-003	5.79270E-003	5.41066E-004	...........
	5	1.55	5.88970E-003	5.76401E-003	5.35566E-004	...........
	6	1.80833	5.84330E-003	5.73949E-003	5.37533E-004	...........
	7	2.06667	5.80319E-003	5.72182E-003	5.33800E-004	...........
	8	2.325	5.77078E-003	5.70476E-003	5.32800E-004	...........
	9	2.58333	5.74515E-003	5.69155E-003	5.37399E-004	...........
	10	2.84167	5.72472E-003	5.68263E-003	5.36366E-004	...........
	11	3.1	5.70831E-003	5.67789E-003	5.32200E-004	...........
	12	3.35833	5.69552E-003	5.67648E-003	5.37799E-004	...........
	13	3.61667	5.68634E-003	5.67646E-003	5.46266E-004	...........
	14	3.875	5.67934E-003	5.61019E-003	5.36899E-004	...........
	15	4.13333	5.66956E-003	5.59699E-003	5.36199E-004	...........
	16	4.39167	5.65192E-003	5.56707E-003	5.42199E-004	...........
	17	4.65	5.62773E-003	5.58562E-003	5.38666E-004	...........
	18	4.90833	5.60454E-003	5.58543E-003	5.40666E-004	...........
EOC	QUANT	0.0056045	Open Circuit (V)
PSTATMODEL	IQUANT	4	Pstat Model
PSTATSECTION	LABEL	REF600-11020	Pstat Section
PSTATSERIALNO	LABEL	11020	Pstat Serial Number
CTRLMODE	IQUANT	1	Control Mode
IESTAB	IQUANT	0	I/E Stability
CASPEED	IQUANT	1	Control Amp Speed
CONVENTION	IQUANT	1	Current Convention
ICHRANGE	IQUANT	2	Ich Range
ICHRANGEMODE	TOGGLE	F	Ich Auto Range
ICHOFFSETENABLE	TOGGLE	T	Ich Offset Enable
ICHOFFSET	QUANT	0	Ich Offset (V)
ICHFILTER	IQUANT	3	Ich Filter
VCHRANGE	IQUANT	2	Vch Range
VCHRANGEMODE	TOGGLE	F	Vch Auto Range
VCHOFFSETENABLE	TOGGLE	T	Vch Offset Enable
VCHOFFSET	QUANT	0	Vch Offset (V)
VCHFILTER	IQUANT	3	Vch Filter
ACHRANGE	IQUANT	2	Ach Range
ACHOFFSETENABLE	TOGGLE	F	Ach Offset Enable
ACHOFFSET	QUANT	0	Ach Offset (V)
ACHFILTER	IQUANT	3	Ach Filter
IERANGELOWERLIMIT	IQUANT	1	I/E Range Lower Limit
IERANGEMODE	TOGGLE	F	I/E AutoRange
IERANGE	IQUANT	6	I/E Range
POSFEEDENABLE	TOGGLE	F	Positive Feedback IR Comp
POSFEEDRESISTANCE	QUANT	0	Positive Feedback Resistance (ohm)
ACHSELECT	IQUANT	0	Ach Select
CABLEID	IQUANT	14	Cable ID
DCCALDATE	LABEL	8/19/2019	DC Calibration Date
ACCALDATE	LABEL	8/19/2019	AC Calibration Date
THERMOSELECT	IQUANT	1	Thermo Select
FRAMEWORKVERSION	QUANT	6.33	Framework Version
INSTRUMENTVERSION	LABEL	3.50	Instrument Version
ZCURVE	TABLE
	Pt	Time	Freq	Zreal	Zimag	Zsig	Zmod	Zphz	Idc	Vdc	IERange
	#	s	Hz	ohm	ohm	V	ohm	°	A	V	#
	0	1	1000078	2494.481	-1606.782	1	2967.184	-32.78699	-6.017294E-007	0.0082704	8
	1	2	794390.6	2796.104	-1507.867	1	3176.769	-28.33684	-9.671464E-007	0.007319	8
	2	3	630984.4	3069.983	-1378.94	1	3365.453	-24.18812	-4.70118E-006	0.0081416	8
	3	5	501234.4	3294.043	-1221.498	1	3513.229	-20.3458	3.091527E-006	0.0066037	8
	4	6	398109.4	3470.183	-1062.224	1	3629.117	-17.01937	-6.655725E-007	0.0070792	8
	5	7	316265.6	3591.946	-908.0809	1	3704.954	-14.18769	4.799229E-006	0.0060375	8
	6	9	251203.1	3700.037	-778.8975	1	3781.131	-11.8878	-6.25541E-007	0.0072543	8
	7	10	199546.9	3755.066	-685.3028	1	3817.088	-10.3427	4.546857E-006	0.0060789	8
	8	12	158578.1	3814.078	-581.9939	1	3858.226	-8.675896	-2.037102E-006	0.0074464	8
	9	13	125953.1	3875.091	-461.4626	1	3902.47	-6.791049	1.408662E-006	0.004336	7
	10	14	100078.1	3903.953	-404.4021	1	3924.842	-5.914053	-1.685779E-008	0.0071062	7
	11	16	79453.13	3934.02	-374.0535	1	3951.763	-5.431454	-9.239582E-009	0.0070161	7
	12	17	63140.62	3961.849	-352.2061	1	3977.473	-5.080207	2.1574E-008	0.0069425	7
	13	18	50203.12	3988.523	-341.2211	1	4003.092	-4.88979	-6.585196E-008	0.0071488	7
	14	20	39890.62	4014.73	-339.3915	1	4029.05	-4.8321	-1.640616E-008	0.007094	7
	15	21	31640.63	4042.189	-345.4523	1	4056.924	-4.884726	1.225503E-007	0.0068494	7
	16	22	25171.88	4070.028	-359.8335	1	4085.904	-5.052416	1.048619E-007	0.0069372	7
	17	24	20015.62	4101.123	-383.7307	1	4119.036	-5.345444	-7.817547E-008	0.0072609	7
	18	25	15890.62	4132.329	-418.3785	1	4153.455	-5.781223	-1.405895E-008	0.0070927	7
	19	26	12609.37	4165.827	-465.3875	1	4191.742	-6.374397	-4.365361E-008	0.007045	7
	20	28	10078.13	4201.479	-518.8561	1	4233.395	-7.040024	1.383388E-008	0.0071206	7
	21	29	8015.625	4239.539	-590.2625	1	4280.432	-7.926223	1.217877E-007	0.006848	7
	22	30	6328.125	4281.513	-681.4574	1	4335.405	-9.043498	-4.436465E-008	0.007043	7
	23	32	5015.625	4326.469	-794.9297	1	4398.891	-10.4112	-1.385579E-008	0.0070512	7
	24	33	3984.375	4374.645	-933.3953	1	4473.114	-12.0443	5.875877E-008	0.0069356	7
	25	34	3170.956	4428.981	-1103.351	1	4564.347	-13.98881	-4.803234E-008	0.0071348	7
	26	36	2527.573	4489.922	-1310.958	1	4677.394	-16.27664	-7.37749E-008	0.0071216	7
	27	37	1976.103	4566.104	-1589.387	1	4834.818	-19.19218	-4.257637E-009	0.0070238	7
	28	38	1577.524	4648.448	-1902.788	1	5022.815	-22.26117	-6.988061E-008	0.0071166	7
	29	40	1265.625	4747.031	-2272.858	1	5263.097	-25.58489	-5.32987E-008	0.0070979	7
	30	41	998.264	4857.595	-2766.168	1	5589.983	-29.65944	1.150076E-008	0.0071145	7
	31	43	796.875	4986.506	-3334.14	1	5998.478	-33.76798	7.645551E-009	0.0069757	7
	32	44	627.7902	5143.917	-4075.025	1	6562.446	-38.38636	1.271308E-008	0.0071154	7
	33	45	505.5147	5313.438	-4900.307	1	7228.114	-42.68373	4.534163E-008	0.0069756	7
	34	47	397.9953	5534.683	-6016.608	1	8175.102	-47.38902	5.328883E-009	0.0070461	7
	35	48	315.5048	5791.179	-7361.167	1	9366.138	-51.80715	4.13378E-009	0.0070471	7
	36	49	252.4038	6091.466	-8948.663	1	10825.18	-55.7564	9.533215E-010	0.0069842	6
	37	51	198.6229	6488.523	-11055.29	1	12818.75	-59.59066	9.429962E-010	0.0069876	6
	38	52	158.3615	6962.262	-13516.77	1	15204.48	-62.74776	5.531008E-010	0.0069873	6
	39	53	125.558	7578.619	-16613.14	1	18260.12	-65.47837	9.566636E-010	0.0069867	6
	40	55	100.4464	8327.801	-20262.75	1	21907.33	-67.65779	5.519649E-010	0.0069833	6
	41	56	79.00281	9437.835	-25087.83	1	26804.33	-69.38412	1.238E-009	0.006981	6
	42	57	63.3446	10754.5	-30337.15	1	32186.99	-70.48062	1.010831E-009	0.0069855	6
	43	59	49.86702	12650.02	-37713.87	1	39778.88	-71.45747	2.915189E-010	0.0069825	6
	44	60	39.72458	14835.19	-45901.79	1	48239.58	-72.08948	8.851501E-010	0.0069833	6
	45	62	31.6723	17931.29	-55876.21	1	58682.89	-72.20799	1.534465E-010	0.0069836	6
	46	63	24.93351	22168.18	-68350.8	1	71855.84	-72.03059	2.451091E-010	0.0069805	6
	47	64	19.86229	27501.41	-82602.85	1	87060.66	-71.58557	1.37703E-009	0.006985	6
	48	66	15.83615	34605.52	-98796.4	1	104681.8	-70.69612	3.264667E-010	0.0069871	6
	49	67	12.40079	44291.98	-120858.6	1	128719	-69.87325	9.605247E-010	0.006987	5
	50	68	9.93114	56078.74	-143036	1	153636.4	-68.59183	9.18006E-010	0.0069818	5
	51	70	7.944915	70748.59	-168663.2	1	182900.6	-67.24358	-2.541808E-010	0.006991	5
	52	72	6.317385	89428.08	-198123.8	1	217371.6	-65.70678	-1.671153E-010	0.0069909	5
	53	74	5.008013	112700.9	-231667.7	1	257626.5	-64.05816	9.242157E-011	0.0069801	5
	54	76	3.945707	140970.6	-269213.6	1	303889.2	-62.36171	4.7916E-010	0.0069938	5
	55	79	3.158693	172231.5	-307951.9	1	352842.8	-60.78255	7.20754E-011	0.0069959	5
	56	82	2.504006	208654.2	-351999.9	1	409195	-59.34191	2.449194E-010	0.0069798	5
	57	85	1.998082	247118.3	-399527.3	1	469776	-58.2621	-1.213799E-010	0.0070011	5
	58	88	1.584686	291929.5	-453336.8	1	539200.4	-57.2202	1.417732E-010	0.007043	5
	59	92	1.266892	336635.3	-514170.7	1	614568.8	-56.78663	-7.667642E-011	0.0069901	5
	60	96	0.999041	389230.9	-588729.8	1	705764.5	-56.52984	3.15473E-010	0.0070044	5
