EXPLAIN
TAG	EISPOT
TITLE	LABEL	Potentiostatic EIS	Test &Identifier
DATE	LABEL	11/27/2019	Date
TIME	LABEL	12:37:50	Time
NOTES	NOTES	3	&Notes...
	
	
	
PSTAT	PSTAT	REF600-11020	Potentiostat
VDC	POTEN	0.00000E+000	T	DC &Voltage (V)
FREQINIT	QUANT	1.00000E+006	Initial Fre&q. (Hz)
FREQFINAL	QUANT	1.00000E+000	Final Fre&q. (Hz)
PTSPERDEC	QUANT	1.00000E+001	Points/&decade
VAC	QUANT	2.50000E+001	AC &Voltage (mV rms)
AREA	QUANT	1.00000E-002	&Area (cm^2)
CONDIT	TWOPARAM	T	5.00000E+000	0.00000E+000	Conditionin&g	Time(s)	E(V)
DELAY	TWOPARAM	T	5.00000E+000	0.00000E+000	Init. De&lay	Time(s)	Stab.(mV/s)
SPEED	SELECTOR	0	&Optimize for:
ZGUESS	QUANT	1.00000E+005	E&stimated Z (ohms)
OCVCURVE	TABLE	19
	Pt	T	Vf	Vm	Ach	Over
	#	s	V vs. Ref.	V	V	bits
	0	0.258333	6.58676E-003	6.58676E-003	5.70566E-004	...........
	1	0.516667	6.58789E-003	6.64544E-003	5.55099E-004	...........
	2	0.775	6.59326E-003	6.62207E-003	5.55099E-004	...........
	3	1.03333	6.60229E-003	6.53899E-003	5.66832E-004	...........
	4	1.29167	6.60484E-003	6.51990E-003	5.67766E-004	...........
	5	1.55	6.58833E-003	6.36702E-003	5.61266E-004	...........
	6	1.80833	6.54588E-003	6.26678E-003	5.60566E-004	...........
	7	2.06667	6.47726E-003	6.22400E-003	5.65899E-004	...........
	8	2.325	6.39294E-003	6.20100E-003	5.69466E-004	...........
	9	2.58333	6.31299E-003	6.20993E-003	5.66299E-004	...........
	10	2.84167	6.25356E-003	6.16693E-003	5.71532E-004	...........
	11	3.1	6.21784E-003	6.22893E-003	5.68199E-004	...........
	12	3.35833	6.20240E-003	6.25963E-003	5.69266E-004	...........
	13	3.61667	6.20565E-003	6.30001E-003	5.69266E-004	...........
	14	3.875	6.22685E-003	6.39029E-003	5.74599E-004	...........
	15	4.13333	6.26374E-003	6.42371E-003	5.70699E-004	...........
	16	4.39167	6.31052E-003	6.37857E-003	5.68866E-004	...........
	17	4.65	6.35306E-003	6.33298E-003	5.63832E-004	...........
	18	4.90833	6.37686E-003	6.43518E-003	5.67632E-004	...........
EOC	QUANT	0.0063769	Open Circuit (V)
PSTATMODEL	IQUANT	4	Pstat Model
PSTATSECTION	LABEL	REF600-11020	Pstat Section
PSTATSERIALNO	LABEL	11020	Pstat Serial Number
CTRLMODE	IQUANT	1	Control Mode
IESTAB	IQUANT	0	I/E Stability
CASPEED	IQUANT	1	Control Amp Speed
CONVENTION	IQUANT	1	Current Convention
ICHRANGE	IQUANT	2	Ich Range
ICHRANGEMODE	TOGGLE	F	Ich Auto Range
ICHOFFSETENABLE	TOGGLE	T	Ich Offset Enable
ICHOFFSET	QUANT	0	Ich Offset (V)
ICHFILTER	IQUANT	3	Ich Filter
VCHRANGE	IQUANT	2	Vch Range
VCHRANGEMODE	TOGGLE	F	Vch Auto Range
VCHOFFSETENABLE	TOGGLE	T	Vch Offset Enable
VCHOFFSET	QUANT	0	Vch Offset (V)
VCHFILTER	IQUANT	3	Vch Filter
ACHRANGE	IQUANT	2	Ach Range
ACHOFFSETENABLE	TOGGLE	F	Ach Offset Enable
ACHOFFSET	QUANT	0	Ach Offset (V)
ACHFILTER	IQUANT	3	Ach Filter
IERANGELOWERLIMIT	IQUANT	1	I/E Range Lower Limit
IERANGEMODE	TOGGLE	F	I/E AutoRange
IERANGE	IQUANT	5	I/E Range
POSFEEDENABLE	TOGGLE	F	Positive Feedback IR Comp
POSFEEDRESISTANCE	QUANT	0	Positive Feedback Resistance (ohm)
ACHSELECT	IQUANT	0	Ach Select
CABLEID	IQUANT	14	Cable ID
DCCALDATE	LABEL	8/19/2019	DC Calibration Date
ACCALDATE	LABEL	8/19/2019	AC Calibration Date
THERMOSELECT	IQUANT	1	Thermo Select
FRAMEWORKVERSION	QUANT	6.33	Framework Version
INSTRUMENTVERSION	LABEL	3.50	Instrument Version
ZCURVE	TABLE
	Pt	Time	Freq	Zreal	Zimag	Zsig	Zmod	Zphz	Idc	Vdc	IERange
	#	s	Hz	ohm	ohm	V	ohm	°	A	V	#
	0	2	1000078	2162.147	-1330.3	1	2538.618	-31.60266	9.601586E-007	0.0083925	8
	1	2	794390.6	2438.976	-1240.261	1	2736.211	-26.95411	-3.373156E-006	0.00906	8
	2	2	630984.4	2638.043	-1117.216	1	2864.864	-22.95275	8.072541E-006	0.007466	8
	3	2	501234.4	2807.533	-988.322	1	2976.411	-19.39335	4.575377E-006	0.0074728	8
	4	3	398109.4	2933.875	-853.5151	1	3055.505	-16.22063	-1.161278E-006	0.0085207	8
	5	3	316265.6	3035.268	-749.993	1	3126.554	-13.87937	-1.55579E-007	0.0078424	8
	6	3	251203.1	3107.622	-645.064	1	3173.866	-11.72663	-1.844523E-006	0.0082133	8
	7	4	199546.9	3160.315	-569.4123	1	3211.203	-10.21373	-2.791209E-007	0.0084849	8
	8	4	158578.1	3221.617	-507.3289	1	3261.319	-8.949244	-3.101959E-007	0.00848	8
	9	4	125953.1	3261.247	-430.1187	1	3289.488	-7.513254	1.037801E-006	0.0093645	7
	10	5	100078.1	3291.215	-393.4244	1	3314.646	-6.816662	-1.059537E-006	0.0092939	7
	11	5	79453.13	3324.431	-380.513	1	3346.137	-6.529636	9.339233E-007	0.0067741	7
	12	5	63140.62	3352.457	-377.3108	1	3373.623	-6.421476	3.346605E-007	0.0084931	7
	13	6	50203.12	3386.193	-384.1707	1	3407.916	-6.472651	-7.859079E-007	0.0094836	7
	14	6	39890.62	3419.933	-397.653	1	3442.974	-6.632289	-7.733171E-007	0.0094829	7
	15	6	31640.63	3457.732	-426.5262	1	3483.94	-7.032158	-1.055265E-006	0.0089667	7
	16	7	25171.88	3495.229	-454.4025	1	3524.643	-7.407279	-9.032786E-007	0.0084716	7
	17	7	20015.62	3539.52	-499.5346	1	3574.596	-8.033134	-1.065412E-006	0.0092876	7
	18	7	15890.62	3587.735	-553.3145	1	3630.151	-8.767303	7.241807E-007	0.007847	7
	19	8	12609.37	3641.806	-617.0167	1	3693.706	-9.61608	-2.635445E-007	0.0072737	7
	20	8	10078.13	3703.119	-696.4972	1	3768.05	-10.65197	-2.591923E-007	0.0092194	7
	21	8	8015.625	3764.747	-788.7213	1	3846.479	-11.83244	5.347237E-007	0.0082124	7
	22	8	6328.125	3832.408	-901.9169	1	3937.106	-13.24298	-5.45247E-007	0.0094204	7
	23	9	5015.625	3907.767	-1042.507	1	4044.436	-14.93739	-5.469956E-007	0.009425	7
	24	9	3984.375	3992.367	-1205.59	1	4170.424	-16.80294	8.831242E-007	0.0074115	7
	25	9	3170.956	4072.842	-1408.351	1	4309.465	-19.07491	9.545168E-007	0.0070362	7
	26	10	2527.573	4173.074	-1644.031	1	4485.241	-21.50254	6.325472E-008	0.0088599	7
	27	10	1976.103	4294.73	-1961.554	1	4721.483	-24.54784	-2.638602E-007	0.0072671	7
	28	10	1577.524	4403.053	-2315.536	1	4974.795	-27.73958	-5.470378E-007	0.0094228	7
	29	11	1265.625	4537.646	-2743.988	1	5302.802	-31.16203	5.271241E-007	0.008209	7
	30	11	998.264	4703.48	-3300.963	1	5746.223	-35.06167	5.271561E-007	0.0082013	7
	31	11	796.875	4869.174	-3945.747	1	6267.199	-39.01966	7.252355E-007	0.0078306	7
	32	12	627.7902	5066.773	-4780.919	1	6966.303	-43.33731	9.471769E-007	0.0067528	7
	33	12	505.5147	5285.228	-5710.922	1	7781.276	-47.21699	1.102158E-007	0.0068107	7
	34	13	397.9953	5569.675	-6960.666	1	8914.715	-51.33446	1.383715E-009	0.0080419	7
	35	13	315.5048	5882.496	-8470.526	1	10312.79	-55.22132	-8.098913E-010	0.0079836	6
	36	13	252.4038	6238.489	-10261.33	1	12008.9	-58.70203	-2.14596E-010	0.0079792	6
	37	14	198.6229	6701.516	-12638.31	1	14305.14	-62.06504	3.634489E-010	0.0079772	6
	38	14	158.3615	7246.123	-15423.74	1	17041.07	-64.83571	6.77445E-010	0.0079811	6
	39	14	125.558	7960.585	-18937.66	1	20542.78	-67.20019	9.136003E-010	0.0079759	6
	40	15	100.4464	8840.512	-23094.69	1	24728.91	-69.05344	-7.263305E-010	0.0079705	6
	41	15	79.00281	10054.35	-28611.01	1	30326.23	-70.63775	6.077083E-010	0.0079763	6
	42	15	63.3446	11195.56	-34479.17	1	36251.26	-72.01112	1.866637E-010	0.0079781	6
	43	16	49.86702	13424.1	-42526.69	1	44595.13	-72.48103	6.26328E-010	0.0079744	6
	44	16	39.72458	16286.04	-52075.26	1	54562.51	-72.63342	-7.493121E-011	0.0079677	6
	45	16	31.6723	19855.12	-63401.29	1	66437.55	-72.61123	-6.223219E-010	0.0079664	6
	46	17	24.93351	24690.93	-77195.96	1	81048.49	-72.26325	2.378065E-010	0.0079655	6
	47	17	19.86229	30484.72	-93020.93	1	97888.8	-71.85505	1.352301E-010	0.0079683	6
	48	17	15.83615	36932.19	-112623.3	1	118524.3	-71.84431	-1.343662E-009	0.0079736	5
	49	18	12.40079	49528.05	-135429.2	1	144201.6	-69.91193	-1.437015E-009	0.0079901	5
	50	18	9.93114	59992.87	-160508.3	1	171353.6	-69.50586	8.442276E-010	0.0079783	5
	51	19	7.944915	74671.4	-189269.4	1	203466.7	-68.46955	7.665918E-010	0.0079722	5
	52	19	6.317385	93709.47	-224808.9	1	243558	-67.37165	2.663321E-010	0.0079713	5
	53	20	5.008013	117325	-265481	1	290250.4	-66.15776	2.677178E-010	0.0079829	5
	54	21	3.945707	145912.1	-313646	1	345925.1	-65.05154	-7.182498E-011	0.0079808	5
	55	22	3.158693	178711.2	-364577.3	1	406022.6	-63.8865	-3.550279E-011	0.0079577	5
	56	24	2.504006	219968.6	-424572.4	1	478171.4	-62.61158	1.651226E-010	0.0079698	5
	57	25	1.998082	266331	-489316.4	1	557102.1	-61.4409	1.784001E-011	0.0079644	5
	58	27	1.584686	324052.5	-565539.1	1	651800.9	-60.18739	-8.861729E-011	0.0079246	5
	59	29	1.266892	386545.7	-647320.3	1	753950.3	-59.15657	-6.047732E-011	0.0079399	5
	60	31	0.999041	462634.5	-742890.6	1	875166.9	-58.08745	-6.582187E-011	0.0079643	5
