EXPLAIN
TAG	EISPOT
TITLE	LABEL	Potentiostatic IDE	Test &Identifier
DATE	LABEL	9/16/2019	Date
TIME	LABEL	8:35:32	Time
NOTES	NOTES	1	&Notes...
	
PSTAT	PSTAT	REF600-11020	Potentiostat
VDC	POTEN	0.00000E+000	T	DC &Voltage (V)
FREQINIT	QUANT	1.00000E+006	Initial Fre&q. (Hz)
FREQFINAL	QUANT	1.00000E+000	Final Fre&q. (Hz)
PTSPERDEC	QUANT	1.00000E+001	Points/&decade
VAC	QUANT	2.50000E+001	AC &Voltage (mV rms)
AREA	QUANT	1.00000E-002	&Area (cm^2)
CONDIT	TWOPARAM	T	5.00000E+000	0.00000E+000	Conditionin&g	Time(s)	E(V)
DELAY	TWOPARAM	T	5.00000E+000	0.00000E+000	Init. De&lay	Time(s)	Stab.(mV/s)
SPEED	SELECTOR	1	&Optimize for:
ZGUESS	QUANT	1.00000E+007	E&stimated Z (ohms)
OCVCURVE	TABLE	19
	Pt	T	Vf	Vm	Ach	Over
	#	s	V vs. Ref.	V	V	bits
	0	0.258333	1.08842E-002	1.08842E-002	5.62999E-004	...........
	1	0.516667	1.08912E-002	1.12513E-002	5.65666E-004	...........
	2	0.775	1.09306E-002	1.14107E-002	5.60766E-004	...........
	3	1.03333	1.10331E-002	1.17088E-002	5.59566E-004	...........
	4	1.29167	1.12035E-002	1.19002E-002	5.63832E-004	...........
	5	1.55	1.14212E-002	1.22477E-002	5.67699E-004	...........
	6	1.80833	1.16678E-002	1.25993E-002	5.70999E-004	...........
	7	2.06667	1.19375E-002	1.27500E-002	5.69432E-004	...........
	8	2.325	1.22161E-002	1.28174E-002	5.63699E-004	...........
	9	2.58333	1.24705E-002	1.30027E-002	5.65399E-004	...........
	10	2.84167	1.26806E-002	1.33315E-002	5.61932E-004	...........
	11	3.1	1.28657E-002	1.34856E-002	5.64199E-004	...........
	12	3.35833	1.30556E-002	1.36150E-002	5.63466E-004	...........
	13	3.61667	1.32498E-002	1.36645E-002	5.68566E-004	...........
	14	3.875	1.34244E-002	1.37808E-002	5.63832E-004	...........
	15	4.13333	1.35668E-002	1.39919E-002	5.67466E-004	...........
	16	4.39167	1.36871E-002	1.39248E-002	5.57866E-004	...........
	17	4.65	1.38013E-002	1.43517E-002	5.59299E-004	...........
	18	4.90833	1.39217E-002	1.42552E-002	5.59199E-004	...........
EOC	QUANT	0.0139217	Open Circuit (V)
PSTATMODEL	IQUANT	4	Pstat Model
PSTATSECTION	LABEL	REF600-11020	Pstat Section
PSTATSERIALNO	LABEL	11020	Pstat Serial Number
CTRLMODE	IQUANT	1	Control Mode
IESTAB	IQUANT	0	I/E Stability
CASPEED	IQUANT	1	Control Amp Speed
CONVENTION	IQUANT	1	Current Convention
ICHRANGE	IQUANT	2	Ich Range
ICHRANGEMODE	TOGGLE	F	Ich Auto Range
ICHOFFSETENABLE	TOGGLE	T	Ich Offset Enable
ICHOFFSET	QUANT	0	Ich Offset (V)
ICHFILTER	IQUANT	3	Ich Filter
VCHRANGE	IQUANT	2	Vch Range
VCHRANGEMODE	TOGGLE	F	Vch Auto Range
VCHOFFSETENABLE	TOGGLE	T	Vch Offset Enable
VCHOFFSET	QUANT	0	Vch Offset (V)
VCHFILTER	IQUANT	3	Vch Filter
ACHRANGE	IQUANT	2	Ach Range
ACHOFFSETENABLE	TOGGLE	F	Ach Offset Enable
ACHOFFSET	QUANT	0	Ach Offset (V)
ACHFILTER	IQUANT	3	Ach Filter
IERANGELOWERLIMIT	IQUANT	1	I/E Range Lower Limit
IERANGEMODE	TOGGLE	F	I/E AutoRange
IERANGE	IQUANT	3	I/E Range
POSFEEDENABLE	TOGGLE	F	Positive Feedback IR Comp
POSFEEDRESISTANCE	QUANT	0	Positive Feedback Resistance (ohm)
ACHSELECT	IQUANT	0	Ach Select
CABLEID	IQUANT	14	Cable ID
DCCALDATE	LABEL	8/19/2019	DC Calibration Date
ACCALDATE	LABEL	8/19/2019	AC Calibration Date
THERMOSELECT	IQUANT	1	Thermo Select
FRAMEWORKVERSION	QUANT	6.33	Framework Version
INSTRUMENTVERSION	LABEL	3.50	Instrument Version
ZCURVE	TABLE
	Pt	Time	Freq	Zreal	Zimag	Zsig	Zmod	Zphz	Idc	Vdc	IERange
	#	s	Hz	ohm	ohm	V	ohm	°	A	V	#
	0	2	1000078	2504.922	-1658.9	1	3004.427	-33.51476	4.361928E-006	0.0155111	8
	1	4	794390.6	2830.98	-1564.401	1	3234.471	-28.92505	-5.96106E-006	0.0169491	8
	2	5	630984.4	3125.045	-1431.123	1	3437.153	-24.60554	2.899815E-006	0.0154135	8
	3	7	501234.4	3336.777	-1285.469	1	3575.823	-21.06881	3.734391E-006	0.0149664	8
	4	8	398109.4	3523.927	-1118.774	1	3697.258	-17.61356	1.616222E-006	0.0152846	8
	5	9	316265.6	3666.394	-986.309	1	3796.742	-15.05688	1.746899E-006	0.0151016	8
	6	11	251203.1	3758.987	-847.5124	1	3853.344	-12.70563	4.523567E-007	0.0154638	8
	7	12	199546.9	3842.935	-728.2281	1	3911.326	-10.7302	1.812919E-006	0.0152555	8
	8	13	158578.1	3909.247	-629.5247	1	3959.61	-9.148077	4.660753E-007	0.0154644	8
	9	15	125953.1	3969.882	-520.9337	1	4003.915	-7.475723	2.118495E-007	0.0152021	7
	10	16	100078.1	4009.063	-476.5328	1	4037.285	-6.778594	-4.40646E-008	0.0156849	7
	11	17	79453.13	4045.346	-451.8266	1	4070.5	-6.37298	-4.234252E-008	0.0156213	7
	12	19	63140.62	4083.757	-437.4229	1	4107.117	-6.113805	-4.017967E-008	0.0156384	7
	13	20	50203.12	4118.605	-435.5074	1	4141.567	-6.03611	7.60127E-008	0.015454	7
	14	21	39890.62	4158.318	-437.4667	1	4181.266	-6.005586	-4.082041E-008	0.0156152	7
	15	23	31640.63	4197.834	-458.8353	1	4222.835	-6.23783	8.685013E-008	0.01541	7
	16	24	25171.88	4241.138	-485.2839	1	4268.811	-6.527569	4.596171E-008	0.015446	7
	17	25	20015.62	4287.91	-523.0028	1	4319.688	-6.954102	-1.747037E-008	0.0155586	7
	18	27	15890.62	4338.272	-570.1428	1	4375.577	-7.486997	-6.664192E-009	0.0155998	7
	19	28	12609.37	4391.576	-630.1685	1	4436.559	-8.165905	-7.037132E-008	0.0156832	7
	20	29	10078.13	4450.041	-702.2516	1	4505.111	-8.967772	-4.353019E-008	0.0156594	7
	21	31	8015.625	4512.974	-791.1702	1	4581.799	-9.94349	-1.720003E-008	0.0155613	7
	22	32	6328.125	4583.141	-901.6124	1	4670.983	-11.12932	2.116461E-008	0.0154962	7
	23	33	5015.625	4657.565	-1032.946	1	4770.732	-12.50456	7.454841E-008	0.0155452	7
	24	35	3984.375	4737.104	-1192.422	1	4884.877	-14.12893	7.627992E-008	0.0154444	7
	25	36	3170.956	4825.219	-1385.582	1	5020.217	-16.02164	1.347395E-007	0.015377	7
	26	37	2527.573	4918.798	-1616.148	1	5177.5	-18.18875	-2.598021E-009	0.0155246	7
	27	39	1976.103	5029.929	-1926.817	1	5386.354	-20.96036	-3.590413E-008	0.0156067	7
	28	40	1577.524	5148.135	-2275.836	1	5628.741	-23.84878	-1.342763E-008	0.0156305	7
	29	41	1265.625	5274.227	-2701.881	1	5926.013	-27.12516	-4.245502E-008	0.0156054	7
	30	43	998.264	5434.818	-3230.235	1	6322.315	-30.72552	-4.396946E-008	0.0155996	7
	31	44	796.875	5606.309	-3861.396	1	6807.428	-34.55748	2.333159E-008	0.0154847	7
	32	45	627.7902	5814.325	-4678.27	1	7462.747	-38.82053	2.391028E-008	0.0154903	7
	33	47	505.5147	6036.608	-5586.075	1	8224.649	-42.78014	-3.272747E-008	0.0155785	7
	34	48	397.9953	6312.191	-6806.918	1	9283.205	-47.15963	5.607043E-009	0.0155944	7
	35	49	315.5048	6629.431	-8270.051	1	10599.2	-51.28367	1.631537E-009	0.0155331	6
	36	51	252.4038	6980.603	-9995.97	1	12192.13	-55.07178	6.96074E-010	0.0155372	6
	37	52	198.6229	7427.911	-12283.99	1	14355.15	-58.83939	8.250399E-010	0.0155358	6
	38	53	158.3615	7939.057	-14962.76	1	16938.5	-62.05012	4.296436E-010	0.015533	6
	39	55	125.558	8578.675	-18347.09	1	20253.63	-64.9403	1.031842E-009	0.0155339	6
	40	56	100.4464	9352.064	-22327.06	1	24206.58	-67.2728	1.519266E-009	0.0155304	6
	41	57	79.00281	10353.98	-27668.92	1	29542.74	-69.48366	1.265604E-009	0.0155321	6
	42	59	63.3446	11932.1	-33589.95	1	35646.31	-70.44353	6.045268E-010	0.0155298	6
	43	60	49.86702	13329.27	-41851.97	1	43923.3	-72.33405	1.479954E-009	0.0155329	6
	44	61	39.72458	15716.41	-50875.29	1	53247.54	-72.83302	1.067987E-009	0.0155336	6
	45	63	31.6723	18799.71	-62170.09	1	64950.36	-73.17513	2.041208E-010	0.0155317	6
	46	64	24.93351	22777.57	-76521.8	1	79839.86	-73.42377	9.911224E-010	0.0155291	6
	47	65	19.86229	27964.41	-92864.86	1	96984	-73.24137	1.175206E-009	0.0155399	6
	48	67	15.83615	35748.06	-112716.6	1	118249.5	-72.40357	2.164672E-009	0.0155356	5
	49	68	12.40079	44637.04	-136816.7	1	143914.1	-71.93086	-6.108653E-010	0.0155438	5
	50	70	9.93114	55941.5	-165027.5	1	174251.3	-71.27422	5.917172E-010	0.0155322	5
	51	71	7.944915	69588.46	-196417.2	1	208380.1	-70.49133	-2.223462E-010	0.0155435	5
	52	73	6.317385	89188.13	-234653.3	1	251031.2	-69.18896	7.545991E-011	0.0155521	5
	53	75	5.008013	114012.5	-278840.9	1	301249.3	-67.76131	3.996006E-010	0.0155376	5
	54	77	3.945707	145644.5	-330874.8	1	361511.3	-66.24186	-8.139165E-011	0.015528	5
	55	80	3.158693	180900	-386256.2	1	426519.3	-64.90434	3.007097E-010	0.0155485	5
	56	83	2.504006	224776.2	-450875.1	1	503798.2	-63.50222	4.851032E-010	0.0155321	5
	57	86	1.998082	279102	-518003.2	1	588409.1	-61.68405	3.403416E-010	0.0154887	5
	58	89	1.584686	353713	-596619.7	1	693590.6	-59.33792	4.268294E-010	0.0154934	5
	59	93	1.266892	420166.6	-685167.1	1	803737.4	-58.48203	9.806524E-010	0.0154998	5
	60	97	0.999041	506337.1	-776370.9	1	926892.1	-56.88823	-7.267589E-011	0.0155481	5
