EXPLAIN
TAG	EISPOT
TITLE	LABEL	Potentiostatic EIS	Test &Identifier
DATE	LABEL	9/24/2019	Date
TIME	LABEL	8:17:22	Time
NOTES	NOTES	1	&Notes...
	
PSTAT	PSTAT	REF600-11020	Potentiostat
VDC	POTEN	0.00000E+000	T	DC &Voltage (V)
FREQINIT	QUANT	1.00000E+006	Initial Fre&q. (Hz)
FREQFINAL	QUANT	1.00000E+000	Final Fre&q. (Hz)
PTSPERDEC	QUANT	1.00000E+001	Points/&decade
VAC	QUANT	2.50000E+001	AC &Voltage (mV rms)
AREA	QUANT	1.00000E-002	&Area (cm^2)
CONDIT	TWOPARAM	T	5.00000E+000	0.00000E+000	Conditionin&g	Time(s)	E(V)
DELAY	TWOPARAM	T	5.00000E+000	0.00000E+000	Init. De&lay	Time(s)	Stab.(mV/s)
SPEED	SELECTOR	1	&Optimize for:
ZGUESS	QUANT	1.00000E+004	E&stimated Z (ohms)
OCVCURVE	TABLE	19
	Pt	T	Vf	Vm	Ach	Over
	#	s	V vs. Ref.	V	V	bits
	0	0.258333	8.05612E-003	8.05612E-003	5.71732E-004	...........
	1	0.516667	8.05908E-003	8.21085E-003	5.72599E-004	...........
	2	0.775	8.07769E-003	8.38141E-003	5.74199E-004	...........
	3	1.03333	8.13159E-003	8.53190E-003	5.72099E-004	...........
	4	1.29167	8.23021E-003	8.69437E-003	5.74466E-004	...........
	5	1.55	8.36451E-003	8.85239E-003	5.71932E-004	...........
	6	1.80833	8.51758E-003	8.99767E-003	5.71066E-004	...........
	7	2.06667	8.67606E-003	9.14896E-003	5.71799E-004	...........
	8	2.325	8.83275E-003	9.28957E-003	5.74299E-004	...........
	9	2.58333	8.98499E-003	9.42391E-003	5.75365E-004	...........
	10	2.84167	9.13224E-003	9.56201E-003	5.69566E-004	...........
	11	3.1	9.27483E-003	9.69761E-003	5.71899E-004	...........
	12	3.35833	9.41364E-003	9.81873E-003	5.71299E-004	...........
	13	3.61667	9.54935E-003	9.95869E-003	5.70032E-004	...........
	14	3.875	9.68197E-003	1.00572E-002	5.72632E-004	...........
	15	4.13333	9.81038E-003	1.01646E-002	5.72632E-004	...........
	16	4.39167	9.93318E-003	1.03119E-002	5.73232E-004	...........
	17	4.65	1.00521E-002	1.04233E-002	5.71599E-004	...........
	18	4.90833	1.01714E-002	1.05488E-002	5.70999E-004	...........
EOC	QUANT	0.0101714	Open Circuit (V)
PSTATMODEL	IQUANT	4	Pstat Model
PSTATSECTION	LABEL	REF600-11020	Pstat Section
PSTATSERIALNO	LABEL	11020	Pstat Serial Number
CTRLMODE	IQUANT	1	Control Mode
IESTAB	IQUANT	0	I/E Stability
CASPEED	IQUANT	1	Control Amp Speed
CONVENTION	IQUANT	1	Current Convention
ICHRANGE	IQUANT	2	Ich Range
ICHRANGEMODE	TOGGLE	F	Ich Auto Range
ICHOFFSETENABLE	TOGGLE	T	Ich Offset Enable
ICHOFFSET	QUANT	0	Ich Offset (V)
ICHFILTER	IQUANT	3	Ich Filter
VCHRANGE	IQUANT	2	Vch Range
VCHRANGEMODE	TOGGLE	F	Vch Auto Range
VCHOFFSETENABLE	TOGGLE	T	Vch Offset Enable
VCHOFFSET	QUANT	0	Vch Offset (V)
VCHFILTER	IQUANT	3	Vch Filter
ACHRANGE	IQUANT	2	Ach Range
ACHOFFSETENABLE	TOGGLE	F	Ach Offset Enable
ACHOFFSET	QUANT	0	Ach Offset (V)
ACHFILTER	IQUANT	3	Ach Filter
IERANGELOWERLIMIT	IQUANT	1	I/E Range Lower Limit
IERANGEMODE	TOGGLE	F	I/E AutoRange
IERANGE	IQUANT	6	I/E Range
POSFEEDENABLE	TOGGLE	F	Positive Feedback IR Comp
POSFEEDRESISTANCE	QUANT	0	Positive Feedback Resistance (ohm)
ACHSELECT	IQUANT	0	Ach Select
CABLEID	IQUANT	14	Cable ID
DCCALDATE	LABEL	8/19/2019	DC Calibration Date
ACCALDATE	LABEL	8/19/2019	AC Calibration Date
THERMOSELECT	IQUANT	1	Thermo Select
FRAMEWORKVERSION	QUANT	6.33	Framework Version
INSTRUMENTVERSION	LABEL	3.50	Instrument Version
ZCURVE	TABLE
	Pt	Time	Freq	Zreal	Zimag	Zsig	Zmod	Zphz	Idc	Vdc	IERange
	#	s	Hz	ohm	ohm	V	ohm	°	A	V	#
	0	2	1000078	1288.348	-1552.176	1	2017.199	-50.3064	-3.591211E-006	0.0135745	8
	1	3	794390.6	1391.738	-1799.631	1	2274.996	-52.28357	-1.275147E-006	0.0130233	8
	2	5	630984.4	1486.813	-2121.188	1	2590.377	-54.97208	2.09732E-006	0.0117669	8
	3	6	501234.4	1611.513	-2529.346	1	2999.094	-57.49772	5.591902E-008	0.0118765	8
	4	7	398109.4	1766.552	-3039.64	1	3515.696	-59.83607	2.106016E-006	0.0114529	8
	5	9	316265.6	1984.502	-3671.55	1	4173.551	-61.60843	-1.337183E-006	0.0121188	8
	6	10	251203.1	2247.853	-4443.855	1	4980.029	-63.16816	-4.497024E-007	0.0121485	8
	7	11	199546.9	2625.045	-5335.839	1	5946.599	-63.80443	-9.849446E-007	0.011906	8
	8	13	158578.1	3079.29	-6459.077	1	7155.537	-64.51107	-3.116654E-007	0.0118443	8
	9	15	125953.1	3849.619	-7721.36	1	8627.802	-63.50065	6.319286E-007	0.0103158	7
	10	16	100078.1	4703.975	-9216.366	1	10347.41	-62.96052	7.499784E-008	0.0116786	7
	11	17	79453.13	5862.331	-10893.24	1	12370.52	-61.71254	-2.715153E-008	0.0118127	7
	12	19	63140.62	7348.903	-12752.74	1	14718.65	-60.04684	3.634259E-008	0.0116964	7
	13	20	50203.12	9257.303	-14698.37	1	17370.66	-57.79653	-2.323756E-008	0.0117989	7
	14	21	39890.62	11537.45	-16764.85	1	20351.23	-55.46453	1.209754E-007	0.0116513	7
	15	23	31640.63	14351.8	-18684.79	1	23560.46	-52.47211	-2.35765E-008	0.0118001	7
	16	24	25171.88	17599.23	-20487.49	1	27008.7	-49.33665	-5.000697E-008	0.0118466	7
	17	25	20015.62	21049.78	-22033.26	1	30472.25	-46.3077	-4.999041E-008	0.0118798	7
	18	27	15890.62	24893.93	-23483.56	1	34222.59	-43.3301	5.381953E-008	0.0117368	7
	19	28	12609.37	29061.81	-24299.53	1	37882.13	-39.9001	-5.147313E-009	0.0118221	6
	20	29	10078.13	32859.07	-25181.44	1	41398.35	-37.46464	-1.019296E-008	0.0118336	6
	21	31	8015.625	36686.86	-25986.97	1	44958.29	-35.31168	4.661275E-009	0.0117504	6
	22	32	6328.125	40655.48	-26683.2	1	48629.84	-33.27788	-4.842281E-009	0.0117833	6
	23	34	5015.625	44477.82	-27607.47	1	52349.3	-31.82796	2.65961E-009	0.0117972	6
	24	35	3984.375	48268	-28534.63	1	56071.61	-30.59033	5.917522E-009	0.0116012	6
	25	36	3170.956	52109.75	-29662.59	1	59960.78	-29.64996	-4.736494E-009	0.0117783	6
	26	38	2527.573	55895.31	-30895.58	1	63865.66	-28.93119	6.158889E-009	0.0117372	7
	27	39	1976.103	60289.64	-32523.62	1	68502.74	-28.34492	-5.160695E-008	0.0118652	7
	28	41	1577.524	65050.28	-34663.42	1	73709.51	-28.05187	-3.869037E-009	0.0116807	6
	29	43	1265.625	69300.23	-36835	1	78481.46	-27.99189	-6.951121E-009	0.0119103	6
	30	44	998.264	74250.57	-39329.34	1	84023.47	-27.90945	1.988875E-009	0.0115901	6
	31	45	796.875	79676.52	-42218.36	1	90170.6	-27.91786	-1.448672E-009	0.0117363	6
	32	47	627.7902	86225.5	-44829.23	1	97182.8	-27.47023	-1.38344E-009	0.0118373	5
	33	48	505.5147	92290.94	-47993.45	1	104024	-27.47549	-1.438975E-009	0.0118748	5
	34	50	397.9953	99467.3	-51603.75	1	112056.6	-27.42033	-2.785306E-010	0.0117759	5
	35	51	315.5048	106657.5	-55230.43	1	120109.2	-27.37646	-1.143195E-009	0.0117777	5
	36	52	252.4038	113977.9	-59068.43	1	128374.6	-27.39521	-6.101991E-010	0.011771	5
	37	54	198.6229	122005.4	-63251.74	1	137426.7	-27.40375	-5.960978E-010	0.0117772	5
	38	55	158.3615	129672.1	-68112.44	1	146472.3	-27.71146	-6.218701E-010	0.0117689	5
	39	57	125.558	137646.5	-73640.34	1	156107.2	-28.14661	-3.622188E-010	0.0117719	5
	40	58	100.4464	146039	-80248.98	1	166635.2	-28.78895	-2.286976E-010	0.0117704	5
	41	60	79.00281	155269.7	-90215.91	1	179576.2	-30.15775	-5.92584E-010	0.0117634	5
	42	61	63.3446	155725.2	-99901.9	1	185015.5	-32.68126	-2.10876E-012	0.0117591	5
	43	63	49.86702	176556.5	-109878.5	1	207955.5	-31.89573	-5.015844E-010	0.0117585	5
	44	64	39.72458	188583.2	-123901.7	1	225644.1	-33.30544	9.723611E-012	0.0117708	5
	45	66	31.6723	205391.2	-138092.6	1	247497.7	-33.91449	1.248333E-011	0.0117663	5
	46	67	24.93351	221285	-157709.5	1	271733.9	-35.47741	-5.217219E-010	0.0117629	5
	47	69	19.86229	239257.1	-178684.2	1	298616.8	-36.75345	5.427659E-011	0.0117693	5
	48	70	15.83615	262037.4	-204453.3	1	332362.4	-37.96295	-1.19788E-009	0.0117607	5
	49	71	12.40079	288561.3	-228193	1	367885.4	-38.33679	-6.878988E-010	0.0117653	5
	50	73	9.93114	311643.4	-257244.1	1	404099.2	-39.53775	-2.346398E-010	0.0117678	5
	51	74	7.944915	341900.8	-289427.7	1	447956	-40.24877	-5.001571E-010	0.0117689	5
	52	76	6.317385	373880.8	-329943.8	1	498647.9	-41.42788	-5.684806E-010	0.0117584	5
	53	78	5.008013	414439.1	-375965.8	1	559562.4	-42.2133	-6.138074E-010	0.0117642	5
	54	81	3.945707	462130.7	-429462.3	1	630874.4	-42.90159	-4.514929E-010	0.0117628	5
	55	84	3.158693	519130.6	-485742.3	1	710944.6	-43.09697	2.749602E-010	0.0117757	6
	56	87	2.504006	586834.6	-549518.1	1	803955.8	-43.11915	-6.747827E-010	0.0117644	5
	57	90	1.998082	659120.9	-607778.6	1	896568.6	-42.6793	-3.138562E-010	0.0117236	5
	58	93	1.584686	747910.7	-683609.5	1	1013258	-42.42811	-6.214604E-010	0.0117494	4
	59	97	1.266892	841455.2	-752360.2	1	1128757	-41.80047	-3.972387E-010	0.0117186	4
	60	101	0.999041	948289	-831416.6	1	1261152	-41.24281	-4.954085E-010	0.011803	4
