EXPLAIN
TAG	EISPOT
TITLE	LABEL	Potentiostatic EIS	Test &Identifier
DATE	LABEL	8/14/2018	Date
TIME	LABEL	5:13:47	Time
NOTES	NOTES	1	&Notes...
	
PSTAT	PSTAT	REF600-11020	Potentiostat
VDC	POTEN	0.00000E+000	T	DC &Voltage (V)
FREQINIT	QUANT	1.00000E+006	Initial Fre&q. (Hz)
FREQFINAL	QUANT	1.00000E+000	Final Fre&q. (Hz)
PTSPERDEC	QUANT	1.00000E+001	Points/&decade
VAC	QUANT	2.50000E+001	AC &Voltage (mV rms)
AREA	QUANT	1.00000E-002	&Area (cm^2)
CONDIT	TWOPARAM	T	5.00000E+000	0.00000E+000	Conditionin&g	Time(s)	E(V)
DELAY	TWOPARAM	T	5.00000E+000	0.00000E+000	Init. De&lay	Time(s)	Stab.(mV/s)
SPEED	SELECTOR	0	&Optimize for:
ZGUESS	QUANT	1.00000E+005	E&stimated Z (ohms)
OCVCURVE	TABLE	19
	Pt	T	Vf	Vm	Ach	Over
	#	s	V vs. Ref.	V	V	bits
	0	0.258333	5.25627E-003	5.25627E-003	5.53633E-004	...........
	1	0.516667	5.25427E-003	5.15155E-003	5.57099E-004	...........
	2	0.775	5.24215E-003	5.06091E-003	5.52333E-004	...........
	3	1.03333	5.20869E-003	4.98853E-003	5.55599E-004	...........
	4	1.29167	5.15122E-003	4.92491E-003	5.57199E-004	...........
	5	1.55	5.07931E-003	4.87034E-003	5.56466E-004	...........
	6	1.80833	5.00580E-003	4.82166E-003	5.57766E-004	...........
	7	2.06667	4.93871E-003	4.78247E-003	5.54666E-004	...........
	8	2.325	4.88061E-003	4.74701E-003	5.55766E-004	...........
	9	2.58333	4.83114E-003	4.71480E-003	5.54433E-004	...........
	10	2.84167	4.78883E-003	4.68574E-003	5.54766E-004	...........
	11	3.1	4.75213E-003	4.66619E-003	5.55766E-004	...........
	12	3.35833	4.72005E-003	4.63970E-003	5.55933E-004	...........
	13	3.61667	4.69192E-003	4.62144E-003	5.55433E-004	...........
	14	3.875	4.66686E-003	4.59974E-003	5.53233E-004	...........
	15	4.13333	4.64407E-003	4.58573E-003	5.53233E-004	...........
	16	4.39167	4.62317E-003	4.56741E-003	5.50899E-004	...........
	17	4.65	4.60406E-003	4.55483E-003	5.46733E-004	...........
	18	4.90833	4.58660E-003	4.53872E-003	5.47566E-004	...........
EOC	QUANT	0.0045866	Open Circuit (V)
PSTATMODEL	IQUANT	4	Pstat Model
PSTATSECTION	LABEL	REF600-11020	Pstat Section
PSTATSERIALNO	LABEL	11020	Pstat Serial Number
CTRLMODE	IQUANT	1	Control Mode
IESTAB	IQUANT	0	I/E Stability
CASPEED	IQUANT	1	Control Amp Speed
CONVENTION	IQUANT	1	Current Convention
ICHRANGE	IQUANT	2	Ich Range
ICHRANGEMODE	TOGGLE	F	Ich Auto Range
ICHOFFSETENABLE	TOGGLE	T	Ich Offset Enable
ICHOFFSET	QUANT	0	Ich Offset (V)
ICHFILTER	IQUANT	3	Ich Filter
VCHRANGE	IQUANT	2	Vch Range
VCHRANGEMODE	TOGGLE	F	Vch Auto Range
VCHOFFSETENABLE	TOGGLE	T	Vch Offset Enable
VCHOFFSET	QUANT	0	Vch Offset (V)
VCHFILTER	IQUANT	3	Vch Filter
ACHRANGE	IQUANT	2	Ach Range
ACHOFFSETENABLE	TOGGLE	F	Ach Offset Enable
ACHOFFSET	QUANT	0	Ach Offset (V)
ACHFILTER	IQUANT	3	Ach Filter
IERANGELOWERLIMIT	IQUANT	1	I/E Range Lower Limit
IERANGEMODE	TOGGLE	F	I/E AutoRange
IERANGE	IQUANT	4	I/E Range
POSFEEDENABLE	TOGGLE	F	Positive Feedback IR Comp
POSFEEDRESISTANCE	QUANT	0	Positive Feedback Resistance (ohm)
ACHSELECT	IQUANT	0	Ach Select
CABLEID	IQUANT	14	Cable ID
DCCALDATE	LABEL	8/19/2019	DC Calibration Date
ACCALDATE	LABEL	8/19/2019	AC Calibration Date
THERMOSELECT	IQUANT	1	Thermo Select
FRAMEWORKVERSION	QUANT	6.33	Framework Version
INSTRUMENTVERSION	LABEL	3.50	Instrument Version
ZCURVE	TABLE
	Pt	Time	Freq	Zreal	Zimag	Zsig	Zmod	Zphz	Idc	Vdc	IERange
	#	s	Hz	ohm	ohm	V	ohm	°	A	V	#
	0	2	1000078	2363.712	-1202.097	1	2651.824	-26.95621	5.458395E-007	0.0068645	8
	1	2	794390.6	2561.319	-1104.547	1	2789.333	-23.3277	2.392131E-007	0.0062898	8
	2	2	630984.4	2737.744	-979.499	1	2907.69	-19.68599	4.612081E-006	0.0053819	8
	3	3	501234.4	2886.998	-872.101	1	3015.844	-16.80846	-2.915814E-006	0.0064699	8
	4	3	398109.4	2979.907	-744.6124	1	3071.53	-14.02965	-2.68022E-007	0.0062019	8
	5	3	316265.6	3060.34	-640.7375	1	3126.696	-11.8251	5.445923E-007	0.0059682	8
	6	3	251203.1	3118.56	-548.1113	1	3166.361	-9.96837	2.161714E-007	0.0059823	8
	7	4	199546.9	3171.949	-485.2547	1	3208.853	-8.697852	3.973686E-006	0.0054078	8
	8	4	158578.1	3209.425	-429.2994	1	3238.01	-7.618779	-1.009099E-006	0.0064093	8
	9	4	125953.1	3254.604	-347.6906	1	3273.123	-6.097804	2.996279E-007	0.005338	7
	10	5	100078.1	3276.43	-299.9992	1	3290.136	-5.231576	7.047448E-008	0.0059118	7
	11	5	79453.13	3297.56	-293.1449	1	3310.564	-5.080099	1.201312E-007	0.0058487	7
	12	5	63140.62	3320.281	-292.3215	1	3333.124	-5.031416	-6.150128E-009	0.0061379	7
	13	6	50203.12	3345.965	-296.876	1	3359.11	-5.07038	1.18571E-008	0.0059564	7
	14	6	39890.62	3371.218	-309.0833	1	3385.357	-5.238402	-4.193929E-008	0.0060595	7
	15	6	31640.63	3398.247	-329.4099	1	3414.176	-5.536681	-4.193617E-008	0.0060571	7
	16	7	25171.88	3425.786	-355.1926	1	3444.151	-5.919394	-3.468472E-009	0.00597	7
	17	7	20015.62	3453.281	-393.1177	1	3475.585	-6.49453	6.978063E-008	0.0059911	7
	18	7	15890.62	3490.732	-435.8188	1	3517.833	-7.116568	-3.948207E-009	0.0059665	7
	19	8	12609.37	3525.442	-492.3121	1	3559.651	-7.949687	1.188154E-007	0.0058479	7
	20	8	10078.13	3562.562	-558.6426	1	3606.096	-8.911934	-3.191807E-009	0.0059661	7
	21	8	8015.625	3598.863	-643.825	1	3655.998	-10.14274	1.183669E-007	0.0058475	7
	22	9	6328.125	3644.05	-756.0721	1	3721.659	-11.72149	-3.2463E-008	0.0060328	7
	23	9	5015.625	3690.707	-888.3702	1	3796.119	-13.5339	7.008847E-008	0.0058995	7
	24	9	3984.375	3740.817	-1048.821	1	3885.066	-15.66202	-4.14955E-008	0.0061017	7
	25	9	3170.956	3798.732	-1252.811	1	3999.988	-18.25241	-4.541321E-008	0.0060745	7
	26	10	2527.573	3862.939	-1496.33	1	4142.621	-21.17414	-4.512883E-008	0.0060735	7
	27	10	1976.103	3942.296	-1822.007	1	4342.972	-24.80492	-4.560701E-008	0.0060696	7
	28	10	1577.524	4047.226	-2247.488	1	4629.389	-29.04409	-5.704763E-008	0.0060991	7
	29	11	1265.625	4129.721	-2634.984	1	4898.748	-32.54007	-3.393041E-008	0.0060271	7
	30	11	998.264	4246.456	-3217.532	1	5327.748	-37.15115	-4.105672E-008	0.0060479	7
	31	11	796.875	4382.898	-3906.325	1	5871.045	-41.70951	-3.990936E-008	0.0060441	7
	32	12	627.7902	4555.015	-4799.917	1	6617.202	-46.4996	-4.644811E-008	0.0060728	7
	33	12	505.5147	4739.15	-5796.313	1	7487.108	-50.73006	7.139845E-008	0.0059865	7
	34	12	397.9953	4998.408	-7156.305	1	8729.076	-55.06716	1.107474E-009	0.0060372	7
	35	13	315.5048	5316.452	-8789.258	1	10272.08	-58.83107	3.338616E-010	0.0059786	6
	36	13	252.4038	5697.228	-10717.54	1	12137.72	-62.0058	-5.456855E-010	0.0059713	6
	37	13	198.6229	6226.527	-13266.61	1	14655.12	-64.85754	-2.565309E-013	0.0059747	6
	38	14	158.3615	6875.401	-16227.87	1	17624.27	-67.03867	-4.867712E-010	0.0059704	6
	39	14	125.558	7754.996	-19934.34	1	21389.66	-68.74262	1.964906E-010	0.0059696	6
	40	14	100.4464	8907.901	-24264.93	1	25848.36	-69.8413	8.29436E-010	0.0059674	6
	41	15	79.00281	10526.31	-30003.9	1	31796.81	-70.66753	-9.993217E-011	0.005966	6
	42	15	63.3446	12012.25	-35985.02	1	37936.99	-71.54034	-1.868227E-010	0.0059642	6
	43	15	49.86702	15011.67	-44044.7	1	46532.64	-71.17944	1.040445E-009	0.0059665	6
	44	16	39.72458	18656.27	-53585.76	1	56740.55	-70.80407	3.419188E-010	0.0059675	6
	45	16	31.6723	23071.2	-64689.13	1	68680.16	-70.37136	1.014269E-009	0.0059688	6
	46	16	24.93351	29620.52	-77944.99	1	83383.43	-69.1923	4.183293E-010	0.0059723	6
	47	17	19.86229	37313.57	-92485.6	1	99729.1	-68.02825	1.525721E-009	0.0059731	6
	48	17	15.83615	45699.44	-109263.7	1	118435.7	-67.30293	5.994159E-010	0.0059692	5
	49	17	12.40079	60584.1	-129296	1	142786.2	-64.89366	1.24449E-009	0.0059698	5
	50	18	9.93114	73927.24	-150760.8	1	167910.9	-63.87846	-9.03299E-010	0.0059707	5
	51	18	7.944915	91032.48	-173422.5	1	195862.9	-62.30424	-1.191856E-009	0.0059719	5
	52	19	6.317385	112085.1	-199748.6	1	229047.1	-60.70186	-6.18421E-010	0.0059875	5
	53	20	5.008013	136160.3	-229021.5	1	266440.4	-59.26721	-4.18736E-010	0.005969	5
	54	21	3.945707	163292.3	-261601.5	1	308382.4	-58.02748	1.483324E-011	0.0059672	5
	55	22	3.158693	191962.8	-295853.4	1	352674	-57.02271	1.02898E-010	0.0059872	5
	56	24	2.504006	225003.3	-336587.9	1	404867.8	-56.23795	-1.750209E-010	0.0059752	5
	57	25	1.998082	258691	-381579.9	1	461003.5	-55.8648	-7.127846E-011	0.0059681	5
	58	27	1.584686	298222.6	-434492.7	1	526992.1	-55.53548	9.279769E-011	0.0060107	5
	59	29	1.266892	339263.7	-496348.3	1	601216.7	-55.64664	9.045542E-011	0.0060074	5
	60	31	0.999041	386269.2	-572850.1	1	690913.3	-56.00846	8.052162E-011	0.0059906	5
