EXPLAIN
TAG	EISPOT
TITLE	LABEL	Potentiostatic EIS	Test &Identifier
DATE	LABEL	9/24/2019	Date
TIME	LABEL	8:58:24	Time
NOTES	NOTES	1	&Notes...
	
PSTAT	PSTAT	REF600-11020	Potentiostat
VDC	POTEN	0.00000E+000	T	DC &Voltage (V)
FREQINIT	QUANT	1.00000E+006	Initial Fre&q. (Hz)
FREQFINAL	QUANT	1.00000E+000	Final Fre&q. (Hz)
PTSPERDEC	QUANT	1.00000E+001	Points/&decade
VAC	QUANT	2.50000E+001	AC &Voltage (mV rms)
AREA	QUANT	1.00000E-002	&Area (cm^2)
CONDIT	TWOPARAM	T	5.00000E+000	0.00000E+000	Conditionin&g	Time(s)	E(V)
DELAY	TWOPARAM	T	5.00000E+000	0.00000E+000	Init. De&lay	Time(s)	Stab.(mV/s)
SPEED	SELECTOR	1	&Optimize for:
ZGUESS	QUANT	1.00000E+004	E&stimated Z (ohms)
OCVCURVE	TABLE	19
	Pt	T	Vf	Vm	Ach	Over
	#	s	V vs. Ref.	V	V	bits
	0	0.258333	-2.80943E-003	-2.80943E-003	5.67299E-004	...........
	1	0.516667	-2.81852E-003	-3.28529E-003	5.78599E-004	...........
	2	0.775	-2.87666E-003	-3.85745E-003	5.76232E-004	...........
	3	1.03333	-3.04701E-003	-4.31259E-003	5.71099E-004	...........
	4	1.29167	-3.35877E-003	-4.74499E-003	5.70532E-004	...........
	5	1.55	-3.77515E-003	-5.15290E-003	5.70732E-004	...........
	6	1.80833	-4.22956E-003	-5.47965E-003	5.75666E-004	...........
	7	2.06667	-4.67391E-003	-5.98004E-003	5.74732E-004	...........
	8	2.325	-5.09575E-003	-6.33533E-003	5.72499E-004	...........
	9	2.58333	-5.50371E-003	-6.68164E-003	5.73666E-004	...........
	10	2.84167	-5.90154E-003	-7.02296E-003	5.73965E-004	...........
	11	3.1	-6.28318E-003	-7.35397E-003	5.70632E-004	...........
	12	3.35833	-6.64521E-003	-7.67677E-003	5.75399E-004	...........
	13	3.61667	-6.98784E-003	-7.85677E-003	5.75599E-004	...........
	14	3.875	-7.31008E-003	-8.31399E-003	5.74832E-004	...........
	15	4.13333	-7.61869E-003	-8.62208E-003	5.68632E-004	...........
	16	4.39167	-7.93015E-003	-8.90275E-003	5.73399E-004	...........
	17	4.65	-8.24991E-003	-9.17883E-003	5.75766E-004	...........
	18	4.90833	-8.56625E-003	-9.46021E-003	5.69032E-004	...........
EOC	QUANT	-0.0085662	Open Circuit (V)
PSTATMODEL	IQUANT	4	Pstat Model
PSTATSECTION	LABEL	REF600-11020	Pstat Section
PSTATSERIALNO	LABEL	11020	Pstat Serial Number
CTRLMODE	IQUANT	1	Control Mode
IESTAB	IQUANT	0	I/E Stability
CASPEED	IQUANT	1	Control Amp Speed
CONVENTION	IQUANT	1	Current Convention
ICHRANGE	IQUANT	2	Ich Range
ICHRANGEMODE	TOGGLE	F	Ich Auto Range
ICHOFFSETENABLE	TOGGLE	T	Ich Offset Enable
ICHOFFSET	QUANT	0	Ich Offset (V)
ICHFILTER	IQUANT	3	Ich Filter
VCHRANGE	IQUANT	2	Vch Range
VCHRANGEMODE	TOGGLE	F	Vch Auto Range
VCHOFFSETENABLE	TOGGLE	T	Vch Offset Enable
VCHOFFSET	QUANT	0	Vch Offset (V)
VCHFILTER	IQUANT	3	Vch Filter
ACHRANGE	IQUANT	2	Ach Range
ACHOFFSETENABLE	TOGGLE	F	Ach Offset Enable
ACHOFFSET	QUANT	0	Ach Offset (V)
ACHFILTER	IQUANT	3	Ach Filter
IERANGELOWERLIMIT	IQUANT	1	I/E Range Lower Limit
IERANGEMODE	TOGGLE	F	I/E AutoRange
IERANGE	IQUANT	6	I/E Range
POSFEEDENABLE	TOGGLE	F	Positive Feedback IR Comp
POSFEEDRESISTANCE	QUANT	0	Positive Feedback Resistance (ohm)
ACHSELECT	IQUANT	0	Ach Select
CABLEID	IQUANT	14	Cable ID
DCCALDATE	LABEL	8/19/2019	DC Calibration Date
ACCALDATE	LABEL	8/19/2019	AC Calibration Date
THERMOSELECT	IQUANT	1	Thermo Select
FRAMEWORKVERSION	QUANT	6.33	Framework Version
INSTRUMENTVERSION	LABEL	3.50	Instrument Version
ZCURVE	TABLE
	Pt	Time	Freq	Zreal	Zimag	Zsig	Zmod	Zphz	Idc	Vdc	IERange
	#	s	Hz	ohm	ohm	V	ohm	°	A	V	#
	0	1	1000078	2374.301	-1137.728	1	2632.818	-25.60302	-4.585888E-006	-0.0053454	8
	1	2	794390.6	2557.763	-1014	1	2751.427	-21.62535	2.454513E-006	-0.0064975	8
	2	4	630984.4	2705.444	-887.514	1	2847.299	-18.16195	2.11959E-007	-0.0066463	8
	3	5	501234.4	2813.658	-773.8799	1	2918.144	-15.3786	-2.867831E-006	-0.0064094	8
	4	6	398109.4	2919.072	-650.0377	1	2990.573	-12.55415	1.961293E-006	-0.007407	8
	5	8	316265.6	2972.341	-563.0961	1	3025.209	-10.72729	-7.372216E-007	-0.0066373	8
	6	9	251203.1	3029.296	-475.4169	1	3066.375	-8.919231	-1.03231E-006	-0.0066968	8
	7	10	199546.9	3070.483	-414.8199	1	3098.377	-7.694031	-3.419134E-007	-0.0067682	8
	8	12	158578.1	3090.442	-342.1348	1	3109.323	-6.317341	2.152106E-006	-0.0073708	8
	9	13	125953.1	3134.507	-279.5508	1	3146.948	-5.096437	1.172044E-006	-0.0096025	7
	10	14	100078.1	3145.184	-242.2876	1	3154.502	-4.40505	-4.59227E-008	-0.0068153	7
	11	16	79453.13	3162.508	-226.2269	1	3170.589	-4.091628	-1.044909E-008	-0.0069131	7
	12	17	63140.62	3179.966	-214.5432	1	3187.195	-3.859732	-4.17877E-008	-0.0068735	7
	13	18	50203.12	3196.315	-209.198	1	3203.154	-3.744652	6.637546E-008	-0.0070868	7
	14	20	39890.62	3212.495	-207.4757	1	3219.188	-3.695257	7.526102E-008	-0.0071211	7
	15	21	31640.63	3228.617	-210.9276	1	3235.5	-3.737857	-4.230187E-008	-0.0068827	7
	16	22	25171.88	3244.579	-221.4651	1	3252.128	-3.90478	-3.25443E-008	-0.0069517	7
	17	24	20015.62	3259.849	-235.701	1	3268.359	-4.135532	6.692866E-008	-0.0070881	7
	18	25	15890.62	3275.907	-259.0751	1	3286.136	-4.521825	6.936957E-008	-0.0070872	7
	19	26	12609.37	3293.572	-288.506	1	3306.184	-5.006143	4.26894E-008	-0.0070988	7
	20	28	10078.13	3310.956	-329.154	1	3327.277	-5.677324	1.274088E-007	-0.0071576	7
	21	29	8015.625	3331.41	-379.8782	1	3352.999	-6.505297	6.91352E-008	-0.0070863	7
	22	30	6328.125	3354.708	-446.1497	1	3384.245	-7.575434	1.279463E-007	-0.0071598	7
	23	32	5015.625	3381.581	-527.5894	1	3422.49	-8.867714	-1.355106E-008	-0.0069979	7
	24	33	3984.375	3411.802	-626.6257	1	3468.869	-10.4072	7.786921E-008	-0.0071307	7
	25	34	3170.956	3446.778	-746.2173	1	3526.63	-12.21584	7.9235E-008	-0.0071306	7
	26	36	2527.573	3487.332	-891.7327	1	3599.537	-14.34354	-3.203328E-008	-0.0069671	7
	27	37	1976.103	3538.356	-1084.973	1	3700.963	-17.04721	-8.59259E-009	-0.0069222	7
	28	39	1577.524	3592.344	-1302.15	1	3821.064	-19.92452	-8.534768E-009	-0.0069179	7
	29	40	1265.625	3657.778	-1561.123	1	3976.989	-23.11258	7.858648E-008	-0.0071261	7
	30	41	998.264	3731.039	-1900.216	1	4187.061	-26.98972	-3.629779E-009	-0.0069382	7
	31	43	796.875	3813.296	-2295.663	1	4450.988	-31.04859	-6.52206E-008	-0.006862	7
	32	44	627.7902	3917.51	-2812.361	1	4822.475	-35.67437	-4.398943E-008	-0.0068285	7
	33	45	505.5147	4028.515	-3386.126	1	5262.583	-40.04837	-1.19618E-008	-0.0069961	7
	34	47	397.9953	4173.914	-4166.71	1	5897.714	-44.95051	7.368508E-009	-0.0069465	7
	35	48	315.5048	4344.067	-5105.88	1	6703.8	-49.60896	6.980279E-009	-0.0069483	7
	36	49	252.4038	4545.529	-6215.801	1	7700.521	-53.82251	8.286227E-009	-0.0069517	7
	37	51	198.6229	4816.035	-7687.675	1	9071.634	-57.93443	7.501339E-009	-0.0069464	7
	38	52	158.3615	5138.556	-9404.616	1	10716.88	-61.3484	1.41208E-009	-0.0070057	6
	39	53	125.558	5559.588	-11567.26	1	12833.96	-64.32961	1.934026E-009	-0.0070075	6
	40	55	100.4464	6083.832	-14106.02	1	15362.06	-66.66979	3.010776E-009	-0.0070052	6
	41	56	79.00281	6818.616	-17502.32	1	18783.63	-68.71493	2.429854E-009	-0.0070102	6
	42	57	63.3446	7624.262	-21135.06	1	22468.2	-70.1636	2.32009E-009	-0.007015	6
	43	59	49.86702	9029.998	-26314.05	1	27820.32	-71.0597	2.591819E-009	-0.0070183	6
	44	60	39.72458	10482.25	-32045.16	1	33716.02	-71.88663	2.285136E-009	-0.0070111	6
	45	62	31.6723	12506.08	-38950.73	1	40909.18	-72.19951	1.806335E-009	-0.0070143	6
	46	63	24.93351	15415.37	-47841.28	1	50263.52	-72.14008	1.410885E-009	-0.0070143	6
	47	64	19.86229	19026.7	-57889.75	1	60936.35	-71.80579	2.638695E-009	-0.0070031	6
	48	66	15.83615	23677.58	-70150.93	1	74039.05	-71.34926	3.547306E-009	-0.0070111	6
	49	67	12.40079	30924.92	-85058.02	1	90505.34	-70.02003	7.604139E-010	-0.0070129	6
	50	68	9.93114	38415.95	-100842	1	107911.5	-69.14557	6.215675E-010	-0.0070044	5
	51	70	7.944915	48310.4	-119401.9	1	128804.9	-67.97158	1.83504E-009	-0.0070084	5
	52	72	6.317385	61261.56	-140967.3	1	153703.5	-66.51121	1.96888E-009	-0.007017	5
	53	74	5.008013	77678.92	-165875.3	1	183162.9	-64.90645	1.192031E-009	-0.0070027	5
	54	76	3.945707	98311.1	-194082	1	217561.2	-63.13578	6.190966E-010	-0.0070115	5
	55	79	3.158693	121496.1	-222657.4	1	253648.6	-61.38031	8.47018E-010	-0.0070198	5
	56	82	2.504006	149460.5	-255233.8	1	295774.8	-59.64749	1.075884E-009	-0.0070017	5
	57	85	1.998082	180367.2	-289538.4	1	341122.8	-58.07926	1.432703E-009	-0.0070038	5
	58	88	1.584686	217300.1	-326911	1	392543.2	-56.38773	9.31999E-010	-0.0070575	5
	59	91	1.266892	255455.9	-367516.1	1	447577.7	-55.19732	1.170363E-009	-0.007001	5
	60	96	0.999041	301375.7	-414394.5	1	512396.4	-53.97281	3.934851E-010	-0.0070488	5
