EXPLAIN
TAG	EISPOT
TITLE	LABEL	Potentiostatic EIS	Test &Identifier
DATE	LABEL	9/24/2019	Date
TIME	LABEL	10:27:18	Time
NOTES	NOTES	1	&Notes...
	
PSTAT	PSTAT	REF600-11020	Potentiostat
VDC	POTEN	0.00000E+000	T	DC &Voltage (V)
FREQINIT	QUANT	1.00000E+006	Initial Fre&q. (Hz)
FREQFINAL	QUANT	1.00000E+000	Final Fre&q. (Hz)
PTSPERDEC	QUANT	1.00000E+001	Points/&decade
VAC	QUANT	2.50000E+001	AC &Voltage (mV rms)
AREA	QUANT	1.00000E-002	&Area (cm^2)
CONDIT	TWOPARAM	T	5.00000E+000	0.00000E+000	Conditionin&g	Time(s)	E(V)
DELAY	TWOPARAM	T	5.00000E+000	0.00000E+000	Init. De&lay	Time(s)	Stab.(mV/s)
SPEED	SELECTOR	1	&Optimize for:
ZGUESS	QUANT	1.00000E+004	E&stimated Z (ohms)
OCVCURVE	TABLE	19
	Pt	T	Vf	Vm	Ach	Over
	#	s	V vs. Ref.	V	V	bits
	0	0.258333	4.76976E-003	4.76976E-003	5.76399E-004	...........
	1	0.516667	4.76804E-003	4.68013E-003	5.79599E-004	...........
	2	0.775	4.75763E-003	4.60036E-003	5.75732E-004	...........
	3	1.03333	4.72933E-003	4.56752E-003	5.70599E-004	...........
	4	1.29167	4.68232E-003	4.50111E-003	5.69666E-004	...........
	5	1.55	4.62539E-003	4.45385E-003	5.70732E-004	...........
	6	1.80833	4.56734E-003	4.41000E-003	5.71099E-004	...........
	7	2.06667	4.51238E-003	4.37080E-003	5.76499E-004	...........
	8	2.325	4.46216E-003	4.33626E-003	5.69932E-004	...........
	9	2.58333	4.41716E-003	4.30547E-003	5.73066E-004	...........
	10	2.84167	4.37731E-003	4.28474E-003	5.75932E-004	...........
	11	3.1	4.34275E-003	4.27148E-003	5.70266E-004	...........
	12	3.35833	4.31377E-003	4.24383E-003	5.71932E-004	...........
	13	3.61667	4.28927E-003	4.20982E-003	5.72032E-004	...........
	14	3.875	4.26611E-003	4.18647E-003	5.73666E-004	...........
	15	4.13333	4.24164E-003	4.16350E-003	5.72199E-004	...........
	16	4.39167	4.21603E-003	4.14811E-003	5.68099E-004	...........
	17	4.65	4.19133E-003	4.12988E-003	5.72099E-004	...........
	18	4.90833	4.16903E-003	4.10966E-003	5.72366E-004	...........
EOC	QUANT	0.004169	Open Circuit (V)
PSTATMODEL	IQUANT	4	Pstat Model
PSTATSECTION	LABEL	REF600-11020	Pstat Section
PSTATSERIALNO	LABEL	11020	Pstat Serial Number
CTRLMODE	IQUANT	1	Control Mode
IESTAB	IQUANT	0	I/E Stability
CASPEED	IQUANT	1	Control Amp Speed
CONVENTION	IQUANT	1	Current Convention
ICHRANGE	IQUANT	2	Ich Range
ICHRANGEMODE	TOGGLE	F	Ich Auto Range
ICHOFFSETENABLE	TOGGLE	T	Ich Offset Enable
ICHOFFSET	QUANT	0	Ich Offset (V)
ICHFILTER	IQUANT	3	Ich Filter
VCHRANGE	IQUANT	2	Vch Range
VCHRANGEMODE	TOGGLE	F	Vch Auto Range
VCHOFFSETENABLE	TOGGLE	T	Vch Offset Enable
VCHOFFSET	QUANT	0	Vch Offset (V)
VCHFILTER	IQUANT	3	Vch Filter
ACHRANGE	IQUANT	2	Ach Range
ACHOFFSETENABLE	TOGGLE	F	Ach Offset Enable
ACHOFFSET	QUANT	0	Ach Offset (V)
ACHFILTER	IQUANT	3	Ach Filter
IERANGELOWERLIMIT	IQUANT	1	I/E Range Lower Limit
IERANGEMODE	TOGGLE	F	I/E AutoRange
IERANGE	IQUANT	5	I/E Range
POSFEEDENABLE	TOGGLE	F	Positive Feedback IR Comp
POSFEEDRESISTANCE	QUANT	0	Positive Feedback Resistance (ohm)
ACHSELECT	IQUANT	0	Ach Select
CABLEID	IQUANT	14	Cable ID
DCCALDATE	LABEL	8/19/2019	DC Calibration Date
ACCALDATE	LABEL	8/19/2019	AC Calibration Date
THERMOSELECT	IQUANT	1	Thermo Select
FRAMEWORKVERSION	QUANT	6.33	Framework Version
INSTRUMENTVERSION	LABEL	3.50	Instrument Version
ZCURVE	TABLE
	Pt	Time	Freq	Zreal	Zimag	Zsig	Zmod	Zphz	Idc	Vdc	IERange
	#	s	Hz	ohm	ohm	V	ohm	°	A	V	#
	0	1	1000078	2162.958	-1716.946	1	2761.574	-38.44238	5.713265E-006	0.0057062	8
	1	3	794390.6	2513.59	-1690.716	1	3029.3	-33.92596	2.57549E-006	0.0054446	8
	2	4	630984.4	2857.88	-1606.394	1	3278.411	-29.34003	-5.267907E-006	0.0071927	8
	3	5	501234.4	3153.3	-1499.096	1	3491.502	-25.42667	9.563248E-007	0.0061928	8
	4	7	398109.4	3390.989	-1353.448	1	3651.113	-21.75846	-3.28657E-006	0.0065613	8
	5	8	316265.6	3589.987	-1183.053	1	3779.897	-18.23924	-5.136387E-007	0.0060317	8
	6	10	251203.1	3751.395	-1025.468	1	3889.03	-15.28867	-6.348612E-007	0.0059952	8
	7	11	199546.9	3869.326	-920.728	1	3977.364	-13.38493	2.563007E-007	0.0057422	8
	8	12	158578.1	3944.187	-776.2648	1	4019.85	-11.13421	-3.916313E-006	0.0067586	8
	9	14	125953.1	4054.253	-630.7634	1	4103.026	-8.843221	6.008786E-007	0.0047258	7
	10	15	100078.1	4095.229	-555.8461	1	4132.779	-7.729531	-4.058756E-008	0.0058333	7
	11	17	79453.13	4139.164	-501.1643	1	4169.394	-6.903689	1.272994E-007	0.0056227	7
	12	18	63140.62	4176.771	-460.8313	1	4202.117	-6.296089	1.281089E-007	0.0056181	7
	13	19	50203.12	4211.86	-433.6389	1	4234.125	-5.878267	1.424805E-008	0.0057298	7
	14	21	39890.62	4242.488	-419.9276	1	4263.22	-5.652806	-1.072809E-009	0.0057448	7
	15	22	31640.63	4276.01	-417.1338	1	4296.308	-5.571694	-4.506632E-008	0.0058958	7
	16	23	25171.88	4307.791	-426.7485	1	4328.876	-5.65751	-3.409918E-008	0.0058182	7
	17	25	20015.62	4342.731	-446.6246	1	4365.637	-5.871893	-4.155333E-008	0.005847	7
	18	26	15890.62	4378.776	-479.7298	1	4404.977	-6.252274	-6.540501E-008	0.005898	7
	19	27	12609.37	4422.516	-525.0874	1	4453.579	-6.771057	-7.847185E-009	0.0058239	7
	20	29	10078.13	4462.729	-581.9868	1	4500.517	-7.430042	1.283042E-007	0.0056107	7
	21	30	8015.625	4509.858	-652.2665	1	4556.783	-8.229693	1.290855E-007	0.0056139	7
	22	31	6328.125	4561.33	-745.4734	1	4621.846	-9.28198	-1.432306E-008	0.0058437	7
	23	33	5015.625	4618.001	-858.4298	1	4697.109	-10.53039	-9.350499E-009	0.0059218	7
	24	34	3984.375	4679.33	-996.394	1	4784.238	-12.02075	1.547944E-008	0.0057271	7
	25	36	3170.956	4748.499	-1162.901	1	4888.822	-13.76082	-3.261615E-008	0.0058093	7
	26	37	2527.573	4822.971	-1363.996	1	5012.138	-15.79156	-3.760123E-008	0.0058136	7
	27	38	1976.103	4916.551	-1633.469	1	5180.8	-18.37849	1.296747E-007	0.0056062	7
	28	40	1577.524	5012.988	-1931.95	1	5372.381	-21.07611	7.438433E-008	0.0056618	7
	29	41	1265.625	5112.08	-2307.672	1	5608.807	-24.29516	-3.674329E-008	0.0058144	7
	30	42	998.264	5257.095	-2759.415	1	5937.291	-27.69469	7.373669E-008	0.0056648	7
	31	44	796.875	5403.987	-3299.756	1	6331.782	-31.40886	1.587276E-008	0.0057226	7
	32	45	627.7902	5589.542	-4003.364	1	6875.311	-35.61115	3.854265E-008	0.0057436	7
	33	46	505.5147	5787.548	-4780.207	1	7506.403	-39.55489	1.778396E-008	0.0057218	7
	34	48	397.9953	6037.668	-5823.404	1	8388.413	-43.9651	6.803741E-009	0.0058089	7
	35	49	315.5048	6327.407	-7067.77	1	9486.277	-48.16357	6.487375E-009	0.0058097	7
	36	50	252.4038	6658.203	-8526.576	1	10818.23	-52.01456	6.241664E-010	0.0057423	6
	37	52	198.6229	7074.575	-10450.8	1	12620.17	-55.90431	1.05004E-009	0.0057509	6
	38	53	158.3615	7545.961	-12690.63	1	14764.61	-59.2639	5.124614E-010	0.0057466	6
	39	55	125.558	8125.629	-15509.08	1	17508.79	-62.34874	1.100439E-009	0.0057483	6
	40	56	100.4464	8803.072	-18846.39	1	20800.97	-64.96291	1.955941E-009	0.0057415	6
	41	57	79.00281	9772.76	-23201.82	1	25176.01	-67.15885	8.147829E-010	0.0057458	6
	42	59	63.3446	10602.8	-28171.08	1	30100.31	-69.37508	1.426195E-009	0.005744	6
	43	60	49.86702	12506.39	-34739.87	1	36922.46	-70.20107	7.892391E-010	0.0057377	6
	44	61	39.72458	14310.21	-42585.01	1	44925.11	-71.42566	1.104904E-009	0.0057463	6
	45	63	31.6723	16905.8	-51807.46	1	54496.04	-71.92747	1.472139E-009	0.0057353	6
	46	64	24.93351	20266.4	-63855.89	1	66994.79	-72.39175	1.103969E-009	0.0057444	6
	47	65	19.86229	24815.68	-77609.35	1	81480.23	-72.26826	9.328712E-010	0.005737	6
	48	67	15.83615	29660.01	-93497.84	1	98089.6	-72.39958	-3.335801E-010	0.0057434	6
	49	68	12.40079	38369.22	-114630.8	1	120881.8	-71.49357	8.714325E-010	0.00575	5
	50	70	9.93114	49026.61	-137496	1	145975.2	-70.37541	1.634743E-010	0.0057511	5
	51	71	7.944915	61064.79	-164121.5	1	175113.6	-69.59124	6.363244E-011	0.0057576	5
	52	73	6.317385	78763.76	-194560.5	1	209898.8	-67.96046	-8.224621E-011	0.0057449	5
	53	75	5.008013	100861.2	-230307.3	1	251424.8	-66.34939	-4.078376E-011	0.0057467	5
	54	77	3.945707	129076.8	-271101.8	1	300261.6	-64.53999	3.185631E-010	0.0057477	5
	55	80	3.158693	161148.3	-313013.2	1	352059.7	-62.75927	2.352084E-010	0.0057388	5
	56	83	2.504006	200655.5	-360408.1	1	412500.5	-60.89333	1.847319E-010	0.0057588	5
	57	86	1.998082	244356.7	-409146	1	476561.3	-59.15283	5.498408E-010	0.0057207	5
	58	89	1.584686	296144.4	-465296.8	1	551545.8	-57.52474	4.943427E-011	0.0057134	5
	59	93	1.266892	350425.2	-520962.3	1	627853.1	-56.07326	3.745667E-010	0.0057066	5
	60	97	0.999041	412806.9	-588545.1	1	718884.5	-54.95409	5.366952E-012	0.0057657	5
