EXPLAIN
TAG	EISPOT
TITLE	LABEL	Potentiostatic EIS	Test &Identifier
DATE	LABEL	10/28/2019	Date
TIME	LABEL	10:14:57	Time
NOTES	NOTES	1	&Notes...
	
PSTAT	PSTAT	REF600-11020	Potentiostat
VDC	POTEN	0.00000E+000	T	DC &Voltage (V)
FREQINIT	QUANT	1.00000E+006	Initial Fre&q. (Hz)
FREQFINAL	QUANT	1.00000E+000	Final Fre&q. (Hz)
PTSPERDEC	QUANT	1.00000E+001	Points/&decade
VAC	QUANT	2.50000E+001	AC &Voltage (mV rms)
AREA	QUANT	1.00000E-002	&Area (cm^2)
CONDIT	TWOPARAM	T	5.00000E+000	0.00000E+000	Conditionin&g	Time(s)	E(V)
DELAY	TWOPARAM	T	5.00000E+000	0.00000E+000	Init. De&lay	Time(s)	Stab.(mV/s)
SPEED	SELECTOR	1	&Optimize for:
ZGUESS	QUANT	1.00000E+005	E&stimated Z (ohms)
OCVCURVE	TABLE	19
	Pt	T	Vf	Vm	Ach	Over
	#	s	V vs. Ref.	V	V	bits
	0	0.258333	6.00349E-003	6.00349E-003	5.97898E-004	...........
	1	0.516667	6.00389E-003	6.02444E-003	5.98765E-004	...........
	2	0.775	6.00527E-003	5.98789E-003	5.98965E-004	...........
	3	1.03333	6.00843E-003	6.10120E-003	5.96732E-004	...........
	4	1.29167	6.01479E-003	5.96275E-003	5.93732E-004	...........
	5	1.55	6.02102E-003	5.98668E-003	5.90765E-004	...........
	6	1.80833	6.01890E-003	5.99511E-003	5.84799E-004	...........
	7	2.06667	6.00914E-003	6.03734E-003	5.90399E-004	...........
	8	2.325	6.00370E-003	6.06233E-003	5.89199E-004	...........
	9	2.58333	6.01161E-003	6.09757E-003	5.89665E-004	...........
	10	2.84167	6.03229E-003	6.11984E-003	5.91965E-004	...........
	11	3.1	6.05995E-003	6.14454E-003	5.85965E-004	...........
	12	3.35833	6.08895E-003	6.16530E-003	5.94199E-004	...........
	13	3.61667	6.11598E-003	6.17747E-003	5.92332E-004	...........
	14	3.875	6.13944E-003	6.18321E-003	5.95132E-004	...........
	15	4.13333	6.15850E-003	6.19952E-003	5.93165E-004	...........
	16	4.39167	6.17373E-003	6.22315E-003	5.94365E-004	...........
	17	4.65	6.18770E-003	6.24177E-003	5.90532E-004	...........
	18	4.90833	6.20328E-003	6.26910E-003	5.95999E-004	...........
EOC	QUANT	0.0062033	Open Circuit (V)
PSTATMODEL	IQUANT	4	Pstat Model
PSTATSECTION	LABEL	REF600-11020	Pstat Section
PSTATSERIALNO	LABEL	11020	Pstat Serial Number
CTRLMODE	IQUANT	1	Control Mode
IESTAB	IQUANT	0	I/E Stability
CASPEED	IQUANT	1	Control Amp Speed
CONVENTION	IQUANT	1	Current Convention
ICHRANGE	IQUANT	2	Ich Range
ICHRANGEMODE	TOGGLE	F	Ich Auto Range
ICHOFFSETENABLE	TOGGLE	T	Ich Offset Enable
ICHOFFSET	QUANT	0	Ich Offset (V)
ICHFILTER	IQUANT	3	Ich Filter
VCHRANGE	IQUANT	2	Vch Range
VCHRANGEMODE	TOGGLE	F	Vch Auto Range
VCHOFFSETENABLE	TOGGLE	T	Vch Offset Enable
VCHOFFSET	QUANT	0	Vch Offset (V)
VCHFILTER	IQUANT	3	Vch Filter
ACHRANGE	IQUANT	2	Ach Range
ACHOFFSETENABLE	TOGGLE	F	Ach Offset Enable
ACHOFFSET	QUANT	0	Ach Offset (V)
ACHFILTER	IQUANT	3	Ach Filter
IERANGELOWERLIMIT	IQUANT	1	I/E Range Lower Limit
IERANGEMODE	TOGGLE	F	I/E AutoRange
IERANGE	IQUANT	5	I/E Range
POSFEEDENABLE	TOGGLE	F	Positive Feedback IR Comp
POSFEEDRESISTANCE	QUANT	0	Positive Feedback Resistance (ohm)
ACHSELECT	IQUANT	0	Ach Select
CABLEID	IQUANT	14	Cable ID
DCCALDATE	LABEL	8/19/2019	DC Calibration Date
ACCALDATE	LABEL	8/19/2019	AC Calibration Date
THERMOSELECT	IQUANT	1	Thermo Select
FRAMEWORKVERSION	QUANT	6.33	Framework Version
INSTRUMENTVERSION	LABEL	3.50	Instrument Version
ZCURVE	TABLE
	Pt	Time	Freq	Zreal	Zimag	Zsig	Zmod	Zphz	Idc	Vdc	IERange
	#	s	Hz	ohm	ohm	V	ohm	°	A	V	#
	0	2	1000078	2439.209	-1602.429	1	2918.479	-33.30276	-4.713228E-006	0.0096626	8
	1	3	794390.6	2735.597	-1513.741	1	3126.484	-28.95791	3.870638E-006	0.0076762	8
	2	5	630984.4	2991.626	-1371.484	1	3291.018	-24.62865	-3.785798E-006	0.0085477	8
	3	6	501234.4	3231.03	-1222.566	1	3454.594	-20.72577	1.691338E-006	0.0075762	8
	4	8	398109.4	3419.235	-1075.864	1	3584.501	-17.46621	-3.646042E-006	0.0083504	8
	5	9	316265.6	3551.967	-944.7814	1	3675.47	-14.89512	1.928171E-006	0.0074736	8
	6	11	251203.1	3647.379	-810.9364	1	3736.441	-12.53491	-2.558297E-006	0.0083076	8
	7	12	199546.9	3726.556	-703.8933	1	3792.451	-10.69634	-2.085237E-007	0.0077852	8
	8	13	158578.1	3783.781	-578.626	1	3827.768	-8.694468	-1.043102E-006	0.0082212	8
	9	15	125953.1	3883.99	-466.1693	1	3911.866	-6.844089	5.881093E-007	0.0062605	7
	10	16	100078.1	3891.963	-410.9044	1	3913.594	-6.026827	7.776449E-008	0.0076674	7
	11	17	79453.13	3925.243	-380.8329	1	3943.674	-5.541578	-4.602897E-008	0.007826	7
	12	19	63140.62	3955.999	-360.0222	1	3972.348	-5.199972	-5.085305E-008	0.0078114	7
	13	20	50203.12	3984.68	-348.6232	1	3999.902	-5.000126	-1.677181E-008	0.0077508	7
	14	22	39890.62	4011.501	-345.5088	1	4026.353	-4.922711	-5.751487E-008	0.0078989	7
	15	23	31640.63	4040.737	-352.5363	1	4056.086	-4.986175	-6.753269E-009	0.0078101	7
	16	24	25171.88	4068.455	-366.4988	1	4084.929	-5.147484	-1.487471E-008	0.0077429	7
	17	26	20015.62	4100.685	-395.0056	1	4119.666	-5.502139	-7.3565E-009	0.0078064	7
	18	27	15890.62	4131.101	-430.0624	1	4153.426	-5.943288	-8.498853E-009	0.0078209	7
	19	28	12609.37	4163.692	-475.3223	1	4190.735	-6.512626	-7.933122E-009	0.0078085	7
	20	30	10078.13	4199.889	-535.3867	1	4233.876	-7.264677	9.474181E-008	0.0075849	7
	21	31	8015.625	4240.542	-617.4295	1	4285.256	-8.284141	-4.774793E-008	0.0078064	7
	22	32	6328.125	4274.968	-709.4542	1	4333.437	-9.422669	-1.73563E-008	0.0079429	7
	23	34	5015.625	4317.982	-830.6899	1	4397.16	-10.88948	-4.732289E-008	0.0078119	7
	24	35	3984.375	4369.443	-986.909	1	4479.511	-12.72761	-1.495437E-008	0.007733	7
	25	36	3170.956	4416.705	-1163.178	1	4567.304	-14.75433	7.863337E-008	0.0076526	7
	26	38	2527.573	4478.197	-1390.27	1	4689.041	-17.24712	-1.428398E-008	0.0078379	7
	27	39	1976.103	4549.465	-1689.404	1	4853.011	-20.37204	9.774689E-008	0.0077288	7
	28	40	1577.524	4698.947	-1998.034	1	5106.098	-23.03563	-7.720591E-009	0.0078293	7
	29	42	1265.625	4724.073	-2439.618	1	5316.823	-27.31285	4.380676E-008	0.0077262	7
	30	43	998.264	4829.319	-2981.88	1	5675.732	-31.69341	-1.385337E-008	0.0079431	7
	31	44	796.875	4953.535	-3612.469	1	6130.86	-36.10219	-2.048017E-008	0.0077548	7
	32	46	627.7902	5110.606	-4437.337	1	6768.18	-40.96649	-4.103035E-008	0.0078207	7
	33	47	505.5147	5279.985	-5360.657	1	7524.286	-45.43438	-2.208897E-008	0.0077466	7
	34	48	397.9953	5501.329	-6610.342	1	8600.072	-50.23174	4.797727E-009	0.0078003	7
	35	50	315.5048	5767.042	-8117.93	1	9957.89	-54.60971	3.41039E-009	0.0077994	7
	36	51	252.4038	6088.287	-9903.2	1	11625	-58.41764	3.800067E-010	0.0077382	6
	37	53	198.6229	6520.303	-12270.38	1	13895.2	-62.01447	1.132893E-009	0.0077377	6
	38	54	158.3615	7044.31	-15030.4	1	16599.26	-64.88889	1.417713E-009	0.0077358	6
	39	55	125.558	7730.158	-18512.2	1	20061.33	-67.33601	1.24367E-009	0.0077336	6
	40	57	100.4464	8574.779	-22617.89	1	24188.75	-69.23753	-6.644929E-010	0.0077356	6
	41	58	79.00281	9908.75	-28035.16	1	29734.72	-70.53455	1.542721E-009	0.0077282	6
	42	59	63.3446	11734.32	-33863.23	1	35838.71	-70.88773	7.78931E-010	0.0077295	6
	43	61	49.86702	13307.89	-42318.94	1	44362.06	-72.54338	1.76273E-010	0.007732	6
	44	62	39.72458	16146.73	-51177.38	1	53664.15	-72.48925	5.593276E-010	0.0077359	6
	45	63	31.6723	19807.34	-62341.11	1	65412.11	-72.37363	4.550596E-011	0.0077323	6
	46	65	24.93351	24961.02	-76075.18	1	80065.51	-71.83482	8.38102E-010	0.0077367	6
	47	66	19.86229	31153.26	-91681.66	1	96830	-71.23234	1.596629E-009	0.0077381	6
	48	68	15.83615	39169.28	-108590.4	1	115438.8	-70.16529	1.592347E-009	0.0077389	5
	49	69	12.40079	52548.32	-132895.8	1	142907.8	-68.42567	-1.30753E-009	0.0077484	5
	50	71	9.93114	64746.43	-157342.6	1	170143.5	-67.63285	-1.046573E-011	0.0077423	5
	51	72	7.944915	83505.76	-184840.1	1	202827.7	-65.68784	2.849747E-010	0.0077381	5
	52	74	6.317385	104428.5	-215026.5	1	239043.3	-64.09628	6.719723E-010	0.0077385	5
	53	76	5.008013	131527.9	-249773.3	1	282287.6	-62.22919	5.031408E-010	0.0077463	5
	54	78	3.945707	165132.2	-287742.3	1	331759.3	-60.14895	-1.944931E-010	0.0077336	5
	55	81	3.158693	201311.2	-325700.8	1	382893.2	-58.28036	3.220099E-010	0.0077489	5
	56	84	2.504006	243631.8	-367802.5	1	441174.8	-56.47957	-3.575248E-010	0.007737	5
	57	87	1.998082	287578.4	-409938.5	1	500750.3	-54.94972	1.385259E-010	0.0076964	5
	58	90	1.584686	335412.9	-459658.7	1	569023.8	-53.88177	-1.140709E-010	0.0077164	5
	59	94	1.266892	384660	-511611.6	1	640085.7	-53.06198	1.320618E-010	0.007692	5
	60	98	0.999041	440256.8	-577407.9	1	726103.2	-52.67553	9.65101E-011	0.0077601	5
