EXPLAIN
TAG	EISPOT
TITLE	LABEL	Potentiostatic EIS	Test &Identifier
DATE	LABEL	11/3/2019	Date
TIME	LABEL	10:01:43	Time
NOTES	NOTES	1	&Notes...
	
PSTAT	PSTAT	REF600-11020	Potentiostat
VDC	POTEN	0.00000E+000	T	DC &Voltage (V)
FREQINIT	QUANT	1.00000E+006	Initial Fre&q. (Hz)
FREQFINAL	QUANT	1.00000E+000	Final Fre&q. (Hz)
PTSPERDEC	QUANT	1.00000E+001	Points/&decade
VAC	QUANT	2.50000E+001	AC &Voltage (mV rms)
AREA	QUANT	1.00000E-002	&Area (cm^2)
CONDIT	TWOPARAM	T	5.00000E+000	0.00000E+000	Conditionin&g	Time(s)	E(V)
DELAY	TWOPARAM	T	5.00000E+000	0.00000E+000	Init. De&lay	Time(s)	Stab.(mV/s)
SPEED	SELECTOR	1	&Optimize for:
ZGUESS	QUANT	1.00000E+005	E&stimated Z (ohms)
OCVCURVE	TABLE	19
	Pt	T	Vf	Vm	Ach	Over
	#	s	V vs. Ref.	V	V	bits
	0	0.258333	4.28244E-003	4.28244E-003	5.51566E-004	...........
	1	0.516667	4.28046E-003	4.17844E-003	5.55266E-004	...........
	2	0.775	4.26840E-003	4.08744E-003	5.46399E-004	...........
	3	1.03333	4.23491E-003	4.00679E-003	5.46199E-004	...........
	4	1.29167	4.17679E-003	3.94611E-003	5.53533E-004	...........
	5	1.55	4.10323E-003	3.88196E-003	5.57499E-004	...........
	6	1.80833	4.02701E-003	3.82705E-003	5.55166E-004	...........
	7	2.06667	3.95598E-003	3.77959E-003	5.54066E-004	...........
	8	2.325	3.89246E-003	3.73326E-003	5.52932E-004	...........
	9	2.58333	3.83608E-003	3.69450E-003	5.53233E-004	...........
	10	2.84167	3.78579E-003	3.65754E-003	5.50233E-004	...........
	11	3.1	3.74064E-003	3.62619E-003	5.50866E-004	...........
	12	3.35833	3.70002E-003	3.59624E-003	5.53133E-004	...........
	13	3.61667	3.66345E-003	3.56969E-003	5.52066E-004	...........
	14	3.875	3.63036E-003	3.53988E-003	5.54733E-004	...........
	15	4.13333	3.59989E-003	3.51481E-003	5.53899E-004	...........
	16	4.39167	3.57118E-003	3.48958E-003	5.52599E-004	...........
	17	4.65	3.54374E-003	3.46524E-003	5.51699E-004	...........
	18	4.90833	3.51735E-003	3.43852E-003	5.54366E-004	...........
EOC	QUANT	0.0035174	Open Circuit (V)
PSTATMODEL	IQUANT	4	Pstat Model
PSTATSECTION	LABEL	REF600-11020	Pstat Section
PSTATSERIALNO	LABEL	11020	Pstat Serial Number
CTRLMODE	IQUANT	1	Control Mode
IESTAB	IQUANT	0	I/E Stability
CASPEED	IQUANT	1	Control Amp Speed
CONVENTION	IQUANT	1	Current Convention
ICHRANGE	IQUANT	2	Ich Range
ICHRANGEMODE	TOGGLE	F	Ich Auto Range
ICHOFFSETENABLE	TOGGLE	T	Ich Offset Enable
ICHOFFSET	QUANT	0	Ich Offset (V)
ICHFILTER	IQUANT	3	Ich Filter
VCHRANGE	IQUANT	2	Vch Range
VCHRANGEMODE	TOGGLE	F	Vch Auto Range
VCHOFFSETENABLE	TOGGLE	T	Vch Offset Enable
VCHOFFSET	QUANT	0	Vch Offset (V)
VCHFILTER	IQUANT	3	Vch Filter
ACHRANGE	IQUANT	2	Ach Range
ACHOFFSETENABLE	TOGGLE	F	Ach Offset Enable
ACHOFFSET	QUANT	0	Ach Offset (V)
ACHFILTER	IQUANT	3	Ach Filter
IERANGELOWERLIMIT	IQUANT	1	I/E Range Lower Limit
IERANGEMODE	TOGGLE	F	I/E AutoRange
IERANGE	IQUANT	4	I/E Range
POSFEEDENABLE	TOGGLE	F	Positive Feedback IR Comp
POSFEEDRESISTANCE	QUANT	0	Positive Feedback Resistance (ohm)
ACHSELECT	IQUANT	0	Ach Select
CABLEID	IQUANT	14	Cable ID
DCCALDATE	LABEL	8/19/2019	DC Calibration Date
ACCALDATE	LABEL	8/19/2019	AC Calibration Date
THERMOSELECT	IQUANT	1	Thermo Select
FRAMEWORKVERSION	QUANT	6.33	Framework Version
INSTRUMENTVERSION	LABEL	3.50	Instrument Version
ZCURVE	TABLE
	Pt	Time	Freq	Zreal	Zimag	Zsig	Zmod	Zphz	Idc	Vdc	IERange
	#	s	Hz	ohm	ohm	V	ohm	°	A	V	#
	0	2	1000078	1800.398	-1095.079	1	2107.281	-31.30975	2.456603E-007	0.0052481	8
	1	3	794390.6	2010.933	-1038.427	1	2263.224	-27.31141	-5.582382E-007	0.0059229	8
	2	5	630984.4	2193.134	-967.948	1	2397.24	-23.81445	-3.169078E-006	0.0058557	8
	3	6	501234.4	2350.581	-880.8188	1	2510.194	-20.54218	4.725051E-006	0.0050686	8
	4	7	398109.4	2480.936	-790.6282	1	2603.87	-17.67612	-1.934087E-006	0.0055092	8
	5	9	316265.6	2592.684	-703.0218	1	2686.308	-15.17129	6.171562E-006	0.0043165	8
	6	10	251203.1	2669.808	-622.0247	1	2741.312	-13.11508	5.741851E-006	0.0043183	8
	7	11	199546.9	2742.614	-557.9601	1	2798.795	-11.49938	-8.265533E-007	0.0047683	8
	8	13	158578.1	2830.514	-512.8391	1	2876.598	-10.26958	-3.500593E-006	0.0055782	8
	9	14	125953.1	2865.103	-409.8	1	2894.262	-8.139893	1.922267E-006	0.0050239	7
	10	15	100078.1	2898.896	-371.3841	1	2922.588	-7.300525	-2.596362E-007	0.0062562	7
	11	17	79453.13	2932.754	-349.4527	1	2953.5	-6.795049	-1.130689E-006	0.0060244	7
	12	18	63140.62	2967.045	-339.7455	1	2986.433	-6.532279	7.743321E-008	0.0058656	7
	13	19	50203.12	3001.071	-333.4962	1	3019.544	-6.341018	7.098194E-007	0.0033623	7
	14	21	39890.62	3031.757	-335.49	1	3050.263	-6.314581	7.098241E-007	0.003367	7
	15	22	31640.63	3061.833	-343.8104	1	3081.075	-6.406854	5.793657E-007	0.0051587	7
	16	23	25171.88	3093.303	-360.2032	1	3114.205	-6.641958	7.746125E-007	0.0047798	7
	17	25	20015.62	3121.035	-384.4252	1	3144.622	-7.021886	-5.653263E-007	0.0064746	7
	18	26	15890.62	3151.492	-419.2305	1	3179.254	-7.577343	-1.132538E-006	0.0060101	7
	19	27	12609.37	3189.372	-464.7183	1	3223.051	-8.290135	7.885996E-008	0.0058679	7
	20	29	10078.13	3223.24	-522.7703	1	3265.359	-9.212459	-2.885667E-007	0.0042177	7
	21	30	8015.625	3256.396	-594.9639	1	3310.302	-10.35409	-1.142972E-006	0.0063664	7
	22	31	6328.125	3301.302	-691.8457	1	3373.017	-11.83605	7.120556E-007	0.0033583	7
	23	33	5015.625	3341.177	-809.3456	1	3437.805	-13.61668	-2.588189E-007	0.0062357	7
	24	34	3984.375	3392.41	-956.896	1	3524.783	-15.75215	8.997047E-007	0.0034296	7
	25	36	3170.956	3442.416	-1133.207	1	3624.139	-18.221	-1.143086E-006	0.0063579	7
	26	37	2527.573	3504.755	-1351.086	1	3756.16	-21.08169	-5.64884E-007	0.0064653	7
	27	38	1976.103	3585.898	-1644.199	1	3944.878	-24.63231	1.002984E-006	0.0036237	7
	28	40	1577.524	3674.255	-1979.24	1	4173.433	-28.31036	1.003858E-006	0.0036248	7
	29	41	1265.625	3755.807	-2356.856	1	4434.057	-32.10923	-2.894449E-007	0.0042089	7
	30	42	998.264	3869.915	-2877.298	1	4822.353	-36.63096	7.133551E-007	0.003355	7
	31	44	796.875	3992.377	-3477.705	1	5294.667	-41.05867	5.810784E-007	0.0051533	7
	32	45	627.7902	4149.643	-4252.443	1	5941.617	-45.70098	-1.142691E-006	0.0063592	7
	33	46	505.5147	4320.645	-5126.5	1	6704.399	-49.87561	-1.135218E-006	0.0060024	7
	34	48	397.9953	4529.989	-6334.956	1	7787.97	-54.43227	5.956757E-009	0.0050087	7
	35	49	315.5048	4792.605	-7776.975	1	9135.119	-58.35631	2.518568E-009	0.0050155	7
	36	50	252.4038	5112.691	-9485.361	1	10775.51	-61.67495	2.604466E-010	0.0049492	6
	37	52	198.6229	5545.456	-11747.76	1	12990.84	-64.73064	1.129737E-009	0.004944	6
	38	53	158.3615	6077	-14381.43	1	15612.67	-67.09309	1.085979E-009	0.0049424	6
	39	54	125.558	6780.818	-17699.24	1	18953.7	-69.03749	6.005417E-010	0.0049536	6
	40	56	100.4464	7662.22	-21573.84	1	22894.11	-70.44687	1.749083E-010	0.0049422	6
	41	57	79.00281	8970.508	-26730.29	1	28195.36	-71.44859	1.01453E-009	0.0049423	6
	42	59	63.3446	10767.43	-32405.93	1	34147.94	-71.62005	1.053335E-009	0.0049409	6
	43	60	49.86702	12503.61	-39992.77	1	41901.81	-72.63831	1.383457E-009	0.0049388	6
	44	61	39.72458	15442.99	-48373.38	1	50778.64	-72.29454	8.251833E-010	0.0049509	6
	45	63	31.6723	19013.16	-58568.97	1	61577.8	-72.01509	1.920654E-010	0.0049567	6
	46	64	24.93351	24159.72	-71434.3	1	75409.23	-71.314	2.887202E-010	0.0049519	6
	47	65	19.86229	30504.85	-85853.45	1	91111.8	-70.43921	5.75795E-010	0.0049577	6
	48	67	15.83615	38779.69	-102026.8	1	109148.2	-69.18854	8.098169E-010	0.0049537	5
	49	68	12.40079	50329.41	-123263.7	1	133142.8	-67.78947	2.609651E-010	0.004948	5
	50	70	9.93114	63291.95	-144765	1	157996.1	-66.38482	6.747159E-010	0.0049507	5
	51	71	7.944915	79961.15	-169635.5	1	187536.6	-64.76219	4.379695E-010	0.0049494	5
	52	73	6.317385	100713.6	-196000	1	220361.6	-62.80387	4.028434E-010	0.0049614	5
	53	75	5.008013	125542.1	-225819.1	1	258370.1	-60.92852	5.96682E-010	0.0049631	5
	54	77	3.945707	155591	-259031.5	1	302168.6	-59.00827	-1.315851E-010	0.0049374	5
	55	80	3.158693	187190.5	-292112.9	1	346944.2	-57.34762	3.99623E-010	0.0049599	5
	56	83	2.504006	224126.7	-329893.7	1	398826.6	-55.80819	-3.516478E-010	0.004953	5
	57	86	1.998082	262326.9	-368761.8	1	452549.1	-54.57301	5.625139E-011	0.0049091	5
	58	89	1.584686	303507.3	-413966.4	1	513307.8	-53.75229	-7.214073E-011	0.004962	5
	59	93	1.266892	347547.5	-464252.9	1	579931.1	-53.18086	4.844363E-011	0.0049077	5
	60	97	0.999041	396120.5	-525879.2	1	658377.1	-53.01097	1.154606E-010	0.0049968	5
