EXPLAIN
TAG	EISPOT
TITLE	LABEL	Potentiostatic EIS	Test &Identifier
DATE	LABEL	10/10/2019	Date
TIME	LABEL	10:07:27	Time
NOTES	NOTES	1	&Notes...
	
PSTAT	PSTAT	REF600-11020	Potentiostat
VDC	POTEN	0.00000E+000	T	DC &Voltage (V)
FREQINIT	QUANT	1.00000E+006	Initial Fre&q. (Hz)
FREQFINAL	QUANT	1.00000E+000	Final Fre&q. (Hz)
PTSPERDEC	QUANT	1.00000E+001	Points/&decade
VAC	QUANT	2.50000E+001	AC &Voltage (mV rms)
AREA	QUANT	1.00000E-002	&Area (cm^2)
CONDIT	TWOPARAM	T	5.00000E+000	0.00000E+000	Conditionin&g	Time(s)	E(V)
DELAY	TWOPARAM	T	5.00000E+000	0.00000E+000	Init. De&lay	Time(s)	Stab.(mV/s)
SPEED	SELECTOR	1	&Optimize for:
ZGUESS	QUANT	1.00000E+004	E&stimated Z (ohms)
OCVCURVE	TABLE	19
	Pt	T	Vf	Vm	Ach	Over
	#	s	V vs. Ref.	V	V	bits
	0	0.258333	6.88164E-003	6.88164E-003	5.72266E-004	...........
	1	0.516667	6.87888E-003	6.73735E-003	5.73066E-004	...........
	2	0.775	6.86191E-003	6.59826E-003	5.73499E-004	...........
	3	1.03333	6.81387E-003	6.47062E-003	5.73366E-004	...........
	4	1.29167	6.72827E-003	6.35653E-003	5.72732E-004	...........
	5	1.55	6.61595E-003	6.25374E-003	5.71232E-004	...........
	6	1.80833	6.49467E-003	6.16047E-003	5.70032E-004	...........
	7	2.06667	6.37761E-003	6.07438E-003	5.70199E-004	...........
	8	2.325	6.27063E-003	6.00592E-003	5.69566E-004	...........
	9	2.58333	6.17483E-003	5.92811E-003	5.71566E-004	...........
	10	2.84167	6.08892E-003	5.85804E-003	5.66899E-004	...........
	11	3.1	6.01056E-003	5.80692E-003	5.72632E-004	...........
	12	3.35833	5.93869E-003	5.76842E-003	5.70999E-004	...........
	13	3.61667	5.87415E-003	5.70142E-003	5.71532E-004	...........
	14	3.875	5.81794E-003	5.73171E-003	5.74966E-004	...........
	15	4.13333	5.77304E-003	5.74435E-003	5.76366E-004	...........
	16	4.39167	5.73990E-003	5.48096E-003	5.74466E-004	...........
	17	4.65	5.70319E-003	5.46262E-003	5.74199E-004	...........
	18	4.90833	5.64333E-003	5.41207E-003	5.74232E-004	...........
EOC	QUANT	0.0056433	Open Circuit (V)
PSTATMODEL	IQUANT	4	Pstat Model
PSTATSECTION	LABEL	REF600-11020	Pstat Section
PSTATSERIALNO	LABEL	11020	Pstat Serial Number
CTRLMODE	IQUANT	1	Control Mode
IESTAB	IQUANT	0	I/E Stability
CASPEED	IQUANT	1	Control Amp Speed
CONVENTION	IQUANT	1	Current Convention
ICHRANGE	IQUANT	2	Ich Range
ICHRANGEMODE	TOGGLE	F	Ich Auto Range
ICHOFFSETENABLE	TOGGLE	T	Ich Offset Enable
ICHOFFSET	QUANT	0	Ich Offset (V)
ICHFILTER	IQUANT	3	Ich Filter
VCHRANGE	IQUANT	2	Vch Range
VCHRANGEMODE	TOGGLE	F	Vch Auto Range
VCHOFFSETENABLE	TOGGLE	T	Vch Offset Enable
VCHOFFSET	QUANT	0	Vch Offset (V)
VCHFILTER	IQUANT	3	Vch Filter
ACHRANGE	IQUANT	2	Ach Range
ACHOFFSETENABLE	TOGGLE	F	Ach Offset Enable
ACHOFFSET	QUANT	0	Ach Offset (V)
ACHFILTER	IQUANT	3	Ach Filter
IERANGELOWERLIMIT	IQUANT	1	I/E Range Lower Limit
IERANGEMODE	TOGGLE	F	I/E AutoRange
IERANGE	IQUANT	6	I/E Range
POSFEEDENABLE	TOGGLE	F	Positive Feedback IR Comp
POSFEEDRESISTANCE	QUANT	0	Positive Feedback Resistance (ohm)
ACHSELECT	IQUANT	0	Ach Select
CABLEID	IQUANT	14	Cable ID
DCCALDATE	LABEL	8/19/2019	DC Calibration Date
ACCALDATE	LABEL	8/19/2019	AC Calibration Date
THERMOSELECT	IQUANT	1	Thermo Select
FRAMEWORKVERSION	QUANT	6.33	Framework Version
INSTRUMENTVERSION	LABEL	3.50	Instrument Version
ZCURVE	TABLE
	Pt	Time	Freq	Zreal	Zimag	Zsig	Zmod	Zphz	Idc	Vdc	IERange
	#	s	Hz	ohm	ohm	V	ohm	°	A	V	#
	0	1	1000078	2340.086	-1147.747	1	2606.401	-26.12666	7.264139E-006	0.0070783	8
	1	3	794390.6	2523.271	-1044.916	1	2731.07	-22.49501	-1.667457E-006	0.0078003	8
	2	4	630984.4	2683.281	-952.308	1	2847.26	-19.53999	1.174546E-006	0.0074497	8
	3	5	501234.4	2817.947	-846.3499	1	2942.301	-16.71726	-2.83821E-006	0.0079945	8
	4	7	398109.4	2915.078	-754.5762	1	3011.157	-14.51263	1.611426E-007	0.0072249	8
	5	8	316265.6	2993.761	-679.3648	1	3069.877	-12.78542	-1.284008E-006	0.0076464	8
	6	9	251203.1	3064.269	-628.7951	1	3128.119	-11.59625	-2.647502E-006	0.0080341	8
	7	11	199546.9	3122.293	-559.226	1	3171.979	-10.15443	4.902369E-007	0.0073535	8
	8	12	158578.1	3174.292	-534.3663	1	3218.956	-9.55569	1.055428E-006	0.0070857	8
	9	13	125953.1	3246.994	-474.6827	1	3281.508	-8.317235	-1.101342E-006	0.0097557	7
	10	15	100078.1	3283.056	-466.9076	1	3316.091	-8.094175	9.320792E-009	0.0072463	7
	11	16	79453.13	3331.386	-477.2381	1	3365.396	-8.152449	-3.203326E-008	0.007317	7
	12	18	63140.62	3384.151	-494.6641	1	3420.112	-8.316078	-6.03106E-008	0.0073872	7
	13	19	50203.12	3439.389	-518.4839	1	3478.25	-8.572722	9.196566E-010	0.0072717	7
	14	20	39890.62	3499.994	-549.2181	1	3542.823	-8.918115	1.252124E-008	0.0072341	7
	15	22	31640.63	3564.447	-587.0527	1	3612.466	-9.352469	4.433493E-008	0.0072678	7
	16	23	25171.88	3633.964	-631.8707	1	3688.489	-9.86392	1.05022E-008	0.0072376	7
	17	24	20015.62	3712.577	-682.0618	1	3774.71	-10.4101	-5.859629E-008	0.0073808	7
	18	26	15890.62	3788.333	-744.6465	1	3860.825	-11.12046	4.499906E-008	0.007164	7
	19	27	12609.37	3874.502	-814.8055	1	3959.252	-11.87621	1.14789E-008	0.0073994	7
	20	28	10078.13	3963.136	-895.0529	1	4062.951	-12.72643	-5.838843E-008	0.0073737	7
	21	30	8015.625	4052.752	-991.809	1	4172.348	-13.75143	-5.864314E-008	0.0073774	7
	22	31	6328.125	4161.531	-1105.869	1	4305.959	-14.88163	-5.575525E-008	0.007486	7
	23	32	5015.625	4269.334	-1241.285	1	4446.122	-16.21149	7.282476E-008	0.0071845	7
	24	34	3984.375	4387.813	-1398.605	1	4605.323	-17.67955	4.397396E-008	0.0072544	7
	25	35	3170.956	4498.692	-1592.774	1	4772.333	-19.49665	-4.982743E-009	0.0073153	7
	26	36	2527.573	4613.885	-1819.403	1	4959.654	-21.52091	9.173828E-008	0.0072417	7
	27	38	1976.103	4747.199	-2129.512	1	5202.953	-24.16019	-2.483699E-008	0.0073507	7
	28	39	1577.524	4869.527	-2480.582	1	5464.941	-26.99471	-7.064255E-009	0.0073118	7
	29	40	1265.625	4999.386	-2905.669	1	5782.454	-30.16538	4.334263E-008	0.0071624	7
	30	42	998.264	5154.697	-3479.55	1	6219.178	-34.02034	-5.520972E-008	0.0073637	7
	31	43	796.875	5305.492	-4156.79	1	6739.967	-38.07828	-2.624143E-008	0.0072915	7
	32	44	627.7902	5486.342	-5054.057	1	7459.453	-42.65149	-4.996426E-009	0.007338	7
	33	46	505.5147	5685.006	-6061.977	1	8310.647	-46.83804	1.266277E-007	0.0071126	7
	34	47	397.9953	5949.177	-7439.646	1	9525.81	-51.35212	5.417593E-009	0.0073097	7
	35	48	315.5048	6263.631	-9099.839	1	11047.18	-55.45946	1.661856E-009	0.0072537	6
	36	50	252.4038	6632.278	-11065.42	1	12900.8	-59.0628	6.630771E-010	0.0072541	6
	37	51	198.6229	7125.486	-13673.04	1	15418.32	-62.47445	7.943672E-010	0.0072532	6
	38	52	158.3615	7718.134	-16713.74	1	18409.74	-65.21327	1.306533E-009	0.0072531	6
	39	54	125.558	8484.231	-20530.83	1	22214.8	-67.54746	1.079933E-009	0.0072514	6
	40	55	100.4464	9406.937	-25018.71	1	26728.75	-69.39394	1.744369E-010	0.0072487	6
	41	56	79.00281	10834.46	-30953.75	1	32795.13	-70.70889	1.496104E-009	0.0072419	6
	42	58	63.3446	12356.62	-37146.28	1	39147.57	-71.60041	7.154824E-010	0.0072449	6
	43	59	49.86702	14845.21	-46524.95	1	48835.96	-72.30312	1.084984E-009	0.0072446	6
	44	60	39.72458	17308.92	-56519.23	1	59110.25	-72.97288	6.896187E-010	0.0072524	6
	45	62	31.6723	20746.49	-68373.88	1	71452.12	-73.12078	-4.567644E-010	0.0072477	6
	46	63	24.93351	25811.61	-84111.05	1	87982.43	-72.94004	3.758242E-010	0.0072453	6
	47	65	19.86229	31808.65	-101820.8	1	106673.7	-72.65128	9.65057E-010	0.0072567	5
	48	66	15.83615	40131.15	-124094.9	1	130422.6	-72.07928	-1.358587E-009	0.0072527	5
	49	67	12.40079	51077.04	-148482.8	1	157022.3	-71.01714	9.743751E-010	0.0072515	5
	50	69	9.93114	64527.1	-177587	1	188946.8	-70.03114	8.49357E-010	0.0072522	5
	51	70	7.944915	80302.59	-210454.8	1	225254.8	-69.1148	-5.121272E-010	0.0072564	5
	52	72	6.317385	103323.7	-250212.3	1	270706.5	-67.56211	2.674656E-010	0.0072399	5
	53	74	5.008013	130938.2	-294917.1	1	322677.8	-66.05959	1.682181E-010	0.0072561	5
	54	77	3.945707	165462.1	-347204.1	1	384614.6	-64.51959	-9.788382E-011	0.0072417	5
	55	79	3.158693	204014.2	-399498.8	1	448576.7	-62.94772	2.838975E-010	0.0072593	5
	56	83	2.504006	251037.2	-460800.5	1	524744.4	-61.41912	-1.331282E-010	0.0072574	5
	57	86	1.998082	301816.3	-526356.9	1	606749.3	-60.16977	2.168838E-010	0.0072123	5
	58	89	1.584686	358856	-602712.2	1	701455.4	-59.23035	1.277653E-011	0.0072385	5
	59	92	1.266892	422593.2	-684387.1	1	804344.9	-58.30563	1.559647E-010	0.0072065	5
	60	97	0.999041	494819.2	-784715.5	1	927698.5	-57.76564	4.788323E-011	0.0072817	5
