EXPLAIN
TAG	EISPOT
TITLE	LABEL	Potentiostatic EIS	Test &Identifier
DATE	LABEL	10/24/2019	Date
TIME	LABEL	8:40:47	Time
NOTES	NOTES	1	&Notes...
	
PSTAT	PSTAT	REF600-11020	Potentiostat
VDC	POTEN	0.00000E+000	T	DC &Voltage (V)
FREQINIT	QUANT	1.00000E+006	Initial Fre&q. (Hz)
FREQFINAL	QUANT	1.00000E+000	Final Fre&q. (Hz)
PTSPERDEC	QUANT	1.00000E+001	Points/&decade
VAC	QUANT	2.50000E+001	AC &Voltage (mV rms)
AREA	QUANT	1.00000E-002	&Area (cm^2)
CONDIT	TWOPARAM	T	5.00000E+000	0.00000E+000	Conditionin&g	Time(s)	E(V)
DELAY	TWOPARAM	T	5.00000E+000	0.00000E+000	Init. De&lay	Time(s)	Stab.(mV/s)
SPEED	SELECTOR	1	&Optimize for:
ZGUESS	QUANT	1.00000E+005	E&stimated Z (ohms)
OCVCURVE	TABLE	19
	Pt	T	Vf	Vm	Ach	Over
	#	s	V vs. Ref.	V	V	bits
	0	0.258333	4.93723E-003	4.93723E-003	5.59766E-004	...........
	1	0.516667	4.93613E-003	4.87954E-003	5.57032E-004	...........
	2	0.775	4.92955E-003	4.83487E-003	5.58832E-004	...........
	3	1.03333	4.91169E-003	4.79759E-003	5.51899E-004	...........
	4	1.29167	4.88163E-003	4.77228E-003	5.52266E-004	...........
	5	1.55	4.84527E-003	4.75529E-003	5.53233E-004	...........
	6	1.80833	4.81044E-003	4.74533E-003	5.55633E-004	...........
	7	2.06667	4.78220E-003	4.73654E-003	5.55866E-004	...........
	8	2.325	4.76178E-003	4.72944E-003	5.59232E-004	...........
	9	2.58333	4.74785E-003	4.72927E-003	5.56599E-004	...........
	10	2.84167	4.73921E-003	4.75778E-003	5.53766E-004	...........
	11	3.1	4.74007E-003	4.94710E-003	5.54099E-004	...........
	12	3.35833	4.76322E-003	4.99489E-003	5.53566E-004	...........
	13	3.61667	4.81851E-003	5.09585E-003	5.52299E-004	...........
	14	3.875	4.89640E-003	5.02006E-003	5.54299E-004	...........
	15	4.13333	4.97143E-003	5.07925E-003	5.56299E-004	...........
	16	4.39167	5.02340E-003	5.06073E-003	5.49933E-004	...........
	17	4.65	5.04583E-003	4.81914E-003	5.50366E-004	...........
	18	4.90833	5.02859E-003	4.60353E-003	5.55933E-004	...........
EOC	QUANT	0.0050286	Open Circuit (V)
PSTATMODEL	IQUANT	4	Pstat Model
PSTATSECTION	LABEL	REF600-11020	Pstat Section
PSTATSERIALNO	LABEL	11020	Pstat Serial Number
CTRLMODE	IQUANT	1	Control Mode
IESTAB	IQUANT	0	I/E Stability
CASPEED	IQUANT	1	Control Amp Speed
CONVENTION	IQUANT	1	Current Convention
ICHRANGE	IQUANT	2	Ich Range
ICHRANGEMODE	TOGGLE	F	Ich Auto Range
ICHOFFSETENABLE	TOGGLE	T	Ich Offset Enable
ICHOFFSET	QUANT	0	Ich Offset (V)
ICHFILTER	IQUANT	3	Ich Filter
VCHRANGE	IQUANT	2	Vch Range
VCHRANGEMODE	TOGGLE	F	Vch Auto Range
VCHOFFSETENABLE	TOGGLE	T	Vch Offset Enable
VCHOFFSET	QUANT	0	Vch Offset (V)
VCHFILTER	IQUANT	3	Vch Filter
ACHRANGE	IQUANT	2	Ach Range
ACHOFFSETENABLE	TOGGLE	F	Ach Offset Enable
ACHOFFSET	QUANT	0	Ach Offset (V)
ACHFILTER	IQUANT	3	Ach Filter
IERANGELOWERLIMIT	IQUANT	1	I/E Range Lower Limit
IERANGEMODE	TOGGLE	F	I/E AutoRange
IERANGE	IQUANT	4	I/E Range
POSFEEDENABLE	TOGGLE	F	Positive Feedback IR Comp
POSFEEDRESISTANCE	QUANT	0	Positive Feedback Resistance (ohm)
ACHSELECT	IQUANT	0	Ach Select
CABLEID	IQUANT	14	Cable ID
DCCALDATE	LABEL	8/19/2019	DC Calibration Date
ACCALDATE	LABEL	8/19/2019	AC Calibration Date
THERMOSELECT	IQUANT	1	Thermo Select
FRAMEWORKVERSION	QUANT	6.33	Framework Version
INSTRUMENTVERSION	LABEL	3.50	Instrument Version
ZCURVE	TABLE
	Pt	Time	Freq	Zreal	Zimag	Zsig	Zmod	Zphz	Idc	Vdc	IERange
	#	s	Hz	ohm	ohm	V	ohm	°	A	V	#
	0	1	1000078	2143.729	-1319.737	1	2517.396	-31.61755	-2.860905E-006	0.0078256	8
	1	3	794390.6	2378.679	-1238.494	1	2681.787	-27.50439	-3.126035E-008	0.0070031	8
	2	4	630984.4	2592.421	-1143.286	1	2833.328	-23.79801	-4.030505E-007	0.0068301	8
	3	5	501234.4	2769.488	-1023.936	1	2952.712	-20.29037	-1.946701E-006	0.0071419	8
	4	7	398109.4	2918.827	-909.9759	1	3057.386	-17.31543	-6.924105E-007	0.0067236	8
	5	8	316265.6	3034.902	-803.3342	1	3139.423	-14.82609	3.110563E-006	0.0060603	8
	6	9	251203.1	3131.49	-709.488	1	3210.857	-12.76573	4.124443E-007	0.0064616	8
	7	11	199546.9	3203.904	-620.6628	1	3263.468	-10.96359	-1.882971E-006	0.0069545	8
	8	12	158578.1	3267.476	-547.5317	1	3313.033	-9.51269	1.048211E-006	0.0062888	8
	9	14	125953.1	3337.803	-463.5776	1	3369.842	-7.907058	4.657012E-007	0.0053918	7
	10	15	100078.1	3373.008	-421.9624	1	3399.299	-7.130642	2.803743E-008	0.0064178	7
	11	16	79453.13	3411.323	-398.0163	1	3434.464	-6.6549	5.419099E-008	0.0064166	7
	12	18	63140.62	3449	-382.5672	1	3470.153	-6.329442	-4.797761E-008	0.0065841	7
	13	19	50203.12	3484.907	-375.2665	1	3505.054	-6.146119	-5.177503E-008	0.0066642	7
	14	20	39890.62	3519.781	-375.5276	1	3539.757	-6.089885	6.276245E-008	0.0063744	7
	15	22	31640.63	3556.259	-384.0668	1	3576.938	-6.163906	9.936498E-009	0.0065794	7
	16	23	25171.88	3592.894	-400.6325	1	3615.161	-6.362593	-2.101101E-009	0.0065413	7
	17	25	20015.62	3628.667	-424.9702	1	3653.468	-6.679748	7.281383E-008	0.0064412	7
	18	26	15890.62	3668.623	-460.236	1	3697.379	-7.150514	-1.489656E-008	0.0064889	7
	19	27	12609.37	3709.446	-505.3852	1	3743.715	-7.758367	-3.657294E-008	0.0065422	7
	20	29	10078.13	3747.987	-563.464	1	3790.105	-8.549692	-4.673531E-008	0.0065858	7
	21	30	8015.625	3796.507	-634.687	1	3849.194	-9.490746	-4.198246E-009	0.0065087	7
	22	31	6328.125	3843.299	-730.8979	1	3912.181	-10.76762	-5.116554E-008	0.0066677	7
	23	33	5015.625	3894.461	-847.3458	1	3985.577	-12.27494	1.306344E-008	0.0065725	7
	24	34	3984.375	3948.535	-991.976	1	4071.233	-14.10235	-2.392905E-008	0.006502	7
	25	35	3170.956	4010.914	-1165.835	1	4176.913	-16.20734	9.671396E-008	0.0063683	7
	26	37	2527.573	4077.911	-1379.321	1	4304.868	-18.68769	1.307285E-008	0.0065669	7
	27	38	1976.103	4162.917	-1665.953	1	4483.89	-21.81073	7.183555E-008	0.006457	7
	28	40	1577.524	4283.176	-1985.684	1	4721.074	-24.87247	-1.581546E-008	0.0065004	7
	29	41	1265.625	4349.73	-2368.584	1	4952.812	-28.56987	5.751486E-008	0.0064079	7
	30	42	998.264	4473.918	-2872.075	1	5316.461	-32.69883	6.030951E-008	0.0064044	7
	31	44	796.875	4602.825	-3460.551	1	5758.594	-36.93702	6.150055E-009	0.0065814	7
	32	45	627.7902	4762.213	-4222.403	1	6364.54	-41.56171	3.508731E-008	0.0064598	7
	33	46	505.5147	4926.729	-5083.794	1	7079.38	-45.8989	-4.438561E-008	0.006644	7
	34	48	397.9953	5149.252	-6248.198	1	8096.59	-50.50745	5.164806E-009	0.0065212	7
	35	49	315.5048	5406.256	-7657.682	1	9373.777	-54.77825	6.417674E-009	0.0065225	7
	36	51	252.4038	5714.786	-9326.569	1	10938.17	-58.50243	2.669068E-010	0.0064612	6
	37	52	198.6229	6129.862	-11544.37	1	13070.87	-62.03247	1.288549E-009	0.006461	6
	38	53	158.3615	6637.718	-14135.52	1	15616.41	-64.84631	5.437215E-010	0.0064574	6
	39	55	125.558	7304.871	-17389.53	1	18861.52	-67.21405	1.101301E-009	0.0064667	6
	40	56	100.4464	8131.107	-21229.02	1	22732.93	-69.04224	3.856456E-010	0.0064609	6
	41	57	79.00281	9352.83	-26202.4	1	27821.59	-70.3562	5.858319E-010	0.0064573	6
	42	59	63.3446	10956.46	-31649.18	1	33492.01	-70.90494	1.11991E-009	0.0064577	6
	43	60	49.86702	13056.38	-39472.17	1	41575.49	-71.69711	-2.698796E-010	0.0064566	6
	44	62	39.72458	15535.32	-47832.57	1	50292.16	-72.00696	1.18773E-009	0.0064589	6
	45	63	31.6723	18747.61	-57998.15	1	60952.92	-72.08684	1.681542E-009	0.0064584	6
	46	64	24.93351	23728.71	-70853.1	1	74720.91	-71.4843	1.362511E-009	0.0064555	6
	47	66	19.86229	29718.2	-85242.55	1	90274.38	-70.77986	1.066873E-009	0.006455	6
	48	67	15.83615	37480.38	-102389.3	1	109033.7	-69.89447	8.252468E-010	0.006464	5
	49	69	12.40079	48346.26	-123249.7	1	132392.7	-68.58177	-2.824934E-010	0.0064721	5
	50	70	9.93114	60863.71	-145844.5	1	158034.8	-67.34828	-5.413942E-011	0.0064697	5
	51	72	7.944915	76543.74	-170949.1	1	187303.3	-65.87919	3.731764E-010	0.0064659	5
	52	73	6.317385	97466.6	-199763.6	1	222272.8	-63.99181	-1.424554E-010	0.0064539	5
	53	75	5.008013	122569.2	-231703.3	1	262125.2	-62.12152	-2.307448E-010	0.0064518	5
	54	78	3.945707	153341.6	-268405.1	1	309119.7	-60.26039	3.297928E-010	0.0064657	5
	55	81	3.158693	186682.5	-302517.3	1	355481.4	-58.32138	-2.806437E-011	0.0064485	5
	56	84	2.504006	225338.8	-343067.7	1	410454.6	-56.7017	2.000713E-010	0.0064672	5
	57	87	1.998082	266150.3	-384233	1	467408.8	-55.29044	5.352076E-010	0.0064542	5
	58	90	1.584686	313916.8	-431292	1	533438.5	-53.95092	1.007479E-010	0.0064086	5
	59	94	1.266892	359996.8	-481787.5	1	601429.1	-53.23252	3.211423E-010	0.0064525	5
	60	98	0.999041	415453.3	-545235.2	1	685480	-52.69366	-2.61317E-010	0.006443	5
