EXPLAIN
TAG	EISPOT
TITLE	LABEL	Potentiostatic EIS	Test &Identifier
DATE	LABEL	10/16/2019	Date
TIME	LABEL	10:09:09	Time
NOTES	NOTES	1	&Notes...
	
PSTAT	PSTAT	REF600-11020	Potentiostat
VDC	POTEN	0.00000E+000	T	DC &Voltage (V)
FREQINIT	QUANT	1.00000E+006	Initial Fre&q. (Hz)
FREQFINAL	QUANT	1.00000E+000	Final Fre&q. (Hz)
PTSPERDEC	QUANT	1.00000E+001	Points/&decade
VAC	QUANT	2.50000E+001	AC &Voltage (mV rms)
AREA	QUANT	1.00000E-002	&Area (cm^2)
CONDIT	TWOPARAM	T	5.00000E+000	0.00000E+000	Conditionin&g	Time(s)	E(V)
DELAY	TWOPARAM	T	5.00000E+000	0.00000E+000	Init. De&lay	Time(s)	Stab.(mV/s)
SPEED	SELECTOR	0	&Optimize for:
ZGUESS	QUANT	1.00000E+005	E&stimated Z (ohms)
OCVCURVE	TABLE	19
	Pt	T	Vf	Vm	Ach	Over
	#	s	V vs. Ref.	V	V	bits
	0	0.258333	5.85728E-003	5.85728E-003	5.06700E-004	...........
	1	0.516667	5.85455E-003	5.71460E-003	5.06567E-004	...........
	2	0.775	5.83741E-003	5.55818E-003	5.04067E-004	...........
	3	1.03333	5.78849E-003	5.45611E-003	5.08600E-004	...........
	4	1.29167	5.70283E-003	5.38234E-003	5.02467E-004	...........
	5	1.55	5.59666E-003	5.33049E-003	5.08067E-004	...........
	6	1.80833	5.49342E-003	5.27241E-003	5.03933E-004	...........
	7	2.06667	5.40692E-003	5.23632E-003	4.99767E-004	...........
	8	2.325	5.33949E-003	5.23591E-003	4.99667E-004	...........
	9	2.58333	5.29069E-003	5.27008E-003	5.02233E-004	...........
	10	2.84167	5.26106E-003	5.21076E-003	4.97267E-004	...........
	11	3.1	5.24534E-003	5.16436E-003	5.00433E-004	...........
	12	3.35833	5.23039E-003	5.13005E-003	4.93533E-004	...........
	13	3.61667	5.20623E-003	5.09838E-003	4.98500E-004	...........
	14	3.875	5.17368E-003	5.08076E-003	4.97933E-004	...........
	15	4.13333	5.13950E-003	5.06133E-003	4.98267E-004	...........
	16	4.39167	5.10920E-003	5.04719E-003	4.95567E-004	...........
	17	4.65	5.08463E-003	5.03262E-003	5.00400E-004	...........
	18	4.90833	5.06489E-003	5.01519E-003	4.99367E-004	...........
EOC	QUANT	0.0050649	Open Circuit (V)
PSTATMODEL	IQUANT	4	Pstat Model
PSTATSECTION	LABEL	REF600-11020	Pstat Section
PSTATSERIALNO	LABEL	11020	Pstat Serial Number
CTRLMODE	IQUANT	1	Control Mode
IESTAB	IQUANT	0	I/E Stability
CASPEED	IQUANT	1	Control Amp Speed
CONVENTION	IQUANT	1	Current Convention
ICHRANGE	IQUANT	2	Ich Range
ICHRANGEMODE	TOGGLE	F	Ich Auto Range
ICHOFFSETENABLE	TOGGLE	T	Ich Offset Enable
ICHOFFSET	QUANT	0	Ich Offset (V)
ICHFILTER	IQUANT	3	Ich Filter
VCHRANGE	IQUANT	2	Vch Range
VCHRANGEMODE	TOGGLE	F	Vch Auto Range
VCHOFFSETENABLE	TOGGLE	T	Vch Offset Enable
VCHOFFSET	QUANT	0	Vch Offset (V)
VCHFILTER	IQUANT	3	Vch Filter
ACHRANGE	IQUANT	2	Ach Range
ACHOFFSETENABLE	TOGGLE	F	Ach Offset Enable
ACHOFFSET	QUANT	0	Ach Offset (V)
ACHFILTER	IQUANT	3	Ach Filter
IERANGELOWERLIMIT	IQUANT	1	I/E Range Lower Limit
IERANGEMODE	TOGGLE	F	I/E AutoRange
IERANGE	IQUANT	4	I/E Range
POSFEEDENABLE	TOGGLE	F	Positive Feedback IR Comp
POSFEEDRESISTANCE	QUANT	0	Positive Feedback Resistance (ohm)
ACHSELECT	IQUANT	0	Ach Select
CABLEID	IQUANT	14	Cable ID
DCCALDATE	LABEL	8/19/2019	DC Calibration Date
ACCALDATE	LABEL	8/19/2019	AC Calibration Date
THERMOSELECT	IQUANT	1	Thermo Select
FRAMEWORKVERSION	QUANT	6.33	Framework Version
INSTRUMENTVERSION	LABEL	3.50	Instrument Version
ZCURVE	TABLE
	Pt	Time	Freq	Zreal	Zimag	Zsig	Zmod	Zphz	Idc	Vdc	IERange
	#	s	Hz	ohm	ohm	V	ohm	°	A	V	#
	0	1	1000078	2479.816	-1917.047	1	3134.415	-37.70618	-3.869311E-006	0.0078798	8
	1	2	794390.6	2877.828	-1906.745	1	3452.184	-33.52701	-7.200954E-008	0.0071689	8
	2	2	630984.4	3250.681	-1818.631	1	3724.828	-29.22533	5.870864E-007	0.0065806	8
	3	2	501234.4	3577.097	-1683.674	1	3953.528	-25.20551	1.137832E-006	0.006426	8
	4	3	398109.4	3881.141	-1528.126	1	4171.142	-21.49111	3.282724E-006	0.0060778	8
	5	3	316265.6	4093.496	-1342.134	1	4307.904	-18.15276	-1.222805E-006	0.0067861	8
	6	3	251203.1	4279.676	-1168.209	1	4436.252	-15.26789	2.975383E-007	0.0066034	8
	7	4	199546.9	4415.826	-1007.119	1	4529.217	-12.84771	1.297876E-006	0.006338	8
	8	4	158578.1	4521.683	-872.9591	1	4605.179	-10.92713	1.456293E-006	0.0062508	8
	9	4	125953.1	4635.753	-694.5341	1	4687.492	-8.520746	2.762429E-007	0.0057804	7
	10	5	100078.1	4669.387	-605.7868	1	4708.519	-7.392028	5.018261E-008	0.0064893	7
	11	5	79453.13	4720.619	-541.9691	1	4751.628	-6.549391	4.932312E-008	0.0064878	7
	12	5	63140.62	4761.346	-493.8773	1	4786.892	-5.921907	-6.704813E-009	0.0065724	7
	13	6	50203.12	4798.16	-457.6398	1	4819.935	-5.448287	-6.100052E-009	0.0065665	7
	14	6	39890.62	4832.582	-433.8205	1	4852.015	-5.129688	-5.829935E-008	0.0067384	7
	15	6	31640.63	4866.465	-424.3274	1	4884.929	-4.983255	-1.615455E-008	0.0065347	7
	16	7	25171.88	4897.894	-425.738	1	4916.362	-4.967816	-1.518412E-008	0.0065337	7
	17	7	20015.62	4950.893	-430.0826	1	4969.538	-4.964805	-5.25151E-009	0.0065944	7
	18	7	15890.62	4961.987	-465.0904	1	4983.736	-5.354727	5.208444E-008	0.0064711	7
	19	8	12609.37	4994.241	-504.6041	1	5019.668	-5.769425	-5.087402E-009	0.0065943	7
	20	8	10078.13	5027.917	-554.2217	1	5058.371	-6.290256	3.1055E-008	0.0064471	7
	21	8	8015.625	5071.292	-630.0677	1	5110.283	-7.082253	-2.661848E-008	0.0065556	7
	22	8	6328.125	5103.104	-721.0496	1	5153.793	-8.04244	-5.521613E-008	0.0067319	7
	23	9	5015.625	5146.293	-842.5352	1	5214.806	-9.297803	7.566579E-008	0.0064991	7
	24	9	3984.375	5183.672	-992.515	1	5277.835	-10.83921	5.43832E-008	0.0064716	7
	25	9	3170.956	5243.9	-1174.63	1	5373.848	-12.62579	-5.68304E-008	0.0066268	7
	26	10	2527.573	5301.664	-1400.057	1	5483.412	-14.7929	1.001019E-007	0.0064096	7
	27	10	1976.103	5370.093	-1703.422	1	5633.786	-17.5993	-3.511653E-008	0.0065633	7
	28	10	1577.524	5446.656	-2036.762	1	5815.021	-20.50314	1.010536E-007	0.0064051	7
	29	11	1265.625	5532.822	-2458.469	1	6054.436	-23.95762	-5.451603E-008	0.0067302	7
	30	11	998.264	5637.825	-3005.131	1	6388.731	-28.05897	-3.734616E-008	0.0066454	7
	31	11	796.875	5754.384	-3647.311	1	6812.915	-32.36782	-1.476643E-008	0.0065247	7
	32	12	627.7902	5904.873	-4486.807	1	7416.128	-37.22932	-7.211318E-009	0.0065578	7
	33	12	505.5147	6067.148	-5425.868	1	8139.431	-41.80636	-4.687392E-008	0.0066048	7
	34	12	397.9953	6278.93	-6706.466	1	9187.036	-46.88575	9.772448E-010	0.0065732	7
	35	13	315.5048	6540.836	-8250.563	1	10528.74	-51.59352	1.150066E-009	0.0065092	6
	36	13	252.4038	6854.753	-10080.94	1	12190.69	-55.78542	1.065485E-010	0.0065062	6
	37	13	198.6229	7280.573	-12512.64	1	14476.63	-59.8067	6.490457E-010	0.0065062	6
	38	14	158.3615	7804.91	-15355.34	1	17225.07	-63.0564	6.647178E-010	0.0065027	6
	39	14	125.558	8498.303	-18927.59	1	20747.88	-65.82038	5.670262E-010	0.0065045	6
	40	14	100.4464	9397.574	-23119.8	1	24956.76	-67.87959	-6.526645E-010	0.0065015	6
	41	15	79.00281	10662.97	-28622.72	1	30544.38	-69.56787	4.649803E-010	0.0064973	6
	42	15	63.3446	12296.07	-35300	1	37380.25	-70.79521	-1.577522E-010	0.0064972	6
	43	15	49.86702	14379.47	-43433.48	1	45751.9	-71.68191	-6.015616E-010	0.0064968	6
	44	16	39.72458	17499.02	-52585.74	1	55420.89	-71.59405	2.331154E-010	0.0065039	6
	45	16	31.6723	21405.02	-63574.11	1	67080.86	-71.39194	-8.296822E-011	0.0064985	6
	46	16	24.93351	26754.73	-77885.1	1	82352.32	-71.04161	3.784804E-010	0.0065	6
	47	17	19.86229	33764.55	-93568.84	1	99474.5	-70.15789	2.8064E-010	0.006499	6
	48	17	15.83615	41522.17	-111245.4	1	118741.8	-69.53198	-5.24923E-010	0.0065039	5
	49	17	12.40079	54648.65	-134466.5	1	145147.3	-67.88264	4.557886E-010	0.0065013	5
	50	18	9.93114	68577.63	-157142.6	1	171454.6	-66.42336	7.843226E-010	0.0065045	5
	51	18	7.944915	85885.79	-183156.4	1	202293.5	-64.87716	6.143049E-010	0.0064981	5
	52	19	6.317385	106644.7	-212716.5	1	237952.5	-63.37325	6.219258E-010	0.0064913	5
	53	19	5.008013	131718.5	-246464.4	1	279453.8	-61.87852	3.086E-010	0.0065021	5
	54	21	3.945707	159566	-284598.2	1	326278.2	-60.7219	1.198867E-010	0.0065044	5
	55	22	3.158693	190716.5	-324851.5	1	376697.8	-59.5833	-8.871405E-011	0.0064883	5
	56	24	2.504006	226386	-371791.3	1	435292.3	-58.66251	7.534486E-011	0.0064932	5
	57	25	1.998082	264206.5	-424421.4	1	499938.6	-58.09733	1.320822E-010	0.0065209	5
	58	26	1.584686	308667.6	-485148.3	1	575017	-57.53411	-2.814607E-011	0.0064779	5
	59	28	1.266892	356749.8	-555301.3	1	660022.7	-57.28154	-1.076409E-010	0.0064555	5
	60	31	0.999041	413588	-641587.6	1	763341.1	-57.19287	-8.252805E-011	0.0064618	5
