EXPLAIN
TAG	EISPOT
TITLE	LABEL	Potentiostatic EIS	Test &Identifier
DATE	LABEL	10/20/2019	Date
TIME	LABEL	9:37:15	Time
NOTES	NOTES	1	&Notes...
	
PSTAT	PSTAT	REF600-11020	Potentiostat
VDC	POTEN	0.00000E+000	T	DC &Voltage (V)
FREQINIT	QUANT	1.00000E+006	Initial Fre&q. (Hz)
FREQFINAL	QUANT	1.00000E+000	Final Fre&q. (Hz)
PTSPERDEC	QUANT	1.00000E+001	Points/&decade
VAC	QUANT	2.50000E+001	AC &Voltage (mV rms)
AREA	QUANT	1.00000E-002	&Area (cm^2)
CONDIT	TWOPARAM	T	5.00000E+000	0.00000E+000	Conditionin&g	Time(s)	E(V)
DELAY	TWOPARAM	T	5.00000E+000	0.00000E+000	Init. De&lay	Time(s)	Stab.(mV/s)
SPEED	SELECTOR	1	&Optimize for:
ZGUESS	QUANT	1.00000E+005	E&stimated Z (ohms)
OCVCURVE	TABLE	19
	Pt	T	Vf	Vm	Ach	Over
	#	s	V vs. Ref.	V	V	bits
	0	0.258333	9.29027E-003	9.29027E-003	5.97265E-004	...........
	1	0.516667	9.29304E-003	9.43510E-003	5.96332E-004	...........
	2	0.775	9.31040E-003	9.59171E-003	6.04165E-004	...........
	3	1.03333	9.36050E-003	9.72980E-003	6.01399E-004	...........
	4	1.29167	9.45237E-003	9.90778E-003	5.97865E-004	...........
	5	1.55	9.57895E-003	1.00435E-002	5.99965E-004	...........
	6	1.80833	9.72536E-003	1.01838E-002	5.98332E-004	...........
	7	2.06667	9.87713E-003	1.02977E-002	6.00665E-004	...........
	8	2.325	1.00241E-002	1.04357E-002	6.04098E-004	...........
	9	2.58333	1.01622E-002	1.05444E-002	6.11098E-004	...........
	10	2.84167	1.02927E-002	1.06750E-002	6.01632E-004	...........
	11	3.1	1.04173E-002	1.07475E-002	6.04865E-004	...........
	12	3.35833	1.05369E-002	1.09387E-002	6.06798E-004	...........
	13	3.61667	1.06549E-002	1.10264E-002	6.03532E-004	...........
	14	3.875	1.07753E-002	1.11254E-002	5.97032E-004	...........
	15	4.13333	1.08960E-002	1.12435E-002	6.00265E-004	...........
	16	4.39167	1.10118E-002	1.13251E-002	5.99932E-004	...........
	17	4.65	1.11207E-002	1.14167E-002	6.01732E-004	...........
	18	4.90833	1.12232E-002	1.15465E-002	5.97865E-004	...........
EOC	QUANT	0.0112232	Open Circuit (V)
PSTATMODEL	IQUANT	4	Pstat Model
PSTATSECTION	LABEL	REF600-11020	Pstat Section
PSTATSERIALNO	LABEL	11020	Pstat Serial Number
CTRLMODE	IQUANT	1	Control Mode
IESTAB	IQUANT	0	I/E Stability
CASPEED	IQUANT	1	Control Amp Speed
CONVENTION	IQUANT	1	Current Convention
ICHRANGE	IQUANT	2	Ich Range
ICHRANGEMODE	TOGGLE	F	Ich Auto Range
ICHOFFSETENABLE	TOGGLE	T	Ich Offset Enable
ICHOFFSET	QUANT	0	Ich Offset (V)
ICHFILTER	IQUANT	3	Ich Filter
VCHRANGE	IQUANT	2	Vch Range
VCHRANGEMODE	TOGGLE	F	Vch Auto Range
VCHOFFSETENABLE	TOGGLE	T	Vch Offset Enable
VCHOFFSET	QUANT	0	Vch Offset (V)
VCHFILTER	IQUANT	3	Vch Filter
ACHRANGE	IQUANT	2	Ach Range
ACHOFFSETENABLE	TOGGLE	F	Ach Offset Enable
ACHOFFSET	QUANT	0	Ach Offset (V)
ACHFILTER	IQUANT	3	Ach Filter
IERANGELOWERLIMIT	IQUANT	1	I/E Range Lower Limit
IERANGEMODE	TOGGLE	F	I/E AutoRange
IERANGE	IQUANT	5	I/E Range
POSFEEDENABLE	TOGGLE	F	Positive Feedback IR Comp
POSFEEDRESISTANCE	QUANT	0	Positive Feedback Resistance (ohm)
ACHSELECT	IQUANT	0	Ach Select
CABLEID	IQUANT	14	Cable ID
DCCALDATE	LABEL	8/19/2019	DC Calibration Date
ACCALDATE	LABEL	8/19/2019	AC Calibration Date
THERMOSELECT	IQUANT	1	Thermo Select
FRAMEWORKVERSION	QUANT	6.33	Framework Version
INSTRUMENTVERSION	LABEL	3.50	Instrument Version
ZCURVE	TABLE
	Pt	Time	Freq	Zreal	Zimag	Zsig	Zmod	Zphz	Idc	Vdc	IERange
	#	s	Hz	ohm	ohm	V	ohm	°	A	V	#
	0	2	1000078	2884.074	-1601.038	1	3298.667	-29.036	-3.056144E-006	0.0138814	8
	1	3	794390.6	3177.65	-1478.879	1	3504.931	-24.95728	6.380613E-006	0.0121985	8
	2	5	630984.4	3432.046	-1314.178	1	3675.052	-20.95254	-1.820787E-006	0.0130247	8
	3	6	501234.4	3603.225	-1141.132	1	3779.605	-17.57285	3.482475E-006	0.0123079	8
	4	8	398109.4	3752.932	-988.225	1	3880.862	-14.75229	-1.549444E-006	0.0131339	8
	5	9	316265.6	3853.433	-840.8715	1	3944.111	-12.30976	-2.131545E-006	0.0132671	8
	6	11	251203.1	3937.687	-723.3181	1	4003.57	-10.40869	-3.240282E-007	0.0128438	8
	7	12	199546.9	4002.714	-625.7567	1	4051.332	-8.885307	-3.014743E-006	0.0134599	8
	8	14	158578.1	4047.511	-554.3905	1	4085.303	-7.799311	1.040041E-006	0.0126069	8
	9	15	125953.1	4135.852	-416.7269	1	4156.793	-5.753682	-3.155824E-007	0.0136099	7
	10	16	100078.1	4133.197	-385.7285	1	4151.157	-5.331657	-4.854801E-008	0.0128261	7
	11	18	79453.13	4160.899	-367.4921	1	4177.096	-5.047287	-8.178498E-009	0.0128421	7
	12	19	63140.62	4190.771	-358.719	1	4206.095	-4.892443	8.758771E-008	0.012608	7
	13	21	50203.12	4219.619	-358.505	1	4234.821	-4.85627	1.441173E-007	0.012581	7
	14	22	39890.62	4249.254	-367.9704	1	4265.157	-4.949265	-1.600766E-008	0.0127574	7
	15	23	31640.63	4281.517	-385.2259	1	4298.813	-5.141296	-5.039828E-008	0.0128819	7
	16	25	25171.88	4316.414	-411.477	1	4335.982	-5.445461	8.867692E-008	0.0127374	7
	17	26	20015.62	4350.662	-464.147	1	4375.351	-6.089523	-8.224168E-008	0.0129124	7
	18	27	15890.62	4390.61	-495.9131	1	4418.527	-6.444166	-3.728091E-008	0.0128068	7
	19	29	12609.37	4436.465	-551.9133	1	4470.663	-7.091382	1.460004E-007	0.0125686	7
	20	30	10078.13	4478.915	-625.192	1	4522.338	-7.946322	-5.043267E-008	0.0128858	7
	21	31	8015.625	4534.132	-704.2217	1	4588.494	-8.828395	8.976772E-008	0.0127361	7
	22	33	6328.125	4581.024	-826.5319	1	4654.991	-10.22757	-1.599359E-008	0.0129381	7
	23	34	5015.625	4637.559	-962.437	1	4736.374	-11.72422	8.742517E-008	0.0126116	7
	24	36	3984.375	4698.935	-1136.277	1	4834.368	-13.59407	-5.792744E-008	0.0129643	7
	25	37	3170.956	4765.383	-1333.935	1	4948.561	-15.6381	-3.503996E-008	0.0128007	7
	26	38	2527.573	4841.833	-1582.51	1	5093.887	-18.09952	-4.2305E-008	0.0128117	7
	27	40	1976.103	4932.434	-1918.032	1	5292.235	-21.24913	8.883007E-008	0.01273	7
	28	41	1577.524	5013.923	-2329.362	1	5528.594	-24.91857	-3.866856E-008	0.0128587	7
	29	42	1265.625	5140.811	-2745.332	1	5827.931	-28.10342	-1.278847E-008	0.0129273	7
	30	44	998.264	5279.937	-3338.221	1	6246.716	-32.30297	-7.814364E-009	0.012918	7
	31	45	796.875	5433.541	-4026.129	1	6762.624	-36.5376	1.721608E-009	0.0127144	7
	32	47	627.7902	5614.893	-4933.532	1	7474.407	-41.30419	8.946629E-008	0.0127352	7
	33	48	505.5147	5828.872	-5930.418	1	8315.384	-45.49476	8.643769E-008	0.0126003	7
	34	49	397.9953	6095.903	-7292.907	1	9505.08	-50.10885	5.09447E-009	0.0127992	7
	35	51	315.5048	6417.613	-8927.029	1	10994.44	-54.28776	-2.422985E-010	0.0127397	6
	36	52	252.4038	6792.475	-10861.91	1	12810.89	-57.98028	1.900726E-009	0.0127343	6
	37	53	198.6229	7302.642	-13423.83	1	15281.62	-61.45356	7.763988E-010	0.0127382	6
	38	55	158.3615	7923.246	-16405.54	1	18218.66	-64.22124	1.418828E-009	0.0127323	6
	39	56	125.558	8733.692	-20170.82	1	21980.44	-66.58804	1.221624E-009	0.012735	6
	40	57	100.4464	9715.82	-24602.46	1	26451.43	-68.4503	5.35424E-010	0.0127338	6
	41	59	79.00281	11329.94	-30310.96	1	32359.26	-69.50475	8.84825E-010	0.0127318	6
	42	60	63.3446	13544.28	-37197.25	1	39586.39	-69.99239	3.635623E-010	0.0127329	6
	43	62	49.86702	15081.95	-45453.09	1	47889.96	-71.64346	2.18858E-010	0.0127293	6
	44	63	39.72458	18641.46	-55032.64	1	58104.18	-71.28697	7.601349E-010	0.0127321	6
	45	64	31.6723	22919.93	-66383.62	1	70228.97	-70.95201	3.917572E-010	0.0127339	6
	46	66	24.93351	28750.18	-80980.98	1	85933.06	-70.45393	2.231171E-010	0.0127272	6
	47	67	19.86229	36008.06	-97383.6	1	103827.5	-69.70788	9.132998E-010	0.0127365	6
	48	69	15.83615	43354.65	-116698.6	1	124491.8	-69.61949	-2.392218E-009	0.0127385	5
	49	70	12.40079	57812.09	-137229.5	1	148909.9	-67.15526	1.828446E-009	0.0127367	5
	50	72	9.93114	73031.51	-162529.9	1	178184.1	-65.80362	9.657287E-010	0.0127358	5
	51	73	7.944915	89442.99	-191096	1	210992.3	-64.91794	7.885666E-010	0.0127288	5
	52	75	6.317385	112593.9	-219779.4	1	246942	-62.87374	6.556604E-010	0.0127403	5
	53	77	5.008013	138836.5	-254078	1	289536.1	-61.34637	4.668198E-010	0.012741	5
	54	80	3.945707	169971.2	-292258	1	338090.2	-59.81861	1.711502E-010	0.0127389	5
	55	82	3.158693	203875.9	-332487.2	1	390016.8	-58.48404	3.995723E-011	0.0127417	5
	56	86	2.504006	242313.3	-378428.9	1	449359.8	-57.368	3.788052E-010	0.0127283	5
	57	89	1.998082	283102.3	-428294.7	1	513403.6	-56.53534	6.175226E-011	0.0127802	5
	58	92	1.584686	327372.4	-486285.6	1	586213.6	-56.05116	1.96388E-010	0.0127201	5
	59	95	1.266892	376130.3	-553021.9	1	668810.4	-55.77895	1.621686E-010	0.0127697	5
	60	100	0.999041	432849.4	-634235	1	767862.4	-55.68745	-8.414934E-011	0.0126949	5
