EXPLAIN
TAG	EISPOT
TITLE	LABEL	Potentiostatic EIS	Test &Identifier
DATE	LABEL	11/11/2019	Date
TIME	LABEL	14:19:03	Time
NOTES	NOTES	3	&Notes...
	
	
	
PSTAT	PSTAT	REF600-11020	Potentiostat
VDC	POTEN	0.00000E+000	T	DC &Voltage (V)
FREQINIT	QUANT	1.00000E+006	Initial Fre&q. (Hz)
FREQFINAL	QUANT	1.00000E+000	Final Fre&q. (Hz)
PTSPERDEC	QUANT	1.00000E+001	Points/&decade
VAC	QUANT	2.50000E+001	AC &Voltage (mV rms)
AREA	QUANT	1.00000E-002	&Area (cm^2)
CONDIT	TWOPARAM	T	5.00000E+000	0.00000E+000	Conditionin&g	Time(s)	E(V)
DELAY	TWOPARAM	T	5.00000E+000	0.00000E+000	Init. De&lay	Time(s)	Stab.(mV/s)
SPEED	SELECTOR	1	&Optimize for:
ZGUESS	QUANT	1.00000E+005	E&stimated Z (ohms)
OCVCURVE	TABLE	19
	Pt	T	Vf	Vm	Ach	Over
	#	s	V vs. Ref.	V	V	bits
	0	0.258333	1.05337E-002	1.05337E-002	6.52206E-004	...........
	1	0.516667	1.05267E-002	1.01640E-002	6.43406E-004	...........
	2	0.775	1.04984E-002	1.06056E-002	6.39606E-004	...........
	3	1.03333	1.04562E-002	1.03700E-002	6.42773E-004	...........
	4	1.29167	1.04268E-002	1.03331E-002	6.52206E-004	...........
	5	1.55	1.04124E-002	1.03972E-002	6.40606E-004	...........
	6	1.80833	1.04021E-002	1.05668E-002	6.36473E-004	...........
	7	2.06667	1.04064E-002	1.04944E-002	6.44273E-004	...........
	8	2.325	1.04319E-002	1.03574E-002	6.51739E-004	...........
	9	2.58333	1.04533E-002	1.03494E-002	6.42306E-004	...........
	10	2.84167	1.04447E-002	1.03647E-002	6.32873E-004	...........
	11	3.1	1.04147E-002	1.04307E-002	6.47206E-004	...........
	12	3.35833	1.03914E-002	1.04399E-002	6.52639E-004	...........
	13	3.61667	1.03896E-002	1.03857E-002	6.43740E-004	...........
	14	3.875	1.03999E-002	1.03976E-002	6.38973E-004	...........
	15	4.13333	1.04063E-002	1.03827E-002	6.45440E-004	...........
	16	4.39167	1.04022E-002	1.03048E-002	6.54773E-004	...........
	17	4.65	1.03882E-002	1.03600E-002	6.34873E-004	...........
	18	4.90833	1.03695E-002	1.03574E-002	6.45539E-004	...........
EOC	QUANT	0.0103695	Open Circuit (V)
PSTATMODEL	IQUANT	4	Pstat Model
PSTATSECTION	LABEL	REF600-11020	Pstat Section
PSTATSERIALNO	LABEL	11020	Pstat Serial Number
CTRLMODE	IQUANT	1	Control Mode
IESTAB	IQUANT	0	I/E Stability
CASPEED	IQUANT	1	Control Amp Speed
CONVENTION	IQUANT	1	Current Convention
ICHRANGE	IQUANT	2	Ich Range
ICHRANGEMODE	TOGGLE	F	Ich Auto Range
ICHOFFSETENABLE	TOGGLE	T	Ich Offset Enable
ICHOFFSET	QUANT	0	Ich Offset (V)
ICHFILTER	IQUANT	3	Ich Filter
VCHRANGE	IQUANT	2	Vch Range
VCHRANGEMODE	TOGGLE	F	Vch Auto Range
VCHOFFSETENABLE	TOGGLE	T	Vch Offset Enable
VCHOFFSET	QUANT	0	Vch Offset (V)
VCHFILTER	IQUANT	3	Vch Filter
ACHRANGE	IQUANT	2	Ach Range
ACHOFFSETENABLE	TOGGLE	F	Ach Offset Enable
ACHOFFSET	QUANT	0	Ach Offset (V)
ACHFILTER	IQUANT	2	Ach Filter
IERANGELOWERLIMIT	IQUANT	1	I/E Range Lower Limit
IERANGEMODE	TOGGLE	F	I/E AutoRange
IERANGE	IQUANT	5	I/E Range
POSFEEDENABLE	TOGGLE	F	Positive Feedback IR Comp
POSFEEDRESISTANCE	QUANT	0	Positive Feedback Resistance (ohm)
ACHSELECT	IQUANT	0	Ach Select
CABLEID	IQUANT	14	Cable ID
DCCALDATE	LABEL	8/19/2019	DC Calibration Date
ACCALDATE	LABEL	8/19/2019	AC Calibration Date
THERMOSELECT	IQUANT	1	Thermo Select
FRAMEWORKVERSION	QUANT	6.33	Framework Version
INSTRUMENTVERSION	LABEL	3.50	Instrument Version
ZCURVE	TABLE
	Pt	Time	Freq	Zreal	Zimag	Zsig	Zmod	Zphz	Idc	Vdc	IERange
	#	s	Hz	ohm	ohm	V	ohm	°	A	V	#
	0	1	1000078	2375.437	-1512.275	1	2815.968	-32.48206	2.755351E-006	0.0127597	8
	1	3	794390.6	2657.362	-1459.518	1	3031.792	-28.77716	-1.040682E-006	0.011794	8
	2	4	630984.4	2909.716	-1380.696	1	3220.678	-25.38491	-3.261991E-006	0.012516	8
	3	5	501234.4	3132.062	-1274.767	1	3381.545	-22.1466	4.129858E-007	0.0116236	8
	4	7	398109.4	3316.954	-1170.846	1	3517.537	-19.44243	5.083262E-006	0.0108791	8
	5	8	316265.6	3478.807	-1076.476	1	3641.552	-17.19407	5.462894E-006	0.0111854	8
	6	9	251203.1	3629.762	-982.463	1	3760.373	-15.14528	-2.147371E-006	0.0117203	8
	7	11	199546.9	3753.382	-900.5695	1	3859.91	-13.49224	-4.76271E-006	0.0125101	8
	8	12	158578.1	3873.307	-819.6011	1	3959.072	-11.94768	2.644697E-008	0.0115611	8
	9	13	125953.1	3988.846	-683.6443	1	4047.007	-9.72538	2.92255E-008	0.013934	7
	10	15	100078.1	4062.738	-625.8553	1	4110.661	-8.757442	8.962213E-007	0.0105593	7
	11	16	79453.13	4132.528	-583.1289	1	4173.467	-8.031812	6.895338E-007	0.0115744	7
	12	17	63140.62	4195.71	-544.9521	1	4230.953	-7.400328	-7.454383E-007	0.0131524	7
	13	19	50203.12	4251.996	-517.049	1	4283.317	-6.933212	-2.531525E-007	0.0110533	7
	14	20	39890.62	4303.525	-497.4007	1	4332.175	-6.592981	6.119348E-008	0.012548	7
	15	22	31640.63	4352.419	-488.1234	1	4379.705	-6.398978	6.192643E-008	0.0125538	7
	16	23	25171.88	4395.253	-487.4895	1	4422.205	-6.328963	-1.016921E-006	0.012959	7
	17	24	20015.62	4438.444	-500.7278	1	4466.6	-6.436668	4.039808E-007	0.0103717	7
	18	26	15890.62	4481.56	-525.2408	1	4512.234	-6.684595	9.020425E-007	0.0105353	7
	19	27	12609.37	4525.487	-564.2377	1	4560.526	-7.106962	8.469005E-007	0.011157	7
	20	28	10078.13	4562.897	-617.8777	1	4604.542	-7.711713	6.153573E-008	0.0125411	7
	21	30	8015.625	4599.737	-691.0021	1	4651.351	-8.543453	6.233424E-008	0.012541	7
	22	31	6328.125	4644.2	-787.9188	1	4710.564	-9.62892	-7.421207E-007	0.0131396	7
	23	32	5015.625	4692.322	-914.2351	1	4780.555	-11.02518	6.395636E-008	0.0125364	7
	24	34	3984.375	4741.805	-1072.338	1	4861.545	-12.74284	9.692336E-008	0.0106138	7
	25	35	3170.956	4799.675	-1269.039	1	4964.609	-14.81016	8.455832E-007	0.0111535	7
	26	36	2527.573	4861.421	-1507.595	1	5089.819	-17.2294	-7.426239E-007	0.0131396	7
	27	38	1976.103	4940.353	-1835.524	1	5270.316	-20.3819	-8.675737E-007	0.0121798	7
	28	39	1577.524	5017.887	-2205.332	1	5481.12	-23.72521	4.039917E-007	0.0103668	7
	29	40	1265.625	5127.708	-2646.461	1	5770.368	-27.29871	6.458607E-007	0.0102778	7
	30	42	998.264	5255.54	-3233.11	1	6170.389	-31.59905	9.13365E-007	0.0108021	7
	31	43	796.875	5397.9	-3914.391	1	6667.817	-35.94846	5.115016E-007	0.0119119	7
	32	44	627.7902	5587.388	-4811.739	1	7373.72	-40.73433	9.007654E-007	0.010538	7
	33	46	505.5147	5802.01	-5800.199	1	8204.001	-44.99106	-5.144068E-007	0.013069	7
	34	47	397.9953	6087.396	-7147.582	1	9388.521	-49.57989	4.7432E-009	0.0117718	7
	35	49	315.5048	6450.295	-8757.796	1	10876.82	-53.6276	5.729568E-010	0.0117078	6
	36	50	252.4038	6892.119	-10650.77	1	12686.22	-57.09307	4.693014E-010	0.0117119	6
	37	51	198.6229	7506.796	-13137.65	1	15131.09	-60.25654	4.822279E-010	0.0117074	6
	38	53	158.3615	8267.577	-16004.25	1	18013.57	-62.67974	1.040208E-009	0.0117066	6
	39	54	125.558	9296.598	-19579.47	1	21674.47	-64.60101	4.383563E-010	0.0117169	6
	40	55	100.4464	10584	-23717.3	1	25971.74	-65.95087	2.365043E-010	0.0117088	6
	41	57	79.00281	12445.88	-29086.38	1	31637.28	-66.83424	7.631955E-010	0.0117037	6
	42	58	63.3446	14867.69	-35160.9	1	38175.09	-67.07906	8.139329E-010	0.0117043	6
	43	60	49.86702	17899.13	-42330.86	1	45959.55	-67.07947	-1.382205E-010	0.011707	6
	44	61	39.72458	22153	-50652.81	1	55285.28	-66.37785	-3.491859E-010	0.0117133	6
	45	62	31.6723	27282.69	-60153.36	1	66051.28	-65.60323	-2.122252E-010	0.0117141	6
	46	64	24.93351	34474.64	-71411.27	1	79297.36	-64.23052	1.017467E-009	0.0117087	6
	47	65	19.86229	42639.77	-83314.27	1	93591.77	-62.89689	-4.898088E-010	0.0117066	6
	48	66	15.83615	53195.75	-96392.3	1	110096.6	-61.10714	1.695671E-009	0.0117082	5
	49	68	12.40079	65196.26	-112305.1	1	129857.6	-59.86364	3.681039E-010	0.0117048	5
	50	69	9.93114	78384.76	-126980	1	149224.9	-58.31296	9.293091E-010	0.0117053	5
	51	71	7.944915	93045.76	-143838.9	1	171310	-57.10218	-4.214054E-010	0.0117065	5
	52	72	6.317385	109904.9	-162983.1	1	196577.2	-56.0069	-3.998986E-010	0.0117167	5
	53	74	5.008013	129143.2	-184491.5	1	225200.1	-55.00816	1.17002E-010	0.0117097	5
	54	77	3.945707	150170.3	-209464.3	1	257733.2	-54.36229	2.80089E-010	0.0117095	5
	55	80	3.158693	171852.1	-236194	1	292097.2	-53.96078	1.586883E-010	0.0117246	5
	56	83	2.504006	196437.6	-269201.1	1	333252.1	-53.88155	-2.319275E-010	0.0116975	5
	57	86	1.998082	222775.3	-306124.2	1	378603.8	-53.95555	-3.581444E-010	0.0117105	5
	58	89	1.584686	253851.9	-349854.8	1	432249	-54.03565	1.326918E-011	0.0117552	5
	59	92	1.266892	286201.8	-401051.9	1	492700.8	-54.48729	-2.347081E-010	0.0116906	5
	60	97	0.999041	324728.7	-463749.7	1	566138.3	-54.99937	2.696018E-010	0.0117391	5
