EXPLAIN
TAG	EISPOT
TITLE	LABEL	Potentiostatic EIS	Test &Identifier
DATE	LABEL	10/26/2019	Date
TIME	LABEL	10:07:01	Time
NOTES	NOTES	1	&Notes...
	
PSTAT	PSTAT	REF600-11020	Potentiostat
VDC	POTEN	0.00000E+000	T	DC &Voltage (V)
FREQINIT	QUANT	1.00000E+006	Initial Fre&q. (Hz)
FREQFINAL	QUANT	1.00000E+000	Final Fre&q. (Hz)
PTSPERDEC	QUANT	1.00000E+001	Points/&decade
VAC	QUANT	2.50000E+001	AC &Voltage (mV rms)
AREA	QUANT	1.00000E-002	&Area (cm^2)
CONDIT	TWOPARAM	T	5.00000E+000	0.00000E+000	Conditionin&g	Time(s)	E(V)
DELAY	TWOPARAM	T	5.00000E+000	0.00000E+000	Init. De&lay	Time(s)	Stab.(mV/s)
SPEED	SELECTOR	0	&Optimize for:
ZGUESS	QUANT	1.00000E+005	E&stimated Z (ohms)
OCVCURVE	TABLE	19
	Pt	T	Vf	Vm	Ach	Over
	#	s	V vs. Ref.	V	V	bits
	0	0.258333	7.86853E-003	7.86853E-003	5.23100E-004	...........
	1	0.516667	7.86989E-003	7.93934E-003	5.21966E-004	...........
	2	0.775	7.87804E-003	7.99817E-003	5.16400E-004	...........
	3	1.03333	7.90141E-003	8.09932E-003	5.18233E-004	...........
	4	1.29167	7.94526E-003	8.16035E-003	5.16700E-004	...........
	5	1.55	8.00800E-003	8.27649E-003	5.22833E-004	...........
	6	1.80833	8.08458E-003	8.36643E-003	5.25933E-004	...........
	7	2.06667	8.17091E-003	8.46907E-003	5.19833E-004	...........
	8	2.325	8.26389E-003	8.55951E-003	5.20200E-004	...........
	9	2.58333	8.35975E-003	8.63414E-003	5.20133E-004	...........
	10	2.84167	8.45409E-003	8.71427E-003	5.24066E-004	...........
	11	3.1	8.54369E-003	8.79853E-003	5.24233E-004	...........
	12	3.35833	8.62827E-003	8.87034E-003	5.14933E-004	...........
	13	3.61667	8.70940E-003	8.94918E-003	5.21533E-004	...........
	14	3.875	8.78832E-003	9.02273E-003	5.18966E-004	...........
	15	4.13333	8.86561E-003	9.09717E-003	5.22566E-004	...........
	16	4.39167	8.94169E-003	9.17212E-003	5.22600E-004	...........
	17	4.65	9.01689E-003	9.24532E-003	5.20900E-004	...........
	18	4.90833	9.09139E-003	9.31251E-003	5.19266E-004	...........
EOC	QUANT	0.0090914	Open Circuit (V)
PSTATMODEL	IQUANT	4	Pstat Model
PSTATSECTION	LABEL	REF600-11020	Pstat Section
PSTATSERIALNO	LABEL	11020	Pstat Serial Number
CTRLMODE	IQUANT	1	Control Mode
IESTAB	IQUANT	0	I/E Stability
CASPEED	IQUANT	1	Control Amp Speed
CONVENTION	IQUANT	1	Current Convention
ICHRANGE	IQUANT	2	Ich Range
ICHRANGEMODE	TOGGLE	F	Ich Auto Range
ICHOFFSETENABLE	TOGGLE	T	Ich Offset Enable
ICHOFFSET	QUANT	0	Ich Offset (V)
ICHFILTER	IQUANT	3	Ich Filter
VCHRANGE	IQUANT	2	Vch Range
VCHRANGEMODE	TOGGLE	F	Vch Auto Range
VCHOFFSETENABLE	TOGGLE	T	Vch Offset Enable
VCHOFFSET	QUANT	0	Vch Offset (V)
VCHFILTER	IQUANT	3	Vch Filter
ACHRANGE	IQUANT	2	Ach Range
ACHOFFSETENABLE	TOGGLE	F	Ach Offset Enable
ACHOFFSET	QUANT	0	Ach Offset (V)
ACHFILTER	IQUANT	3	Ach Filter
IERANGELOWERLIMIT	IQUANT	1	I/E Range Lower Limit
IERANGEMODE	TOGGLE	F	I/E AutoRange
IERANGE	IQUANT	5	I/E Range
POSFEEDENABLE	TOGGLE	F	Positive Feedback IR Comp
POSFEEDRESISTANCE	QUANT	0	Positive Feedback Resistance (ohm)
ACHSELECT	IQUANT	0	Ach Select
CABLEID	IQUANT	14	Cable ID
DCCALDATE	LABEL	8/19/2019	DC Calibration Date
ACCALDATE	LABEL	8/19/2019	AC Calibration Date
THERMOSELECT	IQUANT	1	Thermo Select
FRAMEWORKVERSION	QUANT	6.33	Framework Version
INSTRUMENTVERSION	LABEL	3.50	Instrument Version
ZCURVE	TABLE
	Pt	Time	Freq	Zreal	Zimag	Zsig	Zmod	Zphz	Idc	Vdc	IERange
	#	s	Hz	ohm	ohm	V	ohm	°	A	V	#
	0	1	1000078	2387.454	-1286.635	1	2712.077	-28.32089	-2.200031E-006	0.0116205	8
	1	2	794390.6	2621.44	-1170.853	1	2871.035	-24.06768	-1.449924E-006	0.0112806	8
	2	2	630984.4	2806.468	-1042.705	1	2993.91	-20.38186	-1.704885E-006	0.0111091	8
	3	2	501234.4	2948.134	-906.2498	1	3084.28	-17.08731	4.14937E-006	0.0097957	8
	4	3	398109.4	3058.692	-779.9691	1	3156.573	-14.3056	-1.742789E-006	0.0108805	8
	5	3	316265.6	3138.333	-668.9548	1	3208.836	-12.03286	-1.464083E-006	0.0108474	8
	6	3	251203.1	3199.899	-567.8384	1	3249.892	-10.06267	-4.261642E-007	0.0106017	8
	7	4	199546.9	3252.979	-497.2224	1	3290.76	-8.690478	-1.717891E-007	0.0105348	8
	8	4	158578.1	3282.475	-438.1113	1	3311.583	-7.602327	3.455336E-006	0.009835	8
	9	4	125953.1	3335.294	-354.3625	1	3354.066	-6.064711	7.874715E-007	0.0086965	7
	10	5	100078.1	3355.43	-322.5514	1	3370.897	-5.490868	5.262455E-009	0.0106176	7
	11	5	79453.13	3380.144	-311.7666	1	3394.491	-5.269751	9.635451E-008	0.0103824	7
	12	5	63140.62	3405.324	-307.2974	1	3419.162	-5.156421	6.277654E-008	0.0103895	7
	13	6	50203.12	3430.754	-310.6263	1	3444.788	-5.17355	-2.634971E-008	0.0105181	7
	14	6	39890.62	3456.658	-321.0377	1	3471.534	-5.306134	-4.81589E-008	0.0105871	7
	15	6	31640.63	3484.874	-338.4655	1	3501.271	-5.547407	-6.522221E-008	0.0107094	7
	16	6	25171.88	3513.438	-365.2921	1	3532.377	-5.935715	2.43549E-009	0.0105113	7
	17	7	20015.62	3547.905	-399.4652	1	3570.323	-6.423984	-4.785419E-008	0.0105834	7
	18	7	15890.62	3579.635	-444.0887	1	3607.076	-7.071969	-6.223117E-008	0.0106049	7
	19	7	12609.37	3615.279	-498.9151	1	3649.542	-7.857293	3.073152E-008	0.0104924	7
	20	8	10078.13	3653.933	-565.5407	1	3697.44	-8.798192	-7.306503E-009	0.0105132	7
	21	8	8015.625	3694.035	-654.4932	1	3751.567	-10.04715	-5.395972E-008	0.0106212	7
	22	8	6328.125	3739.5	-759.5554	1	3815.86	-11.48154	-2.597621E-008	0.0105164	7
	23	9	5015.625	3787.273	-892.3052	1	3890.97	-13.25746	-6.28781E-008	0.0106012	7
	24	9	3984.375	3837.654	-1055.036	1	3980.036	-15.37183	3.687141E-008	0.0104038	7
	25	9	3170.956	3898.462	-1252.079	1	4094.595	-17.8056	5.548375E-009	0.0105971	7
	26	10	2527.573	3964.515	-1492.37	1	4236.1	-20.62794	-4.754791E-008	0.0105776	7
	27	10	1976.103	4046.371	-1815.296	1	4434.909	-24.16211	4.804327E-008	0.0104364	7
	28	10	1577.524	4134.338	-2184.601	1	4676.027	-27.85216	3.847477E-008	0.0104	7
	29	11	1265.625	4231.89	-2616.981	1	4975.689	-31.73245	9.841418E-008	0.01037	7
	30	11	998.264	4352.272	-3190.557	1	5396.474	-36.24434	-4.895538E-008	0.0105702	7
	31	11	796.875	4490.635	-3867.052	1	5926.204	-40.73295	-2.512454E-008	0.0105048	7
	32	12	627.7902	4661.232	-4749.97	1	6655.021	-45.54023	3.868153E-009	0.0104974	7
	33	12	505.5147	4851.25	-5726.258	1	7504.976	-49.72894	6.402932E-008	0.0103833	7
	34	12	397.9953	5105.328	-7073.529	1	8723.484	-54.18008	2.83757E-009	0.0105395	7
	35	13	315.5048	5417.475	-8683.316	1	10234.7	-58.04018	2.799416E-010	0.0104799	6
	36	13	252.4038	5791.844	-10585.76	1	12066.64	-61.31537	9.144565E-010	0.0104731	6
	37	13	198.6229	6312.778	-13102.77	1	14544.2	-64.27572	4.279145E-010	0.0104788	6
	38	14	158.3615	6950.288	-16028.09	1	17470.15	-66.55692	8.92425E-010	0.0104752	6
	39	14	125.558	7808.202	-19687.04	1	21178.94	-68.36591	6.297007E-010	0.0104762	6
	40	14	100.4464	8911.494	-23923.81	1	25529.66	-69.5699	2.329384E-010	0.0104761	6
	41	15	79.00281	10545.98	-29528.98	1	31355.67	-70.34633	6.163034E-010	0.0104749	6
	42	15	63.3446	11986.4	-36044	1	37984.78	-71.60551	-2.061977E-010	0.0104742	6
	43	15	49.86702	14748.19	-43934.89	1	46344.18	-71.44398	-3.991926E-010	0.0104738	6
	44	16	39.72458	18564.54	-53131.8	1	56281.7	-70.74031	-4.074565E-011	0.010476	6
	45	16	31.6723	23298.14	-63790.2	1	67911.65	-69.93625	-8.464588E-010	0.0104744	6
	46	16	24.93351	29163.3	-77084.57	1	82416.8	-69.27693	6.823632E-010	0.0104762	6
	47	17	19.86229	36528.41	-91796	1	98796.9	-68.3009	1.942102E-009	0.0104783	6
	48	17	15.83615	46876.22	-109325.2	1	118951.2	-66.79142	-1.994546E-009	0.0104773	5
	49	17	12.40079	60519.89	-129414.8	1	142866.5	-64.93719	1.328037E-009	0.0104771	5
	50	18	9.93114	73292.22	-149951.2	1	166904.5	-63.95182	-7.3835E-010	0.0104797	5
	51	18	7.944915	90349.88	-172569.8	1	194790.7	-62.36544	2.736154E-011	0.0104733	5
	52	19	6.317385	110794.3	-198954	1	227723.7	-60.88726	1.263271E-010	0.0104714	5
	53	20	5.008013	135238.6	-227887.7	1	264994.9	-59.31324	-1.391247E-010	0.0104654	5
	54	21	3.945707	162514.2	-261770	1	308114.3	-58.16682	2.437399E-010	0.0104796	5
	55	22	3.158693	191527.6	-295353.3	1	352017.5	-57.03782	-2.424973E-010	0.0104819	5
	56	24	2.504006	224306.6	-335749.3	1	403783.4	-56.25401	-2.42888E-010	0.0104729	5
	57	25	1.998082	259568.1	-380050.6	1	460232.7	-55.66759	5.198716E-011	0.0105193	5
	58	26	1.584686	297348.4	-433369.6	1	525571.4	-55.54477	-2.417831E-011	0.0104985	5
	59	28	1.266892	338734.2	-492321.6	1	597596.4	-55.47069	-1.0645E-010	0.010456	5
	60	31	0.999041	387923	-567187.3	1	687157.7	-55.63015	-1.543319E-010	0.0104351	5
