EXPLAIN
TAG	EISPOT
TITLE	LABEL	Potentiostatic IDE	Test &Identifier
DATE	LABEL	9/18/2019	Date
TIME	LABEL	8:14:50	Time
NOTES	NOTES	1	&Notes...
	
PSTAT	PSTAT	REF600-11020	Potentiostat
VDC	POTEN	0.00000E+000	T	DC &Voltage (V)
FREQINIT	QUANT	1.00000E+006	Initial Fre&q. (Hz)
FREQFINAL	QUANT	1.00000E+000	Final Fre&q. (Hz)
PTSPERDEC	QUANT	1.00000E+001	Points/&decade
VAC	QUANT	2.50000E+001	AC &Voltage (mV rms)
AREA	QUANT	1.00000E-002	&Area (cm^2)
CONDIT	TWOPARAM	T	5.00000E+000	0.00000E+000	Conditionin&g	Time(s)	E(V)
DELAY	TWOPARAM	T	5.00000E+000	0.00000E+000	Init. De&lay	Time(s)	Stab.(mV/s)
SPEED	SELECTOR	1	&Optimize for:
ZGUESS	QUANT	1.00000E+007	E&stimated Z (ohms)
OCVCURVE	TABLE	18
	Pt	T	Vf	Vm	Ach	Over
	#	s	V vs. Ref.	V	V	bits
	0	0.258333	5.57238E-003	5.57238E-003	5.71632E-004	...........
	1	0.516667	5.57395E-003	5.65483E-003	5.71799E-004	...........
	2	0.775	5.58166E-003	5.62982E-003	5.69999E-004	...........
	3	1.03333	5.60036E-003	5.78755E-003	5.74366E-004	...........
	4	1.29167	5.63438E-003	5.83873E-003	5.73666E-004	...........
	5	1.55	5.68714E-003	5.91343E-003	5.76699E-004	...........
	6	1.80833	5.75504E-003	5.96155E-003	5.68932E-004	...........
	7	2.06667	5.82684E-003	5.98891E-003	5.70299E-004	...........
	8	2.325	5.89183E-003	6.03291E-003	5.68899E-004	...........
	9	2.58333	5.94565E-003	6.07244E-003	5.76499E-004	...........
	10	2.84167	5.98983E-003	6.08027E-003	5.72399E-004	...........
	11	3.1	6.02699E-003	6.11698E-003	5.73032E-004	...........
	12	3.35833	6.05774E-003	6.09709E-003	5.68399E-004	...........
	13	3.61667	6.08256E-003	6.18820E-003	5.73066E-004	...........
	14	3.875	6.10798E-003	6.32824E-003	5.72532E-004	...........
	15	4.13333	6.14709E-003	6.33071E-003	5.73932E-004	...........
	16	4.39167	6.20704E-003	6.50706E-003	5.73232E-004	...........
	17	4.65	6.28007E-003	6.34723E-003	5.73399E-004	...........
EOC	QUANT	0.0063438	Open Circuit (V)
PSTATMODEL	IQUANT	4	Pstat Model
PSTATSECTION	LABEL	REF600-11020	Pstat Section
PSTATSERIALNO	LABEL	11020	Pstat Serial Number
CTRLMODE	IQUANT	1	Control Mode
IESTAB	IQUANT	0	I/E Stability
CASPEED	IQUANT	1	Control Amp Speed
CONVENTION	IQUANT	1	Current Convention
ICHRANGE	IQUANT	2	Ich Range
ICHRANGEMODE	TOGGLE	F	Ich Auto Range
ICHOFFSETENABLE	TOGGLE	T	Ich Offset Enable
ICHOFFSET	QUANT	0	Ich Offset (V)
ICHFILTER	IQUANT	3	Ich Filter
VCHRANGE	IQUANT	2	Vch Range
VCHRANGEMODE	TOGGLE	F	Vch Auto Range
VCHOFFSETENABLE	TOGGLE	T	Vch Offset Enable
VCHOFFSET	QUANT	0	Vch Offset (V)
VCHFILTER	IQUANT	3	Vch Filter
ACHRANGE	IQUANT	2	Ach Range
ACHOFFSETENABLE	TOGGLE	F	Ach Offset Enable
ACHOFFSET	QUANT	0	Ach Offset (V)
ACHFILTER	IQUANT	3	Ach Filter
IERANGELOWERLIMIT	IQUANT	1	I/E Range Lower Limit
IERANGEMODE	TOGGLE	F	I/E AutoRange
IERANGE	IQUANT	3	I/E Range
POSFEEDENABLE	TOGGLE	F	Positive Feedback IR Comp
POSFEEDRESISTANCE	QUANT	0	Positive Feedback Resistance (ohm)
ACHSELECT	IQUANT	0	Ach Select
CABLEID	IQUANT	14	Cable ID
DCCALDATE	LABEL	8/19/2019	DC Calibration Date
ACCALDATE	LABEL	8/19/2019	AC Calibration Date
THERMOSELECT	IQUANT	1	Thermo Select
FRAMEWORKVERSION	QUANT	6.33	Framework Version
INSTRUMENTVERSION	LABEL	3.50	Instrument Version
ZCURVE	TABLE
	Pt	Time	Freq	Zreal	Zimag	Zsig	Zmod	Zphz	Idc	Vdc	IERange
	#	s	Hz	ohm	ohm	V	ohm	°	A	V	#
	0	2	1000078	2089.276	-1689.118	1	2686.669	-38.95452	-1.689469E-006	0.0091034	8
	1	3	794390.6	2430.239	-1665.89	1	2946.396	-34.43001	2.210463E-006	0.0079439	8
	2	5	630984.4	2760.629	-1583.257	1	3182.417	-29.83483	-4.514808E-007	0.0080386	8
	3	6	501234.4	3044.468	-1454.518	1	3374.079	-25.5365	3.18229E-007	0.0080567	8
	4	7	398109.4	3287.397	-1308.858	1	3538.374	-21.70969	1.635163E-006	0.0075274	8
	5	8	316265.6	3477.331	-1153.188	1	3663.56	-18.34709	1.0673E-006	0.0077011	8
	6	10	251203.1	3625.806	-1002.634	1	3761.881	-15.45757	-1.147622E-006	0.0081198	8
	7	11	199546.9	3736.348	-864.7964	1	3835.124	-13.03191	-1.050182E-006	0.0081192	8
	8	13	158578.1	3822.822	-764.0686	1	3898.432	-11.30279	5.858183E-008	0.0078618	8
	9	14	125953.1	3911.304	-638.8797	1	3963.139	-9.276874	3.345919E-008	0.0077441	7
	10	15	100078.1	3956.296	-560.9125	1	3995.861	-8.069452	4.757659E-009	0.0078201	7
	11	17	79453.13	4002.148	-507.8685	1	4034.244	-7.232121	6.512618E-009	0.0078949	7
	12	18	63140.62	4043.349	-473.6893	1	4071.002	-6.681897	-1.141328E-008	0.0078993	7
	13	19	50203.12	4081.958	-449.6194	1	4106.646	-6.285676	-1.855332E-008	0.0078389	7
	14	21	39890.62	4120.306	-439.2217	1	4143.65	-6.084712	-2.84484E-008	0.0078817	7
	15	22	31640.63	4155.929	-437.8406	1	4178.929	-6.014111	7.623669E-009	0.0078855	7
	16	23	25171.88	4193.377	-448.9897	1	4217.345	-6.111442	3.662293E-008	0.0077398	7
	17	25	20015.62	4232.404	-470.8779	1	4258.517	-6.348359	7.045499E-009	0.0078063	7
	18	26	15890.62	4272.616	-506.0146	1	4302.476	-6.754195	-1.844391E-008	0.0078813	7
	19	27	12609.37	4316.806	-551.5333	1	4351.896	-7.280904	3.989216E-008	0.0077667	7
	20	29	10078.13	4361.483	-612.5386	1	4404.286	-7.994489	-3.555955E-009	0.0078074	7
	21	30	8015.625	4409.334	-688.3237	1	4462.737	-8.872607	-2.418066E-008	0.0078815	7
	22	31	6328.125	4462.852	-787.3913	1	4531.78	-10.00585	3.659951E-008	0.0077406	7
	23	33	5015.625	4520.178	-910.8682	1	4611.04	-11.39318	4.129858E-008	0.0078253	7
	24	34	3984.375	4582.852	-1060.527	1	4703.961	-13.02958	1.782509E-008	0.0077695	7
	25	35	3170.956	4650.657	-1244.39	1	4814.262	-14.97989	-2.403062E-008	0.0078473	7
	26	37	2527.573	4728.99	-1467.857	1	4951.56	-17.24411	-1.937531E-008	0.0078356	7
	27	38	1976.103	4824.341	-1768.275	1	5138.197	-20.12949	-2.474792E-008	0.0078686	7
	28	39	1577.524	4925.654	-2104.87	1	5356.542	-23.13837	9.259842E-009	0.0078222	7
	29	41	1265.625	5027.912	-2502.473	1	5616.25	-26.46027	1.084599E-008	0.0078212	7
	30	42	998.264	5182.055	-3028.037	1	6001.892	-30.29908	-2.274002E-008	0.007875	7
	31	43	796.875	5338.495	-3632.609	1	6457.195	-34.23355	-2.380767E-008	0.0078687	7
	32	45	627.7902	5533.43	-4423.51	1	7084.228	-38.63939	1.088506E-008	0.0078752	7
	33	46	505.5147	5747.267	-5291.904	1	7812.51	-42.63791	-5.367653E-009	0.0077905	7
	34	47	397.9953	6020.754	-6474.715	1	8841.46	-47.08064	6.874742E-009	0.0078437	7
	35	49	315.5048	6345.718	-7889.544	1	10124.87	-51.18958	2.172523E-009	0.00779	6
	36	50	252.4038	6727.507	-9555.65	1	11686.31	-54.85313	2.453519E-009	0.0077841	6
	37	51	198.6229	7239.362	-11755.61	1	13805.9	-58.37433	2.048828E-009	0.0077897	6
	38	53	158.3615	7856.216	-14315.92	1	16329.9	-61.24313	2.167137E-009	0.0077804	6
	39	54	125.558	8681.761	-17523.24	1	19556	-63.64423	2.181815E-009	0.0077883	6
	40	55	100.4464	9712.21	-21264.32	1	23377.3	-65.45205	1.214321E-009	0.0077893	6
	41	57	79.00281	11190.25	-26154.23	1	28447.6	-66.83604	2.100607E-009	0.0077882	6
	42	58	63.3446	13166.19	-31748.84	1	34370.59	-67.4763	1.809682E-009	0.0077924	6
	43	59	49.86702	15556.74	-38686.7	1	41697.4	-68.09389	2.105034E-009	0.00778	6
	44	61	39.72458	18997.83	-46622.54	1	50344.6	-67.83	-2.366825E-009	0.0077914	6
	45	62	31.6723	23352.41	-55738.35	1	60432.6	-67.26804	1.383845E-008	0.007794	6
	46	63	24.93351	29513.56	-67128.55	1	73330.02	-66.26696	5.166548E-010	0.007788	6
	47	65	19.86229	36992.67	-79324.9	1	87526.55	-64.99831	2.345824E-009	0.0077971	6
	48	66	15.83615	46059.91	-93285.33	1	104036.9	-63.722	9.874026E-010	0.0077965	5
	49	67	12.40079	58687.39	-109671.4	1	124386.6	-61.84786	9.735716E-010	0.0078003	5
	50	69	9.93114	73302.41	-125218.5	1	145096.2	-59.65546	1.326759E-009	0.0077913	5
	51	70	7.944915	89695.93	-142024.7	1	167977.3	-57.72548	2.271507E-009	0.0077895	5
	52	72	6.317385	109819.4	-160465.3	1	194446.4	-55.613	1.750289E-009	0.0077817	5
	53	74	5.008013	133053.7	-179975	1	223817.5	-53.52486	7.104451E-010	0.0077898	5
	54	77	3.945707	159270.7	-194577.8	1	251451.1	-50.69812	2.560887E-010	0.0077972	5
	55	79	3.158693	187579.6	-220621.2	1	289585.7	-49.62769	5.828453E-010	0.0077809	5
	56	83	2.504006	218457.7	-241944.8	1	325977	-47.92038	2.187477E-009	0.0077984	5
	57	85	1.998082	251452.4	-263470.2	1	364204.4	-46.33699	1.62808E-009	0.0078306	5
	58	88	1.584686	286309.8	-287751.7	1	405924	-45.14391	1.649835E-009	0.0077968	5
	59	92	1.266892	323574.7	-312224.8	1	449649.7	-43.9773	1.07494E-009	0.0078284	5
	60	96	0.999041	363864.7	-342483.6	1	499692.4	-43.26619	1.411646E-009	0.0077584	5
