EXPLAIN
TAG	EISPOT
TITLE	LABEL	Potentiostatic EIS	Test &Identifier
DATE	LABEL	11/20/2019	Date
TIME	LABEL	11:01:53	Time
NOTES	NOTES	4	&Notes...
	
	
	
	
PSTAT	PSTAT	REF600-11020	Potentiostat
VDC	POTEN	0.00000E+000	T	DC &Voltage (V)
FREQINIT	QUANT	1.00000E+006	Initial Fre&q. (Hz)
FREQFINAL	QUANT	1.00000E+000	Final Fre&q. (Hz)
PTSPERDEC	QUANT	1.00000E+001	Points/&decade
VAC	QUANT	2.50000E+001	AC &Voltage (mV rms)
AREA	QUANT	1.00000E-002	&Area (cm^2)
CONDIT	TWOPARAM	T	5.00000E+000	0.00000E+000	Conditionin&g	Time(s)	E(V)
DELAY	TWOPARAM	T	5.00000E+000	0.00000E+000	Init. De&lay	Time(s)	Stab.(mV/s)
SPEED	SELECTOR	1	&Optimize for:
ZGUESS	QUANT	1.00000E+005	E&stimated Z (ohms)
OCVCURVE	TABLE	19
	Pt	T	Vf	Vm	Ach	Over
	#	s	V vs. Ref.	V	V	bits
	0	0.258333	4.35975E-003	4.35975E-003	5.37799E-004	...........
	1	0.516667	4.35533E-003	4.12831E-003	5.49266E-004	...........
	2	0.775	4.32850E-003	3.92584E-003	5.43366E-004	...........
	3	1.03333	4.25372E-003	3.73368E-003	5.35233E-004	...........
	4	1.29167	4.12291E-003	3.58644E-003	5.37133E-004	...........
	5	1.55	3.95512E-003	3.43855E-003	5.42266E-004	...........
	6	1.80833	3.77869E-003	3.31147E-003	5.44699E-004	...........
	7	2.06667	3.61246E-003	3.18843E-003	5.43166E-004	...........
	8	2.325	3.46266E-003	3.08876E-003	5.38466E-004	...........
	9	2.58333	3.32882E-003	2.98561E-003	5.36466E-004	...........
	10	2.84167	3.20863E-003	2.89381E-003	5.36166E-004	...........
	11	3.1	3.09945E-003	2.80941E-003	5.36066E-004	...........
	12	3.35833	2.99902E-003	2.72766E-003	5.36499E-004	...........
	13	3.61667	2.90571E-003	2.64157E-003	5.28633E-004	...........
	14	3.875	2.81771E-003	2.56472E-003	5.33766E-004	...........
	15	4.13333	2.73304E-003	2.47483E-003	5.31866E-004	...........
	16	4.39167	2.64996E-003	2.39851E-003	5.33666E-004	...........
	17	4.65	2.56714E-003	2.30064E-003	5.36766E-004	...........
	18	4.90833	2.48326E-003	2.20788E-003	5.33500E-004	...........
EOC	QUANT	0.0024833	Open Circuit (V)
PSTATMODEL	IQUANT	4	Pstat Model
PSTATSECTION	LABEL	REF600-11020	Pstat Section
PSTATSERIALNO	LABEL	11020	Pstat Serial Number
CTRLMODE	IQUANT	1	Control Mode
IESTAB	IQUANT	0	I/E Stability
CASPEED	IQUANT	1	Control Amp Speed
CONVENTION	IQUANT	1	Current Convention
ICHRANGE	IQUANT	2	Ich Range
ICHRANGEMODE	TOGGLE	F	Ich Auto Range
ICHOFFSETENABLE	TOGGLE	T	Ich Offset Enable
ICHOFFSET	QUANT	0	Ich Offset (V)
ICHFILTER	IQUANT	3	Ich Filter
VCHRANGE	IQUANT	2	Vch Range
VCHRANGEMODE	TOGGLE	F	Vch Auto Range
VCHOFFSETENABLE	TOGGLE	T	Vch Offset Enable
VCHOFFSET	QUANT	0	Vch Offset (V)
VCHFILTER	IQUANT	3	Vch Filter
ACHRANGE	IQUANT	2	Ach Range
ACHOFFSETENABLE	TOGGLE	F	Ach Offset Enable
ACHOFFSET	QUANT	0	Ach Offset (V)
ACHFILTER	IQUANT	3	Ach Filter
IERANGELOWERLIMIT	IQUANT	1	I/E Range Lower Limit
IERANGEMODE	TOGGLE	F	I/E AutoRange
IERANGE	IQUANT	4	I/E Range
POSFEEDENABLE	TOGGLE	F	Positive Feedback IR Comp
POSFEEDRESISTANCE	QUANT	0	Positive Feedback Resistance (ohm)
ACHSELECT	IQUANT	0	Ach Select
CABLEID	IQUANT	14	Cable ID
DCCALDATE	LABEL	8/19/2019	DC Calibration Date
ACCALDATE	LABEL	8/19/2019	AC Calibration Date
THERMOSELECT	IQUANT	1	Thermo Select
FRAMEWORKVERSION	QUANT	6.33	Framework Version
INSTRUMENTVERSION	LABEL	3.50	Instrument Version
ZCURVE	TABLE
	Pt	Time	Freq	Zreal	Zimag	Zsig	Zmod	Zphz	Idc	Vdc	IERange
	#	s	Hz	ohm	ohm	V	ohm	°	A	V	#
	0	2	1000078	2059.132	-1590.503	1	2601.87	-37.68301	5.979874E-006	0.004181	8
	1	3	794390.6	2381.774	-1571.076	1	2853.266	-33.40982	-2.558539E-006	0.0049812	8
	2	4	630984.4	2675.888	-1488.476	1	3062.015	-29.08521	-1.737043E-006	0.0044639	8
	3	6	501234.4	2931.906	-1383.207	1	3241.81	-25.25688	1.001219E-006	0.004552	8
	4	7	398109.4	3140.021	-1274.029	1	3388.641	-22.08431	5.481553E-006	0.0034332	8
	5	8	316265.6	3320.315	-1145.202	1	3512.261	-19.02971	5.243568E-006	0.0030415	8
	6	10	251203.1	3472.608	-1029.12	1	3621.891	-16.50738	-2.515745E-006	0.0045302	8
	7	11	199546.9	3589.621	-942.3376	1	3711.25	-14.70923	-4.086093E-006	0.0044103	8
	8	12	158578.1	3686.753	-856.3525	1	3784.903	-13.07668	5.387338E-006	0.0030654	8
	9	14	125953.1	3802.814	-762.2752	1	3878.461	-11.33474	3.570178E-006	-0.0021334	7
	10	15	100078.1	3866.582	-717.0574	1	3932.509	-10.50614	6.994586E-007	0.0024176	7
	11	16	79453.13	3940.138	-698.5101	1	4001.575	-10.05298	4.287655E-007	0.0025202	7
	12	18	63140.62	4013.158	-690.9833	1	4072.21	-9.76937	-6.732097E-007	0.0039062	7
	13	19	50203.12	4085.09	-697.5803	1	4144.222	-9.6905	-2.903575E-007	0.003268	7
	14	20	39890.62	4160.501	-714.7745	1	4221.454	-9.74826	-6.74027E-007	0.0038917	7
	15	22	31640.63	4239.099	-744.7429	1	4304.021	-9.96428	4.306173E-007	0.0025061	7
	16	23	25171.88	4321.121	-785.2422	1	4391.89	-10.2995	9.88637E-007	0.0026773	7
	17	25	20015.62	4402.876	-836.9329	1	4481.716	-10.76282	-9.616928E-007	0.0045064	7
	18	26	15890.62	4498.88	-904.8341	1	4588.97	-11.37186	8.897032E-007	0.0024804	7
	19	27	12609.37	4597.449	-983.944	1	4701.562	-12.08017	3.649365E-007	0.0044822	7
	20	29	10078.13	4703.458	-1078.281	1	4825.474	-12.9121	7.777544E-008	0.0048808	7
	21	30	8015.625	4810.873	-1181.056	1	4953.725	-13.79317	7.724881E-008	0.0048749	7
	22	31	6328.125	4946.872	-1329.091	1	5122.306	-15.03869	9.889715E-007	0.0026784	7
	23	33	5015.625	5077.333	-1485.456	1	5290.168	-16.30769	-1.114286E-006	0.0050144	7
	24	34	3984.375	5212.497	-1672.271	1	5474.177	-17.78726	-1.112185E-006	0.0053426	7
	25	35	3170.956	5359.064	-1892.131	1	5683.285	-19.44666	-6.728909E-007	0.0038916	7
	26	37	2527.573	5507.472	-2162.591	1	5916.845	-21.4382	5.67686E-007	0.0041889	7
	27	38	1976.103	5671.492	-2515.692	1	6204.396	-23.92054	-1.113395E-006	0.0050175	7
	28	40	1577.524	5840.037	-2930.33	1	6533.978	-26.64592	-1.115147E-006	0.0050235	7
	29	41	1265.625	6003.512	-3409.294	1	6904.017	-29.59151	7.683836E-007	0.0037918	7
	30	43	998.264	6197.493	-4065.127	1	7411.759	-33.26211	9.332615E-007	0.0033479	7
	31	44	796.875	6410.79	-4826.372	1	8024.468	-36.97431	-9.92522E-007	0.0054929	7
	32	45	627.7902	6660.15	-5843.721	1	8860.399	-41.26423	9.023131E-008	0.0027781	7
	33	47	505.5147	6919.234	-6982.303	1	9829.97	-45.25994	9.872925E-007	0.002675	7
	34	48	397.9953	7278.429	-8508.072	1	11196.55	-49.4539	2.267136E-009	0.004037	7
	35	49	315.5048	7697.663	-10349.3	1	12898.14	-53.35865	9.810065E-010	0.0039754	6
	36	51	252.4038	8187.018	-12517.92	1	14957.46	-56.81435	2.728213E-010	0.0039815	6
	37	52	198.6229	8834.587	-15374.74	1	17732.25	-60.1176	8.346024E-010	0.0039833	6
	38	54	158.3615	9598.01	-18683.38	1	21004.54	-62.80958	9.765744E-010	0.0039775	6
	39	55	125.558	10571.68	-22839.05	1	25167.1	-65.16164	5.036363E-010	0.0039819	6
	40	56	100.4464	11751.88	-27726.07	1	30113.81	-67.03002	-2.649407E-011	0.0039694	6
	41	58	79.00281	13412.39	-34184.32	1	36721.38	-68.57718	1.021755E-010	0.0039712	6
	42	59	63.3446	15488.08	-41642.56	1	44429.53	-69.59837	7.290092E-011	0.0039727	6
	43	60	49.86702	17795.41	-50697.06	1	53729.59	-70.65817	5.157551E-012	0.0039715	6
	44	62	39.72458	21487.9	-61565.84	1	65208	-70.75983	3.532483E-010	0.0039637	6
	45	63	31.6723	26041.35	-74813.22	1	79215.97	-70.80776	-4.360913E-010	0.0039731	6
	46	65	24.93351	32428.77	-91070.76	1	96672.2	-70.40004	6.917072E-010	0.0039659	6
	47	66	19.86229	40573.15	-109487.2	1	116763.1	-69.66659	7.637502E-013	0.0039759	5
	48	67	15.83615	50818.9	-131376.4	1	140862.8	-68.85258	1.291706E-009	0.0039705	5
	49	69	12.40079	64759.02	-158023.3	1	170777.9	-67.71584	2.227847E-010	0.0039706	5
	50	70	9.93114	83742.68	-185284.1	1	203329.9	-65.6785	7.372181E-010	0.0039654	5
	51	72	7.944915	104882.7	-215455.6	1	239627.9	-64.04341	-5.329301E-010	0.0039742	5
	52	73	6.317385	133319.4	-250037.2	1	283359.6	-61.93354	-1.603409E-010	0.0039631	5
	53	76	5.008013	166949.9	-286899.2	1	331938.9	-59.80439	-8.625053E-011	0.0039557	5
	54	78	3.945707	206808.7	-326395.8	1	386398.8	-57.64111	4.561677E-010	0.0039756	5
	55	81	3.158693	249409.8	-366230.4	1	443091.4	-55.74441	-1.053398E-010	0.0039605	5
	56	84	2.504006	297885.5	-408003.2	1	505175.6	-53.8666	9.244541E-010	0.0039575	5
	57	87	1.998082	347296.5	-452141.8	1	570129	-52.47163	2.419298E-010	0.0040075	5
	58	90	1.584686	398943.3	-501893.8	1	641134.3	-51.51965	3.278587E-010	0.0039455	5
	59	94	1.266892	452599.4	-557979.9	1	718462.1	-50.95313	2.555223E-010	0.0039888	5
	60	98	0.999041	511889.6	-627261.7	1	809622.3	-50.78314	-8.58244E-011	0.003923	5
