EXPLAIN
TAG	EISPOT
TITLE	LABEL	Potentiostatic IDE	Test &Identifier
DATE	LABEL	9/8/2019	Date
TIME	LABEL	9:40:53	Time
NOTES	NOTES	1	&Notes...
	
PSTAT	PSTAT	REF600-11020	Potentiostat
VDC	POTEN	0.00000E+000	T	DC &Voltage (V)
FREQINIT	QUANT	1.00000E+006	Initial Fre&q. (Hz)
FREQFINAL	QUANT	1.00000E+000	Final Fre&q. (Hz)
PTSPERDEC	QUANT	1.00000E+001	Points/&decade
VAC	QUANT	2.50000E+001	AC &Voltage (mV rms)
AREA	QUANT	1.00000E-002	&Area (cm^2)
CONDIT	TWOPARAM	T	5.00000E+000	0.00000E+000	Conditionin&g	Time(s)	E(V)
DELAY	TWOPARAM	T	5.00000E+000	0.00000E+000	Init. De&lay	Time(s)	Stab.(mV/s)
SPEED	SELECTOR	1	&Optimize for:
ZGUESS	QUANT	1.00000E+007	E&stimated Z (ohms)
OCVCURVE	TABLE	19
	Pt	T	Vf	Vm	Ach	Over
	#	s	V vs. Ref.	V	V	bits
	0	0.258333	5.18969E-003	5.18969E-003	4.99500E-004	...........
	1	0.516667	5.18559E-003	4.97520E-003	4.95767E-004	...........
	2	0.775	5.16048E-003	4.77445E-003	4.88767E-004	...........
	3	1.03333	5.08966E-003	4.58494E-003	4.88700E-004	...........
	4	1.29167	4.96426E-003	4.44108E-003	4.90900E-004	...........
	5	1.55	4.80172E-003	4.29650E-003	4.92600E-004	...........
	6	1.80833	4.62951E-003	4.16699E-003	4.94000E-004	...........
	7	2.06667	4.46627E-003	4.04487E-003	4.93433E-004	...........
	8	2.325	4.31776E-003	3.92245E-003	5.01800E-004	...........
	9	2.58333	4.18234E-003	3.81637E-003	4.96867E-004	...........
	10	2.84167	4.05699E-003	3.72217E-003	4.90434E-004	...........
	11	3.1	3.94022E-003	3.61714E-003	4.92333E-004	...........
	12	3.35833	3.83097E-003	3.51756E-003	4.98667E-004	...........
	13	3.61667	3.72706E-003	3.42250E-003	4.95000E-004	...........
	14	3.875	3.62633E-003	3.33090E-003	4.91167E-004	...........
	15	4.13333	3.52809E-003	3.24055E-003	4.96467E-004	...........
	16	4.39167	3.43253E-003	3.15549E-003	4.92067E-004	...........
	17	4.65	3.33993E-003	3.07135E-003	4.94033E-004	...........
	18	4.90833	3.25040E-003	2.99264E-003	4.97633E-004	...........
EOC	QUANT	0.0032504	Open Circuit (V)
PSTATMODEL	IQUANT	4	Pstat Model
PSTATSECTION	LABEL	REF600-11020	Pstat Section
PSTATSERIALNO	LABEL	11020	Pstat Serial Number
CTRLMODE	IQUANT	1	Control Mode
IESTAB	IQUANT	0	I/E Stability
CASPEED	IQUANT	1	Control Amp Speed
CONVENTION	IQUANT	1	Current Convention
ICHRANGE	IQUANT	2	Ich Range
ICHRANGEMODE	TOGGLE	F	Ich Auto Range
ICHOFFSETENABLE	TOGGLE	T	Ich Offset Enable
ICHOFFSET	QUANT	0	Ich Offset (V)
ICHFILTER	IQUANT	3	Ich Filter
VCHRANGE	IQUANT	2	Vch Range
VCHRANGEMODE	TOGGLE	F	Vch Auto Range
VCHOFFSETENABLE	TOGGLE	T	Vch Offset Enable
VCHOFFSET	QUANT	0	Vch Offset (V)
VCHFILTER	IQUANT	3	Vch Filter
ACHRANGE	IQUANT	2	Ach Range
ACHOFFSETENABLE	TOGGLE	F	Ach Offset Enable
ACHOFFSET	QUANT	0	Ach Offset (V)
ACHFILTER	IQUANT	3	Ach Filter
IERANGELOWERLIMIT	IQUANT	1	I/E Range Lower Limit
IERANGEMODE	TOGGLE	F	I/E AutoRange
IERANGE	IQUANT	2	I/E Range
POSFEEDENABLE	TOGGLE	F	Positive Feedback IR Comp
POSFEEDRESISTANCE	QUANT	0	Positive Feedback Resistance (ohm)
ACHSELECT	IQUANT	0	Ach Select
CABLEID	IQUANT	14	Cable ID
DCCALDATE	LABEL	8/19/2019	DC Calibration Date
ACCALDATE	LABEL	8/19/2019	AC Calibration Date
THERMOSELECT	IQUANT	1	Thermo Select
FRAMEWORKVERSION	QUANT	6.33	Framework Version
INSTRUMENTVERSION	LABEL	3.50	Instrument Version
ZCURVE	TABLE
	Pt	Time	Freq	Zreal	Zimag	Zsig	Zmod	Zphz	Idc	Vdc	IERange
	#	s	Hz	ohm	ohm	V	ohm	°	A	V	#
	0	2	1000078	2710.699	-1710.875	1	3205.461	-32.25833	3.138994E-006	0.0048696	8
	1	4	794390.6	3057.477	-1599.307	1	3450.5	-27.61319	-8.280563E-006	0.0069304	8
	2	5	630984.4	3329.653	-1439.084	1	3627.334	-23.37412	-4.306041E-007	0.0055767	8
	3	7	501234.4	3554.452	-1273.451	1	3775.686	-19.71105	-4.54611E-006	0.0059976	8
	4	8	398109.4	3722.057	-1080.174	1	3875.627	-16.18319	5.167408E-006	0.0041249	8
	5	9	316265.6	3862.536	-961.431	1	3980.393	-13.97755	2.229791E-006	0.0044573	8
	6	11	251203.1	3947.717	-808.0342	1	4029.564	-11.56775	2.359551E-006	0.0044787	8
	7	12	199546.9	4002.476	-669.3789	1	4058.064	-9.494349	2.30117E-006	0.004484	8
	8	14	158578.1	4082.712	-608.1558	1	4127.759	-8.472411	8.361259E-007	0.0046958	8
	9	15	125953.1	4124.713	-487.4733	1	4153.418	-6.740155	4.024555E-007	0.0040276	7
	10	17	100078.1	4158.476	-446.4587	1	4182.374	-6.127867	3.394963E-009	0.0048155	7
	11	18	79453.13	4190.446	-426.685	1	4212.113	-5.814007	-5.201261E-008	0.0049346	7
	12	19	63140.62	4225.421	-413.519	1	4245.607	-5.589427	-2.657474E-008	0.0048757	7
	13	21	50203.12	4255.778	-414.9888	1	4275.963	-5.56941	-5.215636E-008	0.0049255	7
	14	22	39890.62	4294.49	-424.0237	1	4315.373	-5.638918	-2.386654E-008	0.0049518	7
	15	23	31640.63	4325.383	-448.704	1	4348.595	-5.922531	-1.412147E-008	0.0049401	7
	16	25	25171.88	4365.182	-482.0736	1	4391.721	-6.301984	1.613305E-007	0.0046493	7
	17	26	20015.62	4406.555	-529.0721	1	4438.203	-6.846433	-3.338035E-008	0.0048838	7
	18	27	15890.62	4454.791	-588.3938	1	4493.481	-7.524138	-2.339148E-008	0.0048764	7
	19	29	12609.37	4504.481	-661.787	1	4552.836	-8.357959	1.607664E-007	0.0046455	7
	20	30	10078.13	4561.476	-748.6746	1	4622.507	-9.320847	1.044681E-007	0.0046689	7
	21	31	8015.625	4625.161	-858.1815	1	4704.104	-10.51148	-4.310777E-009	0.0049185	7
	22	33	6328.125	4700.743	-992.063	1	4804.287	-11.91705	3.898733E-008	0.004851	7
	23	34	5015.625	4784.207	-1151.567	1	4920.848	-13.53375	-4.63118E-008	0.0049141	7
	24	35	3984.375	4878.638	-1342.735	1	5060.044	-15.38836	-6.265704E-009	0.004909	7
	25	37	3170.956	4985.465	-1565.644	1	5225.524	-17.43447	-2.705762E-008	0.0050345	7
	26	38	2527.573	5105.461	-1831.813	1	5424.138	-19.73772	5.683664E-008	0.0046953	7
	27	39	1976.103	5256.521	-2179.358	1	5690.397	-22.51894	9.566692E-008	0.0047157	7
	28	41	1577.524	5419.149	-2563.199	1	5994.762	-25.31364	-4.510225E-008	0.004908	7
	29	42	1265.625	5592.079	-3006.439	1	6349.018	-28.26357	-7.849697E-008	0.0049796	7
	30	43	998.264	5814.602	-3578.672	1	6827.627	-31.61076	1.617075E-007	0.004643	7
	31	45	796.875	6054.523	-4233.947	1	7388.068	-34.96522	-1.012065E-008	0.0049156	7
	32	46	627.7902	6337.921	-5071.383	1	8117.153	-38.66558	-5.950491E-008	0.0049989	7
	33	47	505.5147	6637.869	-5982.254	1	8935.809	-42.02616	4.054596E-008	0.0048357	7
	34	49	397.9953	7013.294	-7209.976	1	10058.33	-45.79224	1.067908E-009	0.0048385	6
	35	50	315.5048	7434.407	-8667.138	1	11418.83	-49.37801	1.028802E-009	0.0048308	6
	36	51	252.4038	7901.597	-10372.39	1	13039.24	-52.70016	1.997236E-009	0.0048332	6
	37	53	198.6229	8496.166	-12609.01	1	15204.34	-56.02724	1.561263E-009	0.0048311	6
	38	54	158.3615	9161.215	-15194.72	1	17742.81	-58.91334	1.931164E-009	0.0048245	6
	39	56	125.558	9980.44	-18426.96	1	20956.2	-61.55907	1.445438E-009	0.0048286	6
	40	57	100.4464	10954.53	-22198.57	1	24754.35	-63.73463	8.691802E-010	0.0048224	6
	41	58	79.00281	12171.98	-27250.02	1	29844.94	-65.93075	8.210199E-010	0.0048256	6
	42	60	63.3446	13626.96	-32473.3	1	35216.61	-67.23533	1.509641E-009	0.0048238	6
	43	61	49.86702	15577.48	-40340.01	1	43243.2	-68.88571	1.501828E-009	0.004827	6
	44	62	39.72458	17683.69	-48640.12	1	51754.94	-70.02067	1.600086E-009	0.0048218	6
	45	64	31.6723	20549.48	-59162.84	1	62630.04	-70.84596	6.269454E-010	0.0048213	6
	46	65	24.93351	24163.66	-72418.35	1	76343.3	-71.54781	1.051816E-009	0.0048152	6
	47	66	19.86229	28685.09	-87827.8	1	92393.48	-71.91265	1.739888E-009	0.0048286	6
	48	68	15.83615	34019.67	-106041	1	111364.5	-72.21292	4.787893E-010	0.0048233	5
	49	69	12.40079	43093.91	-129902	1	136863.5	-71.64716	1.513119E-009	0.0048196	5
	50	70	9.93114	52052.35	-156319.1	1	164757.7	-71.58287	9.77735E-010	0.0048278	5
	51	72	7.944915	65149.74	-187194.3	1	198207.5	-70.81043	6.10279E-010	0.0048164	5
	52	74	6.317385	81101.68	-224889.6	1	239066.5	-70.16924	4.537506E-010	0.0048253	5
	53	76	5.008013	102337.1	-269319.1	1	288107	-69.19398	1.908084E-010	0.0048236	5
	54	78	3.945707	129714.1	-322442.5	1	347555.7	-68.08576	4.672217E-010	0.004831	5
	55	81	3.158693	162130.3	-379033.2	1	412252.8	-66.84133	3.068503E-010	0.0048438	5
	56	84	2.504006	203149.1	-446880.6	1	490888.8	-65.55375	1.330239E-010	0.0048219	5
	57	87	1.998082	251514.6	-521067.5	1	578593.9	-64.23381	9.093235E-011	0.0048002	5
	58	90	1.584686	311747	-604156.6	1	679846.6	-62.7061	1.487801E-010	0.0048593	5
	59	93	1.266892	380457.9	-696151	1	793331.3	-61.34267	1.554146E-010	0.0047807	5
	60	98	0.999041	465631.9	-801945.9	1	927324.3	-59.85937	2.359908E-010	0.0048694	5
