EXPLAIN
TAG	EISPOT
TITLE	LABEL	Potentiostatic EIS	Test &Identifier
DATE	LABEL	10/18/2019	Date
TIME	LABEL	10:10:50	Time
NOTES	NOTES	1	&Notes...
	
PSTAT	PSTAT	REF600-11020	Potentiostat
VDC	POTEN	0.00000E+000	T	DC &Voltage (V)
FREQINIT	QUANT	1.00000E+006	Initial Fre&q. (Hz)
FREQFINAL	QUANT	1.00000E+000	Final Fre&q. (Hz)
PTSPERDEC	QUANT	1.00000E+001	Points/&decade
VAC	QUANT	2.50000E+001	AC &Voltage (mV rms)
AREA	QUANT	1.00000E-002	&Area (cm^2)
CONDIT	TWOPARAM	T	5.00000E+000	0.00000E+000	Conditionin&g	Time(s)	E(V)
DELAY	TWOPARAM	T	5.00000E+000	0.00000E+000	Init. De&lay	Time(s)	Stab.(mV/s)
SPEED	SELECTOR	0	&Optimize for:
ZGUESS	QUANT	1.00000E+005	E&stimated Z (ohms)
OCVCURVE	TABLE	19
	Pt	T	Vf	Vm	Ach	Over
	#	s	V vs. Ref.	V	V	bits
	0	0.258333	9.53557E-003	9.53557E-003	5.35633E-004	...........
	1	0.516667	9.52807E-003	9.14316E-003	5.35499E-004	...........
	2	0.775	9.48426E-003	8.88728E-003	5.36999E-004	...........
	3	1.03333	9.36629E-003	8.56924E-003	5.35033E-004	...........
	4	1.29167	9.16677E-003	8.43649E-003	5.28566E-004	...........
	5	1.55	8.92330E-003	8.36514E-003	5.32366E-004	...........
	6	1.80833	8.69225E-003	8.29720E-003	5.31300E-004	...........
	7	2.06667	8.50567E-003	7.89031E-003	5.32866E-004	...........
	8	2.325	8.32387E-003	6.60056E-003	5.38466E-004	...........
	9	2.58333	8.03849E-003	6.43706E-003	5.27933E-004	...........
	10	2.84167	7.61266E-003	7.29559E-003	5.37433E-004	...........
	11	3.1	7.20363E-003	7.28985E-003	5.36399E-004	...........
	12	3.35833	7.00921E-003	7.33121E-003	5.33033E-004	...........
	13	3.61667	7.03748E-003	7.17890E-003	5.33033E-004	...........
	14	3.875	7.14088E-003	7.00831E-003	5.28166E-004	...........
	15	4.13333	7.19105E-003	6.91875E-003	5.33033E-004	...........
	16	4.39167	7.15656E-003	6.98077E-003	5.31966E-004	...........
	17	4.65	7.08094E-003	7.08668E-003	5.26833E-004	...........
	18	4.90833	7.02494E-003	7.08260E-003	5.27666E-004	...........
EOC	QUANT	0.0070249	Open Circuit (V)
PSTATMODEL	IQUANT	4	Pstat Model
PSTATSECTION	LABEL	REF600-11020	Pstat Section
PSTATSERIALNO	LABEL	11020	Pstat Serial Number
CTRLMODE	IQUANT	1	Control Mode
IESTAB	IQUANT	0	I/E Stability
CASPEED	IQUANT	1	Control Amp Speed
CONVENTION	IQUANT	1	Current Convention
ICHRANGE	IQUANT	2	Ich Range
ICHRANGEMODE	TOGGLE	F	Ich Auto Range
ICHOFFSETENABLE	TOGGLE	T	Ich Offset Enable
ICHOFFSET	QUANT	0	Ich Offset (V)
ICHFILTER	IQUANT	3	Ich Filter
VCHRANGE	IQUANT	2	Vch Range
VCHRANGEMODE	TOGGLE	F	Vch Auto Range
VCHOFFSETENABLE	TOGGLE	T	Vch Offset Enable
VCHOFFSET	QUANT	0	Vch Offset (V)
VCHFILTER	IQUANT	3	Vch Filter
ACHRANGE	IQUANT	2	Ach Range
ACHOFFSETENABLE	TOGGLE	F	Ach Offset Enable
ACHOFFSET	QUANT	0	Ach Offset (V)
ACHFILTER	IQUANT	3	Ach Filter
IERANGELOWERLIMIT	IQUANT	1	I/E Range Lower Limit
IERANGEMODE	TOGGLE	F	I/E AutoRange
IERANGE	IQUANT	5	I/E Range
POSFEEDENABLE	TOGGLE	F	Positive Feedback IR Comp
POSFEEDRESISTANCE	QUANT	0	Positive Feedback Resistance (ohm)
ACHSELECT	IQUANT	0	Ach Select
CABLEID	IQUANT	14	Cable ID
DCCALDATE	LABEL	8/19/2019	DC Calibration Date
ACCALDATE	LABEL	8/19/2019	AC Calibration Date
THERMOSELECT	IQUANT	1	Thermo Select
FRAMEWORKVERSION	QUANT	6.33	Framework Version
INSTRUMENTVERSION	LABEL	3.50	Instrument Version
ZCURVE	TABLE
	Pt	Time	Freq	Zreal	Zimag	Zsig	Zmod	Zphz	Idc	Vdc	IERange
	#	s	Hz	ohm	ohm	V	ohm	°	A	V	#
	0	1	1000078	2828.747	-2106.752	1	3527.069	-36.67746	1.654199E-006	0.0083129	8
	1	1	794390.6	3240.792	-2061.458	1	3840.877	-32.46031	-4.545708E-006	0.0097307	8
	2	2	630984.4	3611.069	-1965.184	1	4111.176	-28.55553	5.910916E-007	0.0087557	8
	3	2	501234.4	3979.588	-1805.196	1	4369.88	-24.3997	4.380122E-006	0.0079494	8
	4	2	398109.4	4264.925	-1662.466	1	4577.486	-21.29581	-5.710698E-007	0.0085799	8
	5	3	316265.6	4498.524	-1503.423	1	4743.1	-18.47981	1.121994E-006	0.0083574	8
	6	3	251203.1	4716.513	-1336.685	1	4902.267	-15.82301	3.925222E-006	0.0078506	8
	7	3	199546.9	4844.283	-1206.272	1	4992.21	-13.98281	-2.20648E-006	0.0090085	8
	8	4	158578.1	4960.221	-1108.293	1	5082.53	-12.59508	-2.955882E-006	0.0090511	8
	9	4	125953.1	5075.075	-892.0842	1	5152.883	-9.96947	-2.345742E-007	0.0092823	7
	10	4	100078.1	5203.478	-877.0939	1	5276.881	-9.56779	6.775529E-008	0.0084719	7
	11	5	79453.13	5287.209	-844.2068	1	5354.182	-9.071821	9.101316E-008	0.0085184	7
	12	5	63140.62	5365.953	-833.7607	1	5430.341	-8.831983	-6.176649E-009	0.008618	7
	13	5	50203.12	5442.973	-840.1978	1	5507.439	-8.77513	-5.875023E-009	0.0086137	7
	14	6	39890.62	5523.935	-867.5134	1	5591.64	-8.92519	-8.473734E-008	0.0087026	7
	15	6	31640.63	5612.576	-910.7629	1	5685.992	-9.217148	-1.528257E-008	0.008719	7
	16	6	25171.88	5703.053	-972.532	1	5785.381	-9.67746	-3.651201E-008	0.0086001	7
	17	7	20015.62	5813.681	-1046.193	1	5907.064	-10.2014	1.156328E-008	0.0084929	7
	18	7	15890.62	5917.686	-1162.7	1	6030.828	-11.11581	-4.612273E-008	0.0085935	7
	19	7	12609.37	6040.01	-1283.77	1	6174.932	-11.99933	4.211775E-008	0.0085222	7
	20	8	10078.13	6173.477	-1422.82	1	6335.316	-12.9785	-5.012874E-008	0.0085926	7
	21	8	8015.625	6285.498	-1640.361	1	6496.019	-14.62655	-4.981464E-008	0.0085938	7
	22	8	6328.125	6506.233	-1807.017	1	6752.509	-15.5219	9.001083E-008	0.0085055	7
	23	9	5015.625	6699.575	-2040.864	1	7003.53	-16.94209	-6.943477E-009	0.0085907	7
	24	9	3984.375	6920.38	-2348.407	1	7307.987	-18.74447	-1.975928E-008	0.0085345	7
	25	9	3170.956	7165.153	-2628.971	1	7632.228	-20.14862	-5.089135E-008	0.0085943	7
	26	9	2527.573	7439.986	-2986.421	1	8016.989	-21.8706	4.337385E-008	0.008523	7
	27	10	1976.103	7788.904	-3434.892	1	8512.667	-23.79739	-3.653985E-008	0.0085897	7
	28	10	1577.524	8087.225	-3776.145	1	8925.384	-25.02915	-5.971238E-008	0.0087391	7
	29	10	1265.625	8514.389	-4424.396	1	9595.32	-27.45808	1.923534E-008	0.0082711	6
	30	11	998.264	8968.893	-5087.636	1	10311.41	-29.56423	-1.456713E-009	0.0086264	6
	31	11	796.875	9430.023	-5804.833	1	11073.46	-31.61518	3.435987E-009	0.0085316	6
	32	11	627.7902	9951.57	-6696.324	1	11994.77	-33.93628	2.566698E-009	0.0085279	6
	33	12	505.5147	10446.35	-7658.128	1	12952.73	-36.24482	-8.967343E-009	0.0086223	6
	34	12	397.9953	11011.98	-8933.203	1	14179.76	-39.04987	1.117632E-009	0.0085138	6
	35	12	315.5048	11570.3	-10466.81	1	15602.11	-42.13335	1.137613E-009	0.0085163	6
	36	13	252.4038	12114.17	-12296.75	1	17261.61	-45.42854	-5.034581E-010	0.0085047	6
	37	13	198.6229	12742.69	-14756.51	1	19496.94	-49.18841	4.52321E-010	0.0085103	6
	38	13	158.3615	13392.55	-17674.35	1	22175.28	-52.84735	1.831654E-010	0.0085088	6
	39	14	125.558	14192.75	-21413.09	1	25689.58	-56.46329	4.020357E-011	0.0085138	6
	40	14	100.4464	15039.16	-25854.88	1	29910.71	-59.81447	1.797626E-009	0.0085138	6
	41	14	79.00281	16249.79	-31693.09	1	35616.11	-62.85471	1.001769E-009	0.0085113	6
	42	15	63.3446	18121.46	-39273.34	1	43252.55	-65.23051	-2.84018E-010	0.0085064	6
	43	15	49.86702	19886.7	-48293.95	1	52228.21	-67.61889	-1.093419E-009	0.0085152	6
	44	15	39.72458	22280.24	-58208.72	1	62327.08	-69.05492	2.487426E-010	0.008501	6
	45	16	31.6723	25808.59	-70827.88	1	75383.49	-69.97904	1.470534E-009	0.008497	6
	46	16	24.93351	29894.82	-87522.5	1	92487.23	-71.14151	-1.528988E-010	0.0084976	6
	47	16	19.86229	35901.99	-106676.8	1	112556.2	-71.39938	-2.227199E-010	0.0085006	5
	48	17	15.83615	42663.01	-128976.7	1	135849.6	-71.69678	-6.142846E-011	0.0085037	5
	49	17	12.40079	53908.69	-158637.7	1	167547.2	-71.23107	5.789438E-010	0.0085013	5
	50	17	9.93114	68713.6	-190467.6	1	202483.3	-70.16245	1.462712E-010	0.0084961	5
	51	18	7.944915	84576.73	-227308.1	1	242532.8	-69.59078	-6.491168E-010	0.0085074	5
	52	19	6.317385	108005.4	-271377.5	1	292080.3	-68.29797	-4.133242E-010	0.0085183	5
	53	19	5.008013	138317	-321965	1	350418.4	-66.75152	-1.540161E-010	0.0085106	5
	54	20	3.945707	176912.3	-379643.8	1	418840.5	-65.01469	1.240394E-011	0.0085044	5
	55	22	3.158693	220137.5	-439166.7	1	491251.4	-63.37714	1.569841E-010	0.0085152	5
	56	23	2.504006	274103.1	-506825.4	1	576198.3	-61.59444	4.257159E-011	0.0085106	5
	57	25	1.998082	333208	-578484.8	1	667586.8	-60.058	-2.585752E-011	0.0084698	5
	58	26	1.584686	400458.9	-656449.7	1	768956.1	-58.61525	6.773736E-011	0.0085135	5
	59	28	1.266892	473302.9	-742271.4	1	880330.9	-57.47673	1.091559E-010	0.008535	5
	60	31	0.999041	555893.8	-848193.4	1	1014125	-56.75974	1.105472E-010	0.0085357	4
