EXPLAIN
TAG	EISPOT
TITLE	LABEL	Potentiostatic EIS	Test &Identifier
DATE	LABEL	10/22/2019	Date
TIME	LABEL	9:10:02	Time
NOTES	NOTES	1	&Notes...
	
PSTAT	PSTAT	REF600-11020	Potentiostat
VDC	POTEN	0.00000E+000	T	DC &Voltage (V)
FREQINIT	QUANT	1.00000E+006	Initial Fre&q. (Hz)
FREQFINAL	QUANT	1.00000E+000	Final Fre&q. (Hz)
PTSPERDEC	QUANT	1.00000E+001	Points/&decade
VAC	QUANT	2.50000E+001	AC &Voltage (mV rms)
AREA	QUANT	1.00000E-002	&Area (cm^2)
CONDIT	TWOPARAM	T	5.00000E+000	0.00000E+000	Conditionin&g	Time(s)	E(V)
DELAY	TWOPARAM	T	5.00000E+000	0.00000E+000	Init. De&lay	Time(s)	Stab.(mV/s)
SPEED	SELECTOR	1	&Optimize for:
ZGUESS	QUANT	1.00000E+005	E&stimated Z (ohms)
OCVCURVE	TABLE	19
	Pt	T	Vf	Vm	Ach	Over
	#	s	V vs. Ref.	V	V	bits
	0	0.258333	-1.00878E-004	-1.00878E-004	5.45933E-004	...........
	1	0.516667	-1.14977E-004	-8.38897E-004	5.48033E-004	...........
	2	0.775	-1.96203E-004	-1.25841E-003	5.51232E-004	...........
	3	1.03333	-4.10124E-004	-1.76162E-003	5.47566E-004	...........
	4	1.29167	-7.64414E-004	-2.11900E-003	5.56099E-004	...........
	5	1.55	-1.19988E-003	-2.51354E-003	5.47866E-004	...........
	6	1.80833	-1.64772E-003	-2.84507E-003	5.43933E-004	...........
	7	2.06667	-2.06772E-003	-3.10304E-003	5.44899E-004	...........
	8	2.325	-2.44551E-003	-3.38935E-003	5.46166E-004	...........
	9	2.58333	-2.78044E-003	-3.63605E-003	5.47199E-004	...........
	10	2.84167	-3.08076E-003	-3.92248E-003	5.51799E-004	...........
	11	3.1	-3.36011E-003	-4.20261E-003	5.48633E-004	...........
	12	3.35833	-3.63063E-003	-4.41369E-003	5.48633E-004	...........
	13	3.61667	-3.89671E-003	-4.69124E-003	5.53866E-004	...........
	14	3.875	-4.15612E-003	-4.88403E-003	5.50566E-004	...........
	15	4.13333	-4.40548E-003	-5.09612E-003	5.52033E-004	...........
	16	4.39167	-4.64212E-003	-5.30634E-003	5.46366E-004	...........
	17	4.65	-4.86499E-003	-5.46717E-003	5.48933E-004	...........
	18	4.90833	-5.07494E-003	-5.67881E-003	5.48699E-004	...........
EOC	QUANT	-0.0050749	Open Circuit (V)
PSTATMODEL	IQUANT	4	Pstat Model
PSTATSECTION	LABEL	REF600-11020	Pstat Section
PSTATSERIALNO	LABEL	11020	Pstat Serial Number
CTRLMODE	IQUANT	1	Control Mode
IESTAB	IQUANT	0	I/E Stability
CASPEED	IQUANT	1	Control Amp Speed
CONVENTION	IQUANT	1	Current Convention
ICHRANGE	IQUANT	2	Ich Range
ICHRANGEMODE	TOGGLE	F	Ich Auto Range
ICHOFFSETENABLE	TOGGLE	T	Ich Offset Enable
ICHOFFSET	QUANT	0	Ich Offset (V)
ICHFILTER	IQUANT	3	Ich Filter
VCHRANGE	IQUANT	2	Vch Range
VCHRANGEMODE	TOGGLE	F	Vch Auto Range
VCHOFFSETENABLE	TOGGLE	T	Vch Offset Enable
VCHOFFSET	QUANT	0	Vch Offset (V)
VCHFILTER	IQUANT	3	Vch Filter
ACHRANGE	IQUANT	2	Ach Range
ACHOFFSETENABLE	TOGGLE	F	Ach Offset Enable
ACHOFFSET	QUANT	0	Ach Offset (V)
ACHFILTER	IQUANT	3	Ach Filter
IERANGELOWERLIMIT	IQUANT	1	I/E Range Lower Limit
IERANGEMODE	TOGGLE	F	I/E AutoRange
IERANGE	IQUANT	4	I/E Range
POSFEEDENABLE	TOGGLE	F	Positive Feedback IR Comp
POSFEEDRESISTANCE	QUANT	0	Positive Feedback Resistance (ohm)
ACHSELECT	IQUANT	0	Ach Select
CABLEID	IQUANT	14	Cable ID
DCCALDATE	LABEL	8/19/2019	DC Calibration Date
ACCALDATE	LABEL	8/19/2019	AC Calibration Date
THERMOSELECT	IQUANT	1	Thermo Select
FRAMEWORKVERSION	QUANT	6.33	Framework Version
INSTRUMENTVERSION	LABEL	3.50	Instrument Version
ZCURVE	TABLE
	Pt	Time	Freq	Zreal	Zimag	Zsig	Zmod	Zphz	Idc	Vdc	IERange
	#	s	Hz	ohm	ohm	V	ohm	°	A	V	#
	0	2	1000078	2370.928	-2223.634	1	3250.515	-43.16381	3.668548E-006	-0.0028437	8
	1	3	794390.6	2806.364	-2284.17	1	3618.441	-39.14301	-3.509699E-006	-0.0023938	8
	2	5	630984.4	3284.205	-2281.81	1	3999.083	-34.79092	-2.315257E-006	-0.0025917	8
	3	6	501234.4	3712.263	-2227.312	1	4329.181	-30.96323	3.978755E-006	-0.003974	8
	4	8	398109.4	4128.255	-2089.121	1	4626.761	-26.84188	-1.873553E-006	-0.0033579	8
	5	9	316265.6	4496.378	-1928.295	1	4892.416	-23.21233	-4.182715E-006	-0.0026237	8
	6	11	251203.1	4796.412	-1727.825	1	5098.132	-19.81068	1.387935E-006	-0.0036113	8
	7	12	199546.9	5033.143	-1523.001	1	5258.522	-16.83552	-3.105213E-006	-0.0028353	8
	8	14	158578.1	5224.715	-1336.478	1	5392.941	-14.34854	-6.572909E-007	-0.0032285	8
	9	15	125953.1	5421.085	-1112.024	1	5533.965	-11.59224	2.417076E-007	-0.0043749	7
	10	16	100078.1	5511.457	-970.237	1	5596.205	-9.98405	9.317127E-008	-0.0036986	7
	11	18	79453.13	5598.369	-866.4247	1	5665.018	-8.797516	-6.766625E-008	-0.0033524	7
	12	19	63140.62	5672.698	-785.0712	1	5726.765	-7.879381	5.442536E-008	-0.0035733	7
	13	20	50203.12	5737.703	-724.8857	1	5783.312	-7.200445	3.368817E-008	-0.0034473	7
	14	22	39890.62	5794.425	-686.6119	1	5834.963	-6.757766	-7.662216E-008	-0.0032707	7
	15	23	31640.63	5848.459	-665.5168	1	5886.203	-6.491964	-8.83519E-008	-0.0033764	7
	16	24	25171.88	5900.524	-662.9191	1	5937.647	-6.410253	-6.295625E-008	-0.0034238	7
	17	26	20015.62	5943.197	-675.9411	1	5981.512	-6.488573	-6.897226E-008	-0.0033568	7
	18	27	15890.62	6008.097	-709.8077	1	6049.881	-6.737797	8.06957E-010	-0.0035216	7
	19	29	12609.37	6067.69	-762.304	1	6115.388	-7.16074	-7.564191E-008	-0.0032622	7
	20	30	10078.13	6124.979	-830.669	1	6181.049	-7.723327	3.21845E-008	-0.003631	7
	21	31	8015.625	6192.036	-897.6768	1	6256.767	-8.24886	-6.337132E-008	-0.003418	7
	22	33	6328.125	6254.426	-1049.65	1	6341.894	-9.52689	-8.926409E-008	-0.0033779	7
	23	34	5015.625	6326.281	-1205.095	1	6440.038	-10.78508	-1.239783E-008	-0.0035697	7
	24	35	3984.375	6392	-1413.862	1	6546.5	-12.47257	-4.901922E-008	-0.0034213	7
	25	37	3170.956	6489.035	-1638.586	1	6692.723	-14.17185	-1.469109E-008	-0.0035604	7
	26	38	2527.573	6584.858	-1932.347	1	6862.53	-16.35449	-6.156764E-008	-0.0034231	7
	27	39	1976.103	6705.379	-2328.1	1	7098.039	-19.14694	-4.473361E-008	-0.0034936	7
	28	41	1577.524	6797.797	-2787.54	1	7347.138	-22.29683	4.911126E-009	-0.0035496	7
	29	42	1265.625	6966.32	-3300.915	1	7708.804	-25.35342	4.742644E-008	-0.003665	7
	30	44	998.264	7144.949	-3999.101	1	8187.985	-29.23618	-6.123779E-008	-0.0034733	7
	31	45	796.875	7335.969	-4808.068	1	8771.201	-33.24124	5.421949E-009	-0.0035577	7
	32	46	627.7902	7573.439	-5860.716	1	9576.27	-37.73454	1.14676E-010	-0.0035858	6
	33	48	505.5147	7824.345	-7037.718	1	10523.78	-41.97025	-3.002726E-010	-0.0033923	6
	34	49	397.9953	8157.1	-8637.443	1	11880.39	-46.63828	1.394707E-009	-0.0035523	6
	35	50	315.5048	8544.354	-10557.42	1	13581.79	-51.01598	5.540975E-010	-0.0035514	6
	36	52	252.4038	8999.037	-12825.45	1	15667.63	-54.94439	6.345814E-010	-0.0035588	6
	37	53	198.6229	9607.95	-15824.93	1	18513.27	-58.73637	8.504207E-010	-0.0035564	6
	38	55	158.3615	10336.41	-19327.25	1	21917.66	-61.86169	9.004461E-010	-0.0035589	6
	39	56	125.558	11309	-23718.36	1	26276.49	-64.50803	9.675707E-010	-0.0035509	6
	40	57	100.4464	12522.55	-28856.53	1	31456.53	-66.54113	1.456513E-009	-0.0035566	6
	41	59	79.00281	14190.13	-35773.88	1	38485.45	-68.36366	1.143973E-009	-0.0035553	6
	42	60	63.3446	15798.38	-43298.8	1	46090.94	-69.95454	4.942047E-010	-0.0035597	6
	43	61	49.86702	19501.27	-53169.64	1	56633.12	-69.85825	5.685103E-010	-0.0035581	6
	44	63	39.72458	23084.54	-64795.19	1	68784.53	-70.39058	5.593316E-010	-0.0035537	6
	45	64	31.6723	28109.44	-78735.09	1	83602.37	-70.35278	2.128194E-010	-0.0035561	6
	46	66	24.93351	35180.66	-95761.4	1	102019.2	-69.82775	5.047148E-010	-0.0035615	6
	47	67	19.86229	44214.96	-114898.7	1	123112.5	-68.95244	-1.867455E-010	-0.0035558	5
	48	69	15.83615	56129.45	-136002.6	1	147129.9	-67.57363	5.253885E-010	-0.0035561	5
	49	70	12.40079	71943.1	-163362.8	1	178502.7	-66.23186	5.491251E-010	-0.0035553	5
	50	71	9.93114	92429.74	-191849	1	212953.8	-64.27599	6.857712E-010	-0.0035574	5
	51	73	7.944915	116582.9	-221337.9	1	250164	-62.22337	-1.962719E-010	-0.0035548	5
	52	75	6.317385	145406.9	-253547	1	292282.9	-60.16612	5.734473E-010	-0.0035688	5
	53	77	5.008013	180012.8	-287980.3	1	339613.5	-57.99102	3.980874E-010	-0.0035512	5
	54	79	3.945707	220405.7	-324880.4	1	392588.8	-55.8462	1.151845E-011	-0.0035601	5
	55	82	3.158693	260260.6	-360694.5	1	444787.7	-54.18752	2.64306E-010	-0.0035412	5
	56	85	2.504006	304705.5	-401757.5	1	504236.5	-52.82218	-6.5803E-011	-0.0035659	5
	57	88	1.998082	349133.6	-445749	1	566203.6	-51.93012	-1.431614E-010	-0.0035588	5
	58	91	1.584686	397608.9	-497054.2	1	636518.4	-51.34262	1.538616E-010	-0.0035068	5
	59	95	1.266892	443443.9	-556986.6	1	711952.6	-51.47501	-1.137355E-010	-0.0035477	5
	60	99	0.999041	496013.3	-634568.5	1	805423.1	-51.98688	2.780357E-010	-0.003554	5
