EXPLAIN
TAG	EISPOT
TITLE	LABEL	Potentiostatic EIS	Test &Identifier
DATE	LABEL	11/20/2019	Date
TIME	LABEL	10:41:59	Time
NOTES	NOTES	4	&Notes...
	
	
	
	
PSTAT	PSTAT	REF600-11020	Potentiostat
VDC	POTEN	0.00000E+000	T	DC &Voltage (V)
FREQINIT	QUANT	1.00000E+006	Initial Fre&q. (Hz)
FREQFINAL	QUANT	1.00000E+000	Final Fre&q. (Hz)
PTSPERDEC	QUANT	1.00000E+001	Points/&decade
VAC	QUANT	2.50000E+001	AC &Voltage (mV rms)
AREA	QUANT	1.00000E-002	&Area (cm^2)
CONDIT	TWOPARAM	T	5.00000E+000	0.00000E+000	Conditionin&g	Time(s)	E(V)
DELAY	TWOPARAM	T	5.00000E+000	0.00000E+000	Init. De&lay	Time(s)	Stab.(mV/s)
SPEED	SELECTOR	1	&Optimize for:
ZGUESS	QUANT	1.00000E+005	E&stimated Z (ohms)
OCVCURVE	TABLE	19
	Pt	T	Vf	Vm	Ach	Over
	#	s	V vs. Ref.	V	V	bits
	0	0.258333	3.84030E-003	3.84030E-003	5.64099E-004	...........
	1	0.516667	3.83713E-003	3.67404E-003	5.62999E-004	...........
	2	0.775	3.81781E-003	3.52612E-003	5.69299E-004	...........
	3	1.03333	3.76407E-003	3.39968E-003	5.72766E-004	...........
	4	1.29167	3.67062E-003	3.28976E-003	5.63499E-004	...........
	5	1.55	3.55171E-003	3.19212E-003	5.62932E-004	...........
	6	1.80833	3.42761E-003	3.10282E-003	5.66799E-004	...........
	7	2.06667	3.31157E-003	3.02157E-003	5.72599E-004	...........
	8	2.325	3.20779E-003	2.94619E-003	5.58766E-004	...........
	9	2.58333	3.11541E-003	2.87732E-003	5.70966E-004	...........
	10	2.84167	3.03230E-003	2.82025E-003	5.71099E-004	...........
	11	3.1	2.95725E-003	2.77294E-003	5.74132E-004	...........
	12	3.35833	2.89011E-003	2.72108E-003	5.65799E-004	...........
	13	3.61667	2.83030E-003	2.66754E-003	5.69766E-004	...........
	14	3.875	2.77568E-003	2.61752E-003	5.67466E-004	...........
	15	4.13333	2.72362E-003	2.56849E-003	5.69466E-004	...........
	16	4.39167	2.67266E-003	2.52292E-003	5.67699E-004	...........
	17	4.65	2.62282E-003	2.48209E-003	5.80499E-004	...........
	18	4.90833	2.57481E-003	2.44034E-003	5.79532E-004	...........
EOC	QUANT	0.0025748	Open Circuit (V)
PSTATMODEL	IQUANT	4	Pstat Model
PSTATSECTION	LABEL	REF600-11020	Pstat Section
PSTATSERIALNO	LABEL	11020	Pstat Serial Number
CTRLMODE	IQUANT	1	Control Mode
IESTAB	IQUANT	0	I/E Stability
CASPEED	IQUANT	1	Control Amp Speed
CONVENTION	IQUANT	1	Current Convention
ICHRANGE	IQUANT	2	Ich Range
ICHRANGEMODE	TOGGLE	F	Ich Auto Range
ICHOFFSETENABLE	TOGGLE	T	Ich Offset Enable
ICHOFFSET	QUANT	0	Ich Offset (V)
ICHFILTER	IQUANT	3	Ich Filter
VCHRANGE	IQUANT	2	Vch Range
VCHRANGEMODE	TOGGLE	F	Vch Auto Range
VCHOFFSETENABLE	TOGGLE	T	Vch Offset Enable
VCHOFFSET	QUANT	0	Vch Offset (V)
VCHFILTER	IQUANT	3	Vch Filter
ACHRANGE	IQUANT	2	Ach Range
ACHOFFSETENABLE	TOGGLE	F	Ach Offset Enable
ACHOFFSET	QUANT	0	Ach Offset (V)
ACHFILTER	IQUANT	3	Ach Filter
IERANGELOWERLIMIT	IQUANT	1	I/E Range Lower Limit
IERANGEMODE	TOGGLE	F	I/E AutoRange
IERANGE	IQUANT	4	I/E Range
POSFEEDENABLE	TOGGLE	F	Positive Feedback IR Comp
POSFEEDRESISTANCE	QUANT	0	Positive Feedback Resistance (ohm)
ACHSELECT	IQUANT	0	Ach Select
CABLEID	IQUANT	14	Cable ID
DCCALDATE	LABEL	8/19/2019	DC Calibration Date
ACCALDATE	LABEL	8/19/2019	AC Calibration Date
THERMOSELECT	IQUANT	1	Thermo Select
FRAMEWORKVERSION	QUANT	6.33	Framework Version
INSTRUMENTVERSION	LABEL	3.50	Instrument Version
ZCURVE	TABLE
	Pt	Time	Freq	Zreal	Zimag	Zsig	Zmod	Zphz	Idc	Vdc	IERange
	#	s	Hz	ohm	ohm	V	ohm	°	A	V	#
	0	1	1000078	2475.844	-1771.076	1	3044.095	-35.57774	-2.407599E-006	0.004644	8
	1	2	794390.6	2815.22	-1703.011	1	3290.245	-31.171	3.028251E-006	0.0047773	8
	2	3	630984.4	3122.51	-1601.229	1	3509.132	-27.14883	-8.935709E-007	0.0039668	8
	3	5	501234.4	3394.675	-1476.82	1	3702.002	-23.51098	6.119826E-006	0.0030385	8
	4	6	398109.4	3640.908	-1327.372	1	3875.323	-20.03043	5.172325E-006	0.0030316	8
	5	8	316265.6	3799.324	-1151.726	1	3970.055	-16.86414	5.01382E-006	0.0034295	8
	6	9	251203.1	3960.377	-1040.715	1	4094.835	-14.72341	-2.516486E-006	0.0045239	8
	7	10	199546.9	4068.244	-910.6562	1	4168.921	-12.61738	5.430803E-006	0.0030433	8
	8	12	158578.1	4162.891	-788.9558	1	4236.994	-10.73148	-3.302529E-006	0.0045553	8
	9	13	125953.1	4258.822	-657.5009	1	4309.278	-8.776354	-1.540028E-006	0.0036441	7
	10	14	100078.1	4324.124	-592.8594	1	4364.577	-7.806868	-1.025731E-006	0.0055348	7
	11	16	79453.13	4375.232	-549.702	1	4409.629	-7.16109	7.320427E-007	0.0023624	7
	12	17	63140.62	4422.789	-514.7482	1	4452.643	-6.638527	4.613277E-007	0.002458	7
	13	18	50203.12	4469.622	-492.1658	1	4496.637	-6.283726	5.601693E-007	0.0042268	7
	14	20	39890.62	4509.43	-482.1154	1	4535.129	-6.102467	3.537505E-007	0.004521	7
	15	21	31640.63	4550.939	-485.118	1	4576.723	-6.0846	-9.718489E-007	0.0044827	7
	16	22	25171.88	4595.104	-498.7462	1	4622.091	-6.194555	-6.72122E-007	0.0038492	7
	17	24	20015.62	4642.123	-527.2791	1	4671.972	-6.480212	9.45925E-007	0.0033563	7
	18	25	15890.62	4692.363	-562.282	1	4725.932	-6.833124	9.437153E-007	0.0033573	7
	19	27	12609.37	4741.454	-611.7949	1	4780.761	-7.352313	-8.381916E-007	0.0055693	7
	20	28	10078.13	4799.018	-672.3151	1	4845.882	-7.97491	-6.747224E-007	0.0038514	7
	21	29	8015.625	4858.438	-746.235	1	4915.414	-8.732141	-1.133616E-006	0.005009	7
	22	31	6328.125	4930.393	-844.8782	1	5002.259	-9.72383	1.026905E-006	0.002956	7
	23	32	5015.625	4997.756	-960.511	1	5089.219	-10.87893	-6.710157E-007	0.0038448	7
	24	33	3984.375	5077.252	-1099.885	1	5195.021	-12.22312	9.204575E-007	0.0024362	7
	25	35	3170.956	5155.383	-1268.348	1	5309.113	-13.82164	7.751329E-007	0.0038074	7
	26	36	2527.573	5240.854	-1473.343	1	5444.014	-15.70208	-1.139901E-006	0.0053505	7
	27	37	1976.103	5343.508	-1749.811	1	5622.714	-18.1318	9.465188E-007	0.0033534	7
	28	39	1577.524	5436.31	-2057.016	1	5812.468	-20.72587	-9.708018E-007	0.004479	7
	29	40	1265.625	5552.6	-2428.667	1	6060.51	-23.62422	-5.842507E-007	0.0054972	7
	30	41	998.264	5684.261	-2928.068	1	6394.091	-27.25383	1.016447E-006	0.0026466	7
	31	43	796.875	5826.708	-3498.771	1	6796.464	-30.9836	3.598853E-007	0.004515	7
	32	44	627.7902	5993.474	-4257.877	1	7351.955	-35.39071	3.611576E-007	0.004513	7
	33	46	505.5147	6179.621	-5109.537	1	8018.421	-39.58519	1.027251E-006	0.0029594	7
	34	47	397.9953	6422.543	-6256.226	1	8966.016	-44.24845	4.811269E-009	0.0040343	7
	35	48	315.5048	6717.021	-7643.182	1	10175.29	-48.69018	5.185699E-010	0.0039715	6
	36	50	252.4038	7066.84	-9284.812	1	11668.25	-52.72457	3.145824E-010	0.0039619	6
	37	51	198.6229	7547.015	-11453.25	1	13716.21	-56.61747	2.300411E-010	0.0039712	6
	38	52	158.3615	8138.535	-13974.73	1	16171.85	-59.78455	2.287225E-010	0.003969	6
	39	54	125.558	8930.395	-17129.55	1	19317.7	-62.46497	1.131855E-009	0.0039618	6
	40	55	100.4464	9943.33	-20798.39	1	23053.05	-64.44839	2.961257E-010	0.0039697	6
	41	56	79.00281	11355.36	-25574.97	1	27982.55	-66.05864	6.939132E-010	0.003966	6
	42	58	63.3446	13051.59	-30740.35	1	33396.3	-66.99512	1.031147E-009	0.0039603	6
	43	59	49.86702	15794.06	-37922.6	1	41080.11	-67.38918	4.899867E-010	0.003964	6
	44	61	39.72458	18813.86	-45611.53	1	49339.36	-67.58481	6.009375E-010	0.0039743	6
	45	62	31.6723	23051.42	-54599.96	1	59266.55	-67.11113	9.162667E-010	0.0039576	6
	46	63	24.93351	28553.11	-65656.77	1	71596.73	-66.49652	1.440144E-010	0.0039594	6
	47	65	19.86229	35186.14	-77769.18	1	85358.71	-65.65594	-6.682652E-011	0.0039549	6
	48	66	15.83615	44041.12	-90893.62	1	101001.3	-64.14819	8.413344E-010	0.0039692	6
	49	67	12.40079	54987.11	-108228.7	1	121396.2	-63.06651	-5.962779E-010	0.0039614	5
	50	69	9.93114	66843.38	-124463.4	1	141277	-61.76187	6.386738E-010	0.0039627	5
	51	70	7.944915	80766.3	-142959.5	1	164196.8	-60.53531	2.726822E-010	0.0039819	5
	52	72	6.317385	97600.4	-163472.4	1	190391.9	-59.16091	-1.362941E-010	0.003991	5
	53	74	5.008013	116856.7	-186632.7	1	220198.2	-57.94799	3.577289E-010	0.0039614	5
	54	77	3.945707	138706.4	-213163.9	1	254319.3	-56.94782	2.713584E-010	0.0039749	5
	55	79	3.158693	160796.1	-240780.9	1	289535.5	-56.26456	2.34177E-010	0.0039812	5
	56	83	2.504006	185530.6	-274298.6	1	331151.5	-55.92629	1.816322E-011	0.0039542	5
	57	85	1.998082	211029.4	-312197.5	1	376829.8	-55.94334	-8.331311E-011	0.0039582	5
	58	88	1.584686	240482.4	-357966.9	1	431244.8	-56.10677	1.868154E-010	0.0040202	5
	59	92	1.266892	270035.2	-412196.6	1	492772.8	-56.77069	-4.246745E-011	0.0039634	5
	60	96	0.999041	307123.6	-481587.8	1	571184.4	-57.47306	3.882766E-010	0.004	5
