EXPLAIN
TAG	EISPOT
TITLE	LABEL	Potentiostatic EIS	Test &Identifier
DATE	LABEL	11/27/2019	Date
TIME	LABEL	12:03:46	Time
NOTES	NOTES	3	&Notes...
	
	
	
PSTAT	PSTAT	REF600-11020	Potentiostat
VDC	POTEN	0.00000E+000	T	DC &Voltage (V)
FREQINIT	QUANT	1.00000E+006	Initial Fre&q. (Hz)
FREQFINAL	QUANT	1.00000E+000	Final Fre&q. (Hz)
PTSPERDEC	QUANT	1.00000E+001	Points/&decade
VAC	QUANT	2.50000E+001	AC &Voltage (mV rms)
AREA	QUANT	1.00000E-002	&Area (cm^2)
CONDIT	TWOPARAM	T	5.00000E+000	0.00000E+000	Conditionin&g	Time(s)	E(V)
DELAY	TWOPARAM	T	5.00000E+000	0.00000E+000	Init. De&lay	Time(s)	Stab.(mV/s)
SPEED	SELECTOR	0	&Optimize for:
ZGUESS	QUANT	1.00000E+005	E&stimated Z (ohms)
OCVCURVE	TABLE	19
	Pt	T	Vf	Vm	Ach	Over
	#	s	V vs. Ref.	V	V	bits
	0	0.258333	3.64169E-003	3.64169E-003	5.57899E-004	...........
	1	0.516667	3.63344E-003	3.20969E-003	5.71732E-004	...........
	2	0.775	3.58809E-003	3.07925E-003	5.67132E-004	...........
	3	1.03333	3.47025E-003	2.57299E-003	5.65966E-004	...........
	4	1.29167	3.27041E-003	2.52959E-003	5.65532E-004	...........
	5	1.55	3.01932E-003	2.40600E-003	5.62999E-004	...........
	6	1.80833	2.77213E-003	2.25578E-003	5.66999E-004	...........
	7	2.06667	2.56731E-003	2.11741E-003	5.65399E-004	...........
	8	2.325	2.40432E-003	2.00841E-003	5.62666E-004	...........
	9	2.58333	2.26526E-003	1.89324E-003	5.60666E-004	...........
	10	2.84167	2.13860E-003	1.80342E-003	5.58799E-004	...........
	11	3.1	2.02126E-003	1.71213E-003	5.60332E-004	...........
	12	3.35833	1.91347E-003	1.63796E-003	5.60766E-004	...........
	13	3.61667	1.81536E-003	1.55173E-003	5.63166E-004	...........
	14	3.875	1.72573E-003	1.48532E-003	5.57799E-004	...........
	15	4.13333	1.64243E-003	1.39971E-003	5.61632E-004	...........
	16	4.39167	1.56347E-003	1.34675E-003	5.59899E-004	...........
	17	4.65	1.48782E-003	1.26289E-003	5.55499E-004	...........
	18	4.90833	1.41529E-003	1.21940E-003	5.56133E-004	...........
EOC	QUANT	0.0014153	Open Circuit (V)
PSTATMODEL	IQUANT	4	Pstat Model
PSTATSECTION	LABEL	REF600-11020	Pstat Section
PSTATSERIALNO	LABEL	11020	Pstat Serial Number
CTRLMODE	IQUANT	1	Control Mode
IESTAB	IQUANT	0	I/E Stability
CASPEED	IQUANT	1	Control Amp Speed
CONVENTION	IQUANT	1	Current Convention
ICHRANGE	IQUANT	2	Ich Range
ICHRANGEMODE	TOGGLE	F	Ich Auto Range
ICHOFFSETENABLE	TOGGLE	T	Ich Offset Enable
ICHOFFSET	QUANT	0	Ich Offset (V)
ICHFILTER	IQUANT	3	Ich Filter
VCHRANGE	IQUANT	2	Vch Range
VCHRANGEMODE	TOGGLE	F	Vch Auto Range
VCHOFFSETENABLE	TOGGLE	T	Vch Offset Enable
VCHOFFSET	QUANT	0	Vch Offset (V)
VCHFILTER	IQUANT	3	Vch Filter
ACHRANGE	IQUANT	2	Ach Range
ACHOFFSETENABLE	TOGGLE	F	Ach Offset Enable
ACHOFFSET	QUANT	0	Ach Offset (V)
ACHFILTER	IQUANT	3	Ach Filter
IERANGELOWERLIMIT	IQUANT	1	I/E Range Lower Limit
IERANGEMODE	TOGGLE	F	I/E AutoRange
IERANGE	IQUANT	4	I/E Range
POSFEEDENABLE	TOGGLE	F	Positive Feedback IR Comp
POSFEEDRESISTANCE	QUANT	0	Positive Feedback Resistance (ohm)
ACHSELECT	IQUANT	0	Ach Select
CABLEID	IQUANT	14	Cable ID
DCCALDATE	LABEL	8/19/2019	DC Calibration Date
ACCALDATE	LABEL	8/19/2019	AC Calibration Date
THERMOSELECT	IQUANT	1	Thermo Select
FRAMEWORKVERSION	QUANT	6.33	Framework Version
INSTRUMENTVERSION	LABEL	3.50	Instrument Version
ZCURVE	TABLE
	Pt	Time	Freq	Zreal	Zimag	Zsig	Zmod	Zphz	Idc	Vdc	IERange
	#	s	Hz	ohm	ohm	V	ohm	°	A	V	#
	0	1	1000078	1927.111	-1219.231	1	2280.412	-32.32043	-8.116598E-006	0.0042225	8
	1	1	794390.6	2159.251	-1154.687	1	2448.605	-28.13622	2.78926E-006	0.0030078	8
	2	2	630984.4	2374.145	-1072.153	1	2605.01	-24.30371	5.879809E-006	0.0019993	8
	3	2	501234.4	2534.032	-961.962	1	2710.478	-20.78762	1.260506E-006	0.0026664	8
	4	2	398109.4	2679.562	-873.8311	1	2818.445	-18.06165	5.561791E-006	0.0024031	8
	5	3	316265.6	2786.991	-779.0964	1	2893.84	-15.6182	-2.298195E-006	0.0032287	8
	6	3	251203.1	2901.893	-669.3801	1	2978.095	-12.98923	5.493916E-006	0.0023985	8
	7	3	199546.9	2957.554	-609.1102	1	3019.626	-11.63739	3.550501E-006	0.0030123	8
	8	4	158578.1	2997.917	-538.8824	1	3045.965	-10.19022	-3.605211E-007	0.003489	8
	9	4	125953.1	3072.527	-439.9557	1	3103.866	-8.148802	5.457262E-007	0.0049326	7
	10	4	100078.1	3118.519	-405.7929	1	3144.81	-7.413875	5.443375E-007	0.0032097	7
	11	5	79453.13	3156.489	-383.2433	1	3179.669	-6.922652	-1.072467E-006	0.0043366	7
	12	5	63140.62	3193.49	-370.9562	1	3214.963	-6.62579	6.682246E-007	0.0014896	7
	13	5	50203.12	3222.957	-365.5105	1	3243.617	-6.470179	8.919942E-007	0.0023926	7
	14	5	39890.62	3257.931	-363.0996	1	3278.103	-6.359426	3.578652E-007	0.0034722	7
	15	6	31640.63	3291.727	-372.3448	1	3312.719	-6.4536	-9.215795E-007	0.0035036	7
	16	6	25171.88	3324.641	-390.2	1	3347.461	-6.693955	7.431943E-007	0.0028182	7
	17	6	20015.62	3352.866	-406.0012	1	3377.358	-6.904376	-1.081179E-006	0.0040069	7
	18	7	15890.62	3393.042	-445.579	1	3422.174	-7.481352	-7.767051E-007	0.0045066	7
	19	7	12609.37	3430.849	-492.4953	1	3466.018	-8.168952	-6.527304E-007	0.0029212	7
	20	7	10078.13	3463.909	-555.0444	1	3508.096	-9.103486	6.669729E-007	0.0014908	7
	21	8	8015.625	3504.278	-629.0394	1	3560.289	-10.17656	-5.295214E-007	0.0044368	7
	22	8	6328.125	3554.137	-723.0621	1	3626.942	-11.49945	5.519275E-007	0.0031949	7
	23	8	5015.625	3601.234	-841.605	1	3698.268	-13.15389	8.982669E-007	0.0023865	7
	24	9	3984.375	3648.678	-993.842	1	3781.61	-15.23682	8.487837E-007	0.0015521	7
	25	9	3170.956	3704.639	-1175.896	1	3886.783	-17.61005	9.468554E-008	0.0018343	7
	26	9	2527.573	3769.224	-1393.447	1	4018.55	-20.28888	9.006891E-007	0.0023803	7
	27	10	1976.103	3847.554	-1693.567	1	4203.789	-23.75752	-1.074427E-006	0.0043253	7
	28	10	1577.524	3944.731	-2048.274	1	4444.81	-27.44028	6.6862E-007	0.0014877	7
	29	10	1265.625	4035.266	-2428.999	1	4709.926	-31.04553	8.520856E-007	0.0015551	7
	30	11	998.264	4154.3	-2955.427	1	5098.31	-35.42858	3.631789E-007	0.0034672	7
	31	11	796.875	4292.546	-3561.038	1	5577.36	-39.67864	7.447522E-007	0.0028137	7
	32	11	627.7902	4451.577	-4338.561	1	6216.08	-44.26338	7.882766E-008	0.0038581	7
	33	12	505.5147	4641.896	-5223.171	1	6987.754	-48.37212	5.589565E-007	0.0031848	7
	34	12	397.9953	4866.195	-6434.057	1	8067.028	-52.89912	4.0242E-009	0.0030586	7
	35	12	315.5048	5136.588	-7882.597	1	9408.5	-56.91027	2.711555E-009	0.0030535	7
	36	12	252.4038	5462.988	-9595.48	1	11041.63	-60.34587	2.622099E-010	0.0029958	6
	37	13	198.6229	5907.3	-11874.78	1	13262.97	-63.5512	1.154561E-009	0.002988	6
	38	13	158.3615	6435.911	-14520.74	1	15883.1	-66.09603	1.337796E-009	0.0029983	6
	39	13	125.558	7141.042	-17852.67	1	19227.9	-68.19866	1.443014E-009	0.0029873	6
	40	14	100.4464	8009.36	-21761.56	1	23188.69	-69.79382	-3.916884E-010	0.0029843	6
	41	14	79.00281	9256.169	-26839.28	1	28390.55	-70.97202	5.725462E-010	0.0029855	6
	42	14	63.3446	11211.33	-32941.23	1	34796.82	-71.20433	7.423572E-010	0.0029856	6
	43	15	49.86702	13280.81	-40445.35	1	42570.02	-71.82166	6.282838E-010	0.0029919	6
	44	15	39.72458	15918.96	-48819.81	1	51349.66	-71.9401	2.149486E-010	0.0029877	6
	45	16	31.6723	19355.35	-58875.39	1	61975.33	-71.80167	1.05449E-010	0.0029871	6
	46	16	24.93351	24451.95	-72189.8	1	76218.53	-71.28786	3.838561E-010	0.0029944	6
	47	16	19.86229	30893.74	-86864.91	1	92195.1	-70.42194	1.277253E-009	0.0029932	6
	48	16	15.83615	39895.02	-102367	1	109866.4	-68.70789	-2.446865E-009	0.0029938	5
	49	17	12.40079	50161.29	-124689.9	1	134401.3	-68.08565	1.500518E-009	0.0029936	5
	50	17	9.93114	64421.37	-146804.9	1	160317.8	-66.30702	2.966881E-010	0.0029884	5
	51	18	7.944915	80699.83	-171504.9	1	189542.6	-64.80116	-5.364413E-010	0.0029915	5
	52	18	6.317385	101313.2	-199036	1	223337.7	-63.02301	-5.322461E-010	0.0030063	5
	53	19	5.008013	126630.1	-229449	1	262072.6	-61.10622	-1.474537E-010	0.0029877	5
	54	20	3.945707	158672.6	-263348	1	307456	-58.93016	2.998722E-010	0.0029977	5
	55	22	3.158693	189948	-296974.3	1	352525.1	-57.39658	2.865425E-010	0.0030177	5
	56	23	2.504006	228300.7	-334998.3	1	405394.9	-55.72564	-3.851392E-011	0.0030065	5
	57	24	1.998082	267219.4	-374486.8	1	460050.7	-54.48981	8.244677E-011	0.0029945	5
	58	26	1.584686	312517.3	-418907.5	1	522638.1	-53.27598	2.628285E-010	0.0030347	5
	59	28	1.266892	357867.7	-469315.8	1	590192	-52.67337	2.713195E-010	0.0030283	5
	60	30	0.999041	408197.8	-529977.4	1	668955.5	-52.39591	2.607529E-010	0.0030029	5
