EXPLAIN
TAG	EISPOT
TITLE	LABEL	Potentiostatic EIS	Test &Identifier
DATE	LABEL	10/24/2019	Date
TIME	LABEL	9:12:09	Time
NOTES	NOTES	1	&Notes...
	
PSTAT	PSTAT	REF600-11020	Potentiostat
VDC	POTEN	0.00000E+000	T	DC &Voltage (V)
FREQINIT	QUANT	1.00000E+006	Initial Fre&q. (Hz)
FREQFINAL	QUANT	1.00000E+000	Final Fre&q. (Hz)
PTSPERDEC	QUANT	1.00000E+001	Points/&decade
VAC	QUANT	2.50000E+001	AC &Voltage (mV rms)
AREA	QUANT	1.00000E-002	&Area (cm^2)
CONDIT	TWOPARAM	T	5.00000E+000	0.00000E+000	Conditionin&g	Time(s)	E(V)
DELAY	TWOPARAM	T	5.00000E+000	0.00000E+000	Init. De&lay	Time(s)	Stab.(mV/s)
SPEED	SELECTOR	1	&Optimize for:
ZGUESS	QUANT	1.00000E+005	E&stimated Z (ohms)
OCVCURVE	TABLE	19
	Pt	T	Vf	Vm	Ach	Over
	#	s	V vs. Ref.	V	V	bits
	0	0.258333	5.60542E-003	5.60542E-003	5.14433E-004	...........
	1	0.516667	5.60690E-003	5.68291E-003	5.14300E-004	...........
	2	0.775	5.61498E-003	5.70343E-003	5.14133E-004	...........
	3	1.03333	5.63105E-003	5.54374E-003	5.12633E-004	...........
	4	1.29167	5.64162E-003	5.56232E-003	5.08000E-004	...........
	5	1.55	5.62928E-003	5.45759E-003	5.15866E-004	...........
	6	1.80833	5.59411E-003	5.53405E-003	5.16166E-004	...........
	7	2.06667	5.55454E-003	5.56440E-003	5.16666E-004	...........
	8	2.325	5.53181E-003	5.58822E-003	5.10267E-004	...........
	9	2.58333	5.53413E-003	5.60887E-003	5.11333E-004	...........
	10	2.84167	5.55394E-003	5.62660E-003	5.17400E-004	...........
	11	3.1	5.57956E-003	5.65594E-003	5.12400E-004	...........
	12	3.35833	5.60513E-003	5.69487E-003	5.11900E-004	...........
	13	3.61667	5.63089E-003	5.71876E-003	5.13867E-004	...........
	14	3.875	5.65825E-003	5.73834E-003	5.13233E-004	...........
	15	4.13333	5.68621E-003	5.76029E-003	5.09467E-004	...........
	16	4.39167	5.71273E-003	5.79053E-003	5.09533E-004	...........
	17	4.65	5.74837E-003	6.37724E-003	5.15133E-004	...........
	18	4.90833	5.81676E-003	5.77608E-003	5.08933E-004	...........
EOC	QUANT	0.0058168	Open Circuit (V)
PSTATMODEL	IQUANT	4	Pstat Model
PSTATSECTION	LABEL	REF600-11020	Pstat Section
PSTATSERIALNO	LABEL	11020	Pstat Serial Number
CTRLMODE	IQUANT	1	Control Mode
IESTAB	IQUANT	0	I/E Stability
CASPEED	IQUANT	1	Control Amp Speed
CONVENTION	IQUANT	1	Current Convention
ICHRANGE	IQUANT	2	Ich Range
ICHRANGEMODE	TOGGLE	F	Ich Auto Range
ICHOFFSETENABLE	TOGGLE	T	Ich Offset Enable
ICHOFFSET	QUANT	0	Ich Offset (V)
ICHFILTER	IQUANT	3	Ich Filter
VCHRANGE	IQUANT	2	Vch Range
VCHRANGEMODE	TOGGLE	F	Vch Auto Range
VCHOFFSETENABLE	TOGGLE	T	Vch Offset Enable
VCHOFFSET	QUANT	0	Vch Offset (V)
VCHFILTER	IQUANT	3	Vch Filter
ACHRANGE	IQUANT	2	Ach Range
ACHOFFSETENABLE	TOGGLE	F	Ach Offset Enable
ACHOFFSET	QUANT	0	Ach Offset (V)
ACHFILTER	IQUANT	3	Ach Filter
IERANGELOWERLIMIT	IQUANT	1	I/E Range Lower Limit
IERANGEMODE	TOGGLE	F	I/E AutoRange
IERANGE	IQUANT	5	I/E Range
POSFEEDENABLE	TOGGLE	F	Positive Feedback IR Comp
POSFEEDRESISTANCE	QUANT	0	Positive Feedback Resistance (ohm)
ACHSELECT	IQUANT	0	Ach Select
CABLEID	IQUANT	14	Cable ID
DCCALDATE	LABEL	8/19/2019	DC Calibration Date
ACCALDATE	LABEL	8/19/2019	AC Calibration Date
THERMOSELECT	IQUANT	1	Thermo Select
FRAMEWORKVERSION	QUANT	6.33	Framework Version
INSTRUMENTVERSION	LABEL	3.50	Instrument Version
ZCURVE	TABLE
	Pt	Time	Freq	Zreal	Zimag	Zsig	Zmod	Zphz	Idc	Vdc	IERange
	#	s	Hz	ohm	ohm	V	ohm	°	A	V	#
	0	1	1000078	2554.876	-1382.917	1	2905.143	-28.42603	-3.673888E-006	0.0087704	8
	1	3	794390.6	2819.291	-1255.608	1	3086.252	-24.00643	1.46117E-007	0.0078051	8
	2	4	630984.4	3012.67	-1110.344	1	3210.77	-20.23177	-3.127554E-006	0.0080078	8
	3	6	501234.4	3169.22	-967.406	1	3313.583	-16.97484	1.498478E-006	0.0071469	8
	4	7	398109.4	3283.204	-833.8912	1	3387.448	-14.25104	3.145132E-006	0.0067454	8
	5	8	316265.6	3370.346	-715.9955	1	3445.56	-11.9936	7.844487E-007	0.0071021	8
	6	10	251203.1	3444.982	-623.7047	1	3500.987	-10.26209	-2.266148E-006	0.0077948	8
	7	11	199546.9	3485.063	-544.2075	1	3527.297	-8.875306	7.2127E-007	0.0072392	8
	8	13	158578.1	3518.158	-476.3472	1	3550.26	-7.710772	3.053477E-006	0.0068311	8
	9	14	125953.1	3585.732	-388.6141	1	3606.729	-6.185455	1.057158E-006	0.0049455	7
	10	15	100078.1	3603.565	-359.0733	1	3621.411	-5.690392	2.933973E-009	0.0073865	7
	11	17	79453.13	3632.01	-346.5428	1	3648.505	-5.450293	1.001785E-007	0.0071545	7
	12	18	63140.62	3661.836	-342.3503	1	3677.805	-5.341138	6.544565E-008	0.0071576	7
	13	19	50203.12	3690.822	-345.1582	1	3706.926	-5.342646	3.508683E-008	0.0071771	7
	14	21	39890.62	3722.1	-356.0499	1	3739.091	-5.464193	-4.839174E-008	0.007445	7
	15	22	31640.63	3756.533	-374.4756	1	3775.152	-5.692807	-3.029869E-008	0.0072945	7
	16	23	25171.88	3792.222	-400.8152	1	3813.345	-6.033422	4.904587E-009	0.0072291	7
	17	25	20015.62	3831.571	-448.0193	1	3857.675	-6.669217	-2.735139E-008	0.0073597	7
	18	26	15890.62	3873.813	-480.268	1	3903.471	-7.06736	-4.839645E-008	0.0074432	7
	19	28	12609.37	3922.853	-533.5412	1	3958.969	-7.745187	1.008911E-007	0.0071421	7
	20	29	10078.13	3972.078	-594.6597	1	4016.345	-8.514513	9.97559E-009	0.0072267	7
	21	30	8015.625	4026.524	-657.1105	1	4079.791	-9.268703	6.469399E-008	0.0071461	7
	22	32	6328.125	4087.492	-764.7616	1	4158.419	-10.5974	5.834309E-008	0.0071834	7
	23	33	5015.625	4151.704	-875.3037	1	4242.971	-11.90532	-1.207219E-009	0.0073093	7
	24	34	3984.375	4224.572	-1008.95	1	4343.384	-13.43227	1.013193E-007	0.0071382	7
	25	36	3170.956	4291.667	-1170.511	1	4448.427	-15.25582	-2.989862E-008	0.0073406	7
	26	37	2527.573	4369.424	-1365.692	1	4577.88	-17.35698	-3.820755E-008	0.0073101	7
	27	38	1976.103	4461.168	-1627.086	1	4748.624	-20.03802	-2.711231E-008	0.007287	7
	28	40	1577.524	4542.011	-1948.63	1	4942.37	-23.22047	6.565347E-008	0.0072408	7
	29	41	1265.625	4646.101	-2274.136	1	5172.809	-26.08046	-2.367589E-008	0.0072813	7
	30	43	998.264	4761.17	-2743.76	1	5495.176	-29.95393	-1.504471E-009	0.0073129	7
	31	44	796.875	4886.88	-3296.792	1	5894.95	-34.00444	-2.824526E-008	0.0072903	7
	32	45	627.7902	5036.823	-4022.683	1	6446.051	-38.61278	-4.373593E-008	0.0074303	7
	33	47	505.5147	5204.796	-4837.737	1	7105.885	-42.90675	9.988437E-008	0.0071385	7
	34	48	397.9953	5424.823	-5943.953	1	8047.315	-47.61447	4.701181E-009	0.0073014	7
	35	49	315.5048	5691.993	-7279.543	1	9240.7	-51.97757	4.04472E-009	0.0073038	7
	36	51	252.4038	6018.104	-8859.688	1	10710.35	-55.81298	7.614958E-010	0.0072399	6
	37	52	198.6229	6466.1	-10947.12	1	12714.16	-59.43107	5.83175E-010	0.0072438	6
	38	53	158.3615	7020.688	-13377.24	1	15107.63	-62.30846	2.30286E-010	0.0072374	6
	39	55	125.558	7764.484	-16421.11	1	18164.26	-64.69356	6.215543E-010	0.0072428	6
	40	56	100.4464	8692.799	-19966.27	1	21776.52	-66.47293	8.444162E-010	0.0072438	6
	41	58	79.00281	10126.76	-24586.38	1	26590.24	-67.61397	-2.955253E-010	0.0072418	6
	42	59	63.3446	12034.81	-29798.69	1	32137.18	-68.00768	3.966938E-010	0.0072375	6
	43	60	49.86702	14232.63	-36610.49	1	39279.71	-68.756	6.185165E-010	0.0072358	6
	44	62	39.72458	17308.21	-43963.14	1	47247.56	-68.51053	1.291062E-009	0.0072437	6
	45	63	31.6723	21357.82	-52748.82	1	56908.65	-67.95714	5.03266E-010	0.0072401	6
	46	65	24.93351	26798.24	-63386.97	1	68818.99	-67.08272	-5.211705E-011	0.0072424	6
	47	66	19.86229	33464.28	-74874.77	1	82012.73	-65.91838	2.532922E-010	0.0072475	6
	48	67	15.83615	41506.33	-87702.63	1	97028.5	-64.67358	-3.280702E-010	0.0072405	6
	49	69	12.40079	52299.12	-103481	1	115946.2	-63.18805	6.990833E-010	0.0072482	5
	50	70	9.93114	64837.09	-119102.9	1	135607.3	-61.43707	-1.3099E-010	0.0072482	5
	51	72	7.944915	78503.62	-136695.5	1	157634	-60.13144	1.44522E-010	0.0072473	5
	52	74	6.317385	94920.14	-155101.4	1	181841.4	-58.53389	-2.745033E-010	0.0072609	5
	53	76	5.008013	113296	-176198.7	1	209480.3	-57.25892	-4.783759E-011	0.0072334	5
	54	78	3.945707	133619.5	-200115.4	1	240624.9	-56.26847	4.669285E-010	0.007248	5
	55	81	3.158693	153965.5	-225731.4	1	273239.9	-55.70313	-2.755235E-010	0.0072272	5
	56	84	2.504006	175594	-256035.3	1	310463	-55.55692	6.566682E-010	0.0072401	5
	57	87	1.998082	198204.1	-292103	1	353000	-55.84146	3.502608E-010	0.0072573	5
	58	90	1.584686	224465.6	-335470	1	403639.6	-56.21321	1.094121E-011	0.0071958	5
	59	94	1.266892	249788.5	-387107.4	1	460702.1	-57.1671	2.546934E-010	0.0072436	5
	60	98	0.999041	281763	-455015.3	1	535190.9	-58.23261	-1.868475E-010	0.0072238	5
