EXPLAIN
TAG	EISPOT
TITLE	LABEL	Potentiostatic IDE	Test &Identifier
DATE	LABEL	9/12/2019	Date
TIME	LABEL	10:18:49	Time
NOTES	NOTES	1	&Notes...
	
PSTAT	PSTAT	REF600-11020	Potentiostat
VDC	POTEN	0.00000E+000	T	DC &Voltage (V)
FREQINIT	QUANT	1.00000E+006	Initial Fre&q. (Hz)
FREQFINAL	QUANT	1.00000E+000	Final Fre&q. (Hz)
PTSPERDEC	QUANT	1.00000E+001	Points/&decade
VAC	QUANT	2.50000E+001	AC &Voltage (mV rms)
AREA	QUANT	1.00000E-002	&Area (cm^2)
CONDIT	TWOPARAM	T	5.00000E+000	0.00000E+000	Conditionin&g	Time(s)	E(V)
DELAY	TWOPARAM	T	5.00000E+000	0.00000E+000	Init. De&lay	Time(s)	Stab.(mV/s)
SPEED	SELECTOR	1	&Optimize for:
ZGUESS	QUANT	1.00000E+007	E&stimated Z (ohms)
OCVCURVE	TABLE	19
	Pt	T	Vf	Vm	Ach	Over
	#	s	V vs. Ref.	V	V	bits
	0	0.258333	-3.71379E-003	-3.71379E-003	5.49933E-004	...........
	1	0.516667	-3.72954E-003	-4.53789E-003	5.56399E-004	...........
	2	0.775	-3.82561E-003	-5.28780E-003	5.51499E-004	...........
	3	1.03333	-4.09517E-003	-5.99424E-003	5.51733E-004	...........
	4	1.29167	-4.57189E-003	-6.64046E-003	5.52832E-004	...........
	5	1.55	-5.19600E-003	-7.25171E-003	5.50966E-004	...........
	6	1.80833	-5.87453E-003	-7.82965E-003	5.53533E-004	...........
	7	2.06667	-6.54201E-003	-8.37681E-003	5.47566E-004	...........
	8	2.325	-7.17164E-003	-8.88827E-003	5.50933E-004	...........
	9	2.58333	-7.75990E-003	-9.37842E-003	5.49033E-004	...........
	10	2.84167	-8.31114E-003	-9.84086E-003	5.53333E-004	...........
	11	3.1	-8.83053E-003	-1.02825E-002	5.56399E-004	...........
	12	3.35833	-9.32228E-003	-1.07096E-002	5.54366E-004	...........
	13	3.61667	-9.78982E-003	-1.11170E-002	5.55899E-004	...........
	14	3.875	-1.02360E-002	-1.15024E-002	5.56832E-004	...........
	15	4.13333	-1.06627E-002	-1.18763E-002	5.56266E-004	...........
	16	4.39167	-1.10709E-002	-1.22356E-002	5.61299E-004	...........
	17	4.65	-1.14619E-002	-1.25816E-002	5.55866E-004	...........
	18	4.90833	-1.18371E-002	-1.29136E-002	5.56366E-004	...........
EOC	QUANT	-0.0118371	Open Circuit (V)
PSTATMODEL	IQUANT	4	Pstat Model
PSTATSECTION	LABEL	REF600-11020	Pstat Section
PSTATSERIALNO	LABEL	11020	Pstat Serial Number
CTRLMODE	IQUANT	1	Control Mode
IESTAB	IQUANT	0	I/E Stability
CASPEED	IQUANT	1	Control Amp Speed
CONVENTION	IQUANT	1	Current Convention
ICHRANGE	IQUANT	2	Ich Range
ICHRANGEMODE	TOGGLE	F	Ich Auto Range
ICHOFFSETENABLE	TOGGLE	T	Ich Offset Enable
ICHOFFSET	QUANT	0	Ich Offset (V)
ICHFILTER	IQUANT	3	Ich Filter
VCHRANGE	IQUANT	2	Vch Range
VCHRANGEMODE	TOGGLE	F	Vch Auto Range
VCHOFFSETENABLE	TOGGLE	T	Vch Offset Enable
VCHOFFSET	QUANT	0	Vch Offset (V)
VCHFILTER	IQUANT	3	Vch Filter
ACHRANGE	IQUANT	2	Ach Range
ACHOFFSETENABLE	TOGGLE	F	Ach Offset Enable
ACHOFFSET	QUANT	0	Ach Offset (V)
ACHFILTER	IQUANT	3	Ach Filter
IERANGELOWERLIMIT	IQUANT	1	I/E Range Lower Limit
IERANGEMODE	TOGGLE	F	I/E AutoRange
IERANGE	IQUANT	3	I/E Range
POSFEEDENABLE	TOGGLE	F	Positive Feedback IR Comp
POSFEEDRESISTANCE	QUANT	0	Positive Feedback Resistance (ohm)
ACHSELECT	IQUANT	0	Ach Select
CABLEID	IQUANT	14	Cable ID
DCCALDATE	LABEL	8/19/2019	DC Calibration Date
ACCALDATE	LABEL	8/19/2019	AC Calibration Date
THERMOSELECT	IQUANT	1	Thermo Select
FRAMEWORKVERSION	QUANT	6.33	Framework Version
INSTRUMENTVERSION	LABEL	3.50	Instrument Version
ZCURVE	TABLE
	Pt	Time	Freq	Zreal	Zimag	Zsig	Zmod	Zphz	Idc	Vdc	IERange
	#	s	Hz	ohm	ohm	V	ohm	°	A	V	#
	0	2	1000078	2633.794	-2195.799	1	3429.053	-39.81803	-2.554552E-006	-0.0090181	8
	1	3	794390.6	3072.876	-2161.688	1	3757.055	-35.12538	4.310613E-006	-0.0104055	8
	2	5	630984.4	3518.731	-2023.876	1	4059.254	-29.90631	1.917096E-006	-0.0106896	8
	3	6	501234.4	3890.192	-1852.039	1	4308.554	-25.45814	4.934367E-006	-0.0109921	8
	4	8	398109.4	4174.655	-1659.324	1	4492.338	-21.67662	-2.580729E-007	-0.0101795	8
	5	9	316265.6	4405.023	-1449.375	1	4637.34	-18.21265	2.374592E-007	-0.0102647	8
	6	11	251203.1	4581.271	-1275.459	1	4755.507	-15.55758	2.103653E-007	-0.0102797	8
	7	12	199546.9	4731.557	-1082.66	1	4853.842	-12.88837	2.326512E-006	-0.0105688	8
	8	14	158578.1	4819.729	-995.486	1	4921.462	-11.67	-3.605534E-006	-0.0093699	8
	9	15	125953.1	4946.088	-805.4925	1	5011.248	-9.249671	-1.05106E-006	-0.0075324	7
	10	17	100078.1	4988.894	-722.5493	1	5040.946	-8.240935	-6.831423E-009	-0.0102269	7
	11	18	79453.13	5051.308	-676.4455	1	5096.4	-7.627381	-3.921084E-008	-0.0101705	7
	12	19	63140.62	5102.651	-649.9873	1	5143.883	-7.259371	-9.719299E-009	-0.0101352	7
	13	21	50203.12	5155.316	-641.624	1	5195.091	-7.094478	-8.355039E-009	-0.0101374	7
	14	22	39890.62	5208.204	-657.4644	1	5249.538	-7.19475	-5.480044E-008	-0.0100768	7
	15	24	31640.63	5264.059	-674.7497	1	5307.127	-7.304372	-9.152034E-009	-0.0101325	7
	16	25	25171.88	5322.914	-715.7131	1	5370.815	-7.657998	-4.619302E-008	-0.0100321	7
	17	26	20015.62	5386.853	-774.681	1	5442.271	-8.183574	4.045472E-008	-0.010228	7
	18	28	15890.62	5458.421	-842.9566	1	5523.128	-8.778967	-8.153475E-009	-0.0101401	7
	19	29	12609.37	5535.503	-950.474	1	5616.511	-9.74296	7.907092E-008	-0.0103246	7
	20	30	10078.13	5617.559	-1065.706	1	5717.753	-10.74192	-3.03246E-009	-0.0102481	7
	21	32	8015.625	5712.88	-1209.361	1	5839.482	-11.9525	-9.350503E-009	-0.0101459	7
	22	33	6328.125	5821.499	-1389.461	1	5985.019	-13.42407	-1.461685E-008	-0.0100289	7
	23	34	5015.625	5940.955	-1602.115	1	6153.188	-15.09211	-5.481813E-008	-0.0100774	7
	24	36	3984.375	6075.405	-1853.463	1	6351.84	-16.96572	-3.887332E-008	-0.0101732	7
	25	37	3170.956	6225.892	-2154.435	1	6588.119	-19.08789	-9.137515E-009	-0.0101404	7
	26	38	2527.573	6388.722	-2506.68	1	6862.887	-21.42306	-8.994404E-009	-0.0101451	7
	27	40	1976.103	6592.015	-2971.833	1	7230.937	-24.26695	1.52174E-007	-0.0103963	7
	28	41	1577.524	6801.344	-3482.089	1	7640.892	-27.11112	1.509379E-007	-0.010408	7
	29	42	1265.625	7018.625	-4082.962	1	8119.832	-30.18795	-4.104962E-009	-0.0102415	7
	30	44	998.264	7299.863	-4859.392	1	8769.36	-33.65102	-6.510361E-009	-0.010128	7
	31	45	796.875	7596.398	-5756.724	1	9531.27	-37.15568	-1.797945E-009	-0.0103084	6
	32	46	627.7902	7944.295	-6922.724	1	10537.36	-41.06916	-5.571645E-009	-0.0102222	6
	33	48	505.5147	8306.438	-8216.308	1	11683.52	-44.68746	-1.225864E-009	-0.0103642	6
	34	49	397.9953	8751.468	-9952.37	1	13252.84	-48.6737	1.558472E-009	-0.010236	6
	35	50	315.5048	9260.777	-12033.08	1	15184.11	-52.41777	1.832237E-009	-0.0102385	6
	36	52	252.4038	9831	-14483.89	1	17505.19	-55.83313	1.182494E-009	-0.010236	6
	37	53	198.6229	10563.66	-17713.58	1	20624.3	-59.18985	1.025833E-009	-0.0102371	6
	38	54	158.3615	11387.73	-21467.53	1	24300.93	-62.0557	8.504356E-010	-0.0102373	6
	39	56	125.558	12426.9	-26194.44	1	28992.7	-64.61987	1.372298E-009	-0.0102384	6
	40	57	100.4464	13637.2	-31800.24	1	34600.99	-66.78843	1.815712E-009	-0.0102408	6
	41	58	79.00281	15211.76	-39177.92	1	42027.45	-68.78011	2.214609E-010	-0.0102362	6
	42	60	63.3446	17773.64	-47164.43	1	50402.23	-69.35137	7.658005E-010	-0.0102403	6
	43	61	49.86702	19440.21	-58733.93	1	61867.57	-71.6861	1.364235E-010	-0.0102377	6
	44	62	39.72458	22953.96	-71068.16	1	74683.11	-72.10031	1.015168E-009	-0.0102365	6
	45	64	31.6723	27305.46	-86626.59	1	90828.16	-72.50469	8.492406E-010	-0.0102398	6
	46	65	24.93351	33020.59	-106329.3	1	111338.6	-72.74782	5.525738E-010	-0.0102367	5
	47	67	19.86229	40410.69	-129293.3	1	135461.4	-72.64333	9.139196E-010	-0.0102343	5
	48	68	15.83615	51925.77	-155921.2	1	164340.2	-71.58091	-1.028304E-009	-0.0102369	5
	49	69	12.40079	63206.76	-190738	1	200938	-71.66584	1.220522E-010	-0.0102335	5
	50	71	9.93114	79052.8	-229395.2	1	242634.5	-70.98534	5.006087E-010	-0.0102383	5
	51	72	7.944915	101291.9	-273144.6	1	291321.2	-69.6534	2.7659E-010	-0.0102439	5
	52	74	6.317385	125932.3	-325841.3	1	349330.1	-68.8693	6.648859E-010	-0.0102464	5
	53	76	5.008013	160611.7	-387312.5	1	419293.5	-67.47707	4.565655E-010	-0.0102243	5
	54	79	3.945707	205610.8	-459940.2	1	503806.3	-65.91354	1.670785E-010	-0.0102404	5
	55	81	3.158693	258362.2	-536134	1	595139.2	-64.27065	3.89925E-010	-0.0102291	5
	56	85	2.504006	325723.6	-623961.9	1	703863.9	-62.43432	2.757895E-011	-0.0102313	5
	57	87	1.998082	403998.6	-713942.6	1	820322.4	-60.49579	4.281622E-010	-0.0102646	5
	58	91	1.584686	500264.9	-817732.4	1	958619	-58.54292	1.929674E-010	-0.0102758	5
	59	94	1.266892	606107.8	-919694.4	1	1101455	-56.61385	4.016256E-010	-0.0102509	4
	60	98	0.999041	735764.6	-1039895	1	1273864	-54.71915	-1.681063E-011	-0.0102479	4
