EXPLAIN
TAG	EISPOT
TITLE	LABEL	Potentiostatic EIS	Test &Identifier
DATE	LABEL	10/20/2019	Date
TIME	LABEL	9:15:45	Time
NOTES	NOTES	1	&Notes...
	
PSTAT	PSTAT	REF600-11020	Potentiostat
VDC	POTEN	0.00000E+000	T	DC &Voltage (V)
FREQINIT	QUANT	1.00000E+006	Initial Fre&q. (Hz)
FREQFINAL	QUANT	1.00000E+000	Final Fre&q. (Hz)
PTSPERDEC	QUANT	1.00000E+001	Points/&decade
VAC	QUANT	2.50000E+001	AC &Voltage (mV rms)
AREA	QUANT	1.00000E-002	&Area (cm^2)
CONDIT	TWOPARAM	T	5.00000E+000	0.00000E+000	Conditionin&g	Time(s)	E(V)
DELAY	TWOPARAM	T	5.00000E+000	0.00000E+000	Init. De&lay	Time(s)	Stab.(mV/s)
SPEED	SELECTOR	1	&Optimize for:
ZGUESS	QUANT	1.00000E+005	E&stimated Z (ohms)
OCVCURVE	TABLE	19
	Pt	T	Vf	Vm	Ach	Over
	#	s	V vs. Ref.	V	V	bits
	0	0.258333	6.42795E-003	6.42795E-003	5.70432E-004	...........
	1	0.516667	6.42872E-003	6.46853E-003	5.73266E-004	...........
	2	0.775	6.43380E-003	6.52374E-003	5.72799E-004	...........
	3	1.03333	6.44919E-003	6.57410E-003	5.71999E-004	...........
	4	1.29167	6.47885E-003	6.63767E-003	5.76132E-004	...........
	5	1.55	6.52182E-003	6.69819E-003	5.75866E-004	...........
	6	1.80833	6.57435E-003	6.76223E-003	5.69566E-004	...........
	7	2.06667	6.63261E-003	6.82179E-003	5.70099E-004	...........
	8	2.325	6.69365E-003	6.88397E-003	5.71232E-004	...........
	9	2.58333	6.75556E-003	6.94684E-003	5.66466E-004	...........
	10	2.84167	6.81756E-003	7.00810E-003	5.63832E-004	...........
	11	3.1	6.87964E-003	7.07567E-003	5.65466E-004	...........
	12	3.35833	6.94211E-003	7.13505E-003	5.66166E-004	...........
	13	3.61667	7.00487E-003	7.18962E-003	5.70599E-004	...........
	14	3.875	7.06704E-003	7.25200E-003	5.65399E-004	...........
	15	4.13333	7.12784E-003	7.31042E-003	5.63299E-004	...........
	16	4.39167	7.18743E-003	7.36520E-003	5.65799E-004	...........
	17	4.65	7.24625E-003	7.42531E-003	5.64466E-004	...........
	18	4.90833	7.30442E-003	7.47877E-003	5.68099E-004	...........
EOC	QUANT	0.0073044	Open Circuit (V)
PSTATMODEL	IQUANT	4	Pstat Model
PSTATSECTION	LABEL	REF600-11020	Pstat Section
PSTATSERIALNO	LABEL	11020	Pstat Serial Number
CTRLMODE	IQUANT	1	Control Mode
IESTAB	IQUANT	0	I/E Stability
CASPEED	IQUANT	1	Control Amp Speed
CONVENTION	IQUANT	1	Current Convention
ICHRANGE	IQUANT	2	Ich Range
ICHRANGEMODE	TOGGLE	F	Ich Auto Range
ICHOFFSETENABLE	TOGGLE	T	Ich Offset Enable
ICHOFFSET	QUANT	0	Ich Offset (V)
ICHFILTER	IQUANT	3	Ich Filter
VCHRANGE	IQUANT	2	Vch Range
VCHRANGEMODE	TOGGLE	F	Vch Auto Range
VCHOFFSETENABLE	TOGGLE	T	Vch Offset Enable
VCHOFFSET	QUANT	0	Vch Offset (V)
VCHFILTER	IQUANT	3	Vch Filter
ACHRANGE	IQUANT	2	Ach Range
ACHOFFSETENABLE	TOGGLE	F	Ach Offset Enable
ACHOFFSET	QUANT	0	Ach Offset (V)
ACHFILTER	IQUANT	3	Ach Filter
IERANGELOWERLIMIT	IQUANT	1	I/E Range Lower Limit
IERANGEMODE	TOGGLE	F	I/E AutoRange
IERANGE	IQUANT	5	I/E Range
POSFEEDENABLE	TOGGLE	F	Positive Feedback IR Comp
POSFEEDRESISTANCE	QUANT	0	Positive Feedback Resistance (ohm)
ACHSELECT	IQUANT	0	Ach Select
CABLEID	IQUANT	14	Cable ID
DCCALDATE	LABEL	8/19/2019	DC Calibration Date
ACCALDATE	LABEL	8/19/2019	AC Calibration Date
THERMOSELECT	IQUANT	1	Thermo Select
FRAMEWORKVERSION	QUANT	6.33	Framework Version
INSTRUMENTVERSION	LABEL	3.50	Instrument Version
ZCURVE	TABLE
	Pt	Time	Freq	Zreal	Zimag	Zsig	Zmod	Zphz	Idc	Vdc	IERange
	#	s	Hz	ohm	ohm	V	ohm	°	A	V	#
	0	2	1000078	2334.78	-1320.376	1	2682.273	-29.48925	7.894184E-007	0.0094017	8
	1	3	794390.6	2592.886	-1249.961	1	2878.448	-25.73748	-2.700178E-006	0.0096642	8
	2	5	630984.4	2807.122	-1151.661	1	3034.181	-22.30657	2.258109E-006	0.0084731	8
	3	6	501234.4	2972.864	-1034.148	1	3147.6	-19.18086	-9.359795E-007	0.0089889	8
	4	7	398109.4	3127.296	-916.5131	1	3258.83	-16.33422	-4.519004E-006	0.0099453	8
	5	9	316265.6	3230.398	-830.2919	1	3335.395	-14.41442	3.170973E-006	0.0082568	8
	6	10	251203.1	3346.716	-723.2756	1	3423.979	-12.19493	1.108193E-006	0.0085163	8
	7	11	199546.9	3417.345	-635.4387	1	3475.922	-10.53357	-3.208666E-006	0.0095059	8
	8	13	158578.1	3476.977	-557.1265	1	3521.329	-9.103293	-3.068937E-006	0.0094948	8
	9	14	125953.1	3544.601	-466.4473	1	3575.16	-7.496691	-7.737278E-007	0.01048	7
	10	16	100078.1	3588.104	-415.1248	1	3612.038	-6.59948	-1.258375E-008	0.0088481	7
	11	17	79453.13	3628.206	-393.3062	1	3649.461	-6.18684	8.309492E-008	0.008735	7
	12	18	63140.62	3665.332	-379.7921	1	3684.956	-5.915727	-2.269765E-008	0.0087676	7
	13	20	50203.12	3701.02	-373.1567	1	3719.784	-5.757412	-4.010942E-008	0.008812	7
	14	21	39890.62	3737.045	-372.9778	1	3755.612	-5.699561	3.944992E-008	0.0086578	7
	15	22	31640.63	3773.6	-382.6713	1	3792.954	-5.790427	8.891758E-008	0.0087205	7
	16	24	25171.88	3809.243	-399.0064	1	3830.083	-5.97975	-3.959055E-008	0.0088687	7
	17	25	20015.62	3855.096	-435.8557	1	3879.657	-6.450449	4.147677E-008	0.0086417	7
	18	26	15890.62	3885.703	-458.6842	1	3912.682	-6.732271	6.693955E-008	0.0086709	7
	19	28	12609.37	3926.896	-503.6958	1	3959.069	-7.309312	-4.150957E-008	0.0088629	7
	20	29	10078.13	3968.844	-559.9205	1	4008.146	-8.030234	-8.242547E-009	0.0088038	7
	21	31	8015.625	4014.568	-629.5258	1	4063.626	-8.911998	-7.969041E-009	0.0087452	7
	22	32	6328.125	4059.922	-726.5889	1	4124.427	-10.14659	8.822061E-008	0.0087162	7
	23	33	5015.625	4111.493	-841.8243	1	4196.789	-11.57133	-8.358173E-009	0.0089088	7
	24	35	3984.375	4174.492	-986.949	1	4289.575	-13.30183	8.432632E-008	0.0086019	7
	25	36	3170.956	4226.25	-1158.668	1	4382.203	-15.33149	-4.323325E-008	0.0088045	7
	26	37	2527.573	4293.671	-1372.26	1	4507.627	-17.72391	-1.400271E-008	0.0088252	7
	27	39	1976.103	4377.595	-1657.076	1	4680.731	-20.73345	1.272907E-008	0.0087032	7
	28	40	1577.524	4472.749	-2019.958	1	4907.719	-24.30462	8.797526E-008	0.0087194	7
	29	41	1265.625	4561.615	-2360.042	1	5135.965	-27.35568	7.034474E-008	0.0086655	7
	30	43	998.264	4681.118	-2864.635	1	5488.078	-31.46477	4.113849E-008	0.0087336	7
	31	44	796.875	4810.985	-3450.517	1	5920.443	-35.64871	-1.003809E-008	0.0089183	7
	32	45	627.7902	4969.511	-4216.948	1	6517.567	-40.31673	1.38582E-007	0.0085701	7
	33	47	505.5147	5139.085	-5073.533	1	7221.56	-44.63224	1.241994E-008	0.0087039	7
	34	48	397.9953	5356.526	-6242.821	1	8225.885	-49.36943	6.072213E-009	0.0087895	7
	35	50	315.5048	5614.225	-7652.562	1	9491.113	-53.73474	5.568346E-009	0.00879	7
	36	51	252.4038	5922.979	-9321.931	1	11044.46	-57.56889	1.366268E-009	0.0087285	6
	37	52	198.6229	6339.639	-11537.66	1	13164.67	-61.21237	1.185814E-009	0.0087256	6
	38	54	158.3615	6846.776	-14119.2	1	15691.73	-64.13002	3.314131E-010	0.0087263	6
	39	55	125.558	7518.908	-17382.34	1	18938.85	-66.60862	1.307058E-009	0.008729	6
	40	56	100.4464	8363.701	-21240.88	1	22828.19	-68.50771	2.039276E-010	0.0087288	6
	41	58	79.00281	9629.13	-26286.31	1	27994.47	-69.88134	-8.925327E-011	0.0087255	6
	42	59	63.3446	10898.65	-32308.8	1	34097.5	-71.35932	1.439947E-009	0.0087245	6
	43	61	49.86702	13186.53	-38941.7	1	41113.75	-71.29275	5.814044E-010	0.0087254	6
	44	62	39.72458	15782.02	-47713.02	1	50255.39	-71.69736	2.422954E-010	0.0087346	6
	45	63	31.6723	19347.84	-57892.47	1	61039.96	-71.52022	1.157703E-009	0.0087246	6
	46	65	24.93351	23859.84	-70623.34	1	74544.94	-71.33264	1.088789E-009	0.0087263	6
	47	66	19.86229	29834.5	-85065.82	1	90145.95	-70.67308	4.591384E-010	0.0087341	6
	48	68	15.83615	38999.05	-101538	1	108769.9	-68.98905	2.242293E-009	0.0087313	5
	49	69	12.40079	49653.33	-124414.7	1	133957	-68.24329	2.435969E-009	0.0087301	5
	50	71	9.93114	60521.61	-145300	1	157400.6	-67.38687	5.903128E-010	0.0087326	5
	51	72	7.944915	76058.5	-170213.5	1	186433.7	-65.92291	-5.61004E-010	0.008735	5
	52	74	6.317385	97244.5	-199388.3	1	221838.2	-64.00085	2.073456E-010	0.0087195	5
	53	76	5.008013	122512.7	-231859	1	262236.5	-62.14833	2.44592E-010	0.0087359	5
	54	78	3.945707	152848.3	-267331.2	1	307942.5	-60.24096	-2.721438E-010	0.0087264	5
	55	81	3.158693	185703.5	-302673	1	355101.1	-58.46901	3.800001E-010	0.0087485	5
	56	85	2.504006	224681.6	-343070.6	1	410096.6	-56.77866	-4.028216E-010	0.0087267	5
	57	87	1.998082	266156.6	-384907.2	1	467966.8	-55.33681	-1.908931E-010	0.0087015	5
	58	90	1.584686	312433.8	-430842.3	1	532202.9	-54.05151	3.939738E-012	0.0087804	5
	59	94	1.266892	360100.6	-483324.1	1	602722.7	-53.31205	-1.940048E-010	0.0087132	5
	60	98	0.999041	414816.5	-545084.9	1	684974.6	-52.72841	3.175524E-010	0.0087658	5
