EXPLAIN
TAG	EISPOT
TITLE	LABEL	Potentiostatic EIS	Test &Identifier
DATE	LABEL	11/12/2019	Date
TIME	LABEL	23:57:06	Time
NOTES	NOTES	3	&Notes...
	
	
	
PSTAT	PSTAT	REF600-11020	Potentiostat
VDC	POTEN	0.00000E+000	T	DC &Voltage (V)
FREQINIT	QUANT	1.00000E+006	Initial Fre&q. (Hz)
FREQFINAL	QUANT	1.00000E+000	Final Fre&q. (Hz)
PTSPERDEC	QUANT	1.00000E+001	Points/&decade
VAC	QUANT	2.50000E+001	AC &Voltage (mV rms)
AREA	QUANT	1.00000E-002	&Area (cm^2)
CONDIT	TWOPARAM	T	5.00000E+000	0.00000E+000	Conditionin&g	Time(s)	E(V)
DELAY	TWOPARAM	T	5.00000E+000	0.00000E+000	Init. De&lay	Time(s)	Stab.(mV/s)
SPEED	SELECTOR	1	&Optimize for:
ZGUESS	QUANT	1.00000E+005	E&stimated Z (ohms)
OCVCURVE	TABLE	19
	Pt	T	Vf	Vm	Ach	Over
	#	s	V vs. Ref.	V	V	bits
	0	0.258333	6.03004E-003	6.03004E-003	5.30933E-004	...........
	1	0.516667	6.03065E-003	6.06196E-003	5.44133E-004	...........
	2	0.775	6.03116E-003	5.92283E-003	5.41399E-004	...........
	3	1.03333	6.02353E-003	5.87719E-003	5.30566E-004	...........
	4	1.29167	5.99636E-003	5.83353E-003	5.37599E-004	...........
	5	1.55	5.94996E-003	5.80820E-003	5.43733E-004	...........
	6	1.80833	5.89735E-003	5.77747E-003	5.46366E-004	...........
	7	2.06667	5.84954E-003	5.71100E-003	5.50066E-004	...........
	8	2.325	5.80686E-003	5.65574E-003	5.45099E-004	...........
	9	2.58333	5.76414E-003	5.65154E-003	5.44566E-004	...........
	10	2.84167	5.72094E-003	5.62507E-003	5.49699E-004	...........
	11	3.1	5.68368E-003	5.66984E-003	5.51133E-004	...........
	12	3.35833	5.66000E-003	5.67754E-003	5.48599E-004	...........
	13	3.61667	5.65277E-003	5.66458E-003	5.47633E-004	...........
	14	3.875	5.65641E-003	5.64601E-003	5.46933E-004	...........
	15	4.13333	5.66064E-003	5.64597E-003	5.47299E-004	...........
	16	4.39167	5.65987E-003	5.66183E-003	5.43699E-004	...........
	17	4.65	5.65650E-003	5.65987E-003	5.39366E-004	...........
	18	4.90833	5.65500E-003	5.66189E-003	5.44999E-004	...........
EOC	QUANT	0.005655	Open Circuit (V)
PSTATMODEL	IQUANT	4	Pstat Model
PSTATSECTION	LABEL	REF600-11020	Pstat Section
PSTATSERIALNO	LABEL	11020	Pstat Serial Number
CTRLMODE	IQUANT	1	Control Mode
IESTAB	IQUANT	0	I/E Stability
CASPEED	IQUANT	1	Control Amp Speed
CONVENTION	IQUANT	1	Current Convention
ICHRANGE	IQUANT	2	Ich Range
ICHRANGEMODE	TOGGLE	F	Ich Auto Range
ICHOFFSETENABLE	TOGGLE	T	Ich Offset Enable
ICHOFFSET	QUANT	0	Ich Offset (V)
ICHFILTER	IQUANT	3	Ich Filter
VCHRANGE	IQUANT	2	Vch Range
VCHRANGEMODE	TOGGLE	F	Vch Auto Range
VCHOFFSETENABLE	TOGGLE	T	Vch Offset Enable
VCHOFFSET	QUANT	0	Vch Offset (V)
VCHFILTER	IQUANT	3	Vch Filter
ACHRANGE	IQUANT	2	Ach Range
ACHOFFSETENABLE	TOGGLE	F	Ach Offset Enable
ACHOFFSET	QUANT	0	Ach Offset (V)
ACHFILTER	IQUANT	3	Ach Filter
IERANGELOWERLIMIT	IQUANT	1	I/E Range Lower Limit
IERANGEMODE	TOGGLE	F	I/E AutoRange
IERANGE	IQUANT	5	I/E Range
POSFEEDENABLE	TOGGLE	F	Positive Feedback IR Comp
POSFEEDRESISTANCE	QUANT	0	Positive Feedback Resistance (ohm)
ACHSELECT	IQUANT	0	Ach Select
CABLEID	IQUANT	14	Cable ID
DCCALDATE	LABEL	8/19/2019	DC Calibration Date
ACCALDATE	LABEL	8/19/2019	AC Calibration Date
THERMOSELECT	IQUANT	1	Thermo Select
FRAMEWORKVERSION	QUANT	6.33	Framework Version
INSTRUMENTVERSION	LABEL	3.50	Instrument Version
ZCURVE	TABLE
	Pt	Time	Freq	Zreal	Zimag	Zsig	Zmod	Zphz	Idc	Vdc	IERange
	#	s	Hz	ohm	ohm	V	ohm	°	A	V	#
	0	2	1000078	2343.658	-1694.031	1	2891.794	-35.85997	1.675306E-006	0.0086589	8
	1	3	794390.6	2690.576	-1606.314	1	3133.599	-30.83783	-3.614543E-006	0.0075712	8
	2	5	630984.4	2994.169	-1477.743	1	3338.978	-26.26819	-6.675131E-007	0.0079705	8
	3	6	501234.4	3242.497	-1330.221	1	3504.75	-22.30568	-4.608709E-006	0.0077966	8
	4	8	398109.4	3435.511	-1166.128	1	3628.028	-18.74894	6.250009E-006	0.0062706	8
	5	9	316265.6	3585.136	-1027.234	1	3729.399	-15.98838	-4.702157E-006	0.0076619	8
	6	10	251203.1	3710.675	-882.9949	1	3814.288	-13.3852	-4.087037E-006	0.0076425	8
	7	12	199546.9	3799.11	-761.2422	1	3874.626	-11.33053	6.442036E-006	0.006613	8
	8	13	158578.1	3872.771	-676.0527	1	3931.336	-9.90209	5.326747E-006	0.0062923	8
	9	14	125953.1	3944.222	-520.4021	1	3978.405	-7.516212	-4.685306E-007	0.0054107	7
	10	16	100078.1	3972.679	-473.5581	1	4000.804	-6.797794	5.73617E-008	0.0081869	7
	11	17	79453.13	4007.444	-432.8102	1	4030.749	-6.16414	-1.160003E-006	0.0086277	7
	12	19	63140.62	4044.629	-409.4072	1	4065.297	-5.779931	5.714537E-007	0.0074669	7
	13	20	50203.12	4079.352	-393.3352	1	4098.271	-5.507491	1.039693E-006	0.0062002	7
	14	21	39890.62	4103.329	-385.9755	1	4121.442	-5.373659	5.924324E-008	0.008178	7
	15	23	31640.63	4138.353	-391.7924	1	4156.857	-5.408274	9.569702E-007	0.0065919	7
	16	24	25171.88	4166.95	-407.93	1	4186.87	-5.591243	4.723683E-007	0.0056641	7
	17	25	20015.62	4203.034	-429.5826	1	4224.931	-5.835808	9.578719E-007	0.0065882	7
	18	27	15890.62	4231.966	-472.1527	1	4258.224	-6.366058	9.587095E-007	0.0065893	7
	19	28	12609.37	4258.595	-523.6348	1	4290.667	-7.009875	-1.159446E-006	0.0086219	7
	20	30	10078.13	4294.105	-588.6957	1	4334.271	-7.80624	-8.534639E-007	0.0088512	7
	21	31	8015.625	4340.444	-666.0176	1	4391.245	-8.723685	5.740102E-007	0.0074675	7
	22	32	6328.125	4384.966	-784.3257	1	4454.559	-10.14108	5.723101E-007	0.0074721	7
	23	34	5015.625	4430.498	-919.7366	1	4524.956	-11.72758	5.97386E-008	0.008173	7
	24	35	3984.375	4487.922	-1086.151	1	4617.485	-13.60493	9.332545E-007	0.0056625	7
	25	37	3170.956	4548.53	-1291.642	1	4728.368	-15.85291	1.029552E-006	0.0058787	7
	26	38	2527.573	4609.189	-1538.771	1	4859.264	-18.46151	-6.795059E-007	0.0070829	7
	27	39	1976.103	4701.261	-1876.12	1	5061.787	-21.75533	9.335608E-007	0.005659	7
	28	41	1577.524	4796.964	-2252.43	1	5299.462	-25.15256	-9.827316E-007	0.007716	7
	29	42	1265.625	4899.912	-2697.655	1	5593.432	-28.83506	-5.939145E-007	0.008756	7
	30	43	998.264	5040.75	-3285.599	1	6017.003	-33.09661	-8.519398E-007	0.0088334	7
	31	45	796.875	5202.312	-3968.547	1	6543.196	-37.33795	-1.037227E-006	0.0087721	7
	32	46	627.7902	5405.239	-4865.758	1	7272.703	-41.99332	1.266363E-007	0.0059338	7
	33	48	505.5147	5620.301	-5854.588	1	8115.664	-46.16967	4.692308E-007	0.0056579	7
	34	49	397.9953	5925.277	-7174.461	1	9304.935	-50.44723	5.910035E-009	0.0072669	7
	35	50	315.5048	6280.362	-8760.935	1	10779.47	-54.36478	1.529014E-009	0.0072048	6
	36	52	252.4038	6696.841	-10628.15	1	12562.05	-57.7848	1.464242E-012	0.0072128	6
	37	53	198.6229	7259.091	-13090.08	1	14968.12	-60.98949	7.597906E-010	0.0072091	6
	38	55	158.3615	7939.925	-15953.78	1	17820.37	-63.54126	7.060158E-010	0.0072027	6
	39	56	125.558	8841.635	-19529.18	1	21437.43	-65.64185	9.082121E-010	0.0072004	6
	40	57	100.4464	9964.38	-23705.39	1	25714.48	-67.20093	1.222347E-009	0.0072112	6
	41	59	79.00281	11560.35	-29215.28	1	31419.33	-68.41153	1.160645E-009	0.0072032	6
	42	60	63.3446	13579.87	-34953.62	1	37498.91	-68.7683	4.726379E-010	0.0071928	6
	43	62	49.86702	16604.95	-43081.96	1	46171.2	-68.92199	4.778733E-010	0.0072033	6
	44	63	39.72458	19945.85	-51831.93	1	55537.25	-68.95238	8.033071E-010	0.0072105	6
	45	65	31.6723	24519.88	-61974.81	1	66649.09	-68.41414	1.376817E-009	0.0072009	6
	46	66	24.93351	30674.36	-74778.95	1	80825.79	-67.69654	5.757563E-010	0.0071976	6
	47	67	19.86229	37943.07	-88583.55	1	96367.6	-66.81306	1.192904E-009	0.0071946	6
	48	69	15.83615	47379.36	-103288.1	1	113636.5	-65.35857	1.113813E-009	0.0072062	5
	49	70	12.40079	59508.34	-123013.5	1	136651.2	-64.1844	1.558228E-009	0.007199	5
	50	72	9.93114	71548.63	-142909.2	1	159819.5	-63.4048	4.659321E-010	0.0072002	5
	51	73	7.944915	86665.59	-164883.1	1	186272.3	-62.27276	1.025132E-009	0.0072111	5
	52	75	6.317385	104304.8	-190763.9	1	217417.5	-61.33129	1.183075E-010	0.0072193	5
	53	77	5.008013	125312	-220429.6	1	253559.3	-60.3822	1.28347E-010	0.0072045	5
	54	79	3.945707	149401.7	-255038.1	1	295576.2	-59.63817	1.477948E-010	0.0072046	5
	55	82	3.158693	174927.6	-292209.6	1	340567.3	-59.09368	4.219964E-010	0.0072082	5
	56	86	2.504006	204961.1	-337053.9	1	394479.9	-58.6964	-1.089043E-010	0.0072062	5
	57	88	1.998082	237586.9	-387033.8	1	454139.6	-58.45565	1.284143E-010	0.0071762	5
	58	91	1.584686	275793.6	-445849	1	524255.2	-58.25986	2.265843E-010	0.0072564	5
	59	95	1.266892	316989	-516108.3	1	605681.3	-58.44213	-3.006115E-011	0.0071963	5
	60	99	0.999041	368667.4	-599716.4	1	703971.2	-58.41945	4.020015E-010	0.0072238	5
