EXPLAIN
TAG	EISPOT
TITLE	LABEL	Potentiostatic IDE	Test &Identifier
DATE	LABEL	9/16/2019	Date
TIME	LABEL	8:02:38	Time
NOTES	NOTES	1	&Notes...
	
PSTAT	PSTAT	REF600-11020	Potentiostat
VDC	POTEN	0.00000E+000	T	DC &Voltage (V)
FREQINIT	QUANT	1.00000E+006	Initial Fre&q. (Hz)
FREQFINAL	QUANT	1.00000E+000	Final Fre&q. (Hz)
PTSPERDEC	QUANT	1.00000E+001	Points/&decade
VAC	QUANT	2.50000E+001	AC &Voltage (mV rms)
AREA	QUANT	1.00000E-002	&Area (cm^2)
CONDIT	TWOPARAM	T	5.00000E+000	0.00000E+000	Conditionin&g	Time(s)	E(V)
DELAY	TWOPARAM	T	5.00000E+000	0.00000E+000	Init. De&lay	Time(s)	Stab.(mV/s)
SPEED	SELECTOR	1	&Optimize for:
ZGUESS	QUANT	1.00000E+007	E&stimated Z (ohms)
OCVCURVE	TABLE	19
	Pt	T	Vf	Vm	Ach	Over
	#	s	V vs. Ref.	V	V	bits
	0	0.258333	1.13668E-003	1.13668E-003	5.69032E-004	...........
	1	0.516667	1.13261E-003	9.23890E-004	5.68699E-004	...........
	2	0.775	1.10789E-003	7.34430E-004	5.64366E-004	...........
	3	1.03333	1.03880E-003	5.57595E-004	5.73599E-004	...........
	4	1.29167	9.17207E-004	3.91902E-004	5.77532E-004	...........
	5	1.55	7.58660E-004	2.39321E-004	5.71366E-004	...........
	6	1.80833	5.86706E-004	8.95245E-005	5.75566E-004	...........
	7	2.06667	4.17504E-004	-5.35139E-005	5.71666E-004	...........
	8	2.325	2.57173E-004	-1.87467E-004	5.72932E-004	...........
	9	2.58333	1.06049E-004	-3.18384E-004	5.69832E-004	...........
	10	2.84167	-3.71142E-005	-4.41433E-004	5.71199E-004	...........
	11	3.1	-1.73464E-004	-5.61797E-004	5.67666E-004	...........
	12	3.35833	-3.03873E-004	-6.78613E-004	5.69966E-004	...........
	13	3.61667	-4.29068E-004	-7.88468E-004	5.64566E-004	...........
	14	3.875	-5.49618E-004	-8.99102E-004	5.64899E-004	...........
	15	4.13333	-6.65907E-004	-1.00114E-003	5.64199E-004	...........
	16	4.39167	-7.78200E-004	-1.10389E-003	5.67499E-004	...........
	17	4.65	-8.86719E-004	-1.20223E-003	5.62899E-004	...........
	18	4.90833	-9.91767E-004	-1.29909E-003	5.76432E-004	...........
EOC	QUANT	-0.0009918	Open Circuit (V)
PSTATMODEL	IQUANT	4	Pstat Model
PSTATSECTION	LABEL	REF600-11020	Pstat Section
PSTATSERIALNO	LABEL	11020	Pstat Serial Number
CTRLMODE	IQUANT	1	Control Mode
IESTAB	IQUANT	0	I/E Stability
CASPEED	IQUANT	1	Control Amp Speed
CONVENTION	IQUANT	1	Current Convention
ICHRANGE	IQUANT	2	Ich Range
ICHRANGEMODE	TOGGLE	F	Ich Auto Range
ICHOFFSETENABLE	TOGGLE	T	Ich Offset Enable
ICHOFFSET	QUANT	0	Ich Offset (V)
ICHFILTER	IQUANT	3	Ich Filter
VCHRANGE	IQUANT	2	Vch Range
VCHRANGEMODE	TOGGLE	F	Vch Auto Range
VCHOFFSETENABLE	TOGGLE	T	Vch Offset Enable
VCHOFFSET	QUANT	0	Vch Offset (V)
VCHFILTER	IQUANT	3	Vch Filter
ACHRANGE	IQUANT	2	Ach Range
ACHOFFSETENABLE	TOGGLE	F	Ach Offset Enable
ACHOFFSET	QUANT	0	Ach Offset (V)
ACHFILTER	IQUANT	3	Ach Filter
IERANGELOWERLIMIT	IQUANT	1	I/E Range Lower Limit
IERANGEMODE	TOGGLE	F	I/E AutoRange
IERANGE	IQUANT	2	I/E Range
POSFEEDENABLE	TOGGLE	F	Positive Feedback IR Comp
POSFEEDRESISTANCE	QUANT	0	Positive Feedback Resistance (ohm)
ACHSELECT	IQUANT	0	Ach Select
CABLEID	IQUANT	14	Cable ID
DCCALDATE	LABEL	8/19/2019	DC Calibration Date
ACCALDATE	LABEL	8/19/2019	AC Calibration Date
THERMOSELECT	IQUANT	1	Thermo Select
FRAMEWORKVERSION	QUANT	6.33	Framework Version
INSTRUMENTVERSION	LABEL	3.50	Instrument Version
ZCURVE	TABLE
	Pt	Time	Freq	Zreal	Zimag	Zsig	Zmod	Zphz	Idc	Vdc	IERange
	#	s	Hz	ohm	ohm	V	ohm	°	A	V	#
	0	2	1000078	2307.246	-1529.627	1	2768.239	-33.54304	-1.484456E-006	0.0016169	8
	1	3	794390.6	2612.897	-1442.338	1	2984.555	-28.89901	2.265497E-006	0.0004061	8
	2	5	630984.4	2869.008	-1329.012	1	3161.879	-24.85502	5.429532E-007	0.0005575	8
	3	6	501234.4	3075.947	-1173.019	1	3292.024	-20.87446	-4.114195E-006	0.0015245	8
	4	8	398109.4	3231.23	-1028.39	1	3390.934	-17.65449	-6.113028E-007	0.000935	8
	5	9	316265.6	3376.028	-917.1149	1	3498.38	-15.19792	-6.475325E-007	0.0009045	8
	6	10	251203.1	3470.59	-764.8452	1	3553.869	-12.42813	-9.278542E-007	0.0008865	8
	7	12	199546.9	3553.643	-662.71	1	3614.909	-10.5636	-2.450679E-006	0.0009274	8
	8	13	158578.1	3617.415	-594.7837	1	3665.987	-9.337159	-3.37242E-006	0.0013294	8
	9	14	125953.1	3676.493	-479.5014	1	3707.63	-7.430778	1.351606E-006	-0.0017194	7
	10	16	100078.1	3710.145	-431.3273	1	3735.133	-6.63122	-1.658746E-008	0.0005479	7
	11	17	79453.13	3743.004	-405.5797	1	3764.914	-6.184256	-3.807003E-008	0.0005863	7
	12	18	63140.62	3775.86	-390.5477	1	3796.004	-5.905262	4.486158E-008	0.0004172	7
	13	20	50203.12	3808.427	-383.7706	1	3827.714	-5.754203	1.384571E-007	0.0003574	7
	14	21	39890.62	3841.783	-390.0655	1	3861.535	-5.797511	7.615021E-008	0.0005217	7
	15	22	31640.63	3876.163	-401.0224	1	3896.853	-5.906726	-1.964724E-008	0.0006979	7
	16	24	25171.88	3913.535	-423.0671	1	3936.336	-6.169918	-1.74344E-008	0.0005347	7
	17	25	20015.62	3951.421	-455.6277	1	3977.603	-6.577574	-4.615865E-008	0.0006962	7
	18	26	15890.62	3994.718	-495.7256	1	4025.359	-7.07397	7.780667E-008	0.000524	7
	19	28	12609.37	4041.021	-551.4261	1	4078.47	-7.770425	1.376539E-007	0.0003489	7
	20	29	10078.13	4089.43	-617.6129	1	4135.805	-8.588285	-4.503819E-008	0.0006911	7
	21	31	8015.625	4143.883	-696.4474	1	4202	-9.54033	-3.5876E-008	0.0005768	7
	22	32	6328.125	4204.645	-797.2471	1	4279.561	-10.73646	-3.8692E-008	0.0005972	7
	23	33	5015.625	4268.639	-918.9112	1	4366.426	-12.14868	-7.031976E-008	0.0006561	7
	24	35	3984.375	4338.437	-1064.284	1	4467.072	-13.78333	-1.249154E-008	0.0005934	7
	25	36	3170.956	4422.083	-1244.27	1	4593.803	-15.71535	-5.191256E-008	0.0006448	7
	26	37	2527.573	4505.727	-1457.282	1	4735.53	-17.9227	2.031292E-008	0.0004596	7
	27	39	1976.103	4607.529	-1741.619	1	4925.704	-20.7063	2.3243E-008	0.0004646	7
	28	40	1577.524	4711.805	-2063.81	1	5143.969	-23.65382	1.408825E-007	0.0003432	7
	29	41	1265.625	4833.838	-2434.848	1	5412.437	-26.73481	-1.797356E-008	0.0005236	7
	30	43	998.264	4971.738	-2942.376	1	5777.175	-30.61791	7.848213E-008	0.0005208	7
	31	44	796.875	5129.32	-3522.417	1	6222.326	-34.47824	7.819423E-008	0.0004131	7
	32	45	627.7902	5322.312	-4271.202	1	6824.234	-38.74735	-3.644796E-008	0.0006014	7
	33	46	505.5147	5523.247	-5106.291	1	7521.998	-42.75366	7.48061E-008	0.0004058	7
	34	48	397.9953	5790.123	-6237.337	1	8510.575	-47.12943	7.084851E-009	0.0005691	7
	35	49	315.5048	6100.633	-7594.162	1	9741.1	-51.22397	6.233274E-009	0.0005747	7
	36	50	252.4038	6467.854	-9191.524	1	11239.1	-54.86687	1.949745E-009	0.0005071	6
	37	52	198.6229	6959.232	-11307.52	1	13277.46	-58.38971	1.377823E-009	0.0005025	6
	38	53	158.3615	7550.153	-13766.8	1	15701.26	-61.25822	2.260233E-009	0.0005	6
	39	54	125.558	8338.098	-16842.98	1	18793.88	-63.66235	1.801044E-009	0.0005007	6
	40	56	100.4464	9330.031	-20460.79	1	22487.63	-65.48722	2.199713E-009	0.0005009	6
	41	57	79.00281	10790.74	-25113.21	1	27333.38	-66.74758	1.788067E-009	0.0004964	6
	42	58	63.3446	12208.63	-30418.31	1	32776.89	-68.13155	7.951825E-010	0.0005032	6
	43	60	49.86702	15036.35	-36852.31	1	39801.81	-67.80373	5.03658E-010	0.0005003	6
	44	61	39.72458	17880.17	-44600.39	1	48050.97	-68.15429	7.419686E-010	0.0005082	6
	45	63	31.6723	21987.73	-53395.66	1	57745.62	-67.61869	3.246736E-010	0.0005039	6
	46	64	24.93351	27087.78	-64278.21	1	69752.68	-67.14873	1.684669E-009	0.0004999	6
	47	65	19.86229	33343.25	-76210.41	1	83185.33	-66.36987	1.5308E-009	0.0005027	6
	48	67	15.83615	41151.74	-90258.77	1	99197.3	-65.4903	9.66322E-011	0.0005031	6
	49	68	12.40079	51019.83	-106502.9	1	118092.8	-64.40343	4.85507E-010	0.0005079	5
	50	69	9.93114	63106.22	-124031	1	139162.1	-63.03329	1.524669E-009	0.0005068	5
	51	71	7.944915	77196.64	-143543.9	1	162985.2	-61.72903	3.54154E-010	0.0005171	5
	52	73	6.317385	93973.32	-166137.5	1	190873.4	-60.50595	1.973625E-010	0.0005206	5
	53	75	5.008013	114670	-191318.1	1	223051.2	-59.06285	8.115368E-010	0.0005081	5
	54	77	3.945707	139057.8	-219969.5	1	260237.7	-57.7002	1.105992E-009	0.0005103	5
	55	80	3.158693	166101.8	-249287.5	1	299556.5	-56.32424	6.716039E-010	0.00052	5
	56	83	2.504006	198271.2	-282965.3	1	345515.3	-54.98141	7.21737E-010	0.0004976	5
	57	86	1.998082	233078.6	-318621.5	1	394772.4	-53.81372	2.160821E-010	0.0005039	5
	58	89	1.584686	275094	-358380.7	1	451789.2	-52.49006	6.435729E-010	0.000552	5
	59	92	1.266892	318439.8	-400982.7	1	512045.9	-51.5452	1.276985E-010	0.0004977	5
	60	97	0.999041	371111.4	-449590.6	1	582971.1	-50.46227	9.176561E-010	0.0005371	5
