EXPLAIN
TAG	EISPOT
TITLE	LABEL	Potentiostatic EIS	Test &Identifier
DATE	LABEL	9/20/2019	Date
TIME	LABEL	11:44:02	Time
NOTES	NOTES	1	&Notes...
	
PSTAT	PSTAT	REF600-11020	Potentiostat
VDC	POTEN	0.00000E+000	T	DC &Voltage (V)
FREQINIT	QUANT	1.00000E+006	Initial Fre&q. (Hz)
FREQFINAL	QUANT	1.00000E+000	Final Fre&q. (Hz)
PTSPERDEC	QUANT	1.00000E+001	Points/&decade
VAC	QUANT	2.50000E+001	AC &Voltage (mV rms)
AREA	QUANT	1.00000E-002	&Area (cm^2)
CONDIT	TWOPARAM	T	5.00000E+000	0.00000E+000	Conditionin&g	Time(s)	E(V)
DELAY	TWOPARAM	T	5.00000E+000	0.00000E+000	Init. De&lay	Time(s)	Stab.(mV/s)
SPEED	SELECTOR	1	&Optimize for:
ZGUESS	QUANT	1.00000E+004	E&stimated Z (ohms)
OCVCURVE	TABLE	19
	Pt	T	Vf	Vm	Ach	Over
	#	s	V vs. Ref.	V	V	bits
	0	0.258333	5.14651E-003	5.14651E-003	5.50166E-004	...........
	1	0.516667	5.14079E-003	4.84720E-003	5.55266E-004	...........
	2	0.775	5.10623E-003	4.59199E-003	5.47999E-004	...........
	3	1.03333	5.01070E-003	4.37090E-003	5.59499E-004	...........
	4	1.29167	4.84576E-003	4.18343E-003	5.57566E-004	...........
	5	1.55	4.63730E-003	4.01031E-003	5.53032E-004	...........
	6	1.80833	4.42094E-003	3.85923E-003	5.51333E-004	...........
	7	2.06667	4.21944E-003	3.72138E-003	5.49233E-004	...........
	8	2.325	4.04012E-003	3.59524E-003	5.50566E-004	...........
	9	2.58333	3.88162E-003	3.47635E-003	5.45999E-004	...........
	10	2.84167	3.73980E-003	3.36881E-003	5.51733E-004	...........
	11	3.1	3.61084E-003	3.26756E-003	5.43099E-004	...........
	12	3.35833	3.49224E-003	3.17459E-003	5.49933E-004	...........
	13	3.61667	3.38252E-003	3.08527E-003	5.50233E-004	...........
	14	3.875	3.28061E-003	3.00434E-003	5.51733E-004	...........
	15	4.13333	3.18579E-003	2.93383E-003	5.54766E-004	...........
	16	4.39167	3.09769E-003	2.85481E-003	5.53499E-004	...........
	17	4.65	3.01559E-003	2.78484E-003	5.56299E-004	...........
	18	4.90833	2.93806E-003	2.71756E-003	5.58999E-004	...........
EOC	QUANT	0.0029381	Open Circuit (V)
PSTATMODEL	IQUANT	4	Pstat Model
PSTATSECTION	LABEL	REF600-11020	Pstat Section
PSTATSERIALNO	LABEL	11020	Pstat Serial Number
CTRLMODE	IQUANT	1	Control Mode
IESTAB	IQUANT	0	I/E Stability
CASPEED	IQUANT	1	Control Amp Speed
CONVENTION	IQUANT	1	Current Convention
ICHRANGE	IQUANT	2	Ich Range
ICHRANGEMODE	TOGGLE	F	Ich Auto Range
ICHOFFSETENABLE	TOGGLE	T	Ich Offset Enable
ICHOFFSET	QUANT	0	Ich Offset (V)
ICHFILTER	IQUANT	3	Ich Filter
VCHRANGE	IQUANT	2	Vch Range
VCHRANGEMODE	TOGGLE	F	Vch Auto Range
VCHOFFSETENABLE	TOGGLE	T	Vch Offset Enable
VCHOFFSET	QUANT	0	Vch Offset (V)
VCHFILTER	IQUANT	3	Vch Filter
ACHRANGE	IQUANT	2	Ach Range
ACHOFFSETENABLE	TOGGLE	F	Ach Offset Enable
ACHOFFSET	QUANT	0	Ach Offset (V)
ACHFILTER	IQUANT	3	Ach Filter
IERANGELOWERLIMIT	IQUANT	1	I/E Range Lower Limit
IERANGEMODE	TOGGLE	F	I/E AutoRange
IERANGE	IQUANT	5	I/E Range
POSFEEDENABLE	TOGGLE	F	Positive Feedback IR Comp
POSFEEDRESISTANCE	QUANT	0	Positive Feedback Resistance (ohm)
ACHSELECT	IQUANT	0	Ach Select
CABLEID	IQUANT	14	Cable ID
DCCALDATE	LABEL	8/19/2019	DC Calibration Date
ACCALDATE	LABEL	8/19/2019	AC Calibration Date
THERMOSELECT	IQUANT	1	Thermo Select
FRAMEWORKVERSION	QUANT	6.33	Framework Version
INSTRUMENTVERSION	LABEL	3.50	Instrument Version
ZCURVE	TABLE
	Pt	Time	Freq	Zreal	Zimag	Zsig	Zmod	Zphz	Idc	Vdc	IERange
	#	s	Hz	ohm	ohm	V	ohm	°	A	V	#
	0	1	1000078	2153.688	-1417.664	1	2578.4	-33.35489	8.650343E-007	0.0054107	8
	1	2	794390.6	2422.729	-1341.394	1	2769.287	-28.97201	-1.172834E-006	0.0054613	8
	2	4	630984.4	2659.643	-1248.995	1	2938.314	-25.15521	-3.387155E-006	0.0056698	8
	3	5	501234.4	2862.87	-1129.352	1	3077.573	-21.52837	1.09925E-006	0.0046593	8
	4	6	398109.4	3028.915	-1003.827	1	3190.924	-18.33596	-3.358308E-006	0.0053922	8
	5	8	316265.6	3160.833	-904.8109	1	3287.787	-15.97415	-2.013134E-007	0.0047612	8
	6	9	251203.1	3255.041	-801.294	1	3352.218	-13.82953	8.684339E-007	0.0046557	8
	7	10	199546.9	3359.654	-693.817	1	3430.547	-11.66837	4.110896E-006	0.0038584	8
	8	12	158578.1	3410.771	-638.4907	1	3470.019	-10.60296	1.750077E-006	0.0041457	8
	9	13	125953.1	3491.808	-537.3568	1	3532.913	-8.748656	1.986324E-007	0.0042488	7
	10	15	100078.1	3526.995	-499.3105	1	3562.163	-8.057717	8.626566E-008	0.0045376	7
	11	16	79453.13	3570.795	-482.8742	1	3603.296	-7.70132	-8.192553E-009	0.0046091	7
	12	17	63140.62	3613.288	-477.4409	1	3644.694	-7.527159	1.674406E-009	0.0047013	7
	13	19	50203.12	3658.316	-482.894	1	3690.049	-7.519513	-3.454455E-008	0.0046568	7
	14	20	39890.62	3704.01	-497.7027	1	3737.298	-7.652916	-4.662372E-009	0.00462	7
	15	21	31640.63	3752.99	-523.7466	1	3789.36	-7.944572	-1.705678E-009	0.0045254	7
	16	23	25171.88	3805.644	-559.9346	1	3846.616	-8.370028	-1.390059E-009	0.0045238	7
	17	24	20015.62	3863.026	-607.1674	1	3910.45	-8.932334	-2.201098E-009	0.0045178	7
	18	25	15890.62	3926.852	-666.7511	1	3983.055	-9.63651	-2.989395E-008	0.0045803	7
	19	27	12609.37	3997.734	-738.9261	1	4065.45	-10.47215	-8.058132E-009	0.0045994	7
	20	28	10078.13	4074.495	-821.0952	1	4156.406	-11.39369	4.057578E-009	0.0046856	7
	21	29	8015.625	4162.222	-921.0834	1	4262.92	-12.47823	-4.979036E-008	0.0046189	7
	22	31	6328.125	4264.301	-1041.325	1	4389.604	-13.72283	2.865236E-009	0.0046859	7
	23	32	5015.625	4377.982	-1179.749	1	4534.152	-15.08145	-5.037483E-008	0.0046246	7
	24	34	3984.375	4505.868	-1338.359	1	4700.431	-16.54278	8.062114E-008	0.0044095	7
	25	35	3170.956	4650.689	-1521.087	1	4893.12	-18.11121	-5.09593E-008	0.0046208	7
	26	36	2527.573	4815.295	-1729.399	1	5116.434	-19.7556	-8.017515E-009	0.0045938	7
	27	38	1976.103	5021.466	-1987.237	1	5400.392	-21.5911	-2.482451E-008	0.0046446	7
	28	39	1577.524	5234.51	-2254.684	1	5699.447	-23.30321	-3.345536E-008	0.0046489	7
	29	40	1265.625	5465.438	-2547.105	1	6029.822	-24.98733	-6.276715E-008	0.004677	7
	30	42	998.264	5748.273	-2899.457	1	6438.128	-26.7666	-2.908479E-008	0.0045684	7
	31	43	796.875	6030.865	-3277.433	1	6863.883	-28.52157	8.082864E-008	0.0044023	7
	32	44	627.7902	6341.031	-3744.639	1	7364.17	-30.56359	-5.040891E-009	0.004592	7
	33	46	505.5147	6616.532	-4239.9	1	7858.451	-32.65191	-3.817976E-008	0.0045753	7
	34	47	397.9953	6918.167	-4911.105	1	8484.103	-35.37038	5.629611E-009	0.0045918	7
	35	49	315.5048	7203.113	-5727.865	1	9202.895	-38.49147	6.550672E-009	0.0045924	7
	36	50	252.4038	7477.58	-6713.333	1	10049.03	-41.91734	8.222394E-010	0.00453	6
	37	51	198.6229	7778.816	-8058.052	1	11200.1	-46.01013	1.102369E-009	0.0045307	6
	38	53	158.3615	8086.313	-9667.83	1	12603.79	-50.09042	8.787894E-010	0.0045312	6
	39	54	125.558	8445.426	-11736.84	1	14459.55	-54.26251	9.316741E-010	0.0045294	6
	40	55	100.4464	8849.765	-14214.17	1	16743.98	-58.09353	3.941415E-010	0.0045322	6
	41	57	79.00281	9399.742	-17577.07	1	19932.6	-61.86334	7.22863E-010	0.0045296	6
	42	58	63.3446	10061.25	-21450.45	1	23692.84	-64.87124	9.792851E-010	0.0045319	6
	43	60	49.86702	10791.8	-26442.34	1	28559.77	-67.79836	1.13772E-009	0.0045245	6
	44	61	39.72458	11880.41	-32486.44	1	34590.65	-69.91235	8.294843E-010	0.0045291	6
	45	62	31.6723	13258.73	-39864.04	1	42011.14	-71.60294	5.889915E-010	0.0045292	6
	46	64	24.93351	15070.08	-49399.49	1	51647.04	-73.03486	4.620127E-010	0.0045283	6
	47	65	19.86229	17329.87	-60554.35	1	62985.35	-74.02956	2.774581E-010	0.0045281	6
	48	66	15.83615	19965.19	-73907.85	1	76557.03	-74.88315	1.512515E-009	0.0045315	6
	49	68	12.40079	24517.83	-92194.3	1	95398.7	-75.10765	-4.463581E-011	0.0045339	6
	50	69	9.93114	29286.23	-111775.8	1	115548.7	-75.31803	6.123742E-010	0.0045313	5
	51	71	7.944915	35629.89	-135751.5	1	140349.4	-75.29362	1.113653E-010	0.0045347	5
	52	73	6.317385	43975.32	-165373.3	1	171120.3	-75.10877	1.657703E-010	0.0045224	5
	53	75	5.008013	54915.75	-201770.5	1	209110.2	-74.77464	1.478924E-010	0.0045248	5
	54	77	3.945707	69438.92	-246608.8	1	256198.5	-74.27409	2.510682E-010	0.0045306	5
	55	80	3.158693	86870.08	-296615.3	1	309074.5	-73.67622	2.407955E-010	0.0045257	5
	56	83	2.504006	109669.2	-358402.8	1	374806.5	-72.98619	1.704688E-010	0.0045433	5
	57	86	1.998082	138377	-428064.3	1	449874.7	-72.08595	4.223948E-010	0.004505	5
	58	89	1.584686	174556	-516095	1	544815.4	-71.3132	1.43498E-010	0.0044975	5
	59	93	1.266892	219532.3	-613204.2	1	651317	-70.3022	3.322144E-010	0.0044919	5
	60	97	0.999041	277294.1	-733641.3	1	784296.9	-69.29493	1.490415E-010	0.0045557	5
