EXPLAIN
TAG	EISPOT
TITLE	LABEL	Potentiostatic EIS	Test &Identifier
DATE	LABEL	10/16/2019	Date
TIME	LABEL	10:00:46	Time
NOTES	NOTES	1	&Notes...
	
PSTAT	PSTAT	REF600-11020	Potentiostat
VDC	POTEN	0.00000E+000	T	DC &Voltage (V)
FREQINIT	QUANT	1.00000E+006	Initial Fre&q. (Hz)
FREQFINAL	QUANT	1.00000E+000	Final Fre&q. (Hz)
PTSPERDEC	QUANT	1.00000E+001	Points/&decade
VAC	QUANT	2.50000E+001	AC &Voltage (mV rms)
AREA	QUANT	1.00000E-002	&Area (cm^2)
CONDIT	TWOPARAM	T	5.00000E+000	0.00000E+000	Conditionin&g	Time(s)	E(V)
DELAY	TWOPARAM	T	5.00000E+000	0.00000E+000	Init. De&lay	Time(s)	Stab.(mV/s)
SPEED	SELECTOR	0	&Optimize for:
ZGUESS	QUANT	1.00000E+005	E&stimated Z (ohms)
OCVCURVE	TABLE	19
	Pt	T	Vf	Vm	Ach	Over
	#	s	V vs. Ref.	V	V	bits
	0	0.258333	7.16020E-003	7.16020E-003	5.72899E-004	...........
	1	0.516667	7.16097E-003	7.20049E-003	5.76899E-004	...........
	2	0.775	7.16679E-003	7.29609E-003	5.72899E-004	...........
	3	1.03333	7.18888E-003	7.49111E-003	5.77299E-004	...........
	4	1.29167	7.24339E-003	7.64276E-003	5.72032E-004	...........
	5	1.55	7.33876E-003	7.73511E-003	5.74832E-004	...........
	6	1.80833	7.46306E-003	7.79964E-003	5.71066E-004	...........
	7	2.06667	7.58979E-003	7.84221E-003	5.72632E-004	...........
	8	2.325	7.69691E-003	7.89016E-003	5.77032E-004	...........
	9	2.58333	7.77839E-003	7.96122E-003	5.78165E-004	...........
	10	2.84167	7.84193E-003	8.02578E-003	5.75165E-004	...........
	11	3.1	7.89968E-003	8.10218E-003	5.73066E-004	...........
	12	3.35833	7.95999E-003	8.17002E-003	5.74832E-004	...........
	13	3.61667	8.02531E-003	8.24440E-003	5.76399E-004	...........
	14	3.875	8.09455E-003	8.31743E-003	5.76466E-004	...........
	15	4.13333	8.16603E-003	8.39203E-003	5.68332E-004	...........
	16	4.39167	8.23874E-003	8.46541E-003	5.71799E-004	...........
	17	4.65	8.31169E-003	8.51551E-003	5.74366E-004	...........
	18	4.90833	8.38324E-003	8.59869E-003	5.76999E-004	...........
EOC	QUANT	0.0083832	Open Circuit (V)
PSTATMODEL	IQUANT	4	Pstat Model
PSTATSECTION	LABEL	REF600-11020	Pstat Section
PSTATSERIALNO	LABEL	11020	Pstat Serial Number
CTRLMODE	IQUANT	1	Control Mode
IESTAB	IQUANT	0	I/E Stability
CASPEED	IQUANT	1	Control Amp Speed
CONVENTION	IQUANT	1	Current Convention
ICHRANGE	IQUANT	2	Ich Range
ICHRANGEMODE	TOGGLE	F	Ich Auto Range
ICHOFFSETENABLE	TOGGLE	T	Ich Offset Enable
ICHOFFSET	QUANT	0	Ich Offset (V)
ICHFILTER	IQUANT	3	Ich Filter
VCHRANGE	IQUANT	2	Vch Range
VCHRANGEMODE	TOGGLE	F	Vch Auto Range
VCHOFFSETENABLE	TOGGLE	T	Vch Offset Enable
VCHOFFSET	QUANT	0	Vch Offset (V)
VCHFILTER	IQUANT	3	Vch Filter
ACHRANGE	IQUANT	2	Ach Range
ACHOFFSETENABLE	TOGGLE	F	Ach Offset Enable
ACHOFFSET	QUANT	0	Ach Offset (V)
ACHFILTER	IQUANT	3	Ach Filter
IERANGELOWERLIMIT	IQUANT	1	I/E Range Lower Limit
IERANGEMODE	TOGGLE	F	I/E AutoRange
IERANGE	IQUANT	5	I/E Range
POSFEEDENABLE	TOGGLE	F	Positive Feedback IR Comp
POSFEEDRESISTANCE	QUANT	0	Positive Feedback Resistance (ohm)
ACHSELECT	IQUANT	0	Ach Select
CABLEID	IQUANT	14	Cable ID
DCCALDATE	LABEL	8/19/2019	DC Calibration Date
ACCALDATE	LABEL	8/19/2019	AC Calibration Date
THERMOSELECT	IQUANT	1	Thermo Select
FRAMEWORKVERSION	QUANT	6.33	Framework Version
INSTRUMENTVERSION	LABEL	3.50	Instrument Version
ZCURVE	TABLE
	Pt	Time	Freq	Zreal	Zimag	Zsig	Zmod	Zphz	Idc	Vdc	IERange
	#	s	Hz	ohm	ohm	V	ohm	°	A	V	#
	0	2	1000078	2342.711	-1094.792	1	2585.897	-25.04755	6.715899E-007	0.0107939	8
	1	2	794390.6	2532.685	-980.623	1	2715.9	-21.16576	-2.079344E-006	0.0108509	8
	2	2	630984.4	2664.398	-868.5875	1	2802.403	-18.05585	1.430242E-006	0.0102335	8
	3	3	501234.4	2785.492	-764.145	1	2888.405	-15.34057	-5.014205E-007	0.0101824	8
	4	3	398109.4	2867.833	-670.2073	1	2945.105	-13.15384	-1.427788E-006	0.010446	8
	5	3	316265.6	2937.208	-585.6141	1	2995.019	-11.27565	-1.237359E-006	0.0103351	8
	6	4	251203.1	2996.944	-516.0746	1	3041.054	-9.77052	2.614194E-006	0.0096374	8
	7	4	199546.9	3032.469	-463.031	1	3067.616	-8.681501	2.471393E-006	0.0096398	8
	8	4	158578.1	3073.002	-430.1498	1	3102.961	-7.968321	2.197074E-007	0.0101048	8
	9	5	125953.1	3133.852	-344.384	1	3152.717	-6.271162	-2.382848E-007	0.0102746	7
	10	5	100078.1	3160.839	-336.5649	1	3178.708	-6.07793	3.133627E-008	0.0100247	7
	11	5	79453.13	3193.734	-334.9306	1	3211.248	-5.986793	-2.309765E-008	0.0100385	7
	12	6	63140.62	3229.512	-338.3597	1	3247.189	-5.981123	3.907557E-009	0.0100373	7
	13	6	50203.12	3266.526	-345.1507	1	3284.71	-6.031659	9.308299E-009	0.0101252	7
	14	6	39890.62	3304.701	-356.2787	1	3323.851	-6.153273	7.815517E-008	0.009978	7
	15	6	31640.63	3344.967	-372.5343	1	3365.648	-6.354933	3.040259E-009	0.0100343	7
	16	7	25171.88	3384.964	-393.0477	1	3407.708	-6.623282	-1.003808E-008	0.0100383	7
	17	7	20015.62	3439.579	-425.4782	1	3465.795	-7.051703	-4.649779E-008	0.0101006	7
	18	7	15890.62	3469.881	-454.0252	1	3499.458	-7.454658	-2.865779E-008	0.0100428	7
	19	8	12609.37	3512.927	-498.7881	1	3548.16	-8.081209	8.465967E-009	0.0101192	7
	20	8	10078.13	3558.223	-550.0729	1	3600.49	-8.787907	8.131498E-008	0.0099782	7
	21	8	8015.625	3605.832	-615.2075	1	3657.938	-9.68227	-3.578689E-008	0.0101227	7
	22	9	6328.125	3656.744	-698.9267	1	3722.939	-10.82064	-8.422234E-009	0.0100106	7
	23	9	5015.625	3709.724	-801.6193	1	3795.346	-12.19334	5.537486E-009	0.0100258	7
	24	9	3984.375	3753.8	-934.7189	1	3868.425	-13.98263	9.722496E-008	0.0098954	7
	25	10	3170.956	3825.255	-1078.782	1	3974.462	-15.74928	-6.890813E-009	0.0100069	7
	26	10	2527.573	3887.013	-1265.175	1	4087.73	-18.02943	-2.248978E-008	0.010028	7
	27	10	1976.103	3959.727	-1519.296	1	4241.19	-20.99116	8.07531E-009	0.0099807	7
	28	11	1577.524	4030.957	-1844.213	1	4432.802	-24.58468	-2.264451E-008	0.0100307	7
	29	11	1265.625	4116.363	-2155.338	1	4646.496	-27.63666	6.054183E-008	0.0099107	7
	30	11	998.264	4214.348	-2622.749	1	4963.823	-31.89557	8.066819E-008	0.0099718	7
	31	12	796.875	4330.739	-3169.088	1	5366.416	-36.1954	-1.318385E-008	0.0100656	7
	32	12	627.7902	4474.685	-3886.017	1	5926.544	-40.97251	-5.768944E-009	0.0100034	7
	33	12	505.5147	4632.921	-4682.344	1	6586.98	-45.30399	3.235987E-008	0.0099239	7
	34	13	397.9953	4849.876	-5772.93	1	7539.763	-49.96616	2.974925E-009	0.0100574	7
	35	13	315.5048	5115.343	-7078.175	1	8733.114	-54.14465	2.020066E-009	0.0100555	7
	36	13	252.4038	5441.645	-8614.483	1	10189.25	-57.71999	2.274386E-010	0.0099923	6
	37	13	198.6229	5886.645	-10640.96	1	12160.7	-61.04835	2.73565E-010	0.0099969	6
	38	14	158.3615	6434.982	-12994.96	1	14500.96	-63.65582	1.358644E-010	0.0099918	6
	39	14	125.558	7161.399	-15933.58	1	17468.96	-65.79831	2.09701E-010	0.0099928	6
	40	14	100.4464	8061.967	-19339.56	1	20952.66	-67.37051	6.126929E-010	0.0099892	6
	41	15	79.00281	9331.296	-23834.8	1	25596.31	-68.61972	-3.111413E-010	0.0099861	6
	42	15	63.3446	11218.25	-28758.54	1	30869.13	-68.69004	2.863606E-010	0.0099828	6
	43	15	49.86702	13469.03	-35281.14	1	37764.71	-69.105	8.830031E-010	0.0099816	6
	44	16	39.72458	16130.64	-42583.77	1	45536.52	-69.25342	5.017047E-010	0.0099903	6
	45	16	31.6723	19836.34	-51177.66	1	54887.46	-68.81379	4.802744E-010	0.0099862	6
	46	17	24.93351	25146.87	-61749.97	1	66674.01	-67.84203	4.054423E-010	0.0099883	6
	47	17	19.86229	31564.8	-73266.02	1	79776.23	-66.69244	5.399694E-010	0.0099809	6
	48	17	15.83615	40144.88	-86907.77	1	95731.8	-65.2066	2.914335E-009	0.0099811	6
	49	17	12.40079	51104.5	-101759.6	1	113871.3	-63.33382	-3.940551E-010	0.0099874	5
	50	18	9.93114	62454.57	-116767.7	1	132420.8	-61.85938	4.538629E-010	0.0099857	5
	51	18	7.944915	75346.4	-133145.3	1	152986.1	-60.49466	7.058868E-010	0.0099871	5
	52	19	6.317385	91002.16	-151572.8	1	176792.8	-59.01999	7.012596E-010	0.0099755	5
	53	20	5.008013	108105.1	-172267.7	1	203378.6	-57.89001	2.469654E-010	0.0099902	5
	54	21	3.945707	127195.1	-196300.9	1	233907.3	-57.05838	-2.1285E-010	0.0099887	5
	55	22	3.158693	144939	-222547.5	1	265583.7	-56.92493	-2.165704E-010	0.0099738	5
	56	24	2.504006	165413	-254949.7	1	303909.3	-57.02423	4.55033E-011	0.0099918	5
	57	25	1.998082	185692.5	-292926.3	1	346824.9	-57.62847	2.572251E-012	0.0099933	5
	58	27	1.584686	210078.1	-339812.3	1	399506.3	-58.27489	-1.719142E-010	0.009948	5
	59	29	1.266892	236325.5	-396246.9	1	461369	-59.18774	-1.694182E-010	0.0099423	5
	60	31	0.999041	267661.2	-468235.4	1	539339.3	-60.24607	-1.543304E-010	0.0099576	5
