EXPLAIN
TAG	EISPOT
TITLE	LABEL	Potentiostatic EIS	Test &Identifier
DATE	LABEL	10/26/2019	Date
TIME	LABEL	10:32:14	Time
NOTES	NOTES	1	&Notes...
	
PSTAT	PSTAT	REF600-11020	Potentiostat
VDC	POTEN	0.00000E+000	T	DC &Voltage (V)
FREQINIT	QUANT	1.00000E+006	Initial Fre&q. (Hz)
FREQFINAL	QUANT	1.00000E+000	Final Fre&q. (Hz)
PTSPERDEC	QUANT	1.00000E+001	Points/&decade
VAC	QUANT	2.50000E+001	AC &Voltage (mV rms)
AREA	QUANT	1.00000E-002	&Area (cm^2)
CONDIT	TWOPARAM	T	5.00000E+000	0.00000E+000	Conditionin&g	Time(s)	E(V)
DELAY	TWOPARAM	T	5.00000E+000	0.00000E+000	Init. De&lay	Time(s)	Stab.(mV/s)
SPEED	SELECTOR	0	&Optimize for:
ZGUESS	QUANT	1.00000E+005	E&stimated Z (ohms)
OCVCURVE	TABLE	19
	Pt	T	Vf	Vm	Ach	Over
	#	s	V vs. Ref.	V	V	bits
	0	0.258333	5.44770E-003	5.44770E-003	5.55566E-004	...........
	1	0.516667	5.38747E-003	2.29454E-003	5.56066E-004	...........
	2	0.775	5.02146E-003	-4.91142E-004	5.53566E-004	...........
	3	1.03333	4.02512E-003	-1.79459E-003	5.55866E-004	...........
	4	1.29167	2.40352E-003	-1.90303E-003	5.60899E-004	...........
	5	1.55	6.61594E-004	-6.62404E-005	5.53499E-004	...........
	6	1.80833	-4.88173E-004	3.14033E-003	5.56766E-004	...........
	7	2.06667	-5.59498E-004	3.38572E-003	5.46899E-004	...........
	8	2.325	3.48588E-004	2.88504E-003	5.57799E-004	...........
	9	2.58333	1.60045E-003	3.82571E-003	5.50699E-004	...........
	10	2.84167	2.62442E-003	4.73750E-003	5.57266E-004	...........
	11	3.1	3.34510E-003	5.31686E-003	5.65266E-004	...........
	12	3.35833	3.94308E-003	5.02906E-003	5.56899E-004	...........
	13	3.61667	4.46698E-003	4.80074E-003	5.59332E-004	...........
	14	3.875	4.81058E-003	4.44193E-003	5.56299E-004	...........
	15	4.13333	4.91519E-003	5.04928E-003	5.44766E-004	...........
	16	4.39167	4.89667E-003	6.05402E-003	5.55299E-004	...........
	17	4.65	5.02165E-003	8.74379E-003	5.60499E-004	...........
	18	4.90833	5.66788E-003	1.47025E-002	5.58766E-004	...........
EOC	QUANT	0.0056679	Open Circuit (V)
PSTATMODEL	IQUANT	4	Pstat Model
PSTATSECTION	LABEL	REF600-11020	Pstat Section
PSTATSERIALNO	LABEL	11020	Pstat Serial Number
CTRLMODE	IQUANT	1	Control Mode
IESTAB	IQUANT	0	I/E Stability
CASPEED	IQUANT	1	Control Amp Speed
CONVENTION	IQUANT	1	Current Convention
ICHRANGE	IQUANT	2	Ich Range
ICHRANGEMODE	TOGGLE	F	Ich Auto Range
ICHOFFSETENABLE	TOGGLE	T	Ich Offset Enable
ICHOFFSET	QUANT	0	Ich Offset (V)
ICHFILTER	IQUANT	3	Ich Filter
VCHRANGE	IQUANT	2	Vch Range
VCHRANGEMODE	TOGGLE	F	Vch Auto Range
VCHOFFSETENABLE	TOGGLE	T	Vch Offset Enable
VCHOFFSET	QUANT	0	Vch Offset (V)
VCHFILTER	IQUANT	3	Vch Filter
ACHRANGE	IQUANT	2	Ach Range
ACHOFFSETENABLE	TOGGLE	F	Ach Offset Enable
ACHOFFSET	QUANT	0	Ach Offset (V)
ACHFILTER	IQUANT	3	Ach Filter
IERANGELOWERLIMIT	IQUANT	1	I/E Range Lower Limit
IERANGEMODE	TOGGLE	F	I/E AutoRange
IERANGE	IQUANT	5	I/E Range
POSFEEDENABLE	TOGGLE	F	Positive Feedback IR Comp
POSFEEDRESISTANCE	QUANT	0	Positive Feedback Resistance (ohm)
ACHSELECT	IQUANT	0	Ach Select
CABLEID	IQUANT	14	Cable ID
DCCALDATE	LABEL	8/19/2019	DC Calibration Date
ACCALDATE	LABEL	8/19/2019	AC Calibration Date
THERMOSELECT	IQUANT	1	Thermo Select
FRAMEWORKVERSION	QUANT	6.33	Framework Version
INSTRUMENTVERSION	LABEL	3.50	Instrument Version
ZCURVE	TABLE
	Pt	Time	Freq	Zreal	Zimag	Zsig	Zmod	Zphz	Idc	Vdc	IERange
	#	s	Hz	ohm	ohm	V	ohm	°	A	V	#
	0	2	1000078	2489.688	-1666.101	1	2995.737	-33.79047	-4.401819E-006	0.0089319	8
	1	2	794390.6	2807.318	-1598.431	1	3230.482	-29.65633	1.91561E-006	0.0077449	8
	2	2	630984.4	3086.414	-1459.024	1	3413.898	-25.30127	-3.235715E-006	0.0080999	8
	3	3	501234.4	3332.859	-1314.617	1	3582.76	-21.52632	-5.604932E-007	0.0078141	8
	4	3	398109.4	3512.907	-1156.271	1	3698.308	-18.21892	-3.595459E-007	0.0074045	8
	5	3	316265.6	3652.85	-1009.436	1	3789.759	-15.44771	8.320328E-007	0.0072779	8
	6	3	251203.1	3762.199	-878.7769	1	3863.469	-13.14746	1.508788E-006	0.0070499	8
	7	4	199546.9	3853.211	-759.2388	1	3927.299	-11.1468	-3.41268E-007	0.0073379	8
	8	4	158578.1	3922.111	-675.2689	1	3979.817	-9.76883	-9.038968E-007	0.0076592	8
	9	4	125953.1	3995.934	-543.3995	1	4032.712	-7.744041	-3.316579E-008	0.0070229	7
	10	5	100078.1	4032.5	-499.2946	1	4063.293	-7.058305	-1.192586E-008	0.0073225	7
	11	5	79453.13	4072.4	-471.9547	1	4099.656	-6.610579	-4.676964E-008	0.0073524	7
	12	5	63140.62	4112.39	-457.2864	1	4137.736	-6.345066	-5.551462E-008	0.0073891	7
	13	6	50203.12	4150.888	-452.5732	1	4175.487	-6.222407	-6.462992E-008	0.007375	7
	14	6	39890.62	4189.472	-458.522	1	4214.489	-6.245949	-1.404645E-008	0.0073177	7
	15	6	31640.63	4232.508	-477.9079	1	4259.403	-6.442189	-2.901414E-008	0.0072942	7
	16	7	25171.88	4277.156	-504.81	1	4306.843	-6.731177	-2.885161E-008	0.007294	7
	17	7	20015.62	4325.69	-543.899	1	4359.75	-7.166586	-4.809263E-009	0.0072653	7
	18	7	15890.62	4378.515	-595.8169	1	4418.867	-7.749065	9.986517E-009	0.00723	7
	19	8	12609.37	4434.479	-657.4272	1	4482.948	-8.432878	-3.373193E-008	0.0073016	7
	20	8	10078.13	4495.913	-733.2636	1	4555.317	-9.26313	-4.102983E-008	0.0073862	7
	21	8	8015.625	4558.851	-824.628	1	4632.832	-10.25309	-6.313282E-008	0.0074778	7
	22	9	6328.125	4629.568	-942.2278	1	4724.479	-11.50394	-5.516144E-008	0.0073855	7
	23	9	5015.625	4706.342	-1081.105	1	4828.918	-12.93712	9.837825E-008	0.0071365	7
	24	9	3984.375	4783.028	-1250.255	1	4943.733	-14.64901	-6.244681E-008	0.0074733	7
	25	10	3170.956	4874.273	-1455.667	1	5086.994	-16.62788	-1.370266E-008	0.0073106	7
	26	10	2527.573	4968.756	-1700.234	1	5251.603	-18.89017	-3.696586E-009	0.0072633	7
	27	10	1976.103	5082.391	-2030.974	1	5473.167	-21.78214	-4.671497E-008	0.0073411	7
	28	10	1577.524	5204.043	-2410.026	1	5735.005	-24.84916	-1.280097E-008	0.0073099	7
	29	11	1265.625	5331.602	-2851.605	1	6046.29	-28.14008	-3.432522E-009	0.0072798	7
	30	11	998.264	5486.143	-3434.213	1	6472.371	-32.04572	-5.369369E-008	0.0073808	7
	31	11	796.875	5657.888	-4114.56	1	6995.806	-36.0256	1.167657E-008	0.0073589	7
	32	12	627.7902	5864.518	-4999.36	1	7706.243	-40.44679	9.900645E-008	0.007132	7
	33	12	505.5147	6080.496	-5983.959	1	8531.131	-44.54155	-1.065913E-008	0.0072457	7
	34	12	397.9953	6355.278	-7321.122	1	9694.76	-49.03959	1.853747E-009	0.0073073	7
	35	13	315.5048	6676.919	-8934.034	1	11153.39	-53.22712	-6.060968E-010	0.0072507	6
	36	13	252.4038	7045.77	-10846.01	1	12933.63	-56.99149	-2.884171E-010	0.0072431	6
	37	13	198.6229	7535.597	-13383	1	15358.71	-60.61734	1.220189E-010	0.0072396	6
	38	14	158.3615	8115.34	-16354.16	1	18256.98	-63.60825	-6.167029E-010	0.0072392	6
	39	14	125.558	8879.929	-20086.17	1	21961.5	-66.15018	2.320109E-011	0.0072435	6
	40	14	100.4464	9857.73	-24463.78	1	26375.2	-68.05293	1.175238E-009	0.0072354	6
	41	15	79.00281	11276.88	-30303.73	1	32333.95	-69.58833	3.235579E-010	0.0072364	6
	42	15	63.3446	12310.55	-36943.48	1	38940.6	-71.57056	-2.59643E-010	0.0072366	6
	43	15	49.86702	14755.29	-45345.61	1	47685.88	-71.97531	-4.601328E-010	0.0072396	6
	44	16	39.72458	18075.74	-55357.38	1	58233.77	-71.91668	7.782222E-011	0.0072389	6
	45	16	31.6723	22244.91	-67091.42	1	70683.05	-71.65649	-7.352829E-010	0.0072333	6
	46	16	24.93351	27298.14	-81888.73	1	86318.91	-71.56386	5.553771E-010	0.0072356	6
	47	17	19.86229	33893.08	-98794.2	1	104446.3	-71.06457	1.472823E-009	0.0072445	6
	48	17	15.83615	43188.64	-117596.4	1	125276.4	-69.83365	7.183266E-010	0.0072408	5
	49	17	12.40079	55538.54	-143580.7	1	153947.9	-68.853	-3.372366E-010	0.0072445	5
	50	18	9.93114	68977.75	-170194.6	1	183641.3	-67.9379	3.437313E-011	0.0072482	5
	51	18	7.944915	86596.19	-199691	1	217658.9	-66.55598	8.605018E-010	0.0072377	5
	52	19	6.317385	110394.9	-233761.5	1	258517.8	-64.72076	4.73416E-010	0.0072312	5
	53	20	5.008013	139753.6	-272604.4	1	306340.1	-62.85756	8.859251E-011	0.0072389	5
	54	21	3.945707	175052.6	-316177.7	1	361402.5	-61.02878	7.75735E-011	0.0072476	5
	55	22	3.158693	214810.1	-359930.1	1	419157.6	-59.1708	-1.124754E-010	0.0072365	5
	56	24	2.504006	262536.1	-407418.9	1	484680.7	-57.20273	2.953623E-011	0.0072272	5
	57	25	1.998082	315631.8	-457363.2	1	555701.8	-55.38998	-9.665507E-011	0.0072712	5
	58	27	1.584686	371093	-512344.7	1	632619.3	-54.08406	-4.395759E-010	0.0072338	5
	59	29	1.266892	430993.1	-570601.3	1	715081	-52.9351	-1.168213E-010	0.0071994	5
	60	31	0.999041	501567.2	-640502.8	1	813519.2	-51.93608	-1.582235E-010	0.0071915	5
