EXPLAIN
TAG	EISPOT
TITLE	LABEL	Potentiostatic EIS	Test &Identifier
DATE	LABEL	9/20/2019	Date
TIME	LABEL	11:36:07	Time
NOTES	NOTES	1	&Notes...
	
PSTAT	PSTAT	REF600-11020	Potentiostat
VDC	POTEN	0.00000E+000	T	DC &Voltage (V)
FREQINIT	QUANT	1.00000E+006	Initial Fre&q. (Hz)
FREQFINAL	QUANT	1.00000E+000	Final Fre&q. (Hz)
PTSPERDEC	QUANT	1.00000E+001	Points/&decade
VAC	QUANT	2.50000E+001	AC &Voltage (mV rms)
AREA	QUANT	1.00000E-002	&Area (cm^2)
CONDIT	TWOPARAM	T	5.00000E+000	0.00000E+000	Conditionin&g	Time(s)	E(V)
DELAY	TWOPARAM	T	5.00000E+000	0.00000E+000	Init. De&lay	Time(s)	Stab.(mV/s)
SPEED	SELECTOR	1	&Optimize for:
ZGUESS	QUANT	1.00000E+004	E&stimated Z (ohms)
OCVCURVE	TABLE	19
	Pt	T	Vf	Vm	Ach	Over
	#	s	V vs. Ref.	V	V	bits
	0	0.258333	2.22524E-003	2.22524E-003	5.71699E-004	...........
	1	0.516667	2.21911E-003	1.90405E-003	5.74032E-004	...........
	2	0.775	2.18179E-003	1.61866E-003	5.73565E-004	...........
	3	1.03333	2.07853E-003	1.40178E-003	5.74366E-004	...........
	4	1.29167	1.90119E-003	1.20937E-003	5.75899E-004	...........
	5	1.55	1.68038E-003	1.06228E-003	5.76366E-004	...........
	6	1.80833	1.45589E-003	8.39015E-004	5.74699E-004	...........
	7	2.06667	1.24517E-003	5.58333E-004	5.73899E-004	...........
	8	2.325	1.04020E-003	3.92420E-004	5.76866E-004	...........
	9	2.58333	8.31856E-004	2.90613E-004	5.72766E-004	...........
	10	2.84167	6.28908E-004	1.07121E-004	5.74699E-004	...........
	11	3.1	4.44736E-004	-4.29758E-005	5.68866E-004	...........
	12	3.35833	2.80781E-004	-9.89256E-005	5.70599E-004	...........
	13	3.61667	1.31932E-004	-3.52007E-004	5.71532E-004	...........
	14	3.875	-9.11842E-006	-4.44624E-004	5.77999E-004	...........
	15	4.13333	-1.50194E-004	-5.43809E-004	5.73599E-004	...........
	16	4.39167	-2.89770E-004	-6.55149E-004	5.78499E-004	...........
	17	4.65	-4.19468E-004	-7.55717E-004	5.76832E-004	...........
	18	4.90833	-5.36600E-004	-8.58920E-004	5.73032E-004	...........
EOC	QUANT	-0.0005366	Open Circuit (V)
PSTATMODEL	IQUANT	4	Pstat Model
PSTATSECTION	LABEL	REF600-11020	Pstat Section
PSTATSERIALNO	LABEL	11020	Pstat Serial Number
CTRLMODE	IQUANT	1	Control Mode
IESTAB	IQUANT	0	I/E Stability
CASPEED	IQUANT	1	Control Amp Speed
CONVENTION	IQUANT	1	Current Convention
ICHRANGE	IQUANT	2	Ich Range
ICHRANGEMODE	TOGGLE	F	Ich Auto Range
ICHOFFSETENABLE	TOGGLE	T	Ich Offset Enable
ICHOFFSET	QUANT	0	Ich Offset (V)
ICHFILTER	IQUANT	3	Ich Filter
VCHRANGE	IQUANT	2	Vch Range
VCHRANGEMODE	TOGGLE	F	Vch Auto Range
VCHOFFSETENABLE	TOGGLE	T	Vch Offset Enable
VCHOFFSET	QUANT	0	Vch Offset (V)
VCHFILTER	IQUANT	3	Vch Filter
ACHRANGE	IQUANT	2	Ach Range
ACHOFFSETENABLE	TOGGLE	F	Ach Offset Enable
ACHOFFSET	QUANT	0	Ach Offset (V)
ACHFILTER	IQUANT	3	Ach Filter
IERANGELOWERLIMIT	IQUANT	1	I/E Range Lower Limit
IERANGEMODE	TOGGLE	F	I/E AutoRange
IERANGE	IQUANT	5	I/E Range
POSFEEDENABLE	TOGGLE	F	Positive Feedback IR Comp
POSFEEDRESISTANCE	QUANT	0	Positive Feedback Resistance (ohm)
ACHSELECT	IQUANT	0	Ach Select
CABLEID	IQUANT	14	Cable ID
DCCALDATE	LABEL	8/19/2019	DC Calibration Date
ACCALDATE	LABEL	8/19/2019	AC Calibration Date
THERMOSELECT	IQUANT	1	Thermo Select
FRAMEWORKVERSION	QUANT	6.33	Framework Version
INSTRUMENTVERSION	LABEL	3.50	Instrument Version
ZCURVE	TABLE
	Pt	Time	Freq	Zreal	Zimag	Zsig	Zmod	Zphz	Idc	Vdc	IERange
	#	s	Hz	ohm	ohm	V	ohm	°	A	V	#
	0	2	1000078	2337.363	-1960.904	1	3050.969	-39.99458	-3.875603E-006	0.0028397	8
	1	3	794390.6	2717.239	-1988.044	1	3366.854	-36.19074	2.034842E-006	0.0012876	8
	2	4	630984.4	3124.137	-1953.181	1	3684.447	-32.01323	-1.38271E-006	0.0016531	8
	3	6	501234.4	3480.309	-1864.298	1	3948.185	-28.17663	-3.791251E-007	0.001313	8
	4	7	398109.4	3813.215	-1713.27	1	4180.418	-24.19429	3.875397E-006	0.0004197	8
	5	8	316265.6	4089.25	-1577.056	1	4382.815	-21.08958	3.536733E-006	0.0004105	8
	6	10	251203.1	4317.97	-1389.395	1	4535.999	-17.83664	2.903228E-006	0.0004232	8
	7	11	199546.9	4509.044	-1228.145	1	4673.309	-15.23626	4.050109E-007	0.0009972	8
	8	13	158578.1	4665.986	-1071.052	1	4787.335	-12.92798	-3.50007E-006	0.0018117	8
	9	14	125953.1	4798.721	-871.9575	1	4877.297	-10.29864	-3.093628E-007	0.0013853	7
	10	15	100078.1	4876.29	-775.1152	1	4937.51	-9.03194	8.704545E-008	0.000861	7
	11	17	79453.13	4944.864	-693.6866	1	4993.283	-7.985584	-5.363779E-008	0.0010838	7
	12	18	63140.62	5001.022	-628.5081	1	5040.361	-7.163145	8.893162E-008	0.0009837	7
	13	20	50203.12	5049.454	-583.2613	1	5083.028	-6.589022	-2.438692E-008	0.0011019	7
	14	21	39890.62	5093.585	-552.5109	1	5123.463	-6.190778	-2.531674E-008	0.0011026	7
	15	22	31640.63	5136.814	-541.3002	1	5165.256	-6.015436	1.500595E-008	0.0009529	7
	16	24	25171.88	5177.893	-543.6933	1	5206.359	-5.994253	8.829564E-008	0.0008403	7
	17	25	20015.62	5219.246	-560.6364	1	5249.27	-6.13104	-3.175043E-008	0.0010239	7
	18	26	15890.62	5264.779	-594.6276	1	5298.252	-6.443933	-3.120036E-008	0.0010222	7
	19	28	12609.37	5311.653	-642.1183	1	5350.324	-6.892959	-5.422539E-008	0.0010726	7
	20	29	10078.13	5360.773	-705.4827	1	5406.995	-7.497095	4.751818E-008	0.0008782	7
	21	30	8015.625	5415.22	-788.877	1	5472.379	-8.288416	-4.482644E-009	0.0010641	7
	22	32	6328.125	5475.25	-897.2886	1	5548.287	-9.306952	1.377899E-007	0.0008261	7
	23	33	5015.625	5539.521	-1031.146	1	5634.675	-10.54455	1.381461E-007	0.0008243	7
	24	34	3984.375	5608.835	-1195.343	1	5734.795	-12.03076	8.896603E-008	0.0008419	7
	25	36	3170.956	5684.263	-1396.416	1	5853.274	-13.80216	7.450934E-008	0.0008929	7
	26	37	2527.573	5770.193	-1642.546	1	5999.423	-15.88956	-5.202195E-008	0.0010669	7
	27	39	1976.103	5874.903	-1971.749	1	6196.958	-18.5529	-4.994762E-009	0.0010666	7
	28	40	1577.524	5980.474	-2339.397	1	6421.748	-21.36407	-4.336501E-008	0.0010766	7
	29	41	1265.625	6098.865	-2773.609	1	6699.93	-24.45484	4.740565E-008	0.0009733	7
	30	43	998.264	6247.475	-3361.318	1	7094.322	-28.28151	-5.212875E-008	0.0010698	7
	31	44	796.875	6409.438	-4037.617	1	7575.173	-32.20882	-2.55046E-008	0.0010998	7
	32	45	627.7902	6604.731	-4914.208	1	8232.37	-36.65085	1.828273E-009	0.0011447	7
	33	47	505.5147	6813.265	-5883.641	1	9002.1	-40.81247	-3.061045E-008	0.0010228	7
	34	48	397.9953	7083.677	-7209.877	1	10107.46	-45.50586	1.049512E-009	0.0009804	6
	35	49	315.5048	7388.645	-8799.887	1	11490.43	-49.98219	1.292586E-009	0.0009847	6
	36	51	252.4038	7734.126	-10676.45	1	13183.44	-54.08004	1.553813E-009	0.0009795	6
	37	52	198.6229	8180.729	-13167.27	1	15501.66	-58.14762	1.216696E-009	0.0009843	6
	38	54	158.3615	8693.371	-16081.11	1	18280.5	-61.60455	1.407886E-009	0.0009819	6
	39	55	125.558	9342.309	-19768.89	1	21865.22	-64.7057	1.117437E-009	0.0009832	6
	40	56	100.4464	10142.18	-24120.07	1	26165.65	-67.19387	1.623286E-009	0.0009764	6
	41	58	79.00281	11259.5	-29965.08	1	32010.66	-69.40607	7.723138E-010	0.0009791	6
	42	59	63.3446	12653.15	-36274.98	1	38418.43	-70.77061	4.763891E-010	0.0009766	6
	43	60	49.86702	14519.99	-45400.17	1	47665.55	-72.26456	1.317431E-009	0.0009753	6
	44	62	39.72458	16755.61	-55436.31	1	57913.17	-73.18257	1.077364E-009	0.0009792	6
	45	63	31.6723	19711.96	-67611.81	1	70426.69	-73.74616	7.419119E-010	0.0009737	6
	46	65	24.93351	24180.99	-83555.23	1	86983.89	-73.85949	8.927953E-010	0.0009748	6
	47	66	19.86229	29760.73	-101771.7	1	106033.9	-73.69968	1.20607E-009	0.0009843	6
	48	67	15.83615	36775.75	-123624.7	1	128978.8	-73.43336	1.051581E-009	0.0009779	5
	49	69	12.40079	48128.55	-152399	1	159818	-72.47356	1.555986E-009	0.0009792	5
	50	70	9.93114	60292.13	-182215.5	1	191931.3	-71.69147	4.852946E-010	0.0009848	5
	51	72	7.944915	77396.28	-217511.3	1	230870.9	-70.4131	5.167961E-010	0.0009771	5
	52	73	6.317385	98901.3	-259563.7	1	277767.5	-69.14171	7.242013E-010	0.0009851	5
	53	75	5.008013	127783.9	-308628.3	1	334036.2	-67.50858	6.287214E-010	0.000989	5
	54	78	3.945707	165813	-365616.6	1	401459.1	-65.60494	2.560354E-010	0.0009813	5
	55	81	3.158693	209915.7	-423601.7	1	472761	-63.6393	4.139653E-010	0.0009945	5
	56	84	2.504006	265883.8	-490099.9	1	557577	-61.51975	5.939923E-011	0.0009728	5
	57	87	1.998082	329681.5	-557942.8	1	648066.4	-59.42169	-9.499202E-012	0.0009695	5
	58	90	1.584686	407217.5	-629526.5	1	749753.1	-57.10266	2.430932E-010	0.0010284	5
	59	93	1.266892	488068.1	-704249.5	1	856841.8	-55.27677	-2.042133E-011	0.000974	5
	60	98	0.999041	583593.7	-785971.4	1	978945	-53.40565	4.884809E-010	0.0010065	5
