EXPLAIN
TAG	EISPOT
TITLE	LABEL	Potentiostatic EIS	Test &Identifier
DATE	LABEL	11/3/2019	Date
TIME	LABEL	12:00:56	Time
NOTES	NOTES	1	&Notes...
	
PSTAT	PSTAT	REF600-11020	Potentiostat
VDC	POTEN	0.00000E+000	T	DC &Voltage (V)
FREQINIT	QUANT	1.00000E+006	Initial Fre&q. (Hz)
FREQFINAL	QUANT	1.00000E+000	Final Fre&q. (Hz)
PTSPERDEC	QUANT	1.00000E+001	Points/&decade
VAC	QUANT	2.50000E+001	AC &Voltage (mV rms)
AREA	QUANT	1.00000E-002	&Area (cm^2)
CONDIT	TWOPARAM	T	5.00000E+000	0.00000E+000	Conditionin&g	Time(s)	E(V)
DELAY	TWOPARAM	T	5.00000E+000	0.00000E+000	Init. De&lay	Time(s)	Stab.(mV/s)
SPEED	SELECTOR	1	&Optimize for:
ZGUESS	QUANT	1.00000E+005	E&stimated Z (ohms)
OCVCURVE	TABLE	19
	Pt	T	Vf	Vm	Ach	Over
	#	s	V vs. Ref.	V	V	bits
	0	0.258333	1.21526E-002	1.21526E-002	5.54933E-004	...........
	1	0.516667	1.21589E-002	1.24828E-002	5.56199E-004	...........
	2	0.775	1.21979E-002	1.28121E-002	5.47299E-004	...........
	3	1.03333	1.23094E-002	1.31288E-002	5.52666E-004	...........
	4	1.29167	1.25112E-002	1.34444E-002	5.54499E-004	...........
	5	1.55	1.27833E-002	1.37396E-002	5.54966E-004	...........
	6	1.80833	1.30896E-002	1.40319E-002	5.53566E-004	...........
	7	2.06667	1.34021E-002	1.43120E-002	5.56499E-004	...........
	8	2.325	1.37071E-002	1.45843E-002	5.50133E-004	...........
	9	2.58333	1.40008E-002	1.48452E-002	5.53999E-004	...........
	10	2.84167	1.42835E-002	1.51036E-002	5.51166E-004	...........
	11	3.1	1.45565E-002	1.53535E-002	5.50566E-004	...........
	12	3.35833	1.48211E-002	1.55941E-002	5.47899E-004	...........
	13	3.61667	1.50781E-002	1.58289E-002	5.52033E-004	...........
	14	3.875	1.53278E-002	1.60558E-002	5.50866E-004	...........
	15	4.13333	1.55702E-002	1.62782E-002	5.54466E-004	...........
	16	4.39167	1.58055E-002	1.64931E-002	5.54833E-004	...........
	17	4.65	1.60340E-002	1.67026E-002	5.56066E-004	...........
	18	4.90833	1.62561E-002	1.69070E-002	5.55166E-004	...........
EOC	QUANT	0.0162561	Open Circuit (V)
PSTATMODEL	IQUANT	4	Pstat Model
PSTATSECTION	LABEL	REF600-11020	Pstat Section
PSTATSERIALNO	LABEL	11020	Pstat Serial Number
CTRLMODE	IQUANT	1	Control Mode
IESTAB	IQUANT	0	I/E Stability
CASPEED	IQUANT	1	Control Amp Speed
CONVENTION	IQUANT	1	Current Convention
ICHRANGE	IQUANT	2	Ich Range
ICHRANGEMODE	TOGGLE	F	Ich Auto Range
ICHOFFSETENABLE	TOGGLE	T	Ich Offset Enable
ICHOFFSET	QUANT	0	Ich Offset (V)
ICHFILTER	IQUANT	3	Ich Filter
VCHRANGE	IQUANT	2	Vch Range
VCHRANGEMODE	TOGGLE	F	Vch Auto Range
VCHOFFSETENABLE	TOGGLE	T	Vch Offset Enable
VCHOFFSET	QUANT	0	Vch Offset (V)
VCHFILTER	IQUANT	3	Vch Filter
ACHRANGE	IQUANT	2	Ach Range
ACHOFFSETENABLE	TOGGLE	F	Ach Offset Enable
ACHOFFSET	QUANT	0	Ach Offset (V)
ACHFILTER	IQUANT	3	Ach Filter
IERANGELOWERLIMIT	IQUANT	1	I/E Range Lower Limit
IERANGEMODE	TOGGLE	F	I/E AutoRange
IERANGE	IQUANT	5	I/E Range
POSFEEDENABLE	TOGGLE	F	Positive Feedback IR Comp
POSFEEDRESISTANCE	QUANT	0	Positive Feedback Resistance (ohm)
ACHSELECT	IQUANT	0	Ach Select
CABLEID	IQUANT	14	Cable ID
DCCALDATE	LABEL	8/19/2019	DC Calibration Date
ACCALDATE	LABEL	8/19/2019	AC Calibration Date
THERMOSELECT	IQUANT	1	Thermo Select
FRAMEWORKVERSION	QUANT	6.33	Framework Version
INSTRUMENTVERSION	LABEL	3.50	Instrument Version
ZCURVE	TABLE
	Pt	Time	Freq	Zreal	Zimag	Zsig	Zmod	Zphz	Idc	Vdc	IERange
	#	s	Hz	ohm	ohm	V	ohm	°	A	V	#
	0	2	1000078	2043.837	-1352.627	1	2450.891	-33.49689	4.345956E-006	0.0172644	8
	1	3	794390.6	2301.643	-1284.015	1	2635.575	-29.15578	7.549928E-006	0.0170751	8
	2	4	630984.4	2524.184	-1207.243	1	2798.024	-25.56042	5.382429E-006	0.0170862	8
	3	6	501234.4	2721.862	-1087.553	1	2931.093	-21.77978	-4.811704E-006	0.018487	8
	4	7	398109.4	2871.514	-971.404	1	3031.373	-18.69016	1.183889E-006	0.0182177	8
	5	8	316265.6	3017.512	-869.5775	1	3140.31	-16.07576	-2.894415E-006	0.0183498	8
	6	10	251203.1	3098.282	-774.5563	1	3193.633	-14.036	-1.32856E-006	0.0182101	8
	7	11	199546.9	3184.846	-694.9832	1	3259.792	-12.30986	3.894127E-006	0.0177384	8
	8	13	158578.1	3239.092	-629.4832	1	3299.692	-10.99774	-3.374694E-007	0.0175249	8
	9	14	125953.1	3337.171	-527.1661	1	3378.552	-8.97672	1.62508E-006	0.0123676	7
	10	15	100078.1	3384.082	-496.6324	1	3420.329	-8.348871	-7.160452E-007	0.0176033	7
	11	17	79453.13	3427.688	-486.1985	1	3461.999	-8.073232	-7.137434E-007	0.0175974	7
	12	18	63140.62	3474.9	-484.5649	1	3508.523	-7.938542	1.062442E-006	0.0163118	7
	13	19	50203.12	3521.792	-487.7001	1	3555.401	-7.884213	-1.029449E-006	0.0182578	7
	14	21	39890.62	3572.841	-506.7968	1	3608.606	-8.073374	6.063693E-007	0.0179333	7
	15	22	31640.63	3625.253	-533.5304	1	3664.303	-8.37215	7.584135E-007	0.0160052	7
	16	23	25171.88	3681.218	-570.4154	1	3725.15	-8.808097	8.158885E-007	0.017522	7
	17	25	20015.62	3746.003	-614.3976	1	3796.054	-9.314388	7.592402E-007	0.0160069	7
	18	26	15890.62	3810.488	-671.582	1	3869.217	-9.99548	4.718557E-007	0.0161147	7
	19	27	12609.37	3884.768	-742.1607	1	3955.025	-10.81568	1.081197E-006	0.0166258	7
	20	29	10078.13	3964.823	-827.9316	1	4050.344	-11.79497	-1.198716E-006	0.018811	7
	21	30	8015.625	4054.319	-912.0593	1	4155.641	-12.6782	7.531568E-008	0.018687	7
	22	31	6328.125	4158.183	-1024.125	1	4282.442	-13.83608	-8.781049E-007	0.0193939	7
	23	33	5015.625	4273.876	-1150.971	1	4426.145	-15.07239	-1.19722E-006	0.0188076	7
	24	34	3984.375	4402.729	-1299.356	1	4590.463	-16.44265	8.184217E-007	0.0175203	7
	25	35	3170.956	4534.02	-1457.738	1	4762.598	-17.82318	3.90104E-007	0.0182488	7
	26	37	2527.573	4677.414	-1644.222	1	4957.99	-19.36778	-1.197947E-006	0.0188086	7
	27	38	1976.103	4845.137	-1878.109	1	5196.407	-21.18771	4.724995E-007	0.0161102	7
	28	40	1577.524	5002.431	-2142.852	1	5442.07	-23.18845	1.128818E-007	0.0164032	7
	29	41	1265.625	5168.988	-2443.348	1	5717.375	-25.29981	6.064162E-007	0.0179277	7
	30	42	998.264	5342.138	-2826.835	1	6043.959	-27.88592	-6.058143E-007	0.0193041	7
	31	44	796.875	5514.333	-3294.223	1	6423.376	-30.85379	-3.007996E-007	0.0168996	7
	32	45	627.7902	5704.491	-3907.801	1	6914.632	-34.41268	8.165272E-007	0.0175255	7
	33	47	505.5147	5891.897	-4602.427	1	7476.416	-37.995	1.064266E-006	0.0163052	7
	34	48	397.9953	6118.791	-5548.906	1	8260.143	-42.20373	6.416059E-010	0.017764	7
	35	49	315.5048	6375.507	-6712.04	1	9257.353	-46.47298	8.245826E-010	0.0177666	7
	36	51	252.4038	6674.203	-8095.933	1	10492.34	-50.49818	9.01354E-010	0.0177013	6
	37	52	198.6229	7069.318	-9946.64	1	12202.91	-54.59767	-6.222382E-011	0.0177052	6
	38	53	158.3615	7547.729	-12110.04	1	14269.6	-58.06629	1.027268E-009	0.0177019	6
	39	55	125.558	8185.735	-14829.92	1	16939.09	-61.10242	2.074384E-010	0.0177067	6
	40	56	100.4464	8971.108	-18035.03	1	20143.06	-63.55301	3.209143E-010	0.0176996	6
	41	57	79.00281	10153.97	-22174.66	1	24388.9	-65.39654	7.589208E-011	0.0176974	6
	42	59	63.3446	11364.18	-26656.84	1	28978.12	-66.91077	-9.587213E-011	0.0176984	6
	43	60	49.86702	13613.85	-32918.32	1	35622.36	-67.53174	7.564264E-010	0.0176963	6
	44	62	39.72458	15868.7	-39837.98	1	42882.16	-68.28107	7.827957E-010	0.0177045	6
	45	63	31.6723	18934.89	-47848.38	1	51458.7	-68.40997	-2.751811E-010	0.0177005	6
	46	64	24.93351	23269.3	-58129.9	1	62614.26	-68.18385	-4.799822E-010	0.0177005	6
	47	66	19.86229	28530.32	-69391.5	1	75027.73	-67.64998	-6.265076E-010	0.0177056	6
	48	67	15.83615	34643.5	-82280.41	1	89276.19	-67.16687	1.102893E-009	0.0176854	6
	49	69	12.40079	44126.43	-97813	1	107305.8	-65.71842	-9.051175E-010	0.0176979	5
	50	70	9.93114	53906.32	-114732	1	126764.9	-64.83373	-6.660879E-010	0.0177117	5
	51	72	7.944915	65570.39	-133423.6	1	148665.2	-63.82841	2.797146E-010	0.0177093	5
	52	73	6.317385	78730.21	-154437.4	1	173347.5	-62.98809	3.117694E-010	0.0176996	5
	53	75	5.008013	93749.84	-179170.7	1	202215.7	-62.3795	1.665253E-010	0.0177212	5
	54	78	3.945707	110668.9	-208228.7	1	235810.9	-62.01036	-1.861262E-010	0.0176959	5
	55	80	3.158693	127455.1	-240367.6	1	272068.7	-62.06519	6.70795E-011	0.0177223	5
	56	84	2.504006	146307	-280948.5	1	316761.4	-62.49126	-3.596989E-010	0.0176969	5
	57	86	1.998082	166161.5	-328077.4	1	367756	-63.13913	-1.589455E-010	0.017689	5
	58	90	1.584686	190454.8	-387021	1	431344.8	-63.79799	6.493046E-011	0.0177481	5
	59	93	1.266892	215183.4	-457408	1	505495.8	-64.80579	-1.536507E-010	0.017693	5
	60	98	0.999041	247924.9	-548450.4	1	601884.3	-65.67484	5.48522E-011	0.0177286	5
