EXPLAIN
TAG	EISPOT
TITLE	LABEL	Potentiostatic EIS	Test &Identifier
DATE	LABEL	10/16/2019	Date
TIME	LABEL	9:58:28	Time
NOTES	NOTES	1	&Notes...
	
PSTAT	PSTAT	REF600-11020	Potentiostat
VDC	POTEN	0.00000E+000	T	DC &Voltage (V)
FREQINIT	QUANT	1.00000E+006	Initial Fre&q. (Hz)
FREQFINAL	QUANT	1.00000E+000	Final Fre&q. (Hz)
PTSPERDEC	QUANT	1.00000E+001	Points/&decade
VAC	QUANT	2.50000E+001	AC &Voltage (mV rms)
AREA	QUANT	1.00000E-002	&Area (cm^2)
CONDIT	TWOPARAM	T	5.00000E+000	0.00000E+000	Conditionin&g	Time(s)	E(V)
DELAY	TWOPARAM	T	5.00000E+000	0.00000E+000	Init. De&lay	Time(s)	Stab.(mV/s)
SPEED	SELECTOR	0	&Optimize for:
ZGUESS	QUANT	1.00000E+005	E&stimated Z (ohms)
OCVCURVE	TABLE	19
	Pt	T	Vf	Vm	Ach	Over
	#	s	V vs. Ref.	V	V	bits
	0	0.258333	7.70399E-003	7.70399E-003	5.36199E-004	...........
	1	0.516667	7.76626E-003	1.09637E-002	5.39699E-004	...........
	2	0.775	8.05479E-003	9.14008E-003	5.34699E-004	...........
	3	1.03333	8.51803E-003	5.24334E-003	5.37266E-004	...........
	4	1.29167	8.59459E-003	3.11759E-003	5.40199E-004	...........
	5	1.55	7.75444E-003	3.52286E-003	5.34933E-004	...........
	6	1.80833	6.24821E-003	4.31760E-003	5.34099E-004	...........
	7	2.06667	4.85555E-003	3.30813E-003	5.31233E-004	...........
	8	2.325	3.87045E-003	-5.19000E-003	5.42599E-004	...........
	9	2.58333	2.92447E-003	8.63038E-003	5.36966E-004	...........
	10	2.84167	2.15153E-003	3.67246E-003	5.40799E-004	...........
	11	3.1	2.25534E-003	4.44097E-003	5.35533E-004	...........
	12	3.35833	3.14239E-003	5.48230E-003	5.37433E-004	...........
	13	3.61667	4.08081E-003	6.11101E-003	5.41333E-004	...........
	14	3.875	4.77109E-003	5.27937E-003	5.40266E-004	...........
	15	4.13333	5.24568E-003	5.63374E-003	5.39333E-004	...........
	16	4.39167	5.50364E-003	5.44768E-003	5.37833E-004	...........
	17	4.65	5.56778E-003	4.92840E-003	5.37033E-004	...........
	18	4.90833	5.48245E-003	4.27943E-003	5.38799E-004	...........
EOC	QUANT	0.0054824	Open Circuit (V)
PSTATMODEL	IQUANT	4	Pstat Model
PSTATSECTION	LABEL	REF600-11020	Pstat Section
PSTATSERIALNO	LABEL	11020	Pstat Serial Number
CTRLMODE	IQUANT	1	Control Mode
IESTAB	IQUANT	0	I/E Stability
CASPEED	IQUANT	1	Control Amp Speed
CONVENTION	IQUANT	1	Current Convention
ICHRANGE	IQUANT	2	Ich Range
ICHRANGEMODE	TOGGLE	F	Ich Auto Range
ICHOFFSETENABLE	TOGGLE	T	Ich Offset Enable
ICHOFFSET	QUANT	0	Ich Offset (V)
ICHFILTER	IQUANT	3	Ich Filter
VCHRANGE	IQUANT	2	Vch Range
VCHRANGEMODE	TOGGLE	F	Vch Auto Range
VCHOFFSETENABLE	TOGGLE	T	Vch Offset Enable
VCHOFFSET	QUANT	0	Vch Offset (V)
VCHFILTER	IQUANT	3	Vch Filter
ACHRANGE	IQUANT	2	Ach Range
ACHOFFSETENABLE	TOGGLE	F	Ach Offset Enable
ACHOFFSET	QUANT	0	Ach Offset (V)
ACHFILTER	IQUANT	3	Ach Filter
IERANGELOWERLIMIT	IQUANT	1	I/E Range Lower Limit
IERANGEMODE	TOGGLE	F	I/E AutoRange
IERANGE	IQUANT	5	I/E Range
POSFEEDENABLE	TOGGLE	F	Positive Feedback IR Comp
POSFEEDRESISTANCE	QUANT	0	Positive Feedback Resistance (ohm)
ACHSELECT	IQUANT	0	Ach Select
CABLEID	IQUANT	14	Cable ID
DCCALDATE	LABEL	8/19/2019	DC Calibration Date
ACCALDATE	LABEL	8/19/2019	AC Calibration Date
THERMOSELECT	IQUANT	1	Thermo Select
FRAMEWORKVERSION	QUANT	6.33	Framework Version
INSTRUMENTVERSION	LABEL	3.50	Instrument Version
ZCURVE	TABLE
	Pt	Time	Freq	Zreal	Zimag	Zsig	Zmod	Zphz	Idc	Vdc	IERange
	#	s	Hz	ohm	ohm	V	ohm	°	A	V	#
	0	1	1000078	2538.555	-1931.333	1	3189.719	-37.26389	2.161713E-006	0.0073276	8
	1	2	794390.6	2916.979	-1924.557	1	3494.665	-33.41593	-1.046351E-006	0.0073677	8
	2	2	630984.4	3282.292	-1838.605	1	3762.169	-29.25576	-9.965026E-007	0.0074916	8
	3	2	501234.4	3611.41	-1747.623	1	4012.041	-25.82313	4.754567E-007	0.0070581	8
	4	3	398109.4	3888.356	-1584.077	1	4198.644	-22.16549	-3.248724E-007	0.0070093	8
	5	3	316265.6	4114.662	-1420.551	1	4352.977	-19.04678	1.085963E-006	0.0068266	8
	6	3	251203.1	4309.144	-1271.245	1	4492.748	-16.43665	5.511681E-007	0.0070841	8
	7	4	199546.9	4446.795	-1159.374	1	4595.447	-14.61292	-2.420148E-006	0.0075936	8
	8	4	158578.1	4564.431	-1032.899	1	4679.841	-12.75088	2.030228E-007	0.007091	8
	9	4	125953.1	4682.189	-871.9223	1	4762.683	-10.54885	1.065097E-006	0.0049888	7
	10	5	100078.1	4779.711	-831.285	1	4851.461	-9.86617	-4.972945E-008	0.0072343	7
	11	5	79453.13	4857.979	-803.0286	1	4923.903	-9.386169	-2.786866E-008	0.0071193	7
	12	5	63140.62	4930	-790.5797	1	4992.987	-9.110442	-3.654797E-008	0.0070968	7
	13	6	50203.12	5003.945	-797.2756	1	5067.062	-9.05281	-7.637785E-009	0.0070743	7
	14	6	39890.62	5079.947	-819.3489	1	5145.6	-9.162375	-2.787491E-008	0.0071158	7
	15	6	31640.63	5159.624	-864.6006	1	5231.563	-9.5127	-2.559958E-008	0.0071126	7
	16	7	25171.88	5245.163	-923.6445	1	5325.866	-9.98708	-4.388884E-009	0.0070699	7
	17	7	20015.62	5315.897	-976.566	1	5404.854	-10.40955	1.034977E-007	0.006913	7
	18	7	15890.62	5442.848	-1100.717	1	5553.032	-11.43283	5.40347E-008	0.0069711	7
	19	7	12609.37	5558.726	-1220.865	1	5691.217	-12.38721	7.798952E-008	0.0069949	7
	20	8	10078.13	5683.749	-1360.709	1	5844.359	-13.46341	6.696091E-010	0.0070012	7
	21	8	8015.625	5805.303	-1513.674	1	5999.396	-14.61391	-2.598714E-008	0.0070512	7
	22	8	6328.125	5990.564	-1732.584	1	6236.081	-16.13086	6.182934E-008	0.0069114	7
	23	9	5015.625	6173.409	-1966.602	1	6479.082	-17.66981	-2.758159E-008	0.0070571	7
	24	9	3984.375	6382.864	-2248.809	1	6767.429	-19.40837	6.359237E-008	0.0069065	7
	25	9	3170.956	6613.356	-2553.831	1	7089.325	-21.11469	1.604482E-008	0.0071231	7
	26	10	2527.573	6872.769	-2910.962	1	7463.823	-22.95509	1.001208E-007	0.0069006	7
	27	10	1976.103	7195.424	-3357.084	1	7940.034	-25.01179	-7.31634E-009	0.0070661	7
	28	10	1577.524	7498.102	-3806.258	1	8408.872	-26.91369	4.001651E-008	0.0069982	7
	29	11	1265.625	7901.583	-4369.31	1	9029.169	-28.94112	4.080881E-008	0.0069912	7
	30	11	998.264	8342.799	-5029.364	1	9741.5	-31.08321	-1.13566E-009	0.0070613	6
	31	11	796.875	8796.279	-5755.982	1	10512.18	-33.19935	3.245491E-009	0.0068853	6
	32	12	627.7902	9309.742	-6662.025	1	11447.88	-35.5874	4.582403E-009	0.0068242	6
	33	12	505.5147	9798.77	-7635.35	1	12422.34	-37.92626	-2.807806E-009	0.0069752	6
	34	12	397.9953	10354.03	-8924.799	1	13669.6	-40.76014	5.937689E-010	0.0070051	6
	35	13	315.5048	10909.8	-10473.97	1	15123.75	-43.83241	1.497195E-009	0.0070054	6
	36	13	252.4038	11464.19	-12315.04	1	16825.22	-47.04924	1.205945E-009	0.0070022	6
	37	13	198.6229	12096.21	-14785	1	19102.74	-50.71202	5.177631E-010	0.0070046	6
	38	14	158.3615	12762.65	-17713.23	1	21832.17	-54.22668	5.241413E-012	0.0069998	6
	39	14	125.558	13543.98	-21465.31	1	25381.08	-57.74927	2.742588E-010	0.0070035	6
	40	14	100.4464	14421.85	-25912.68	1	29655.64	-60.90162	1.26229E-009	0.0070004	6
	41	14	79.00281	15744.22	-31910.41	1	35583.07	-63.73881	1.243987E-009	0.0070009	6
	42	15	63.3446	16596.87	-38768.91	1	42172.08	-66.82436	3.779397E-010	0.0069972	6
	43	15	49.86702	18729.47	-47640.26	1	51189.72	-68.53804	4.070763E-011	0.0069999	6
	44	16	39.72458	21471.23	-58409.94	1	62231.3	-69.8168	7.671669E-010	0.0070005	6
	45	16	31.6723	24801.95	-71443.7	1	75626.31	-70.85536	6.668824E-010	0.0069964	6
	46	16	24.93351	29349.51	-87765.15	1	92542.51	-71.50957	5.38562E-010	0.0069992	6
	47	17	19.86229	35179.86	-106800.9	1	112445.7	-71.76829	7.201256E-010	0.0070026	5
	48	17	15.83615	43205.88	-131550.1	1	138463.6	-71.81792	-2.20276E-009	0.0070028	5
	49	17	12.40079	54599.56	-160266.1	1	169311.3	-71.18701	3.312262E-010	0.0070035	5
	50	18	9.93114	67332.74	-191232.9	1	202740.5	-70.60293	-5.42328E-010	0.0070005	5
	51	18	7.944915	85102.91	-228415.3	1	243754.1	-69.56563	-5.918023E-010	0.0070027	5
	52	19	6.317385	107974.1	-271765.3	1	292429.1	-68.33176	-3.344153E-010	0.0070111	5
	53	19	5.008013	137966.3	-322326.6	1	350612.5	-66.8275	4.982041E-010	0.0069946	5
	54	21	3.945707	177301.5	-380657.8	1	419924.1	-65.02499	3.950144E-010	0.0069928	5
	55	22	3.158693	220151	-440305.7	1	492275.9	-63.43515	2.295432E-010	0.0070153	5
	56	24	2.504006	274770.3	-507493.7	1	577103.6	-61.56773	-4.277043E-011	0.0070061	5
	57	25	1.998082	332012.9	-578999.1	1	667437.3	-60.16894	-3.196168E-011	0.0070029	5
	58	26	1.584686	402144	-657001.1	1	770305.3	-58.52961	2.04325E-010	0.0070403	5
	59	28	1.266892	472131.9	-744717.7	1	881767	-57.62635	3.393226E-011	0.0070346	5
	60	31	0.999041	553766.2	-849971.4	1	1014450	-56.91529	-6.392006E-011	0.007019	4
