EXPLAIN
TAG	EISPOT
TITLE	LABEL	Potentiostatic IDE	Test &Identifier
DATE	LABEL	9/4/2019	Date
TIME	LABEL	12:08:13	Time
NOTES	NOTES	1	&Notes...
	
PSTAT	PSTAT	REF600-11020	Potentiostat
VDC	POTEN	0.00000E+000	T	DC &Voltage (V)
FREQINIT	QUANT	1.00000E+006	Initial Fre&q. (Hz)
FREQFINAL	QUANT	1.00000E+000	Final Fre&q. (Hz)
PTSPERDEC	QUANT	1.00000E+001	Points/&decade
VAC	QUANT	2.50000E+001	AC &Voltage (mV rms)
AREA	QUANT	1.00000E-002	&Area (cm^2)
CONDIT	TWOPARAM	T	5.00000E+000	0.00000E+000	Conditionin&g	Time(s)	E(V)
DELAY	TWOPARAM	T	5.00000E+000	0.00000E+000	Init. De&lay	Time(s)	Stab.(mV/s)
SPEED	SELECTOR	1	&Optimize for:
ZGUESS	QUANT	1.00000E+007	E&stimated Z (ohms)
OCVCURVE	TABLE	19
	Pt	T	Vf	Vm	Ach	Over
	#	s	V vs. Ref.	V	V	bits
	0	0.258333	6.47090E-002	6.47090E-002	5.70266E-004	...........
	1	0.516667	6.47139E-002	6.49657E-002	5.73199E-004	...........
	2	0.775	6.47431E-002	6.51634E-002	5.75799E-004	...........
	3	1.03333	6.48280E-002	6.56153E-002	5.76332E-004	...........
	4	1.29167	6.49948E-002	6.59889E-002	5.72032E-004	...........
	5	1.55	6.52506E-002	6.63421E-002	5.75632E-004	...........
	6	1.80833	6.55767E-002	6.67440E-002	5.76732E-004	...........
	7	2.06667	6.59432E-002	6.71924E-002	5.75499E-004	...........
	8	2.325	6.63323E-002	6.76668E-002	5.76199E-004	...........
	9	2.58333	6.67361E-002	6.77699E-002	5.78566E-004	...........
	10	2.84167	6.71317E-002	6.81031E-002	5.75532E-004	...........
	11	3.1	6.74897E-002	6.84704E-002	5.74899E-004	...........
	12	3.35833	6.78128E-002	6.89163E-002	5.76766E-004	...........
	13	3.61667	6.81358E-002	6.92713E-002	5.77466E-004	...........
	14	3.875	6.84857E-002	6.97090E-002	5.75766E-004	...........
	15	4.13333	6.88588E-002	6.98322E-002	5.73599E-004	...........
	16	4.39167	6.92260E-002	7.01203E-002	5.76299E-004	...........
	17	4.65	6.95566E-002	7.03921E-002	5.74466E-004	...........
	18	4.90833	6.98474E-002	7.07326E-002	5.76632E-004	...........
EOC	QUANT	0.0698474	Open Circuit (V)
PSTATMODEL	IQUANT	4	Pstat Model
PSTATSECTION	LABEL	REF600-11020	Pstat Section
PSTATSERIALNO	LABEL	11020	Pstat Serial Number
CTRLMODE	IQUANT	1	Control Mode
IESTAB	IQUANT	0	I/E Stability
CASPEED	IQUANT	1	Control Amp Speed
CONVENTION	IQUANT	1	Current Convention
ICHRANGE	IQUANT	2	Ich Range
ICHRANGEMODE	TOGGLE	F	Ich Auto Range
ICHOFFSETENABLE	TOGGLE	T	Ich Offset Enable
ICHOFFSET	QUANT	0	Ich Offset (V)
ICHFILTER	IQUANT	3	Ich Filter
VCHRANGE	IQUANT	2	Vch Range
VCHRANGEMODE	TOGGLE	F	Vch Auto Range
VCHOFFSETENABLE	TOGGLE	T	Vch Offset Enable
VCHOFFSET	QUANT	0	Vch Offset (V)
VCHFILTER	IQUANT	3	Vch Filter
ACHRANGE	IQUANT	2	Ach Range
ACHOFFSETENABLE	TOGGLE	F	Ach Offset Enable
ACHOFFSET	QUANT	0	Ach Offset (V)
ACHFILTER	IQUANT	3	Ach Filter
IERANGELOWERLIMIT	IQUANT	1	I/E Range Lower Limit
IERANGEMODE	TOGGLE	F	I/E AutoRange
IERANGE	IQUANT	4	I/E Range
POSFEEDENABLE	TOGGLE	F	Positive Feedback IR Comp
POSFEEDRESISTANCE	QUANT	0	Positive Feedback Resistance (ohm)
ACHSELECT	IQUANT	0	Ach Select
CABLEID	IQUANT	14	Cable ID
DCCALDATE	LABEL	8/19/2019	DC Calibration Date
ACCALDATE	LABEL	8/19/2019	AC Calibration Date
THERMOSELECT	IQUANT	1	Thermo Select
FRAMEWORKVERSION	QUANT	6.33	Framework Version
INSTRUMENTVERSION	LABEL	3.50	Instrument Version
ZCURVE	TABLE
	Pt	Time	Freq	Zreal	Zimag	Zsig	Zmod	Zphz	Idc	Vdc	IERange
	#	s	Hz	ohm	ohm	V	ohm	°	A	V	#
	0	2	1000078	2372.578	-2406.876	1	3379.672	-45.41115	9.896486E-006	0.0709491	8
	1	4	794390.6	2862.017	-2382.554	1	3723.937	-39.7765	1.347837E-005	0.0702252	8
	2	5	630984.4	3327.244	-2296.773	1	4042.984	-34.61705	9.138292E-006	0.0710307	8
	3	7	501234.4	3746.666	-2150.867	1	4320.154	-29.85905	1.191302E-005	0.0704742	8
	4	9	398109.4	4092.112	-1971.053	1	4542.073	-25.71879	9.470669E-006	0.0709793	8
	5	10	316265.6	4368.439	-1803.011	1	4725.897	-22.42769	1.270835E-005	0.0702757	8
	6	12	251203.1	4607.037	-1595.787	1	4875.585	-19.10508	8.391499E-006	0.0709351	8
	7	13	199546.9	4765.89	-1494.748	1	4994.795	-17.41323	1.183727E-005	0.0696784	8
	8	15	158578.1	4906.606	-1392.919	1	5100.491	-15.84853	9.487081E-006	0.0707257	8
	9	16	125953.1	5037.363	-1314.153	1	5205.96	-14.62149	9.60735E-007	0.0704877	7
	10	18	100078.1	5136.298	-1274.318	1	5292.017	-13.93376	8.761733E-007	0.0710711	7
	11	19	79453.13	5240.595	-1284.851	1	5395.802	-13.77563	9.066321E-007	0.0710964	7
	12	20	63140.62	5348.972	-1331.082	1	5512.104	-13.97411	8.848698E-007	0.0711201	7
	13	22	50203.12	5450.684	-1418.785	1	5632.309	-14.59004	9.036801E-007	0.0710348	7
	14	23	39890.62	5569.32	-1541.213	1	5778.639	-15.46851	9.085918E-007	0.0710993	7
	15	24	31640.63	5701.241	-1709.44	1	5952.002	-16.69065	8.584647E-007	0.0711348	7
	16	26	25171.88	5842.057	-1917.2	1	6148.601	-18.16839	9.033058E-007	0.0710357	7
	17	27	20015.62	6006.901	-2181.275	1	6390.683	-19.95738	8.865671E-007	0.0711098	7
	18	28	15890.62	6190.063	-2492.582	1	6673.068	-21.9334	8.817225E-007	0.0710584	7
	19	30	12609.37	6412.167	-2887.876	1	7032.475	-24.24558	9.012984E-007	0.0710658	7
	20	31	10078.13	6667.75	-3334.419	1	7455.014	-26.56879	9.644247E-007	0.0709627	7
	21	33	8015.625	6944.756	-3880.131	1	7955.19	-29.19269	8.787927E-007	0.071062	7
	22	34	6328.125	7294.037	-4550.783	1	8597.244	-31.96023	8.799414E-007	0.071147	7
	23	35	5015.625	7674.57	-5333.798	1	9346.038	-34.79916	9.031937E-007	0.0710654	7
	24	37	3984.375	8155.37	-6249.729	1	10274.69	-37.46413	9.740584E-007	0.0709464	7
	25	38	3170.956	8698.039	-7317.341	1	11366.59	-40.07267	9.217666E-007	0.071043	7
	26	39	2527.573	9308.259	-8562.102	1	12647.26	-42.60907	8.960802E-008	0.0708775	6
	27	41	1976.103	10102.97	-10189.7	1	14349.21	-45.24488	8.905823E-008	0.0709766	6
	28	42	1577.524	10953.3	-11967.1	1	16223.02	-47.53262	8.771821E-008	0.0710557	6
	29	43	1265.625	11944.82	-13970.13	1	18380.51	-49.46871	9.911702E-008	0.0708131	6
	30	45	998.264	13180.2	-16548.83	1	21156.12	-51.46466	9.200166E-008	0.0708831	6
	31	46	796.875	14537.85	-19425.39	1	24263.04	-53.18903	8.627993E-008	0.0709772	6
	32	47	627.7902	16292.98	-22992.61	1	28180.15	-54.67792	9.0647E-008	0.0708727	6
	33	49	505.5147	18146.83	-26870.95	1	32424.62	-55.96756	8.949083E-008	0.0708816	6
	34	50	397.9953	20551.51	-31858.84	1	37912.4	-57.17474	8.953995E-008	0.0706331	6
	35	51	315.5048	23315.88	-37607.71	1	44248.96	-58.20207	8.955913E-008	0.0706374	6
	36	53	252.4038	26454.75	-44114.09	1	51438.37	-59.04934	8.912685E-008	0.0706341	6
	37	54	198.6229	30432.08	-52338.37	1	60542.68	-59.82419	8.955854E-008	0.0706309	6
	38	55	158.3615	34879.62	-61534.61	1	70732.57	-60.45416	8.910972E-008	0.0706321	6
	39	57	125.558	40282.34	-72646.48	1	83067.31	-60.99171	8.940407E-008	0.0706328	6
	40	58	100.4464	46238.95	-85155.72	1	96899.6	-61.49836	8.956964E-008	0.0706341	6
	41	59	79.00281	54416.67	-100634.8	1	114405.1	-61.59839	8.958057E-008	0.0706342	6
	42	61	63.3446	60945.38	-117556.3	1	132415.3	-62.59616	9.11517E-009	0.070641	5
	43	62	49.86702	74520.16	-139241.9	1	157929	-61.84498	8.90566E-009	0.0706362	5
	44	64	39.72458	85499.17	-164094.2	1	185032.5	-62.47881	9.121743E-009	0.0706398	5
	45	65	31.6723	98675.6	-192117.8	1	215977.2	-62.81404	8.971423E-009	0.0706408	5
	46	66	24.93351	115986.2	-227608.9	1	255457.7	-62.99728	9.091793E-009	0.0706355	5
	47	68	19.86229	134479.2	-267433.2	1	299341.2	-63.3044	9.164928E-009	0.0706475	5
	48	69	15.83615	152696.7	-316281.7	1	351212.7	-64.22935	8.570532E-009	0.0706368	5
	49	70	12.40079	186021.3	-371112.9	1	415124.9	-63.37757	8.551534E-009	0.0706439	5
	50	72	9.93114	212807.3	-440287.5	1	489019.5	-64.2038	9.034821E-009	0.0706349	5
	51	73	7.944915	243608.4	-516158.3	1	570757.8	-64.73435	9.323241E-009	0.0706373	5
	52	75	6.317385	287423.4	-613078.1	1	677109.3	-64.88187	9.104149E-009	0.0706315	5
	53	77	5.008013	336552.3	-728546.2	1	802525.4	-65.2054	9.027893E-009	0.0706375	5
	54	80	3.945707	398908.7	-870492.1	1	957541	-65.38007	9.076105E-009	0.0706446	5
	55	83	3.158693	469227.2	-1029069	1	1130999	-65.48832	8.977517E-009	0.070632	5
	56	86	2.504006	560565.3	-1225165	1	1347317	-65.41389	9.541233E-010	0.070913	4
	57	89	1.998082	667097.1	-1446613	1	1593018	-65.24348	8.724818E-010	0.0709455	4
	58	92	1.584686	806342.5	-1717438	1	1897309	-64.8498	9.004725E-010	0.0709719	4
	59	95	1.266892	964332	-2020335	1	2238680	-64.48427	8.426607E-010	0.070919	4
	60	100	0.999041	1183096	-2391974	1	2668568	-63.68252	1.026711E-009	0.0709464	4
