EXPLAIN
TAG	EISPOT
TITLE	LABEL	Potentiostatic EIS	Test &Identifier
DATE	LABEL	10/28/2019	Date
TIME	LABEL	9:36:25	Time
NOTES	NOTES	1	&Notes...
	
PSTAT	PSTAT	REF600-11020	Potentiostat
VDC	POTEN	0.00000E+000	T	DC &Voltage (V)
FREQINIT	QUANT	1.00000E+006	Initial Fre&q. (Hz)
FREQFINAL	QUANT	1.00000E+000	Final Fre&q. (Hz)
PTSPERDEC	QUANT	1.00000E+001	Points/&decade
VAC	QUANT	2.50000E+001	AC &Voltage (mV rms)
AREA	QUANT	1.00000E-002	&Area (cm^2)
CONDIT	TWOPARAM	T	5.00000E+000	0.00000E+000	Conditionin&g	Time(s)	E(V)
DELAY	TWOPARAM	T	5.00000E+000	0.00000E+000	Init. De&lay	Time(s)	Stab.(mV/s)
SPEED	SELECTOR	1	&Optimize for:
ZGUESS	QUANT	1.00000E+005	E&stimated Z (ohms)
OCVCURVE	TABLE	19
	Pt	T	Vf	Vm	Ach	Over
	#	s	V vs. Ref.	V	V	bits
	0	0.258333	4.30623E-003	4.30623E-003	5.73599E-004	...........
	1	0.516667	4.30589E-003	4.28867E-003	5.76032E-004	...........
	2	0.775	4.30394E-003	4.27758E-003	5.78199E-004	...........
	3	1.03333	4.29882E-003	4.26975E-003	5.73799E-004	...........
	4	1.29167	4.29058E-003	4.26226E-003	5.80499E-004	...........
	5	1.55	4.28115E-003	4.26507E-003	5.74032E-004	...........
	6	1.80833	4.27312E-003	4.27202E-003	5.75199E-004	...........
	7	2.06667	4.26864E-003	4.28051E-003	5.79666E-004	...........
	8	2.325	4.26876E-003	4.29003E-003	5.75932E-004	...........
	9	2.58333	4.27324E-003	4.30831E-003	5.72266E-004	...........
	10	2.84167	4.28141E-003	4.32142E-003	5.76432E-004	...........
	11	3.1	4.29258E-003	4.33412E-003	5.76866E-004	...........
	12	3.35833	4.30582E-003	4.35612E-003	5.75732E-004	...........
	13	3.61667	4.32057E-003	4.37811E-003	5.77566E-004	...........
	14	3.875	4.33710E-003	4.39721E-003	5.79199E-004	...........
	15	4.13333	4.35550E-003	4.41427E-003	5.78366E-004	...........
	16	4.39167	4.37502E-003	4.43824E-003	5.80499E-004	...........
	17	4.65	4.39492E-003	4.45805E-003	5.79532E-004	...........
	18	4.90833	4.41515E-003	4.48018E-003	5.80599E-004	...........
EOC	QUANT	0.0044151	Open Circuit (V)
PSTATMODEL	IQUANT	4	Pstat Model
PSTATSECTION	LABEL	REF600-11020	Pstat Section
PSTATSERIALNO	LABEL	11020	Pstat Serial Number
CTRLMODE	IQUANT	1	Control Mode
IESTAB	IQUANT	0	I/E Stability
CASPEED	IQUANT	1	Control Amp Speed
CONVENTION	IQUANT	1	Current Convention
ICHRANGE	IQUANT	2	Ich Range
ICHRANGEMODE	TOGGLE	F	Ich Auto Range
ICHOFFSETENABLE	TOGGLE	T	Ich Offset Enable
ICHOFFSET	QUANT	0	Ich Offset (V)
ICHFILTER	IQUANT	3	Ich Filter
VCHRANGE	IQUANT	2	Vch Range
VCHRANGEMODE	TOGGLE	F	Vch Auto Range
VCHOFFSETENABLE	TOGGLE	T	Vch Offset Enable
VCHOFFSET	QUANT	0	Vch Offset (V)
VCHFILTER	IQUANT	3	Vch Filter
ACHRANGE	IQUANT	2	Ach Range
ACHOFFSETENABLE	TOGGLE	F	Ach Offset Enable
ACHOFFSET	QUANT	0	Ach Offset (V)
ACHFILTER	IQUANT	3	Ach Filter
IERANGELOWERLIMIT	IQUANT	1	I/E Range Lower Limit
IERANGEMODE	TOGGLE	F	I/E AutoRange
IERANGE	IQUANT	4	I/E Range
POSFEEDENABLE	TOGGLE	F	Positive Feedback IR Comp
POSFEEDRESISTANCE	QUANT	0	Positive Feedback Resistance (ohm)
ACHSELECT	IQUANT	0	Ach Select
CABLEID	IQUANT	14	Cable ID
DCCALDATE	LABEL	8/19/2019	DC Calibration Date
ACCALDATE	LABEL	8/19/2019	AC Calibration Date
THERMOSELECT	IQUANT	1	Thermo Select
FRAMEWORKVERSION	QUANT	6.33	Framework Version
INSTRUMENTVERSION	LABEL	3.50	Instrument Version
ZCURVE	TABLE
	Pt	Time	Freq	Zreal	Zimag	Zsig	Zmod	Zphz	Idc	Vdc	IERange
	#	s	Hz	ohm	ohm	V	ohm	°	A	V	#
	0	2	1000078	2066.808	-799.9114	1	2216.202	-21.1578	4.640092E-007	0.0062302	8
	1	3	794390.6	2195.539	-734.428	1	2315.119	-18.49557	-8.455015E-007	0.0066803	8
	2	4	630984.4	2296.726	-648.8138	1	2386.61	-15.77473	1.814588E-006	0.0058227	8
	3	6	501234.4	2381.675	-571.4008	1	2449.26	-13.49116	5.229579E-006	0.0051951	8
	4	7	398109.4	2451.988	-494.3657	1	2501.328	-11.39906	-4.34668E-006	0.0068958	8
	5	9	316265.6	2498.09	-431.6793	1	2535.114	-9.8041	1.593502E-006	0.005699	8
	6	10	251203.1	2544.139	-377.296	1	2571.964	-8.435484	-3.701542E-006	0.006813	8
	7	11	199546.9	2576.297	-330.2495	1	2597.378	-7.304776	-9.794625E-007	0.0064385	8
	8	13	158578.1	2604.798	-289.8794	1	2620.879	-6.350128	-2.174251E-008	0.005959	8
	9	14	125953.1	2648.248	-225.1921	1	2657.805	-4.860419	5.443109E-007	0.0045991	7
	10	16	100078.1	2670.22	-202.7313	1	2677.905	-4.341741	-4.204878E-008	0.0060362	7
	11	17	79453.13	2683.914	-200.3328	1	2691.38	-4.268758	-7.905205E-009	0.0060418	7
	12	18	63140.62	2702.497	-199.0015	1	2709.814	-4.211439	-2.271811E-008	0.0059835	7
	13	20	50203.12	2721.97	-201.3674	1	2729.408	-4.230951	-2.084437E-008	0.0059796	7
	14	21	39890.62	2740.957	-206.999	1	2748.762	-4.31882	-4.446782E-008	0.0060231	7
	15	22	31640.63	2761.127	-216.6008	1	2769.61	-4.485468	-4.782447E-008	0.0061515	7
	16	24	25171.88	2781.668	-230.4113	1	2791.195	-4.735116	7.97726E-008	0.0058587	7
	17	25	20015.62	2800.625	-253.9288	1	2812.113	-5.180763	-1.490284E-008	0.006143	7
	18	26	15890.62	2825.418	-273.0256	1	2838.579	-5.519465	-3.98906E-008	0.0060304	7
	19	28	12609.37	2848.698	-302.911	1	2864.758	-6.069633	-4.194713E-008	0.0060217	7
	20	29	10078.13	2870.787	-348.7006	1	2891.887	-6.925516	-8.814476E-009	0.006036	7
	21	30	8015.625	2892.642	-389.1004	1	2918.694	-7.66109	-7.423667E-009	0.0059465	7
	22	32	6328.125	2927.988	-446.8972	1	2961.896	-8.67805	-4.508507E-008	0.0060543	7
	23	33	5015.625	2959.311	-520.4496	1	3004.728	-9.97452	-3.968744E-008	0.0060127	7
	24	35	3984.375	2987.735	-609.9823	1	3049.367	-11.53905	-2.636219E-008	0.0059937	7
	25	36	3170.956	3030.002	-717.7291	1	3113.848	-13.32627	-3.665371E-009	0.0059398	7
	26	37	2527.573	3068.842	-850.7662	1	3184.587	-15.49482	-2.582619E-008	0.0059935	7
	27	39	1976.103	3114.623	-1027.524	1	3279.738	-18.25789	1.406574E-007	0.0057894	7
	28	40	1577.524	3168.293	-1256.29	1	3408.276	-21.62929	5.248137E-008	0.0058432	7
	29	41	1265.625	3220.104	-1473.933	1	3541.406	-24.59492	1.41606E-007	0.0057898	7
	30	43	998.264	3289.834	-1795.641	1	3747.977	-28.62638	-2.562407E-008	0.0059932	7
	31	44	796.875	3366.418	-2173.217	1	4006.949	-32.84457	8.368247E-008	0.0058246	7
	32	45	627.7902	3466.106	-2670.128	1	4375.326	-37.609	-1.731952E-009	0.0059295	7
	33	47	505.5147	3572.344	-3223.844	1	4811.944	-42.06451	-1.454809E-008	0.0061262	7
	34	48	397.9953	3722.599	-3971.801	1	5443.615	-46.85501	6.219054E-009	0.0060111	7
	35	50	315.5048	3904.618	-4873.621	1	6244.855	-51.2992	5.717276E-009	0.0060122	7
	36	51	252.4038	4125.347	-5932.494	1	7225.854	-55.18596	7.209135E-009	0.0060081	7
	37	52	198.6229	4430.76	-7329.859	1	8564.955	-58.84784	5.988453E-009	0.006009	7
	38	54	158.3615	4806.756	-8945.853	1	10155.45	-61.75012	5.223745E-009	0.0060103	7
	39	55	125.558	5306.627	-10965.81	1	12182.33	-64.1765	7.977694E-010	0.0059477	6
	40	56	100.4464	5913.615	-13310.33	1	14564.88	-66.04502	7.031173E-010	0.0059467	6
	41	58	79.00281	6815.696	-16368.17	1	17730.5	-67.39318	-1.980831E-010	0.0059478	6
	42	59	63.3446	7994.442	-19817.01	1	21368.79	-68.0302	5.179936E-010	0.0059479	6
	43	61	49.86702	9220.956	-24291.64	1	25982.87	-69.21355	-4.175403E-010	0.0059415	6
	44	62	39.72458	11081.08	-29225.01	1	31255.26	-69.23505	7.540831E-010	0.0059486	6
	45	63	31.6723	13389.39	-35030.09	1	37501.78	-69.08188	8.591182E-010	0.0059444	6
	46	65	24.93351	16446.21	-42482.75	1	45555.04	-68.83725	1.829141E-010	0.0059507	6
	47	66	19.86229	20161.02	-50630.52	1	54496.94	-68.28761	1.733504E-009	0.0059456	6
	48	68	15.83615	24340.38	-60191.66	1	64926.81	-67.98251	-1.016457E-009	0.0059451	6
	49	69	12.40079	30651.02	-72364.65	1	78588.34	-67.04427	5.525516E-010	0.0059434	6
	50	70	9.93114	37570.06	-84671.7	1	92632.63	-66.07244	3.988944E-010	0.0059482	6
	51	72	7.944915	46004.35	-99101.7	1	109259.1	-65.09863	1.056077E-009	0.0059487	5
	52	74	6.317385	55990.09	-116124.1	1	128917.4	-64.25863	4.008424E-010	0.0059659	5
	53	76	5.008013	68250.16	-135869.9	1	152048.4	-63.3287	3.650996E-010	0.0059474	5
	54	78	3.945707	83232.23	-159048.6	1	179510.7	-62.37635	3.68448E-010	0.0059542	5
	55	81	3.158693	99734.8	-183395	1	208760.1	-61.46154	1.797259E-012	0.0059566	5
	56	84	2.504006	119449.8	-212058.4	1	243386.6	-60.608	4.356592E-010	0.0059452	5
	57	87	1.998082	141031.2	-243253.7	1	281179.9	-59.89613	-1.126238E-010	0.0059899	5
	58	90	1.584686	165031.3	-280052.7	1	325061.2	-59.48972	2.228357E-010	0.0059584	5
	59	94	1.266892	191990.6	-320852.8	1	373907.7	-59.10471	1.64855E-011	0.0059954	5
	60	98	0.999041	222129.4	-370996.2	1	432411.4	-59.08945	-1.939151E-011	0.0059143	5
