EXPLAIN
TAG	EISPOT
TITLE	LABEL	Potentiostatic EIS	Test &Identifier
DATE	LABEL	11/3/2019	Date
TIME	LABEL	10:35:06	Time
NOTES	NOTES	1	&Notes...
	
PSTAT	PSTAT	REF600-11020	Potentiostat
VDC	POTEN	0.00000E+000	T	DC &Voltage (V)
FREQINIT	QUANT	1.00000E+006	Initial Fre&q. (Hz)
FREQFINAL	QUANT	1.00000E+000	Final Fre&q. (Hz)
PTSPERDEC	QUANT	1.00000E+001	Points/&decade
VAC	QUANT	2.50000E+001	AC &Voltage (mV rms)
AREA	QUANT	1.00000E-002	&Area (cm^2)
CONDIT	TWOPARAM	T	5.00000E+000	0.00000E+000	Conditionin&g	Time(s)	E(V)
DELAY	TWOPARAM	T	5.00000E+000	0.00000E+000	Init. De&lay	Time(s)	Stab.(mV/s)
SPEED	SELECTOR	1	&Optimize for:
ZGUESS	QUANT	1.00000E+005	E&stimated Z (ohms)
OCVCURVE	TABLE	19
	Pt	T	Vf	Vm	Ach	Over
	#	s	V vs. Ref.	V	V	bits
	0	0.258333	2.45083E-003	2.45083E-003	5.84999E-004	...........
	1	0.516667	2.44460E-003	2.12483E-003	5.87232E-004	...........
	2	0.775	2.40651E-003	1.82407E-003	5.81032E-004	...........
	3	1.03333	2.29989E-003	1.56643E-003	5.85132E-004	...........
	4	1.29167	2.11274E-003	1.31990E-003	5.81599E-004	...........
	5	1.55	1.87109E-003	1.11287E-003	5.81132E-004	...........
	6	1.80833	1.61389E-003	9.16406E-004	5.82499E-004	...........
	7	2.06667	1.36838E-003	7.40322E-004	5.83332E-004	...........
	8	2.325	1.14512E-003	5.66561E-004	5.77466E-004	...........
	9	2.58333	9.44596E-004	4.61622E-004	5.78199E-004	...........
	10	2.84167	7.69530E-004	5.23784E-004	5.80699E-004	...........
	11	3.1	6.32670E-004	4.69922E-004	5.85432E-004	...........
	12	3.35833	5.42883E-004	3.64514E-004	5.85499E-004	...........
	13	3.61667	4.85867E-004	2.98148E-004	5.84565E-004	...........
	14	3.875	4.32335E-004	1.03657E-004	5.82032E-004	...........
	15	4.13333	3.58677E-004	-3.33572E-005	5.92632E-004	...........
	16	4.39167	2.54395E-004	-2.13807E-004	5.86165E-004	...........
	17	4.65	1.19908E-004	-4.44323E-004	5.89399E-004	...........
	18	4.90833	-3.85792E-005	-5.43366E-004	5.89365E-004	...........
EOC	QUANT	-3.857919E-005	Open Circuit (V)
PSTATMODEL	IQUANT	4	Pstat Model
PSTATSECTION	LABEL	REF600-11020	Pstat Section
PSTATSERIALNO	LABEL	11020	Pstat Serial Number
CTRLMODE	IQUANT	1	Control Mode
IESTAB	IQUANT	0	I/E Stability
CASPEED	IQUANT	1	Control Amp Speed
CONVENTION	IQUANT	1	Current Convention
ICHRANGE	IQUANT	2	Ich Range
ICHRANGEMODE	TOGGLE	F	Ich Auto Range
ICHOFFSETENABLE	TOGGLE	T	Ich Offset Enable
ICHOFFSET	QUANT	0	Ich Offset (V)
ICHFILTER	IQUANT	3	Ich Filter
VCHRANGE	IQUANT	2	Vch Range
VCHRANGEMODE	TOGGLE	F	Vch Auto Range
VCHOFFSETENABLE	TOGGLE	T	Vch Offset Enable
VCHOFFSET	QUANT	0	Vch Offset (V)
VCHFILTER	IQUANT	3	Vch Filter
ACHRANGE	IQUANT	2	Ach Range
ACHOFFSETENABLE	TOGGLE	F	Ach Offset Enable
ACHOFFSET	QUANT	0	Ach Offset (V)
ACHFILTER	IQUANT	3	Ach Filter
IERANGELOWERLIMIT	IQUANT	1	I/E Range Lower Limit
IERANGEMODE	TOGGLE	F	I/E AutoRange
IERANGE	IQUANT	2	I/E Range
POSFEEDENABLE	TOGGLE	F	Positive Feedback IR Comp
POSFEEDRESISTANCE	QUANT	0	Positive Feedback Resistance (ohm)
ACHSELECT	IQUANT	0	Ach Select
CABLEID	IQUANT	14	Cable ID
DCCALDATE	LABEL	8/19/2019	DC Calibration Date
ACCALDATE	LABEL	8/19/2019	AC Calibration Date
THERMOSELECT	IQUANT	1	Thermo Select
FRAMEWORKVERSION	QUANT	6.33	Framework Version
INSTRUMENTVERSION	LABEL	3.50	Instrument Version
ZCURVE	TABLE
	Pt	Time	Freq	Zreal	Zimag	Zsig	Zmod	Zphz	Idc	Vdc	IERange
	#	s	Hz	ohm	ohm	V	ohm	°	A	V	#
	0	1	1000078	2087.556	-1272.476	1	2444.808	-31.36453	4.573296E-006	0.0029024	8
	1	2	794390.6	2326.56	-1201.824	1	2618.637	-27.31939	-7.527789E-006	0.0023447	8
	2	4	630984.4	2532.495	-1100.096	1	2761.113	-23.47974	-1.657177E-006	0.0023994	8
	3	5	501234.4	2707.365	-982.733	1	2880.207	-19.95013	-7.244085E-008	0.0013562	8
	4	6	398109.4	2842.894	-865.4603	1	2971.711	-16.93179	-7.120012E-007	0.0012997	8
	5	8	316265.6	2948.478	-759.2717	1	3044.67	-14.44067	-6.563802E-007	0.0012779	8
	6	9	251203.1	3019.825	-658.4495	1	3090.777	-12.30038	-8.292296E-007	0.0019826	8
	7	10	199546.9	3093.663	-587.74	1	3148.998	-10.75697	-3.604851E-007	0.0020028	8
	8	12	158578.1	3126.425	-512.9863	1	3168.231	-9.318108	-5.992164E-006	0.0024327	8
	9	13	125953.1	3204.787	-432.9672	1	3233.902	-7.694084	6.029782E-007	0.0036539	7
	10	14	100078.1	3235.124	-397.6344	1	3259.47	-7.007173	-2.901591E-007	0.0028322	7
	11	16	79453.13	3272.915	-387.9144	1	3295.823	-6.759313	1.062305E-006	0.0004236	7
	12	17	63140.62	3304.958	-382.1187	1	3326.975	-6.595244	-2.841567E-007	0.0006671	7
	13	18	50203.12	3340.182	-388.4293	1	3362.691	-6.633125	3.765959E-007	0.002023	7
	14	20	39890.62	3379.143	-401.2462	1	3402.882	-6.771709	1.055679E-006	0.0000967	7
	15	21	31640.63	3415.539	-422.4946	1	3441.57	-7.051541	3.753003E-007	0.0020189	7
	16	22	25171.88	3455.615	-451.1411	1	3484.939	-7.438073	-6.113263E-007	0.0030645	7
	17	24	20015.62	3500.113	-489.5546	1	3534.183	-7.962206	-1.014039E-006	0.0019959	7
	18	25	15890.62	3553.854	-538.7427	1	3594.458	-8.620059	1.056435E-006	8.418469E-005	7
	19	27	12609.37	3607.104	-600.2261	1	3656.702	-9.447518	8.00949E-007	0.0012992	7
	20	28	10078.13	3661.957	-664.1525	1	3721.697	-10.27974	7.621234E-007	-0.0002235	7
	21	29	8015.625	3717.387	-746.7885	1	3791.656	-11.359	-1.198559E-006	0.0029123	7
	22	31	6328.125	3790.543	-852.2112	1	3885.162	-12.67087	1.069798E-006	0.0004015	7
	23	32	5015.625	3860.551	-975.642	1	3981.925	-14.18288	8.013913E-007	0.0012929	7
	24	33	3984.375	3936.894	-1125.26	1	4094.55	-15.95122	9.549715E-007	-0.0001381	7
	25	35	3170.956	4007.798	-1305.06	1	4214.929	-18.03681	-1.183911E-006	0.0025358	7
	26	36	2527.573	4096.25	-1525.074	1	4370.939	-20.4208	8.002551E-007	0.0012971	7
	27	37	1976.103	4198.834	-1823.721	1	4577.79	-23.47722	1.068032E-006	0.0004062	7
	28	39	1577.524	4302.946	-2157.943	1	4813.737	-26.63393	7.986299E-007	0.0012955	7
	29	40	1265.625	4415.27	-2558.478	1	5102.981	-30.09063	7.991393E-007	0.001297	7
	30	41	998.264	4556.21	-3083.524	1	5501.561	-34.08912	9.793619E-007	0.0008273	7
	31	43	796.875	4710.09	-3688.275	1	5982.334	-38.06301	-1.179647E-006	0.0025362	7
	32	44	627.7902	4903.833	-4483.096	1	6644.225	-42.43363	-1.068391E-006	0.0030668	7
	33	46	505.5147	5100.866	-5365.718	1	7403.362	-46.44954	-1.181072E-006	0.0025363	7
	34	47	397.9953	5355.217	-6566.603	1	8473.406	-50.80196	9.623238E-010	0.0015302	7
	35	48	315.5048	5648.229	-8001.31	1	9794.05	-54.78123	4.712597E-009	0.0015178	7
	36	50	252.4038	5986.905	-9695.5	1	11394.99	-58.30497	5.487855E-010	0.0014662	6
	37	51	198.6229	6418.051	-11943.54	1	13558.75	-61.74794	7.613522E-010	0.0014617	6
	38	52	158.3615	6924.13	-14565.69	1	16127.71	-64.57487	8.265726E-010	0.0014608	6
	39	54	125.558	7566.296	-17884.72	1	19419.37	-67.06876	3.68044E-010	0.0014675	6
	40	55	100.4464	8337.312	-21803.09	1	23342.78	-69.07358	1.054478E-009	0.0014667	6
	41	57	79.00281	9424.646	-27021.4	1	28617.82	-70.77202	2.516741E-010	0.0014611	6
	42	58	63.3446	10987.87	-32980.59	1	34762.8	-71.5739	-3.702832E-010	0.001456	6
	43	59	49.86702	12366.79	-40592.33	1	42434.36	-73.0562	1.339312E-009	0.0014509	6
	44	61	39.72458	14858.62	-49416.64	1	51602.16	-73.26499	3.079292E-010	0.0014667	6
	45	62	31.6723	17895.34	-60402.35	1	62997.52	-73.49708	1.398023E-009	0.0014627	6
	46	63	24.93351	22124.66	-73934.81	1	77174.2	-73.34042	1.647653E-010	0.0014664	6
	47	65	19.86229	27307.06	-89610.53	1	93678.83	-73.05242	2.186402E-010	0.0014564	6
	48	66	15.83615	34882.42	-108720.5	1	114179.4	-72.21143	-8.304397E-010	0.0014617	5
	49	68	12.40079	43816.68	-131961.7	1	139046	-71.63172	5.060261E-010	0.001464	5
	50	69	9.93114	55034.32	-157617.3	1	166949	-70.75262	-1.83689E-010	0.0014692	5
	51	71	7.944915	69958.36	-187932.1	1	200530.9	-69.58205	2.763608E-010	0.0014549	5
	52	72	6.317385	88628.6	-223164.4	1	240119.5	-68.33974	6.024665E-010	0.0014626	5
	53	74	5.008013	113007.1	-264383.4	1	287522.5	-66.85637	2.239925E-010	0.0014718	5
	54	77	3.945707	144209.6	-312227.8	1	343922.3	-65.20905	-6.587699E-011	0.0014617	5
	55	79	3.158693	180013.9	-361333.7	1	403691.8	-63.51783	7.313927E-011	0.0014522	5
	56	83	2.504006	223700	-417860.3	1	473971.4	-61.83778	9.410723E-011	0.0014671	5
	57	85	1.998082	272438.5	-476974.4	1	549297.1	-60.26583	4.030431E-010	0.0014388	5
	58	89	1.584686	331283.7	-545364.4	1	638099.8	-58.72326	1.727023E-011	0.0014154	5
	59	92	1.266892	392125.8	-615154.1	1	729504.8	-57.48481	2.914484E-010	0.0014356	5
	60	97	0.999041	464546	-700749	1	840745	-56.4585	-1.607875E-010	0.0014743	5
