EXPLAIN
TAG	EISPOT
TITLE	LABEL	Potentiostatic EIS	Test &Identifier
DATE	LABEL	11/11/2019	Date
TIME	LABEL	14:57:59	Time
NOTES	NOTES	3	&Notes...
	
	
	
PSTAT	PSTAT	REF600-11020	Potentiostat
VDC	POTEN	0.00000E+000	T	DC &Voltage (V)
FREQINIT	QUANT	1.00000E+006	Initial Fre&q. (Hz)
FREQFINAL	QUANT	1.00000E+000	Final Fre&q. (Hz)
PTSPERDEC	QUANT	1.00000E+001	Points/&decade
VAC	QUANT	2.50000E+001	AC &Voltage (mV rms)
AREA	QUANT	1.00000E-002	&Area (cm^2)
CONDIT	TWOPARAM	T	5.00000E+000	0.00000E+000	Conditionin&g	Time(s)	E(V)
DELAY	TWOPARAM	T	5.00000E+000	0.00000E+000	Init. De&lay	Time(s)	Stab.(mV/s)
SPEED	SELECTOR	1	&Optimize for:
ZGUESS	QUANT	1.00000E+005	E&stimated Z (ohms)
OCVCURVE	TABLE	19
	Pt	T	Vf	Vm	Ach	Over
	#	s	V vs. Ref.	V	V	bits
	0	0.258333	1.50350E-005	1.50350E-005	5.43033E-004	...........
	1	0.516667	4.66860E-006	-5.27607E-004	5.47199E-004	...........
	2	0.775	-5.87408E-005	-1.02905E-003	5.42566E-004	...........
	3	1.03333	-2.37014E-004	-1.49532E-003	5.45533E-004	...........
	4	1.29167	-5.52926E-004	-1.93188E-003	5.43333E-004	...........
	5	1.55	-9.67427E-004	-2.33858E-003	5.43999E-004	...........
	6	1.80833	-1.41922E-003	-2.72591E-003	5.38399E-004	...........
	7	2.06667	-1.86468E-003	-3.09136E-003	5.42766E-004	...........
	8	2.325	-2.28550E-003	-3.43416E-003	5.47499E-004	...........
	9	2.58333	-2.67897E-003	-3.76313E-003	5.44366E-004	...........
	10	2.84167	-3.04799E-003	-4.07749E-003	5.43099E-004	...........
	11	3.1	-3.39640E-003	-4.37854E-003	5.52432E-004	...........
	12	3.35833	-3.72757E-003	-4.67182E-003	5.53299E-004	...........
	13	3.61667	-4.04429E-003	-4.95858E-003	5.50933E-004	...........
	14	3.875	-4.34912E-003	-5.23877E-003	5.41233E-004	...........
	15	4.13333	-4.64419E-003	-5.50260E-003	5.48833E-004	...........
	16	4.39167	-4.93040E-003	-5.75720E-003	5.44133E-004	...........
	17	4.65	-5.20735E-003	-6.00879E-003	5.46166E-004	...........
	18	4.90833	-5.47470E-003	-6.24844E-003	5.44499E-004	...........
EOC	QUANT	-0.0054747	Open Circuit (V)
PSTATMODEL	IQUANT	4	Pstat Model
PSTATSECTION	LABEL	REF600-11020	Pstat Section
PSTATSERIALNO	LABEL	11020	Pstat Serial Number
CTRLMODE	IQUANT	1	Control Mode
IESTAB	IQUANT	0	I/E Stability
CASPEED	IQUANT	1	Control Amp Speed
CONVENTION	IQUANT	1	Current Convention
ICHRANGE	IQUANT	2	Ich Range
ICHRANGEMODE	TOGGLE	F	Ich Auto Range
ICHOFFSETENABLE	TOGGLE	T	Ich Offset Enable
ICHOFFSET	QUANT	0	Ich Offset (V)
ICHFILTER	IQUANT	3	Ich Filter
VCHRANGE	IQUANT	2	Vch Range
VCHRANGEMODE	TOGGLE	F	Vch Auto Range
VCHOFFSETENABLE	TOGGLE	T	Vch Offset Enable
VCHOFFSET	QUANT	0	Vch Offset (V)
VCHFILTER	IQUANT	3	Vch Filter
ACHRANGE	IQUANT	2	Ach Range
ACHOFFSETENABLE	TOGGLE	F	Ach Offset Enable
ACHOFFSET	QUANT	0	Ach Offset (V)
ACHFILTER	IQUANT	3	Ach Filter
IERANGELOWERLIMIT	IQUANT	1	I/E Range Lower Limit
IERANGEMODE	TOGGLE	F	I/E AutoRange
IERANGE	IQUANT	5	I/E Range
POSFEEDENABLE	TOGGLE	F	Positive Feedback IR Comp
POSFEEDRESISTANCE	QUANT	0	Positive Feedback Resistance (ohm)
ACHSELECT	IQUANT	0	Ach Select
CABLEID	IQUANT	14	Cable ID
DCCALDATE	LABEL	8/19/2019	DC Calibration Date
ACCALDATE	LABEL	8/19/2019	AC Calibration Date
THERMOSELECT	IQUANT	1	Thermo Select
FRAMEWORKVERSION	QUANT	6.33	Framework Version
INSTRUMENTVERSION	LABEL	3.50	Instrument Version
ZCURVE	TABLE
	Pt	Time	Freq	Zreal	Zimag	Zsig	Zmod	Zphz	Idc	Vdc	IERange
	#	s	Hz	ohm	ohm	V	ohm	°	A	V	#
	0	2	1000078	1856.605	-979.202	1	2099.004	-27.80785	4.171078E-006	-0.0029211	8
	1	3	794390.6	2030.396	-959.835	1	2245.839	-25.30165	5.992264E-007	-0.0033049	8
	2	4	630984.4	2193.101	-927.6113	1	2381.209	-22.9268	3.914081E-006	-0.0038502	8
	3	6	501234.4	2342.196	-882.0764	1	2502.787	-20.63649	1.964485E-007	-0.0035339	8
	4	7	398109.4	2472.591	-833.8173	1	2609.398	-18.63535	-3.280566E-006	-0.0034218	8
	5	8	316265.6	2591.734	-781.8854	1	2707.107	-16.78774	-4.850861E-007	-0.0036027	8
	6	10	251203.1	2694.268	-731.4249	1	2791.785	-15.18828	1.603526E-006	-0.003731	8
	7	11	199546.9	2787.631	-691.9716	1	2872.231	-13.94072	-2.35105E-007	-0.0042172	8
	8	13	158578.1	2874.321	-661.5196	1	2949.463	-12.96082	5.793885E-006	-0.0046264	8
	9	14	125953.1	2964.736	-583.7132	1	3021.652	-11.13824	-1.483076E-006	-0.004178	7
	10	15	100078.1	3033.658	-578.7866	1	3088.378	-10.80155	3.411738E-007	-0.0036453	7
	11	17	79453.13	3095.678	-580.4167	1	3149.62	-10.61924	-9.732365E-007	-0.0028354	7
	12	18	63140.62	3172.301	-595.0374	1	3227.625	-10.62368	8.537702E-007	-0.00521	7
	13	19	50203.12	3242.457	-614.0162	1	3300.082	-10.72299	7.580696E-007	-0.0053735	7
	14	21	39890.62	3316.15	-641.1949	1	3377.57	-10.9434	5.129285E-007	-0.0039192	7
	15	22	31640.63	3386.817	-670.2059	1	3452.493	-11.19345	-9.565733E-007	-0.0028644	7
	16	23	25171.88	3471.104	-710.6741	1	3543.109	-11.57083	-5.923159E-007	-0.0041076	7
	17	25	20015.62	3568.012	-756.0276	1	3647.23	-11.96348	5.812644E-007	-0.0053899	7
	18	26	15890.62	3655.366	-811.9486	1	3744.457	-12.52351	-9.556545E-007	-0.0028674	7
	19	27	12609.37	3770.399	-877.2947	1	3871.118	-13.09849	8.372054E-007	-0.0051873	7
	20	29	10078.13	3865.814	-939.6925	1	3978.384	-13.66234	-6.798763E-007	-0.0027191	7
	21	30	8015.625	3980.63	-1017.633	1	4108.648	-14.34031	-4.598463E-007	-0.0027975	7
	22	31	6328.125	4104.057	-1109.243	1	4251.318	-15.12451	-4.596822E-007	-0.0027978	7
	23	33	5015.625	4226.488	-1213.214	1	4397.168	-16.01614	-6.802966E-007	-0.0027151	7
	24	34	3984.375	4351.637	-1341.358	1	4553.678	-17.13151	5.804017E-007	-0.0053911	7
	25	35	3170.956	4491.142	-1487.165	1	4730.963	-18.32141	5.047242E-007	-0.0039217	7
	26	37	2527.573	4625.763	-1665.764	1	4916.549	-19.80424	7.438053E-007	-0.0053517	7
	27	38	1976.103	4761.998	-1892.113	1	5124.13	-21.6697	-8.296982E-007	-0.0035916	7
	28	39	1577.524	4903.462	-2158.725	1	5357.615	-23.76126	-9.544887E-007	-0.0028708	7
	29	41	1265.625	5064.135	-2484.433	1	5640.733	-26.13228	3.378109E-007	-0.0036702	7
	30	42	998.264	5224.388	-2893.059	1	5971.936	-28.97594	-5.872319E-007	-0.0041252	7
	31	43	796.875	5402.616	-3389.428	1	6377.812	-32.10284	-2.711109E-007	-0.0046633	7
	32	45	627.7902	5598.536	-4043.564	1	6906.086	-35.83884	5.781178E-008	-0.0050653	7
	33	46	505.5147	5807.051	-4783.169	1	7523.333	-39.4777	3.452114E-007	-0.0053102	7
	34	48	397.9953	6065.489	-5777.153	1	8376.494	-43.60528	6.553467E-009	-0.0040151	7
	35	49	315.5048	6366.152	-6982.658	1	9449.096	-47.64429	4.753078E-009	-0.0040112	7
	36	50	252.4038	6723.335	-8407.152	1	10764.92	-51.35011	9.09365E-010	-0.0040764	6
	37	52	198.6229	7194.527	-10286.73	1	12553.01	-55.03109	8.330205E-010	-0.0040773	6
	38	53	158.3615	7758.595	-12462.64	1	14680.36	-58.09573	5.184904E-010	-0.0040724	6
	39	54	125.558	8493.592	-15176.36	1	17391.46	-60.76603	7.215781E-010	-0.0040735	6
	40	56	100.4464	9392.241	-18319.32	1	20586.69	-62.85598	3.590859E-010	-0.0040752	6
	41	57	79.00281	10617.17	-22451.51	1	24835.35	-64.69085	1.023408E-009	-0.0040848	6
	42	58	63.3446	12200.44	-27000.98	1	29629.44	-65.68409	5.554621E-010	-0.0040772	6
	43	60	49.86702	13941.24	-32924.68	1	35754.62	-67.05083	-1.057937E-010	-0.0040798	6
	44	61	39.72458	16379.88	-39510.54	1	42771.29	-67.48257	6.528965E-010	-0.0040738	6
	45	63	31.6723	19336.74	-47507.47	1	51292	-67.85243	1.161164E-009	-0.0040744	6
	46	64	24.93351	23190.46	-57344.21	1	61855.93	-67.9812	6.376593E-010	-0.004084	6
	47	65	19.86229	27793.06	-68473.86	1	73899.41	-67.90811	7.967196E-010	-0.0040805	6
	48	67	15.83615	33279.75	-81486.95	1	88020.82	-67.78461	6.928027E-010	-0.0040788	6
	49	68	12.40079	40974.29	-97827.9	1	106062.2	-67.27408	1.410753E-009	-0.0040764	5
	50	69	9.93114	48931.89	-116053	1	125946.9	-67.13805	6.042069E-010	-0.0040838	5
	51	71	7.944915	58792.61	-136709.6	1	148815.6	-66.72964	-2.060696E-010	-0.0040767	5
	52	73	6.317385	71169.41	-161722.2	1	176689.4	-66.24705	5.206708E-011	-0.0040748	5
	53	75	5.008013	85998.27	-191441.2	1	209870	-65.80966	2.412882E-011	-0.0040764	5
	54	77	3.945707	104475.7	-226659.2	1	249578.8	-65.25325	4.775687E-010	-0.0040557	5
	55	80	3.158693	124963.4	-265813.8	1	293722.4	-64.82102	2.853353E-011	-0.0040797	5
	56	83	2.504006	150668	-312465.8	1	346894.4	-64.25708	5.485415E-010	-0.0040733	5
	57	86	1.998082	180139.6	-364624.7	1	406695.7	-63.70873	1.002925E-010	-0.0040299	5
	58	89	1.584686	214770.2	-427201	1	478149.5	-63.30958	2.779633E-010	-0.0040351	5
	59	93	1.266892	255294.5	-495650.5	1	557534.4	-62.74838	4.88859E-011	-0.0040344	5
	60	97	0.999041	302939.6	-580117.6	1	654453.1	-62.42626	2.873743E-010	-0.0040903	5
