EXPLAIN
TAG	EISPOT
TITLE	LABEL	Potentiostatic EIS	Test &Identifier
DATE	LABEL	11/11/2019	Date
TIME	LABEL	12:39:23	Time
NOTES	NOTES	3	&Notes...
	
	
	
PSTAT	PSTAT	REF600-11020	Potentiostat
VDC	POTEN	0.00000E+000	T	DC &Voltage (V)
FREQINIT	QUANT	1.00000E+006	Initial Fre&q. (Hz)
FREQFINAL	QUANT	1.00000E+000	Final Fre&q. (Hz)
PTSPERDEC	QUANT	1.00000E+001	Points/&decade
VAC	QUANT	2.50000E+001	AC &Voltage (mV rms)
AREA	QUANT	1.00000E-002	&Area (cm^2)
CONDIT	TWOPARAM	T	5.00000E+000	0.00000E+000	Conditionin&g	Time(s)	E(V)
DELAY	TWOPARAM	T	5.00000E+000	0.00000E+000	Init. De&lay	Time(s)	Stab.(mV/s)
SPEED	SELECTOR	1	&Optimize for:
ZGUESS	QUANT	1.00000E+005	E&stimated Z (ohms)
OCVCURVE	TABLE	19
	Pt	T	Vf	Vm	Ach	Over
	#	s	V vs. Ref.	V	V	bits
	0	0.258333	4.29804E-003	4.29804E-003	5.33366E-004	...........
	1	0.516667	4.29518E-003	4.14839E-003	5.35799E-004	...........
	2	0.775	4.27801E-003	4.02691E-003	5.29233E-004	...........
	3	1.03333	4.23172E-003	3.96143E-003	5.35533E-004	...........
	4	1.29167	4.15482E-003	3.85449E-003	5.37466E-004	...........
	5	1.55	4.06101E-003	3.77277E-003	5.35866E-004	...........
	6	1.80833	3.96428E-003	3.69666E-003	5.29233E-004	...........
	7	2.06667	3.87183E-003	3.63517E-003	5.30333E-004	...........
	8	2.325	3.78712E-003	3.58121E-003	5.34633E-004	...........
	9	2.58333	3.71192E-003	3.53145E-003	5.32366E-004	...........
	10	2.84167	3.64641E-003	3.49012E-003	5.27833E-004	...........
	11	3.1	3.58952E-003	3.45053E-003	5.29866E-004	...........
	12	3.35833	3.53966E-003	3.40984E-003	5.31133E-004	...........
	13	3.61667	3.49498E-003	3.37484E-003	5.24733E-004	...........
	14	3.875	3.45394E-003	3.34635E-003	5.34333E-004	...........
	15	4.13333	3.41590E-003	3.31214E-003	5.32433E-004	...........
	16	4.39167	3.38062E-003	3.28145E-003	5.35233E-004	...........
	17	4.65	3.34750E-003	3.25593E-003	5.35366E-004	...........
	18	4.90833	3.31611E-003	3.23028E-003	5.30766E-004	...........
EOC	QUANT	0.0033161	Open Circuit (V)
PSTATMODEL	IQUANT	4	Pstat Model
PSTATSECTION	LABEL	REF600-11020	Pstat Section
PSTATSERIALNO	LABEL	11020	Pstat Serial Number
CTRLMODE	IQUANT	1	Control Mode
IESTAB	IQUANT	0	I/E Stability
CASPEED	IQUANT	1	Control Amp Speed
CONVENTION	IQUANT	1	Current Convention
ICHRANGE	IQUANT	2	Ich Range
ICHRANGEMODE	TOGGLE	F	Ich Auto Range
ICHOFFSETENABLE	TOGGLE	T	Ich Offset Enable
ICHOFFSET	QUANT	0	Ich Offset (V)
ICHFILTER	IQUANT	3	Ich Filter
VCHRANGE	IQUANT	2	Vch Range
VCHRANGEMODE	TOGGLE	F	Vch Auto Range
VCHOFFSETENABLE	TOGGLE	T	Vch Offset Enable
VCHOFFSET	QUANT	0	Vch Offset (V)
VCHFILTER	IQUANT	3	Vch Filter
ACHRANGE	IQUANT	2	Ach Range
ACHOFFSETENABLE	TOGGLE	F	Ach Offset Enable
ACHOFFSET	QUANT	0	Ach Offset (V)
ACHFILTER	IQUANT	3	Ach Filter
IERANGELOWERLIMIT	IQUANT	1	I/E Range Lower Limit
IERANGEMODE	TOGGLE	F	I/E AutoRange
IERANGE	IQUANT	4	I/E Range
POSFEEDENABLE	TOGGLE	F	Positive Feedback IR Comp
POSFEEDRESISTANCE	QUANT	0	Positive Feedback Resistance (ohm)
ACHSELECT	IQUANT	0	Ach Select
CABLEID	IQUANT	14	Cable ID
DCCALDATE	LABEL	8/19/2019	DC Calibration Date
ACCALDATE	LABEL	8/19/2019	AC Calibration Date
THERMOSELECT	IQUANT	1	Thermo Select
FRAMEWORKVERSION	QUANT	6.33	Framework Version
INSTRUMENTVERSION	LABEL	3.50	Instrument Version
ZCURVE	TABLE
	Pt	Time	Freq	Zreal	Zimag	Zsig	Zmod	Zphz	Idc	Vdc	IERange
	#	s	Hz	ohm	ohm	V	ohm	°	A	V	#
	0	2	1000078	2587.987	-1355.817	1	2921.629	-27.64954	2.531185E-006	0.0060384	8
	1	3	794390.6	2822.339	-1248.056	1	3085.975	-23.85532	-1.819231E-006	0.0057049	8
	2	4	630984.4	3018.976	-1131.133	1	3223.923	-20.53969	2.401478E-006	0.0053452	8
	3	6	501234.4	3176.84	-1009.673	1	3333.43	-17.63146	1.575087E-006	0.0044932	8
	4	7	398109.4	3310.39	-892.9589	1	3428.711	-15.09592	-5.76118E-006	0.0056906	8
	5	8	316265.6	3415.58	-769.8033	1	3501.254	-12.7011	2.072943E-006	0.0044365	8
	6	10	251203.1	3510.283	-685.7984	1	3576.647	-11.05454	5.24664E-006	0.0041734	8
	7	11	199546.9	3580.271	-603.634	1	3630.801	-9.57007	3.427716E-006	0.0047786	8
	8	12	158578.1	3633.634	-536.8069	1	3673.072	-8.40368	-2.518796E-007	0.0045669	8
	9	14	125953.1	3703.409	-428.6053	1	3728.128	-6.601621	-2.013645E-006	0.0054343	7
	10	15	100078.1	3732.342	-389.7113	1	3752.632	-5.960921	-5.603959E-007	0.0062235	7
	11	16	79453.13	3764.313	-374.8723	1	3782.932	-5.687099	-9.306464E-007	0.0052357	7
	12	18	63140.62	3798.343	-370.0481	1	3816.326	-5.5644	9.061774E-007	0.004143	7
	13	19	50203.12	3831.226	-369.9666	1	3849.048	-5.515728	-5.598318E-007	0.0062074	7
	14	21	39890.62	3864.69	-379.6812	1	3883.296	-5.610941	-1.096152E-006	0.0060744	7
	15	22	31640.63	3900.157	-399.1344	1	3920.528	-5.843195	4.426267E-007	0.0032829	7
	16	23	25171.88	3936.813	-424.8879	1	3959.675	-6.15991	-2.630866E-007	0.0059949	7
	17	25	20015.62	3977.286	-458.2945	1	4003.603	-6.573087	-2.645993E-007	0.0039973	7
	18	26	15890.62	4022.535	-504.3679	1	4054.031	-7.146768	-8.039588E-007	0.0062757	7
	19	27	12609.37	4071.485	-562.9	1	4110.212	-7.871483	3.497609E-007	0.0052427	7
	20	29	10078.13	4123.817	-626.4719	1	4171.131	-8.638073	-8.033525E-007	0.0062773	7
	21	30	8015.625	4172.416	-715.704	1	4233.354	-9.73335	-9.340125E-007	0.0052268	7
	22	32	6328.125	4242.392	-809.3059	1	4318.896	-10.80034	1.146211E-007	0.0035369	7
	23	33	5015.625	4309.277	-927.4526	1	4407.951	-12.14606	-5.578893E-007	0.0062029	7
	24	34	3984.375	4374.875	-1078.293	1	4505.801	-13.84595	9.104405E-007	0.0041292	7
	25	36	3170.956	4455.41	-1246.051	1	4626.372	-15.62479	1.145523E-007	0.0035312	7
	26	37	2527.573	4538.604	-1455.297	1	4766.216	-17.77837	7.47587E-007	0.0045704	7
	27	38	1976.103	4633.81	-1737.565	1	4948.871	-20.55482	9.097701E-007	0.0041266	7
	28	40	1577.524	4752.885	-2036.4	1	5170.768	-23.19298	-1.089437E-006	0.0057293	7
	29	41	1265.625	4837.907	-2428.848	1	5413.376	-26.65872	9.101514E-007	0.0041254	7
	30	42	998.264	4964.931	-2928.029	1	5764.017	-30.52964	-9.798653E-007	0.0062108	7
	31	44	796.875	5101.043	-3516.45	1	6195.649	-34.58079	-5.576924E-007	0.0061903	7
	32	45	627.7902	5273.519	-4285.453	1	6795.227	-39.09856	-9.809678E-007	0.0062085	7
	33	47	505.5147	5454.253	-5146.045	1	7498.71	-43.33457	-9.360212E-007	0.0052197	7
	34	48	397.9953	5695.955	-6321.416	1	8509.065	-47.97935	7.007934E-009	0.0047881	7
	35	49	315.5048	5989.456	-7733.451	1	9781.61	-52.24269	6.505975E-009	0.0047826	7
	36	51	252.4038	6347.526	-9398.815	1	11341.46	-55.96672	4.560402E-011	0.0047259	6
	37	52	198.6229	6835.825	-11601.37	1	13465.52	-59.49232	5.173776E-010	0.0047321	6
	38	54	158.3615	7435.806	-14161.89	1	15995.32	-62.29795	1.219468E-009	0.0047158	6
	39	55	125.558	8246.798	-17358.33	1	19217.73	-64.588	7.94662E-010	0.0047254	6
	40	56	100.4464	9262.83	-21075.37	1	23021.1	-66.27404	5.193692E-010	0.0047253	6
	41	58	79.00281	10782.44	-25976.21	1	28125.15	-67.45719	1.33697E-009	0.0047239	6
	42	59	63.3446	12375.01	-31522.52	1	33864.59	-68.56618	1.28524E-009	0.0047163	6
	43	60	49.86702	15181.91	-38140.12	1	41050.69	-68.29467	1.222501E-009	0.0047194	6
	44	62	39.72458	18456.04	-46115.23	1	49671.32	-68.18793	-3.628595E-010	0.0047233	6
	45	63	31.6723	22724.2	-55322.31	1	59807.59	-67.6691	5.659995E-010	0.0047318	6
	46	65	24.93351	28479.71	-66352.22	1	72206.03	-66.77001	5.156545E-010	0.0047195	6
	47	66	19.86229	35477.17	-78390.73	1	86044.97	-65.64999	3.304521E-010	0.0047305	6
	48	67	15.83615	43482.52	-91678.89	1	101468	-64.62541	1.517636E-009	0.0047177	6
	49	69	12.40079	56063.09	-108510.1	1	122137.2	-62.6763	-1.057206E-009	0.0047272	5
	50	70	9.93114	67910.27	-124534.1	1	141847	-61.39573	7.761133E-010	0.0047275	5
	51	72	7.944915	82133.89	-141931.9	1	163983.6	-59.94267	-7.532777E-010	0.0047212	5
	52	73	6.317385	99073.6	-162178.6	1	190046	-58.57957	1.649549E-010	0.0047034	5
	53	76	5.008013	118065	-184508.5	1	219049.6	-57.38525	8.356803E-012	0.0047208	5
	54	78	3.945707	138975.6	-210136.3	1	251935.5	-56.52097	-8.913814E-011	0.0047225	5
	55	81	3.158693	159998.3	-237164	1	286087.8	-55.99516	1.762827E-010	0.0047278	5
	56	84	2.504006	183125.2	-270156.2	1	326372.8	-55.86864	-2.091169E-010	0.0047293	5
	57	87	1.998082	206687.8	-307965.5	1	370894.3	-56.13288	1.05664E-010	0.0046854	5
	58	90	1.584686	232374.5	-355762.6	1	424929.3	-56.84852	-2.540905E-011	0.0047046	5
	59	94	1.266892	261243.3	-410913.6	1	486927.1	-57.55335	1.454721E-010	0.0046746	5
	60	98	0.999041	295064.1	-482494.1	1	565564.6	-58.55257	6.164914E-011	0.0047606	5
