EXPLAIN
TAG	EISPOT
TITLE	LABEL	Potentiostatic EIS	Test &Identifier
DATE	LABEL	6/20/2000	Date
TIME	LABEL	8:59:54	Time
NOTES	NOTES	2	&Notes...
	
	
PSTAT	PSTAT	REF600-11020	Potentiostat
VDC	POTEN	0.00000E+000	T	DC &Voltage (V)
FREQINIT	QUANT	1.00000E+006	Initial Fre&q. (Hz)
FREQFINAL	QUANT	1.00000E+000	Final Fre&q. (Hz)
PTSPERDEC	QUANT	1.00000E+001	Points/&decade
VAC	QUANT	2.50000E+001	AC &Voltage (mV rms)
AREA	QUANT	1.00000E-002	&Area (cm^2)
CONDIT	TWOPARAM	T	5.00000E+000	0.00000E+000	Conditionin&g	Time(s)	E(V)
DELAY	TWOPARAM	T	5.00000E+000	0.00000E+000	Init. De&lay	Time(s)	Stab.(mV/s)
SPEED	SELECTOR	0	&Optimize for:
ZGUESS	QUANT	1.00000E+005	E&stimated Z (ohms)
OCVCURVE	TABLE	19
	Pt	T	Vf	Vm	Ach	Over
	#	s	V vs. Ref.	V	V	bits
	0	0.258333	3.48956E-003	3.48956E-003	5.55733E-004	...........
	1	0.516667	3.48767E-003	3.39014E-003	5.54933E-004	...........
	2	0.775	3.47620E-003	3.30606E-003	5.52832E-004	...........
	3	1.03333	3.44457E-003	3.23455E-003	5.54833E-004	...........
	4	1.29167	3.39010E-003	3.17074E-003	5.58032E-004	...........
	5	1.55	3.32131E-003	3.11282E-003	5.54166E-004	...........
	6	1.80833	3.24986E-003	3.06837E-003	5.58599E-004	...........
	7	2.06667	3.18354E-003	3.02482E-003	5.54066E-004	...........
	8	2.325	3.12525E-003	2.98236E-003	5.59032E-004	...........
	9	2.58333	3.07449E-003	2.94510E-003	5.59732E-004	...........
	10	2.84167	3.02927E-003	2.90933E-003	5.58966E-004	...........
	11	3.1	2.98803E-003	2.88146E-003	5.62799E-004	...........
	12	3.35833	2.95012E-003	2.84589E-003	5.59832E-004	...........
	13	3.61667	2.91519E-003	2.82415E-003	5.60766E-004	...........
	14	3.875	2.88291E-003	2.79685E-003	5.61899E-004	...........
	15	4.13333	2.85319E-003	2.77492E-003	5.66299E-004	...........
	16	4.39167	2.82595E-003	2.75512E-003	5.59932E-004	...........
	17	4.65	2.80098E-003	2.73254E-003	5.59932E-004	...........
	18	4.90833	2.77788E-003	2.71316E-003	5.64832E-004	...........
EOC	QUANT	0.0027779	Open Circuit (V)
PSTATMODEL	IQUANT	4	Pstat Model
PSTATSECTION	LABEL	REF600-11020	Pstat Section
PSTATSERIALNO	LABEL	11020	Pstat Serial Number
CTRLMODE	IQUANT	1	Control Mode
IESTAB	IQUANT	0	I/E Stability
CASPEED	IQUANT	1	Control Amp Speed
CONVENTION	IQUANT	1	Current Convention
ICHRANGE	IQUANT	2	Ich Range
ICHRANGEMODE	TOGGLE	F	Ich Auto Range
ICHOFFSETENABLE	TOGGLE	T	Ich Offset Enable
ICHOFFSET	QUANT	0	Ich Offset (V)
ICHFILTER	IQUANT	3	Ich Filter
VCHRANGE	IQUANT	2	Vch Range
VCHRANGEMODE	TOGGLE	F	Vch Auto Range
VCHOFFSETENABLE	TOGGLE	T	Vch Offset Enable
VCHOFFSET	QUANT	0	Vch Offset (V)
VCHFILTER	IQUANT	3	Vch Filter
ACHRANGE	IQUANT	2	Ach Range
ACHOFFSETENABLE	TOGGLE	F	Ach Offset Enable
ACHOFFSET	QUANT	0	Ach Offset (V)
ACHFILTER	IQUANT	3	Ach Filter
IERANGELOWERLIMIT	IQUANT	1	I/E Range Lower Limit
IERANGEMODE	TOGGLE	F	I/E AutoRange
IERANGE	IQUANT	4	I/E Range
POSFEEDENABLE	TOGGLE	F	Positive Feedback IR Comp
POSFEEDRESISTANCE	QUANT	0	Positive Feedback Resistance (ohm)
ACHSELECT	IQUANT	0	Ach Select
CABLEID	IQUANT	14	Cable ID
DCCALDATE	LABEL	8/19/2019	DC Calibration Date
ACCALDATE	LABEL	8/19/2019	AC Calibration Date
THERMOSELECT	IQUANT	1	Thermo Select
FRAMEWORKVERSION	QUANT	6.33	Framework Version
INSTRUMENTVERSION	LABEL	3.50	Instrument Version
ZCURVE	TABLE
	Pt	Time	Freq	Zreal	Zimag	Zsig	Zmod	Zphz	Idc	Vdc	IERange
	#	s	Hz	ohm	ohm	V	ohm	°	A	V	#
	0	1	1000078	1236.379	-2015.945	1	2364.882	-58.47922	3.619381E-006	0.005644	8
	1	1	794390.6	1406.669	-2414.312	1	2794.211	-59.77331	-1.69945E-006	0.0042748	8
	2	2	630984.4	1626.762	-2838.429	1	3271.549	-60.18209	3.451438E-006	0.0038191	8
	3	2	501234.4	1947.96	-3385.585	1	3905.987	-60.08522	6.689369E-006	0.0030974	8
	4	2	398109.4	2305.426	-3986.027	1	4604.715	-59.9559	-9.464584E-007	0.0040694	8
	5	3	316265.6	2764.47	-4634.521	1	5396.395	-59.18412	-5.059493E-006	0.0047568	8
	6	3	251203.1	3319.639	-5376.136	1	6318.453	-58.30564	1.699789E-007	0.0040026	8
	7	3	199546.9	3978.327	-6200.474	1	7367.019	-57.31509	-1.658915E-006	0.004096	8
	8	4	158578.1	4799.878	-6988.72	1	8478.269	-55.51858	-4.80667E-006	0.0047286	8
	9	4	125953.1	5823.18	-7915.736	1	9826.92	-53.66009	3.064779E-006	0.0036136	7
	10	5	100078.1	6780.26	-8960.119	1	11236.35	-52.88465	1.379117E-006	0.0032465	7
	11	5	79453.13	7845.084	-10199.27	1	12867.42	-52.4332	9.574532E-007	0.0019522	7
	12	6	63140.62	9069.495	-11540.86	1	14678.12	-51.83763	-5.194641E-007	0.0033274	7
	13	6	50203.12	10436.94	-13148.66	1	16787.4	-51.5587	3.36091E-008	0.0026078	7
	14	6	39890.62	12116.89	-14761.87	1	19097.96	-50.62004	-7.537768E-007	0.0063684	7
	15	7	31640.63	14220.13	-16843.07	1	22043.17	-49.82654	-1.130679E-006	0.0065075	7
	16	7	25171.88	16784.74	-19303.9	1	25580.62	-48.99305	1.430485E-006	0.0022581	7
	17	7	20015.62	20038.79	-21660.2	1	29507.92	-47.22675	5.39753E-007	0.0021444	7
	18	8	15890.62	23858.13	-23302.11	1	33349.64	-44.32452	-7.548138E-007	0.0063664	7
	19	8	12609.37	28777.18	-25027.83	1	38138.14	-41.01385	6.679598E-010	0.0066376	6
	20	8	10078.13	33555.92	-26227.1	1	42589.44	-38.01097	9.610697E-008	0.0009452	6
	21	8	8015.625	38683.83	-26564.99	1	46926.94	-34.47819	-7.871418E-008	0.0074236	6
	22	9	6328.125	44156.78	-26459.77	1	51477.57	-30.93102	2.000999E-007	0.0007749	6
	23	9	5015.625	48793.67	-25217.75	1	54925.01	-27.33101	-1.871255E-007	0.004653	6
	24	9	3984.375	53236.79	-23744.35	1	58291.93	-24.03754	-4.818876E-010	0.0066339	6
	25	10	3170.956	57131.96	-22141.49	1	61272.4	-21.18384	2.000494E-007	0.0007723	6
	26	10	2527.573	60164.26	-20272.1	1	63487.77	-18.62103	2.248954E-007	0.0011892	6
	27	11	1976.103	62265.7	-18606.12	1	64986.2	-16.6371	-3.058211E-011	0.0066334	6
	28	11	1577.524	65693.4	-16307.51	1	67687.2	-13.94111	2.246361E-007	0.0011809	6
	29	11	1265.625	65878.88	-15782.06	1	67742.9	-13.47199	-2.184233E-007	0.0081671	6
	30	12	998.264	68236.03	-15464.44	1	69966.45	-12.76933	9.461485E-008	0.0009366	6
	31	12	796.875	68962.91	-14953.84	1	70565.57	-12.23455	-4.951719E-008	0.0023328	6
	32	13	627.7902	70391.44	-15236.02	1	72021.46	-12.2131	2.268114E-007	0.002451	6
	33	13	505.5147	71770.73	-15900.46	1	73510.96	-12.49184	1.55232E-007	0.0006845	6
	34	14	397.9953	72801.64	-16959.06	1	74750.84	-13.11313	7.550348E-010	0.0042426	6
	35	14	315.5048	74101.27	-18627.56	1	76406.7	-14.11062	-6.369141E-010	0.0042524	6
	36	14	252.4038	75766.95	-20723.71	1	78550	-15.29734	5.965406E-010	0.0042418	6
	37	15	198.6229	77543.23	-23643.96	1	81067.81	-16.95716	3.642928E-011	0.0042476	6
	38	15	158.3615	79779.86	-26928.12	1	84201.84	-18.65109	6.021881E-010	0.0042404	6
	39	15	125.558	82432.11	-31037.05	1	88081.51	-20.63219	7.476527E-010	0.0042421	6
	40	16	100.4464	85123.45	-35211.54	1	92118.7	-22.47256	-8.264345E-010	0.0042473	5
	41	16	79.00281	89015.1	-40471.05	1	97783.4	-24.4491	2.308911E-010	0.0042342	5
	42	16	63.3446	94465.5	-49656.16	1	106721.4	-27.72884	3.605979E-010	0.0042479	5
	43	17	49.86702	99113.8	-56192.89	1	113935	-29.5512	-5.289443E-010	0.0042453	5
	44	17	39.72458	105291.8	-62834.87	1	122615.6	-30.82744	2.890737E-010	0.0042374	5
	45	17	31.6723	112259.5	-71416.99	1	133051	-32.46361	5.455306E-010	0.0042365	5
	46	18	24.93351	120480.4	-82634.16	1	146095.6	-34.44515	-1.144564E-010	0.0042352	5
	47	18	19.86229	129584.1	-94607.3	1	160444.9	-36.1326	7.291842E-010	0.0042429	5
	48	18	15.83615	140918.9	-106040.3	1	176359.5	-36.96114	-1.655241E-009	0.0042499	5
	49	19	12.40079	153485	-122882.2	1	196615.5	-38.68125	1.221129E-009	0.0042457	5
	50	19	9.93114	165944.1	-140577.1	1	217484.1	-40.26912	-9.386518E-010	0.0042429	5
	51	20	7.944915	180794.6	-159128.9	1	240850	-41.35307	-9.897385E-010	0.0042314	5
	52	20	6.317385	199031	-181502.6	1	269363.2	-42.36267	-5.56645E-010	0.0042527	5
	53	21	5.008013	219306.6	-207586.3	1	301972.7	-43.42735	-3.808656E-010	0.0042281	5
	54	22	3.945707	243076.8	-237802	1	340053.1	-44.37154	1.801416E-010	0.0042355	5
	55	23	3.158693	267332.6	-270087.7	1	380018.5	-45.29372	1.332816E-010	0.0042472	5
	56	25	2.504006	296907	-309307	1	428747.7	-46.17181	-1.686318E-010	0.0042421	5
	57	26	1.998082	327587	-352536.8	1	481243.6	-47.10091	3.517612E-012	0.0042461	5
	58	28	1.584686	365497.5	-404088.7	1	544863.4	-47.87071	1.743423E-010	0.004286	5
	59	30	1.266892	405514.2	-463097.2	1	615549.2	-48.79277	1.637985E-010	0.0042659	5
	60	32	0.999041	452390	-534410	1	700179.1	-49.75134	1.466283E-010	0.0042474	5
