EXPLAIN
TAG	EISPOT
TITLE	LABEL	Potentiostatic EIS	Test &Identifier
DATE	LABEL	11/5/2019	Date
TIME	LABEL	8:07:58	Time
NOTES	NOTES	2	&Notes...
	
	
PSTAT	PSTAT	REF600-11020	Potentiostat
VDC	POTEN	0.00000E+000	T	DC &Voltage (V)
FREQINIT	QUANT	1.00000E+006	Initial Fre&q. (Hz)
FREQFINAL	QUANT	1.00000E+000	Final Fre&q. (Hz)
PTSPERDEC	QUANT	1.00000E+001	Points/&decade
VAC	QUANT	2.50000E+001	AC &Voltage (mV rms)
AREA	QUANT	1.00000E-002	&Area (cm^2)
CONDIT	TWOPARAM	T	5.00000E+000	0.00000E+000	Conditionin&g	Time(s)	E(V)
DELAY	TWOPARAM	T	5.00000E+000	0.00000E+000	Init. De&lay	Time(s)	Stab.(mV/s)
SPEED	SELECTOR	1	&Optimize for:
ZGUESS	QUANT	1.00000E+005	E&stimated Z (ohms)
OCVCURVE	TABLE	19
	Pt	T	Vf	Vm	Ach	Over
	#	s	V vs. Ref.	V	V	bits
	0	0.258333	2.51194E-003	2.51194E-003	5.65299E-004	...........
	1	0.516667	2.50819E-003	2.31535E-003	5.67499E-004	...........
	2	0.775	2.48551E-003	2.14899E-003	5.67966E-004	...........
	3	1.03333	2.42272E-003	1.99457E-003	5.69699E-004	...........
	4	1.29167	2.31347E-003	1.85679E-003	5.66599E-004	...........
	5	1.55	2.17297E-003	1.71956E-003	5.61366E-004	...........
	6	1.80833	2.02274E-003	1.60543E-003	5.71132E-004	...........
	7	2.06667	1.87660E-003	1.45479E-003	5.68899E-004	...........
	8	2.325	1.73610E-003	1.23598E-003	5.61866E-004	...........
	9	2.58333	1.59551E-003	1.25321E-003	5.71899E-004	...........
	10	2.84167	1.45769E-003	1.15395E-003	5.66166E-004	...........
	11	3.1	1.33701E-003	1.08519E-003	5.63699E-004	...........
	12	3.35833	1.24041E-003	1.01129E-003	5.62832E-004	...........
	13	3.61667	1.15933E-003	8.73863E-004	5.67732E-004	...........
	14	3.875	1.08028E-003	8.22342E-004	5.64232E-004	...........
	15	4.13333	9.96204E-004	7.34339E-004	5.66166E-004	...........
	16	4.39167	9.08223E-004	5.99321E-004	5.66532E-004	...........
	17	4.65	8.19534E-004	6.24646E-004	5.71166E-004	...........
	18	4.90833	7.36842E-004	6.24315E-004	5.69632E-004	...........
EOC	QUANT	0.0007368	Open Circuit (V)
PSTATMODEL	IQUANT	4	Pstat Model
PSTATSECTION	LABEL	REF600-11020	Pstat Section
PSTATSERIALNO	LABEL	11020	Pstat Serial Number
CTRLMODE	IQUANT	1	Control Mode
IESTAB	IQUANT	0	I/E Stability
CASPEED	IQUANT	1	Control Amp Speed
CONVENTION	IQUANT	1	Current Convention
ICHRANGE	IQUANT	2	Ich Range
ICHRANGEMODE	TOGGLE	F	Ich Auto Range
ICHOFFSETENABLE	TOGGLE	T	Ich Offset Enable
ICHOFFSET	QUANT	0	Ich Offset (V)
ICHFILTER	IQUANT	3	Ich Filter
VCHRANGE	IQUANT	2	Vch Range
VCHRANGEMODE	TOGGLE	F	Vch Auto Range
VCHOFFSETENABLE	TOGGLE	T	Vch Offset Enable
VCHOFFSET	QUANT	0	Vch Offset (V)
VCHFILTER	IQUANT	3	Vch Filter
ACHRANGE	IQUANT	2	Ach Range
ACHOFFSETENABLE	TOGGLE	F	Ach Offset Enable
ACHOFFSET	QUANT	0	Ach Offset (V)
ACHFILTER	IQUANT	3	Ach Filter
IERANGELOWERLIMIT	IQUANT	1	I/E Range Lower Limit
IERANGEMODE	TOGGLE	F	I/E AutoRange
IERANGE	IQUANT	4	I/E Range
POSFEEDENABLE	TOGGLE	F	Positive Feedback IR Comp
POSFEEDRESISTANCE	QUANT	0	Positive Feedback Resistance (ohm)
ACHSELECT	IQUANT	0	Ach Select
CABLEID	IQUANT	14	Cable ID
DCCALDATE	LABEL	8/19/2019	DC Calibration Date
ACCALDATE	LABEL	8/19/2019	AC Calibration Date
THERMOSELECT	IQUANT	1	Thermo Select
FRAMEWORKVERSION	QUANT	6.33	Framework Version
INSTRUMENTVERSION	LABEL	3.50	Instrument Version
ZCURVE	TABLE
	Pt	Time	Freq	Zreal	Zimag	Zsig	Zmod	Zphz	Idc	Vdc	IERange
	#	s	Hz	ohm	ohm	V	ohm	°	A	V	#
	0	2	1000078	1983.651	-850.8466	1	2158.428	-23.21592	-2.663133E-006	0.0025313	8
	1	3	794390.6	2121.036	-759.9775	1	2253.078	-19.71284	-1.262515E-008	0.0022426	8
	2	4	630984.4	2229.006	-658.6216	1	2324.274	-16.46124	-7.238179E-006	0.003527	8
	3	6	501234.4	2315.29	-575.2147	1	2385.674	-13.95218	-1.083444E-006	0.0025163	8
	4	7	398109.4	2370.736	-493.5272	1	2421.562	-11.75957	-1.651951E-006	0.0021098	8
	5	9	316265.6	2419.79	-424.6271	1	2456.764	-9.95298	-2.570398E-006	0.0022303	8
	6	10	251203.1	2451.627	-367.316	1	2478.991	-8.520981	8.428445E-007	0.0026852	8
	7	11	199546.9	2478.382	-329.3306	1	2500.167	-7.569192	2.587968E-006	0.0017239	8
	8	13	158578.1	2510.299	-286.1011	1	2526.55	-6.501997	6.05393E-006	0.0015803	8
	9	14	125953.1	2548.137	-229.9858	1	2558.495	-5.157338	-7.117278E-007	0.0053187	7
	10	15	100078.1	2564.011	-214.6789	1	2572.982	-4.786085	9.428244E-007	0.0016025	7
	11	17	79453.13	2583.078	-212.1796	1	2591.778	-4.695856	-2.792313E-007	0.0035371	7
	12	18	63140.62	2603.422	-215.7721	1	2612.348	-4.737857	-8.501809E-007	0.0038389	7
	13	19	50203.12	2626.562	-223.4667	1	2636.051	-4.862988	1.226439E-007	0.0009581	7
	14	21	39890.62	2649.164	-233.6782	1	2659.45	-5.040916	1.015811E-006	0.0008962	7
	15	22	31640.63	2673.625	-247.4364	1	2685.05	-5.287502	-2.678842E-007	0.0014464	7
	16	24	25171.88	2698.657	-265.9599	1	2711.731	-5.628478	6.655824E-008	0.0031417	7
	17	25	20015.62	2725.252	-290.5959	1	2740.701	-6.086498	-2.669872E-007	0.0014453	7
	18	26	15890.62	2753.315	-319.9687	1	2771.844	-6.628734	1.002079E-006	0.0009122	7
	19	28	12609.37	2781.257	-358.4438	1	2804.259	-7.343706	-1.025197E-006	0.0037545	7
	20	29	10078.13	2811.839	-401.6024	1	2840.374	-8.128327	6.474552E-008	0.0031383	7
	21	30	8015.625	2839.996	-459.6424	1	2876.951	-9.193383	-9.661653E-007	0.002717	7
	22	32	6328.125	2874.133	-533.7061	1	2923.266	-10.5196	-1.02447E-006	0.003753	7
	23	33	5015.625	2909.682	-624.0126	1	2975.843	-12.10435	-1.136046E-006	0.0032475	7
	24	34	3984.375	2948.312	-734.4694	1	3038.419	-13.98852	1.017814E-006	0.0011967	7
	25	36	3170.956	2987.329	-870.2308	1	3111.501	-16.24123	-6.639756E-007	0.0020726	7
	26	37	2527.573	3032.735	-1035.773	1	3204.732	-18.85662	7.278718E-007	0.0006073	7
	27	39	1976.103	3084.611	-1258.24	1	3331.365	-22.19097	3.673915E-007	0.0027174	7
	28	40	1577.524	3142.598	-1514.373	1	3488.445	-25.72875	4.61298E-007	0.000696	7
	29	41	1265.625	3201.47	-1822.137	1	3683.693	-29.64665	-8.386604E-007	0.0038044	7
	30	43	998.264	3276.473	-2234.092	1	3965.658	-34.28847	5.713479E-007	0.0024247	7
	31	44	796.875	3364.482	-2716.879	1	4324.485	-38.92149	-9.70855E-007	0.0027085	7
	32	45	627.7902	3476.594	-3354.843	1	4831.322	-43.97897	4.616038E-007	0.0006938	7
	33	47	505.5147	3602.436	-4063.753	1	5430.62	-48.44365	-2.681186E-007	0.0014203	7
	34	48	397.9953	3777.18	-5028.438	1	6289.061	-53.08746	2.965148E-009	0.0022636	7
	35	50	315.5048	3991.082	-6188.077	1	7363.493	-57.17948	6.372858E-009	0.0022687	7
	36	51	252.4038	4254.2	-7555.047	1	8670.465	-60.61641	3.409576E-009	0.0022667	7
	37	52	198.6229	4617.158	-9359.719	1	10436.59	-63.74283	4.522605E-009	0.0022693	7
	38	54	158.3615	5065.938	-11458.17	1	12528.1	-66.14861	8.986499E-010	0.0022075	6
	39	55	125.558	5662.424	-14076.11	1	15172.34	-68.08646	1.35759E-009	0.0022082	6
	40	56	100.4464	6415.448	-17147.28	1	18308.12	-69.48727	1.764189E-009	0.0022042	6
	41	58	79.00281	7434.596	-21174.77	1	22442.02	-70.6535	1.089046E-009	0.0021944	6
	42	59	63.3446	8553.407	-25749.99	1	27133.42	-71.62499	3.41063E-010	0.0021985	6
	43	61	49.86702	10424.29	-31303.98	1	32994.01	-71.58214	-1.393926E-010	0.0021985	6
	44	62	39.72458	12670.74	-38075.79	1	40128.71	-71.59376	1.354742E-009	0.0022021	6
	45	63	31.6723	15531.46	-45837.02	1	48396.88	-71.28151	2.347251E-009	0.0022001	6
	46	65	24.93351	19380.57	-55782.25	1	59053.08	-70.84111	1.21617E-009	0.0022	6
	47	66	19.86229	24073.91	-66911.15	1	71110.16	-70.21181	7.478468E-010	0.0022006	6
	48	67	15.83615	29752.22	-79577.58	1	84957.55	-69.50039	8.5126E-010	0.0022089	6
	49	69	12.40079	38285.77	-96023.1	1	103374.2	-68.26212	-1.14777E-009	0.0022089	6
	50	70	9.93114	46620.59	-113548.7	1	122746.8	-67.67802	5.191683E-010	0.0022079	5
	51	72	7.944915	57490.57	-133860.5	1	145683.9	-66.75739	2.812571E-010	0.0022071	5
	52	74	6.317385	70747.68	-156989.5	1	172194.5	-65.74118	6.526746E-010	0.0021974	5
	53	76	5.008013	87485.48	-184834.3	1	204493.1	-64.67094	3.231042E-010	0.0022098	5
	54	78	3.945707	108254	-217162.6	1	242649	-63.50407	-6.83686E-011	0.0022003	5
	55	81	3.158693	131622.5	-251365	1	283740.8	-62.36204	1.390865E-010	0.0022211	5
	56	84	2.504006	160255.5	-291905.4	1	333002.4	-61.23331	2.867258E-010	0.0021991	5
	57	87	1.998082	193005.1	-335103.2	1	386710.7	-60.0599	9.513831E-011	0.0021667	5
	58	90	1.584686	231312.8	-384029.7	1	448312.8	-58.93816	1.017474E-010	0.0022303	5
	59	94	1.266892	273900.8	-439203.2	1	517611	-58.05105	-3.337726E-010	0.0021747	5
	60	98	0.999041	325455.8	-503421	1	599461.6	-57.11781	2.901699E-010	0.0022437	5
