EXPLAIN
TAG	EISPOT
TITLE	LABEL	Potentiostatic EIS	Test &Identifier
DATE	LABEL	10/22/2019	Date
TIME	LABEL	9:27:48	Time
NOTES	NOTES	1	&Notes...
	
PSTAT	PSTAT	REF600-11020	Potentiostat
VDC	POTEN	0.00000E+000	T	DC &Voltage (V)
FREQINIT	QUANT	1.00000E+006	Initial Fre&q. (Hz)
FREQFINAL	QUANT	1.00000E+000	Final Fre&q. (Hz)
PTSPERDEC	QUANT	1.00000E+001	Points/&decade
VAC	QUANT	2.50000E+001	AC &Voltage (mV rms)
AREA	QUANT	1.00000E-002	&Area (cm^2)
CONDIT	TWOPARAM	T	5.00000E+000	0.00000E+000	Conditionin&g	Time(s)	E(V)
DELAY	TWOPARAM	T	5.00000E+000	0.00000E+000	Init. De&lay	Time(s)	Stab.(mV/s)
SPEED	SELECTOR	1	&Optimize for:
ZGUESS	QUANT	1.00000E+005	E&stimated Z (ohms)
OCVCURVE	TABLE	19
	Pt	T	Vf	Vm	Ach	Over
	#	s	V vs. Ref.	V	V	bits
	0	0.258333	6.20517E-003	6.20517E-003	5.59166E-004	...........
	1	0.516667	6.21313E-003	6.62196E-003	5.64299E-004	...........
	2	0.775	6.24633E-003	6.19545E-003	5.60966E-004	...........
	3	1.03333	6.29666E-003	6.23522E-003	5.60199E-004	...........
	4	1.29167	6.32133E-003	6.17972E-003	5.58899E-004	...........
	5	1.55	6.31313E-003	6.90590E-003	5.61266E-004	...........
	6	1.80833	6.32813E-003	6.31336E-003	5.62766E-004	...........
	7	2.06667	6.39070E-003	6.39570E-003	5.57466E-004	...........
	8	2.325	6.44575E-003	6.36594E-003	5.54033E-004	...........
	9	2.58333	6.45105E-003	6.46837E-003	5.55633E-004	...........
	10	2.84167	6.43215E-003	6.49992E-003	5.63466E-004	...........
	11	3.1	6.42876E-003	6.53947E-003	5.56633E-004	...........
	12	3.35833	6.45217E-003	6.61714E-003	5.49666E-004	...........
	13	3.61667	6.49400E-003	6.63464E-003	5.59932E-004	...........
	14	3.875	6.54341E-003	6.69434E-003	5.57099E-004	...........
	15	4.13333	6.59347E-003	6.74691E-003	5.58232E-004	...........
	16	4.39167	6.64232E-003	6.79066E-003	5.50766E-004	...........
	17	4.65	6.69107E-003	6.84931E-003	5.55899E-004	...........
	18	4.90833	6.74043E-003	6.88554E-003	5.61299E-004	...........
EOC	QUANT	0.0067404	Open Circuit (V)
PSTATMODEL	IQUANT	4	Pstat Model
PSTATSECTION	LABEL	REF600-11020	Pstat Section
PSTATSERIALNO	LABEL	11020	Pstat Serial Number
CTRLMODE	IQUANT	1	Control Mode
IESTAB	IQUANT	0	I/E Stability
CASPEED	IQUANT	1	Control Amp Speed
CONVENTION	IQUANT	1	Current Convention
ICHRANGE	IQUANT	2	Ich Range
ICHRANGEMODE	TOGGLE	F	Ich Auto Range
ICHOFFSETENABLE	TOGGLE	T	Ich Offset Enable
ICHOFFSET	QUANT	0	Ich Offset (V)
ICHFILTER	IQUANT	3	Ich Filter
VCHRANGE	IQUANT	2	Vch Range
VCHRANGEMODE	TOGGLE	F	Vch Auto Range
VCHOFFSETENABLE	TOGGLE	T	Vch Offset Enable
VCHOFFSET	QUANT	0	Vch Offset (V)
VCHFILTER	IQUANT	3	Vch Filter
ACHRANGE	IQUANT	2	Ach Range
ACHOFFSETENABLE	TOGGLE	F	Ach Offset Enable
ACHOFFSET	QUANT	0	Ach Offset (V)
ACHFILTER	IQUANT	3	Ach Filter
IERANGELOWERLIMIT	IQUANT	1	I/E Range Lower Limit
IERANGEMODE	TOGGLE	F	I/E AutoRange
IERANGE	IQUANT	5	I/E Range
POSFEEDENABLE	TOGGLE	F	Positive Feedback IR Comp
POSFEEDRESISTANCE	QUANT	0	Positive Feedback Resistance (ohm)
ACHSELECT	IQUANT	0	Ach Select
CABLEID	IQUANT	14	Cable ID
DCCALDATE	LABEL	8/19/2019	DC Calibration Date
ACCALDATE	LABEL	8/19/2019	AC Calibration Date
THERMOSELECT	IQUANT	1	Thermo Select
FRAMEWORKVERSION	QUANT	6.33	Framework Version
INSTRUMENTVERSION	LABEL	3.50	Instrument Version
ZCURVE	TABLE
	Pt	Time	Freq	Zreal	Zimag	Zsig	Zmod	Zphz	Idc	Vdc	IERange
	#	s	Hz	ohm	ohm	V	ohm	°	A	V	#
	0	1	1000078	2262.069	-1435.271	1	2678.985	-32.39491	2.213506E-006	0.0087523	8
	1	3	794390.6	2536.965	-1369.912	1	2883.201	-28.36818	-6.204301E-006	0.0099395	8
	2	4	630984.4	2783.877	-1275.625	1	3062.22	-24.61815	1.223303E-006	0.0086697	8
	3	6	501234.4	2992.836	-1158.576	1	3209.262	-21.16224	-2.527268E-006	0.008903	8
	4	7	398109.4	3156.22	-1025.2	1	3318.548	-17.99478	-4.445432E-007	0.0084284	8
	5	8	316265.6	3304.49	-897.7463	1	3424.267	-15.19897	3.836264E-006	0.0076256	8
	6	10	251203.1	3411.571	-783.3942	1	3500.36	-12.93255	-1.368233E-006	0.0086059	8
	7	11	199546.9	3498.92	-682.063	1	3564.78	-11.03064	-2.055746E-006	0.0087564	8
	8	12	158578.1	3564.883	-611.0032	1	3616.865	-9.72571	2.58093E-006	0.0077876	8
	9	14	125953.1	3624.615	-480.2276	1	3656.289	-7.547201	5.542703E-007	0.0071011	7
	10	15	100078.1	3665.375	-426.1326	1	3690.063	-6.631376	-1.525601E-008	0.0082733	7
	11	17	79453.13	3700.537	-395.4078	1	3721.602	-6.098997	8.215729E-008	0.0082494	7
	12	18	63140.62	3733.95	-374.9828	1	3752.731	-5.734715	-1.756102E-008	0.0082675	7
	13	19	50203.12	3766.628	-362.1646	1	3784	-5.492156	5.699959E-009	0.0082378	7
	14	21	39890.62	3799.007	-358.3754	1	3815.873	-5.38899	-5.774773E-008	0.0084639	7
	15	22	31640.63	3833.192	-362.9897	1	3850.341	-5.409576	8.418413E-008	0.0082353	7
	16	23	25171.88	3868.402	-375.3296	1	3886.567	-5.541746	6.263745E-008	0.0081861	7
	17	25	20015.62	3918.966	-394.9703	1	3938.819	-5.755082	-3.460241E-008	0.0083212	7
	18	26	15890.62	3950.698	-422.6721	1	3973.243	-6.106658	-3.622135E-008	0.0083058	7
	19	27	12609.37	3996.97	-454.5199	1	4022.73	-6.487585	-7.743632E-008	0.0084173	7
	20	29	10078.13	4046.091	-492.9739	1	4076.012	-6.946652	-3.087999E-008	0.0083006	7
	21	30	8015.625	4103.744	-541.454	1	4139.31	-7.516273	5.338991E-009	0.0082269	7
	22	32	6328.125	4157.789	-595.013	1	4200.148	-8.14419	8.559682E-008	0.0082263	7
	23	33	5015.625	4215.838	-659.2655	1	4267.074	-8.887833	-3.775748E-008	0.0083685	7
	24	34	3984.375	4276.08	-735.3265	1	4338.844	-9.75731	3.852008E-008	0.0082402	7
	25	36	3170.956	4331.233	-829.6519	1	4409.978	-10.84371	-3.521183E-008	0.0083049	7
	26	37	2527.573	4387.921	-946.8582	1	4488.918	-12.177	-4.744946E-008	0.008311	7
	27	38	1976.103	4448.905	-1105.964	1	4584.312	-13.96031	3.874044E-008	0.0081537	7
	28	40	1577.524	4494.052	-1310.23	1	4681.154	-16.25392	-4.578203E-008	0.0083135	7
	29	41	1265.625	4566.322	-1522.872	1	4813.567	-18.44358	-1.133828E-008	0.0084171	7
	30	43	998.264	4633.276	-1831.542	1	4982.148	-21.56898	-1.210486E-008	0.0084184	7
	31	44	796.875	4708.623	-2200.433	1	5197.406	-25.04762	-1.590455E-008	0.0083347	7
	32	45	627.7902	4799.065	-2687.801	1	5500.482	-29.25178	-7.5584E-008	0.0084122	7
	33	47	505.5147	4897.895	-3234.823	1	5869.706	-33.44284	-4.551324E-008	0.0083224	7
	34	48	397.9953	5027.108	-3987.07	1	6416.271	-38.41843	4.618163E-009	0.0083072	7
	35	49	315.5048	5184.509	-4894.702	1	7130.024	-43.35303	4.640738E-009	0.0083052	7
	36	51	252.4038	5377.196	-5969.913	1	8034.556	-47.99013	4.509543E-009	0.008303	7
	37	52	198.6229	5640.751	-7393.977	1	9299.944	-52.66055	4.462261E-009	0.0083	7
	38	53	158.3615	5965.921	-9052.102	1	10841.25	-56.61253	8.863442E-010	0.0082395	6
	39	55	125.558	6389.766	-11128.89	1	12832.82	-60.13727	8.943098E-010	0.0082462	6
	40	56	100.4464	6912.674	-13551.68	1	15212.93	-62.97401	7.879476E-010	0.0082428	6
	41	57	79.00281	7638.023	-16767.71	1	18425.41	-65.5098	-2.486102E-010	0.0082475	6
	42	59	63.3446	8592.616	-20332.46	1	22073.56	-67.0908	5.583071E-010	0.0082462	6
	43	60	49.86702	9577.68	-25002.12	1	26773.83	-69.03943	8.187201E-014	0.008242	6
	44	62	39.72458	11050.82	-30373.63	1	32321.48	-70.00713	4.233754E-010	0.0082443	6
	45	63	31.6723	12837.59	-36925.18	1	39093.13	-70.82922	7.925906E-010	0.0082432	6
	46	64	24.93351	15120.33	-45208.71	1	47670.24	-71.50717	6.654788E-010	0.0082439	6
	47	66	19.86229	17949.13	-54773.46	1	57639.43	-71.85616	1.0131E-009	0.0082469	6
	48	67	15.83615	21614.2	-66601.77	1	70021.21	-72.02026	-1.339153E-009	0.0082372	6
	49	68	12.40079	26481.55	-81396.85	1	85596.26	-71.97829	-7.70796E-010	0.0082416	6
	50	70	9.93114	31871.88	-97605.9	1	102677.8	-71.91625	5.266479E-010	0.0082388	6
	51	71	7.944915	38931.74	-117053.3	1	123357.9	-71.60296	-3.273188E-010	0.0082472	5
	52	73	6.317385	48305.56	-140826.4	1	148880.8	-71.06726	1.140669E-010	0.0082311	5
	53	75	5.008013	60149.39	-169254.7	1	179624.9	-70.43591	6.151803E-011	0.0082569	5
	54	78	3.945707	75568.25	-203696.4	1	217262	-69.64591	-2.456544E-010	0.008247	5
	55	80	3.158693	93555.05	-240993.1	1	258515.4	-68.78347	1.75616E-010	0.0082665	5
	56	84	2.504006	116612	-286444	1	309270.9	-67.84866	-1.774114E-010	0.0082387	5
	57	86	1.998082	143548.7	-336756.3	1	366075.2	-66.91296	-2.235359E-010	0.0082484	5
	58	90	1.584686	177976.8	-396968.2	1	435039.6	-65.85139	5.496412E-011	0.0082899	5
	59	93	1.266892	215910.8	-462386.8	1	510312.7	-64.96986	-2.297922E-010	0.0082554	5
	60	98	0.999041	264370.7	-543334.3	1	604238.4	-64.05379	2.344749E-010	0.0082476	5
