EXPLAIN
TAG	EISPOT
TITLE	LABEL	Potentiostatic EIS	Test &Identifier
DATE	LABEL	8/16/2017	Date
TIME	LABEL	16:51:10	Time
NOTES	NOTES	1	&Notes...
	
PSTAT	PSTAT	REF600-11020	Potentiostat
VDC	POTEN	0.00000E+000	T	DC &Voltage (V)
FREQINIT	QUANT	1.00000E+006	Initial Fre&q. (Hz)
FREQFINAL	QUANT	1.00000E+000	Final Fre&q. (Hz)
PTSPERDEC	QUANT	1.00000E+001	Points/&decade
VAC	QUANT	2.50000E+001	AC &Voltage (mV rms)
AREA	QUANT	1.00000E-002	&Area (cm^2)
CONDIT	TWOPARAM	T	5.00000E+000	0.00000E+000	Conditionin&g	Time(s)	E(V)
DELAY	TWOPARAM	T	5.00000E+000	0.00000E+000	Init. De&lay	Time(s)	Stab.(mV/s)
SPEED	SELECTOR	0	&Optimize for:
ZGUESS	QUANT	1.00000E+005	E&stimated Z (ohms)
OCVCURVE	TABLE	19
	Pt	T	Vf	Vm	Ach	Over
	#	s	V vs. Ref.	V	V	bits
	0	0.258333	6.51006E-003	6.51006E-003	5.42633E-004	...........
	1	0.516667	6.52026E-003	7.04368E-003	5.39733E-004	...........
	2	0.775	6.59582E-003	8.22837E-003	5.42866E-004	...........
	3	1.03333	6.84242E-003	8.82761E-003	5.44533E-004	...........
	4	1.29167	7.31327E-003	8.93079E-003	5.42933E-004	...........
	5	1.55	7.89918E-003	8.67490E-003	5.43866E-004	...........
	6	1.80833	8.36370E-003	7.14408E-003	5.43566E-004	...........
	7	2.06667	8.47164E-003	6.40139E-003	5.40999E-004	...........
	8	2.325	8.14995E-003	6.89423E-003	5.35666E-004	...........
	9	2.58333	7.60504E-003	7.36922E-003	5.35633E-004	...........
	10	2.84167	7.18000E-003	7.30798E-003	5.40933E-004	...........
	11	3.1	7.04381E-003	7.34705E-003	5.45366E-004	...........
	12	3.35833	7.10249E-003	6.88946E-003	5.37533E-004	...........
	13	3.61667	7.19997E-003	8.35539E-003	5.36099E-004	...........
	14	3.875	7.32282E-003	8.26997E-003	5.42899E-004	...........
	15	4.13333	7.55770E-003	8.86412E-003	5.42399E-004	...........
	16	4.39167	7.90083E-003	8.25717E-003	5.38133E-004	...........
	17	4.65	8.22425E-003	8.51418E-003	5.37299E-004	...........
	18	4.90833	8.41738E-003	8.45670E-003	5.45033E-004	...........
EOC	QUANT	0.0084174	Open Circuit (V)
PSTATMODEL	IQUANT	4	Pstat Model
PSTATSECTION	LABEL	REF600-11020	Pstat Section
PSTATSERIALNO	LABEL	11020	Pstat Serial Number
CTRLMODE	IQUANT	1	Control Mode
IESTAB	IQUANT	0	I/E Stability
CASPEED	IQUANT	1	Control Amp Speed
CONVENTION	IQUANT	1	Current Convention
ICHRANGE	IQUANT	2	Ich Range
ICHRANGEMODE	TOGGLE	F	Ich Auto Range
ICHOFFSETENABLE	TOGGLE	T	Ich Offset Enable
ICHOFFSET	QUANT	0	Ich Offset (V)
ICHFILTER	IQUANT	3	Ich Filter
VCHRANGE	IQUANT	2	Vch Range
VCHRANGEMODE	TOGGLE	F	Vch Auto Range
VCHOFFSETENABLE	TOGGLE	T	Vch Offset Enable
VCHOFFSET	QUANT	0	Vch Offset (V)
VCHFILTER	IQUANT	3	Vch Filter
ACHRANGE	IQUANT	2	Ach Range
ACHOFFSETENABLE	TOGGLE	F	Ach Offset Enable
ACHOFFSET	QUANT	0	Ach Offset (V)
ACHFILTER	IQUANT	3	Ach Filter
IERANGELOWERLIMIT	IQUANT	1	I/E Range Lower Limit
IERANGEMODE	TOGGLE	F	I/E AutoRange
IERANGE	IQUANT	5	I/E Range
POSFEEDENABLE	TOGGLE	F	Positive Feedback IR Comp
POSFEEDRESISTANCE	QUANT	0	Positive Feedback Resistance (ohm)
ACHSELECT	IQUANT	0	Ach Select
CABLEID	IQUANT	14	Cable ID
DCCALDATE	LABEL	8/19/2019	DC Calibration Date
ACCALDATE	LABEL	8/19/2019	AC Calibration Date
THERMOSELECT	IQUANT	1	Thermo Select
FRAMEWORKVERSION	QUANT	6.33	Framework Version
INSTRUMENTVERSION	LABEL	3.50	Instrument Version
ZCURVE	TABLE
	Pt	Time	Freq	Zreal	Zimag	Zsig	Zmod	Zphz	Idc	Vdc	IERange
	#	s	Hz	ohm	ohm	V	ohm	°	A	V	#
	0	2	1000078	2154.046	-1387.746	1	2562.373	-32.7917	9.857798E-006	0.0107282	8
	1	2	794390.6	2408.283	-1353.231	1	2762.438	-29.33194	-3.602501E-006	0.0100247	8
	2	2	630984.4	2654.231	-1269.869	1	2942.365	-25.56795	9.074253E-006	0.0093933	8
	3	3	501234.4	2868.64	-1187.712	1	3104.796	-22.49117	-5.393448E-006	0.0107937	8
	4	3	398109.4	3059.716	-1073.157	1	3242.457	-19.32769	-2.473992E-006	0.0106849	8
	5	3	316265.6	3202.857	-973.708	1	3347.596	-16.90992	2.682891E-006	0.0095083	8
	6	4	251203.1	3340.699	-855.109	1	3448.403	-14.35757	-9.491631E-007	0.0105032	8
	7	4	199546.9	3447.615	-765.04	1	3531.477	-12.51144	6.912857E-006	0.0093326	8
	8	4	158578.1	3538.944	-673.691	1	3602.497	-10.77815	-4.083011E-007	0.0098042	8
	9	4	125953.1	3621.966	-529.5276	1	3660.469	-8.317656	-1.219969E-006	0.0089009	7
	10	5	100078.1	3670.723	-467.0691	1	3700.319	-7.251445	3.895867E-007	0.0105598	7
	11	5	79453.13	3709.596	-424.564	1	3733.813	-6.529104	3.897477E-007	0.0105508	7
	12	5	63140.62	3743.694	-389.5112	1	3763.902	-5.939945	1.170574E-007	0.0086525	7
	13	6	50203.12	3771.177	-369.6337	1	3789.249	-5.597991	-9.024269E-007	0.0117078	7
	14	6	39890.62	3800.079	-356.0452	1	3816.722	-5.352653	-3.064332E-007	0.0091638	7
	15	6	31640.63	3827.985	-356.2593	1	3844.527	-5.317034	-6.24886E-007	0.0116222	7
	16	7	25171.88	3856.466	-365.7574	1	3873.772	-5.417877	6.949619E-008	0.0109848	7
	17	7	20015.62	3886.655	-386.4796	1	3905.823	-5.678688	1.090103E-006	0.0085497	7
	18	7	15890.62	3914.395	-414.8495	1	3936.316	-6.049652	9.825862E-007	0.0083287	7
	19	8	12609.37	3933.297	-457.6976	1	3959.837	-6.637366	-1.051672E-006	0.0105359	7
	20	8	10078.13	3963.592	-515.1311	1	3996.926	-7.404982	-1.104481E-006	0.011645	7
	21	8	8015.625	3995.83	-589.5192	1	4039.083	-8.392511	-1.104573E-006	0.0116372	7
	22	9	6328.125	4040.078	-688.4786	1	4098.32	-9.671	9.821456E-007	0.008324	7
	23	9	5015.625	4073.34	-808.1795	1	4152.74	-11.22215	-2.963943E-007	0.0113706	7
	24	9	3984.375	4120.199	-956.952	1	4229.87	-13.07562	-1.104322E-006	0.0116368	7
	25	10	3170.956	4166.537	-1144.672	1	4320.915	-15.36187	6.931956E-008	0.010976	7
	26	10	2527.573	4225.916	-1373.203	1	4443.428	-18.00147	1.103928E-006	0.0088744	7
	27	10	1976.103	4294.344	-1678.808	1	4610.833	-21.35226	7.808822E-007	0.0082358	7
	28	10	1577.524	4380.144	-2030.475	1	4827.886	-24.87072	9.809E-007	0.0083248	7
	29	11	1265.625	4458.803	-2435.533	1	5080.625	-28.6447	-2.95366E-007	0.0113683	7
	30	11	998.264	4573.759	-2979.555	1	5458.665	-33.08205	-2.960151E-007	0.0113733	7
	31	11	796.875	4709.49	-3619.814	1	5939.895	-37.54665	8.313031E-007	0.0097981	7
	32	12	627.7902	4880.43	-4447.057	1	6602.644	-42.33984	1.103109E-006	0.0088696	7
	33	12	505.5147	5063.253	-5364.268	1	7376.442	-46.65352	1.10245E-006	0.0088711	7
	34	12	397.9953	5317.586	-6593.644	1	8470.706	-51.11481	-2.923733E-010	0.0100399	7
	35	13	315.5048	5618.627	-8075.369	1	9837.71	-55.17083	3.516343E-009	0.0100314	7
	36	13	252.4038	5979.86	-9822.7	1	11499.75	-58.6678	4.976104E-010	0.0099689	6
	37	13	198.6229	6459.861	-12131.1	1	13743.85	-61.96452	4.378899E-010	0.0099685	6
	38	14	158.3615	7038.334	-14825.87	1	16411.72	-64.60476	1.103392E-009	0.0099712	6
	39	14	125.558	7807.705	-18206.85	1	19810.34	-66.78873	6.720736E-010	0.0099733	6
	40	14	100.4464	8764.401	-22140.78	1	23812.37	-68.40392	-4.376711E-010	0.0099708	6
	41	15	79.00281	10106.86	-27339.27	1	29147.63	-69.7115	1.334284E-010	0.0099755	6
	42	15	63.3446	12303	-33301.04	1	35501.04	-69.72335	6.354736E-010	0.009965	6
	43	15	49.86702	14665.64	-40965.27	1	43511.31	-70.30254	5.188943E-010	0.0099735	6
	44	16	39.72458	17662.23	-49405.3	1	52467.5	-70.3282	2.444446E-010	0.0099664	6
	45	16	31.6723	21754.16	-59355.81	1	63216.73	-69.8719	-4.109116E-010	0.0099722	6
	46	16	24.93351	27654.6	-72212.55	1	77326.77	-69.0451	2.915475E-011	0.0099674	6
	47	17	19.86229	34992.48	-85961.16	1	92810.53	-67.85008	-7.894965E-010	0.0099688	6
	48	17	15.83615	44164.32	-101932.8	1	111089	-66.5744	1.138618E-009	0.0099702	5
	49	17	12.40079	58238.38	-121016.6	1	134300.9	-64.30114	-1.060438E-009	0.0099811	5
	50	18	9.93114	71554.7	-139511.9	1	156791.7	-62.84702	4.300133E-010	0.0099697	5
	51	18	7.944915	87882.64	-159597.8	1	182194.5	-61.1606	4.998634E-010	0.0099652	5
	52	19	6.317385	108592.2	-182807.6	1	212628.5	-59.28864	3.568827E-010	0.0099618	5
	53	20	5.008013	132200.5	-207813.1	1	246299.1	-57.53748	3.685594E-010	0.0099696	5
	54	21	3.945707	159091.4	-235046.3	1	283825.4	-55.90783	-2.009533E-010	0.0099624	5
	55	22	3.158693	187008.4	-262530.1	1	322326.2	-54.53653	-2.489993E-010	0.0099522	5
	56	24	2.504006	218235.8	-294440.1	1	366499.5	-53.45456	1.42365E-010	0.009959	5
	57	25	1.998082	249066	-328485.3	1	412233.6	-52.82966	-1.248337E-010	0.0099419	5
	58	27	1.584686	283889.9	-369820.9	1	466219.9	-52.48866	-2.883807E-010	0.009912	5
	59	29	1.266892	317282.7	-417434.1	1	524327.7	-52.76231	-2.497752E-010	0.0099301	5
	60	31	0.999041	354548.3	-477335.7	1	594604	-53.39632	-2.147707E-010	0.0099542	5
