EXPLAIN
TAG	EISPOT
TITLE	LABEL	Potentiostatic IDE	Test &Identifier
DATE	LABEL	9/6/2019	Date
TIME	LABEL	8:41:09	Time
NOTES	NOTES	1	&Notes...
	
PSTAT	PSTAT	REF600-11020	Potentiostat
VDC	POTEN	0.00000E+000	T	DC &Voltage (V)
FREQINIT	QUANT	1.00000E+006	Initial Fre&q. (Hz)
FREQFINAL	QUANT	1.00000E+000	Final Fre&q. (Hz)
PTSPERDEC	QUANT	1.00000E+001	Points/&decade
VAC	QUANT	2.50000E+001	AC &Voltage (mV rms)
AREA	QUANT	1.00000E-002	&Area (cm^2)
CONDIT	TWOPARAM	T	5.00000E+000	0.00000E+000	Conditionin&g	Time(s)	E(V)
DELAY	TWOPARAM	T	5.00000E+000	0.00000E+000	Init. De&lay	Time(s)	Stab.(mV/s)
SPEED	SELECTOR	1	&Optimize for:
ZGUESS	QUANT	1.00000E+007	E&stimated Z (ohms)
OCVCURVE	TABLE	19
	Pt	T	Vf	Vm	Ach	Over
	#	s	V vs. Ref.	V	V	bits
	0	0.258333	9.94851E-003	9.94851E-003	5.66599E-004	...........
	1	0.516667	9.94647E-003	9.84182E-003	5.63499E-004	...........
	2	0.775	9.93492E-003	9.79104E-003	5.65332E-004	...........
	3	1.03333	9.90475E-003	9.70674E-003	5.66466E-004	...........
	4	1.29167	9.85479E-003	9.66672E-003	5.71466E-004	...........
	5	1.55	9.79408E-003	9.65669E-003	5.59632E-004	...........
	6	1.80833	9.73637E-003	9.65116E-003	5.61899E-004	...........
	7	2.06667	9.69279E-003	9.65083E-003	5.61499E-004	...........
	8	2.325	9.66688E-003	9.66233E-003	5.60299E-004	...........
	9	2.58333	9.65578E-003	9.66099E-003	5.62399E-004	...........
	10	2.84167	9.65469E-003	9.69251E-003	5.68732E-004	...........
	11	3.1	9.66013E-003	9.69166E-003	5.64999E-004	...........
	12	3.35833	9.67009E-003	9.71760E-003	5.63499E-004	...........
	13	3.61667	9.68346E-003	9.75580E-003	5.65499E-004	...........
	14	3.875	9.70037E-003	9.75836E-003	5.65366E-004	...........
	15	4.13333	9.72047E-003	9.78432E-003	5.68799E-004	...........
	16	4.39167	9.74160E-003	9.80324E-003	5.66499E-004	...........
	17	4.65	9.76223E-003	9.82992E-003	5.67432E-004	...........
	18	4.90833	9.78298E-003	9.85775E-003	5.65332E-004	...........
EOC	QUANT	0.009783	Open Circuit (V)
PSTATMODEL	IQUANT	4	Pstat Model
PSTATSECTION	LABEL	REF600-11020	Pstat Section
PSTATSERIALNO	LABEL	11020	Pstat Serial Number
CTRLMODE	IQUANT	1	Control Mode
IESTAB	IQUANT	0	I/E Stability
CASPEED	IQUANT	1	Control Amp Speed
CONVENTION	IQUANT	1	Current Convention
ICHRANGE	IQUANT	2	Ich Range
ICHRANGEMODE	TOGGLE	F	Ich Auto Range
ICHOFFSETENABLE	TOGGLE	T	Ich Offset Enable
ICHOFFSET	QUANT	0	Ich Offset (V)
ICHFILTER	IQUANT	3	Ich Filter
VCHRANGE	IQUANT	2	Vch Range
VCHRANGEMODE	TOGGLE	F	Vch Auto Range
VCHOFFSETENABLE	TOGGLE	T	Vch Offset Enable
VCHOFFSET	QUANT	0	Vch Offset (V)
VCHFILTER	IQUANT	3	Vch Filter
ACHRANGE	IQUANT	2	Ach Range
ACHOFFSETENABLE	TOGGLE	F	Ach Offset Enable
ACHOFFSET	QUANT	0	Ach Offset (V)
ACHFILTER	IQUANT	3	Ach Filter
IERANGELOWERLIMIT	IQUANT	1	I/E Range Lower Limit
IERANGEMODE	TOGGLE	F	I/E AutoRange
IERANGE	IQUANT	3	I/E Range
POSFEEDENABLE	TOGGLE	F	Positive Feedback IR Comp
POSFEEDRESISTANCE	QUANT	0	Positive Feedback Resistance (ohm)
ACHSELECT	IQUANT	0	Ach Select
CABLEID	IQUANT	14	Cable ID
DCCALDATE	LABEL	8/19/2019	DC Calibration Date
ACCALDATE	LABEL	8/19/2019	AC Calibration Date
THERMOSELECT	IQUANT	1	Thermo Select
FRAMEWORKVERSION	QUANT	6.33	Framework Version
INSTRUMENTVERSION	LABEL	3.50	Instrument Version
ZCURVE	TABLE
	Pt	Time	Freq	Zreal	Zimag	Zsig	Zmod	Zphz	Idc	Vdc	IERange
	#	s	Hz	ohm	ohm	V	ohm	°	A	V	#
	0	2	1000078	2561.425	-1702.41	1	3075.564	-33.60936	2.940289E-006	0.0116622	8
	1	3	794390.6	2885.094	-1590.155	1	3294.292	-28.86189	3.182235E-006	0.0111319	8
	2	4	630984.4	3157.954	-1438.052	1	3469.966	-24.48332	2.970505E-007	0.0114066	8
	3	6	501234.4	3380.413	-1264.581	1	3609.204	-20.51036	-3.149026E-006	0.0122242	8
	4	7	398109.4	3550.489	-1109.13	1	3719.697	-17.34817	4.329677E-007	0.0113961	8
	5	8	316265.6	3670.829	-968.034	1	3796.324	-14.77314	-1.185026E-006	0.0115581	8
	6	10	251203.1	3750.636	-833.1855	1	3842.065	-12.5246	-2.773419E-006	0.0120422	8
	7	11	199546.9	3840.457	-739.5084	1	3911.008	-10.89932	1.189986E-006	0.0112038	8
	8	12	158578.1	3892.668	-667.3475	1	3949.458	-9.72805	1.323552E-006	0.0110638	8
	9	14	125953.1	3959.707	-584.0797	1	4002.553	-8.390951	-5.887429E-007	0.0129349	7
	10	15	100078.1	4001.484	-549.7737	1	4039.075	-7.82303	3.807626E-008	0.0113723	7
	11	16	79453.13	4041.572	-538.6672	1	4077.311	-7.591732	-2.499563E-009	0.011397	7
	12	18	63140.62	4082.536	-544.7202	1	4118.716	-7.599911	3.168168E-008	0.0112848	7
	13	19	50203.12	4123.973	-562.855	1	4162.206	-7.771918	-2.999394E-008	0.011431	7
	14	20	39890.62	4165.268	-599.7889	1	4208.23	-8.194134	-4.926459E-009	0.0113863	7
	15	22	31640.63	4209.963	-653.4053	1	4260.367	-8.822176	-1.500997E-009	0.0113833	7
	16	23	25171.88	4257.112	-725.534	1	4318.495	-9.67192	-2.156468E-008	0.0114392	7
	17	24	20015.62	4311.117	-818.3643	1	4388.103	-10.74837	5.401127E-008	0.0112588	7
	18	26	15890.62	4370.067	-937.9301	1	4469.586	-12.1134	-2.371651E-008	0.0113787	7
	19	27	12609.37	4434.513	-1088.451	1	4566.14	-13.79062	-1.119919E-008	0.0113579	7
	20	28	10078.13	4504.822	-1265.061	1	4679.081	-15.686	4.81089E-008	0.0112777	7
	21	30	8015.625	4587.229	-1489.598	1	4823.026	-17.99002	-1.532264E-009	0.0113762	7
	22	31	6328.125	4686.713	-1772.409	1	5010.66	-20.71548	3.31506E-008	0.0112703	7
	23	32	5015.625	4800.874	-2115.056	1	5246.127	-23.77621	-2.957983E-008	0.0114232	7
	24	34	3984.375	4934.547	-2526.658	1	5543.804	-27.11401	-1.384016E-008	0.0113601	7
	25	35	3170.956	5091.782	-3027.457	1	5923.828	-30.73475	-1.987014E-009	0.0113759	7
	26	36	2527.573	5280.645	-3624.328	1	6404.761	-34.46344	8.17244E-008	0.0112491	7
	27	38	1976.103	5536.473	-4418.913	1	7083.736	-38.59497	-1.728676E-008	0.0114522	7
	28	39	1577.524	5818.049	-5293.115	1	7865.542	-42.29514	-1.093887E-008	0.0114539	7
	29	40	1265.625	6166.178	-6317.396	1	8827.868	-45.69401	8.345977E-008	0.0112553	7
	30	42	998.264	6625.498	-7635.481	1	10109.29	-49.05101	-2.089479E-008	0.0113934	7
	31	43	796.875	7158.759	-9146.335	1	11614.79	-51.95001	-1.195993E-011	0.0112275	6
	32	44	627.7902	7850.554	-11060.89	1	13563.72	-54.63446	-3.930711E-009	0.0113462	6
	33	46	505.5147	8637.073	-13114.11	1	15702.83	-56.63073	5.019579E-009	0.0112091	6
	34	47	397.9953	9665.14	-15809.59	1	18529.92	-58.56061	7.029863E-010	0.0113192	6
	35	48	315.5048	10895.98	-18926.05	1	21838.45	-60.07038	8.669378E-010	0.0113183	6
	36	50	252.4038	12324.55	-22468.97	1	25627.12	-61.2546	5.290706E-010	0.0113153	6
	37	51	198.6229	14174.32	-26981.64	1	30478.19	-62.28563	6.255469E-010	0.0113161	6
	38	52	158.3615	16276.45	-32040.03	1	35937.25	-63.06926	7.412443E-010	0.0113141	6
	39	54	125.558	18857.14	-38173.33	1	42576.93	-63.71122	5.793211E-010	0.0113103	6
	40	55	100.4464	21836.21	-45158.92	1	50161.22	-64.19431	7.390131E-010	0.0113109	6
	41	56	79.00281	25588.07	-54044.7	1	59796.14	-64.66425	6.053635E-010	0.0113171	6
	42	58	63.3446	29552.2	-63982.71	1	70477.8	-65.20882	3.363507E-010	0.0113133	6
	43	59	49.86702	35347.7	-76045.37	1	83859.16	-65.06987	2.752094E-010	0.0113131	6
	44	61	39.72458	41506.36	-90422.36	1	99493.6	-65.34357	4.450744E-010	0.0113122	6
	45	62	31.6723	48960.55	-106750.6	1	117442.8	-65.3617	4.734529E-011	0.011316	5
	46	63	24.93351	58503.94	-127614.1	1	140385.4	-65.37119	3.989994E-010	0.0113201	5
	47	65	19.86229	69692.58	-151068.4	1	166369.2	-65.23464	2.646745E-010	0.0113214	5
	48	66	15.83615	82856.2	-178963.8	1	197213.6	-65.15693	5.495295E-010	0.0113161	5
	49	67	12.40079	101048.4	-213204.3	1	235938.3	-64.64133	-5.787681E-011	0.0113156	5
	50	69	9.93114	119640.8	-250108.6	1	277251.2	-64.43563	2.885037E-010	0.011322	5
	51	70	7.944915	143447.1	-292325.4	1	325624.4	-63.86234	5.800233E-010	0.0113169	5
	52	72	6.317385	172882.4	-343639.9	1	384677.4	-63.29342	3.926543E-010	0.0113113	5
	53	74	5.008013	209187.7	-403234.1	1	454265.6	-62.58086	-1.410627E-011	0.0113135	5
	54	77	3.945707	253972.7	-472615.4	1	536532.8	-61.74743	2.403648E-010	0.0113251	5
	55	79	3.158693	304005.5	-547548	1	626281.2	-60.96042	-2.548087E-011	0.0113146	5
	56	82	2.504006	366341	-634430.1	1	732603.1	-59.99643	2.802504E-010	0.0113125	5
	57	85	1.998082	435686.2	-728381.8	1	848741.8	-59.11398	1.395049E-011	0.0113594	5
	58	88	1.584686	517841.4	-839671.9	1	986513	-58.33709	1.692615E-010	0.0113465	5
	59	92	1.266892	611656.5	-958103	1	1136699	-57.44567	-6.859711E-011	0.0113534	4
	60	96	0.999041	721842.1	-1099789	1	1315520	-56.72127	1.355614E-010	0.011299	4
