EXPLAIN
TAG	EISPOT
TITLE	LABEL	Potentiostatic EIS	Test &Identifier
DATE	LABEL	10/24/2019	Date
TIME	LABEL	9:24:49	Time
NOTES	NOTES	1	&Notes...
	
PSTAT	PSTAT	REF600-11020	Potentiostat
VDC	POTEN	0.00000E+000	T	DC &Voltage (V)
FREQINIT	QUANT	1.00000E+006	Initial Fre&q. (Hz)
FREQFINAL	QUANT	1.00000E+000	Final Fre&q. (Hz)
PTSPERDEC	QUANT	1.00000E+001	Points/&decade
VAC	QUANT	2.50000E+001	AC &Voltage (mV rms)
AREA	QUANT	1.00000E-002	&Area (cm^2)
CONDIT	TWOPARAM	T	5.00000E+000	0.00000E+000	Conditionin&g	Time(s)	E(V)
DELAY	TWOPARAM	T	5.00000E+000	0.00000E+000	Init. De&lay	Time(s)	Stab.(mV/s)
SPEED	SELECTOR	1	&Optimize for:
ZGUESS	QUANT	1.00000E+005	E&stimated Z (ohms)
OCVCURVE	TABLE	19
	Pt	T	Vf	Vm	Ach	Over
	#	s	V vs. Ref.	V	V	bits
	0	0.258333	4.83423E-003	4.83423E-003	5.28900E-004	...........
	1	0.516667	4.83135E-003	4.68353E-003	5.22900E-004	...........
	2	0.775	4.81397E-003	4.55636E-003	5.33566E-004	...........
	3	1.03333	4.76604E-003	4.44646E-003	5.43233E-004	...........
	4	1.29167	4.68355E-003	4.35867E-003	5.46099E-004	...........
	5	1.55	4.57995E-003	4.27313E-003	5.35799E-004	...........
	6	1.80833	4.47328E-003	4.19492E-003	5.34099E-004	...........
	7	2.06667	4.37423E-003	4.12269E-003	5.33833E-004	...........
	8	2.325	4.28607E-003	4.09671E-003	5.36299E-004	...........
	9	2.58333	4.21036E-003	4.05504E-003	5.30900E-004	...........
	10	2.84167	4.14814E-003	3.99496E-003	5.35433E-004	...........
	11	3.1	4.09616E-003	3.93801E-003	5.33300E-004	...........
	12	3.35833	4.05674E-003	4.37413E-003	5.33533E-004	...........
	13	3.61667	4.05062E-003	4.10500E-003	5.34466E-004	...........
	14	3.875	4.07953E-003	3.81059E-003	5.39999E-004	...........
	15	4.13333	4.09012E-003	3.76161E-003	5.31000E-004	...........
	16	4.39167	4.03287E-003	3.70780E-003	5.41899E-004	...........
	17	4.65	3.92479E-003	3.66626E-003	5.35799E-004	...........
	18	4.90833	3.81531E-003	3.63758E-003	5.39399E-004	...........
EOC	QUANT	0.0038153	Open Circuit (V)
PSTATMODEL	IQUANT	4	Pstat Model
PSTATSECTION	LABEL	REF600-11020	Pstat Section
PSTATSERIALNO	LABEL	11020	Pstat Serial Number
CTRLMODE	IQUANT	1	Control Mode
IESTAB	IQUANT	0	I/E Stability
CASPEED	IQUANT	1	Control Amp Speed
CONVENTION	IQUANT	1	Current Convention
ICHRANGE	IQUANT	2	Ich Range
ICHRANGEMODE	TOGGLE	F	Ich Auto Range
ICHOFFSETENABLE	TOGGLE	T	Ich Offset Enable
ICHOFFSET	QUANT	0	Ich Offset (V)
ICHFILTER	IQUANT	3	Ich Filter
VCHRANGE	IQUANT	2	Vch Range
VCHRANGEMODE	TOGGLE	F	Vch Auto Range
VCHOFFSETENABLE	TOGGLE	T	Vch Offset Enable
VCHOFFSET	QUANT	0	Vch Offset (V)
VCHFILTER	IQUANT	3	Vch Filter
ACHRANGE	IQUANT	2	Ach Range
ACHOFFSETENABLE	TOGGLE	F	Ach Offset Enable
ACHOFFSET	QUANT	0	Ach Offset (V)
ACHFILTER	IQUANT	3	Ach Filter
IERANGELOWERLIMIT	IQUANT	1	I/E Range Lower Limit
IERANGEMODE	TOGGLE	F	I/E AutoRange
IERANGE	IQUANT	4	I/E Range
POSFEEDENABLE	TOGGLE	F	Positive Feedback IR Comp
POSFEEDRESISTANCE	QUANT	0	Positive Feedback Resistance (ohm)
ACHSELECT	IQUANT	0	Ach Select
CABLEID	IQUANT	14	Cable ID
DCCALDATE	LABEL	8/19/2019	DC Calibration Date
ACCALDATE	LABEL	8/19/2019	AC Calibration Date
THERMOSELECT	IQUANT	1	Thermo Select
FRAMEWORKVERSION	QUANT	6.33	Framework Version
INSTRUMENTVERSION	LABEL	3.50	Instrument Version
ZCURVE	TABLE
	Pt	Time	Freq	Zreal	Zimag	Zsig	Zmod	Zphz	Idc	Vdc	IERange
	#	s	Hz	ohm	ohm	V	ohm	°	A	V	#
	0	2	1000078	2329.189	-1625.714	1	2840.434	-34.91405	-2.219183E-006	0.0065405	8
	1	4	794390.6	2659.396	-1555.608	1	3080.958	-30.3254	5.149566E-006	0.0047227	8
	2	5	630984.4	2938.183	-1423.443	1	3264.829	-25.84851	-1.040147E-007	0.0053888	8
	3	6	501234.4	3186.657	-1278.546	1	3433.579	-21.86157	1.236886E-006	0.0051217	8
	4	8	398109.4	3369.506	-1112.504	1	3548.413	-18.27158	5.987347E-007	0.0051687	8
	5	9	316265.6	3513.865	-973.642	1	3646.262	-15.48729	-1.582974E-006	0.005604	8
	6	10	251203.1	3621.806	-832.1735	1	3716.179	-12.94011	-2.416429E-007	0.00542	8
	7	12	199546.9	3708.454	-713.7542	1	3776.516	-10.89432	1.121255E-006	0.0050851	8
	8	13	158578.1	3762.259	-615.5155	1	3812.276	-9.291428	1.064681E-006	0.0050944	8
	9	15	125953.1	3828.955	-493.5755	1	3860.636	-7.345268	-3.819936E-007	0.0058358	7
	10	16	100078.1	3858.114	-438.1573	1	3882.914	-6.479193	-3.12535E-008	0.0052934	7
	11	17	79453.13	3889.67	-403.3102	1	3910.523	-5.919702	-7.886229E-009	0.0052278	7
	12	19	63140.62	3919.928	-379.9405	1	3938.298	-5.536121	6.876796E-008	0.0052171	7
	13	20	50203.12	3948.544	-365.8077	1	3965.453	-5.292984	-1.358236E-008	0.0053012	7
	14	22	39890.62	3975.896	-362.131	1	3992.354	-5.204232	9.730229E-009	0.0052007	7
	15	23	31640.63	4005.818	-368.8427	1	4022.763	-5.260776	-3.454143E-008	0.005332	7
	16	24	25171.88	4035.472	-385.0775	1	4053.803	-5.45084	-2.837499E-008	0.0052738	7
	17	26	20015.62	4064.323	-409.824	1	4084.933	-5.757929	5.622405E-008	0.0051651	7
	18	27	15890.62	4099.622	-447.5145	1	4123.975	-6.229738	-6.111851E-008	0.0053581	7
	19	28	12609.37	4136.28	-495.5847	1	4165.863	-6.832273	-2.661536E-008	0.0052728	7
	20	30	10078.13	4172.504	-557.3707	1	4209.566	-7.608632	6.655673E-008	0.0051187	7
	21	31	8015.625	4214.633	-635.2899	1	4262.244	-8.571908	5.957765E-008	0.0051612	7
	22	33	6328.125	4256.998	-733.1053	1	4319.662	-9.77117	-5.468702E-009	0.0052213	7
	23	34	5015.625	4305.808	-854.8369	1	4389.844	-11.22899	-2.708572E-008	0.0052713	7
	24	35	3984.375	4358.468	-987.609	1	4468.961	-12.76736	-7.504934E-009	0.0053676	7
	25	37	3170.956	4415.418	-1187.809	1	4572.396	-15.0569	7.018846E-008	0.0052223	7
	26	38	2527.573	4480.925	-1413.954	1	4698.718	-17.51307	3.607913E-008	0.0051486	7
	27	39	1976.103	4564.625	-1713.59	1	4875.673	-20.57646	-5.919792E-008	0.0053627	7
	28	41	1577.524	4651.782	-2011.537	1	5068.072	-23.38476	-4.081105E-008	0.0053926	7
	29	42	1265.625	4754.194	-2458.378	1	5352.194	-27.34333	7.031502E-008	0.0052225	7
	30	44	998.264	4884.613	-2989.761	1	5726.964	-31.46986	6.872386E-008	0.0051227	7
	31	45	796.875	5025.91	-3603.439	1	6184.217	-35.63948	-3.609479E-008	0.005331	7
	32	46	627.7902	5198.629	-4400.657	1	6811.132	-40.24803	-1.359517E-008	0.0053038	7
	33	48	505.5147	5387.316	-5279.578	1	7543.018	-44.42132	6.692378E-008	0.0051171	7
	34	49	397.9953	5632.534	-6482.408	1	8587.61	-49.01278	4.754845E-009	0.0052801	7
	35	50	315.5048	5913.03	-7921.135	1	9884.75	-53.25911	5.47614E-009	0.0052759	7
	36	52	252.4038	6237.505	-9622.26	1	11467.1	-57.04719	1.530745E-009	0.0052175	6
	37	53	198.6229	6665.146	-11878.43	1	13620.62	-60.70263	7.633073E-010	0.0052139	6
	38	55	158.3615	7171.994	-14513.35	1	16188.72	-63.70301	1.507682E-009	0.005211	6
	39	56	125.558	7827.574	-17840.3	1	19481.97	-66.31015	1.257048E-009	0.005216	6
	40	57	100.4464	8668.775	-21749.66	1	23413.57	-68.26923	5.67365E-010	0.0052143	6
	41	59	79.00281	9766.64	-26981.87	1	28695.1	-70.10124	7.384529E-010	0.0052116	6
	42	60	63.3446	11227.18	-32419.29	1	34308.31	-70.89842	5.317074E-010	0.0052131	6
	43	61	49.86702	13319.86	-40464.67	1	42600.56	-71.77988	3.430896E-010	0.0052099	6
	44	63	39.72458	15589.97	-49204.65	1	51615.35	-72.41975	9.412142E-010	0.005207	6
	45	64	31.6723	18578.67	-59950.23	1	62763.03	-72.78171	7.6426E-011	0.0052093	6
	46	66	24.93351	23247.48	-73356.74	1	76952.3	-72.41608	8.588854E-010	0.0052033	6
	47	67	19.86229	28806.34	-88830.93	1	93384.9	-72.03301	7.27884E-010	0.0052212	6
	48	68	15.83615	36642.02	-107252.2	1	113338.7	-71.1376	1.097327E-009	0.0052175	5
	49	70	12.40079	46544.6	-129955.4	1	138039.1	-70.29459	1.290327E-009	0.0052222	5
	50	71	9.93114	58578.99	-155219.2	1	165905.1	-69.32373	4.790587E-010	0.0052203	5
	51	73	7.944915	74913.45	-183277	1	197996.2	-67.76798	2.27275E-010	0.0052123	5
	52	74	6.317385	94362.42	-215991.7	1	235704.7	-66.40045	7.457081E-010	0.0052149	5
	53	76	5.008013	120351.4	-253336.1	1	280470.4	-64.58918	5.545167E-010	0.0052155	5
	54	79	3.945707	151036.8	-296217.8	1	332501.3	-62.98368	3.88468E-011	0.0052076	5
	55	82	3.158693	188248.4	-338778.8	1	387567.4	-60.94049	3.37312E-010	0.00523	5
	56	85	2.504006	231023.3	-387744.8	1	451351.1	-59.21297	-2.766515E-011	0.0052076	5
	57	88	1.998082	276735.1	-437881.8	1	517998.8	-57.7077	-1.441656E-010	0.0052141	5
	58	91	1.584686	330340.8	-493467	1	593830.6	-56.20053	1.748301E-010	0.0052687	5
	59	95	1.266892	382345.3	-551985.7	1	671473.1	-55.29072	-1.446902E-010	0.0052275	5
	60	99	0.999041	444064.3	-627318.4	1	768584.1	-54.7062	3.316058E-010	0.0052256	5
