EXPLAIN
TAG	EISPOT
TITLE	LABEL	Potentiostatic EIS	Test &Identifier
DATE	LABEL	10/8/2019	Date
TIME	LABEL	10:01:44	Time
NOTES	NOTES	2	&Notes...
	
	
PSTAT	PSTAT	REF600-11020	Potentiostat
VDC	POTEN	0.00000E+000	T	DC &Voltage (V)
FREQINIT	QUANT	1.00000E+006	Initial Fre&q. (Hz)
FREQFINAL	QUANT	1.00000E+000	Final Fre&q. (Hz)
PTSPERDEC	QUANT	1.00000E+001	Points/&decade
VAC	QUANT	2.50000E+001	AC &Voltage (mV rms)
AREA	QUANT	1.00000E-002	&Area (cm^2)
CONDIT	TWOPARAM	T	5.00000E+000	0.00000E+000	Conditionin&g	Time(s)	E(V)
DELAY	TWOPARAM	T	5.00000E+000	0.00000E+000	Init. De&lay	Time(s)	Stab.(mV/s)
SPEED	SELECTOR	1	&Optimize for:
ZGUESS	QUANT	1.00000E+004	E&stimated Z (ohms)
OCVCURVE	TABLE	19
	Pt	T	Vf	Vm	Ach	Over
	#	s	V vs. Ref.	V	V	bits
	0	0.258333	1.20278E-002	1.20278E-002	5.42933E-004	...........
	1	0.516667	1.20228E-002	1.17681E-002	5.48466E-004	...........
	2	0.775	1.19919E-002	1.15001E-002	5.47333E-004	...........
	3	1.03333	1.19069E-002	1.14344E-002	5.45599E-004	...........
	4	1.29167	1.17704E-002	1.15003E-002	5.44466E-004	...........
	5	1.55	1.16322E-002	1.16216E-002	5.46866E-004	...........
	6	1.80833	1.15507E-002	1.17132E-002	5.48933E-004	...........
	7	2.06667	1.15462E-002	1.17170E-002	5.42966E-004	...........
	8	2.325	1.15931E-002	1.16756E-002	5.43866E-004	...........
	9	2.58333	1.16467E-002	1.16505E-002	5.50766E-004	...........
	10	2.84167	1.16766E-002	1.16628E-002	5.49866E-004	...........
	11	3.1	1.16809E-002	1.16834E-002	5.40699E-004	...........
	12	3.35833	1.16757E-002	1.17029E-002	5.44666E-004	...........
	13	3.61667	1.16755E-002	1.17243E-002	5.53566E-004	...........
	14	3.875	1.16850E-002	1.17513E-002	5.54633E-004	...........
	15	4.13333	1.17022E-002	1.17715E-002	5.48733E-004	...........
	16	4.39167	1.17237E-002	1.17940E-002	5.45533E-004	...........
	17	4.65	1.17468E-002	1.18211E-002	5.53233E-004	...........
	18	4.90833	1.17703E-002	1.18503E-002	5.50266E-004	...........
EOC	QUANT	0.0117703	Open Circuit (V)
PSTATMODEL	IQUANT	4	Pstat Model
PSTATSECTION	LABEL	REF600-11020	Pstat Section
PSTATSERIALNO	LABEL	11020	Pstat Serial Number
CTRLMODE	IQUANT	1	Control Mode
IESTAB	IQUANT	0	I/E Stability
CASPEED	IQUANT	1	Control Amp Speed
CONVENTION	IQUANT	1	Current Convention
ICHRANGE	IQUANT	2	Ich Range
ICHRANGEMODE	TOGGLE	F	Ich Auto Range
ICHOFFSETENABLE	TOGGLE	T	Ich Offset Enable
ICHOFFSET	QUANT	0	Ich Offset (V)
ICHFILTER	IQUANT	3	Ich Filter
VCHRANGE	IQUANT	2	Vch Range
VCHRANGEMODE	TOGGLE	F	Vch Auto Range
VCHOFFSETENABLE	TOGGLE	T	Vch Offset Enable
VCHOFFSET	QUANT	0	Vch Offset (V)
VCHFILTER	IQUANT	3	Vch Filter
ACHRANGE	IQUANT	2	Ach Range
ACHOFFSETENABLE	TOGGLE	F	Ach Offset Enable
ACHOFFSET	QUANT	0	Ach Offset (V)
ACHFILTER	IQUANT	3	Ach Filter
IERANGELOWERLIMIT	IQUANT	1	I/E Range Lower Limit
IERANGEMODE	TOGGLE	F	I/E AutoRange
IERANGE	IQUANT	6	I/E Range
POSFEEDENABLE	TOGGLE	F	Positive Feedback IR Comp
POSFEEDRESISTANCE	QUANT	0	Positive Feedback Resistance (ohm)
ACHSELECT	IQUANT	0	Ach Select
CABLEID	IQUANT	14	Cable ID
DCCALDATE	LABEL	8/19/2019	DC Calibration Date
ACCALDATE	LABEL	8/19/2019	AC Calibration Date
THERMOSELECT	IQUANT	1	Thermo Select
FRAMEWORKVERSION	QUANT	6.33	Framework Version
INSTRUMENTVERSION	LABEL	3.50	Instrument Version
ZCURVE	TABLE
	Pt	Time	Freq	Zreal	Zimag	Zsig	Zmod	Zphz	Idc	Vdc	IERange
	#	s	Hz	ohm	ohm	V	ohm	°	A	V	#
	0	2	1000078	2810.771	-1765.348	1	3319.17	-32.1315	6.278625E-006	0.0131391	8
	1	3	794390.6	3117.42	-1684.464	1	3543.406	-28.38408	-3.448233E-006	0.0141986	8
	2	5	630984.4	3415.959	-1572.552	1	3760.544	-24.71919	-2.159881E-006	0.0141581	8
	3	6	501234.4	3658.411	-1427.734	1	3927.136	-21.31875	-4.933469E-006	0.0146891	8
	4	7	398109.4	3888.373	-1284.13	1	4094.928	-18.27573	-2.189221E-006	0.0139213	8
	5	9	316265.6	4048.079	-1156.958	1	4210.166	-15.95015	4.65003E-006	0.0125919	8
	6	10	251203.1	4177.737	-1029.657	1	4302.753	-13.84535	-1.695216E-007	0.013448	8
	7	12	199546.9	4306.222	-949.0834	1	4409.57	-12.42918	-4.632875E-006	0.0144269	8
	8	13	158578.1	4370.477	-859.9037	1	4454.268	-11.13093	4.197068E-006	0.0125577	8
	9	15	125953.1	4467.719	-742.2643	1	4528.958	-9.432928	-4.881609E-007	0.0139728	7
	10	16	100078.1	4532.365	-701.5527	1	4586.339	-8.798833	-5.996053E-008	0.0133511	7
	11	18	79453.13	4597.327	-692.8428	1	4649.241	-8.570299	7.105888E-008	0.013184	7
	12	19	63140.62	4661.419	-696.9565	1	4713.234	-8.503639	5.036231E-008	0.0132394	7
	13	20	50203.12	4727.391	-717.7059	1	4781.562	-8.632644	-4.527885E-008	0.0133184	7
	14	22	39890.62	4798.064	-753.5485	1	4856.877	-8.925544	-4.582893E-008	0.0133828	7
	15	23	31640.63	4875.076	-804.1022	1	4940.946	-9.366121	9.338225E-008	0.0130981	7
	16	24	25171.88	4957.342	-871.2848	1	5033.327	-9.96829	-1.061006E-008	0.0134466	7
	17	26	20015.62	5052.405	-958.229	1	5142.47	-10.73905	-6.980561E-008	0.0135028	7
	18	27	15890.62	5152.458	-1054.605	1	5259.279	-11.56753	-3.892799E-008	0.0133205	7
	19	29	12609.37	5264.986	-1177.98	1	5395.157	-12.61157	9.150543E-008	0.0131001	7
	20	30	10078.13	5387.444	-1315.291	1	5545.678	-13.71981	-2.40267E-009	0.0133309	7
	21	31	8015.625	5525.371	-1489.942	1	5722.731	-15.09113	-5.805087E-008	0.0133298	7
	22	33	6328.125	5694.174	-1679.438	1	5936.677	-16.43288	9.228833E-008	0.0131002	7
	23	34	5015.625	5876.175	-1908.98	1	6178.482	-17.99731	-2.665722E-009	0.0133308	7
	24	35	3984.375	6078.209	-2170.824	1	6454.231	-19.65411	-3.421079E-008	0.0132988	7
	25	37	3170.956	6317.012	-2473.374	1	6783.968	-21.38242	-2.350137E-008	0.0132593	7
	26	38	2527.573	6584.566	-2818.846	1	7162.57	-23.17572	-6.861359E-008	0.013497	7
	27	39	1976.103	6923.939	-3235.525	1	7642.615	-25.04646	1.55038E-007	0.0130507	7
	28	41	1577.524	7266.104	-3705.397	1	8156.362	-27.01961	-3.450004E-008	0.0132916	7
	29	42	1265.625	7651.098	-4152.197	1	8705.174	-28.48837	4.575417E-008	0.0131276	7
	30	44	998.264	8105.919	-4740.755	1	9390.457	-30.32128	1.07753E-007	0.0132162	7
	31	45	796.875	8549.436	-5348.38	1	10084.54	-32.02939	-4.963868E-010	0.0133928	6
	32	46	627.7902	9034.034	-6110.388	1	10906.45	-34.07341	-1.077162E-008	0.0134651	6
	33	48	505.5147	9472.938	-6946.375	1	11746.86	-36.25208	2.061802E-008	0.0128606	6
	34	49	397.9953	9936.44	-8085.667	1	12810.58	-39.13659	2.845059E-010	0.0132434	6
	35	50	315.5048	10383.6	-9476.709	1	14057.99	-42.3855	1.049632E-009	0.0132414	6
	36	52	252.4038	10821.55	-11163.19	1	15547.43	-45.89029	1.05905E-009	0.0132322	6
	37	53	198.6229	11330.02	-13453.63	1	17588.9	-49.89747	6.363335E-010	0.0132337	6
	38	55	158.3615	11869.83	-16193.64	1	20078.01	-53.75883	9.656423E-010	0.0132344	6
	39	56	125.558	12528.61	-19704.42	1	23350.17	-57.55068	4.593628E-010	0.0132403	6
	40	57	100.4464	13291.27	-23880.93	1	27330.51	-60.90125	1.751001E-010	0.013238	6
	41	59	79.00281	14341.96	-29534.15	1	32832.27	-64.09852	-7.779673E-011	0.0132386	6
	42	60	63.3446	15547.93	-35575.45	1	38824.61	-66.3927	1.097786E-010	0.013239	6
	43	62	49.86702	17645.31	-44438.16	1	47813.25	-68.34318	-2.023696E-011	0.0132353	6
	44	63	39.72458	19621.48	-54188.53	1	57631.58	-70.09486	1.438475E-010	0.0132398	6
	45	64	31.6723	22453.38	-66181.24	1	69886.41	-71.25941	5.959139E-010	0.0132433	6
	46	66	24.93351	26559.58	-81378.21	1	85602.71	-71.92476	4.40645E-010	0.0132397	6
	47	67	19.86229	31567.65	-99092.9	1	103999.7	-72.32989	5.468846E-010	0.0132398	6
	48	68	15.83615	38034.79	-120105.4	1	125983.9	-72.42812	3.970266E-010	0.0132403	5
	49	70	12.40079	46037.16	-148223	1	155207.9	-72.74552	5.017282E-010	0.013245	5
	50	71	9.93114	56396.62	-177314.8	1	186067.5	-72.35625	-6.988705E-012	0.0132448	5
	51	73	7.944915	69181.55	-212553.7	1	223528.8	-71.97107	-1.737511E-010	0.0132416	5
	52	74	6.317385	85776.58	-255884.2	1	269878.4	-71.468	-6.17435E-011	0.0132502	5
	53	76	5.008013	106797.6	-307805.7	1	325806.8	-70.86505	1.095758E-011	0.0132389	5
	54	79	3.945707	133646.3	-370395.6	1	393769.3	-70.15952	2.116843E-010	0.0132476	5
	55	81	3.158693	165009.9	-439000.6	1	468988.1	-69.39996	6.87981E-011	0.0132553	5
	56	85	2.504006	204002.1	-522390.3	1	560810.6	-68.66853	1.055295E-010	0.013236	5
	57	87	1.998082	249162	-616208.4	1	664676.2	-67.98421	1.030915E-011	0.013246	5
	58	91	1.584686	308365.9	-729161.4	1	791685.4	-67.07626	9.481656E-011	0.0132939	5
	59	94	1.266892	371043	-856039.8	1	932993.6	-66.5661	3.287653E-011	0.0132303	5
	60	98	0.999041	453864.8	-1014431	1	1111335	-65.89587	1.262539E-010	0.0132752	4
