EXPLAIN
TAG	EISPOT
TITLE	LABEL	Potentiostatic EIS	Test &Identifier
DATE	LABEL	10/14/2019	Date
TIME	LABEL	11:43:18	Time
NOTES	NOTES	1	&Notes...
	
PSTAT	PSTAT	REF600-11020	Potentiostat
VDC	POTEN	0.00000E+000	T	DC &Voltage (V)
FREQINIT	QUANT	1.00000E+006	Initial Fre&q. (Hz)
FREQFINAL	QUANT	1.00000E+000	Final Fre&q. (Hz)
PTSPERDEC	QUANT	1.00000E+001	Points/&decade
VAC	QUANT	2.50000E+001	AC &Voltage (mV rms)
AREA	QUANT	1.00000E-002	&Area (cm^2)
CONDIT	TWOPARAM	T	5.00000E+000	0.00000E+000	Conditionin&g	Time(s)	E(V)
DELAY	TWOPARAM	T	5.00000E+000	0.00000E+000	Init. De&lay	Time(s)	Stab.(mV/s)
SPEED	SELECTOR	1	&Optimize for:
ZGUESS	QUANT	1.00000E+004	E&stimated Z (ohms)
OCVCURVE	TABLE	19
	Pt	T	Vf	Vm	Ach	Over
	#	s	V vs. Ref.	V	V	bits
	0	0.258333	6.26126E-003	6.26126E-003	5.37066E-004	...........
	1	0.516667	6.26070E-003	6.23228E-003	5.53233E-004	...........
	2	0.775	6.25761E-003	6.22078E-003	5.47833E-004	...........
	3	1.03333	6.25014E-003	6.22389E-003	5.42999E-004	...........
	4	1.29167	6.24006E-003	6.23416E-003	5.47299E-004	...........
	5	1.55	6.23237E-003	6.24887E-003	5.54766E-004	...........
	6	1.80833	6.23131E-003	6.27288E-003	5.45133E-004	...........
	7	2.06667	6.23825E-003	6.29578E-003	5.36766E-004	...........
	8	2.325	6.25246E-003	6.32458E-003	5.55666E-004	...........
	9	2.58333	6.27236E-003	6.35504E-003	5.50899E-004	...........
	10	2.84167	6.29652E-003	6.38733E-003	5.39566E-004	...........
	11	3.1	6.32391E-003	6.41960E-003	5.38999E-004	...........
	12	3.35833	6.35358E-003	6.44794E-003	5.54233E-004	...........
	13	3.61667	6.38446E-003	6.48099E-003	5.57532E-004	...........
	14	3.875	6.41578E-003	6.51768E-003	5.41499E-004	...........
	15	4.13333	6.44754E-003	6.54725E-003	5.43999E-004	...........
	16	4.39167	6.47992E-003	6.57925E-003	5.52066E-004	...........
	17	4.65	6.51254E-003	6.61141E-003	5.53299E-004	...........
	18	4.90833	6.54492E-003	6.64406E-003	5.43066E-004	...........
EOC	QUANT	0.0065449	Open Circuit (V)
PSTATMODEL	IQUANT	4	Pstat Model
PSTATSECTION	LABEL	REF600-11020	Pstat Section
PSTATSERIALNO	LABEL	11020	Pstat Serial Number
CTRLMODE	IQUANT	1	Control Mode
IESTAB	IQUANT	0	I/E Stability
CASPEED	IQUANT	1	Control Amp Speed
CONVENTION	IQUANT	1	Current Convention
ICHRANGE	IQUANT	2	Ich Range
ICHRANGEMODE	TOGGLE	F	Ich Auto Range
ICHOFFSETENABLE	TOGGLE	T	Ich Offset Enable
ICHOFFSET	QUANT	0	Ich Offset (V)
ICHFILTER	IQUANT	3	Ich Filter
VCHRANGE	IQUANT	2	Vch Range
VCHRANGEMODE	TOGGLE	F	Vch Auto Range
VCHOFFSETENABLE	TOGGLE	T	Vch Offset Enable
VCHOFFSET	QUANT	0	Vch Offset (V)
VCHFILTER	IQUANT	3	Vch Filter
ACHRANGE	IQUANT	2	Ach Range
ACHOFFSETENABLE	TOGGLE	F	Ach Offset Enable
ACHOFFSET	QUANT	0	Ach Offset (V)
ACHFILTER	IQUANT	3	Ach Filter
IERANGELOWERLIMIT	IQUANT	1	I/E Range Lower Limit
IERANGEMODE	TOGGLE	F	I/E AutoRange
IERANGE	IQUANT	6	I/E Range
POSFEEDENABLE	TOGGLE	F	Positive Feedback IR Comp
POSFEEDRESISTANCE	QUANT	0	Positive Feedback Resistance (ohm)
ACHSELECT	IQUANT	0	Ach Select
CABLEID	IQUANT	14	Cable ID
DCCALDATE	LABEL	8/19/2019	DC Calibration Date
ACCALDATE	LABEL	8/19/2019	AC Calibration Date
THERMOSELECT	IQUANT	1	Thermo Select
FRAMEWORKVERSION	QUANT	6.33	Framework Version
INSTRUMENTVERSION	LABEL	3.50	Instrument Version
ZCURVE	TABLE
	Pt	Time	Freq	Zreal	Zimag	Zsig	Zmod	Zphz	Idc	Vdc	IERange
	#	s	Hz	ohm	ohm	V	ohm	°	A	V	#
	0	1	1000078	2007.17	-842.7951	1	2176.932	-22.77716	-2.368151E-006	0.0088108	8
	1	2	794390.6	2134.073	-751.0388	1	2262.372	-19.38836	-4.383513E-006	0.0093645	8
	2	4	630984.4	2237.901	-687.8979	1	2341.24	-17.08666	3.265908E-006	0.0077946	8
	3	5	501234.4	2322.141	-615.5001	1	2402.327	-14.84529	-2.375787E-006	0.0085913	8
	4	6	398109.4	2384.887	-538.709	1	2444.973	-12.72861	-2.105118E-006	0.0087374	8
	5	8	316265.6	2452.206	-492.9789	1	2501.268	-11.36693	2.147637E-006	0.0076689	8
	6	9	251203.1	2502.73	-451.7204	1	2543.169	-10.23122	-6.65065E-007	0.0081041	8
	7	10	199546.9	2539.926	-407.9456	1	2572.478	-9.124528	3.990509E-006	0.0074355	8
	8	12	158578.1	2581.465	-398.2448	1	2612.003	-8.769933	3.182652E-006	0.0074903	8
	9	13	125953.1	2632.583	-354.8215	1	2656.386	-7.676111	5.531633E-007	0.0065578	7
	10	15	100078.1	2669.583	-348.7388	1	2692.265	-7.442642	-6.214064E-008	0.0081703	7
	11	16	79453.13	2706.077	-357.3495	1	2729.57	-7.522635	-7.699892E-008	0.0082609	7
	12	17	63140.62	2745.749	-372.2924	1	2770.873	-7.721568	5.363926E-008	0.0079497	7
	13	19	50203.12	2789.484	-389.7675	1	2816.583	-7.954294	1.736405E-008	0.0079778	7
	14	20	39890.62	2834.733	-411.8551	1	2864.496	-8.266596	-7.030883E-008	0.0081342	7
	15	21	31640.63	2883.498	-439.1322	1	2916.744	-8.659125	1.484027E-008	0.0079766	7
	16	23	25171.88	2934.091	-472.3566	1	2971.87	-9.145522	-1.679211E-008	0.0081047	7
	17	24	20015.62	2988.976	-512.7084	1	3032.631	-9.7334	-8.722313E-009	0.0080713	7
	18	25	15890.62	3050.273	-559.5006	1	3101.162	-10.39402	1.504345E-008	0.0080027	7
	19	27	12609.37	3116.015	-614.5967	1	3176.047	-11.15769	1.898657E-010	0.0079857	7
	20	28	10078.13	3186.056	-675.7117	1	3256.922	-11.9741	-2.335397E-008	0.0080272	7
	21	30	8015.625	3266.459	-744.6719	1	3350.268	-12.84254	5.214848E-008	0.0079457	7
	22	31	6328.125	3353.092	-828.8393	1	3454.012	-13.88443	-1.735788E-008	0.0080991	7
	23	32	5015.625	3445.398	-921.4875	1	3566.498	-14.97356	-3.588069E-008	0.0081184	7
	24	34	3984.375	3539.973	-1025.428	1	3685.5	-16.15478	-1.073661E-008	0.008065	7
	25	35	3170.956	3637.185	-1146.409	1	3813.576	-17.4944	-3.194888E-008	0.0080355	7
	26	36	2527.573	3734.258	-1291.995	1	3951.447	-19.08482	1.615298E-008	0.0079668	7
	27	38	1976.103	3839.854	-1484.974	1	4116.992	-21.14281	4.521472E-008	0.0078948	7
	28	39	1577.524	3942.638	-1710.037	1	4297.513	-23.44778	-2.320238E-008	0.0080193	7
	29	41	1265.625	4034.326	-1975.124	1	4491.871	-26.08543	-4.071049E-010	0.0079759	7
	30	42	998.264	4143.742	-2338.757	1	4758.191	-29.44069	8.191298E-009	0.0081231	7
	31	43	796.875	4256.06	-2767.019	1	5076.459	-33.02935	3.945816E-010	0.0079779	7
	32	45	627.7902	4386.467	-3337.785	1	5511.978	-37.26852	1.741477E-008	0.0079637	7
	33	46	505.5147	4518.775	-3983.01	1	6023.595	-41.3941	1.579197E-008	0.007992	7
	34	47	397.9953	4689.093	-4864.561	1	6756.593	-46.05221	4.308963E-009	0.0080459	7
	35	49	315.5048	4884.623	-5935.091	1	7686.667	-50.54538	5.108925E-009	0.0080419	7
	36	50	252.4038	5112.802	-7207.835	1	8837.061	-54.65041	4.057531E-009	0.0080397	7
	37	51	198.6229	5416.796	-8900.769	1	10419.47	-58.6763	7.173417E-010	0.0079791	6
	38	53	158.3615	5777.432	-10883.88	1	12322.24	-62.03954	7.698319E-010	0.0079752	6
	39	54	125.558	6245.477	-13383.62	1	14769.13	-64.98385	6.536917E-010	0.0079811	6
	40	56	100.4464	6820.483	-16328	1	17695.27	-67.32887	4.38125E-010	0.0079797	6
	41	57	79.00281	7638.218	-20224.89	1	21619.18	-69.31024	4.03029E-010	0.0079759	6
	42	58	63.3446	8629.437	-24732.18	1	26194.42	-70.76534	8.698896E-010	0.0079787	6
	43	60	49.86702	9878.33	-30400.59	1	31965.25	-71.99901	1.249066E-009	0.0079717	6
	44	61	39.72458	11651.94	-37175.74	1	38958.99	-72.59752	-7.571315E-011	0.0079762	6
	45	63	31.6723	13942.17	-45340.53	1	47435.72	-72.90739	2.585941E-010	0.0079769	6
	46	64	24.93351	16999.34	-55700.8	1	58237.07	-73.02832	3.663757E-010	0.0079744	6
	47	65	19.86229	20908.29	-67576.2	1	70736.83	-72.80777	2.176837E-010	0.0079747	6
	48	67	15.83615	25894.79	-81497.48	1	85512.45	-72.37301	6.486169E-010	0.007976	6
	49	68	12.40079	33459.38	-99583.6	1	105054.4	-71.42802	-4.799243E-010	0.0079837	6
	50	70	9.93114	41683.49	-119162	1	126242.2	-70.7199	2.155998E-010	0.0079885	5
	51	71	7.944915	52527.3	-141606.6	1	151034.9	-69.64825	5.422081E-010	0.0079914	5
	52	73	6.317385	66363.73	-168177.9	1	180798.1	-68.4656	-2.53168E-010	0.0079963	5
	53	75	5.008013	83959.05	-198903.5	1	215897.5	-67.11494	-4.972262E-011	0.0079807	5
	54	77	3.945707	105855.6	-234486.7	1	257273	-65.7039	4.192302E-010	0.0079947	5
	55	80	3.158693	130030.8	-272488.8	1	301924.1	-64.48966	-1.409578E-010	0.0079774	5
	56	83	2.504006	159457.8	-316626.6	1	354512.6	-63.2695	5.502167E-010	0.0079911	5
	57	86	1.998082	192335.3	-365411.7	1	412939	-62.23982	2.978471E-010	0.0080073	5
	58	89	1.584686	231564	-421300.4	1	480745.2	-61.20499	1.106168E-010	0.007943	5
	59	93	1.266892	273451.5	-485154.8	1	556911.9	-60.59275	1.906283E-010	0.0080011	5
	60	97	0.999041	325298.3	-562719.4	1	649978.5	-59.96854	-1.880188E-010	0.0079616	5
