EXPLAIN
TAG	EISPOT
TITLE	LABEL	Potentiostatic IDE	Test &Identifier
DATE	LABEL	9/14/2019	Date
TIME	LABEL	9:54:01	Time
NOTES	NOTES	1	&Notes...
	
PSTAT	PSTAT	REF600-11020	Potentiostat
VDC	POTEN	0.00000E+000	T	DC &Voltage (V)
FREQINIT	QUANT	1.00000E+006	Initial Fre&q. (Hz)
FREQFINAL	QUANT	1.00000E+000	Final Fre&q. (Hz)
PTSPERDEC	QUANT	1.00000E+001	Points/&decade
VAC	QUANT	2.50000E+001	AC &Voltage (mV rms)
AREA	QUANT	1.00000E-002	&Area (cm^2)
CONDIT	TWOPARAM	T	5.00000E+000	0.00000E+000	Conditionin&g	Time(s)	E(V)
DELAY	TWOPARAM	T	5.00000E+000	0.00000E+000	Init. De&lay	Time(s)	Stab.(mV/s)
SPEED	SELECTOR	1	&Optimize for:
ZGUESS	QUANT	1.00000E+007	E&stimated Z (ohms)
OCVCURVE	TABLE	18
	Pt	T	Vf	Vm	Ach	Over
	#	s	V vs. Ref.	V	V	bits
	0	0.258333	4.26072E-003	4.26072E-003	5.59399E-004	...........
	1	0.516667	4.25681E-003	4.05605E-003	5.51433E-004	...........
	2	0.775	4.23285E-003	3.86429E-003	5.54399E-004	...........
	3	1.03333	4.16528E-003	3.68500E-003	5.57599E-004	...........
	4	1.29167	4.04527E-003	3.52374E-003	5.54799E-004	...........
	5	1.55	3.88814E-003	3.38896E-003	5.56633E-004	...........
	6	1.80833	3.71864E-003	3.23518E-003	5.51199E-004	...........
	7	2.06667	3.55413E-003	3.11333E-003	5.53833E-004	...........
	8	2.325	3.40091E-003	2.99520E-003	5.57799E-004	...........
	9	2.58333	3.25961E-003	2.88115E-003	5.49899E-004	...........
	10	2.84167	3.12918E-003	2.77152E-003	5.54199E-004	...........
	11	3.1	3.00779E-003	2.67451E-003	5.52832E-004	...........
	12	3.35833	2.89359E-003	2.56869E-003	5.53166E-004	...........
	13	3.61667	2.78525E-003	2.47892E-003	5.51566E-004	...........
	14	3.875	2.68182E-003	2.38948E-003	5.49699E-004	...........
	15	4.13333	2.58287E-003	2.29717E-003	5.52966E-004	...........
	16	4.39167	2.48797E-003	2.21338E-003	5.53666E-004	...........
	17	4.65	2.39653E-003	2.13718E-003	5.50899E-004	...........
EOC	QUANT	0.0023084	Open Circuit (V)
PSTATMODEL	IQUANT	4	Pstat Model
PSTATSECTION	LABEL	REF600-11020	Pstat Section
PSTATSERIALNO	LABEL	11020	Pstat Serial Number
CTRLMODE	IQUANT	1	Control Mode
IESTAB	IQUANT	0	I/E Stability
CASPEED	IQUANT	1	Control Amp Speed
CONVENTION	IQUANT	1	Current Convention
ICHRANGE	IQUANT	2	Ich Range
ICHRANGEMODE	TOGGLE	F	Ich Auto Range
ICHOFFSETENABLE	TOGGLE	T	Ich Offset Enable
ICHOFFSET	QUANT	0	Ich Offset (V)
ICHFILTER	IQUANT	3	Ich Filter
VCHRANGE	IQUANT	2	Vch Range
VCHRANGEMODE	TOGGLE	F	Vch Auto Range
VCHOFFSETENABLE	TOGGLE	T	Vch Offset Enable
VCHOFFSET	QUANT	0	Vch Offset (V)
VCHFILTER	IQUANT	3	Vch Filter
ACHRANGE	IQUANT	2	Ach Range
ACHOFFSETENABLE	TOGGLE	F	Ach Offset Enable
ACHOFFSET	QUANT	0	Ach Offset (V)
ACHFILTER	IQUANT	3	Ach Filter
IERANGELOWERLIMIT	IQUANT	1	I/E Range Lower Limit
IERANGEMODE	TOGGLE	F	I/E AutoRange
IERANGE	IQUANT	2	I/E Range
POSFEEDENABLE	TOGGLE	F	Positive Feedback IR Comp
POSFEEDRESISTANCE	QUANT	0	Positive Feedback Resistance (ohm)
ACHSELECT	IQUANT	0	Ach Select
CABLEID	IQUANT	14	Cable ID
DCCALDATE	LABEL	8/19/2019	DC Calibration Date
ACCALDATE	LABEL	8/19/2019	AC Calibration Date
THERMOSELECT	IQUANT	1	Thermo Select
FRAMEWORKVERSION	QUANT	6.33	Framework Version
INSTRUMENTVERSION	LABEL	3.50	Instrument Version
ZCURVE	TABLE
	Pt	Time	Freq	Zreal	Zimag	Zsig	Zmod	Zphz	Idc	Vdc	IERange
	#	s	Hz	ohm	ohm	V	ohm	°	A	V	#
	0	2	1000078	2494.251	-1822.386	1	3089.074	-36.15316	-5.42115E-006	0.0049755	8
	1	4	794390.6	2866.574	-1720.928	1	3343.478	-30.9782	-6.561277E-007	0.0045158	8
	2	6	630984.4	3182.429	-1582.496	1	3554.173	-26.43935	-1.082395E-006	0.0045006	8
	3	7	501234.4	3453.75	-1426.555	1	3736.77	-22.44284	4.233391E-006	0.0032277	8
	4	8	398109.4	3664.321	-1239.891	1	3868.408	-18.6942	-1.298834E-006	0.0041804	8
	5	10	316265.6	3802.438	-1076.016	1	3951.752	-15.80048	-1.823521E-006	0.0041079	8
	6	11	251203.1	3929.233	-935.0552	1	4038.96	-13.38592	-7.817018E-007	0.0041325	8
	7	13	199546.9	4006.796	-814.1027	1	4088.665	-11.48504	3.700364E-006	0.0032077	8
	8	14	158578.1	4092.608	-693.1648	1	4150.893	-9.61296	-9.028537E-007	0.0041302	8
	9	15	125953.1	4171.136	-557.5192	1	4208.23	-7.613102	3.17046E-007	0.0031901	7
	10	17	100078.1	4201.978	-507.5622	1	4232.521	-6.887462	7.737011E-011	0.0037924	7
	11	18	79453.13	4238.268	-474.9831	1	4264.8	-6.394462	-7.798728E-009	0.0038883	7
	12	19	63140.62	4275.189	-454.5954	1	4299.291	-6.069648	3.072214E-008	0.0038155	7
	13	21	50203.12	4310.181	-446.498	1	4333.246	-5.914259	-3.623699E-008	0.0039713	7
	14	22	39890.62	4346.655	-449.838	1	4369.87	-5.908541	2.25579E-009	0.0037848	7
	15	23	31640.63	4384.948	-465.8192	1	4409.621	-6.063869	-4.169397E-008	0.0039078	7
	16	25	25171.88	4424.824	-492.653	1	4452.166	-6.353057	-1.662025E-008	0.0039688	7
	17	26	20015.62	4469.321	-529.5047	1	4500.578	-6.756647	8.316991E-008	0.003673	7
	18	27	15890.62	4513.165	-575.7433	1	4549.741	-7.269941	1.835415E-009	0.0037813	7
	19	29	12609.37	4568.986	-642.1711	1	4613.894	-8.000516	2.531359E-008	0.0037595	7
	20	30	10078.13	4623.296	-718.9745	1	4678.867	-8.839335	-3.837635E-008	0.0039712	7
	21	31	8015.625	4681.875	-814.6519	1	4752.221	-9.87071	1.326298E-007	0.0036513	7
	22	33	6328.125	4748.709	-934.8526	1	4839.854	-11.13709	-3.851855E-008	0.0038681	7
	23	34	5015.625	4818.999	-1079.313	1	4938.387	-12.62422	2.274508E-009	0.0037847	7
	24	35	3984.375	4896.744	-1256.868	1	5055.474	-14.39559	1.301998E-007	0.0036566	7
	25	37	3170.956	4979.098	-1469.751	1	5191.492	-16.44577	2.439943E-008	0.0037611	7
	26	38	2527.573	5072.153	-1729.372	1	5358.868	-18.82702	7.712221E-008	0.0036988	7
	27	39	1976.103	5184.002	-2075.294	1	5583.97	-21.81754	4.964191E-008	0.0037035	7
	28	40	1577.524	5299.46	-2467.086	1	5845.579	-24.96364	-1.41246E-008	0.0039751	7
	29	42	1265.625	5434.942	-2930.597	1	6174.707	-28.33417	4.83855E-008	0.0036935	7
	30	43	998.264	5597.435	-3540.368	1	6623.103	-32.31329	-3.141603E-008	0.0038425	7
	31	44	796.875	5778.451	-4249.697	1	7172.895	-36.33221	-1.886746E-008	0.0039825	7
	32	46	627.7902	6002.945	-5160.39	1	7916.121	-40.68377	-1.919702E-010	0.0037841	7
	33	47	505.5147	6237.552	-6182.106	1	8782.111	-44.74421	-5.050208E-008	0.0039412	7
	34	48	397.9953	6540.139	-7548.802	1	9987.88	-49.09496	5.715555E-009	0.0038628	7
	35	50	315.5048	6888.323	-9186.229	1	11481.98	-53.13549	6.642257E-010	0.0038035	6
	36	51	252.4038	7274.164	-11119.64	1	13287.58	-56.80839	6.783277E-010	0.0037976	6
	37	52	198.6229	7770.501	-13677.79	1	15730.94	-60.39862	8.601942E-010	0.0038005	6
	38	54	158.3615	8334.745	-16667.31	1	18635.11	-63.43195	1.060743E-009	0.0037979	6
	39	55	125.558	9055.112	-20448.84	1	22364.03	-66.11538	1.925351E-009	0.0038001	6
	40	56	100.4464	9922.71	-24946.12	1	26847.14	-68.30903	1.129019E-009	0.0038008	6
	41	58	79.00281	11095.47	-30911.28	1	32842.3	-70.25462	5.566619E-010	0.0037967	6
	42	59	63.3446	12453.2	-37919.46	1	39912	-71.81921	1.343374E-009	0.0037946	6
	43	61	49.86702	14384.36	-46168.22	1	48357.15	-72.69484	1.079121E-009	0.0037936	6
	44	62	39.72458	17062.57	-56667.5	1	59180.54	-73.24296	1.358258E-009	0.0037993	6
	45	63	31.6723	20243.82	-69330.13	1	72225.2	-73.72263	1.189562E-009	0.0037994	6
	46	65	24.93351	24954.71	-85255.82	1	88832.95	-73.68504	9.987776E-010	0.0037926	6
	47	66	19.86229	30708.9	-103644.7	1	108098.4	-73.49596	2.908535E-010	0.0037964	5
	48	67	15.83615	38718.2	-124898.8	1	130762.4	-72.77674	-1.01588E-010	0.0038	5
	49	69	12.40079	48798.52	-154014.8	1	161560.7	-72.41956	5.855065E-010	0.0038012	5
	50	70	9.93114	62000.34	-184627.6	1	194759.8	-71.43728	5.079654E-010	0.0038052	5
	51	72	7.944915	78458.12	-219688	1	233277.7	-70.34661	8.298388E-010	0.0037977	5
	52	73	6.317385	101370.1	-261643.8	1	280594.6	-68.82186	4.824565E-010	0.0037893	5
	53	75	5.008013	130080.2	-310756.1	1	336883.1	-67.28617	-4.041281E-011	0.0037956	5
	54	78	3.945707	167384.1	-366711.6	1	403106.5	-65.46586	5.234174E-010	0.0038067	5
	55	81	3.158693	210281	-426515.7	1	475535.2	-63.75576	3.031999E-011	0.003787	5
	56	84	2.504006	264457.5	-492900.1	1	559364.1	-61.78495	6.363711E-010	0.003804	5
	57	87	1.998082	327609.9	-562978.3	1	651362.3	-59.8039	3.748809E-010	0.003838	5
	58	90	1.584686	399784.6	-637875.1	1	752803	-57.92281	3.621256E-010	0.0037713	5
	59	93	1.266892	481863.3	-718259.6	1	864921.4	-56.14328	3.13491E-010	0.0038334	5
	60	98	0.999041	576237.3	-807051.4	1	991656	-54.47304	1.274057E-010	0.0037555	5
