EXPLAIN
TAG	EISPOT
TITLE	LABEL	Potentiostatic IDE	Test &Identifier
DATE	LABEL	9/18/2019	Date
TIME	LABEL	9:42:36	Time
NOTES	NOTES	1	&Notes...
	
PSTAT	PSTAT	REF600-11020	Potentiostat
VDC	POTEN	0.00000E+000	T	DC &Voltage (V)
FREQINIT	QUANT	1.00000E+006	Initial Fre&q. (Hz)
FREQFINAL	QUANT	1.00000E+000	Final Fre&q. (Hz)
PTSPERDEC	QUANT	1.00000E+001	Points/&decade
VAC	QUANT	2.50000E+001	AC &Voltage (mV rms)
AREA	QUANT	1.00000E-002	&Area (cm^2)
CONDIT	TWOPARAM	T	5.00000E+000	0.00000E+000	Conditionin&g	Time(s)	E(V)
DELAY	TWOPARAM	T	5.00000E+000	0.00000E+000	Init. De&lay	Time(s)	Stab.(mV/s)
SPEED	SELECTOR	1	&Optimize for:
ZGUESS	QUANT	1.00000E+007	E&stimated Z (ohms)
OCVCURVE	TABLE	19
	Pt	T	Vf	Vm	Ach	Over
	#	s	V vs. Ref.	V	V	bits
	0	0.258333	2.35659E-002	2.35659E-002	5.71099E-004	...........
	1	0.516667	2.35795E-002	2.42779E-002	5.70732E-004	...........
	2	0.775	2.36652E-002	2.50679E-002	5.67732E-004	...........
	3	1.03333	2.39155E-002	2.58525E-002	5.69866E-004	...........
	4	1.29167	2.43785E-002	2.65395E-002	5.66799E-004	...........
	5	1.55	2.50120E-002	2.72594E-002	5.64932E-004	...........
	6	1.80833	2.57301E-002	2.79804E-002	5.71432E-004	...........
	7	2.06667	2.64690E-002	2.87642E-002	5.68632E-004	...........
	8	2.325	2.72030E-002	2.92476E-002	5.70132E-004	...........
	9	2.58333	2.79119E-002	2.96344E-002	5.78532E-004	...........
	10	2.84167	2.85580E-002	2.99798E-002	5.73432E-004	...........
	11	3.1	2.91110E-002	3.04617E-002	5.70266E-004	...........
	12	3.35833	2.95816E-002	3.09094E-002	5.73132E-004	...........
	13	3.61667	3.00112E-002	3.13116E-002	5.66932E-004	...........
	14	3.875	3.04329E-002	3.17087E-002	5.75666E-004	...........
	15	4.13333	3.08534E-002	3.20832E-002	5.72632E-004	...........
	16	4.39167	3.12652E-002	3.24371E-002	5.71699E-004	...........
	17	4.65	3.16615E-002	3.27888E-002	5.73299E-004	...........
	18	4.90833	3.20405E-002	3.31283E-002	5.67732E-004	...........
EOC	QUANT	0.0320405	Open Circuit (V)
PSTATMODEL	IQUANT	4	Pstat Model
PSTATSECTION	LABEL	REF600-11020	Pstat Section
PSTATSERIALNO	LABEL	11020	Pstat Serial Number
CTRLMODE	IQUANT	1	Control Mode
IESTAB	IQUANT	0	I/E Stability
CASPEED	IQUANT	1	Control Amp Speed
CONVENTION	IQUANT	1	Current Convention
ICHRANGE	IQUANT	2	Ich Range
ICHRANGEMODE	TOGGLE	F	Ich Auto Range
ICHOFFSETENABLE	TOGGLE	T	Ich Offset Enable
ICHOFFSET	QUANT	0	Ich Offset (V)
ICHFILTER	IQUANT	3	Ich Filter
VCHRANGE	IQUANT	2	Vch Range
VCHRANGEMODE	TOGGLE	F	Vch Auto Range
VCHOFFSETENABLE	TOGGLE	T	Vch Offset Enable
VCHOFFSET	QUANT	0	Vch Offset (V)
VCHFILTER	IQUANT	3	Vch Filter
ACHRANGE	IQUANT	2	Ach Range
ACHOFFSETENABLE	TOGGLE	F	Ach Offset Enable
ACHOFFSET	QUANT	0	Ach Offset (V)
ACHFILTER	IQUANT	3	Ach Filter
IERANGELOWERLIMIT	IQUANT	1	I/E Range Lower Limit
IERANGEMODE	TOGGLE	F	I/E AutoRange
IERANGE	IQUANT	3	I/E Range
POSFEEDENABLE	TOGGLE	F	Positive Feedback IR Comp
POSFEEDRESISTANCE	QUANT	0	Positive Feedback Resistance (ohm)
ACHSELECT	IQUANT	0	Ach Select
CABLEID	IQUANT	14	Cable ID
DCCALDATE	LABEL	8/19/2019	DC Calibration Date
ACCALDATE	LABEL	8/19/2019	AC Calibration Date
THERMOSELECT	IQUANT	1	Thermo Select
FRAMEWORKVERSION	QUANT	6.33	Framework Version
INSTRUMENTVERSION	LABEL	3.50	Instrument Version
ZCURVE	TABLE
	Pt	Time	Freq	Zreal	Zimag	Zsig	Zmod	Zphz	Idc	Vdc	IERange
	#	s	Hz	ohm	ohm	V	ohm	°	A	V	#
	0	2	1000078	2313.283	-1830.154	1	2949.702	-38.34928	4.032207E-007	0.0342309	8
	1	3	794390.6	2681.261	-1772.028	1	3213.915	-33.46046	2.935449E-006	0.0332678	8
	2	4	630984.4	3013.545	-1665.816	1	3443.312	-28.93278	-1.539286E-006	0.033921	8
	3	6	501234.4	3312.617	-1535.885	1	3651.353	-24.87466	3.985488E-006	0.032993	8
	4	7	398109.4	3547.637	-1386.162	1	3808.828	-21.34199	-1.734568E-006	0.033919	8
	5	8	316265.6	3722.935	-1205.321	1	3913.188	-17.93965	2.47159E-006	0.0330766	8
	6	10	251203.1	3861.744	-1072.17	1	4007.819	-15.51672	6.285613E-007	0.0334261	8
	7	11	199546.9	3967.591	-941.9626	1	4077.875	-13.35557	-7.398954E-007	0.0338082	8
	8	12	158578.1	4080.423	-841.7514	1	4166.341	-11.65605	-5.839915E-007	0.0338085	8
	9	14	125953.1	4147.189	-751.7405	1	4214.771	-10.27417	-1.869287E-007	0.0338081	7
	10	15	100078.1	4213.277	-698.0222	1	4270.707	-9.406866	-3.483992E-008	0.0335718	7
	11	16	79453.13	4273.342	-674.1232	1	4326.188	-8.964581	5.375967E-008	0.0334411	7
	12	18	63140.62	4332.668	-666.3521	1	4383.61	-8.74342	-1.241498E-008	0.0335106	7
	13	19	50203.12	4393.807	-673.6439	1	4445.147	-8.716525	1.813916E-008	0.033471	7
	14	20	39890.62	4451.851	-695.4227	1	4505.839	-8.878411	3.383036E-008	0.0334735	7
	15	22	31640.63	4523.994	-734.934	1	4583.301	-9.227233	4.083133E-008	0.0334347	7
	16	23	25171.88	4596.862	-789.1984	1	4664.115	-9.74168	-6.792344E-009	0.0335512	7
	17	24	20015.62	4677.706	-860.119	1	4756.126	-10.41895	6.036682E-008	0.0334287	7
	18	26	15890.62	4767.197	-953.888	1	4861.694	-11.31511	-3.067841E-008	0.0335562	7
	19	27	12609.37	4863.967	-1052.199	1	4976.474	-12.20644	6.956649E-008	0.0334352	7
	20	28	10078.13	4971.199	-1171.683	1	5107.412	-13.26225	7.060883E-008	0.0334338	7
	21	30	8015.625	5089.448	-1319.675	1	5257.758	-14.53644	5.498412E-009	0.0334772	7
	22	31	6328.125	5229.196	-1499.88	1	5440.049	-16.00437	5.546614E-008	0.0334814	7
	23	33	5015.625	5381.343	-1705.62	1	5645.174	-17.58604	4.442714E-008	0.0334245	7
	24	34	3984.375	5555.277	-1949.023	1	5887.257	-19.333	5.573806E-008	0.0334224	7
	25	35	3170.956	5747.513	-2228.952	1	6164.587	-21.19687	-1.6957E-010	0.0335027	7
	26	37	2527.573	5966.567	-2552.656	1	6489.682	-23.16252	-1.172102E-008	0.0335143	7
	27	38	1976.103	6236.316	-2962.666	1	6904.276	-25.41083	-1.247235E-008	0.0335081	7
	28	39	1577.524	6519.555	-3405.751	1	7355.524	-27.58212	3.449748E-008	0.0334598	7
	29	41	1265.625	6827.776	-3878.275	1	7852.359	-29.5972	1.348899E-009	0.0334615	7
	30	42	998.264	7200.15	-4509.819	1	8495.919	-32.061	1.798776E-008	0.0334637	7
	31	43	796.875	7585.232	-5192.761	1	9192.416	-34.39508	-1.316527E-008	0.0335082	7
	32	45	627.7902	8026.632	-6043.932	1	10047.68	-36.97919	-7.082766E-009	0.0335163	6
	33	46	505.5147	8445.332	-6959.868	1	10943.65	-39.49221	9.766797E-009	0.0333388	6
	34	47	397.9953	8926.355	-8186.701	1	12112.06	-42.52512	1.747635E-010	0.0334767	6
	35	49	315.5048	9407.793	-9651.9	1	13478.34	-45.73378	-9.962466E-010	0.0334786	6
	36	50	252.4038	9887.57	-11395.04	1	15086.79	-49.05157	1.177232E-009	0.0334708	6
	37	51	198.6229	10431.07	-13729.04	1	17242.21	-52.7731	6.207043E-010	0.033477	6
	38	53	158.3615	10994.91	-16499.63	1	19827.39	-56.32158	1.037971E-009	0.0334726	6
	39	54	125.558	11660.79	-20045.77	1	23190.66	-59.81308	5.684023E-010	0.0334736	6
	40	55	100.4464	12410.91	-24305.83	1	27291.1	-62.95049	5.179986E-010	0.0334757	6
	41	57	79.00281	13470.19	-29981.39	1	32868.37	-65.80634	3.545503E-010	0.0334725	6
	42	58	63.3446	14748.53	-36258.27	1	39143.09	-67.86532	7.38298E-010	0.0334731	6
	43	59	49.86702	16134.03	-45276.62	1	48065.36	-70.38681	1.833039E-010	0.0334729	6
	44	61	39.72458	18262.17	-55242.32	1	58182.66	-71.70699	7.329852E-010	0.0334758	6
	45	62	31.6723	20799.29	-67750.83	1	70871.61	-72.93368	6.581978E-010	0.0334744	6
	46	63	24.93351	24519.79	-83710.39	1	87227.57	-73.67405	1.994568E-010	0.0334698	6
	47	65	19.86229	29190.54	-102262.4	1	106347	-74.06874	4.602743E-010	0.0334822	5
	48	66	15.83615	36111.67	-125151	1	130256.8	-73.90478	1.377296E-009	0.0334758	5
	49	67	12.40079	44608.77	-153535	1	159884.2	-73.79906	-7.728516E-010	0.0334829	5
	50	69	9.93114	54596.98	-186148.2	1	193989.7	-73.65367	-3.011566E-011	0.0334759	5
	51	70	7.944915	68499.64	-224375	1	234598.3	-73.02305	-3.390744E-010	0.0334766	5
	52	72	6.317385	86672.64	-271098.4	1	284616.4	-72.27045	6.415699E-010	0.0334797	5
	53	74	5.008013	110872.1	-326667.8	1	344970.3	-71.25263	7.135635E-011	0.0334735	5
	54	76	3.945707	142644.9	-393662.2	1	418709.3	-70.08184	1.970848E-010	0.0334778	5
	55	79	3.158693	180539.6	-465620.9	1	499397.1	-68.80672	8.237203E-011	0.0334831	5
	56	82	2.504006	229584.8	-552607.9	1	598401.8	-67.43922	-1.095931E-011	0.0334647	5
	57	85	1.998082	288198.5	-647883.7	1	709092.1	-66.01904	-1.164664E-010	0.0334688	5
	58	88	1.584686	365291.8	-756949.3	1	840482.2	-64.23878	-5.267874E-012	0.0335223	5
	59	92	1.266892	446311.8	-881620.2	1	988154	-63.14962	4.241248E-010	0.0334441	5
	60	97	0.999041	565010.8	-1014375	1	1161118	-60.88203	1.442001E-010	0.0335184	4
