EXPLAIN
TAG	EISPOT
TITLE	LABEL	Potentiostatic EIS	Test &Identifier
DATE	LABEL	10/20/2019	Date
TIME	LABEL	9:06:01	Time
NOTES	NOTES	1	&Notes...
	
PSTAT	PSTAT	REF600-11020	Potentiostat
VDC	POTEN	0.00000E+000	T	DC &Voltage (V)
FREQINIT	QUANT	1.00000E+006	Initial Fre&q. (Hz)
FREQFINAL	QUANT	1.00000E+000	Final Fre&q. (Hz)
PTSPERDEC	QUANT	1.00000E+001	Points/&decade
VAC	QUANT	2.50000E+001	AC &Voltage (mV rms)
AREA	QUANT	1.00000E-002	&Area (cm^2)
CONDIT	TWOPARAM	T	5.00000E+000	0.00000E+000	Conditionin&g	Time(s)	E(V)
DELAY	TWOPARAM	T	5.00000E+000	0.00000E+000	Init. De&lay	Time(s)	Stab.(mV/s)
SPEED	SELECTOR	1	&Optimize for:
ZGUESS	QUANT	1.00000E+005	E&stimated Z (ohms)
OCVCURVE	TABLE	19
	Pt	T	Vf	Vm	Ach	Over
	#	s	V vs. Ref.	V	V	bits
	0	0.258333	3.02277E-003	3.02277E-003	5.56499E-004	...........
	1	0.516667	3.01995E-003	2.87545E-003	5.49899E-004	...........
	2	0.775	3.00282E-003	2.74345E-003	5.56633E-004	...........
	3	1.03333	2.95492E-003	2.62137E-003	5.55799E-004	...........
	4	1.29167	2.87041E-003	2.49770E-003	5.58299E-004	...........
	5	1.55	2.75969E-003	2.39646E-003	5.57466E-004	...........
	6	1.80833	2.63965E-003	2.32620E-003	5.55833E-004	...........
	7	2.06667	2.52426E-003	2.22590E-003	5.52632E-004	...........
	8	2.325	2.42025E-003	2.16069E-003	5.58232E-004	...........
	9	2.58333	2.32759E-003	2.08678E-003	5.57432E-004	...........
	10	2.84167	2.24403E-003	2.03051E-003	5.57933E-004	...........
	11	3.1	2.16835E-003	1.97734E-003	5.58066E-004	...........
	12	3.35833	2.10001E-003	1.91769E-003	5.53433E-004	...........
	13	3.61667	2.03767E-003	1.85657E-003	5.51366E-004	...........
	14	3.875	1.97898E-003	1.81583E-003	5.59299E-004	...........
	15	4.13333	1.92300E-003	1.78522E-003	5.52266E-004	...........
	16	4.39167	1.87124E-003	1.73327E-003	5.52232E-004	...........
	17	4.65	1.82398E-003	1.66434E-003	5.46933E-004	...........
	18	4.90833	1.77625E-003	1.54790E-003	5.56599E-004	...........
EOC	QUANT	0.0017763	Open Circuit (V)
PSTATMODEL	IQUANT	4	Pstat Model
PSTATSECTION	LABEL	REF600-11020	Pstat Section
PSTATSERIALNO	LABEL	11020	Pstat Serial Number
CTRLMODE	IQUANT	1	Control Mode
IESTAB	IQUANT	0	I/E Stability
CASPEED	IQUANT	1	Control Amp Speed
CONVENTION	IQUANT	1	Current Convention
ICHRANGE	IQUANT	2	Ich Range
ICHRANGEMODE	TOGGLE	F	Ich Auto Range
ICHOFFSETENABLE	TOGGLE	T	Ich Offset Enable
ICHOFFSET	QUANT	0	Ich Offset (V)
ICHFILTER	IQUANT	3	Ich Filter
VCHRANGE	IQUANT	2	Vch Range
VCHRANGEMODE	TOGGLE	F	Vch Auto Range
VCHOFFSETENABLE	TOGGLE	T	Vch Offset Enable
VCHOFFSET	QUANT	0	Vch Offset (V)
VCHFILTER	IQUANT	3	Vch Filter
ACHRANGE	IQUANT	2	Ach Range
ACHOFFSETENABLE	TOGGLE	F	Ach Offset Enable
ACHOFFSET	QUANT	0	Ach Offset (V)
ACHFILTER	IQUANT	3	Ach Filter
IERANGELOWERLIMIT	IQUANT	1	I/E Range Lower Limit
IERANGEMODE	TOGGLE	F	I/E AutoRange
IERANGE	IQUANT	4	I/E Range
POSFEEDENABLE	TOGGLE	F	Positive Feedback IR Comp
POSFEEDRESISTANCE	QUANT	0	Positive Feedback Resistance (ohm)
ACHSELECT	IQUANT	0	Ach Select
CABLEID	IQUANT	14	Cable ID
DCCALDATE	LABEL	8/19/2019	DC Calibration Date
ACCALDATE	LABEL	8/19/2019	AC Calibration Date
THERMOSELECT	IQUANT	1	Thermo Select
FRAMEWORKVERSION	QUANT	6.33	Framework Version
INSTRUMENTVERSION	LABEL	3.50	Instrument Version
ZCURVE	TABLE
	Pt	Time	Freq	Zreal	Zimag	Zsig	Zmod	Zphz	Idc	Vdc	IERange
	#	s	Hz	ohm	ohm	V	ohm	°	A	V	#
	0	1	1000078	1534.193	-2223.761	1	2701.641	-55.39785	6.589574E-006	0.0030997	8
	1	3	794390.6	1705.408	-2634.49	1	3138.305	-57.08345	-3.810297E-007	0.0035638	8
	2	4	630984.4	1909.247	-3104.307	1	3644.44	-58.40716	-3.528367E-006	0.0043763	8
	3	6	501234.4	2194.419	-3690.56	1	4293.683	-59.26414	2.956172E-007	0.0034362	8
	4	7	398109.4	2527.822	-4411.18	1	5084.131	-60.18518	1.43403E-006	0.0031195	8
	5	9	316265.6	2998.819	-5231.065	1	6029.673	-60.17559	3.001071E-006	0.0027698	8
	6	10	251203.1	3585.723	-6141.381	1	7111.538	-59.72094	-2.270324E-006	0.0037982	8
	7	12	199546.9	4346.89	-7268.403	1	8469.069	-59.11834	2.947229E-006	0.0027697	8
	8	14	158578.1	5236.694	-8365.456	1	9869.34	-57.95383	4.131305E-006	0.0026719	8
	9	16	125953.1	6662.623	-9585.06	1	11673.21	-55.19665	5.186429E-007	0.0016195	7
	10	17	100078.1	8092.34	-10974.63	1	13635.56	-53.59612	-5.266612E-008	0.0034316	7
	11	19	79453.13	9883.85	-12390.91	1	15850.09	-51.4217	9.365787E-009	0.0032285	7
	12	20	63140.62	12031.06	-13758.01	1	18276.47	-48.83106	-3.125317E-008	0.0032985	7
	13	22	50203.12	14535.67	-15003.86	1	20890.22	-45.90805	-6.346927E-008	0.0033634	7
	14	23	39890.62	17380.24	-16087.89	1	23683.19	-42.78866	1.483708E-007	0.0030892	7
	15	25	31640.63	20583.38	-16640.86	1	26468.73	-38.95418	9.022065E-008	0.0031153	7
	16	26	25171.88	23805.99	-16849.03	1	29165.31	-35.2895	2.878727E-009	0.003442	7
	17	28	20015.62	27112.46	-16478.24	1	31727.24	-31.29013	1.121715E-007	0.0032268	7
	18	29	15890.62	29843.21	-15834.68	1	33783.93	-27.95023	-1.830805E-008	0.003381	7
	19	31	12609.37	32918.49	-14559.13	1	35994.38	-23.85876	3.984951E-009	0.0030526	6
	20	32	10078.13	35079.64	-13617.1	1	37629.87	-21.21505	5.297612E-009	0.0033267	6
	21	34	8015.625	36961.33	-12640.06	1	39062.91	-18.87969	1.191064E-008	0.0032069	6
	22	35	6328.125	38672.67	-11752.68	1	40419.06	-16.9041	3.541293E-009	0.003124	6
	23	37	5015.625	40151.25	-11063.6	1	41647.65	-15.40544	8.625137E-010	0.0033667	6
	24	38	3984.375	41468.52	-10422.05	1	42758.12	-14.10764	2.738219E-009	0.0031186	6
	25	40	3170.956	42534.36	-9988.49	1	43691.44	-13.21551	7.020328E-009	0.0030584	6
	26	41	2527.573	43587.59	-9776.91	1	44670.64	-12.64248	5.059921E-009	0.0033227	6
	27	43	1976.103	44608.45	-9684.07	1	45647.5	-12.24832	3.614423E-009	0.0033268	6
	28	44	1577.524	45927.05	-10008.46	1	47004.92	-12.29373	-4.488641E-009	0.0032427	6
	29	45	1265.625	46545.12	-10225.88	1	47655.19	-12.39093	-1.04955E-008	0.0033329	6
	30	47	998.264	47581.58	-10759.79	1	48782.99	-12.74219	-1.330044E-008	0.0033514	6
	31	48	796.875	48614.12	-11579.15	1	49974.09	-13.39736	-7.063501E-009	0.003459	6
	32	50	627.7902	49855.14	-12682.02	1	51442.86	-14.27205	1.167374E-008	0.0032069	6
	33	51	505.5147	50707.39	-14089.34	1	52628.4	-15.52826	-4.420352E-009	0.003164	6
	34	52	397.9953	52094.25	-15984.69	1	54491.48	-17.0582	-2.726987E-010	0.0032593	6
	35	54	315.5048	53487.83	-18261.19	1	56519.19	-18.85033	1.616065E-009	0.0032622	6
	36	55	252.4038	55059.98	-21000.81	1	58929.07	-20.8777	-6.2754E-010	0.0032584	6
	37	56	198.6229	57099.54	-24466.98	1	62120.77	-23.19499	8.38271E-010	0.0032558	6
	38	58	158.3615	59370.43	-28391.2	1	65809.63	-25.55733	-4.824201E-011	0.0032569	6
	39	59	125.558	62186.43	-33135.74	1	70463.67	-28.05071	3.059829E-010	0.0032547	6
	40	61	100.4464	65433.68	-38802.56	1	76073.68	-30.66819	-1.198131E-009	0.0032549	6
	41	62	79.00281	69414.41	-44455.13	1	82429.48	-32.63675	8.076085E-010	0.0032533	6
	42	64	63.3446	72806.25	-49378.84	1	87971.7	-34.146	7.803443E-010	0.003255	6
	43	65	49.86702	79893.54	-60708.6	1	100342	-37.23006	4.555484E-010	0.0032556	5
	44	67	39.72458	86237.69	-70462.35	1	111363.7	-39.25128	-1.895357E-010	0.0032601	5
	45	68	31.6723	95047.8	-81006.63	1	124884.6	-40.44004	-2.255017E-010	0.0032603	5
	46	70	24.93351	104078.1	-94545.79	1	140609.9	-42.2524	4.760041E-010	0.0032556	5
	47	71	19.86229	115405.3	-108162	1	158169	-43.14434	-5.045305E-011	0.0032574	5
	48	72	15.83615	128328.8	-127819.2	1	181124.3	-44.88603	-1.727665E-009	0.0032619	5
	49	74	12.40079	140567	-141529.3	1	199473.3	-45.19546	-3.209384E-011	0.0032574	5
	50	75	9.93114	158253.4	-161445.8	1	226072.8	-45.57211	3.220344E-010	0.0032563	5
	51	77	7.944915	177333.6	-183240.8	1	254998.8	-45.93858	6.239401E-011	0.0032585	5
	52	78	6.317385	195360.4	-208927.4	1	286035.5	-46.922	1.294473E-010	0.0032695	5
	53	80	5.008013	218400.3	-238631.8	1	323486.9	-47.53466	2.717196E-010	0.0032619	5
	54	83	3.945707	243670.4	-274047.3	1	366711.3	-48.35796	2.066229E-010	0.0032576	5
	55	86	3.158693	272453	-312996.6	1	414966.9	-48.96153	9.594921E-011	0.0032631	5
	56	89	2.504006	305318.5	-359970.5	1	472015	-49.69618	1.950311E-010	0.0032468	5
	57	92	1.998082	341195.8	-412527.2	1	535344.1	-50.4063	-1.461987E-010	0.003284	5
	58	95	1.584686	384564.9	-476310.6	1	612178.1	-51.0832	2.253133E-010	0.0032921	5
	59	99	1.266892	432119.4	-546023.6	1	696325.3	-51.64215	-1.086516E-010	0.0032899	5
	60	103	0.999041	490944.3	-632377.8	1	800579.8	-52.17615	3.203038E-010	0.0032342	5
