EXPLAIN
TAG	EISPOT
TITLE	LABEL	Potentiostatic IDE	Test &Identifier
DATE	LABEL	9/14/2019	Date
TIME	LABEL	12:59:06	Time
NOTES	NOTES	1	&Notes...
	
PSTAT	PSTAT	REF600-11020	Potentiostat
VDC	POTEN	0.00000E+000	T	DC &Voltage (V)
FREQINIT	QUANT	1.00000E+006	Initial Fre&q. (Hz)
FREQFINAL	QUANT	1.00000E+000	Final Fre&q. (Hz)
PTSPERDEC	QUANT	1.00000E+001	Points/&decade
VAC	QUANT	2.50000E+001	AC &Voltage (mV rms)
AREA	QUANT	1.00000E-002	&Area (cm^2)
CONDIT	TWOPARAM	T	5.00000E+000	0.00000E+000	Conditionin&g	Time(s)	E(V)
DELAY	TWOPARAM	T	5.00000E+000	0.00000E+000	Init. De&lay	Time(s)	Stab.(mV/s)
SPEED	SELECTOR	1	&Optimize for:
ZGUESS	QUANT	1.00000E+007	E&stimated Z (ohms)
OCVCURVE	TABLE	19
	Pt	T	Vf	Vm	Ach	Over
	#	s	V vs. Ref.	V	V	bits
	0	0.258333	1.33982E-002	1.33982E-002	5.39999E-004	...........
	1	0.516667	1.34046E-002	1.37349E-002	5.43766E-004	...........
	2	0.775	1.34443E-002	1.40649E-002	5.43999E-004	...........
	3	1.03333	1.35564E-002	1.43328E-002	5.44133E-004	...........
	4	1.29167	1.37546E-002	1.46083E-002	5.41333E-004	...........
	5	1.55	1.40131E-002	1.48817E-002	5.41133E-004	...........
	6	1.80833	1.42951E-002	1.51386E-002	5.39399E-004	...........
	7	2.06667	1.45771E-002	1.53905E-002	5.40233E-004	...........
	8	2.325	1.48500E-002	1.56303E-002	5.42033E-004	...........
	9	2.58333	1.51119E-002	1.58613E-002	5.41933E-004	...........
	10	2.84167	1.53634E-002	1.60876E-002	5.41099E-004	...........
	11	3.1	1.56058E-002	1.63314E-002	5.38066E-004	...........
	12	3.35833	1.58419E-002	1.65466E-002	5.40333E-004	...........
	13	3.61667	1.60734E-002	1.67246E-002	5.32300E-004	...........
	14	3.875	1.62968E-002	1.68803E-002	5.38299E-004	...........
	15	4.13333	1.65052E-002	1.70525E-002	5.40933E-004	...........
	16	4.39167	1.66960E-002	1.72490E-002	5.42999E-004	...........
	17	4.65	1.68749E-002	1.74027E-002	5.42566E-004	...........
	18	4.90833	1.70482E-002	1.75213E-002	5.38133E-004	...........
EOC	QUANT	0.0170482	Open Circuit (V)
PSTATMODEL	IQUANT	4	Pstat Model
PSTATSECTION	LABEL	REF600-11020	Pstat Section
PSTATSERIALNO	LABEL	11020	Pstat Serial Number
CTRLMODE	IQUANT	1	Control Mode
IESTAB	IQUANT	0	I/E Stability
CASPEED	IQUANT	1	Control Amp Speed
CONVENTION	IQUANT	1	Current Convention
ICHRANGE	IQUANT	2	Ich Range
ICHRANGEMODE	TOGGLE	F	Ich Auto Range
ICHOFFSETENABLE	TOGGLE	T	Ich Offset Enable
ICHOFFSET	QUANT	0	Ich Offset (V)
ICHFILTER	IQUANT	3	Ich Filter
VCHRANGE	IQUANT	2	Vch Range
VCHRANGEMODE	TOGGLE	F	Vch Auto Range
VCHOFFSETENABLE	TOGGLE	T	Vch Offset Enable
VCHOFFSET	QUANT	0	Vch Offset (V)
VCHFILTER	IQUANT	3	Vch Filter
ACHRANGE	IQUANT	2	Ach Range
ACHOFFSETENABLE	TOGGLE	F	Ach Offset Enable
ACHOFFSET	QUANT	0	Ach Offset (V)
ACHFILTER	IQUANT	3	Ach Filter
IERANGELOWERLIMIT	IQUANT	1	I/E Range Lower Limit
IERANGEMODE	TOGGLE	F	I/E AutoRange
IERANGE	IQUANT	3	I/E Range
POSFEEDENABLE	TOGGLE	F	Positive Feedback IR Comp
POSFEEDRESISTANCE	QUANT	0	Positive Feedback Resistance (ohm)
ACHSELECT	IQUANT	0	Ach Select
CABLEID	IQUANT	14	Cable ID
DCCALDATE	LABEL	8/19/2019	DC Calibration Date
ACCALDATE	LABEL	8/19/2019	AC Calibration Date
THERMOSELECT	IQUANT	1	Thermo Select
FRAMEWORKVERSION	QUANT	6.33	Framework Version
INSTRUMENTVERSION	LABEL	3.50	Instrument Version
ZCURVE	TABLE
	Pt	Time	Freq	Zreal	Zimag	Zsig	Zmod	Zphz	Idc	Vdc	IERange
	#	s	Hz	ohm	ohm	V	ohm	°	A	V	#
	0	2	1000078	2279.738	-1943.108	1	2995.475	-40.44223	-6.035665E-006	0.0200134	8
	1	4	794390.6	2692.303	-1908.695	1	3300.244	-35.33454	2.500887E-006	0.018802	8
	2	5	630984.4	3064.04	-1820.82	1	3564.228	-30.7211	-1.954132E-007	0.0186658	8
	3	6	501234.4	3391.664	-1685.629	1	3787.443	-26.42699	3.32793E-006	0.0182465	8
	4	8	398109.4	3678.415	-1489.947	1	3968.712	-22.05047	-2.499202E-006	0.0192346	8
	5	9	316265.6	3902.412	-1308.352	1	4115.897	-18.53462	4.384168E-007	0.0185199	8
	6	10	251203.1	4080.139	-1138.445	1	4235.988	-15.59023	-2.517389E-006	0.0191494	8
	7	12	199546.9	4205.08	-985.671	1	4319.056	-13.19197	2.259562E-006	0.0181147	8
	8	13	158578.1	4292.775	-842.8217	1	4374.731	-11.10787	2.896827E-006	0.01822	8
	9	15	125953.1	4387.483	-710.3679	1	4444.618	-9.196828	3.035491E-007	0.0180796	7
	10	16	100078.1	4432.659	-626.5468	1	4476.72	-8.045339	9.009809E-009	0.0185156	7
	11	17	79453.13	4483.279	-576.1528	1	4520.148	-7.323028	9.90211E-009	0.0185758	7
	12	19	63140.62	4527.417	-541.347	1	4559.667	-6.818532	-5.078584E-008	0.0186316	7
	13	20	50203.12	4571.534	-520.7472	1	4601.098	-6.498598	-3.645106E-008	0.0186204	7
	14	21	39890.62	4612.786	-517.8171	1	4641.759	-6.405033	-4.469126E-008	0.0186676	7
	15	23	31640.63	4654.449	-523.9449	1	4683.846	-6.422669	9.642329E-008	0.0184165	7
	16	24	25171.88	4698.025	-544.6042	1	4729.486	-6.612324	4.05594E-008	0.0185965	7
	17	25	20015.62	4744.775	-579.5277	1	4780.036	-6.963625	-3.621666E-008	0.0185889	7
	18	27	15890.62	4785.967	-629.0823	1	4827.134	-7.488206	-3.499462E-008	0.0186219	7
	19	28	12609.37	4849.91	-694.5344	1	4899.388	-8.14967	9.816414E-008	0.018412	7
	20	29	10078.13	4906.918	-774.8318	1	4967.717	-8.973257	-8.680968E-010	0.0186533	7
	21	31	8015.625	4972.05	-873.7983	1	5048.248	-9.96749	2.372953E-009	0.0185377	7
	22	32	6328.125	5045.646	-1002.252	1	5144.226	-11.23482	-1.574449E-009	0.0186524	7
	23	33	5015.625	5127.347	-1155.475	1	5255.931	-12.69976	9.724216E-008	0.0184047	7
	24	35	3984.375	5213.788	-1339.056	1	5382.997	-14.40394	5.290486E-008	0.0184686	7
	25	36	3170.956	5311.64	-1563.38	1	5536.938	-16.40079	3.199731E-008	0.0186086	7
	26	37	2527.573	5421.437	-1828.492	1	5721.482	-18.63774	4.32301E-008	0.0184384	7
	27	39	1976.103	5555.831	-2181.549	1	5968.787	-21.43791	1.606858E-008	0.0185482	7
	28	40	1577.524	5690.883	-2575.397	1	6246.505	-24.34903	4.394658E-008	0.0184444	7
	29	41	1265.625	5826.688	-3055.318	1	6579.153	-27.671	5.256479E-008	0.0184701	7
	30	43	998.264	6032.991	-3650.014	1	7051.211	-31.17432	-1.289507E-009	0.0186545	7
	31	44	796.875	6237.824	-4355.021	1	7607.671	-34.92134	2.936115E-008	0.0185962	7
	32	45	627.7902	6483.117	-5261.255	1	8349.348	-39.06042	-4.144135E-008	0.0186257	7
	33	47	505.5147	6738.237	-6265.167	1	9200.879	-42.91647	1.033842E-008	0.0185554	7
	34	48	397.9953	7071.675	-7618.121	1	10394.44	-47.13037	3.188573E-010	0.0185335	6
	35	49	315.5048	7439.069	-9234.647	1	11858.27	-51.14645	4.860869E-010	0.0185362	6
	36	50	252.4038	7844.344	-11138.15	1	13623.22	-54.84383	1.478044E-009	0.0185291	6
	37	52	198.6229	8355.172	-13655.6	1	16008.88	-58.53964	6.218828E-010	0.018537	6
	38	53	158.3615	8923.895	-16592.71	1	18840.22	-61.72773	1.25583E-010	0.0185308	6
	39	55	125.558	9624.71	-20308.19	1	22473.49	-64.6422	7.220788E-010	0.0185334	6
	40	56	100.4464	10417.26	-24711.38	1	26817.37	-67.14178	6.169943E-011	0.0185319	6
	41	57	79.00281	11628.62	-30520.28	1	32660.56	-69.14251	7.045923E-010	0.0185294	6
	42	59	63.3446	12583.91	-36959.81	1	39043.34	-71.19755	-7.930717E-011	0.0185296	6
	43	60	49.86702	14786.26	-46390.86	1	48690.3	-72.32124	8.181517E-010	0.0185251	6
	44	61	39.72458	16977.83	-56433.3	1	58931.86	-73.2562	1.025598E-009	0.0185285	6
	45	63	31.6723	20192.11	-68869.84	1	71768.91	-73.65927	5.675626E-010	0.0185288	6
	46	64	24.93351	24386.24	-85091.12	1	88516.59	-74.00824	6.469836E-010	0.0185234	6
	47	65	19.86229	29711.49	-103606.5	1	107782.6	-73.99857	6.872732E-010	0.0185338	5
	48	67	15.83615	36117.9	-125820.4	1	130901.8	-73.98338	-1.280723E-010	0.0185315	5
	49	68	12.40079	47874.42	-154920.3	1	162148.8	-72.82748	-3.869768E-010	0.0185398	5
	50	70	9.93114	59207.57	-186115.3	1	195306	-72.35294	-3.6418E-011	0.018537	5
	51	71	7.944915	76135.31	-223303.1	1	235925.5	-71.17316	1.295829E-010	0.0185352	5
	52	73	6.317385	97255.2	-267282.8	1	284426.9	-70.00526	1.719814E-010	0.0185442	5
	53	75	5.008013	125808	-318763.2	1	342691.7	-68.46207	5.447494E-011	0.018536	5
	54	77	3.945707	163225.9	-379606.8	1	413211.8	-66.73293	2.011892E-010	0.0185438	5
	55	80	3.158693	207005.6	-442567.5	1	488587.1	-64.93272	1.535021E-010	0.0185563	5
	56	83	2.504006	263809.7	-515667.6	1	579231.1	-62.90623	-1.250145E-010	0.0185342	5
	57	86	1.998082	330377.5	-591294.8	1	677332.2	-60.80635	-4.150009E-011	0.0185045	5
	58	89	1.584686	409473.8	-672996.4	1	787777.3	-58.68225	-1.072593E-010	0.0185448	5
	59	93	1.266892	499210.7	-755204.6	1	905287.4	-56.53421	7.201713E-011	0.0185001	5
	60	97	0.999041	604206.9	-848620.8	1	1041740	-54.54963	-8.933836E-011	0.0185707	4
