EXPLAIN
TAG	EISPOT
TITLE	LABEL	Potentiostatic IDE	Test &Identifier
DATE	LABEL	9/4/2019	Date
TIME	LABEL	10:43:08	Time
NOTES	NOTES	1	&Notes...
	
PSTAT	PSTAT	REF600-11020	Potentiostat
VDC	POTEN	0.00000E+000	T	DC &Voltage (V)
FREQINIT	QUANT	1.00000E+006	Initial Fre&q. (Hz)
FREQFINAL	QUANT	1.00000E+000	Final Fre&q. (Hz)
PTSPERDEC	QUANT	1.00000E+001	Points/&decade
VAC	QUANT	2.50000E+001	AC &Voltage (mV rms)
AREA	QUANT	1.00000E-002	&Area (cm^2)
CONDIT	TWOPARAM	T	5.00000E+000	0.00000E+000	Conditionin&g	Time(s)	E(V)
DELAY	TWOPARAM	T	5.00000E+000	0.00000E+000	Init. De&lay	Time(s)	Stab.(mV/s)
SPEED	SELECTOR	1	&Optimize for:
ZGUESS	QUANT	1.00000E+007	E&stimated Z (ohms)
OCVCURVE	TABLE	19
	Pt	T	Vf	Vm	Ach	Over
	#	s	V vs. Ref.	V	V	bits
	0	0.258333	6.36089E-002	6.36089E-002	5.47733E-004	...........
	1	0.516667	6.36309E-002	6.47645E-002	5.49733E-004	...........
	2	0.775	6.37669E-002	6.58817E-002	5.50299E-004	...........
	3	1.03333	6.41532E-002	6.69630E-002	5.46033E-004	...........
	4	1.29167	6.48474E-002	6.79866E-002	5.50033E-004	...........
	5	1.55	6.57749E-002	6.89709E-002	5.46933E-004	...........
	6	1.80833	6.68070E-002	6.99017E-002	5.45899E-004	...........
	7	2.06667	6.78461E-002	7.07846E-002	5.44833E-004	...........
	8	2.325	6.88449E-002	7.16289E-002	5.51799E-004	...........
	9	2.58333	6.97907E-002	7.24331E-002	5.48366E-004	...........
	10	2.84167	7.06857E-002	7.32101E-002	5.42899E-004	...........
	11	3.1	7.15363E-002	7.39544E-002	5.53433E-004	...........
	12	3.35833	7.23486E-002	7.46632E-002	5.57032E-004	...........
	13	3.61667	7.31265E-002	7.53438E-002	5.46133E-004	...........
	14	3.875	7.38719E-002	7.59944E-002	5.49566E-004	...........
	15	4.13333	7.45858E-002	7.66229E-002	5.52733E-004	...........
	16	4.39167	7.52699E-002	7.72281E-002	5.55833E-004	...........
	17	4.65	7.59263E-002	7.78093E-002	5.54066E-004	...........
	18	4.90833	7.65571E-002	7.83693E-002	5.54566E-004	...........
EOC	QUANT	0.0765571	Open Circuit (V)
PSTATMODEL	IQUANT	4	Pstat Model
PSTATSECTION	LABEL	REF600-11020	Pstat Section
PSTATSERIALNO	LABEL	11020	Pstat Serial Number
CTRLMODE	IQUANT	1	Control Mode
IESTAB	IQUANT	0	I/E Stability
CASPEED	IQUANT	1	Control Amp Speed
CONVENTION	IQUANT	1	Current Convention
ICHRANGE	IQUANT	2	Ich Range
ICHRANGEMODE	TOGGLE	F	Ich Auto Range
ICHOFFSETENABLE	TOGGLE	T	Ich Offset Enable
ICHOFFSET	QUANT	0	Ich Offset (V)
ICHFILTER	IQUANT	3	Ich Filter
VCHRANGE	IQUANT	2	Vch Range
VCHRANGEMODE	TOGGLE	F	Vch Auto Range
VCHOFFSETENABLE	TOGGLE	T	Vch Offset Enable
VCHOFFSET	QUANT	0	Vch Offset (V)
VCHFILTER	IQUANT	3	Vch Filter
ACHRANGE	IQUANT	2	Ach Range
ACHOFFSETENABLE	TOGGLE	F	Ach Offset Enable
ACHOFFSET	QUANT	0	Ach Offset (V)
ACHFILTER	IQUANT	3	Ach Filter
IERANGELOWERLIMIT	IQUANT	1	I/E Range Lower Limit
IERANGEMODE	TOGGLE	F	I/E AutoRange
IERANGE	IQUANT	4	I/E Range
POSFEEDENABLE	TOGGLE	F	Positive Feedback IR Comp
POSFEEDRESISTANCE	QUANT	0	Positive Feedback Resistance (ohm)
ACHSELECT	IQUANT	0	Ach Select
CABLEID	IQUANT	14	Cable ID
DCCALDATE	LABEL	8/19/2019	DC Calibration Date
ACCALDATE	LABEL	8/19/2019	AC Calibration Date
THERMOSELECT	IQUANT	1	Thermo Select
FRAMEWORKVERSION	QUANT	6.33	Framework Version
INSTRUMENTVERSION	LABEL	3.50	Instrument Version
ZCURVE	TABLE
	Pt	Time	Freq	Zreal	Zimag	Zsig	Zmod	Zphz	Idc	Vdc	IERange
	#	s	Hz	ohm	ohm	V	ohm	°	A	V	#
	0	2	1000078	2393.38	-1426.672	1	2786.335	-30.79877	1.275529E-005	0.0775869	8
	1	4	794390.6	2613.448	-1303.8	1	2920.618	-26.51375	9.798755E-006	0.0778825	8
	2	5	630984.4	2804.172	-1171.652	1	3039.104	-22.67636	1.260119E-005	0.0774183	8
	3	7	501234.4	2953.703	-1066.257	1	3140.265	-19.84907	1.197976E-005	0.0772565	8
	4	8	398109.4	3094.913	-950.56	1	3237.599	-17.07362	9.088933E-006	0.0778693	8
	5	10	316265.6	3198.836	-863.2325	1	3313.264	-15.10201	1.063628E-005	0.077629	8
	6	11	251203.1	3280.522	-783.4529	1	3372.777	-13.43177	1.130618E-005	0.0773805	8
	7	13	199546.9	3348.225	-722.098	1	3425.206	-12.17034	1.003868E-005	0.0777189	8
	8	14	158578.1	3409.754	-692.1805	1	3479.301	-11.47512	9.217893E-006	0.0778216	8
	9	16	125953.1	3467.569	-678.8018	1	3533.385	-11.076	1.063862E-006	0.0770343	7
	10	18	100078.1	3516.588	-673.0298	1	3580.413	-10.83466	9.902639E-007	0.0777936	7
	11	19	79453.13	3571.128	-705.2142	1	3640.094	-11.17085	9.622726E-007	0.0779144	7
	12	20	63140.62	3627.793	-755.8652	1	3705.7	-11.76943	1.009759E-006	0.0777853	7
	13	22	50203.12	3688.696	-824.0765	1	3779.627	-12.59342	9.252988E-007	0.0779335	7
	14	23	39890.62	3755.261	-913.7049	1	3864.821	-13.6751	9.609771E-007	0.0778299	7
	15	24	31640.63	3834.107	-1032.575	1	3970.716	-15.07288	9.351064E-007	0.0779046	7
	16	26	25171.88	3921.939	-1178.248	1	4095.104	-16.72157	9.461469E-007	0.07787	7
	17	27	20015.62	4018.873	-1352.651	1	4240.402	-18.60193	9.813001E-007	0.0778229	7
	18	28	15890.62	4136.506	-1562.774	1	4421.871	-20.69659	9.603707E-007	0.0778478	7
	19	30	12609.37	4266.227	-1822.996	1	4639.397	-23.13744	9.65076E-007	0.0778255	7
	20	31	10078.13	4414.619	-2119.033	1	4896.853	-25.64118	9.356564E-007	0.0778999	7
	21	32	8015.625	4592.437	-2477.015	1	5217.861	-28.34101	9.747351E-007	0.0778491	7
	22	34	6328.125	4805.638	-2921.885	1	5624.194	-31.3001	9.430293E-007	0.0778737	7
	23	35	5015.625	5037.339	-3443.209	1	6101.678	-34.35406	9.338468E-007	0.0778919	7
	24	36	3984.375	5334.936	-4047.487	1	6696.543	-37.18671	9.909957E-007	0.0777817	7
	25	38	3170.956	5655.406	-4780.802	1	7405.382	-40.20954	9.369206E-007	0.0779418	7
	26	39	2527.573	6041.846	-5619.107	1	8250.956	-42.92379	9.490686E-007	0.077861	7
	27	40	1976.103	6531.626	-6706.188	1	9361.361	-45.75549	1.004871E-006	0.0777997	7
	28	42	1577.524	7077.498	-7894.456	1	10602.52	-48.1233	9.608955E-007	0.0778463	7
	29	43	1265.625	7676.065	-9269.881	1	12035.48	-50.37303	9.472652E-007	0.0779028	7
	30	44	998.264	8472.958	-11017.85	1	13899.06	-52.43895	8.975083E-008	0.0778987	6
	31	46	796.875	9356.981	-12978.57	1	15999.89	-54.21005	9.221645E-008	0.0778361	6
	32	47	627.7902	10449.14	-15463.45	1	18662.87	-55.95187	9.502148E-008	0.077853	6
	33	48	505.5147	11632.39	-18103.45	1	21518.54	-57.2772	9.148965E-008	0.0778491	6
	34	50	397.9953	13179.22	-21583.49	1	25289.1	-58.59111	9.556936E-008	0.0774548	6
	35	51	315.5048	14963.79	-25593.52	1	29646.98	-59.6864	9.571085E-008	0.0774508	6
	36	52	252.4038	16984.98	-30138.49	1	34595.05	-60.59594	9.532373E-008	0.0774477	6
	37	54	198.6229	19567.53	-35938.6	1	40920.3	-61.43298	9.545128E-008	0.0774491	6
	38	55	158.3615	22456.52	-42437.37	1	48012.77	-62.11362	9.533095E-008	0.0774476	6
	39	56	125.558	26009.52	-50334.79	1	56657.62	-62.67322	9.560617E-008	0.0774557	6
	40	58	100.4464	30138.36	-59298.62	1	66518.02	-63.05817	9.547539E-008	0.077451	6
	41	59	79.00281	35200.46	-70468.2	1	78770.8	-63.45684	9.555815E-008	0.0774492	6
	42	60	63.3446	40148.36	-82521.52	1	91769.78	-64.05616	9.576371E-008	0.0774457	6
	43	62	49.86702	48256.57	-99590.6	1	110666.1	-64.14753	9.577083E-008	0.0774452	6
	44	63	39.72458	56588.62	-116688.6	1	129686.1	-64.12874	9.57193E-008	0.0774476	6
	45	64	31.6723	66266.74	-137254	1	152413.7	-64.22858	9.660956E-009	0.077454	5
	46	66	24.93351	78983.35	-163490.6	1	181569.7	-64.21452	9.728848E-009	0.077451	5
	47	67	19.86229	93095.34	-192318.9	1	213666.3	-64.16988	9.557247E-009	0.0774485	5
	48	68	15.83615	108398.4	-228353.4	1	252775.6	-64.60651	1.014243E-008	0.0774494	5
	49	70	12.40079	131899.6	-267299	1	298070.9	-63.73581	1.029897E-008	0.0774487	5
	50	71	9.93114	155070.5	-316400.1	1	352357.6	-63.89011	9.616925E-009	0.0774549	5
	51	73	7.944915	184048.7	-370429.6	1	413632.7	-63.57942	9.65943E-009	0.0774556	5
	52	74	6.317385	216051.2	-434509.1	1	485259	-63.56203	9.560212E-009	0.0774701	5
	53	76	5.008013	256283.6	-511285.7	1	571921.6	-63.37753	9.764797E-009	0.0774634	5
	54	79	3.945707	306629.3	-604296.5	1	677639.9	-63.09607	9.621871E-009	0.0774503	5
	55	82	3.158693	361495.8	-707244.7	1	794275.9	-62.92695	9.563323E-008	0.0774573	6
	56	85	2.504006	431773.5	-828855.3	1	934574.4	-62.48375	9.495714E-009	0.077733	5
	57	88	1.998082	512494.1	-966099	1	1093617	-62.05503	9.454221E-009	0.0777711	5
	58	92	1.584686	610297.6	-1132017	1	1286050	-61.66983	9.535472E-009	0.0777728	5
	59	95	1.266892	726777.8	-1312972	1	1500701	-61.03388	8.475731E-010	0.0777755	4
	60	99	0.999041	869340.8	-1534040	1	1763245	-60.45976	9.848431E-010	0.0777217	4
