EXPLAIN
TAG	EISPOT
TITLE	LABEL	Potentiostatic EIS	Test &Identifier
DATE	LABEL	11/11/2019	Date
TIME	LABEL	11:00:31	Time
NOTES	NOTES	3	&Notes...
	
	
	
PSTAT	PSTAT	REF600-11020	Potentiostat
VDC	POTEN	0.00000E+000	T	DC &Voltage (V)
FREQINIT	QUANT	1.00000E+006	Initial Fre&q. (Hz)
FREQFINAL	QUANT	1.00000E+000	Final Fre&q. (Hz)
PTSPERDEC	QUANT	1.00000E+001	Points/&decade
VAC	QUANT	2.50000E+001	AC &Voltage (mV rms)
AREA	QUANT	1.00000E-002	&Area (cm^2)
CONDIT	TWOPARAM	T	5.00000E+000	0.00000E+000	Conditionin&g	Time(s)	E(V)
DELAY	TWOPARAM	T	5.00000E+000	0.00000E+000	Init. De&lay	Time(s)	Stab.(mV/s)
SPEED	SELECTOR	1	&Optimize for:
ZGUESS	QUANT	1.00000E+005	E&stimated Z (ohms)
OCVCURVE	TABLE	19
	Pt	T	Vf	Vm	Ach	Over
	#	s	V vs. Ref.	V	V	bits
	0	0.258333	-1.19294E-002	-1.19294E-002	5.55833E-004	...........
	1	0.516667	-1.19559E-002	-1.33129E-002	5.48766E-004	...........
	2	0.775	-1.21150E-002	-1.44596E-002	5.51733E-004	...........
	3	1.03333	-1.25522E-002	-1.54270E-002	5.55499E-004	...........
	4	1.29167	-1.33034E-002	-1.63704E-002	5.51433E-004	...........
	5	1.55	-1.42566E-002	-1.73378E-002	5.51633E-004	...........
	6	1.80833	-1.52711E-002	-1.82140E-002	5.61132E-004	...........
	7	2.06667	-1.62658E-002	-1.90417E-002	5.53966E-004	...........
	8	2.325	-1.72122E-002	-1.98313E-002	5.58299E-004	...........
	9	2.58333	-1.81046E-002	-2.05725E-002	5.59999E-004	...........
	10	2.84167	-1.89453E-002	-2.12983E-002	5.59132E-004	...........
	11	3.1	-1.97400E-002	-2.19650E-002	5.59899E-004	...........
	12	3.35833	-2.04941E-002	-2.26236E-002	5.56832E-004	...........
	13	3.61667	-2.12119E-002	-2.32548E-002	5.52666E-004	...........
	14	3.875	-2.18975E-002	-2.38505E-002	5.50399E-004	...........
	15	4.13333	-2.25546E-002	-2.44551E-002	5.51433E-004	...........
	16	4.39167	-2.31868E-002	-2.50103E-002	5.50666E-004	...........
	17	4.65	-2.37970E-002	-2.55623E-002	5.57566E-004	...........
	18	4.90833	-2.43866E-002	-2.61050E-002	5.50733E-004	...........
EOC	QUANT	-0.0243866	Open Circuit (V)
PSTATMODEL	IQUANT	4	Pstat Model
PSTATSECTION	LABEL	REF600-11020	Pstat Section
PSTATSERIALNO	LABEL	11020	Pstat Serial Number
CTRLMODE	IQUANT	1	Control Mode
IESTAB	IQUANT	0	I/E Stability
CASPEED	IQUANT	1	Control Amp Speed
CONVENTION	IQUANT	1	Current Convention
ICHRANGE	IQUANT	2	Ich Range
ICHRANGEMODE	TOGGLE	F	Ich Auto Range
ICHOFFSETENABLE	TOGGLE	T	Ich Offset Enable
ICHOFFSET	QUANT	0	Ich Offset (V)
ICHFILTER	IQUANT	3	Ich Filter
VCHRANGE	IQUANT	2	Vch Range
VCHRANGEMODE	TOGGLE	F	Vch Auto Range
VCHOFFSETENABLE	TOGGLE	T	Vch Offset Enable
VCHOFFSET	QUANT	0	Vch Offset (V)
VCHFILTER	IQUANT	3	Vch Filter
ACHRANGE	IQUANT	2	Ach Range
ACHOFFSETENABLE	TOGGLE	F	Ach Offset Enable
ACHOFFSET	QUANT	0	Ach Offset (V)
ACHFILTER	IQUANT	3	Ach Filter
IERANGELOWERLIMIT	IQUANT	1	I/E Range Lower Limit
IERANGEMODE	TOGGLE	F	I/E AutoRange
IERANGE	IQUANT	5	I/E Range
POSFEEDENABLE	TOGGLE	F	Positive Feedback IR Comp
POSFEEDRESISTANCE	QUANT	0	Positive Feedback Resistance (ohm)
ACHSELECT	IQUANT	0	Ach Select
CABLEID	IQUANT	14	Cable ID
DCCALDATE	LABEL	8/19/2019	DC Calibration Date
ACCALDATE	LABEL	8/19/2019	AC Calibration Date
THERMOSELECT	IQUANT	1	Thermo Select
FRAMEWORKVERSION	QUANT	6.33	Framework Version
INSTRUMENTVERSION	LABEL	3.50	Instrument Version
ZCURVE	TABLE
	Pt	Time	Freq	Zreal	Zimag	Zsig	Zmod	Zphz	Idc	Vdc	IERange
	#	s	Hz	ohm	ohm	V	ohm	°	A	V	#
	0	1	1000078	2432.937	-1384.659	1	2799.368	-29.64553	9.565398E-006	-0.0234212	8
	1	3	794390.6	2687.844	-1307.131	1	2988.829	-25.93421	-1.038156E-005	-0.0216591	8
	2	4	630984.4	2914.209	-1204.941	1	3153.49	-22.46367	9.647698E-006	-0.0236311	8
	3	5	501234.4	3101.568	-1085.904	1	3286.169	-19.29589	-2.001601E-006	-0.0231993	8
	4	7	398109.4	3259.313	-962.202	1	3398.375	-16.44745	1.623625E-007	-0.0232516	8
	5	8	316265.6	3379.663	-839.1179	1	3482.275	-13.9437	-1.879729E-006	-0.0228444	8
	6	9	251203.1	3471.778	-729.3137	1	3547.554	-11.86358	1.763074E-006	-0.0227443	8
	7	11	199546.9	3550.965	-644.2597	1	3608.937	-10.28344	-3.958312E-006	-0.0226904	8
	8	12	158578.1	3603.359	-552.3193	1	3645.442	-8.714417	7.049219E-007	-0.0226564	8
	9	14	125953.1	3686.319	-447.933	1	3713.434	-6.928175	-1.505932E-006	-0.0233664	7
	10	15	100078.1	3713.391	-402.9404	1	3735.188	-6.192941	1.192389E-007	-0.0242519	7
	11	16	79453.13	3744.423	-379.0705	1	3763.562	-5.780702	-2.617177E-007	-0.0218385	7
	12	18	63140.62	3778.086	-363.7503	1	3795.556	-5.499429	-2.536369E-007	-0.0238083	7
	13	19	50203.12	3810.951	-355.6988	1	3827.515	-5.332308	6.975021E-007	-0.0246095	7
	14	20	39890.62	3839.177	-353.1954	1	3855.39	-5.256283	-9.177884E-007	-0.0226004	7
	15	22	31640.63	3875.913	-362.2926	1	3892.809	-5.340083	8.728369E-007	-0.0245252	7
	16	23	25171.88	3908.43	-375.1459	1	3926.393	-5.48267	8.707007E-007	-0.0245309	7
	17	24	20015.62	3939.884	-399.3303	1	3960.07	-5.787498	-1.082114E-006	-0.0217685	7
	18	26	15890.62	3976.918	-427.3218	1	3999.811	-6.132929	-2.549027E-007	-0.0238157	7
	19	27	12609.37	4010.78	-463.9251	1	4037.522	-6.598055	-9.160022E-007	-0.0226058	7
	20	29	10078.13	4052.673	-514.462	1	4085.197	-7.234652	7.339883E-007	-0.0232283	7
	21	30	8015.625	4087.56	-576.0587	1	4127.952	-8.02185	9.729787E-007	-0.0240406	7
	22	31	6328.125	4130.867	-656.8978	1	4182.771	-9.03562	-1.070375E-006	-0.0220993	7
	23	33	5015.625	4178.278	-758.5803	1	4246.582	-10.29016	8.971949E-007	-0.0236664	7
	24	34	3984.375	4218.761	-885.0421	1	4310.597	-11.8481	-7.93062E-007	-0.0215707	7
	25	35	3170.956	4275.864	-1035.922	1	4399.562	-13.61875	-5.517854E-007	-0.0216441	7
	26	37	2527.573	4331.336	-1221.473	1	4500.275	-15.7489	-1.080879E-006	-0.0217734	7
	27	38	1976.103	4402.603	-1472.431	1	4642.302	-18.49228	-9.688172E-007	-0.021624	7
	28	40	1577.524	4478.984	-1752.403	1	4809.596	-21.36793	7.357792E-007	-0.0232344	7
	29	41	1265.625	4558.473	-2096.477	1	5017.458	-24.69806	-9.157475E-007	-0.0226036	7
	30	42	998.264	4660.28	-2548.778	1	5311.73	-28.67492	4.431759E-007	-0.0245272	7
	31	44	796.875	4767.514	-3073.207	1	5672.195	-32.8064	-7.900381E-007	-0.0215768	7
	32	45	627.7902	4899.144	-3764.036	1	6178.153	-37.53525	-2.593156E-007	-0.0218522	7
	33	46	505.5147	5044.8	-4536.828	1	6784.749	-41.96529	-2.541995E-007	-0.0238188	7
	34	48	397.9953	5237.747	-5587.722	1	7658.762	-46.85166	7.694833E-009	-0.0230264	7
	35	49	315.5048	5466.249	-6852.554	1	8765.693	-51.42081	7.495333E-009	-0.0230219	7
	36	51	252.4038	5740.447	-8345.261	1	10128.97	-55.47712	1.338126E-009	-0.0230895	6
	37	52	198.6229	6108.062	-10325.98	1	11997.26	-59.39468	1.348114E-009	-0.0230878	6
	38	53	158.3615	6548.152	-12633.6	1	14229.76	-62.60173	1.509699E-009	-0.0231019	6
	39	55	125.558	7123.252	-15532.11	1	17087.63	-65.36311	1.371821E-009	-0.023084	6
	40	56	100.4464	7841.728	-18939.74	1	20498.93	-67.5087	1.056942E-009	-0.0230912	6
	41	58	79.00281	8830.32	-23462.2	1	25068.89	-69.37549	1.260677E-009	-0.0230925	6
	42	59	63.3446	9966.28	-28611.12	1	30297.25	-70.79494	8.58936E-010	-0.0230925	6
	43	60	49.86702	11648.56	-35036.2	1	36921.87	-71.60947	1.263521E-009	-0.023097	6
	44	62	39.72458	13750.78	-42796.19	1	44951.06	-72.18735	1.355526E-009	-0.0230832	6
	45	63	31.6723	16556	-52033.74	1	54604.14	-72.35006	1.226799E-009	-0.0230868	6
	46	65	24.93351	20197.74	-63700.79	1	66826.18	-72.40763	1.61841E-009	-0.0230949	6
	47	66	19.86229	24802.53	-77084.72	1	80976.66	-72.16407	1.146259E-009	-0.0230999	6
	48	67	15.83615	31025.79	-92781.27	1	97831.3	-71.51022	9.819403E-010	-0.0230982	6
	49	69	12.40079	39034.8	-113320.1	1	119854.7	-70.99297	-7.381031E-011	-0.0230861	5
	50	70	9.93114	48151.94	-134525	1	142883.1	-70.30566	1.25285E-009	-0.0230999	5
	51	72	7.944915	59900.07	-160062.2	1	170903.2	-69.48264	4.111406E-010	-0.0230995	5
	52	73	6.317385	74810.41	-190083.2	1	204274.8	-68.51705	1.155166E-009	-0.0230936	5
	53	75	5.008013	93913.89	-225687.7	1	244447.8	-67.40667	1.010616E-009	-0.0230787	5
	54	78	3.945707	118258.8	-268031.2	1	292960.5	-66.19231	5.138002E-010	-0.0231001	5
	55	81	3.158693	146227.7	-312690.6	1	345192.7	-64.93717	7.299681E-010	-0.023077	5
	56	84	2.504006	181589.3	-365720.7	1	408321.3	-63.59448	5.97534E-010	-0.0231008	5
	57	87	1.998082	222872.8	-422857.1	1	477996.2	-62.20789	1.767357E-010	-0.023068	5
	58	90	1.584686	271554.8	-488549.6	1	558947.8	-60.93299	6.794921E-010	-0.0230594	5
	59	94	1.266892	327647.2	-557450.9	1	646609.8	-59.5547	3.712218E-010	-0.023052	5
	60	98	0.999041	392902.7	-638412.5	1	749628.6	-58.39032	6.095421E-010	-0.0231266	5
