EXPLAIN
TAG	EISPOT
TITLE	LABEL	Potentiostatic EIS	Test &Identifier
DATE	LABEL	10/6/2019	Date
TIME	LABEL	8:57:15	Time
NOTES	NOTES	2	&Notes...
	
	
PSTAT	PSTAT	REF600-11020	Potentiostat
VDC	POTEN	0.00000E+000	T	DC &Voltage (V)
FREQINIT	QUANT	1.00000E+006	Initial Fre&q. (Hz)
FREQFINAL	QUANT	1.00000E+000	Final Fre&q. (Hz)
PTSPERDEC	QUANT	1.00000E+001	Points/&decade
VAC	QUANT	2.50000E+001	AC &Voltage (mV rms)
AREA	QUANT	1.00000E-002	&Area (cm^2)
CONDIT	TWOPARAM	T	5.00000E+000	0.00000E+000	Conditionin&g	Time(s)	E(V)
DELAY	TWOPARAM	T	5.00000E+000	0.00000E+000	Init. De&lay	Time(s)	Stab.(mV/s)
SPEED	SELECTOR	1	&Optimize for:
ZGUESS	QUANT	1.00000E+004	E&stimated Z (ohms)
OCVCURVE	TABLE	19
	Pt	T	Vf	Vm	Ach	Over
	#	s	V vs. Ref.	V	V	bits
	0	0.258333	3.63301E-003	3.63301E-003	5.63966E-004	...........
	1	0.516667	3.62859E-003	3.40214E-003	5.65799E-004	...........
	2	0.775	3.60348E-003	3.28657E-003	5.69166E-004	...........
	3	1.03333	3.53784E-003	3.11462E-003	5.67666E-004	...........
	4	1.29167	3.42858E-003	2.97979E-003	5.59766E-004	...........
	5	1.55	3.29251E-003	2.92360E-003	5.64466E-004	...........
	6	1.80833	3.15373E-003	2.83364E-003	5.66766E-004	...........
	7	2.06667	3.02997E-003	2.70988E-003	5.63232E-004	...........
	8	2.325	2.92324E-003	2.63348E-003	5.71999E-004	...........
	9	2.58333	2.82455E-003	2.49195E-003	5.67399E-004	...........
	10	2.84167	2.72586E-003	2.43350E-003	5.66666E-004	...........
	11	3.1	2.62584E-003	2.34375E-003	5.67199E-004	...........
	12	3.35833	2.52884E-003	2.27805E-003	5.61866E-004	...........
	13	3.61667	2.43887E-003	2.18213E-003	5.67932E-004	...........
	14	3.875	2.35541E-003	2.12050E-003	5.63432E-004	...........
	15	4.13333	2.27566E-003	2.03838E-003	5.62199E-004	...........
	16	4.39167	2.19795E-003	1.96474E-003	5.68432E-004	...........
	17	4.65	2.12225E-003	1.92604E-003	5.66732E-004	...........
	18	4.90833	2.05438E-003	2.07108E-003	5.66699E-004	...........
EOC	QUANT	0.0020544	Open Circuit (V)
PSTATMODEL	IQUANT	4	Pstat Model
PSTATSECTION	LABEL	REF600-11020	Pstat Section
PSTATSERIALNO	LABEL	11020	Pstat Serial Number
CTRLMODE	IQUANT	1	Control Mode
IESTAB	IQUANT	0	I/E Stability
CASPEED	IQUANT	1	Control Amp Speed
CONVENTION	IQUANT	1	Current Convention
ICHRANGE	IQUANT	2	Ich Range
ICHRANGEMODE	TOGGLE	F	Ich Auto Range
ICHOFFSETENABLE	TOGGLE	T	Ich Offset Enable
ICHOFFSET	QUANT	0	Ich Offset (V)
ICHFILTER	IQUANT	3	Ich Filter
VCHRANGE	IQUANT	2	Vch Range
VCHRANGEMODE	TOGGLE	F	Vch Auto Range
VCHOFFSETENABLE	TOGGLE	T	Vch Offset Enable
VCHOFFSET	QUANT	0	Vch Offset (V)
VCHFILTER	IQUANT	3	Vch Filter
ACHRANGE	IQUANT	2	Ach Range
ACHOFFSETENABLE	TOGGLE	F	Ach Offset Enable
ACHOFFSET	QUANT	0	Ach Offset (V)
ACHFILTER	IQUANT	3	Ach Filter
IERANGELOWERLIMIT	IQUANT	1	I/E Range Lower Limit
IERANGEMODE	TOGGLE	F	I/E AutoRange
IERANGE	IQUANT	5	I/E Range
POSFEEDENABLE	TOGGLE	F	Positive Feedback IR Comp
POSFEEDRESISTANCE	QUANT	0	Positive Feedback Resistance (ohm)
ACHSELECT	IQUANT	0	Ach Select
CABLEID	IQUANT	14	Cable ID
DCCALDATE	LABEL	8/19/2019	DC Calibration Date
ACCALDATE	LABEL	8/19/2019	AC Calibration Date
THERMOSELECT	IQUANT	1	Thermo Select
FRAMEWORKVERSION	QUANT	6.33	Framework Version
INSTRUMENTVERSION	LABEL	3.50	Instrument Version
ZCURVE	TABLE
	Pt	Time	Freq	Zreal	Zimag	Zsig	Zmod	Zphz	Idc	Vdc	IERange
	#	s	Hz	ohm	ohm	V	ohm	°	A	V	#
	0	2	1000078	2250.385	-1260.855	1	2579.532	-29.26122	2.712517E-006	0.0042283	8
	1	3	794390.6	2480.189	-1153.52	1	2735.315	-24.94284	6.058858E-007	0.0037819	8
	2	4	630984.4	2659.384	-1037.768	1	2854.695	-21.31716	-7.910324E-007	0.0039735	8
	3	6	501234.4	2811.532	-900.7574	1	2952.3	-17.7644	-4.928875E-006	0.0045801	8
	4	7	398109.4	2928.727	-775.4335	1	3029.643	-14.82981	1.74561E-006	0.0034982	8
	5	8	316265.6	3009.167	-652.5318	1	3079.105	-12.23504	-1.410238E-006	0.0040303	8
	6	10	251203.1	3067.928	-573.4797	1	3121.067	-10.58796	-1.73628E-006	0.0039626	8
	7	11	199546.9	3123.767	-500.0725	1	3163.541	-9.095102	4.034965E-007	0.0036094	8
	8	12	158578.1	3156.168	-442.1386	1	3186.986	-7.974508	-4.412055E-006	0.0043652	8
	9	14	125953.1	3213.572	-343.3705	1	3231.865	-6.098919	-3.166915E-007	0.003858	7
	10	15	100078.1	3231.935	-306.8408	1	3246.468	-5.423421	-8.33934E-008	0.0037796	7
	11	16	79453.13	3257.109	-290.4725	1	3270.036	-5.096217	-1.315885E-008	0.0035583	7
	12	18	63140.62	3280.761	-281.5518	1	3292.82	-4.905052	1.152422E-008	0.0036217	7
	13	19	50203.12	3305.21	-278.9971	1	3316.964	-4.824975	-3.899672E-008	0.0035245	7
	14	21	39890.62	3329.796	-282.0123	1	3341.717	-4.841031	4.06438E-008	0.0034766	7
	15	22	31640.63	3355.404	-293.19	1	3368.189	-4.993733	9.23013E-009	0.0034951	7
	16	23	25171.88	3381.183	-309.8919	1	3395.354	-5.236638	4.214873E-008	0.0034801	7
	17	25	20015.62	3403.429	-333.0346	1	3419.685	-5.588752	-6.950712E-008	0.0036519	7
	18	26	15890.62	3438.579	-366.2774	1	3458.032	-6.080218	-1.182896E-008	0.0035539	7
	19	27	12609.37	3468.478	-409.8293	1	3492.606	-6.738726	-3.554399E-009	0.0034616	7
	20	29	10078.13	3499.328	-460.6618	1	3529.519	-7.499462	5.196096E-008	0.0033688	7
	21	30	8015.625	3536.272	-520.0546	1	3574.308	-8.366117	-1.142114E-008	0.003549	7
	22	31	6328.125	3568.863	-613.6002	1	3621.227	-9.75557	-1.095855E-008	0.003552	7
	23	33	5015.625	3607.412	-719.6815	1	3678.5	-11.28243	-3.942802E-008	0.0035205	7
	24	34	3984.375	3649.575	-852.5043	1	3747.821	-13.14797	1.167423E-008	0.0036158	7
	25	35	3170.956	3695.879	-1010.609	1	3831.56	-15.29323	6.196703E-008	0.0034108	7
	26	37	2527.573	3749.304	-1206.282	1	3938.578	-17.8348	5.175784E-008	0.0033608	7
	27	38	1976.103	3816.775	-1469.086	1	4089.742	-21.05183	1.298013E-007	0.003322	7
	28	40	1577.524	3890.335	-1769.302	1	4273.773	-24.45577	-6.960713E-008	0.0036425	7
	29	41	1265.625	3967.802	-2119.752	1	4498.533	-28.11284	6.208422E-008	0.0034131	7
	30	42	998.264	4069.591	-2588.225	1	4822.912	-32.45602	-3.332853E-009	0.0034543	7
	31	44	796.875	4183.543	-3135.06	1	5227.871	-36.84712	8.488109E-008	0.0033394	7
	32	45	627.7902	4323.967	-3844.136	1	5785.678	-41.63805	5.217818E-008	0.0033625	7
	33	46	505.5147	4460.922	-4646.04	1	6440.925	-46.16449	6.182795E-008	0.0034049	7
	34	48	397.9953	4683.341	-5724.618	1	7396.278	-50.71322	4.887161E-009	0.0035381	7
	35	49	315.5048	4930.42	-7025.99	1	8583.331	-54.94112	6.478947E-009	0.0035361	7
	36	50	252.4038	5225.743	-8561.73	1	10030.53	-58.60175	5.363547E-009	0.0035317	7
	37	52	198.6229	5633.416	-10596.78	1	12001.13	-62.00419	1.145348E-009	0.0034775	6
	38	53	158.3615	6129.266	-12963.89	1	14339.82	-64.69544	1.24761E-009	0.0034708	6
	39	55	125.558	6788.693	-15942.3	1	17327.53	-66.93429	1.101649E-009	0.003477	6
	40	56	100.4464	7623.022	-19415.81	1	20858.68	-68.56407	1.867443E-010	0.0034713	6
	41	57	79.00281	8758.403	-24010.17	1	25557.73	-69.9591	8.780707E-010	0.0034754	6
	42	59	63.3446	10203.28	-29307.89	1	31033.2	-70.8049	1.096469E-009	0.0034732	6
	43	60	49.86702	12176.16	-35662.47	1	37683.82	-71.14867	1.368221E-009	0.0034715	6
	44	61	39.72458	14940.42	-43365.13	1	45866.66	-70.98983	5.710479E-010	0.0034772	6
	45	63	31.6723	18388.34	-52343.54	1	55479.52	-70.64358	1.280151E-009	0.0034743	6
	46	64	24.93351	22976.28	-63554.33	1	67580.04	-70.12397	8.129938E-010	0.0034725	6
	47	66	19.86229	28606.58	-75964.84	1	81172.61	-69.3648	1.040951E-010	0.0034717	6
	48	67	15.83615	35983.85	-90226.89	1	97137.7	-68.25714	5.248514E-010	0.0034742	6
	49	68	12.40079	45513.48	-108401.8	1	117568.8	-67.22446	8.445045E-010	0.003476	5
	50	70	9.93114	56545.13	-126450.1	1	138517.1	-65.90707	1.207132E-009	0.0034755	5
	51	71	7.944915	69667.08	-147459.3	1	163088.1	-64.71162	9.303534E-011	0.0034798	5
	52	73	6.317385	85094.36	-171872.4	1	191784.2	-63.6599	5.723539E-010	0.0034696	5
	53	75	5.008013	103864.8	-200084.5	1	225436.7	-62.56598	3.87447E-010	0.0034867	5
	54	78	3.945707	126097.5	-232565.3	1	264550.9	-61.53334	1.324398E-011	0.0034759	5
	55	80	3.158693	150077.5	-267387.9	1	306626	-60.6957	4.060697E-010	0.0034845	5
	56	84	2.504006	178908.9	-308811.8	1	356893.7	-59.91431	-5.134733E-011	0.0034789	5
	57	86	1.998082	209944.4	-353852.2	1	411446.2	-59.31887	4.078127E-010	0.0034389	5
	58	89	1.584686	246514.1	-409083.8	1	477617.8	-58.92681	6.823352E-011	0.0034459	5
	59	93	1.266892	287013.3	-468749.5	1	549638.8	-58.52105	2.731453E-010	0.003425	5
	60	97	0.999041	334994.2	-543150.4	1	638148.4	-58.33532	1.086772E-010	0.0035025	5
