EXPLAIN
TAG	EISPOT
TITLE	LABEL	Potentiostatic EIS	Test &Identifier
DATE	LABEL	9/24/2019	Date
TIME	LABEL	10:38:22	Time
NOTES	NOTES	1	&Notes...
	
PSTAT	PSTAT	REF600-11020	Potentiostat
VDC	POTEN	0.00000E+000	T	DC &Voltage (V)
FREQINIT	QUANT	1.00000E+006	Initial Fre&q. (Hz)
FREQFINAL	QUANT	1.00000E+000	Final Fre&q. (Hz)
PTSPERDEC	QUANT	1.00000E+001	Points/&decade
VAC	QUANT	2.50000E+001	AC &Voltage (mV rms)
AREA	QUANT	1.00000E-002	&Area (cm^2)
CONDIT	TWOPARAM	T	5.00000E+000	0.00000E+000	Conditionin&g	Time(s)	E(V)
DELAY	TWOPARAM	T	5.00000E+000	0.00000E+000	Init. De&lay	Time(s)	Stab.(mV/s)
SPEED	SELECTOR	1	&Optimize for:
ZGUESS	QUANT	1.00000E+004	E&stimated Z (ohms)
OCVCURVE	TABLE	19
	Pt	T	Vf	Vm	Ach	Over
	#	s	V vs. Ref.	V	V	bits
	0	0.258333	4.63852E-003	4.63852E-003	5.72932E-004	...........
	1	0.516667	4.63691E-003	4.55421E-003	5.71166E-004	...........
	2	0.775	4.62710E-003	4.47868E-003	5.73532E-004	...........
	3	1.03333	4.59979E-003	4.41420E-003	5.72599E-004	...........
	4	1.29167	4.55224E-003	4.35789E-003	5.69266E-004	...........
	5	1.55	4.49153E-003	4.30162E-003	5.75299E-004	...........
	6	1.80833	4.42752E-003	4.25262E-003	5.72832E-004	...........
	7	2.06667	4.36643E-003	4.20715E-003	5.74699E-004	...........
	8	2.325	4.31041E-003	4.16445E-003	5.76199E-004	...........
	9	2.58333	4.25946E-003	4.12477E-003	5.73399E-004	...........
	10	2.84167	4.21275E-003	4.08319E-003	5.74066E-004	...........
	11	3.1	4.16917E-003	4.04491E-003	5.74499E-004	...........
	12	3.35833	4.12764E-003	4.00617E-003	5.73266E-004	...........
	13	3.61667	4.08746E-003	3.96983E-003	5.72399E-004	...........
	14	3.875	4.04835E-003	3.93347E-003	5.68532E-004	...........
	15	4.13333	4.01023E-003	3.89697E-003	5.70799E-004	...........
	16	4.39167	3.97313E-003	3.87012E-003	5.72166E-004	...........
	17	4.65	3.93773E-003	3.85385E-003	5.73599E-004	...........
	18	4.90833	3.90574E-003	3.83709E-003	5.74932E-004	...........
EOC	QUANT	0.0039057	Open Circuit (V)
PSTATMODEL	IQUANT	4	Pstat Model
PSTATSECTION	LABEL	REF600-11020	Pstat Section
PSTATSERIALNO	LABEL	11020	Pstat Serial Number
CTRLMODE	IQUANT	1	Control Mode
IESTAB	IQUANT	0	I/E Stability
CASPEED	IQUANT	1	Control Amp Speed
CONVENTION	IQUANT	1	Current Convention
ICHRANGE	IQUANT	2	Ich Range
ICHRANGEMODE	TOGGLE	F	Ich Auto Range
ICHOFFSETENABLE	TOGGLE	T	Ich Offset Enable
ICHOFFSET	QUANT	0	Ich Offset (V)
ICHFILTER	IQUANT	3	Ich Filter
VCHRANGE	IQUANT	2	Vch Range
VCHRANGEMODE	TOGGLE	F	Vch Auto Range
VCHOFFSETENABLE	TOGGLE	T	Vch Offset Enable
VCHOFFSET	QUANT	0	Vch Offset (V)
VCHFILTER	IQUANT	3	Vch Filter
ACHRANGE	IQUANT	2	Ach Range
ACHOFFSETENABLE	TOGGLE	F	Ach Offset Enable
ACHOFFSET	QUANT	0	Ach Offset (V)
ACHFILTER	IQUANT	3	Ach Filter
IERANGELOWERLIMIT	IQUANT	1	I/E Range Lower Limit
IERANGEMODE	TOGGLE	F	I/E AutoRange
IERANGE	IQUANT	5	I/E Range
POSFEEDENABLE	TOGGLE	F	Positive Feedback IR Comp
POSFEEDRESISTANCE	QUANT	0	Positive Feedback Resistance (ohm)
ACHSELECT	IQUANT	0	Ach Select
CABLEID	IQUANT	14	Cable ID
DCCALDATE	LABEL	8/19/2019	DC Calibration Date
ACCALDATE	LABEL	8/19/2019	AC Calibration Date
THERMOSELECT	IQUANT	1	Thermo Select
FRAMEWORKVERSION	QUANT	6.33	Framework Version
INSTRUMENTVERSION	LABEL	3.50	Instrument Version
ZCURVE	TABLE
	Pt	Time	Freq	Zreal	Zimag	Zsig	Zmod	Zphz	Idc	Vdc	IERange
	#	s	Hz	ohm	ohm	V	ohm	°	A	V	#
	0	2	1000078	2056.064	-1718.377	1	2679.593	-39.88753	-4.869972E-006	0.0068738	8
	1	3	794390.6	2405.607	-1707.309	1	2949.89	-35.36411	9.021064E-007	0.0063208	8
	2	5	630984.4	2747.693	-1667.023	1	3213.843	-31.24514	-8.06116E-007	0.0060373	8
	3	6	501234.4	3062.866	-1572.752	1	3443.066	-27.18006	-2.211354E-006	0.0061542	8
	4	7	398109.4	3349.844	-1453.589	1	3651.626	-23.45733	5.105451E-006	0.0047138	8
	5	9	316265.6	3560.175	-1330.668	1	3800.727	-20.49397	-1.409584E-006	0.0058474	8
	6	10	251203.1	3734.681	-1176.317	1	3915.555	-17.48293	2.287763E-006	0.0051246	8
	7	12	199546.9	3905.176	-1018.668	1	4035.849	-14.61986	1.349925E-006	0.0052981	8
	8	13	158578.1	4019.185	-896.0343	1	4117.854	-12.56796	1.008971E-007	0.0054838	8
	9	14	125953.1	4133.812	-744.1547	1	4200.258	-10.2049	1.319843E-006	0.0032164	7
	10	16	100078.1	4194.869	-651.1328	1	4245.103	-8.823112	-3.843882E-008	0.0055766	7
	11	17	79453.13	4253.675	-585.5701	1	4293.792	-7.838195	1.308592E-007	0.0053554	7
	12	18	63140.62	4303.485	-532.6454	1	4336.323	-7.055657	8.049611E-008	0.0055001	7
	13	20	50203.12	4347.139	-494.7968	1	4375.208	-6.493532	8.125089E-008	0.0055068	7
	14	21	39890.62	4388.452	-469.6812	1	4413.515	-6.108919	8.116651E-008	0.0054989	7
	15	22	31640.63	4424.406	-456.4875	1	4447.893	-5.890642	7.890218E-008	0.0053831	7
	16	24	25171.88	4460.446	-455.4362	1	4483.637	-5.830012	-3.388511E-008	0.0055856	7
	17	25	20015.62	4499.87	-465.6359	1	4523.897	-5.907805	-1.052723E-008	0.005683	7
	18	27	15890.62	4538.094	-488.6201	1	4564.323	-6.145405	-4.392867E-008	0.0056958	7
	19	28	12609.37	4575.487	-522.1111	1	4605.18	-6.509891	3.834663E-008	0.0054979	7
	20	29	10078.13	4616.798	-568.0105	1	4651.608	-7.013925	-3.843258E-008	0.0055682	7
	21	31	8015.625	4659.596	-632.1071	1	4702.275	-7.725417	-8.32224E-009	0.0055035	7
	22	32	6328.125	4704.422	-714.9126	1	4758.433	-8.640903	8.055081E-008	0.0054993	7
	23	33	5015.625	4752.207	-820.3652	1	4822.496	-9.79434	-7.018536E-008	0.0056588	7
	24	35	3984.375	4806.057	-952.009	1	4899.439	-11.20441	7.051506E-008	0.0054271	7
	25	36	3170.956	4862.995	-1113.291	1	4988.801	-12.89459	-7.264284E-009	0.005498	7
	26	37	2527.573	4928.355	-1312.979	1	5100.255	-14.91786	-3.751059E-008	0.0055661	7
	27	39	1976.103	5011.185	-1579.964	1	5254.356	-17.49942	8.043518E-008	0.0054999	7
	28	40	1577.524	5096.667	-1880.027	1	5432.358	-20.2477	-2.185471E-009	0.0055644	7
	29	41	1265.625	5196.005	-2231.641	1	5654.971	-23.24312	8.276205E-008	0.0055073	7
	30	43	998.264	5311.486	-2706.014	1	5961.074	-26.99723	-3.712391E-008	0.0055613	7
	31	44	796.875	5445.096	-3249.536	1	6341.021	-30.828	-4.409431E-008	0.005694	7
	32	46	627.7902	5603.003	-3957.195	1	6859.522	-35.23215	6.975976E-008	0.005427	7
	33	47	505.5147	5769.206	-4741.543	1	7467.662	-39.41579	8.031623E-008	0.0053746	7
	34	48	397.9953	5986.604	-5812.747	1	8344.307	-44.15584	6.917459E-009	0.0055621	7
	35	50	315.5048	6236.577	-7098.188	1	9448.766	-48.69696	6.248905E-009	0.0055603	7
	36	51	252.4038	6529.361	-8617.103	1	10811.43	-52.84802	8.689286E-010	0.0054962	6
	37	52	198.6229	6914.609	-10633.49	1	12683.96	-56.96538	1.083434E-009	0.005499	6
	38	54	158.3615	7368.631	-12987.45	1	14932.2	-60.43092	9.093895E-010	0.0054953	6
	39	55	125.558	7962.139	-15955.57	1	17831.88	-63.47992	1.381547E-009	0.0054969	6
	40	56	100.4464	8679.227	-19442.22	1	21291.52	-65.94347	2.947883E-010	0.0054924	6
	41	58	79.00281	9688.33	-24080.13	1	25956.05	-68.08324	1.857895E-010	0.0055007	6
	42	59	63.3446	11197.09	-29236.23	1	31307.06	-69.04382	1.648727E-009	0.0054896	6
	43	61	49.86702	12504.65	-36146.44	1	38248.29	-70.91724	1.361186E-009	0.0054924	6
	44	62	39.72458	14848.71	-43895.2	1	46338.68	-71.31054	1.619619E-009	0.0054936	6
	45	63	31.6723	17621.78	-53507.79	1	56334.81	-71.77168	5.294974E-010	0.0054956	6
	46	65	24.93351	21560.32	-65461.18	1	68920.34	-71.77016	1.084905E-009	0.0054911	6
	47	66	19.86229	26578.45	-79258.68	1	83596.37	-71.46174	1.152235E-009	0.0054878	6
	48	68	15.83615	32307.19	-95140.2	1	100475.9	-71.24382	7.160057E-010	0.0054884	6
	49	69	12.40079	42468.08	-115406.7	1	122972.5	-69.79708	2.28573E-009	0.0054967	5
	50	70	9.93114	52437.92	-138012.4	1	147638.6	-69.19566	1.201443E-009	0.0054947	5
	51	72	7.944915	65635.84	-163482.9	1	176166.7	-68.12531	-3.843276E-011	0.0054976	5
	52	74	6.317385	82754.09	-193798	1	210727.1	-66.87694	3.633441E-010	0.0054915	5
	53	76	5.008013	104615.8	-228582.3	1	251384.8	-65.40773	3.260998E-011	0.0054935	5
	54	78	3.945707	132536.5	-268448.5	1	299383.6	-63.72386	3.989293E-010	0.0055046	5
	55	81	3.158693	164056.6	-309856.3	1	350607.3	-62.10055	1.850873E-010	0.0054886	5
	56	84	2.504006	203178.9	-357015.4	1	410781.8	-60.35563	4.211702E-010	0.0055028	5
	57	87	1.998082	247273.5	-406122	1	475478	-58.66423	7.305514E-010	0.0054765	5
	58	90	1.584686	301457.8	-461773.5	1	551463.1	-56.86245	2.096805E-010	0.0054523	5
	59	94	1.266892	357878.2	-516553.5	1	628414.1	-55.28504	5.279239E-010	0.0054722	5
	60	98	0.999041	425300.9	-582811	1	721491.2	-53.88025	2.471061E-011	0.0055124	5
