EXPLAIN
TAG	EISPOT
TITLE	LABEL	Potentiostatic EIS	Test &Identifier
DATE	LABEL	10/14/2019	Date
TIME	LABEL	9:39:27	Time
NOTES	NOTES	1	&Notes...
	
PSTAT	PSTAT	REF600-11020	Potentiostat
VDC	POTEN	0.00000E+000	T	DC &Voltage (V)
FREQINIT	QUANT	1.00000E+006	Initial Fre&q. (Hz)
FREQFINAL	QUANT	1.00000E+000	Final Fre&q. (Hz)
PTSPERDEC	QUANT	1.00000E+001	Points/&decade
VAC	QUANT	2.50000E+001	AC &Voltage (mV rms)
AREA	QUANT	1.00000E-002	&Area (cm^2)
CONDIT	TWOPARAM	T	5.00000E+000	0.00000E+000	Conditionin&g	Time(s)	E(V)
DELAY	TWOPARAM	T	5.00000E+000	0.00000E+000	Init. De&lay	Time(s)	Stab.(mV/s)
SPEED	SELECTOR	1	&Optimize for:
ZGUESS	QUANT	1.00000E+004	E&stimated Z (ohms)
OCVCURVE	TABLE	19
	Pt	T	Vf	Vm	Ach	Over
	#	s	V vs. Ref.	V	V	bits
	0	0.258333	1.00923E-002	1.00923E-002	5.49099E-004	...........
	1	0.516667	1.00961E-002	1.02907E-002	5.48766E-004	...........
	2	0.775	1.01195E-002	1.04855E-002	5.59132E-004	...........
	3	1.03333	1.01862E-002	1.06759E-002	5.57233E-004	...........
	4	1.29167	1.03065E-002	1.08537E-002	5.57666E-004	...........
	5	1.55	1.04681E-002	1.10336E-002	5.52166E-004	...........
	6	1.80833	1.06491E-002	1.12111E-002	5.51866E-004	...........
	7	2.06667	1.08339E-002	1.13716E-002	5.52966E-004	...........
	8	2.325	1.10147E-002	1.15330E-002	5.47766E-004	...........
	9	2.58333	1.11891E-002	1.17022E-002	5.45699E-004	...........
	10	2.84167	1.13578E-002	1.18599E-002	5.50999E-004	...........
	11	3.1	1.15226E-002	1.20042E-002	5.48833E-004	...........
	12	3.35833	1.16836E-002	1.21470E-002	5.52333E-004	...........
	13	3.61667	1.18395E-002	1.22886E-002	5.54533E-004	...........
	14	3.875	1.19894E-002	1.24170E-002	5.52299E-004	...........
	15	4.13333	1.21329E-002	1.25234E-002	5.52832E-004	...........
	16	4.39167	1.22691E-002	1.26550E-002	5.47233E-004	...........
	17	4.65	1.23983E-002	1.27924E-002	5.48499E-004	...........
	18	4.90833	1.25243E-002	1.29302E-002	5.54033E-004	...........
EOC	QUANT	0.0125243	Open Circuit (V)
PSTATMODEL	IQUANT	4	Pstat Model
PSTATSECTION	LABEL	REF600-11020	Pstat Section
PSTATSERIALNO	LABEL	11020	Pstat Serial Number
CTRLMODE	IQUANT	1	Control Mode
IESTAB	IQUANT	0	I/E Stability
CASPEED	IQUANT	1	Control Amp Speed
CONVENTION	IQUANT	1	Current Convention
ICHRANGE	IQUANT	2	Ich Range
ICHRANGEMODE	TOGGLE	F	Ich Auto Range
ICHOFFSETENABLE	TOGGLE	T	Ich Offset Enable
ICHOFFSET	QUANT	0	Ich Offset (V)
ICHFILTER	IQUANT	3	Ich Filter
VCHRANGE	IQUANT	2	Vch Range
VCHRANGEMODE	TOGGLE	F	Vch Auto Range
VCHOFFSETENABLE	TOGGLE	T	Vch Offset Enable
VCHOFFSET	QUANT	0	Vch Offset (V)
VCHFILTER	IQUANT	3	Vch Filter
ACHRANGE	IQUANT	2	Ach Range
ACHOFFSETENABLE	TOGGLE	F	Ach Offset Enable
ACHOFFSET	QUANT	0	Ach Offset (V)
ACHFILTER	IQUANT	3	Ach Filter
IERANGELOWERLIMIT	IQUANT	1	I/E Range Lower Limit
IERANGEMODE	TOGGLE	F	I/E AutoRange
IERANGE	IQUANT	6	I/E Range
POSFEEDENABLE	TOGGLE	F	Positive Feedback IR Comp
POSFEEDRESISTANCE	QUANT	0	Positive Feedback Resistance (ohm)
ACHSELECT	IQUANT	0	Ach Select
CABLEID	IQUANT	14	Cable ID
DCCALDATE	LABEL	8/19/2019	DC Calibration Date
ACCALDATE	LABEL	8/19/2019	AC Calibration Date
THERMOSELECT	IQUANT	1	Thermo Select
FRAMEWORKVERSION	QUANT	6.33	Framework Version
INSTRUMENTVERSION	LABEL	3.50	Instrument Version
ZCURVE	TABLE
	Pt	Time	Freq	Zreal	Zimag	Zsig	Zmod	Zphz	Idc	Vdc	IERange
	#	s	Hz	ohm	ohm	V	ohm	°	A	V	#
	0	1	1000078	2059.034	-1122.175	1	2344.973	-28.59042	2.217757E-006	0.0146673	8
	1	3	794390.6	2258.585	-1027.951	1	2481.509	-24.47173	-1.02043E-006	0.0144234	8
	2	4	630984.4	2434.235	-924.9909	1	2604.056	-20.80641	-3.169971E-006	0.0149948	8
	3	5	501234.4	2566.627	-813.634	1	2692.503	-17.58888	-1.811193E-006	0.0146303	8
	4	7	398109.4	2670.601	-708.4213	1	2762.964	-14.8565	1.322103E-006	0.014057	8
	5	8	316265.6	2737.481	-600.2042	1	2802.508	-12.36665	-4.526752E-006	0.0151246	8
	6	9	251203.1	2808.49	-529.5191	1	2857.972	-10.67734	1.866814E-006	0.013588	8
	7	11	199546.9	2854.515	-459.2949	1	2891.229	-9.140615	-2.364292E-007	0.0140568	8
	8	12	158578.1	2885.654	-414.0724	1	2915.211	-8.165827	-4.670441E-007	0.0142568	8
	9	13	125953.1	2934.403	-341.7562	1	2954.237	-6.643044	6.777378E-007	0.0122159	7
	10	15	100078.1	2957.738	-312.011	1	2974.149	-6.021846	1.245646E-007	0.0138688	7
	11	16	79453.13	2982.122	-301.6587	1	2997.341	-5.776146	-9.123879E-009	0.0140935	7
	12	18	63140.62	3008.89	-298.7774	1	3023.688	-5.670779	-6.947744E-008	0.0141667	7
	13	19	50203.12	3036.482	-303.2036	1	3051.582	-5.702288	2.876408E-008	0.0140232	7
	14	20	39890.62	3065.565	-314.0612	1	3081.61	-5.849435	6.872105E-008	0.013905	7
	15	22	31640.63	3096.362	-330.1782	1	3113.916	-6.086692	3.90514E-008	0.0139337	7
	16	23	25171.88	3129.334	-352.8316	1	3149.162	-6.432918	7.268412E-008	0.0140156	7
	17	24	20015.62	3157.939	-383.6468	1	3181.157	-6.926717	7.358263E-008	0.0140119	7
	18	26	15890.62	3205.071	-420.3598	1	3232.52	-7.471956	7.310917E-008	0.0138963	7
	19	27	12609.37	3250.33	-465.4173	1	3283.483	-8.148834	-3.924679E-008	0.014071	7
	20	28	10078.13	3296.47	-518.7885	1	3337.043	-8.94368	-7.248411E-008	0.0141627	7
	21	30	8015.625	3347.911	-578.5377	1	3397.531	-9.8042	7.453589E-008	0.014004	7
	22	31	6328.125	3408.124	-659.9042	1	3471.424	-10.9584	-3.529938E-008	0.0140779	7
	23	32	5015.625	3471.363	-750.9814	1	3551.666	-12.20704	5.798834E-008	0.0139452	7
	24	34	3984.375	3548.221	-858.1133	1	3650.511	-13.59555	1.304005E-008	0.0139818	7
	25	35	3170.956	3617.791	-982.702	1	3748.882	-15.1966	-9.459901E-009	0.0140874	7
	26	37	2527.573	3700.115	-1129.897	1	3868.788	-16.981	-9.086409E-009	0.014086	7
	27	38	1976.103	3798.576	-1321.491	1	4021.88	-19.18234	-1.335106E-008	0.0140266	7
	28	39	1577.524	3895.598	-1538.125	1	4188.258	-21.54592	-7.074949E-008	0.0141661	7
	29	41	1265.625	3994.698	-1780.758	1	4373.638	-24.02638	6.355945E-008	0.013939	7
	30	42	998.264	4111.126	-2104.847	1	4618.629	-27.1119	-3.545702E-008	0.0140674	7
	31	43	796.875	4224.965	-2485.777	1	4901.981	-30.47062	-6.537609E-009	0.0140845	7
	32	45	627.7902	4354.106	-2977.022	1	5274.552	-34.36149	7.383914E-008	0.0138959	7
	33	46	505.5147	4480.617	-3540.831	1	5710.815	-38.31774	7.217466E-008	0.0140116	7
	34	48	397.9953	4636.04	-4303.71	1	6325.725	-42.87104	4.369857E-009	0.0140576	7
	35	49	315.5048	4805.308	-5233.54	1	7104.993	-47.44262	2.745795E-009	0.0140618	7
	36	50	252.4038	4997.749	-6344.155	1	8076.249	-51.76994	3.92099E-009	0.014053	7
	37	52	198.6229	5246.523	-7827.627	1	9423.256	-56.16775	3.31171E-009	0.0140551	7
	38	53	158.3615	5540.673	-9568.88	1	11057.24	-59.92786	1.031899E-009	0.0139906	6
	39	54	125.558	5914.54	-11777.68	1	13179.36	-63.33502	5.128504E-010	0.0139874	6
	40	56	100.4464	6380.399	-14396.7	1	15747.2	-66.0978	1.248266E-009	0.0139904	6
	41	57	79.00281	6985.757	-17850.99	1	19169.21	-68.62775	7.684436E-010	0.013988	6
	42	59	63.3446	7829.492	-21647.47	1	23019.86	-70.11588	2.973314E-010	0.0139904	6
	43	60	49.86702	8844.997	-27074.66	1	28482.82	-71.90835	-1.112644E-010	0.0139894	6
	44	61	39.72458	10164.12	-33074.18	1	34600.73	-72.91713	3.778309E-011	0.0139938	6
	45	63	31.6723	11815.64	-40330.17	1	42025.37	-73.67086	-4.033199E-010	0.01399	6
	46	64	24.93351	14247.82	-49853.77	1	51849.77	-74.05048	8.977963E-011	0.0139897	6
	47	65	19.86229	17166.9	-60773.89	1	63151.95	-74.22652	1.082248E-009	0.0139945	6
	48	67	15.83615	21005.54	-74292.78	1	77205.25	-74.21228	-1.407974E-009	0.0139868	6
	49	68	12.40079	26579.97	-91061.06	1	94861.02	-73.72791	-4.561461E-010	0.0139935	6
	50	70	9.93114	32988.64	-109395.4	1	114261.1	-73.21909	6.608546E-010	0.0139926	5
	51	71	7.944915	40901	-131681	1	137886.8	-72.74485	-2.765458E-011	0.0139915	5
	52	73	6.317385	51556.49	-158121.5	1	166314.4	-71.94112	4.02799E-010	0.0139876	5
	53	75	5.008013	65312.76	-190032.1	1	200942.6	-71.03249	2.537407E-010	0.014007	5
	54	78	3.945707	83293.41	-228523.3	1	243229.7	-69.97394	-6.987845E-011	0.0139977	5
	55	80	3.158693	103831.1	-269985.2	1	289262.7	-68.96422	1.207733E-010	0.0140178	5
	56	84	2.504006	130160.1	-320474.8	1	345898.5	-67.89558	-1.769571E-010	0.0139914	5
	57	86	1.998082	160806.4	-376019.1	1	408961	-66.84579	-2.497659E-010	0.0139979	5
	58	89	1.584686	198224.7	-441180.1	1	483666.1	-65.80535	6.611492E-012	0.01405	5
	59	93	1.266892	243384.9	-515185.3	1	569782.5	-64.71291	-2.191688E-010	0.0140062	5
	60	97	0.999041	297512.7	-603965.8	1	673267	-63.77521	1.980451E-010	0.0140003	5
