EXPLAIN
TAG	EISPOT
TITLE	LABEL	Potentiostatic EIS	Test &Identifier
DATE	LABEL	11/11/2019	Date
TIME	LABEL	13:10:00	Time
NOTES	NOTES	3	&Notes...
	
	
	
PSTAT	PSTAT	REF600-11020	Potentiostat
VDC	POTEN	0.00000E+000	T	DC &Voltage (V)
FREQINIT	QUANT	1.00000E+006	Initial Fre&q. (Hz)
FREQFINAL	QUANT	1.00000E+000	Final Fre&q. (Hz)
PTSPERDEC	QUANT	1.00000E+001	Points/&decade
VAC	QUANT	2.50000E+001	AC &Voltage (mV rms)
AREA	QUANT	1.00000E-002	&Area (cm^2)
CONDIT	TWOPARAM	T	5.00000E+000	0.00000E+000	Conditionin&g	Time(s)	E(V)
DELAY	TWOPARAM	T	5.00000E+000	0.00000E+000	Init. De&lay	Time(s)	Stab.(mV/s)
SPEED	SELECTOR	1	&Optimize for:
ZGUESS	QUANT	1.00000E+005	E&stimated Z (ohms)
OCVCURVE	TABLE	19
	Pt	T	Vf	Vm	Ach	Over
	#	s	V vs. Ref.	V	V	bits
	0	0.258333	6.07053E-003	6.07053E-003	5.30266E-004	...........
	1	0.516667	6.07041E-003	6.06401E-003	5.28766E-004	...........
	2	0.775	6.07005E-003	6.07892E-003	5.27533E-004	...........
	3	1.03333	6.07053E-003	6.10224E-003	5.28766E-004	...........
	4	1.29167	6.07471E-003	6.12266E-003	5.27533E-004	...........
	5	1.55	6.08518E-003	6.15511E-003	5.31533E-004	...........
	6	1.80833	6.10277E-003	6.19950E-003	5.27133E-004	...........
	7	2.06667	6.12766E-003	6.24721E-003	5.30966E-004	...........
	8	2.325	6.16014E-003	6.29589E-003	5.34133E-004	...........
	9	2.58333	6.19972E-003	6.34874E-003	5.29866E-004	...........
	10	2.84167	6.24485E-003	6.40241E-003	5.32066E-004	...........
	11	3.1	6.29356E-003	6.44222E-003	5.29733E-004	...........
	12	3.35833	6.34327E-003	6.47549E-003	5.25400E-004	...........
	13	3.61667	6.39094E-003	6.52169E-003	5.20966E-004	...........
	14	3.875	6.43515E-003	6.56292E-003	5.31900E-004	...........
	15	4.13333	6.47688E-003	6.59830E-003	5.26300E-004	...........
	16	4.39167	6.51745E-003	6.63651E-003	5.25500E-004	...........
	17	4.65	6.55704E-003	6.67292E-003	5.26166E-004	...........
	18	4.90833	6.59592E-003	6.72982E-003	5.25566E-004	...........
EOC	QUANT	0.0065959	Open Circuit (V)
PSTATMODEL	IQUANT	4	Pstat Model
PSTATSECTION	LABEL	REF600-11020	Pstat Section
PSTATSERIALNO	LABEL	11020	Pstat Serial Number
CTRLMODE	IQUANT	1	Control Mode
IESTAB	IQUANT	0	I/E Stability
CASPEED	IQUANT	1	Control Amp Speed
CONVENTION	IQUANT	1	Current Convention
ICHRANGE	IQUANT	2	Ich Range
ICHRANGEMODE	TOGGLE	F	Ich Auto Range
ICHOFFSETENABLE	TOGGLE	T	Ich Offset Enable
ICHOFFSET	QUANT	0	Ich Offset (V)
ICHFILTER	IQUANT	3	Ich Filter
VCHRANGE	IQUANT	2	Vch Range
VCHRANGEMODE	TOGGLE	F	Vch Auto Range
VCHOFFSETENABLE	TOGGLE	T	Vch Offset Enable
VCHOFFSET	QUANT	0	Vch Offset (V)
VCHFILTER	IQUANT	3	Vch Filter
ACHRANGE	IQUANT	2	Ach Range
ACHOFFSETENABLE	TOGGLE	F	Ach Offset Enable
ACHOFFSET	QUANT	0	Ach Offset (V)
ACHFILTER	IQUANT	3	Ach Filter
IERANGELOWERLIMIT	IQUANT	1	I/E Range Lower Limit
IERANGEMODE	TOGGLE	F	I/E AutoRange
IERANGE	IQUANT	5	I/E Range
POSFEEDENABLE	TOGGLE	F	Positive Feedback IR Comp
POSFEEDRESISTANCE	QUANT	0	Positive Feedback Resistance (ohm)
ACHSELECT	IQUANT	0	Ach Select
CABLEID	IQUANT	14	Cable ID
DCCALDATE	LABEL	8/19/2019	DC Calibration Date
ACCALDATE	LABEL	8/19/2019	AC Calibration Date
THERMOSELECT	IQUANT	1	Thermo Select
FRAMEWORKVERSION	QUANT	6.33	Framework Version
INSTRUMENTVERSION	LABEL	3.50	Instrument Version
ZCURVE	TABLE
	Pt	Time	Freq	Zreal	Zimag	Zsig	Zmod	Zphz	Idc	Vdc	IERange
	#	s	Hz	ohm	ohm	V	ohm	°	A	V	#
	0	2	1000078	2441.924	-1747.875	1	3003.009	-35.59426	-1.783986E-006	0.0081629	8
	1	3	794390.6	2797.962	-1671.124	1	3259.026	-30.84839	8.974642E-006	0.007522	8
	2	5	630984.4	3100.276	-1570.491	1	3475.364	-26.86517	-2.273406E-006	0.0079741	8
	3	6	501234.4	3368.509	-1415.168	1	3653.704	-22.7881	1.106414E-006	0.0085651	8
	4	8	398109.4	3590.441	-1267.059	1	3807.454	-19.43783	-4.568854E-006	0.0084855	8
	5	9	316265.6	3757.904	-1111.743	1	3918.905	-16.48039	3.973157E-006	0.0080416	8
	6	10	251203.1	3903.257	-971.165	1	4022.26	-13.972	-8.906312E-007	0.0084686	8
	7	12	199546.9	4002.68	-845.5978	1	4091.024	-11.92879	-3.362476E-007	0.0084924	8
	8	13	158578.1	4075.948	-739.8323	1	4142.548	-10.28785	-1.923206E-006	0.0082094	8
	9	14	125953.1	4188.077	-578.1954	1	4227.801	-7.860424	5.299555E-007	0.0101803	7
	10	16	100078.1	4224.665	-503.7369	1	4254.591	-6.799681	-5.898249E-007	0.0095387	7
	11	17	79453.13	4262.815	-464.1174	1	4288.006	-6.213649	-2.816141E-007	0.007219	7
	12	18	63140.62	4299.246	-433.5749	1	4321.053	-5.758755	1.158009E-007	0.0067254	7
	13	20	50203.12	4335.465	-417.8237	1	4355.552	-5.504792	9.514305E-007	0.0073634	7
	14	21	39890.62	4364.422	-410.2916	1	4383.666	-5.370491	-6.798716E-007	0.0078663	7
	15	22	31640.63	4399.427	-416.2988	1	4419.079	-5.405557	3.611109E-007	0.0085338	7
	16	24	25171.88	4431.74	-432.3815	1	4452.783	-5.57241	1.02285E-006	0.0066526	7
	17	25	20015.62	4464.891	-462.7962	1	4488.812	-5.917707	1.171089E-007	0.0067294	7
	18	27	15890.62	4497.562	-501.1381	1	4525.396	-6.357922	-5.866948E-007	0.0095285	7
	19	28	12609.37	4533.485	-552.2974	1	4567.003	-6.9459	-9.781169E-007	0.0085017	7
	20	29	10078.13	4571.102	-625.626	1	4613.716	-7.793393	-9.805922E-007	0.0084963	7
	21	31	8015.625	4611.467	-715.554	1	4666.652	-8.820156	-1.029544E-006	0.0095397	7
	22	32	6328.125	4658.06	-834.6968	1	4732.255	-10.15924	-2.782841E-007	0.0092942	7
	23	33	5015.625	4710.856	-981.427	1	4812.002	-11.76828	7.386452E-007	0.006344	7
	24	35	3984.375	4762.145	-1161.021	1	4901.631	-13.70154	6.358913E-008	0.008927	7
	25	36	3170.956	4822.158	-1383.492	1	5016.698	-16.00835	-2.778887E-007	0.0092884	7
	26	37	2527.573	4891.835	-1656.386	1	5164.655	-18.70621	-2.823127E-007	0.0072065	7
	27	39	1976.103	4982.449	-2025.067	1	5378.261	-22.1188	-9.802937E-007	0.0084908	7
	28	40	1577.524	5077.759	-2440.7	1	5633.884	-25.67195	-8.445987E-007	0.0095929	7
	29	42	1265.625	5190.337	-2932.53	1	5961.487	-29.46636	3.613985E-007	0.008516	7
	30	43	998.264	5337.893	-3586.355	1	6430.789	-33.89586	-2.822406E-007	0.0072074	7
	31	44	796.875	5507.331	-4345.809	1	7015.465	-38.27681	1.101701E-007	0.0067195	7
	32	46	627.7902	5730.345	-5330.887	1	7826.57	-42.93176	1.023082E-006	0.0066545	7
	33	47	505.5147	5972.315	-6406.312	1	8758.389	-47.00798	-2.722675E-007	0.0092952	7
	34	49	397.9953	6295.234	-7875.18	1	10082.08	-51.36198	2.235731E-009	0.0080432	7
	35	50	315.5048	6687.055	-9618.96	1	11714.99	-55.19315	9.067543E-010	0.0079837	6
	36	51	252.4038	7140.851	-11672.07	1	13683.16	-58.54213	1.493647E-010	0.0079764	6
	37	53	198.6229	7745.684	-14376.53	1	16330.35	-61.68542	8.18778E-010	0.0079753	6
	38	54	158.3615	8475.166	-17520.91	1	19463.06	-64.18615	8.171841E-010	0.007982	6
	39	55	125.558	9428.813	-21461.23	1	23441.13	-66.28211	5.930651E-010	0.0079806	6
	40	57	100.4464	10627.36	-26119.37	1	28198.62	-67.85975	7.271815E-010	0.0079702	6
	41	58	79.00281	12289.61	-32124.23	1	34394.78	-69.0649	-1.939546E-010	0.0079722	6
	42	60	63.3446	14149.72	-38701.15	1	41206.72	-69.91684	2.047906E-010	0.0079667	6
	43	61	49.86702	17764.2	-47737.55	1	50935.65	-69.58865	8.407576E-011	0.0079659	6
	44	62	39.72458	21473.16	-57774.2	1	61635.66	-69.61121	7.540802E-010	0.0079773	6
	45	64	31.6723	26431.24	-69453.48	1	74312.83	-69.16516	1.133104E-009	0.0079677	6
	46	65	24.93351	33826.62	-83796.42	1	90366.37	-68.01724	5.821629E-010	0.0079772	6
	47	66	19.86229	42610.98	-99229.5	1	107991.6	-66.76042	-2.157284E-010	0.0079835	5
	48	68	15.83615	52909.08	-116892.1	1	128308.8	-65.64699	1.052871E-009	0.0079715	5
	49	69	12.40079	68136.68	-138302.3	1	154175.6	-63.77214	1.528081E-010	0.0079799	5
	50	71	9.93114	84948.64	-158365.6	1	179710.7	-61.79052	4.753077E-010	0.0079826	5
	51	72	7.944915	104301	-181025.3	1	208923.1	-60.05082	1.676993E-010	0.0079805	5
	52	74	6.317385	126565.4	-206632.9	1	242313.8	-58.51199	-4.407245E-010	0.0079869	5
	53	76	5.008013	152545	-234861.6	1	280053.5	-56.99587	-2.606241E-010	0.0079741	5
	54	79	3.945707	182430.1	-265957.3	1	322512.1	-55.55231	3.906084E-010	0.0079811	5
	55	81	3.158693	213328.8	-298856.9	1	367184.7	-54.48015	-2.172903E-010	0.0079663	5
	56	85	2.504006	248357.9	-336477.2	1	418208.7	-53.56852	4.030275E-010	0.0079846	5
	57	87	1.998082	285879.3	-376689.4	1	472886.7	-52.80421	3.333926E-010	0.0079888	5
	58	90	1.584686	327128	-424495.5	1	535918.9	-52.38116	3.738592E-011	0.0079278	5
	59	94	1.266892	368293.1	-478474.7	1	603802.8	-52.41368	2.302355E-010	0.0079807	5
	60	98	0.999041	416936.1	-546101.3	1	687067.9	-52.63908	-2.72152E-010	0.0079619	5
