EXPLAIN
TAG	EISPOT
TITLE	LABEL	Potentiostatic EIS	Test &Identifier
DATE	LABEL	11/3/2019	Date
TIME	LABEL	11:08:02	Time
NOTES	NOTES	1	&Notes...
	
PSTAT	PSTAT	REF600-11020	Potentiostat
VDC	POTEN	0.00000E+000	T	DC &Voltage (V)
FREQINIT	QUANT	1.00000E+006	Initial Fre&q. (Hz)
FREQFINAL	QUANT	1.00000E+000	Final Fre&q. (Hz)
PTSPERDEC	QUANT	1.00000E+001	Points/&decade
VAC	QUANT	2.50000E+001	AC &Voltage (mV rms)
AREA	QUANT	1.00000E-002	&Area (cm^2)
CONDIT	TWOPARAM	T	5.00000E+000	0.00000E+000	Conditionin&g	Time(s)	E(V)
DELAY	TWOPARAM	T	5.00000E+000	0.00000E+000	Init. De&lay	Time(s)	Stab.(mV/s)
SPEED	SELECTOR	1	&Optimize for:
ZGUESS	QUANT	1.00000E+005	E&stimated Z (ohms)
OCVCURVE	TABLE	19
	Pt	T	Vf	Vm	Ach	Over
	#	s	V vs. Ref.	V	V	bits
	0	0.258333	4.37667E-003	4.37667E-003	5.65966E-004	...........
	1	0.516667	4.37403E-003	4.23849E-003	5.62366E-004	...........
	2	0.775	4.35787E-003	4.11017E-003	5.64032E-004	...........
	3	1.03333	4.31327E-003	4.03662E-003	5.63232E-004	...........
	4	1.29167	4.23772E-003	3.95399E-003	5.59866E-004	...........
	5	1.55	4.14647E-003	3.93874E-003	5.60532E-004	...........
	6	1.80833	4.05329E-003	3.54677E-003	5.64366E-004	...........
	7	2.06667	3.94817E-003	3.45341E-003	5.57699E-004	...........
	8	2.325	3.81665E-003	3.57194E-003	5.59299E-004	...........
	9	2.58333	3.68301E-003	3.61982E-003	5.63732E-004	...........
	10	2.84167	3.59405E-003	3.53731E-003	5.65666E-004	...........
	11	3.1	3.56011E-003	3.50326E-003	5.66232E-004	...........
	12	3.35833	3.54998E-003	3.45992E-003	5.66832E-004	...........
	13	3.61667	3.53406E-003	3.42935E-003	5.65999E-004	...........
	14	3.875	3.50511E-003	3.37463E-003	5.71566E-004	...........
	15	4.13333	3.46753E-003	3.33429E-003	5.72266E-004	...........
	16	4.39167	3.42578E-003	3.29577E-003	5.69799E-004	...........
	17	4.65	3.38290E-003	3.26797E-003	5.66966E-004	...........
	18	4.90833	3.34159E-003	3.22750E-003	5.68766E-004	...........
EOC	QUANT	0.0033416	Open Circuit (V)
PSTATMODEL	IQUANT	4	Pstat Model
PSTATSECTION	LABEL	REF600-11020	Pstat Section
PSTATSERIALNO	LABEL	11020	Pstat Serial Number
CTRLMODE	IQUANT	1	Control Mode
IESTAB	IQUANT	0	I/E Stability
CASPEED	IQUANT	1	Control Amp Speed
CONVENTION	IQUANT	1	Current Convention
ICHRANGE	IQUANT	2	Ich Range
ICHRANGEMODE	TOGGLE	F	Ich Auto Range
ICHOFFSETENABLE	TOGGLE	T	Ich Offset Enable
ICHOFFSET	QUANT	0	Ich Offset (V)
ICHFILTER	IQUANT	3	Ich Filter
VCHRANGE	IQUANT	2	Vch Range
VCHRANGEMODE	TOGGLE	F	Vch Auto Range
VCHOFFSETENABLE	TOGGLE	T	Vch Offset Enable
VCHOFFSET	QUANT	0	Vch Offset (V)
VCHFILTER	IQUANT	3	Vch Filter
ACHRANGE	IQUANT	2	Ach Range
ACHOFFSETENABLE	TOGGLE	F	Ach Offset Enable
ACHOFFSET	QUANT	0	Ach Offset (V)
ACHFILTER	IQUANT	3	Ach Filter
IERANGELOWERLIMIT	IQUANT	1	I/E Range Lower Limit
IERANGEMODE	TOGGLE	F	I/E AutoRange
IERANGE	IQUANT	4	I/E Range
POSFEEDENABLE	TOGGLE	F	Positive Feedback IR Comp
POSFEEDRESISTANCE	QUANT	0	Positive Feedback Resistance (ohm)
ACHSELECT	IQUANT	0	Ach Select
CABLEID	IQUANT	14	Cable ID
DCCALDATE	LABEL	8/19/2019	DC Calibration Date
ACCALDATE	LABEL	8/19/2019	AC Calibration Date
THERMOSELECT	IQUANT	1	Thermo Select
FRAMEWORKVERSION	QUANT	6.33	Framework Version
INSTRUMENTVERSION	LABEL	3.50	Instrument Version
ZCURVE	TABLE
	Pt	Time	Freq	Zreal	Zimag	Zsig	Zmod	Zphz	Idc	Vdc	IERange
	#	s	Hz	ohm	ohm	V	ohm	°	A	V	#
	0	2	1000078	1783.081	-1105.739	1	2098.104	-31.80422	-9.423045E-007	0.006141	8
	1	3	794390.6	1966.018	-1131.391	1	2268.32	-29.91929	-5.88973E-007	0.004797	8
	2	4	630984.4	2149.929	-1126.985	1	2427.404	-27.66336	-4.20988E-006	0.0056818	8
	3	6	501234.4	2328.622	-1112.52	1	2580.733	-25.53654	3.225863E-006	0.0043173	8
	4	7	398109.4	2500.049	-1103.505	1	2732.758	-23.81634	-1.972042E-006	0.0046264	8
	5	8	316265.6	2667.422	-1087.76	1	2880.688	-22.18536	-2.046014E-007	0.0045604	8
	6	10	251203.1	2832.446	-1060.437	1	3024.447	-20.52536	-3.543783E-007	0.0052685	8
	7	11	199546.9	2992.987	-1040.438	1	3168.672	-19.16874	-1.59177E-006	0.0045941	8
	8	12	158578.1	3130.706	-999.537	1	3286.395	-17.70667	-1.914989E-006	0.0049333	8
	9	14	125953.1	3302.562	-934.0244	1	3432.101	-15.79187	-3.014088E-006	0.0086967	7
	10	15	100078.1	3433.133	-916.3725	1	3553.328	-14.94498	6.340388E-007	0.0049028	7
	11	17	79453.13	3544.684	-911.8299	1	3660.084	-14.42593	-1.193109E-006	0.0058852	7
	12	18	63140.62	3668.51	-918.2123	1	3781.677	-14.05219	-2.39496E-007	0.0060487	7
	13	19	50203.12	3792.532	-923.6603	1	3903.389	-13.68775	9.2265E-007	0.0031185	7
	14	21	39890.62	3911.808	-940.3693	1	4023.25	-13.51699	6.365547E-007	0.0048868	7
	15	22	31640.63	4022.254	-956.743	1	4134.475	-13.37988	-1.050296E-006	0.0063588	7
	16	23	25171.88	4143.322	-984.151	1	4258.6	-13.36169	-3.420865E-007	0.0040082	7
	17	25	20015.62	4270.963	-1022.842	1	4391.734	-13.46796	6.164976E-008	0.003493	7
	18	26	15890.62	4399.54	-1070.195	1	4527.833	-13.67175	-1.039711E-006	0.0053324	7
	19	28	12609.37	4535.527	-1124.566	1	4672.863	-13.92543	-3.435836E-007	0.0040033	7
	20	29	10078.13	4680.604	-1189.454	1	4829.374	-14.25842	6.1667E-008	0.0034963	7
	21	30	8015.625	4836.945	-1272.92	1	5001.636	-14.744	1.044098E-006	0.0033067	7
	22	32	6328.125	4985.42	-1356.696	1	5166.724	-15.22341	-8.414295E-007	0.0063952	7
	23	33	5015.625	5152.16	-1460.175	1	5355.078	-15.82327	4.22724E-007	0.0031832	7
	24	34	3984.375	5308.932	-1568.852	1	5535.888	-16.46303	6.241553E-008	0.0034989	7
	25	36	3170.956	5456.419	-1704.203	1	5716.364	-17.34515	-1.194465E-006	0.0058677	7
	26	37	2527.573	5606.939	-1872.227	1	5911.26	-18.46481	-1.041991E-006	0.0053249	7
	27	38	1976.103	5781.367	-2117.233	1	6156.856	-20.11357	1.163166E-007	0.0056461	7
	28	40	1577.524	5906.133	-2392.405	1	6372.285	-22.05145	-1.193313E-006	0.0058639	7
	29	41	1265.625	6045.664	-2735.639	1	6635.795	-24.34656	-1.196877E-006	0.0058611	7
	30	43	998.264	6226.59	-3248.818	1	7023.193	-27.55399	1.074804E-006	0.0035936	7
	31	44	796.875	6398.773	-3817.969	1	7451.254	-30.82334	-5.631119E-007	0.006286	7
	32	46	627.7902	6614.519	-4573.318	1	8041.586	-34.66022	-7.482177E-007	0.0046674	7
	33	47	505.5147	6869.697	-5437.314	1	8761.114	-38.36135	-7.466307E-007	0.0046737	7
	34	49	397.9953	7251.076	-6622.062	1	9819.87	-42.40396	3.773443E-009	0.0047868	7
	35	50	315.5048	7705.81	-8005.884	1	11111.87	-46.09415	9.933292E-010	0.0047156	6
	36	51	252.4038	8267.485	-9609.5	1	12676.5	-49.2931	1.216854E-009	0.0047239	6
	37	53	198.6229	9052.173	-11675.58	1	14773.66	-52.21328	1.154764E-009	0.0047198	6
	38	54	158.3615	10021.29	-13997.1	1	17214.67	-54.39906	7.41505E-010	0.0047255	6
	39	55	125.558	11300.45	-16803.56	1	20249.93	-56.07905	1.047989E-009	0.0047142	6
	40	57	100.4464	12879.76	-19953.77	1	23749.55	-57.15856	7.401565E-010	0.0047134	6
	41	58	79.00281	15024.2	-23768.44	1	28118.78	-57.70273	2.303199E-010	0.0047174	6
	42	60	63.3446	17721.11	-27559.36	1	32765.16	-57.25833	3.973148E-010	0.0047233	6
	43	61	49.86702	20933.36	-32802.02	1	38912.44	-57.45509	-2.21826E-010	0.0047174	6
	44	62	39.72458	24562.13	-37667.72	1	44968.38	-56.89269	7.937328E-010	0.0047235	6
	45	64	31.6723	28889.89	-43028.39	1	51827.29	-56.12202	4.474568E-010	0.0047207	6
	46	65	24.93351	33698.43	-49496.54	1	59878.98	-55.75203	3.6356E-010	0.0047159	6
	47	66	19.86229	38661.4	-56427.2	1	68401.27	-55.58279	3.976848E-010	0.0047321	6
	48	68	15.83615	44055.36	-63765.3	1	77504.12	-55.35946	1.405939E-009	0.0047155	6
	49	69	12.40079	49898.44	-74712.61	1	89843.35	-56.26216	1.157749E-010	0.0047237	6
	50	71	9.93114	55719.19	-85549.47	1	102094.8	-56.92342	1.720354E-010	0.0047292	5
	51	72	7.944915	62315.89	-99031.5	1	117006.4	-57.81971	-1.644961E-011	0.0047193	5
	52	74	6.317385	69507.32	-116104.2	1	135319.8	-59.09259	7.27377E-010	0.0047208	5
	53	76	5.008013	78156.85	-137267.2	1	157958.1	-60.34378	4.770317E-010	0.0047397	5
	54	79	3.945707	88789.19	-163513.4	1	186064.9	-61.49766	-1.189452E-010	0.0047218	5
	55	81	3.158693	100532.7	-193055.8	1	217663.4	-62.49201	4.058748E-010	0.0047347	5
	56	85	2.504006	115534.6	-230117.8	1	257492.6	-63.34028	-1.035452E-010	0.0047195	5
	57	87	1.998082	132830.5	-272529.8	1	303177.2	-64.01548	-6.464203E-011	0.0047246	5
	58	90	1.584686	155186.9	-324802.2	1	359971.5	-64.46204	2.227396E-010	0.0047718	5
	59	94	1.266892	180255.3	-383418.9	1	423676.8	-64.82054	-1.708131E-011	0.0047466	5
	60	98	0.999041	211240.9	-456726.9	1	503211.9	-65.17897	-1.32437E-010	0.0047159	5
