EXPLAIN
TAG	EISPOT
TITLE	LABEL	Potentiostatic EIS	Test &Identifier
DATE	LABEL	10/16/2019	Date
TIME	LABEL	9:03:32	Time
NOTES	NOTES	1	&Notes...
	
PSTAT	PSTAT	REF600-11020	Potentiostat
VDC	POTEN	0.00000E+000	T	DC &Voltage (V)
FREQINIT	QUANT	1.00000E+006	Initial Fre&q. (Hz)
FREQFINAL	QUANT	1.00000E+000	Final Fre&q. (Hz)
PTSPERDEC	QUANT	1.00000E+001	Points/&decade
VAC	QUANT	2.50000E+001	AC &Voltage (mV rms)
AREA	QUANT	1.00000E-002	&Area (cm^2)
CONDIT	TWOPARAM	T	5.00000E+000	0.00000E+000	Conditionin&g	Time(s)	E(V)
DELAY	TWOPARAM	T	5.00000E+000	0.00000E+000	Init. De&lay	Time(s)	Stab.(mV/s)
SPEED	SELECTOR	0	&Optimize for:
ZGUESS	QUANT	1.00000E+005	E&stimated Z (ohms)
OCVCURVE	TABLE	19
	Pt	T	Vf	Vm	Ach	Over
	#	s	V vs. Ref.	V	V	bits
	0	0.258333	5.12115E-003	5.12115E-003	5.26700E-004	...........
	1	0.516667	5.12050E-003	5.08698E-003	5.26000E-004	...........
	2	0.775	5.11663E-003	5.06180E-003	5.20933E-004	...........
	3	1.03333	5.10637E-003	5.04992E-003	5.27066E-004	...........
	4	1.29167	5.09000E-003	5.04218E-003	5.29033E-004	...........
	5	1.55	5.07201E-003	5.04390E-003	5.27400E-004	...........
	6	1.80833	5.05729E-003	5.03893E-003	5.24733E-004	...........
	7	2.06667	5.04803E-003	5.05078E-003	5.28800E-004	...........
	8	2.325	5.04421E-003	5.05654E-003	5.25733E-004	...........
	9	2.58333	5.04519E-003	5.06925E-003	5.30366E-004	...........
	10	2.84167	5.05022E-003	5.08211E-003	5.22633E-004	...........
	11	3.1	5.05852E-003	5.09846E-003	5.22833E-004	...........
	12	3.35833	5.06952E-003	5.11531E-003	5.25733E-004	...........
	13	3.61667	5.08287E-003	5.13609E-003	5.22233E-004	...........
	14	3.875	5.09829E-003	5.15298E-003	5.32800E-004	...........
	15	4.13333	5.11544E-003	5.17543E-003	5.29700E-004	...........
	16	4.39167	5.13387E-003	5.19564E-003	5.30400E-004	...........
	17	4.65	5.15328E-003	5.21541E-003	5.23133E-004	...........
	18	4.90833	5.17328E-003	5.23339E-003	5.21700E-004	...........
EOC	QUANT	0.0051733	Open Circuit (V)
PSTATMODEL	IQUANT	4	Pstat Model
PSTATSECTION	LABEL	REF600-11020	Pstat Section
PSTATSERIALNO	LABEL	11020	Pstat Serial Number
CTRLMODE	IQUANT	1	Control Mode
IESTAB	IQUANT	0	I/E Stability
CASPEED	IQUANT	1	Control Amp Speed
CONVENTION	IQUANT	1	Current Convention
ICHRANGE	IQUANT	2	Ich Range
ICHRANGEMODE	TOGGLE	F	Ich Auto Range
ICHOFFSETENABLE	TOGGLE	T	Ich Offset Enable
ICHOFFSET	QUANT	0	Ich Offset (V)
ICHFILTER	IQUANT	3	Ich Filter
VCHRANGE	IQUANT	2	Vch Range
VCHRANGEMODE	TOGGLE	F	Vch Auto Range
VCHOFFSETENABLE	TOGGLE	T	Vch Offset Enable
VCHOFFSET	QUANT	0	Vch Offset (V)
VCHFILTER	IQUANT	3	Vch Filter
ACHRANGE	IQUANT	2	Ach Range
ACHOFFSETENABLE	TOGGLE	F	Ach Offset Enable
ACHOFFSET	QUANT	0	Ach Offset (V)
ACHFILTER	IQUANT	3	Ach Filter
IERANGELOWERLIMIT	IQUANT	1	I/E Range Lower Limit
IERANGEMODE	TOGGLE	F	I/E AutoRange
IERANGE	IQUANT	4	I/E Range
POSFEEDENABLE	TOGGLE	F	Positive Feedback IR Comp
POSFEEDRESISTANCE	QUANT	0	Positive Feedback Resistance (ohm)
ACHSELECT	IQUANT	0	Ach Select
CABLEID	IQUANT	14	Cable ID
DCCALDATE	LABEL	8/19/2019	DC Calibration Date
ACCALDATE	LABEL	8/19/2019	AC Calibration Date
THERMOSELECT	IQUANT	1	Thermo Select
FRAMEWORKVERSION	QUANT	6.33	Framework Version
INSTRUMENTVERSION	LABEL	3.50	Instrument Version
ZCURVE	TABLE
	Pt	Time	Freq	Zreal	Zimag	Zsig	Zmod	Zphz	Idc	Vdc	IERange
	#	s	Hz	ohm	ohm	V	ohm	°	A	V	#
	0	1	1000078	2099.234	-1198.817	1	2417.425	-29.72954	-1.940434E-006	0.00804	8
	1	1	794390.6	2328.332	-1136.296	1	2590.81	-26.01377	-1.993601E-007	0.0071596	8
	2	2	630984.4	2523.159	-1047.907	1	2732.113	-22.55388	-7.533944E-007	0.0070079	8
	3	2	501234.4	2686.408	-951.765	1	2850.025	-19.50867	7.014409E-007	0.0069562	8
	4	2	398109.4	2822.14	-845.0983	1	2945.958	-16.67049	-7.8034E-007	0.0071652	8
	5	3	316265.6	2933.072	-745.398	1	3026.306	-14.25904	-2.529675E-007	0.0068553	8
	6	3	251203.1	3019.346	-661.5405	1	3090.969	-12.35825	3.461166E-006	0.0061086	8
	7	3	199546.9	3097.087	-584.4239	1	3151.745	-10.68612	3.168578E-006	0.0063366	8
	8	3	158578.1	3151.502	-522.6867	1	3194.553	-9.416966	4.859073E-007	0.0068598	8
	9	4	125953.1	3218.884	-431.6522	1	3247.697	-7.637797	-4.768719E-008	0.0070553	7
	10	4	100078.1	3246.316	-385.7111	1	3269.149	-6.775835	-3.547437E-008	0.006906	7
	11	4	79453.13	3281.332	-364.3539	1	3301.499	-6.336077	-1.544663E-008	0.0068566	7
	12	5	63140.62	3314.801	-352.9418	1	3333.538	-6.077642	3.399136E-008	0.0067084	7
	13	5	50203.12	3347.374	-346.7412	1	3365.285	-5.91395	7.011102E-009	0.0068947	7
	14	5	39890.62	3379.262	-347.6868	1	3397.102	-5.874399	-2.380247E-008	0.0068059	7
	15	6	31640.63	3411.349	-356.0982	1	3429.885	-5.959312	-2.374463E-008	0.0068054	7
	16	6	25171.88	3444.33	-372.9398	1	3464.461	-6.17971	-3.208482E-008	0.0068883	7
	17	6	20015.62	3477.577	-396.4532	1	3500.102	-6.503796	-5.408159E-008	0.0069128	7
	18	7	15890.62	3511.994	-430.7941	1	3538.317	-6.993176	-9.956847E-009	0.0067873	7
	19	7	12609.37	3547.236	-475.5295	1	3578.968	-7.635343	3.478524E-008	0.0067066	7
	20	7	10078.13	3584.763	-529.7874	1	3623.699	-8.406815	1.041937E-008	0.0068883	7
	21	8	8015.625	3622.703	-597.1766	1	3671.594	-9.360618	-1.066162E-008	0.0067863	7
	22	8	6328.125	3664.87	-694.1194	1	3730.023	-10.72468	-2.194911E-008	0.0068005	7
	23	8	5015.625	3710.56	-809.7626	1	3797.89	-12.31076	-5.645379E-008	0.0068782	7
	24	9	3984.375	3739.332	-947.504	1	3857.508	-14.21883	4.802607E-008	0.0067235	7
	25	9	3170.956	3813.868	-1124.671	1	3976.238	-16.43025	3.243176E-008	0.0067702	7
	26	9	2527.573	3875.048	-1335.938	1	4098.869	-19.02183	-7.240832E-009	0.0067942	7
	27	9	1976.103	3952.846	-1618.553	1	4271.382	-22.26739	-6.820464E-009	0.0068439	7
	28	10	1577.524	4068.944	-1941.886	1	4508.573	-25.5126	-5.34737E-008	0.0068977	7
	29	10	1265.625	4126.409	-2322.035	1	4734.881	-29.36756	7.59783E-008	0.0067411	7
	30	10	998.264	4237.411	-2821.772	1	5090.978	-33.6604	-6.82289E-009	0.0067909	7
	31	11	796.875	4358.956	-3410.08	1	5534.36	-38.03664	-8.112836E-009	0.0068452	7
	32	11	627.7902	4507.217	-4177.779	1	6145.636	-42.8277	3.525921E-008	0.0066896	7
	33	11	505.5147	4667.347	-5034.368	1	6865.056	-47.1665	-5.808942E-009	0.0067892	7
	34	12	397.9953	4874.424	-6207.96	1	7892.958	-51.86137	2.220134E-009	0.0068237	7
	35	12	315.5048	5123.655	-7623.08	1	9184.943	-56.09401	3.507598E-009	0.0068219	7
	36	12	252.4038	5426.051	-9298.614	1	10765.98	-59.73502	1.131455E-009	0.006758	6
	37	13	198.6229	5834.687	-11523.6	1	12916.54	-63.14577	7.724649E-010	0.0067581	6
	38	13	158.3615	6338.52	-14121.66	1	15478.96	-65.82703	-2.492321E-010	0.0067552	6
	39	13	125.558	7006.402	-17390.66	1	18748.99	-68.05634	8.120333E-011	0.0067546	6
	40	14	100.4464	7852.276	-21199.87	1	22607.36	-69.67574	7.406005E-010	0.0067546	6
	41	14	79.00281	8995.585	-26283.86	1	27780.6	-71.10661	4.045602E-010	0.0067501	6
	42	14	63.3446	10836.53	-31822.09	1	33616.6	-71.1945	-2.593318E-010	0.0067481	6
	43	15	49.86702	12872.52	-39305.8	1	41359.98	-71.86655	-5.70308E-010	0.0067466	6
	44	15	39.72458	15308.56	-47819.13	1	50209.77	-72.24834	-3.319954E-010	0.0067536	6
	45	15	31.6723	18660.74	-57962.75	1	60892.56	-72.15437	-2.497283E-010	0.0067572	6
	46	16	24.93351	23689.38	-70875.44	1	74729.61	-71.51833	-6.743728E-010	0.0067553	6
	47	16	19.86229	29691.49	-85187.52	1	90213.62	-70.78437	-1.205409E-009	0.0067566	6
	48	16	15.83615	37487.22	-102410.2	1	109055.7	-69.89486	-4.173379E-010	0.0067616	5
	49	17	12.40079	49948.62	-122580.6	1	132366.4	-67.8303	-2.398951E-009	0.006767	5
	50	17	9.93114	61809.61	-144764.8	1	157408	-66.87918	2.172709E-010	0.0067676	5
	51	18	7.944915	77947.5	-169534.7	1	186595.4	-65.3083	5.297074E-010	0.0067572	5
	52	18	6.317385	98657.1	-196918.6	1	220250.3	-63.38892	1.132125E-010	0.006759	5
	53	19	5.008013	124090.7	-227472.7	1	259118.4	-61.38669	-2.511167E-010	0.0067529	5
	54	20	3.945707	154201.7	-261359.7	1	303458.5	-59.45947	1.449868E-010	0.0067621	5
	55	21	3.158693	186993.8	-295107.9	1	349364.3	-57.63979	-1.950738E-010	0.0067691	5
	56	23	2.504006	224448.4	-333179.3	1	401728.2	-56.03356	-3.176478E-010	0.0067591	5
	57	24	1.998082	264223.1	-371940.1	1	456238.2	-54.61034	6.50888E-011	0.0067934	5
	58	26	1.584686	307300.4	-418052.8	1	518846.5	-53.6813	9.646958E-011	0.0067965	5
	59	28	1.266892	351357.9	-467007.6	1	584421.5	-53.04366	1.298018E-011	0.0067556	5
	60	30	0.999041	402429.6	-527402.3	1	663402.4	-52.65488	-5.260789E-011	0.0067318	5
