EXPLAIN
TAG	EISPOT
TITLE	LABEL	Potentiostatic EIS	Test &Identifier
DATE	LABEL	10/12/2019	Date
TIME	LABEL	9:11:27	Time
NOTES	NOTES	1	&Notes...
	
PSTAT	PSTAT	REF600-11020	Potentiostat
VDC	POTEN	0.00000E+000	T	DC &Voltage (V)
FREQINIT	QUANT	1.00000E+006	Initial Fre&q. (Hz)
FREQFINAL	QUANT	1.00000E+000	Final Fre&q. (Hz)
PTSPERDEC	QUANT	1.00000E+001	Points/&decade
VAC	QUANT	2.50000E+001	AC &Voltage (mV rms)
AREA	QUANT	1.00000E-002	&Area (cm^2)
CONDIT	TWOPARAM	T	5.00000E+000	0.00000E+000	Conditionin&g	Time(s)	E(V)
DELAY	TWOPARAM	T	5.00000E+000	0.00000E+000	Init. De&lay	Time(s)	Stab.(mV/s)
SPEED	SELECTOR	1	&Optimize for:
ZGUESS	QUANT	1.00000E+004	E&stimated Z (ohms)
OCVCURVE	TABLE	19
	Pt	T	Vf	Vm	Ach	Over
	#	s	V vs. Ref.	V	V	bits
	0	0.258333	4.15233E-003	4.15233E-003	5.60999E-004	...........
	1	0.516667	4.14916E-003	3.98610E-003	5.58032E-004	...........
	2	0.775	4.12988E-003	3.84025E-003	5.62099E-004	...........
	3	1.03333	4.07652E-003	3.72239E-003	5.58499E-004	...........
	4	1.29167	3.98455E-003	3.62133E-003	5.60499E-004	...........
	5	1.55	3.86917E-003	3.53308E-003	5.60032E-004	...........
	6	1.80833	3.75088E-003	3.44740E-003	5.61766E-004	...........
	7	2.06667	3.64215E-003	3.37930E-003	5.62299E-004	...........
	8	2.325	3.54634E-003	3.31096E-003	5.64332E-004	...........
	9	2.58333	3.46225E-003	3.24851E-003	5.65066E-004	...........
	10	2.84167	3.38740E-003	3.19319E-003	5.60899E-004	...........
	11	3.1	3.31964E-003	3.14312E-003	5.62066E-004	...........
	12	3.35833	3.25765E-003	3.08890E-003	5.62866E-004	...........
	13	3.61667	3.20045E-003	3.04456E-003	5.58332E-004	...........
	14	3.875	3.14704E-003	2.99983E-003	5.60499E-004	...........
	15	4.13333	3.09676E-003	2.95492E-003	5.59166E-004	...........
	16	4.39167	3.04922E-003	2.91664E-003	5.57933E-004	...........
	17	4.65	3.00407E-003	2.87717E-003	5.57199E-004	...........
	18	4.90833	2.96117E-003	2.84032E-003	5.59132E-004	...........
EOC	QUANT	0.0029612	Open Circuit (V)
PSTATMODEL	IQUANT	4	Pstat Model
PSTATSECTION	LABEL	REF600-11020	Pstat Section
PSTATSERIALNO	LABEL	11020	Pstat Serial Number
CTRLMODE	IQUANT	1	Control Mode
IESTAB	IQUANT	0	I/E Stability
CASPEED	IQUANT	1	Control Amp Speed
CONVENTION	IQUANT	1	Current Convention
ICHRANGE	IQUANT	2	Ich Range
ICHRANGEMODE	TOGGLE	F	Ich Auto Range
ICHOFFSETENABLE	TOGGLE	T	Ich Offset Enable
ICHOFFSET	QUANT	0	Ich Offset (V)
ICHFILTER	IQUANT	3	Ich Filter
VCHRANGE	IQUANT	2	Vch Range
VCHRANGEMODE	TOGGLE	F	Vch Auto Range
VCHOFFSETENABLE	TOGGLE	T	Vch Offset Enable
VCHOFFSET	QUANT	0	Vch Offset (V)
VCHFILTER	IQUANT	3	Vch Filter
ACHRANGE	IQUANT	2	Ach Range
ACHOFFSETENABLE	TOGGLE	F	Ach Offset Enable
ACHOFFSET	QUANT	0	Ach Offset (V)
ACHFILTER	IQUANT	3	Ach Filter
IERANGELOWERLIMIT	IQUANT	1	I/E Range Lower Limit
IERANGEMODE	TOGGLE	F	I/E AutoRange
IERANGE	IQUANT	5	I/E Range
POSFEEDENABLE	TOGGLE	F	Positive Feedback IR Comp
POSFEEDRESISTANCE	QUANT	0	Positive Feedback Resistance (ohm)
ACHSELECT	IQUANT	0	Ach Select
CABLEID	IQUANT	14	Cable ID
DCCALDATE	LABEL	8/19/2019	DC Calibration Date
ACCALDATE	LABEL	8/19/2019	AC Calibration Date
THERMOSELECT	IQUANT	1	Thermo Select
FRAMEWORKVERSION	QUANT	6.33	Framework Version
INSTRUMENTVERSION	LABEL	3.50	Instrument Version
ZCURVE	TABLE
	Pt	Time	Freq	Zreal	Zimag	Zsig	Zmod	Zphz	Idc	Vdc	IERange
	#	s	Hz	ohm	ohm	V	ohm	°	A	V	#
	0	2	1000078	2325.581	-1651.998	1	2852.617	-35.38844	5.114152E-007	0.005395	8
	1	3	794390.6	2679.458	-1591.668	1	3116.554	-30.71142	6.259319E-006	0.0036073	8
	2	5	630984.4	2962.186	-1473.975	1	3308.647	-26.4548	-2.210779E-006	0.005075	8
	3	6	501234.4	3217.752	-1346.131	1	3487.979	-22.70176	3.598094E-006	0.0041185	8
	4	8	398109.4	3413.819	-1195.942	1	3617.242	-19.30657	-2.460465E-006	0.0050878	8
	5	9	316265.6	3585.556	-1032.582	1	3731.278	-16.06554	6.253733E-007	0.0046121	8
	6	10	251203.1	3690.362	-902.9266	1	3799.216	-13.74855	1.712829E-006	0.0042165	8
	7	12	199546.9	3788.985	-777.4109	1	3867.916	-11.59484	5.98364E-007	0.004405	8
	8	13	158578.1	3854.872	-680.8966	1	3914.544	-10.01699	2.918554E-006	0.0040554	8
	9	14	125953.1	3933.315	-543.9574	1	3970.75	-7.87377	-1.424346E-006	0.0076702	7
	10	16	100078.1	3970.433	-494.5792	1	4001.119	-7.100505	6.343814E-009	0.0045349	7
	11	17	79453.13	4008.096	-459.8767	1	4034.392	-6.545321	-1.118355E-008	0.0046128	7
	12	18	63140.62	4045.097	-437.2957	1	4068.666	-6.170005	-7.283727E-008	0.0046487	7
	13	20	50203.12	4079.585	-425.2824	1	4101.692	-5.951388	-3.354912E-008	0.0045417	7
	14	21	39890.62	4115.91	-424.8676	1	4137.781	-5.893522	-5.322992E-008	0.0046091	7
	15	22	31640.63	4152.554	-435.7259	1	4175.352	-5.990104	-1.071164E-008	0.0045446	7
	16	24	25171.88	4190.598	-455.5152	1	4215.282	-6.203657	4.46756E-008	0.0044143	7
	17	25	20015.62	4229.855	-485.0033	1	4257.57	-6.541078	-8.500369E-009	0.004606	7
	18	26	15890.62	4276.446	-529.084	1	4309.051	-7.052824	4.376458E-008	0.0044976	7
	19	28	12609.37	4326.604	-582.914	1	4365.695	-7.673132	-4.059694E-008	0.0046431	7
	20	29	10078.13	4375.281	-648.3253	1	4423.054	-8.428705	-6.650048E-008	0.0046622	7
	21	30	8015.625	4430.625	-734.4883	1	4491.092	-9.412625	1.22855E-007	0.0043644	7
	22	32	6328.125	4494.879	-832.2158	1	4571.271	-10.48939	-1.927217E-008	0.0045238	7
	23	33	5015.625	4561.131	-955.498	1	4660.139	-11.83163	7.84474E-008	0.0043814	7
	24	34	3984.375	4624.385	-1095.745	1	4752.431	-13.33034	4.395832E-008	0.0044872	7
	25	36	3170.956	4708.955	-1288.161	1	4881.969	-15.29928	-1.464498E-008	0.0045814	7
	26	37	2527.573	4790.485	-1507.55	1	5022.097	-17.46861	9.704993E-008	0.0044665	7
	27	39	1976.103	4891.835	-1798.139	1	5211.848	-20.1824	6.057935E-008	0.0044434	7
	28	40	1577.524	4955.535	-2108.865	1	5385.596	-23.05254	4.484128E-008	0.0044904	7
	29	41	1265.625	5102.16	-2525.152	1	5692.84	-26.33165	1.410581E-008	0.0046337	7
	30	43	998.264	5236.426	-3044.566	1	6057.189	-30.17461	4.542729E-008	0.0044121	7
	31	44	796.875	5381.56	-3650.258	1	6502.735	-34.14865	-2.183442E-008	0.0045172	7
	32	45	627.7902	5553.771	-4448.962	1	7116.012	-38.69719	-5.190474E-008	0.0046043	7
	33	47	505.5147	5736.88	-5340.957	1	7838.215	-42.95311	1.217589E-007	0.0043575	7
	34	48	397.9953	5978.735	-6553.259	1	8870.766	-47.62486	5.09777E-009	0.0045521	7
	35	49	315.5048	6266.589	-8016.089	1	10174.86	-51.98343	1.273499E-009	0.0044905	6
	36	51	252.4038	6603.962	-9747.49	1	11773.95	-55.88222	1.704207E-009	0.0044878	6
	37	52	198.6229	7063.149	-12044.47	1	13962.71	-59.61168	7.402617E-010	0.0044955	6
	38	53	158.3615	7625.751	-14723.6	1	16581.21	-62.61913	2.124239E-010	0.0044844	6
	39	55	125.558	8367.443	-18088.72	1	19930.28	-65.17578	1.310004E-009	0.0044907	6
	40	56	100.4464	9320.707	-22059.12	1	23947.45	-67.09434	5.776314E-010	0.0044901	6
	41	57	79.00281	10636.53	-27286.41	1	29286.24	-68.70364	9.653062E-010	0.0044885	6
	42	59	63.3446	12540.75	-33194.79	1	35484.71	-69.3038	3.726284E-010	0.0044915	6
	43	60	49.86702	14433.83	-40674.18	1	43159.29	-70.46203	8.52923E-010	0.0044892	6
	44	62	39.72458	17677.31	-49237.41	1	52314.53	-70.25075	1.36119E-009	0.0044899	6
	45	63	31.6723	21476.2	-59687.95	1	63434.05	-70.21087	-1.827568E-010	0.0044897	6
	46	64	24.93351	27192.93	-72337.4	1	77279.72	-69.39786	9.959643E-010	0.0044866	6
	47	66	19.86229	34202.35	-86710.29	1	93211.99	-68.47355	1.008155E-009	0.0044938	6
	48	67	15.83615	43918.34	-103169.6	1	112128.4	-66.94099	-1.251509E-009	0.0044972	5
	49	68	12.40079	55655.26	-123046.8	1	135048.2	-65.66229	-1.688682E-010	0.0045053	5
	50	70	9.93114	69813.29	-142703.4	1	158865.2	-63.93121	-4.060016E-010	0.0044998	5
	51	71	7.944915	87702.41	-164775.6	1	186662	-61.97569	4.252081E-010	0.0044905	5
	52	73	6.317385	107684.6	-188823.5	1	217371.3	-60.30422	5.526644E-010	0.0045036	5
	53	75	5.008013	131752	-215095.1	1	252239	-58.51132	5.251981E-010	0.0045073	5
	54	78	3.945707	159340.3	-244343	1	291706.8	-56.89095	-7.873627E-011	0.0044907	5
	55	80	3.158693	187419.3	-274113.7	1	332060.7	-55.63848	4.128746E-010	0.0045097	5
	56	84	2.504006	218954	-308709.1	1	378473.4	-54.65358	-2.325496E-010	0.004492	5
	57	86	1.998082	250904	-346082.5	1	427464.5	-54.05852	1.780898E-010	0.0044469	5
	58	89	1.584686	284588.4	-392023.1	1	484430.3	-54.0223	2.090083E-011	0.0044884	5
	59	93	1.266892	321109.3	-444598.7	1	548433.4	-54.16148	1.896724E-010	0.0044478	5
	60	97	0.999041	362184.4	-511988.1	1	627143.8	-54.72411	1.204965E-010	0.0045297	5
