EXPLAIN
TAG	EISPOT
TITLE	LABEL	Potentiostatic EIS	Test &Identifier
DATE	LABEL	10/2/2019	Date
TIME	LABEL	10:23:57	Time
NOTES	NOTES	2	&Notes...
	
	
PSTAT	PSTAT	REF600-11020	Potentiostat
VDC	POTEN	0.00000E+000	T	DC &Voltage (V)
FREQINIT	QUANT	1.00000E+006	Initial Fre&q. (Hz)
FREQFINAL	QUANT	1.00000E+000	Final Fre&q. (Hz)
PTSPERDEC	QUANT	1.00000E+001	Points/&decade
VAC	QUANT	2.50000E+001	AC &Voltage (mV rms)
AREA	QUANT	1.00000E-002	&Area (cm^2)
CONDIT	TWOPARAM	T	5.00000E+000	0.00000E+000	Conditionin&g	Time(s)	E(V)
DELAY	TWOPARAM	T	5.00000E+000	0.00000E+000	Init. De&lay	Time(s)	Stab.(mV/s)
SPEED	SELECTOR	1	&Optimize for:
ZGUESS	QUANT	1.00000E+004	E&stimated Z (ohms)
OCVCURVE	TABLE	19
	Pt	T	Vf	Vm	Ach	Over
	#	s	V vs. Ref.	V	V	bits
	0	0.258333	6.84825E-005	6.84825E-005	5.71366E-004	...........
	1	0.516667	6.22311E-005	-2.58756E-004	5.72132E-004	...........
	2	0.775	2.35956E-005	-5.81911E-004	5.65399E-004	...........
	3	1.03333	-8.78332E-005	-9.60571E-004	5.63699E-004	...........
	4	1.29167	-2.93152E-004	-1.25328E-003	5.63632E-004	...........
	5	1.55	-5.75077E-004	-1.59187E-003	5.66899E-004	...........
	6	1.80833	-8.94938E-004	-1.82197E-003	5.68166E-004	...........
	7	2.06667	-1.21553E-003	-2.00185E-003	5.65866E-004	...........
	8	2.325	-1.51017E-003	-2.22679E-003	5.64666E-004	...........
	9	2.58333	-1.76932E-003	-2.48336E-003	5.59199E-004	...........
	10	2.84167	-2.00311E-003	-2.69101E-003	5.63399E-004	...........
	11	3.1	-2.22616E-003	-2.82190E-003	5.61532E-004	...........
	12	3.35833	-2.43875E-003	-2.93760E-003	5.64899E-004	...........
	13	3.61667	-2.63065E-003	-3.13525E-003	5.63999E-004	...........
	14	3.875	-2.80049E-003	-3.30226E-003	5.62132E-004	...........
	15	4.13333	-2.95972E-003	-3.43536E-003	5.58132E-004	...........
	16	4.39167	-3.11700E-003	-3.56194E-003	5.66099E-004	...........
	17	4.65	-3.27001E-003	-3.67384E-003	5.70299E-004	...........
	18	4.90833	-3.41316E-003	-3.80714E-003	5.64532E-004	...........
EOC	QUANT	-0.0034132	Open Circuit (V)
PSTATMODEL	IQUANT	4	Pstat Model
PSTATSECTION	LABEL	REF600-11020	Pstat Section
PSTATSERIALNO	LABEL	11020	Pstat Serial Number
CTRLMODE	IQUANT	1	Control Mode
IESTAB	IQUANT	0	I/E Stability
CASPEED	IQUANT	1	Control Amp Speed
CONVENTION	IQUANT	1	Current Convention
ICHRANGE	IQUANT	2	Ich Range
ICHRANGEMODE	TOGGLE	F	Ich Auto Range
ICHOFFSETENABLE	TOGGLE	T	Ich Offset Enable
ICHOFFSET	QUANT	0	Ich Offset (V)
ICHFILTER	IQUANT	3	Ich Filter
VCHRANGE	IQUANT	2	Vch Range
VCHRANGEMODE	TOGGLE	F	Vch Auto Range
VCHOFFSETENABLE	TOGGLE	T	Vch Offset Enable
VCHOFFSET	QUANT	0	Vch Offset (V)
VCHFILTER	IQUANT	3	Vch Filter
ACHRANGE	IQUANT	2	Ach Range
ACHOFFSETENABLE	TOGGLE	F	Ach Offset Enable
ACHOFFSET	QUANT	0	Ach Offset (V)
ACHFILTER	IQUANT	3	Ach Filter
IERANGELOWERLIMIT	IQUANT	1	I/E Range Lower Limit
IERANGEMODE	TOGGLE	F	I/E AutoRange
IERANGE	IQUANT	5	I/E Range
POSFEEDENABLE	TOGGLE	F	Positive Feedback IR Comp
POSFEEDRESISTANCE	QUANT	0	Positive Feedback Resistance (ohm)
ACHSELECT	IQUANT	0	Ach Select
CABLEID	IQUANT	14	Cable ID
DCCALDATE	LABEL	8/19/2019	DC Calibration Date
ACCALDATE	LABEL	8/19/2019	AC Calibration Date
THERMOSELECT	IQUANT	1	Thermo Select
FRAMEWORKVERSION	QUANT	6.33	Framework Version
INSTRUMENTVERSION	LABEL	3.50	Instrument Version
ZCURVE	TABLE
	Pt	Time	Freq	Zreal	Zimag	Zsig	Zmod	Zphz	Idc	Vdc	IERange
	#	s	Hz	ohm	ohm	V	ohm	°	A	V	#
	0	1	1000078	2652.158	-1895.143	1	3259.679	-35.54832	-1.600985E-006	-0.0002659	8
	1	3	794390.6	3016.512	-1827.438	1	3526.879	-31.20797	-4.723099E-008	-0.0016003	8
	2	4	630984.4	3362.386	-1698.222	1	3766.908	-26.79672	2.490604E-006	-0.0023441	8
	3	5	501234.4	3644.453	-1501.289	1	3941.561	-22.38862	4.086372E-006	-0.0028421	8
	4	7	398109.4	3874.442	-1311.624	1	4090.435	-18.70263	-1.189924E-006	-0.0019749	8
	5	8	316265.6	4045.848	-1145.537	1	4204.896	-15.80889	-1.294991E-006	-0.0016014	8
	6	9	251203.1	4182.006	-976.236	1	4294.44	-13.13967	-7.281844E-007	-0.002018	8
	7	11	199546.9	4256.621	-827.7889	1	4336.364	-11.005	1.094011E-006	-0.002017	8
	8	12	158578.1	4340.362	-725.3412	1	4400.553	-9.487334	4.827586E-007	-0.0021455	8
	9	14	125953.1	4420.875	-581.0504	1	4458.896	-7.487657	3.85128E-007	-0.0030805	7
	10	15	100078.1	4455.658	-519.1425	1	4485.8	-6.645744	-9.166077E-009	-0.0020418	7
	11	16	79453.13	4492.491	-473.408	1	4517.366	-6.015491	1.039071E-007	-0.0020915	7
	12	18	63140.62	4529.185	-441.8917	1	4550.69	-5.572449	-9.974024E-009	-0.0019813	7
	13	19	50203.12	4561.013	-422.6035	1	4580.549	-5.293663	2.31461E-008	-0.0020958	7
	14	20	39890.62	4595.298	-416.1409	1	4614.102	-5.174476	8.211949E-010	-0.0020347	7
	15	22	31640.63	4629.349	-419.6021	1	4648.326	-5.179111	1.19228E-007	-0.0021952	7
	16	23	25171.88	4660.406	-433.8218	1	4680.554	-5.31815	-4.70494E-008	-0.0019012	7
	17	24	20015.62	4695.361	-459.6223	1	4717.803	-5.590792	-1.212433E-008	-0.001957	7
	18	26	15890.62	4734.904	-497.8592	1	4761.006	-6.002402	-3.850915E-008	-0.0020015	7
	19	27	12609.37	4774.85	-549.8816	1	4806.409	-6.569361	8.434039E-008	-0.0022007	7
	20	28	10078.13	4818.882	-611.2535	1	4857.495	-7.229105	4.408335E-008	-0.0021035	7
	21	30	8015.625	4862.433	-694.8016	1	4911.823	-8.132047	6.795847E-008	-0.0020672	7
	22	31	6328.125	4916.826	-801.8508	1	4981.781	-9.262429	-3.002748E-009	-0.0020397	7
	23	32	5015.625	4973.274	-929.3455	1	5059.361	-10.58467	1.081944E-008	-0.00204	7
	24	34	3984.375	5035.131	-1085.928	1	5150.901	-12.17059	-5.833063E-008	-0.0019362	7
	25	35	3170.956	5106.238	-1275.448	1	5263.12	-14.0245	-1.416615E-009	-0.0020395	7
	26	36	2527.573	5182.871	-1507.07	1	5397.538	-16.21332	8.65485E-008	-0.0021932	7
	27	38	1976.103	5279.294	-1816.167	1	5582.957	-18.98409	1.870645E-008	-0.0019233	7
	28	39	1577.524	5379.264	-2162.194	1	5797.548	-21.89765	-6.263902E-008	-0.0018981	7
	29	41	1265.625	5496.802	-2577.814	1	6071.241	-25.12499	-1.00006E-008	-0.0019879	7
	30	42	998.264	5641.677	-3119.303	1	6446.593	-28.93836	-5.301688E-008	-0.0018999	7
	31	43	796.875	5801.501	-3743.739	1	6904.563	-32.83436	5.873938E-008	-0.0021008	7
	32	45	627.7902	6004.912	-4553.652	1	7536.227	-37.17381	-5.574608E-008	-0.0019347	7
	33	46	505.5147	6215.606	-5450.89	1	8267.162	-41.24974	-9.47414E-009	-0.0020697	7
	34	47	397.9953	6503.723	-6668.103	1	9314.613	-45.715	4.939587E-009	-0.0019903	7
	35	49	315.5048	6831.692	-8114.153	1	10607.14	-49.90437	2.85543E-009	-0.0020503	6
	36	50	252.4038	7211.204	-9819.03	1	12182.56	-53.70602	1.154143E-009	-0.0020492	6
	37	51	198.6229	7710.762	-12071.34	1	14323.86	-57.43093	-7.761457E-010	-0.0020535	6
	38	53	158.3615	8299.907	-14690.54	1	16873.07	-60.53428	5.906561E-011	-0.0020607	6
	39	54	125.558	9062.598	-17981.47	1	20136.14	-63.25206	3.196182E-009	-0.0020555	6
	40	55	100.4464	10017.5	-21844.54	1	24031.94	-65.36469	2.281642E-009	-0.0020548	6
	41	57	79.00281	11362.72	-26941.36	1	29239.5	-67.13205	9.983834E-010	-0.00206	6
	42	58	63.3446	13081.49	-32715.63	1	35234.04	-68.20578	-8.47218E-010	-0.0020572	6
	43	60	49.86702	15088.95	-40019.85	1	42769.91	-69.34172	-5.959663E-009	-0.0020563	6
	44	61	39.72458	18120.12	-48457.14	1	51734.26	-69.49717	1.646194E-008	-0.0020594	6
	45	62	31.6723	21820.96	-58582.14	1	62514.17	-69.5704	1.793609E-009	-0.0020567	6
	46	64	24.93351	27140.41	-71010	1	76019.88	-69.08287	-2.232884E-009	-0.0020568	6
	47	65	19.86229	33523.33	-84944.45	1	91320.17	-68.46333	-1.464467E-009	-0.0020548	6
	48	66	15.83615	41198.08	-99735.3	1	107909.3	-67.55575	2.579219E-009	-0.0020479	5
	49	68	12.40079	51811.06	-120939	1	131569.9	-66.80939	2.246952E-009	-0.0020464	5
	50	69	9.93114	64032.68	-140923.5	1	154789	-65.56396	-7.544519E-010	-0.0020442	5
	51	71	7.944915	77950.83	-164256.7	1	181814.7	-64.61252	-1.5309E-009	-0.0020503	5
	52	72	6.317385	95080.2	-190183.4	1	212626.4	-63.43771	5.860269E-009	-0.0020608	5
	53	74	5.008013	114813.6	-222900.8	1	250732.8	-62.74753	-1.236406E-009	-0.0020466	5
	54	77	3.945707	138575.9	-259995.1	1	294619.7	-61.94265	-1.781465E-009	-0.0020454	5
	55	80	3.158693	164177.5	-300577.1	1	342492.1	-61.3563	5.506513E-010	-0.00205	5
	56	83	2.504006	196573.8	-348641.4	1	400240	-60.58448	-3.182698E-010	-0.0020353	5
	57	86	1.998082	227673.6	-402750.5	1	462648.1	-60.52066	5.482984E-010	-0.0020244	5
	58	89	1.584686	284494.4	-464601.7	1	544786	-58.51917	1.430694E-009	-0.0020844	5
	59	92	1.266892	310537.9	-538028.7	1	621215.5	-60.00743	-1.257038E-009	-0.0020257	5
	60	97	0.999041	370587	-628686.7	1	729781.9	-59.48226	2.944614E-010	-0.0020733	5
