EXPLAIN
TAG	EISPOT
TITLE	LABEL	Potentiostatic IDE	Test &Identifier
DATE	LABEL	9/4/2019	Date
TIME	LABEL	11:45:17	Time
NOTES	NOTES	1	&Notes...
	
PSTAT	PSTAT	REF600-11020	Potentiostat
VDC	POTEN	0.00000E+000	T	DC &Voltage (V)
FREQINIT	QUANT	1.00000E+006	Initial Fre&q. (Hz)
FREQFINAL	QUANT	1.00000E+000	Final Fre&q. (Hz)
PTSPERDEC	QUANT	1.00000E+001	Points/&decade
VAC	QUANT	2.50000E+001	AC &Voltage (mV rms)
AREA	QUANT	1.00000E-002	&Area (cm^2)
CONDIT	TWOPARAM	T	5.00000E+000	0.00000E+000	Conditionin&g	Time(s)	E(V)
DELAY	TWOPARAM	T	5.00000E+000	0.00000E+000	Init. De&lay	Time(s)	Stab.(mV/s)
SPEED	SELECTOR	1	&Optimize for:
ZGUESS	QUANT	1.00000E+007	E&stimated Z (ohms)
OCVCURVE	TABLE	18
	Pt	T	Vf	Vm	Ach	Over
	#	s	V vs. Ref.	V	V	bits
	0	0.258333	7.70950E-002	7.70950E-002	5.62866E-004	...........
	1	0.516667	7.71345E-002	7.91631E-002	5.68666E-004	...........
	2	0.775	7.73775E-002	8.11428E-002	5.68999E-004	...........
	3	1.03333	7.80655E-002	8.30154E-002	5.62566E-004	...........
	4	1.29167	7.92965E-002	8.48050E-002	5.62266E-004	...........
	5	1.55	8.09315E-002	8.64924E-002	5.62999E-004	...........
	6	1.80833	8.27393E-002	8.81073E-002	5.65499E-004	...........
	7	2.06667	8.45483E-002	8.96361E-002	5.62132E-004	...........
	8	2.325	8.62803E-002	9.11037E-002	5.62899E-004	...........
	9	2.58333	8.79176E-002	9.24943E-002	5.66232E-004	...........
	10	2.84167	8.94672E-002	9.38365E-002	5.63566E-004	...........
	11	3.1	9.09398E-002	9.50991E-002	5.70199E-004	...........
	12	3.35833	9.23435E-002	9.63205E-002	5.66832E-004	...........
	13	3.61667	9.36831E-002	9.74800E-002	5.63399E-004	...........
	14	3.875	9.49624E-002	9.85953E-002	5.65699E-004	...........
	15	4.13333	9.61852E-002	9.96744E-002	5.63132E-004	...........
	16	4.39167	9.73561E-002	1.00709E-001	5.61532E-004	...........
	17	4.65	9.84799E-002	1.01710E-001	5.63332E-004	...........
EOC	QUANT	0.0995605	Open Circuit (V)
PSTATMODEL	IQUANT	4	Pstat Model
PSTATSECTION	LABEL	REF600-11020	Pstat Section
PSTATSERIALNO	LABEL	11020	Pstat Serial Number
CTRLMODE	IQUANT	1	Control Mode
IESTAB	IQUANT	0	I/E Stability
CASPEED	IQUANT	1	Control Amp Speed
CONVENTION	IQUANT	1	Current Convention
ICHRANGE	IQUANT	2	Ich Range
ICHRANGEMODE	TOGGLE	F	Ich Auto Range
ICHOFFSETENABLE	TOGGLE	T	Ich Offset Enable
ICHOFFSET	QUANT	0	Ich Offset (V)
ICHFILTER	IQUANT	3	Ich Filter
VCHRANGE	IQUANT	2	Vch Range
VCHRANGEMODE	TOGGLE	F	Vch Auto Range
VCHOFFSETENABLE	TOGGLE	T	Vch Offset Enable
VCHOFFSET	QUANT	0	Vch Offset (V)
VCHFILTER	IQUANT	3	Vch Filter
ACHRANGE	IQUANT	2	Ach Range
ACHOFFSETENABLE	TOGGLE	F	Ach Offset Enable
ACHOFFSET	QUANT	0	Ach Offset (V)
ACHFILTER	IQUANT	3	Ach Filter
IERANGELOWERLIMIT	IQUANT	1	I/E Range Lower Limit
IERANGEMODE	TOGGLE	F	I/E AutoRange
IERANGE	IQUANT	4	I/E Range
POSFEEDENABLE	TOGGLE	F	Positive Feedback IR Comp
POSFEEDRESISTANCE	QUANT	0	Positive Feedback Resistance (ohm)
ACHSELECT	IQUANT	0	Ach Select
CABLEID	IQUANT	14	Cable ID
DCCALDATE	LABEL	8/19/2019	DC Calibration Date
ACCALDATE	LABEL	8/19/2019	AC Calibration Date
THERMOSELECT	IQUANT	1	Thermo Select
FRAMEWORKVERSION	QUANT	6.33	Framework Version
INSTRUMENTVERSION	LABEL	3.50	Instrument Version
ZCURVE	TABLE
	Pt	Time	Freq	Zreal	Zimag	Zsig	Zmod	Zphz	Idc	Vdc	IERange
	#	s	Hz	ohm	ohm	V	ohm	°	A	V	#
	0	2	1000078	2498.484	-1718.323	1	3032.335	-34.5181	1.056179E-005	0.1011266	8
	1	4	794390.6	2811.328	-1681.352	1	3275.745	-30.88209	1.134309E-005	0.1010538	8
	2	5	630984.4	3089.298	-1559.173	1	3460.46	-26.78015	1.196235E-005	0.1008725	8
	3	7	501234.4	3340.095	-1420.16	1	3629.475	-23.03449	1.448347E-005	0.1003835	8
	4	8	398109.4	3528.688	-1283.405	1	3754.833	-19.98663	1.15919E-005	0.1008229	8
	5	10	316265.6	3696.805	-1158.249	1	3874.004	-17.39634	1.295274E-005	0.1004337	8
	6	12	251203.1	3820.318	-1059.423	1	3964.493	-15.49937	1.261933E-005	0.1005416	8
	7	13	199546.9	3917.468	-962.534	1	4033.984	-13.80429	1.105374E-005	0.1008399	8
	8	15	158578.1	3996.467	-913.538	1	4099.549	-12.87582	1.469933E-005	0.100086	8
	9	16	125953.1	4124.844	-879.9346	1	4217.656	-12.04215	6.183085E-007	0.1017112	7
	10	18	100078.1	4152.201	-848.7675	1	4238.063	-11.55289	1.222877E-006	0.1007422	7
	11	19	79453.13	4223.932	-867.9559	1	4312.186	-11.61181	1.20452E-006	0.1007107	7
	12	20	63140.62	4296.093	-905.9397	1	4390.574	-11.9078	1.146852E-006	0.1008229	7
	13	22	50203.12	4371.855	-968.532	1	4477.854	-12.49145	1.152942E-006	0.1008669	7
	14	23	39890.62	4457.499	-1061.811	1	4582.22	-13.3986	1.175975E-006	0.100848	7
	15	24	31640.63	4549.005	-1178.753	1	4699.246	-14.52715	1.17375E-006	0.1007556	7
	16	26	25171.88	4647.625	-1325.416	1	4832.923	-15.91716	1.204598E-006	0.1007019	7
	17	27	20015.62	4760.453	-1509.896	1	4994.166	-17.59772	1.145535E-006	0.1008195	7
	18	28	15890.62	4894.302	-1727.739	1	5190.306	-19.44356	1.222989E-006	0.100734	7
	19	30	12609.37	5045.408	-2000.244	1	5427.441	-21.62578	1.139448E-006	0.1008343	7
	20	31	10078.13	5211.947	-2322.216	1	5705.881	-24.01566	1.229615E-006	0.1006949	7
	21	32	8015.625	5413.35	-2684.129	1	6042.26	-26.37383	1.223466E-006	0.100727	7
	22	34	6328.125	5646.447	-3150.812	1	6466.063	-29.16225	1.148152E-006	0.1008027	7
	23	35	5015.625	5921.589	-3696.692	1	6980.741	-31.97545	1.145989E-006	0.1008429	7
	24	36	3984.375	6232.364	-4336.194	1	7592.427	-34.82843	1.175596E-006	0.1008409	7
	25	38	3170.956	6602.93	-5086.04	1	8334.656	-37.60599	1.15798E-006	0.1007809	7
	26	39	2527.573	7022.122	-5966.122	1	9214.381	-40.35183	1.148714E-006	0.1007783	7
	27	40	1976.103	7563.136	-7106.744	1	10378.19	-43.21806	1.165867E-006	0.1008089	7
	28	42	1577.524	8170.492	-8365.867	1	11693.79	-45.67691	1.135313E-006	0.1007494	7
	29	43	1265.625	8850.095	-9793.61	1	13199.96	-47.89713	1.11756E-006	0.1008428	7
	30	44	998.264	9733.84	-11591.04	1	15136.04	-49.97738	1.065922E-007	0.1007944	6
	31	46	796.875	10704.13	-13620.08	1	17322.96	-51.83591	1.113547E-007	0.1007403	6
	32	47	627.7902	11938.03	-16152	1	20084.91	-53.53171	1.084216E-007	0.1008409	6
	33	48	505.5147	13284.24	-18856.36	1	23065.85	-54.83543	1.157851E-007	0.1006608	6
	34	50	397.9953	15058.66	-22352.66	1	26951.89	-56.03243	1.131409E-007	0.1003955	6
	35	51	315.5048	17100.93	-26353.09	1	31415.4	-57.01983	1.130263E-007	0.1003958	6
	36	52	252.4038	19434.64	-30843.26	1	36455.62	-57.78457	1.132008E-007	0.1003926	6
	37	54	198.6229	22403.84	-36480.47	1	42810.71	-58.44457	1.132571E-007	0.1003952	6
	38	55	158.3615	25729.45	-42718.52	1	49868.59	-58.93937	1.136596E-007	0.1003922	6
	39	57	125.558	29764.01	-50167.99	1	58332.87	-59.3199	1.134472E-007	0.1003932	6
	40	58	100.4464	34250.66	-58468.47	1	67761.86	-59.63835	1.131886E-007	0.1003887	6
	41	59	79.00281	40179.18	-68946.47	1	79799.63	-59.76812	1.13765E-007	0.1003908	6
	42	61	63.3446	45973.08	-78924.66	1	91337.98	-59.77949	1.134889E-007	0.1003897	6
	43	62	49.86702	53753.93	-94752.74	1	108938.4	-60.43344	1.135293E-007	0.1003885	6
	44	63	39.72458	62264.4	-109416.2	1	125891.9	-60.35752	1.135589E-007	0.100391	6
	45	65	31.6723	71662.8	-127440.7	1	146207.7	-60.64996	1.128506E-008	0.1003979	5
	46	66	24.93351	83471.12	-150104.1	1	171751.8	-60.92208	1.161445E-008	0.100388	5
	47	68	19.86229	95917.3	-175565.9	1	200058.8	-61.35078	1.138317E-008	0.1003978	5
	48	69	15.83615	111161.7	-205163.5	1	233343	-61.55029	1.097211E-008	0.1003918	5
	49	70	12.40079	127807.4	-243601.1	1	275093.1	-62.31586	1.165391E-008	0.1003883	5
	50	72	9.93114	146300.6	-285538.3	1	320836.4	-62.87087	1.124219E-008	0.1004057	5
	51	73	7.944915	168457.2	-334739.8	1	374738	-63.28626	1.125883E-008	0.100391	5
	52	75	6.317385	193020.7	-397272.3	1	441681.2	-64.08651	1.129442E-008	0.1003926	5
	53	77	5.008013	223777.3	-472788.6	1	523073	-64.67117	1.130516E-008	0.1003927	5
	54	79	3.945707	261214.5	-565755.3	1	623146.9	-65.21679	1.143483E-008	0.1004074	5
	55	82	3.158693	303288.5	-671692.7	1	736990.5	-65.69946	1.130447E-007	0.1003742	6
	56	86	2.504006	358435.5	-800042.1	1	876666.1	-65.86662	1.119501E-008	0.100688	5
	57	89	1.998082	420954.1	-947315.1	1	1036633	-66.04129	1.136274E-008	0.10067	5
	58	92	1.584686	506938.1	-1131861	1	1240200	-65.87334	1.131275E-008	0.1006238	5
	59	96	1.266892	604339.8	-1338790	1	1468872	-65.70524	1.145805E-009	0.1006809	4
	60	100	0.999041	736081.9	-1600046	1	1761239	-65.29577	1.001241E-009	0.1006435	4
