EXPLAIN
TAG	EISPOT
TITLE	LABEL	Potentiostatic IDE	Test &Identifier
DATE	LABEL	9/10/2019	Date
TIME	LABEL	9:35:36	Time
NOTES	NOTES	1	&Notes...
	
PSTAT	PSTAT	REF600-11020	Potentiostat
VDC	POTEN	0.00000E+000	T	DC &Voltage (V)
FREQINIT	QUANT	1.00000E+006	Initial Fre&q. (Hz)
FREQFINAL	QUANT	1.00000E+000	Final Fre&q. (Hz)
PTSPERDEC	QUANT	1.00000E+001	Points/&decade
VAC	QUANT	2.50000E+001	AC &Voltage (mV rms)
AREA	QUANT	1.00000E-002	&Area (cm^2)
CONDIT	TWOPARAM	T	5.00000E+000	0.00000E+000	Conditionin&g	Time(s)	E(V)
DELAY	TWOPARAM	T	5.00000E+000	0.00000E+000	Init. De&lay	Time(s)	Stab.(mV/s)
SPEED	SELECTOR	1	&Optimize for:
ZGUESS	QUANT	1.00000E+007	E&stimated Z (ohms)
OCVCURVE	TABLE	19
	Pt	T	Vf	Vm	Ach	Over
	#	s	V vs. Ref.	V	V	bits
	0	0.258333	4.57372E-003	4.57372E-003	5.54066E-004	...........
	1	0.516667	4.56943E-003	4.34907E-003	5.49299E-004	...........
	2	0.775	4.54346E-003	4.15593E-003	5.49633E-004	...........
	3	1.03333	4.47156E-003	3.98772E-003	5.47366E-004	...........
	4	1.29167	4.34697E-003	3.83586E-003	5.45699E-004	...........
	5	1.55	4.18824E-003	3.69447E-003	5.46433E-004	...........
	6	1.80833	4.02105E-003	3.56944E-003	5.46999E-004	...........
	7	2.06667	3.86201E-003	3.44923E-003	5.47899E-004	...........
	8	2.325	3.71687E-003	3.33876E-003	5.45866E-004	...........
	9	2.58333	3.58511E-003	3.23501E-003	5.48533E-004	...........
	10	2.84167	3.46426E-003	3.13680E-003	5.44299E-004	...........
	11	3.1	3.35219E-003	3.04781E-003	5.47466E-004	...........
	12	3.35833	3.24764E-003	2.96365E-003	5.51366E-004	...........
	13	3.61667	3.14992E-003	2.87849E-003	5.49199E-004	...........
	14	3.875	3.05818E-003	2.79998E-003	5.44033E-004	...........
	15	4.13333	2.97118E-003	2.72245E-003	5.56099E-004	...........
	16	4.39167	2.88790E-003	2.64798E-003	5.54199E-004	...........
	17	4.65	2.80769E-003	2.57316E-003	5.52666E-004	...........
	18	4.90833	2.73010E-003	2.50619E-003	5.51633E-004	...........
EOC	QUANT	0.0027301	Open Circuit (V)
PSTATMODEL	IQUANT	4	Pstat Model
PSTATSECTION	LABEL	REF600-11020	Pstat Section
PSTATSERIALNO	LABEL	11020	Pstat Serial Number
CTRLMODE	IQUANT	1	Control Mode
IESTAB	IQUANT	0	I/E Stability
CASPEED	IQUANT	1	Control Amp Speed
CONVENTION	IQUANT	1	Current Convention
ICHRANGE	IQUANT	2	Ich Range
ICHRANGEMODE	TOGGLE	F	Ich Auto Range
ICHOFFSETENABLE	TOGGLE	T	Ich Offset Enable
ICHOFFSET	QUANT	0	Ich Offset (V)
ICHFILTER	IQUANT	3	Ich Filter
VCHRANGE	IQUANT	2	Vch Range
VCHRANGEMODE	TOGGLE	F	Vch Auto Range
VCHOFFSETENABLE	TOGGLE	T	Vch Offset Enable
VCHOFFSET	QUANT	0	Vch Offset (V)
VCHFILTER	IQUANT	3	Vch Filter
ACHRANGE	IQUANT	2	Ach Range
ACHOFFSETENABLE	TOGGLE	F	Ach Offset Enable
ACHOFFSET	QUANT	0	Ach Offset (V)
ACHFILTER	IQUANT	3	Ach Filter
IERANGELOWERLIMIT	IQUANT	1	I/E Range Lower Limit
IERANGEMODE	TOGGLE	F	I/E AutoRange
IERANGE	IQUANT	2	I/E Range
POSFEEDENABLE	TOGGLE	F	Positive Feedback IR Comp
POSFEEDRESISTANCE	QUANT	0	Positive Feedback Resistance (ohm)
ACHSELECT	IQUANT	0	Ach Select
CABLEID	IQUANT	14	Cable ID
DCCALDATE	LABEL	8/19/2019	DC Calibration Date
ACCALDATE	LABEL	8/19/2019	AC Calibration Date
THERMOSELECT	IQUANT	1	Thermo Select
FRAMEWORKVERSION	QUANT	6.33	Framework Version
INSTRUMENTVERSION	LABEL	3.50	Instrument Version
ZCURVE	TABLE
	Pt	Time	Freq	Zreal	Zimag	Zsig	Zmod	Zphz	Idc	Vdc	IERange
	#	s	Hz	ohm	ohm	V	ohm	°	A	V	#
	0	2	1000078	2596.848	-1874.119	1	3202.49	-35.8176	-2.368175E-006	0.005683	8
	1	3	794390.6	2982.771	-1821.256	1	3494.838	-31.4079	4.830165E-006	0.0041144	8
	2	5	630984.4	3315.899	-1695.823	1	3724.379	-27.08619	2.579583E-006	0.0040082	8
	3	6	501234.4	3617.36	-1540.774	1	3931.829	-23.07104	-3.10647E-007	0.0044343	8
	4	7	398109.4	3830.781	-1386.009	1	4073.807	-19.89055	-1.742716E-006	0.0048374	8
	5	9	316265.6	4042.526	-1205.417	1	4218.417	-16.60375	3.372266E-006	0.0038741	8
	6	10	251203.1	4202.054	-1039.033	1	4328.608	-13.88882	3.043486E-006	0.0037336	8
	7	11	199546.9	4286.032	-901.6902	1	4379.854	-11.88056	1.64031E-007	0.0043455	8
	8	13	158578.1	4374.621	-772.7032	1	4442.339	-10.01701	-1.166918E-006	0.0047335	8
	9	14	125953.1	4459.898	-651.3423	1	4507.209	-8.308976	-7.078797E-007	0.0053916	7
	10	15	100078.1	4506.297	-579.7736	1	4543.441	-7.331316	-3.724497E-008	0.0044578	7
	11	17	79453.13	4548.124	-532.3367	1	4579.172	-6.675828	7.154645E-008	0.0043171	7
	12	18	63140.62	4587.52	-502.317	1	4614.939	-6.248789	-6.429785E-009	0.004381	7
	13	19	50203.12	4625.814	-484.9554	1	4651.166	-5.984842	-7.19082E-009	0.0044127	7
	14	21	39890.62	4661.229	-481.8846	1	4686.072	-5.902352	1.425116E-008	0.0044359	7
	15	22	31640.63	4701.112	-491.5682	1	4726.743	-5.969397	-4.580703E-008	0.004437	7
	16	23	25171.88	4740.043	-516.673	1	4768.119	-6.220781	6.362976E-008	0.0042402	7
	17	25	20015.62	4783.963	-553.9194	1	4815.925	-6.60468	-4.425839E-008	0.0045146	7
	18	26	15890.62	4833.714	-603.5212	1	4871.245	-7.116928	-2.721074E-008	0.0043738	7
	19	27	12609.37	4880.03	-672.3979	1	4926.136	-7.845137	-5.097805E-008	0.0045304	7
	20	29	10078.13	4933.04	-752.7501	1	4990.142	-8.676041	8.799088E-008	0.0042462	7
	21	30	8015.625	4994.185	-861.2385	1	5067.9	-9.78432	6.466897E-008	0.0042344	7
	22	31	6328.125	5064.573	-991.203	1	5160.657	-11.07356	-3.87045E-008	0.004411	7
	23	33	5015.625	5143.734	-1150.908	1	5270.919	-12.61217	-9.820885E-009	0.0043342	7
	24	34	3984.375	5229.643	-1338.745	1	5398.278	-14.35889	-4.013907E-008	0.0044132	7
	25	35	3170.956	5329.598	-1568.038	1	5555.48	-16.39458	-5.571092E-010	0.004336	7
	26	37	2527.573	5440.441	-1842.363	1	5743.927	-18.70827	-3.793094E-008	0.0044163	7
	27	38	1976.103	5575.761	-2199.923	1	5994.061	-21.53177	-4.61102E-008	0.0044222	7
	28	39	1577.524	5719.392	-2599.149	1	6282.278	-24.43919	-2.345277E-008	0.0044057	7
	29	41	1265.625	5879.863	-3064.665	1	6630.607	-27.52914	-4.933361E-009	0.0043969	7
	30	42	998.264	6072.348	-3677.035	1	7098.873	-31.19648	-5.515617E-009	0.0043559	7
	31	43	796.875	6277.328	-4377.465	1	7652.911	-34.88981	-7.790154E-009	0.004397	7
	32	45	627.7902	6528.995	-5288.059	1	8401.865	-39.00521	-5.058216E-008	0.0045236	7
	33	46	505.5147	6790.864	-6290.734	1	9256.845	-42.81056	-5.241779E-008	0.0045209	7
	34	47	397.9953	7125.404	-7646.267	1	10451.64	-47.01946	1.186855E-009	0.004325	6
	35	49	315.5048	7499.6	-9270.179	1	11923.93	-51.02705	1.29025E-009	0.0043245	6
	36	50	252.4038	7920.916	-11180.45	1	13701.94	-54.6839	7.953496E-010	0.0043237	6
	37	51	198.6229	8460.156	-13705.97	1	16106.76	-58.3146	9.748533E-010	0.0043204	6
	38	53	158.3615	9072.689	-16645.91	1	18957.85	-61.40784	9.107259E-010	0.0043239	6
	39	54	125.558	9837.43	-20341.13	1	22595.06	-64.19055	1.049373E-009	0.004324	6
	40	55	100.4464	10730.75	-24698.22	1	26928.63	-66.51627	4.452277E-010	0.0043214	6
	41	57	79.00281	11917.53	-30446.06	1	32695.41	-68.62309	1.26769E-009	0.0043177	6
	42	58	63.3446	13493.93	-37056.48	1	39436.9	-69.99116	7.048537E-010	0.0043195	6
	43	59	49.86702	15091.05	-45522.59	1	47958.79	-71.65929	3.649689E-010	0.0043226	6
	44	61	39.72458	17546.6	-55687.57	1	58386.55	-72.51088	6.560206E-010	0.0043277	6
	45	62	31.6723	20549.9	-67761.94	1	70809.45	-73.12923	9.723009E-010	0.0043232	6
	46	63	24.93351	24732.04	-83637.16	1	87217.24	-73.52671	9.159863E-010	0.0043231	6
	47	65	19.86229	29887.3	-101845.7	1	106140.4	-73.64532	4.413674E-010	0.0043295	5
	48	66	15.83615	36876.28	-123604.8	1	128988.4	-73.38804	7.103193E-010	0.0043275	5
	49	67	12.40079	46291.77	-152107.5	1	158995.7	-73.07311	7.07412E-010	0.0043236	5
	50	69	9.93114	58304.73	-182899.9	1	191968.3	-72.31879	1.582122E-010	0.0043329	5
	51	70	7.944915	73672.96	-219357.7	1	231399	-71.43498	4.189076E-010	0.0043196	5
	52	72	6.317385	93818.77	-263403.6	1	279613	-70.39518	2.091482E-010	0.0043241	5
	53	74	5.008013	120670.2	-315276.6	1	337580.6	-69.05595	1.773674E-010	0.0043187	5
	54	77	3.945707	156259.4	-376335.6	1	407486.8	-67.45114	3.279386E-010	0.0043256	5
	55	79	3.158693	197678	-440521.2	1	482841.1	-65.83247	3.956482E-010	0.0043428	5
	56	82	2.504006	252493.5	-515953.3	1	574422.1	-63.92414	-5.063929E-011	0.0043253	5
	57	85	1.998082	316460.9	-592902.7	1	672072.3	-61.909	3.442865E-010	0.0042834	5
	58	88	1.584686	394114.5	-681558.9	1	787304.8	-59.96116	8.209558E-011	0.0042913	5
	59	92	1.266892	480912.2	-767680.1	1	905874.9	-57.93497	3.816108E-010	0.0042922	5
	60	96	0.999041	586513.1	-870918.8	1	1049999	-56.04203	-6.963365E-011	0.0043376	4
