EXPLAIN
TAG	EISPOT
TITLE	LABEL	Potentiostatic EIS	Test &Identifier
DATE	LABEL	11/3/2019	Date
TIME	LABEL	11:56:40	Time
NOTES	NOTES	1	&Notes...
	
PSTAT	PSTAT	REF600-11020	Potentiostat
VDC	POTEN	0.00000E+000	T	DC &Voltage (V)
FREQINIT	QUANT	1.00000E+006	Initial Fre&q. (Hz)
FREQFINAL	QUANT	1.00000E+000	Final Fre&q. (Hz)
PTSPERDEC	QUANT	1.00000E+001	Points/&decade
VAC	QUANT	2.50000E+001	AC &Voltage (mV rms)
AREA	QUANT	1.00000E-002	&Area (cm^2)
CONDIT	TWOPARAM	T	5.00000E+000	0.00000E+000	Conditionin&g	Time(s)	E(V)
DELAY	TWOPARAM	T	5.00000E+000	0.00000E+000	Init. De&lay	Time(s)	Stab.(mV/s)
SPEED	SELECTOR	1	&Optimize for:
ZGUESS	QUANT	1.00000E+005	E&stimated Z (ohms)
OCVCURVE	TABLE	19
	Pt	T	Vf	Vm	Ach	Over
	#	s	V vs. Ref.	V	V	bits
	0	0.258333	5.54765E-003	5.54765E-003	5.42299E-004	...........
	1	0.516667	5.54613E-003	5.46775E-003	5.35333E-004	...........
	2	0.775	5.53727E-003	5.41889E-003	5.37899E-004	...........
	3	1.03333	5.51403E-003	5.37831E-003	5.43666E-004	...........
	4	1.29167	5.47671E-003	5.36139E-003	5.41699E-004	...........
	5	1.55	5.43449E-003	5.35344E-003	5.41433E-004	...........
	6	1.80833	5.39803E-003	5.35324E-003	5.44266E-004	...........
	7	2.06667	5.37273E-003	5.33724E-003	5.46333E-004	...........
	8	2.325	5.35744E-003	5.33212E-003	5.41399E-004	...........
	9	2.58333	5.34782E-003	5.33200E-003	5.47166E-004	...........
	10	2.84167	5.34107E-003	5.34484E-003	5.37199E-004	...........
	11	3.1	5.33742E-003	5.34460E-003	5.42299E-004	...........
	12	3.35833	5.33760E-003	5.35208E-003	5.42033E-004	...........
	13	3.61667	5.34082E-003	5.35599E-003	5.42533E-004	...........
	14	3.875	5.34577E-003	5.37434E-003	5.43166E-004	...........
	15	4.13333	5.35211E-003	5.37487E-003	5.41133E-004	...........
	16	4.39167	5.35968E-003	5.37988E-003	5.39999E-004	...........
	17	4.65	5.36751E-003	5.39053E-003	5.37366E-004	...........
	18	4.90833	5.37502E-003	5.40864E-003	5.43599E-004	...........
EOC	QUANT	0.005375	Open Circuit (V)
PSTATMODEL	IQUANT	4	Pstat Model
PSTATSECTION	LABEL	REF600-11020	Pstat Section
PSTATSERIALNO	LABEL	11020	Pstat Serial Number
CTRLMODE	IQUANT	1	Control Mode
IESTAB	IQUANT	0	I/E Stability
CASPEED	IQUANT	1	Control Amp Speed
CONVENTION	IQUANT	1	Current Convention
ICHRANGE	IQUANT	2	Ich Range
ICHRANGEMODE	TOGGLE	F	Ich Auto Range
ICHOFFSETENABLE	TOGGLE	T	Ich Offset Enable
ICHOFFSET	QUANT	0	Ich Offset (V)
ICHFILTER	IQUANT	3	Ich Filter
VCHRANGE	IQUANT	2	Vch Range
VCHRANGEMODE	TOGGLE	F	Vch Auto Range
VCHOFFSETENABLE	TOGGLE	T	Vch Offset Enable
VCHOFFSET	QUANT	0	Vch Offset (V)
VCHFILTER	IQUANT	3	Vch Filter
ACHRANGE	IQUANT	2	Ach Range
ACHOFFSETENABLE	TOGGLE	F	Ach Offset Enable
ACHOFFSET	QUANT	0	Ach Offset (V)
ACHFILTER	IQUANT	3	Ach Filter
IERANGELOWERLIMIT	IQUANT	1	I/E Range Lower Limit
IERANGEMODE	TOGGLE	F	I/E AutoRange
IERANGE	IQUANT	5	I/E Range
POSFEEDENABLE	TOGGLE	F	Positive Feedback IR Comp
POSFEEDRESISTANCE	QUANT	0	Positive Feedback Resistance (ohm)
ACHSELECT	IQUANT	0	Ach Select
CABLEID	IQUANT	14	Cable ID
DCCALDATE	LABEL	8/19/2019	DC Calibration Date
ACCALDATE	LABEL	8/19/2019	AC Calibration Date
THERMOSELECT	IQUANT	1	Thermo Select
FRAMEWORKVERSION	QUANT	6.33	Framework Version
INSTRUMENTVERSION	LABEL	3.50	Instrument Version
ZCURVE	TABLE
	Pt	Time	Freq	Zreal	Zimag	Zsig	Zmod	Zphz	Idc	Vdc	IERange
	#	s	Hz	ohm	ohm	V	ohm	°	A	V	#
	0	1	1000078	1691.59	-752.1528	1	1851.273	-23.97196	1.201242E-005	0.0067421	8
	1	3	794390.6	1805.574	-707.1727	1	1939.122	-21.38833	3.555343E-006	0.0065105	8
	2	4	630984.4	1910.832	-652.9501	1	2019.313	-18.8658	-7.96371E-006	0.0083211	8
	3	5	501234.4	1994.653	-600.6425	1	2083.126	-16.75843	1.01156E-006	0.0068342	8
	4	7	398109.4	2072.927	-550.2729	1	2144.721	-14.86669	-4.873308E-006	0.0074684	8
	5	8	316265.6	2139.53	-511.5294	1	2199.83	-13.44615	-4.359882E-006	0.0074145	8
	6	9	251203.1	2193.765	-478.6467	1	2245.374	-12.30819	-1.492665E-006	0.0068334	8
	7	11	199546.9	2247.465	-452.6227	1	2292.589	-11.38663	3.936512E-006	0.0069805	8
	8	12	158578.1	2300.681	-429.0999	1	2340.355	-10.56485	7.086963E-007	0.0074084	8
	9	13	125953.1	2348.922	-390.3644	1	2381.138	-9.435678	-2.486754E-006	0.0091052	7
	10	15	100078.1	2397.319	-392.282	1	2429.202	-9.293157	8.345659E-007	0.0055252	7
	11	16	79453.13	2438.656	-407.0109	1	2472.387	-9.475312	-7.656851E-007	0.0084764	7
	12	17	63140.62	2484.457	-427.3773	1	2520.948	-9.76052	-5.183217E-007	0.0083854	7
	13	19	50203.12	2538.397	-452.4064	1	2578.397	-10.10545	6.49672E-007	0.0054553	7
	14	20	39890.62	2590.374	-482.0841	1	2634.851	-10.54248	9.869219E-008	0.0077966	7
	15	21	31640.63	2646.92	-516.2812	1	2696.801	-11.03696	-5.193888E-007	0.0083774	7
	16	23	25171.88	2706.247	-556.0701	1	2762.786	-11.61132	-1.083155E-006	0.0083189	7
	17	24	20015.62	2771.902	-605.0942	1	2837.178	-12.31424	3.822919E-007	0.0073917	7
	18	25	15890.62	2835.402	-660.272	1	2911.265	-13.10869	-9.546059E-007	0.0084363	7
	19	27	12609.37	2908.222	-729.4413	1	2998.306	-14.08047	9.413056E-007	0.0056922	7
	20	28	10078.13	2982.448	-809.9162	1	3090.462	-15.1929	9.660793E-007	0.0059608	7
	21	30	8015.625	3056.964	-907.4658	1	3188.812	-16.53362	7.240123E-008	0.0058361	7
	22	31	6328.125	3145.572	-1027.723	1	3309.205	-18.09329	3.845313E-007	0.0073955	7
	23	32	5015.625	3235.868	-1169.925	1	3440.867	-19.87741	-1.083147E-006	0.008314	7
	24	34	3984.375	3340.042	-1341.229	1	3599.275	-21.87845	7.111827E-008	0.0058332	7
	25	35	3170.956	3448.387	-1543.915	1	3778.233	-24.11906	7.53044E-007	0.0067501	7
	26	36	2527.573	3561.72	-1782.127	1	3982.691	-26.58136	-5.179214E-007	0.0083836	7
	27	38	1976.103	3697.701	-2106.34	1	4255.545	-29.66736	8.383853E-007	0.0055184	7
	28	39	1577.524	3839.068	-2465.498	1	4562.579	-32.70909	9.034879E-007	0.006326	7
	29	40	1265.625	3968.562	-2889.481	1	4909.031	-36.05809	9.838291E-008	0.0077948	7
	30	42	998.264	4139.374	-3465.046	1	5398.236	-39.93251	9.428048E-007	0.0056883	7
	31	43	796.875	4318.392	-4134.927	1	5978.807	-43.75669	9.408055E-007	0.0056953	7
	32	44	627.7902	4547.029	-5008.996	1	6765.021	-47.76769	3.88284E-007	0.0073931	7
	33	46	505.5147	4789.037	-5996.74	1	7674.358	-51.3889	7.5327E-007	0.0067516	7
	34	47	397.9953	5131.112	-7323.039	1	8941.768	-54.98182	3.431558E-009	0.0070179	7
	35	48	315.5048	5551.365	-8916.311	1	10503.25	-58.09328	-3.595041E-010	0.0069586	6
	36	50	252.4038	6065.07	-10783	1	12371.67	-60.64373	9.675998E-010	0.0069461	6
	37	51	198.6229	6778.497	-13224.81	1	14860.81	-62.86218	4.761698E-010	0.006959	6
	38	52	158.3615	7659.519	-16016.88	1	17754.11	-64.44215	7.283428E-010	0.0069562	6
	39	54	125.558	8844.935	-19471.6	1	21386.36	-65.57018	2.506607E-010	0.0069591	6
	40	55	100.4464	10326.63	-23392.09	1	25570.08	-66.18054	1.252935E-009	0.0069558	6
	41	57	79.00281	12457.09	-28400.56	1	31012.43	-66.31672	7.12669E-010	0.0069563	6
	42	58	63.3446	14632.99	-33662.71	1	36705.62	-66.50569	5.335857E-010	0.0069514	6
	43	59	49.86702	18663.71	-40618.23	1	44700.95	-65.32165	5.806216E-010	0.0069469	6
	44	61	39.72458	22704.95	-48275.77	1	53348.52	-64.81158	-2.796453E-010	0.0069629	6
	45	62	31.6723	28061.45	-56530.56	1	63112.2	-63.60046	5.818473E-010	0.0069567	6
	46	63	24.93351	34880.57	-66576.24	1	75160.16	-62.34909	3.924524E-010	0.0069519	6
	47	65	19.86229	42819.32	-76899.33	1	88017.05	-60.88993	3.845214E-010	0.0069582	6
	48	66	15.83615	51338.22	-88320.98	1	102157.8	-59.83191	-7.51059E-010	0.006957	5
	49	68	12.40079	63548.22	-100574.8	1	118969.2	-57.71324	1.174542E-009	0.0069558	5
	50	69	9.93114	75396.27	-113917.4	1	136608.1	-56.5014	5.05218E-010	0.0069677	5
	51	71	7.944915	87107.34	-128235.4	1	155022.6	-55.81264	-4.870334E-010	0.0069695	5
	52	72	6.317385	100941.8	-144273.1	1	176079.4	-55.02113	-2.7919E-010	0.0069828	5
	53	74	5.008013	115082.8	-163485.2	1	199928.7	-54.85699	2.641635E-010	0.0069657	5
	54	77	3.945707	130165.4	-187343.5	1	228124.1	-55.2086	1.362913E-010	0.0069659	5
	55	79	3.158693	144805.3	-214142.8	1	258506.7	-55.93308	1.242194E-010	0.0069881	5
	56	83	2.504006	161453.3	-248883.5	1	296665.1	-57.02811	-1.823801E-010	0.0069593	5
	57	85	1.998082	179387.9	-289900	1	340913.6	-58.25109	-1.168584E-010	0.0069399	5
	58	88	1.584686	200623.8	-340392.3	1	395116.2	-59.48533	9.820096E-012	0.0069967	5
	59	92	1.266892	224484.3	-401676.2	1	460148.9	-60.80054	-6.232333E-011	0.0069276	5
	60	96	0.999041	255165	-479087	1	542801.6	-61.95993	1.46231E-010	0.0070058	5
