EXPLAIN
TAG	EISPOT
TITLE	LABEL	Potentiostatic EIS	Test &Identifier
DATE	LABEL	10/12/2019	Date
TIME	LABEL	11:27:39	Time
NOTES	NOTES	1	&Notes...
	
PSTAT	PSTAT	REF600-11020	Potentiostat
VDC	POTEN	0.00000E+000	T	DC &Voltage (V)
FREQINIT	QUANT	1.00000E+006	Initial Fre&q. (Hz)
FREQFINAL	QUANT	1.00000E+000	Final Fre&q. (Hz)
PTSPERDEC	QUANT	1.00000E+001	Points/&decade
VAC	QUANT	2.50000E+001	AC &Voltage (mV rms)
AREA	QUANT	1.00000E-002	&Area (cm^2)
CONDIT	TWOPARAM	T	5.00000E+000	0.00000E+000	Conditionin&g	Time(s)	E(V)
DELAY	TWOPARAM	T	5.00000E+000	0.00000E+000	Init. De&lay	Time(s)	Stab.(mV/s)
SPEED	SELECTOR	1	&Optimize for:
ZGUESS	QUANT	1.00000E+004	E&stimated Z (ohms)
OCVCURVE	TABLE	19
	Pt	T	Vf	Vm	Ach	Over
	#	s	V vs. Ref.	V	V	bits
	0	0.258333	9.82262E-003	9.82262E-003	5.22433E-004	...........
	1	0.516667	9.82459E-003	9.92584E-003	5.28666E-004	...........
	2	0.775	9.83689E-003	1.00335E-002	5.27900E-004	...........
	3	1.03333	9.87171E-003	1.01058E-002	5.27800E-004	...........
	4	1.29167	9.92655E-003	9.85695E-003	5.22633E-004	...........
	5	1.55	9.98040E-003	1.03600E-002	5.28533E-004	...........
	6	1.80833	1.00255E-002	1.00110E-002	5.28233E-004	...........
	7	2.06667	1.00757E-002	1.04977E-002	5.32300E-004	...........
	8	2.325	1.01504E-002	1.07601E-002	5.31700E-004	...........
	9	2.58333	1.02679E-002	1.05372E-002	5.32400E-004	...........
	10	2.84167	1.04197E-002	1.10053E-002	5.29299E-004	...........
	11	3.1	1.05742E-002	1.09308E-002	5.30166E-004	...........
	12	3.35833	1.07137E-002	1.08921E-002	5.25166E-004	...........
	13	3.61667	1.08310E-002	1.12944E-002	5.33866E-004	...........
	14	3.875	1.09350E-002	1.13751E-002	5.33233E-004	...........
	15	4.13333	1.10525E-002	1.14263E-002	5.28866E-004	...........
	16	4.39167	1.11842E-002	1.13536E-002	5.28233E-004	...........
	17	4.65	1.12925E-002	1.12513E-002	5.32466E-004	...........
	18	4.90833	1.13543E-002	1.18187E-002	5.28300E-004	...........
EOC	QUANT	0.0113543	Open Circuit (V)
PSTATMODEL	IQUANT	4	Pstat Model
PSTATSECTION	LABEL	REF600-11020	Pstat Section
PSTATSERIALNO	LABEL	11020	Pstat Serial Number
CTRLMODE	IQUANT	1	Control Mode
IESTAB	IQUANT	0	I/E Stability
CASPEED	IQUANT	1	Control Amp Speed
CONVENTION	IQUANT	1	Current Convention
ICHRANGE	IQUANT	2	Ich Range
ICHRANGEMODE	TOGGLE	F	Ich Auto Range
ICHOFFSETENABLE	TOGGLE	T	Ich Offset Enable
ICHOFFSET	QUANT	0	Ich Offset (V)
ICHFILTER	IQUANT	3	Ich Filter
VCHRANGE	IQUANT	2	Vch Range
VCHRANGEMODE	TOGGLE	F	Vch Auto Range
VCHOFFSETENABLE	TOGGLE	T	Vch Offset Enable
VCHOFFSET	QUANT	0	Vch Offset (V)
VCHFILTER	IQUANT	3	Vch Filter
ACHRANGE	IQUANT	2	Ach Range
ACHOFFSETENABLE	TOGGLE	F	Ach Offset Enable
ACHOFFSET	QUANT	0	Ach Offset (V)
ACHFILTER	IQUANT	3	Ach Filter
IERANGELOWERLIMIT	IQUANT	1	I/E Range Lower Limit
IERANGEMODE	TOGGLE	F	I/E AutoRange
IERANGE	IQUANT	6	I/E Range
POSFEEDENABLE	TOGGLE	F	Positive Feedback IR Comp
POSFEEDRESISTANCE	QUANT	0	Positive Feedback Resistance (ohm)
ACHSELECT	IQUANT	0	Ach Select
CABLEID	IQUANT	14	Cable ID
DCCALDATE	LABEL	8/19/2019	DC Calibration Date
ACCALDATE	LABEL	8/19/2019	AC Calibration Date
THERMOSELECT	IQUANT	1	Thermo Select
FRAMEWORKVERSION	QUANT	6.33	Framework Version
INSTRUMENTVERSION	LABEL	3.50	Instrument Version
ZCURVE	TABLE
	Pt	Time	Freq	Zreal	Zimag	Zsig	Zmod	Zphz	Idc	Vdc	IERange
	#	s	Hz	ohm	ohm	V	ohm	°	A	V	#
	0	1	1000078	2415.311	-1679.01	1	2941.564	-34.8052	-1.195758E-006	0.0143112	8
	1	3	794390.6	2778.833	-1623.884	1	3218.526	-30.30099	-7.149154E-007	0.0131359	8
	2	4	630984.4	3059.359	-1528.362	1	3419.878	-26.54531	2.688423E-006	0.0125373	8
	3	6	501234.4	3306.727	-1367.785	1	3578.446	-22.47181	2.055821E-007	0.0130128	8
	4	7	398109.4	3524.185	-1235.359	1	3734.433	-19.31748	-8.478278E-007	0.0131124	8
	5	9	316265.6	3684.803	-1090.324	1	3842.731	-16.48335	-1.913923E-006	0.0132487	8
	6	10	251203.1	3814.019	-974.444	1	3936.532	-14.33192	-7.369931E-007	0.0127751	8
	7	12	199546.9	3931.773	-834.5416	1	4019.365	-11.98351	4.895705E-006	0.0117951	8
	8	13	158578.1	4016.811	-760.0331	1	4088.083	-10.71444	-2.291748E-007	0.0127635	8
	9	15	125953.1	4112.812	-623.9222	1	4159.868	-8.626121	-1.230849E-006	0.014596	7
	10	16	100078.1	4139.936	-585.7261	1	4181.165	-8.052871	-7.945633E-009	0.0128673	7
	11	18	79453.13	4195.028	-551.9568	1	4231.184	-7.495582	1.365576E-008	0.0127253	7
	12	19	63140.62	4246.431	-539.4088	1	4280.553	-7.239305	4.148927E-008	0.0126719	7
	13	20	50203.12	4288.976	-538.9977	1	4322.711	-7.162838	-1.252125E-008	0.0127392	7
	14	22	39890.62	4352.195	-543.1262	1	4385.954	-7.113373	1.027898E-007	0.0127129	7
	15	23	31640.63	4403.893	-559.5756	1	4439.301	-7.241417	5.824151E-008	0.0126904	7
	16	24	25171.88	4454.599	-590.9601	1	4493.627	-7.5569	-2.25476E-008	0.0127907	7
	17	26	20015.62	4536.723	-647.1771	1	4582.651	-8.118638	-2.02098E-008	0.0128262	7
	18	27	15890.62	4593.171	-684.8505	1	4643.946	-8.480433	4.015936E-008	0.0127534	7
	19	28	12609.37	4661.205	-747.7145	1	4720.795	-9.113309	-6.681302E-008	0.0128827	7
	20	30	10078.13	4729.626	-826.8775	1	4801.364	-9.91676	-1.456841E-008	0.0127814	7
	21	31	8015.625	4836.982	-905.9529	1	4921.092	-10.60843	-1.264313E-008	0.0128211	7
	22	32	6328.125	4926.634	-1011.212	1	5029.341	-11.5991	-7.759657E-009	0.0127892	7
	23	34	5015.625	5049.049	-1146.381	1	5177.556	-12.79207	-6.61848E-008	0.0128796	7
	24	35	3984.375	5183.542	-1316.118	1	5348.016	-14.24654	1.666086E-008	0.0127603	7
	25	36	3170.956	5318.445	-1434.504	1	5508.508	-15.09475	-4.995762E-008	0.0128511	7
	26	38	2527.573	5447.198	-1624.723	1	5684.337	-16.60814	-4.661652E-008	0.0128846	7
	27	39	1976.103	5626.725	-1846.248	1	5921.88	-18.16576	4.393801E-008	0.0126611	7
	28	40	1577.524	5803.329	-2025.652	1	6146.697	-19.24154	-9.591935E-008	0.0128031	8
	29	42	1265.625	5932.21	-2389.61	1	6395.417	-21.94054	-1.480791E-007	0.0128278	8
	30	44	998.264	6131.155	-2733.606	1	6712.947	-24.02994	-7.642407E-008	0.0128925	7
	31	45	796.875	6306.991	-3184.242	1	7065.234	-26.78807	1.434863E-008	0.0128768	7
	32	46	627.7902	6514.282	-3777.614	1	7530.354	-30.10933	-2.240228E-008	0.0127752	7
	33	48	505.5147	6669.874	-4424.816	1	8004.137	-33.56042	-7.379284E-010	0.0127835	7
	34	49	397.9953	6896.006	-5335.05	1	8718.811	-37.72709	5.522986E-009	0.0128081	7
	35	50	315.5048	7139.115	-6439.944	1	9614.56	-42.05251	7.260966E-010	0.0127468	6
	36	52	252.4038	7422.382	-7760.318	1	10738.45	-46.27508	-5.591824E-010	0.0127438	6
	37	53	198.6229	7789.687	-9531.19	1	12309.46	-50.74142	1.013119E-009	0.0127398	6
	38	54	158.3615	8229.03	-11597.92	1	14220.71	-54.64329	6.923979E-010	0.0127381	6
	39	56	125.558	8836.718	-14200.56	1	16725.53	-58.10684	5.15295E-010	0.0127438	6
	40	57	100.4464	9536.6	-17233.54	1	19696.24	-61.04097	8.316058E-011	0.0127427	6
	41	58	79.00281	10595.18	-21213.6	1	23712.33	-63.46005	-6.241986E-010	0.0127413	6
	42	60	63.3446	11479.16	-25612.95	1	28067.67	-65.85913	1.070527E-009	0.012742	6
	43	61	49.86702	13902.58	-31425.67	1	34363.57	-66.1356	-1.037161E-009	0.0127388	6
	44	63	39.72458	15874	-38353.36	1	41508.61	-67.51592	1.09514E-009	0.0127453	6
	45	64	31.6723	18834.89	-46247.47	1	49935.77	-67.84074	2.458677E-010	0.0127432	6
	46	65	24.93351	22636.03	-56247.34	1	60631.29	-68.07831	3.135561E-010	0.0127415	6
	47	67	19.86229	27396.3	-67295.16	1	72658.08	-67.84844	-2.457554E-010	0.0127441	6
	48	68	15.83615	32554.63	-80384.28	1	86726.22	-67.95267	2.021018E-009	0.0127429	6
	49	69	12.40079	41957.3	-95233.1	1	104066.1	-66.22292	-1.414524E-009	0.0127449	6
	50	71	9.93114	51420.42	-113365.1	1	124481.7	-65.60178	9.869593E-011	0.0127457	5
	51	72	7.944915	62783.2	-131739.9	1	145935.3	-64.51896	-2.083427E-010	0.0127447	5
	52	74	6.317385	75777.49	-153822.4	1	171474.7	-63.77377	5.49691E-010	0.0127448	5
	53	76	5.008013	91488.98	-179207.5	1	201210.3	-62.95479	2.057072E-010	0.0127517	5
	54	79	3.945707	109412.7	-208406.2	1	235381.2	-62.30064	-1.317494E-010	0.0127399	5
	55	81	3.158693	128598	-240624.8	1	272832.8	-61.87846	2.616418E-010	0.0127523	5
	56	85	2.504006	148481	-279620.8	1	316598.2	-62.03133	-2.501774E-010	0.0127467	5
	57	87	1.998082	170777.5	-323796	1	366072.1	-62.1918	1.269934E-010	0.0127033	5
	58	91	1.584686	194058.1	-381053.4	1	427621.6	-63.01174	2.344368E-011	0.0127297	5
	59	94	1.266892	222817.2	-447584.4	1	499979.3	-63.53488	1.383563E-010	0.0126977	5
	60	98	0.999041	257358.9	-532898.1	1	591788.8	-64.22215	3.993135E-011	0.0127738	5
