EXPLAIN
TAG	EISPOT
TITLE	LABEL	Potentiostatic IDE	Test &Identifier
DATE	LABEL	9/14/2019	Date
TIME	LABEL	13:26:41	Time
NOTES	NOTES	1	&Notes...
	
PSTAT	PSTAT	REF600-11020	Potentiostat
VDC	POTEN	0.00000E+000	T	DC &Voltage (V)
FREQINIT	QUANT	1.00000E+006	Initial Fre&q. (Hz)
FREQFINAL	QUANT	1.00000E+000	Final Fre&q. (Hz)
PTSPERDEC	QUANT	1.00000E+001	Points/&decade
VAC	QUANT	2.50000E+001	AC &Voltage (mV rms)
AREA	QUANT	1.00000E-002	&Area (cm^2)
CONDIT	TWOPARAM	T	5.00000E+000	0.00000E+000	Conditionin&g	Time(s)	E(V)
DELAY	TWOPARAM	T	5.00000E+000	0.00000E+000	Init. De&lay	Time(s)	Stab.(mV/s)
SPEED	SELECTOR	1	&Optimize for:
ZGUESS	QUANT	1.00000E+007	E&stimated Z (ohms)
OCVCURVE	TABLE	19
	Pt	T	Vf	Vm	Ach	Over
	#	s	V vs. Ref.	V	V	bits
	0	0.258333	5.23822E-003	5.23822E-003	5.72566E-004	...........
	1	0.516667	5.23424E-003	5.03016E-003	5.74832E-004	...........
	2	0.775	5.21021E-003	4.85263E-003	5.73632E-004	...........
	3	1.03333	5.14378E-003	4.69791E-003	5.72666E-004	...........
	4	1.29167	5.02884E-003	4.55957E-003	5.72999E-004	...........
	5	1.55	4.88281E-003	4.43615E-003	5.71832E-004	...........
	6	1.80833	4.72979E-003	4.31862E-003	5.76099E-004	...........
	7	2.06667	4.58521E-003	4.21717E-003	5.70299E-004	...........
	8	2.325	4.45430E-003	4.12055E-003	5.74966E-004	...........
	9	2.58333	4.33666E-003	4.02993E-003	5.72932E-004	...........
	10	2.84167	4.23005E-003	3.94643E-003	5.68432E-004	...........
	11	3.1	4.13212E-003	3.86470E-003	5.71366E-004	...........
	12	3.35833	4.04099E-003	3.78901E-003	5.69599E-004	...........
	13	3.61667	3.95542E-003	3.72020E-003	5.68332E-004	...........
	14	3.875	3.87488E-003	3.65427E-003	5.67099E-004	...........
	15	4.13333	3.79921E-003	3.58799E-003	5.66466E-004	...........
	16	4.39167	3.72790E-003	3.52439E-003	5.70366E-004	...........
	17	4.65	3.65997E-003	3.46508E-003	5.71466E-004	...........
	18	4.90833	3.59466E-003	3.40698E-003	5.71866E-004	...........
EOC	QUANT	0.0035947	Open Circuit (V)
PSTATMODEL	IQUANT	4	Pstat Model
PSTATSECTION	LABEL	REF600-11020	Pstat Section
PSTATSERIALNO	LABEL	11020	Pstat Serial Number
CTRLMODE	IQUANT	1	Control Mode
IESTAB	IQUANT	0	I/E Stability
CASPEED	IQUANT	1	Control Amp Speed
CONVENTION	IQUANT	1	Current Convention
ICHRANGE	IQUANT	2	Ich Range
ICHRANGEMODE	TOGGLE	F	Ich Auto Range
ICHOFFSETENABLE	TOGGLE	T	Ich Offset Enable
ICHOFFSET	QUANT	0	Ich Offset (V)
ICHFILTER	IQUANT	3	Ich Filter
VCHRANGE	IQUANT	2	Vch Range
VCHRANGEMODE	TOGGLE	F	Vch Auto Range
VCHOFFSETENABLE	TOGGLE	T	Vch Offset Enable
VCHOFFSET	QUANT	0	Vch Offset (V)
VCHFILTER	IQUANT	3	Vch Filter
ACHRANGE	IQUANT	2	Ach Range
ACHOFFSETENABLE	TOGGLE	F	Ach Offset Enable
ACHOFFSET	QUANT	0	Ach Offset (V)
ACHFILTER	IQUANT	3	Ach Filter
IERANGELOWERLIMIT	IQUANT	1	I/E Range Lower Limit
IERANGEMODE	TOGGLE	F	I/E AutoRange
IERANGE	IQUANT	2	I/E Range
POSFEEDENABLE	TOGGLE	F	Positive Feedback IR Comp
POSFEEDRESISTANCE	QUANT	0	Positive Feedback Resistance (ohm)
ACHSELECT	IQUANT	0	Ach Select
CABLEID	IQUANT	14	Cable ID
DCCALDATE	LABEL	8/19/2019	DC Calibration Date
ACCALDATE	LABEL	8/19/2019	AC Calibration Date
THERMOSELECT	IQUANT	1	Thermo Select
FRAMEWORKVERSION	QUANT	6.33	Framework Version
INSTRUMENTVERSION	LABEL	3.50	Instrument Version
ZCURVE	TABLE
	Pt	Time	Freq	Zreal	Zimag	Zsig	Zmod	Zphz	Idc	Vdc	IERange
	#	s	Hz	ohm	ohm	V	ohm	°	A	V	#
	0	2	1000078	2357.688	-1883.253	1	3017.505	-38.61684	-2.655348E-006	0.0057921	8
	1	4	794390.6	2741.845	-1834.07	1	3298.716	-33.77929	7.435653E-006	0.0039961	8
	2	5	630984.4	3108.791	-1736.277	1	3560.792	-29.1836	-3.84342E-006	0.0057169	8
	3	6	501234.4	3395.136	-1616.494	1	3760.32	-25.46008	-7.910056E-007	0.0052257	8
	4	8	398109.4	3660.201	-1422.464	1	3926.891	-21.23762	5.649516E-007	0.0051927	8
	5	9	316265.6	3867.861	-1247.664	1	4064.113	-17.87825	-1.58953E-006	0.0055062	8
	6	10	251203.1	4025.821	-1080.091	1	4168.193	-15.01826	5.029436E-006	0.0039982	8
	7	12	199546.9	4153.048	-951.533	1	4260.66	-12.90469	-3.316925E-006	0.0058138	8
	8	13	158578.1	4243.902	-811.0795	1	4320.712	-10.81969	-8.085061E-007	0.0054779	8
	9	14	125953.1	4326.249	-650.6027	1	4374.896	-8.552335	-1.281328E-006	0.0080151	7
	10	16	100078.1	4374.412	-586.883	1	4413.605	-7.641329	-2.734669E-008	0.0050902	7
	11	17	79453.13	4421.062	-534.8552	1	4453.297	-6.898058	1.130506E-007	0.0049359	7
	12	18	63140.62	4464.64	-498.598	1	4492.395	-6.372222	1.13735E-007	0.0049302	7
	13	20	50203.12	4504.993	-475.6894	1	4530.038	-6.027618	-8.041958E-008	0.0051999	7
	14	21	39890.62	4539.444	-467.6552	1	4563.469	-5.881882	4.511785E-008	0.004949	7
	15	22	31640.63	4583.207	-463.7362	1	4606.608	-5.777616	-7.793953E-008	0.0053195	7
	16	24	25171.88	4621.783	-476.2636	1	4646.257	-5.883426	6.161386E-008	0.0049841	7
	17	25	20015.62	4662.057	-500.0036	1	4688.793	-6.121548	-7.559548E-008	0.0053149	7
	18	26	15890.62	4704.895	-536.4834	1	4735.382	-6.50515	-4.900747E-008	0.0051622	7
	19	28	12609.37	4748.901	-586.5992	1	4784.993	-7.041686	-6.9955E-009	0.0050719	7
	20	29	10078.13	4794.743	-648.2169	1	4838.362	-7.699321	-4.798323E-009	0.0050706	7
	21	30	8015.625	4844.875	-730.5066	1	4899.639	-8.574425	2.105206E-008	0.0051632	7
	22	32	6328.125	4901.428	-835.6123	1	4972.146	-9.67496	-5.848064E-008	0.0051605	7
	23	33	5015.625	4961.65	-964.938	1	5054.61	-11.00547	4.56859E-009	0.0050642	7
	24	34	3984.375	5026.491	-1124.981	1	5150.844	-12.6155	4.592578E-008	0.005031	7
	25	36	3170.956	5098.562	-1317.199	1	5265.961	-14.48547	-7.808175E-008	0.0051868	7
	26	37	2527.573	5177.42	-1551.489	1	5404.887	-16.6816	-9.506776E-009	0.0051371	7
	27	38	1976.103	5276.409	-1864.263	1	5596.067	-19.45935	-2.566055E-008	0.0050773	7
	28	40	1577.524	5381.015	-2221.729	1	5821.632	-22.43489	1.139304E-007	0.0049187	7
	29	41	1265.625	5495.267	-2634.5	1	6094.14	-25.61364	-2.923078E-009	0.0050612	7
	30	42	998.264	5633.042	-3186.186	1	6471.704	-29.49356	8.047527E-008	0.0049138	7
	31	44	796.875	5780.333	-3826.905	1	6932.348	-33.5068	5.140167E-008	0.0050145	7
	32	45	627.7902	5966.497	-4668.391	1	7575.814	-38.04084	-4.905279E-008	0.0051885	7
	33	46	505.5147	6151.736	-5584.534	1	8308.482	-42.2331	-5.813373E-008	0.005162	7
	34	48	397.9953	6393.354	-6854.749	1	9373.503	-46.99464	4.642492E-009	0.0050952	7
	35	49	315.5048	6666.274	-8374.386	1	10703.72	-51.47911	2.565118E-010	0.005035	6
	36	50	252.4038	6971.256	-10176.51	1	12335.31	-55.58753	1.1809E-009	0.0050359	6
	37	52	198.6229	7359.421	-12578.12	1	14572.93	-59.66822	1.111013E-009	0.0050385	6
	38	53	158.3615	7808.013	-15390.96	1	17258.24	-63.10079	1.247607E-009	0.0050335	6
	39	54	125.558	8381.989	-18964.04	1	20733.85	-66.15486	7.6167E-010	0.0050365	6
	40	56	100.4464	9096.284	-23211.9	1	24930.59	-68.60077	1.862387E-009	0.005037	6
	41	57	79.00281	10077.37	-28897.45	1	30604.18	-70.77488	1.441048E-010	0.0050317	6
	42	58	63.3446	11409.77	-34944.95	1	36760.47	-71.91777	8.364343E-010	0.0050299	6
	43	60	49.86702	12867.16	-44124.27	1	45962.1	-73.74268	-1.390038E-010	0.0050275	6
	44	61	39.72458	15035.13	-53762.7	1	55825.47	-74.37597	1.051383E-009	0.0050296	6
	45	62	31.6723	17758.41	-66047.72	1	68393.44	-74.95066	4.410961E-010	0.0050317	6
	46	64	24.93351	21693.6	-81443.05	1	84282.75	-75.0847	1.091258E-009	0.0050289	6
	47	65	19.86229	26786.28	-99458	1	103002	-74.92661	9.581876E-010	0.0050342	6
	48	67	15.83615	33288.49	-120639.3	1	125147.8	-74.57401	5.975015E-010	0.0050338	5
	49	68	12.40079	42721.28	-149700.8	1	155677.3	-74.07243	4.454241E-010	0.0050329	5
	50	69	9.93114	54541.01	-179008.6	1	187133.1	-73.05487	9.758477E-010	0.005038	5
	51	71	7.944915	69851.06	-216635	1	227617.9	-72.12878	7.341578E-010	0.0050316	5
	52	73	6.317385	90183.61	-257745	1	273067	-70.71533	2.751444E-010	0.0050336	5
	53	75	5.008013	116541.1	-308014.1	1	329324.3	-69.27522	1.893096E-010	0.0050342	5
	54	77	3.945707	150740.1	-366697.1	1	396471.1	-67.65365	5.313244E-010	0.0050425	5
	55	80	3.158693	191448.4	-429765.5	1	470479.4	-65.98837	8.812315E-011	0.0050362	5
	56	83	2.504006	242480.8	-501467	1	557015.3	-64.19424	4.947368E-010	0.0050305	5
	57	86	1.998082	301709.7	-578676.8	1	652606.7	-62.46343	2.095031E-011	0.0050656	5
	58	89	1.584686	373831.4	-666120.8	1	763849.9	-60.69857	2.988572E-010	0.0050686	5
	59	93	1.266892	455595.4	-756298.8	1	882924.2	-58.93518	-2.100259E-012	0.005073	5
	60	97	0.999041	552316	-860804.1	1	1022759	-57.31463	2.858418E-010	0.0050266	4
