EXPLAIN
TAG	EISPOT
TITLE	LABEL	Potentiostatic EIS	Test &Identifier
DATE	LABEL	11/20/2019	Date
TIME	LABEL	10:04:41	Time
NOTES	NOTES	4	&Notes...
	
	
	
	
PSTAT	PSTAT	REF600-11020	Potentiostat
VDC	POTEN	0.00000E+000	T	DC &Voltage (V)
FREQINIT	QUANT	1.00000E+006	Initial Fre&q. (Hz)
FREQFINAL	QUANT	1.00000E+000	Final Fre&q. (Hz)
PTSPERDEC	QUANT	1.00000E+001	Points/&decade
VAC	QUANT	2.50000E+001	AC &Voltage (mV rms)
AREA	QUANT	1.00000E-002	&Area (cm^2)
CONDIT	TWOPARAM	T	5.00000E+000	0.00000E+000	Conditionin&g	Time(s)	E(V)
DELAY	TWOPARAM	T	5.00000E+000	0.00000E+000	Init. De&lay	Time(s)	Stab.(mV/s)
SPEED	SELECTOR	0	&Optimize for:
ZGUESS	QUANT	1.00000E+005	E&stimated Z (ohms)
OCVCURVE	TABLE	19
	Pt	T	Vf	Vm	Ach	Over
	#	s	V vs. Ref.	V	V	bits
	0	0.258333	2.70411E-002	2.70411E-002	5.29433E-004	...........
	1	0.516667	2.70747E-002	2.87990E-002	5.37799E-004	...........
	2	0.775	2.72802E-002	3.04273E-002	5.39166E-004	...........
	3	1.03333	2.78581E-002	3.19390E-002	5.36333E-004	...........
	4	1.29167	2.88827E-002	3.33628E-002	5.26200E-004	...........
	5	1.55	3.02281E-002	3.46986E-002	5.22300E-004	...........
	6	1.80833	3.16969E-002	3.59589E-002	5.26966E-004	...........
	7	2.06667	3.31481E-002	3.71476E-002	5.21633E-004	...........
	8	2.325	3.45210E-002	3.82800E-002	5.25233E-004	...........
	9	2.58333	3.58059E-002	3.93537E-002	5.22233E-004	...........
	10	2.84167	3.70122E-002	4.03769E-002	5.27700E-004	...........
	11	3.1	3.81519E-002	4.13526E-002	5.27366E-004	...........
	12	3.35833	3.92335E-002	4.22886E-002	5.29133E-004	...........
	13	3.61667	4.02634E-002	4.31804E-002	5.28833E-004	...........
	14	3.875	4.12462E-002	4.40376E-002	5.36633E-004	...........
	15	4.13333	4.21854E-002	4.48564E-002	5.32200E-004	...........
	16	4.39167	4.30840E-002	4.56536E-002	5.27400E-004	...........
	17	4.65	4.39453E-002	4.64093E-002	5.31500E-004	...........
	18	4.90833	4.47722E-002	4.71476E-002	5.29266E-004	...........
EOC	QUANT	0.0447722	Open Circuit (V)
PSTATMODEL	IQUANT	4	Pstat Model
PSTATSECTION	LABEL	REF600-11020	Pstat Section
PSTATSERIALNO	LABEL	11020	Pstat Serial Number
CTRLMODE	IQUANT	1	Control Mode
IESTAB	IQUANT	0	I/E Stability
CASPEED	IQUANT	1	Control Amp Speed
CONVENTION	IQUANT	1	Current Convention
ICHRANGE	IQUANT	2	Ich Range
ICHRANGEMODE	TOGGLE	F	Ich Auto Range
ICHOFFSETENABLE	TOGGLE	T	Ich Offset Enable
ICHOFFSET	QUANT	0	Ich Offset (V)
ICHFILTER	IQUANT	3	Ich Filter
VCHRANGE	IQUANT	2	Vch Range
VCHRANGEMODE	TOGGLE	F	Vch Auto Range
VCHOFFSETENABLE	TOGGLE	T	Vch Offset Enable
VCHOFFSET	QUANT	0	Vch Offset (V)
VCHFILTER	IQUANT	3	Vch Filter
ACHRANGE	IQUANT	2	Ach Range
ACHOFFSETENABLE	TOGGLE	F	Ach Offset Enable
ACHOFFSET	QUANT	0	Ach Offset (V)
ACHFILTER	IQUANT	3	Ach Filter
IERANGELOWERLIMIT	IQUANT	1	I/E Range Lower Limit
IERANGEMODE	TOGGLE	F	I/E AutoRange
IERANGE	IQUANT	5	I/E Range
POSFEEDENABLE	TOGGLE	F	Positive Feedback IR Comp
POSFEEDRESISTANCE	QUANT	0	Positive Feedback Resistance (ohm)
ACHSELECT	IQUANT	0	Ach Select
CABLEID	IQUANT	14	Cable ID
DCCALDATE	LABEL	8/19/2019	DC Calibration Date
ACCALDATE	LABEL	8/19/2019	AC Calibration Date
THERMOSELECT	IQUANT	1	Thermo Select
FRAMEWORKVERSION	QUANT	6.33	Framework Version
INSTRUMENTVERSION	LABEL	3.50	Instrument Version
ZCURVE	TABLE
	Pt	Time	Freq	Zreal	Zimag	Zsig	Zmod	Zphz	Idc	Vdc	IERange
	#	s	Hz	ohm	ohm	V	ohm	°	A	V	#
	0	2	1000078	2340.012	-1599.288	1	2834.322	-34.35077	-3.906198E-006	0.0465509	8
	1	2	794390.6	2652.991	-1509.111	1	3052.176	-29.63269	4.067556E-007	0.0471462	8
	2	2	630984.4	2929.099	-1400.882	1	3246.858	-25.5601	-2.681314E-006	0.0463929	8
	3	3	501234.4	3161.929	-1255.23	1	3401.969	-21.6522	-1.189019E-006	0.0461889	8
	4	3	398109.4	3325.789	-1097.519	1	3502.202	-18.26302	1.874101E-006	0.0466207	8
	5	3	316265.6	3489.094	-954.975	1	3617.424	-15.30713	-2.656495E-007	0.0460598	8
	6	4	251203.1	3595.109	-835.9261	1	3691.013	-13.08969	5.447957E-006	0.045289	8
	7	4	199546.9	3679.583	-721.6086	1	3749.674	-11.09555	-2.041295E-006	0.0464688	8
	8	4	158578.1	3755.345	-620.0664	1	3806.192	-9.375838	-2.207817E-006	0.0467642	8
	9	5	125953.1	3824.877	-500.1864	1	3857.444	-7.450399	-1.346764E-006	0.0498648	7
	10	5	100078.1	3852.516	-456.7195	1	3879.494	-6.760913	9.152099E-007	0.0456461	7
	11	5	79453.13	3889.605	-420.787	1	3912.3	-6.174385	3.452806E-007	0.0467709	7
	12	5	63140.62	3925.853	-399.3521	1	3946.113	-5.808356	9.920298E-007	0.0452596	7
	13	6	50203.12	3959.052	-381.7514	1	3977.415	-5.507715	-5.706833E-007	0.0477315	7
	14	6	39890.62	3994.392	-378.3352	1	4012.269	-5.410719	3.465011E-007	0.0467657	7
	15	6	31640.63	4030.658	-380.4984	1	4048.578	-5.392801	9.168851E-007	0.0456399	7
	16	7	25171.88	4067.33	-391.1703	1	4086.097	-5.493454	9.834566E-007	0.0449598	7
	17	7	20015.62	4104.776	-410.122	1	4125.214	-5.705678	9.959224E-007	0.0452576	7
	18	7	15890.62	4145.667	-433.3483	1	4168.254	-5.96748	-5.705379E-007	0.0477258	7
	19	8	12609.37	4189.071	-468.5637	1	4215.195	-6.382225	5.487599E-007	0.046478	7
	20	8	10078.13	4233.731	-509.1407	1	4264.235	-6.857355	3.466589E-007	0.0467664	7
	21	8	8015.625	4283.165	-563.7028	1	4320.1	-7.497547	-9.485191E-007	0.0467385	7
	22	9	6328.125	4330.647	-630.9778	1	4376.373	-8.289696	6.128099E-008	0.0471512	7
	23	9	5015.625	4381.977	-714.7423	1	4439.885	-9.26391	-8.16784E-007	0.047802	7
	24	9	3984.375	4438.377	-816.2508	1	4512.811	-10.42068	-9.478081E-007	0.0467411	7
	25	10	3170.956	4498.348	-942.9969	1	4596.126	-11.83957	9.846538E-007	0.0449603	7
	26	10	2527.573	4561.297	-1096.84	1	4691.321	-13.52101	4.472711E-007	0.0447625	7
	27	10	1976.103	4634.761	-1299.729	1	4813.555	-15.66512	4.465132E-007	0.0447613	7
	28	11	1577.524	4713.122	-1538.42	1	4957.848	-18.07731	8.908659E-007	0.0447493	7
	29	11	1265.625	4795.57	-1812.429	1	5126.636	-20.70349	7.512141E-007	0.0460774	7
	30	11	998.264	4895.949	-2177.327	1	5358.271	-23.97568	-5.691182E-007	0.047719	7
	31	12	796.875	5004.479	-2603.354	1	5641.123	-27.48367	-6.580295E-007	0.046119	7
	32	12	627.7902	5137.862	-3162.428	1	6033.124	-31.6129	4.479804E-007	0.0447586	7
	33	12	505.5147	5274.715	-3779.111	1	6488.782	-35.62	-5.681158E-007	0.0477106	7
	34	13	397.9953	5455.833	-4626.567	1	7153.408	-40.29807	-2.263849E-010	0.0462942	7
	35	13	315.5048	5665.07	-5641.095	1	7994.684	-44.8785	1.350925E-009	0.0462891	7
	36	13	252.4038	5909.259	-6838.208	1	9037.724	-49.16796	4.135465E-009	0.0462852	7
	37	14	198.6229	6231.434	-8422.433	1	10477.03	-53.50369	-5.490312E-010	0.0462254	6
	38	14	158.3615	6609.426	-10265.31	1	12209.06	-57.22412	-7.676439E-010	0.046224	6
	39	14	125.558	7095.665	-12586.01	1	14448.39	-60.58683	-7.485806E-010	0.0462267	6
	40	15	100.4464	7683.775	-15316.44	1	17135.75	-63.35853	-7.006357E-010	0.0462272	6
	41	15	79.00281	8480.017	-18906.19	1	20720.88	-65.84228	-1.273746E-009	0.0462345	6
	42	15	63.3446	9571.01	-22877.77	1	24799.12	-67.29781	-1.911396E-009	0.0462325	6
	43	16	49.86702	10896.54	-28209	1	30240.41	-68.87952	-1.981033E-009	0.0462216	6
	44	16	39.72458	12439.42	-34351.5	1	36534.43	-70.09359	-1.693495E-009	0.0462337	6
	45	17	31.6723	14495.66	-41752.44	1	44197.18	-70.85396	-1.289148E-009	0.0462224	6
	46	17	24.93351	17432.11	-51137.35	1	54026.91	-71.17638	-1.53918E-009	0.0462263	6
	47	17	19.86229	20990.27	-61845.41	1	65310.38	-71.25284	-2.06503E-009	0.0462206	6
	48	17	15.83615	25271.16	-74666.73	1	78827.36	-71.30147	-5.339181E-010	0.0462207	6
	49	18	12.40079	31308.89	-90676.38	1	95929.4	-70.95115	-2.908438E-009	0.0462282	6
	50	18	9.93114	38716.13	-108531.8	1	115230.6	-70.36735	-1.546287E-009	0.046234	5
	51	18	7.944915	47662.86	-129298.2	1	137803.3	-69.76472	-8.147621E-010	0.0462252	5
	52	19	6.317385	58863.7	-154307.3	1	165153.5	-69.11962	-8.563766E-010	0.0462156	5
	53	20	5.008013	73167.8	-184228.1	1	198226	-68.33907	-1.180527E-009	0.0462377	5
	54	21	3.945707	91931.39	-219838.5	1	238286.2	-67.30644	-1.529529E-009	0.0462393	5
	55	22	3.158693	112277.6	-259009.5	1	282298	-66.56384	-1.578639E-009	0.0462164	5
	56	24	2.504006	139429.8	-305392.9	1	335716.4	-65.46052	-1.263352E-009	0.0462186	5
	57	25	1.998082	170781.5	-356978.3	1	395726.9	-64.43315	-1.136468E-009	0.0462461	5
	58	26	1.584686	211415.7	-416231.5	1	466846.1	-63.0727	-1.320499E-009	0.0461979	5
	59	28	1.266892	257841.1	-482382.7	1	546969	-61.8748	-1.265562E-009	0.0461835	5
	60	31	0.999041	315350.4	-560669.4	1	643269.8	-60.64427	-1.259783E-009	0.0461938	5
