EXPLAIN
TAG	EISPOT
TITLE	LABEL	Potentiostatic EIS	Test &Identifier
DATE	LABEL	11/15/2019	Date
TIME	LABEL	10:56:29	Time
NOTES	NOTES	4	&Notes...
	
	
	
	
PSTAT	PSTAT	REF600-11020	Potentiostat
VDC	POTEN	0.00000E+000	T	DC &Voltage (V)
FREQINIT	QUANT	1.00000E+006	Initial Fre&q. (Hz)
FREQFINAL	QUANT	1.00000E+000	Final Fre&q. (Hz)
PTSPERDEC	QUANT	1.00000E+001	Points/&decade
VAC	QUANT	2.50000E+001	AC &Voltage (mV rms)
AREA	QUANT	1.00000E-002	&Area (cm^2)
CONDIT	TWOPARAM	T	5.00000E+000	0.00000E+000	Conditionin&g	Time(s)	E(V)
DELAY	TWOPARAM	T	5.00000E+000	0.00000E+000	Init. De&lay	Time(s)	Stab.(mV/s)
SPEED	SELECTOR	0	&Optimize for:
ZGUESS	QUANT	1.00000E+005	E&stimated Z (ohms)
OCVCURVE	TABLE	19
	Pt	T	Vf	Vm	Ach	Over
	#	s	V vs. Ref.	V	V	bits
	0	0.258333	7.50614E-003	7.50614E-003	5.73432E-004	...........
	1	0.516667	7.50688E-003	7.54528E-003	5.67066E-004	...........
	2	0.775	7.51195E-003	7.60705E-003	5.67066E-004	...........
	3	1.03333	7.52687E-003	7.61551E-003	5.68032E-004	...........
	4	1.29167	7.55256E-003	7.63435E-003	5.67932E-004	...........
	5	1.55	7.58424E-003	7.74103E-003	5.73532E-004	...........
	6	1.80833	7.62040E-003	7.76689E-003	5.72332E-004	...........
	7	2.06667	7.66274E-003	7.76056E-003	5.74132E-004	...........
	8	2.325	7.70589E-003	7.77411E-003	5.72966E-004	...........
	9	2.58333	7.74067E-003	7.82331E-003	5.72199E-004	...........
	10	2.84167	7.76717E-003	7.88636E-003	5.69899E-004	...........
	11	3.1	7.79516E-003	7.93893E-003	5.72232E-004	...........
	12	3.35833	7.83265E-003	7.98956E-003	5.71199E-004	...........
	13	3.61667	7.87965E-003	8.04080E-003	5.69032E-004	...........
	14	3.875	7.93133E-003	8.08439E-003	5.72466E-004	...........
	15	4.13333	7.98340E-003	8.13807E-003	5.64632E-004	...........
	16	4.39167	8.03410E-003	8.18536E-003	5.63466E-004	...........
	17	4.65	8.08365E-003	8.23225E-003	5.67666E-004	...........
	18	4.90833	8.13257E-003	8.28143E-003	5.70966E-004	...........
EOC	QUANT	0.0081326	Open Circuit (V)
PSTATMODEL	IQUANT	4	Pstat Model
PSTATSECTION	LABEL	REF600-11020	Pstat Section
PSTATSERIALNO	LABEL	11020	Pstat Serial Number
CTRLMODE	IQUANT	1	Control Mode
IESTAB	IQUANT	0	I/E Stability
CASPEED	IQUANT	1	Control Amp Speed
CONVENTION	IQUANT	1	Current Convention
ICHRANGE	IQUANT	2	Ich Range
ICHRANGEMODE	TOGGLE	F	Ich Auto Range
ICHOFFSETENABLE	TOGGLE	T	Ich Offset Enable
ICHOFFSET	QUANT	0	Ich Offset (V)
ICHFILTER	IQUANT	3	Ich Filter
VCHRANGE	IQUANT	2	Vch Range
VCHRANGEMODE	TOGGLE	F	Vch Auto Range
VCHOFFSETENABLE	TOGGLE	T	Vch Offset Enable
VCHOFFSET	QUANT	0	Vch Offset (V)
VCHFILTER	IQUANT	3	Vch Filter
ACHRANGE	IQUANT	2	Ach Range
ACHOFFSETENABLE	TOGGLE	F	Ach Offset Enable
ACHOFFSET	QUANT	0	Ach Offset (V)
ACHFILTER	IQUANT	3	Ach Filter
IERANGELOWERLIMIT	IQUANT	1	I/E Range Lower Limit
IERANGEMODE	TOGGLE	F	I/E AutoRange
IERANGE	IQUANT	5	I/E Range
POSFEEDENABLE	TOGGLE	F	Positive Feedback IR Comp
POSFEEDRESISTANCE	QUANT	0	Positive Feedback Resistance (ohm)
ACHSELECT	IQUANT	0	Ach Select
CABLEID	IQUANT	14	Cable ID
DCCALDATE	LABEL	8/19/2019	DC Calibration Date
ACCALDATE	LABEL	8/19/2019	AC Calibration Date
THERMOSELECT	IQUANT	1	Thermo Select
FRAMEWORKVERSION	QUANT	6.33	Framework Version
INSTRUMENTVERSION	LABEL	3.50	Instrument Version
ZCURVE	TABLE
	Pt	Time	Freq	Zreal	Zimag	Zsig	Zmod	Zphz	Idc	Vdc	IERange
	#	s	Hz	ohm	ohm	V	ohm	°	A	V	#
	0	2	1000078	2278.393	-1603.649	1	2786.174	-35.13983	-7.190912E-006	0.0112126	8
	1	2	794390.6	2598.403	-1534.83	1	3017.847	-30.56958	2.321225E-006	0.0098338	8
	2	2	630984.4	2890.335	-1416.981	1	3218.986	-26.11631	-7.326003E-007	0.0096968	8
	3	2	501234.4	3129.323	-1270.526	1	3377.41	-22.09749	-6.963892E-006	0.0109746	8
	4	3	398109.4	3321.451	-1110.072	1	3502.042	-18.48029	-6.141157E-006	0.0108654	8
	5	3	316265.6	3451.857	-966.336	1	3584.567	-15.63941	-1.113711E-006	0.0102456	8
	6	3	251203.1	3564.76	-846.4301	1	3663.873	-13.35717	2.449438E-006	0.0092763	8
	7	4	199546.9	3653.652	-721.8982	1	3724.286	-11.17669	-6.568853E-008	0.0095002	8
	8	4	158578.1	3709.971	-624.4272	1	3762.153	-9.55394	-1.174598E-008	0.0094972	8
	9	4	125953.1	3786.773	-506.7328	1	3820.527	-7.621843	-1.753892E-006	0.0093423	7
	10	5	100078.1	3820.999	-451.1401	1	3847.539	-6.733661	6.121545E-007	0.0100213	7
	11	5	79453.13	3858.816	-413.7769	1	3880.937	-6.120382	3.822888E-007	0.0103459	7
	12	5	63140.62	3890.669	-390.0347	1	3910.17	-5.724704	3.832624E-007	0.0103428	7
	13	6	50203.12	3921.223	-373.3041	1	3938.952	-5.438222	-1.152963E-006	0.0114342	7
	14	6	39890.62	3951.022	-367.308	1	3968.058	-5.311255	-1.283102E-006	0.0112577	7
	15	6	31640.63	3981.534	-370.59	1	3998.744	-5.317609	-1.075468E-006	0.0102651	7
	16	7	25171.88	4011.893	-384.8802	1	4030.312	-5.47989	-1.153721E-006	0.0114376	7
	17	7	20015.62	4045.055	-409.1918	1	4065.699	-5.776308	8.465286E-007	0.0095752	7
	18	7	15890.62	4072.872	-440.8707	1	4096.664	-6.177965	-1.284998E-006	0.0112533	7
	19	8	12609.37	4107.55	-487.4442	1	4136.371	-6.767657	-1.153463E-006	0.0114344	7
	20	8	10078.13	4142.905	-545.9037	1	4178.716	-7.506525	1.04444E-006	0.0090604	7
	21	8	8015.625	4175.543	-622.1554	1	4221.64	-8.474714	-2.899872E-007	0.0088313	7
	22	9	6328.125	4214.89	-723.1922	1	4276.483	-9.73602	4.865429E-008	0.010787	7
	23	9	5015.625	4255.223	-848.396	1	4338.975	-11.27564	-9.499615E-007	0.0115039	7
	24	9	3984.375	4304.063	-1003.203	1	4419.431	-13.1204	8.315578E-007	0.0079034	7
	25	10	3170.956	4353.861	-1195.877	1	4515.111	-15.3587	-9.48927E-007	0.0115038	7
	26	10	2527.573	4414.675	-1432.281	1	4641.205	-17.97494	-3.255811E-007	0.0111808	7
	27	10	1976.103	4495.112	-1749.635	1	4823.615	-21.26751	-9.483973E-007	0.011505	7
	28	10	1577.524	4578.23	-2108.284	1	5040.343	-24.72616	-1.153144E-006	0.011428	7
	29	11	1265.625	4682.003	-2530.645	1	5322.153	-28.39143	-1.075261E-006	0.010252	7
	30	11	998.264	4812.633	-3089.662	1	5719.042	-32.70005	1.541383E-007	0.0082983	7
	31	11	796.875	4962.078	-3734.953	1	6210.643	-36.96876	1.145677E-006	0.0086009	7
	32	12	627.7902	5142.731	-4565.836	1	6877.103	-41.59941	1.046448E-006	0.0090638	7
	33	12	505.5147	5344.613	-5492.541	1	7663.739	-45.78204	1.033371E-006	0.0080077	7
	34	12	397.9953	5601.135	-6733.701	1	8758.735	-50.2461	5.766258E-009	0.0097807	7
	35	13	315.5048	5901.32	-8229.474	1	10126.69	-54.35585	1.333041E-009	0.0097225	6
	36	13	252.4038	6243.342	-9995.68	1	11785.29	-58.01094	1.32135E-009	0.0097163	6
	37	13	198.6229	6697.995	-12340.48	1	14041.03	-61.50839	1.007877E-009	0.0097191	6
	38	14	158.3615	7239.475	-15070.55	1	16719.2	-64.34166	3.070864E-010	0.0097267	6
	39	14	125.558	7954.607	-18516.62	1	20152.94	-66.75198	6.939783E-011	0.0097255	6
	40	14	100.4464	8838.146	-22582.42	1	24250.33	-68.62598	-8.428625E-010	0.0097157	6
	41	15	79.00281	10024.22	-27964.51	1	29706.88	-70.27915	1.149372E-010	0.0097136	6
	42	15	63.3446	11623.52	-33566.48	1	35522.04	-70.89988	6.448484E-010	0.009708	6
	43	15	49.86702	13887.69	-41599.36	1	43856.3	-71.53873	-6.425816E-010	0.0097079	6
	44	16	39.72458	16341.53	-50773.67	1	53338.65	-72.1592	4.57948E-010	0.0097164	6
	45	16	31.6723	19696.92	-61523.98	1	64600.07	-72.24752	-3.764753E-011	0.0097082	6
	46	16	24.93351	24448.92	-75358.36	1	79225.2	-72.0251	5.556476E-011	0.0096991	6
	47	17	19.86229	30214.03	-90848.63	1	95741.1	-71.60414	-5.465756E-010	0.0097134	6
	48	17	15.83615	36945.36	-109844.5	1	115891.2	-71.41003	-1.115723E-009	0.0097148	5
	49	17	12.40079	48738.07	-132399.3	1	141085	-69.79063	-1.221044E-009	0.0097261	5
	50	18	9.93114	60022.77	-156689	1	167792.1	-69.0397	6.743576E-010	0.0097233	5
	51	18	7.944915	75385.34	-185179.6	1	199936	-67.8491	5.418964E-010	0.0097067	5
	52	19	6.317385	94662.96	-218809.3	1	238408.4	-66.60535	3.491707E-010	0.0097066	5
	53	20	5.008013	118656.4	-257912.1	1	283897.9	-65.29448	3.847794E-010	0.0097276	5
	54	21	3.945707	148405.8	-301981.1	1	336477.1	-63.82862	-6.464822E-011	0.0097142	5
	55	22	3.158693	182965.9	-348855.4	1	393924.7	-62.32412	-9.85268E-011	0.0096984	5
	56	24	2.504006	224915.5	-402939.2	1	461461.8	-60.8303	1.499437E-010	0.0096999	5
	57	25	1.998082	270954.6	-459578	1	533505.7	-59.47756	-4.107591E-011	0.0096896	5
	58	27	1.584686	326946.4	-525708.6	1	619082.8	-58.12188	-1.550286E-010	0.0096496	5
	59	29	1.266892	385399.9	-596287	1	709993.9	-57.12408	-1.489098E-010	0.0096719	5
	60	31	0.999041	454673.2	-678533.8	1	816783.8	-56.17467	-1.387734E-010	0.009698	5
