EXPLAIN
TAG	EISPOT
TITLE	LABEL	Potentiostatic EIS	Test &Identifier
DATE	LABEL	10/20/2019	Date
TIME	LABEL	11:19:30	Time
NOTES	NOTES	1	&Notes...
	
PSTAT	PSTAT	REF600-11020	Potentiostat
VDC	POTEN	0.00000E+000	T	DC &Voltage (V)
FREQINIT	QUANT	1.00000E+006	Initial Fre&q. (Hz)
FREQFINAL	QUANT	1.00000E+000	Final Fre&q. (Hz)
PTSPERDEC	QUANT	1.00000E+001	Points/&decade
VAC	QUANT	2.50000E+001	AC &Voltage (mV rms)
AREA	QUANT	1.00000E-002	&Area (cm^2)
CONDIT	TWOPARAM	T	5.00000E+000	0.00000E+000	Conditionin&g	Time(s)	E(V)
DELAY	TWOPARAM	T	5.00000E+000	0.00000E+000	Init. De&lay	Time(s)	Stab.(mV/s)
SPEED	SELECTOR	1	&Optimize for:
ZGUESS	QUANT	1.00000E+005	E&stimated Z (ohms)
OCVCURVE	TABLE	19
	Pt	T	Vf	Vm	Ach	Over
	#	s	V vs. Ref.	V	V	bits
	0	0.258333	3.64240E-003	3.64240E-003	5.56399E-004	...........
	1	0.516667	3.63389E-003	3.19693E-003	5.57399E-004	...........
	2	0.775	3.58160E-003	2.77335E-003	5.58799E-004	...........
	3	1.03333	3.43471E-003	2.42422E-003	5.57833E-004	...........
	4	1.29167	3.17752E-003	2.14094E-003	5.56766E-004	...........
	5	1.55	2.84941E-003	1.83961E-003	5.58932E-004	...........
	6	1.80833	2.50691E-003	1.62203E-003	5.56566E-004	...........
	7	2.06667	2.18615E-003	1.36714E-003	5.58132E-004	...........
	8	2.325	1.89863E-003	1.18641E-003	5.58999E-004	...........
	9	2.58333	1.64406E-003	1.06228E-003	5.53799E-004	...........
	10	2.84167	1.41551E-003	5.54130E-004	5.53366E-004	...........
	11	3.1	1.18976E-003	3.51030E-004	5.51566E-004	...........
	12	3.35833	9.43200E-004	2.88579E-004	5.55466E-004	...........
	13	3.61667	6.89950E-004	1.53894E-004	5.57566E-004	...........
	14	3.875	4.81156E-004	6.64738E-004	5.53566E-004	...........
	15	4.13333	3.75823E-004	7.67322E-004	5.52133E-004	...........
	16	4.39167	3.98879E-004	5.99440E-004	5.51199E-004	...........
	17	4.65	5.02202E-004	7.59392E-004	5.56966E-004	...........
	18	4.90833	5.99436E-004	3.71924E-004	5.56766E-004	...........
EOC	QUANT	0.0005994	Open Circuit (V)
PSTATMODEL	IQUANT	4	Pstat Model
PSTATSECTION	LABEL	REF600-11020	Pstat Section
PSTATSERIALNO	LABEL	11020	Pstat Serial Number
CTRLMODE	IQUANT	1	Control Mode
IESTAB	IQUANT	0	I/E Stability
CASPEED	IQUANT	1	Control Amp Speed
CONVENTION	IQUANT	1	Current Convention
ICHRANGE	IQUANT	2	Ich Range
ICHRANGEMODE	TOGGLE	F	Ich Auto Range
ICHOFFSETENABLE	TOGGLE	T	Ich Offset Enable
ICHOFFSET	QUANT	0	Ich Offset (V)
ICHFILTER	IQUANT	3	Ich Filter
VCHRANGE	IQUANT	2	Vch Range
VCHRANGEMODE	TOGGLE	F	Vch Auto Range
VCHOFFSETENABLE	TOGGLE	T	Vch Offset Enable
VCHOFFSET	QUANT	0	Vch Offset (V)
VCHFILTER	IQUANT	3	Vch Filter
ACHRANGE	IQUANT	2	Ach Range
ACHOFFSETENABLE	TOGGLE	F	Ach Offset Enable
ACHOFFSET	QUANT	0	Ach Offset (V)
ACHFILTER	IQUANT	3	Ach Filter
IERANGELOWERLIMIT	IQUANT	1	I/E Range Lower Limit
IERANGEMODE	TOGGLE	F	I/E AutoRange
IERANGE	IQUANT	4	I/E Range
POSFEEDENABLE	TOGGLE	F	Positive Feedback IR Comp
POSFEEDRESISTANCE	QUANT	0	Positive Feedback Resistance (ohm)
ACHSELECT	IQUANT	0	Ach Select
CABLEID	IQUANT	14	Cable ID
DCCALDATE	LABEL	8/19/2019	DC Calibration Date
ACCALDATE	LABEL	8/19/2019	AC Calibration Date
THERMOSELECT	IQUANT	1	Thermo Select
FRAMEWORKVERSION	QUANT	6.33	Framework Version
INSTRUMENTVERSION	LABEL	3.50	Instrument Version
ZCURVE	TABLE
	Pt	Time	Freq	Zreal	Zimag	Zsig	Zmod	Zphz	Idc	Vdc	IERange
	#	s	Hz	ohm	ohm	V	ohm	°	A	V	#
	0	2	1000078	2789.831	-1993.118	1	3428.655	-35.54286	7.793395E-007	0.0023952	8
	1	4	794390.6	3204.877	-1934.188	1	3743.303	-31.11157	3.601305E-006	0.0016657	8
	2	5	630984.4	3537.048	-1795.249	1	3966.563	-26.91033	-1.337417E-006	0.0023276	8
	3	7	501234.4	3874.31	-1645.167	1	4209.139	-23.00777	4.746444E-006	0.0013392	8
	4	8	398109.4	4111.564	-1483.068	1	4370.864	-19.83471	3.958275E-006	0.0013093	8
	5	10	316265.6	4302.071	-1313.581	1	4498.146	-16.97936	-2.588788E-006	0.0025589	8
	6	11	251203.1	4472.768	-1155.065	1	4619.505	-14.47992	-2.477414E-007	0.0022612	8
	7	13	199546.9	4589.404	-1019.151	1	4701.202	-12.52028	-1.541628E-006	0.0024119	8
	8	14	158578.1	4676.263	-922.8423	1	4766.453	-11.16365	1.763392E-006	0.0015449	8
	9	16	125953.1	4812.102	-742.731	1	4869.083	-8.774165	8.151944E-007	0.0008613	7
	10	17	100078.1	4862.027	-713.2459	1	4914.064	-8.345606	8.90332E-008	0.0018758	7
	11	19	79453.13	4923.648	-685.5425	1	4971.145	-7.926599	-7.614319E-009	0.002079	7
	12	20	63140.62	4987.656	-673.5126	1	5032.925	-7.690467	8.911917E-008	0.001866	7
	13	22	50203.12	5047.565	-675.5233	1	5092.568	-7.622686	-2.8418E-009	0.0020968	7
	14	23	39890.62	5112.439	-694.745	1	5159.429	-7.738695	-3.834042E-008	0.0020837	7
	15	24	31640.63	5182.284	-723.887	1	5232.598	-7.951905	-8.774867E-008	0.0022012	7
	16	26	25171.88	5256.14	-770.6453	1	5312.335	-8.341168	-5.12062E-008	0.0021615	7
	17	27	20015.62	5346.825	-849.5637	1	5413.898	-9.028324	-5.076863E-008	0.0020822	7
	18	28	15890.62	5422.265	-908.9176	1	5497.917	-9.51585	-5.73595E-009	0.002074	7
	19	30	12609.37	5516.729	-1001.073	1	5606.821	-10.28506	-1.947219E-008	0.0020224	7
	20	31	10078.13	5627.334	-1111.645	1	5736.083	-11.17455	-8.777994E-008	0.0021972	7
	21	33	8015.625	5746.356	-1209.452	1	5872.255	-11.88573	-8.691732E-008	0.0021968	7
	22	34	6328.125	5887.112	-1401.483	1	6051.631	-13.39056	-4.900748E-008	0.0021492	7
	23	35	5015.625	6039.669	-1578.56	1	6242.552	-14.64747	-1.632866E-008	0.0020176	7
	24	37	3984.375	6267.859	-1791.184	1	6518.772	-15.9485	-3.554776E-008	0.0020848	7
	25	38	3170.956	6405.413	-2019.609	1	6716.259	-17.49992	-3.793145E-008	0.0020774	7
	26	40	2527.573	6612.878	-2280.271	1	6994.984	-19.02536	-6.078533E-008	0.0022386	7
	27	41	1976.103	6862.842	-2617.17	1	7344.942	-20.87453	-4.492379E-008	0.002075	7
	28	42	1577.524	7202.491	-3005.648	1	7804.473	-22.65111	-4.979182E-008	0.0020739	7
	29	44	1265.625	7377.287	-3363.235	1	8107.756	-24.5078	-1.70444E-008	0.0020102	7
	30	45	998.264	7660.955	-3863.598	1	8580.071	-26.76287	7.075661E-008	0.0019318	7
	31	47	796.875	7960.938	-4440.547	1	9115.646	-29.15243	-3.900911E-008	0.002069	7
	32	48	627.7902	8283.065	-5174.593	1	9766.55	-31.99383	-9.751168E-009	0.0022079	6
	33	49	505.5147	8586.483	-6007.307	1	10479.29	-34.97754	1.873778E-008	0.0017513	6
	34	51	397.9953	8936.806	-7139.244	1	11438.33	-38.61991	-2.509846E-010	0.0020002	6
	35	52	315.5048	9303.69	-8518.037	1	12614.1	-42.47581	1.13993E-009	0.0020014	6
	36	53	252.4038	9690.54	-10161.28	1	14041.31	-46.35836	-4.049951E-010	0.001997	6
	37	55	198.6229	10165	-12365.97	1	16007.64	-50.57933	5.697324E-010	0.0019997	6
	38	56	158.3615	10694.79	-14974	1	18401.06	-54.46468	-5.762897E-010	0.0019902	6
	39	58	125.558	11373.02	-18283.89	1	21532.45	-58.11739	4.670095E-010	0.0019931	6
	40	59	100.4464	12161.33	-22224.88	1	25334.63	-61.31278	1.780237E-009	0.0019941	6
	41	60	79.00281	13416.73	-27327.58	1	30443.47	-63.85084	5.444176E-010	0.0019903	6
	42	62	63.3446	14950.14	-33795.47	1	36954.58	-66.13679	-1.415018E-010	0.0019908	6
	43	63	49.86702	16285.39	-40817.2	1	43946.07	-68.24882	1.840881E-010	0.0019908	6
	44	65	39.72458	19021.96	-49896.91	1	53399.79	-69.13189	6.919618E-010	0.0019969	6
	45	66	31.6723	22014.44	-60580.93	1	64456.85	-70.02942	-3.046485E-010	0.0019969	6
	46	67	24.93351	26559.69	-74395.48	1	78994.33	-70.35309	3.277233E-010	0.0019938	6
	47	69	19.86229	32141.34	-89887.36	1	95461	-70.3243	1.145629E-010	0.002005	6
	48	70	15.83615	37018.99	-107585.5	1	113776.3	-71.01221	-2.07529E-009	0.0020022	5
	49	72	12.40079	47383.33	-130184.4	1	138539.4	-69.99996	-7.223255E-010	0.0020005	5
	50	73	9.93114	58927.94	-156663.9	1	167380	-69.38659	-1.638438E-010	0.0019962	5
	51	75	7.944915	72615.97	-185250	1	198974	-68.59537	7.065528E-010	0.0020086	5
	52	76	6.317385	87330.02	-220274.9	1	236954.8	-68.3737	-1.484265E-010	0.0020132	5
	53	78	5.008013	107011.1	-261679.6	1	282714.7	-67.75841	5.213074E-011	0.0019984	5
	54	81	3.945707	131245.7	-311328.3	1	337862.1	-67.14133	2.944258E-010	0.0020069	5
	55	84	3.158693	158084.5	-365812.8	1	398509.3	-66.62861	4.899385E-011	0.0019908	5
	56	87	2.504006	190737.6	-432287.9	1	472497.3	-66.19158	2.166148E-010	0.0020114	5
	57	90	1.998082	228508.8	-506708.1	1	555850.1	-65.72618	2.45048E-010	0.0019836	5
	58	93	1.584686	274187.7	-599089.5	1	658852.9	-65.40766	7.506377E-011	0.0019739	5
	59	96	1.266892	328027.1	-701201.3	1	774135.1	-64.92946	1.760413E-010	0.001962	5
	60	101	0.999041	395173	-829433.8	1	918761.2	-64.52514	7.054918E-011	0.002036	5
