EXPLAIN
TAG	EISPOT
TITLE	LABEL	Potentiostatic EIS	Test &Identifier
DATE	LABEL	11/27/2019	Date
TIME	LABEL	13:54:23	Time
NOTES	NOTES	3	&Notes...
	
	
	
PSTAT	PSTAT	REF600-11020	Potentiostat
VDC	POTEN	0.00000E+000	T	DC &Voltage (V)
FREQINIT	QUANT	1.00000E+006	Initial Fre&q. (Hz)
FREQFINAL	QUANT	1.00000E+000	Final Fre&q. (Hz)
PTSPERDEC	QUANT	1.00000E+001	Points/&decade
VAC	QUANT	2.50000E+001	AC &Voltage (mV rms)
AREA	QUANT	1.00000E-002	&Area (cm^2)
CONDIT	TWOPARAM	T	5.00000E+000	0.00000E+000	Conditionin&g	Time(s)	E(V)
DELAY	TWOPARAM	T	5.00000E+000	0.00000E+000	Init. De&lay	Time(s)	Stab.(mV/s)
SPEED	SELECTOR	0	&Optimize for:
ZGUESS	QUANT	1.00000E+005	E&stimated Z (ohms)
OCVCURVE	TABLE	19
	Pt	T	Vf	Vm	Ach	Over
	#	s	V vs. Ref.	V	V	bits
	0	0.258333	1.06193E-001	1.06193E-001	5.17400E-004	...........
	1	0.516667	1.06309E-001	1.12276E-001	5.23000E-004	...........
	2	0.775	1.07016E-001	1.17671E-001	5.25233E-004	...........
	3	1.03333	1.08984E-001	1.22511E-001	5.21766E-004	...........
	4	1.29167	1.12428E-001	1.26888E-001	5.17866E-004	...........
	5	1.55	1.16864E-001	1.30862E-001	5.15000E-004	...........
	6	1.80833	1.21585E-001	1.34513E-001	5.20100E-004	...........
	7	2.06667	1.26109E-001	1.37873E-001	5.20133E-004	...........
	8	2.325	1.30252E-001	1.40982E-001	5.15533E-004	...........
	9	2.58333	1.34008E-001	1.43869E-001	5.17233E-004	...........
	10	2.84167	1.37433E-001	1.46560E-001	5.16000E-004	...........
	11	3.1	1.40585E-001	1.49061E-001	5.11633E-004	...........
	12	3.35833	1.43504E-001	1.51413E-001	5.17033E-004	...........
	13	3.61667	1.46219E-001	1.53600E-001	5.13200E-004	...........
	14	3.875	1.48750E-001	1.55633E-001	5.15900E-004	...........
	15	4.13333	1.51114E-001	1.57557E-001	5.15366E-004	...........
	16	4.39167	1.53322E-001	1.59368E-001	5.21500E-004	...........
	17	4.65	1.55387E-001	1.61023E-001	5.19500E-004	...........
	18	4.90833	1.57320E-001	1.62580E-001	5.16733E-004	...........
EOC	QUANT	0.15732	Open Circuit (V)
PSTATMODEL	IQUANT	4	Pstat Model
PSTATSECTION	LABEL	REF600-11020	Pstat Section
PSTATSERIALNO	LABEL	11020	Pstat Serial Number
CTRLMODE	IQUANT	1	Control Mode
IESTAB	IQUANT	0	I/E Stability
CASPEED	IQUANT	1	Control Amp Speed
CONVENTION	IQUANT	1	Current Convention
ICHRANGE	IQUANT	2	Ich Range
ICHRANGEMODE	TOGGLE	F	Ich Auto Range
ICHOFFSETENABLE	TOGGLE	T	Ich Offset Enable
ICHOFFSET	QUANT	0	Ich Offset (V)
ICHFILTER	IQUANT	3	Ich Filter
VCHRANGE	IQUANT	2	Vch Range
VCHRANGEMODE	TOGGLE	F	Vch Auto Range
VCHOFFSETENABLE	TOGGLE	T	Vch Offset Enable
VCHOFFSET	QUANT	0	Vch Offset (V)
VCHFILTER	IQUANT	3	Vch Filter
ACHRANGE	IQUANT	2	Ach Range
ACHOFFSETENABLE	TOGGLE	F	Ach Offset Enable
ACHOFFSET	QUANT	0	Ach Offset (V)
ACHFILTER	IQUANT	3	Ach Filter
IERANGELOWERLIMIT	IQUANT	1	I/E Range Lower Limit
IERANGEMODE	TOGGLE	F	I/E AutoRange
IERANGE	IQUANT	6	I/E Range
POSFEEDENABLE	TOGGLE	F	Positive Feedback IR Comp
POSFEEDRESISTANCE	QUANT	0	Positive Feedback Resistance (ohm)
ACHSELECT	IQUANT	0	Ach Select
CABLEID	IQUANT	14	Cable ID
DCCALDATE	LABEL	8/19/2019	DC Calibration Date
ACCALDATE	LABEL	8/19/2019	AC Calibration Date
THERMOSELECT	IQUANT	1	Thermo Select
FRAMEWORKVERSION	QUANT	6.33	Framework Version
INSTRUMENTVERSION	LABEL	3.50	Instrument Version
ZCURVE	TABLE
	Pt	Time	Freq	Zreal	Zimag	Zsig	Zmod	Zphz	Idc	Vdc	IERange
	#	s	Hz	ohm	ohm	V	ohm	°	A	V	#
	0	2	1000078	1757.55	-2335.497	1	2922.932	-53.03715	1.794913E-006	0.1589763	8
	1	2	794390.6	2138.65	-2638.819	1	3396.644	-50.97671	-1.696517E-006	0.1596255	8
	2	2	630984.4	2582.81	-2933.319	1	3908.359	-48.63583	-8.562971E-008	0.1594723	8
	3	3	501234.4	3110.01	-3218.729	1	4475.754	-45.98416	1.895154E-006	0.1584034	8
	4	3	398109.4	3724.527	-3440.178	1	5070.2	-42.72728	6.573167E-006	0.15805	8
	5	3	316265.6	4399.47	-3573.791	1	5668.097	-39.08776	-4.757662E-006	0.1591445	8
	6	4	251203.1	5108.526	-3625.132	1	6264.074	-35.36042	-5.200314E-006	0.1595658	8
	7	4	199546.9	5827.201	-3547.236	1	6821.961	-31.33044	-1.413435E-006	0.1585634	8
	8	5	158578.1	6491.127	-3326.813	1	7293.999	-27.13591	-3.950425E-007	0.1591993	8
	9	5	125953.1	7115.122	-3073.748	1	7750.67	-23.36444	4.43898E-008	0.1615759	7
	10	5	100078.1	7681.93	-2834.923	1	8188.335	-20.25597	8.917547E-007	0.15848	7
	11	6	79453.13	8163.858	-2494.175	1	8536.362	-16.98866	1.143515E-006	0.1571634	7
	12	6	63140.62	8292.933	-2128.399	1	8561.706	-14.3944	-1.290389E-006	0.1598889	7
	13	6	50203.12	8551.249	-1884.711	1	8756.483	-12.42938	-9.390586E-007	0.1605021	7
	14	7	39890.62	8787.89	-1612.134	1	8934.538	-10.39529	-3.620533E-007	0.1578692	7
	15	7	31640.63	8879.659	-1413.754	1	8991.499	-9.046285	-1.289157E-006	0.1602554	7
	16	7	25171.88	8988.091	-1242.802	1	9073.606	-7.872489	-1.287731E-006	0.1598812	7
	17	8	20015.62	9221.851	-1102.495	1	9287.52	-6.817496	4.893206E-007	0.1569633	7
	18	8	15890.62	9285.034	-1054.539	1	9344.727	-6.47955	4.115722E-007	0.1592977	7
	19	9	12609.37	9224.387	-972.578	1	9275.518	-6.018775	-1.289802E-006	0.1598758	7
	20	9	10078.13	9318.731	-990.01	1	9371.173	-6.064281	7.816609E-008	0.1597354	7
	21	9	8015.625	9422.852	-916.5148	1	9467.319	-5.555406	-1.537257E-007	0.1618924	6
	22	10	6328.125	9512.48	-965.466	1	9561.35	-5.795375	-2.786298E-008	0.1609434	6
	23	10	5015.625	9594.63	-1060.036	1	9653.01	-6.304597	1.482038E-007	0.1583151	6
	24	10	3984.375	9642.59	-1194.88	1	9716.34	-7.063904	1.907004E-007	0.156849	6
	25	11	3170.956	9558.7	-1371.975	1	9656.66	-8.167965	-2.249168E-007	0.1608157	6
	26	11	2527.573	9728.75	-1603.594	1	9860.02	-9.359928	1.770192E-007	0.1558139	6
	27	11	1976.103	9688.74	-1915.324	1	9876.24	-11.18237	-1.452771E-007	0.1586256	6
	28	12	1577.524	9873.42	-2292.332	1	10136.04	-13.0709	1.439906E-007	0.1556325	6
	29	12	1265.625	9866.97	-2720.438	1	10235.13	-15.41415	-8.563675E-008	0.1575928	6
	30	12	998.264	10022.94	-3323.233	1	10559.51	-18.34359	-1.548762E-007	0.1618916	6
	31	13	796.875	10231.41	-4034.206	1	10998.03	-21.51913	1.786072E-007	0.1574769	6
	32	13	627.7902	10289.52	-4919.275	1	11404.97	-25.55182	-2.017747E-007	0.1619376	6
	33	13	505.5147	10437.9	-5917.833	1	11998.77	-29.55134	-2.247331E-007	0.1608029	6
	34	13	397.9953	10740.67	-7328.128	1	13002.44	-34.30489	-1.861598E-009	0.1586703	6
	35	14	315.5048	11029.55	-8990.631	1	14229.63	-39.18486	-3.170742E-009	0.1586736	6
	36	14	252.4038	11376.26	-10958.41	1	15795.75	-43.9282	-3.681982E-009	0.1586681	6
	37	14	198.6229	11846.06	-13566.96	1	18010.87	-48.87398	-2.369523E-009	0.1586799	6
	38	15	158.3615	12437.16	-16614.07	1	20753.56	-53.18176	-1.854814E-009	0.158666	6
	39	15	125.558	13212.25	-20443.82	1	24341.6	-57.12659	-2.320163E-009	0.1586784	6
	40	15	100.4464	14218.22	-24929.81	1	28699.36	-60.30258	-4.005116E-009	0.158676	6
	41	16	79.00281	15626.59	-30981.94	1	34699.73	-63.23465	-3.188348E-009	0.1586655	6
	42	16	63.3446	17088.34	-37093.91	1	40840.79	-65.26553	-2.187387E-009	0.1586732	6
	43	16	49.86702	19796.55	-45932.73	1	50017.19	-66.68444	-2.309592E-009	0.1586673	6
	44	17	39.72458	22946.16	-56361.09	1	60853.09	-67.8474	-1.644468E-009	0.1586651	6
	45	17	31.6723	27285.21	-68623.45	1	73848.91	-68.31686	-1.090639E-009	0.1586625	6
	46	17	24.93351	33419.5	-83284.22	1	89739.2	-68.13586	-2.729323E-009	0.1586736	6
	47	18	19.86229	40886.68	-99802.7	1	107853.1	-67.72231	-1.651678E-009	0.1586661	5
	48	18	15.83615	52248.66	-120055.9	1	130932.6	-66.48119	-4.752541E-009	0.1586687	5
	49	18	12.40079	63758.99	-143639.7	1	157154.6	-66.06445	-2.643441E-009	0.1586785	5
	50	19	9.93114	79652.87	-166975.6	1	185001.1	-64.49731	-3.113478E-009	0.1586773	5
	51	19	7.944915	98620	-194026.2	1	217651.2	-63.0566	-2.804244E-009	0.1586747	5
	52	20	6.317385	121672	-225185.6	1	255954.3	-61.61681	-2.710944E-009	0.1586817	5
	53	21	5.008013	148813.4	-259500	1	299141.6	-60.16737	-2.153869E-009	0.158669	5
	54	22	3.945707	181426.1	-298290.4	1	349131.2	-58.6912	-1.249309E-009	0.1586806	5
	55	23	3.158693	216799.1	-338459.2	1	401940.9	-57.35852	-1.933623E-009	0.1586929	5
	56	25	2.504006	258065	-385151.3	1	463615.2	-56.17652	-1.12759E-009	0.1586715	5
	57	26	1.998082	299520.6	-436802	1	529630.6	-55.56108	-1.079746E-009	0.1586973	5
	58	28	1.584686	355277.3	-497093.7	1	611002.6	-54.44627	-7.159251E-010	0.1587176	5
	59	30	1.266892	410314.2	-560367.2	1	694528	-53.78753	-4.200809E-010	0.1586839	5
	60	32	0.999041	481551.8	-638827.8	1	799995.8	-52.99082	-6.210563E-010	0.1586487	5
