EXPLAIN
TAG	EISPOT
TITLE	LABEL	Potentiostatic IDE	Test &Identifier
DATE	LABEL	9/18/2019	Date
TIME	LABEL	7:44:29	Time
NOTES	NOTES	1	&Notes...
	
PSTAT	PSTAT	REF600-11020	Potentiostat
VDC	POTEN	0.00000E+000	T	DC &Voltage (V)
FREQINIT	QUANT	1.00000E+006	Initial Fre&q. (Hz)
FREQFINAL	QUANT	1.00000E+000	Final Fre&q. (Hz)
PTSPERDEC	QUANT	1.00000E+001	Points/&decade
VAC	QUANT	2.50000E+001	AC &Voltage (mV rms)
AREA	QUANT	1.00000E-002	&Area (cm^2)
CONDIT	TWOPARAM	T	5.00000E+000	0.00000E+000	Conditionin&g	Time(s)	E(V)
DELAY	TWOPARAM	T	5.00000E+000	0.00000E+000	Init. De&lay	Time(s)	Stab.(mV/s)
SPEED	SELECTOR	1	&Optimize for:
ZGUESS	QUANT	1.00000E+007	E&stimated Z (ohms)
OCVCURVE	TABLE	19
	Pt	T	Vf	Vm	Ach	Over
	#	s	V vs. Ref.	V	V	bits
	0	0.258333	2.16463E-002	2.16463E-002	5.66599E-004	...........
	1	0.516667	2.16749E-002	2.31440E-002	5.68399E-004	...........
	2	0.775	2.18451E-002	2.42752E-002	5.69699E-004	...........
	3	1.03333	2.23069E-002	2.52920E-002	5.69399E-004	...........
	4	1.29167	2.30904E-002	2.61881E-002	5.68732E-004	...........
	5	1.55	2.40694E-002	2.70702E-002	5.76599E-004	...........
	6	1.80833	2.50869E-002	2.78235E-002	5.74599E-004	...........
	7	2.06667	2.60508E-002	2.86114E-002	5.77399E-004	...........
	8	2.325	2.69360E-002	2.92962E-002	5.68799E-004	...........
	9	2.58333	2.77508E-002	2.99893E-002	5.74466E-004	...........
	10	2.84167	2.85112E-002	3.06493E-002	5.69266E-004	...........
	11	3.1	2.92301E-002	3.12525E-002	5.72799E-004	...........
	12	3.35833	2.99153E-002	3.18810E-002	5.71832E-004	...........
	13	3.61667	3.05714E-002	3.24637E-002	5.69399E-004	...........
	14	3.875	3.12026E-002	3.30123E-002	5.68999E-004	...........
	15	4.13333	3.18084E-002	3.34279E-002	5.68766E-004	...........
	16	4.39167	3.23813E-002	3.39766E-002	5.75132E-004	...........
	17	4.65	3.29165E-002	3.43863E-002	5.72432E-004	...........
	18	4.90833	3.34171E-002	3.47395E-002	5.77966E-004	...........
EOC	QUANT	0.0334171	Open Circuit (V)
PSTATMODEL	IQUANT	4	Pstat Model
PSTATSECTION	LABEL	REF600-11020	Pstat Section
PSTATSERIALNO	LABEL	11020	Pstat Serial Number
CTRLMODE	IQUANT	1	Control Mode
IESTAB	IQUANT	0	I/E Stability
CASPEED	IQUANT	1	Control Amp Speed
CONVENTION	IQUANT	1	Current Convention
ICHRANGE	IQUANT	2	Ich Range
ICHRANGEMODE	TOGGLE	F	Ich Auto Range
ICHOFFSETENABLE	TOGGLE	T	Ich Offset Enable
ICHOFFSET	QUANT	0	Ich Offset (V)
ICHFILTER	IQUANT	3	Ich Filter
VCHRANGE	IQUANT	2	Vch Range
VCHRANGEMODE	TOGGLE	F	Vch Auto Range
VCHOFFSETENABLE	TOGGLE	T	Vch Offset Enable
VCHOFFSET	QUANT	0	Vch Offset (V)
VCHFILTER	IQUANT	3	Vch Filter
ACHRANGE	IQUANT	2	Ach Range
ACHOFFSETENABLE	TOGGLE	F	Ach Offset Enable
ACHOFFSET	QUANT	0	Ach Offset (V)
ACHFILTER	IQUANT	3	Ach Filter
IERANGELOWERLIMIT	IQUANT	1	I/E Range Lower Limit
IERANGEMODE	TOGGLE	F	I/E AutoRange
IERANGE	IQUANT	3	I/E Range
POSFEEDENABLE	TOGGLE	F	Positive Feedback IR Comp
POSFEEDRESISTANCE	QUANT	0	Positive Feedback Resistance (ohm)
ACHSELECT	IQUANT	0	Ach Select
CABLEID	IQUANT	14	Cable ID
DCCALDATE	LABEL	8/19/2019	DC Calibration Date
ACCALDATE	LABEL	8/19/2019	AC Calibration Date
THERMOSELECT	IQUANT	1	Thermo Select
FRAMEWORKVERSION	QUANT	6.33	Framework Version
INSTRUMENTVERSION	LABEL	3.50	Instrument Version
ZCURVE	TABLE
	Pt	Time	Freq	Zreal	Zimag	Zsig	Zmod	Zphz	Idc	Vdc	IERange
	#	s	Hz	ohm	ohm	V	ohm	°	A	V	#
	0	2	1000078	1965.133	-888.2422	1	2156.553	-24.32302	-6.452271E-007	0.0360338	8
	1	3	794390.6	2111.918	-775.1746	1	2249.687	-20.15555	-1.879731E-006	0.0359119	8
	2	5	630984.4	2218.659	-675.2155	1	2319.13	-16.92684	9.10362E-007	0.0351624	8
	3	6	501234.4	2302.285	-581.7099	1	2374.637	-14.17994	-1.876184E-006	0.0356019	8
	4	7	398109.4	2363.825	-494.4556	1	2414.985	-11.81456	7.437894E-007	0.0350076	8
	5	9	316265.6	2402.351	-429.7897	1	2440.494	-10.14313	-1.172849E-006	0.035347	8
	6	10	251203.1	2438.501	-370.9666	1	2466.557	-8.650023	2.752819E-006	0.034482	8
	7	11	199546.9	2468.306	-320.2101	1	2488.99	-7.391625	-1.155771E-006	0.0353357	8
	8	13	158578.1	2494.445	-294.1725	1	2511.731	-6.725886	-1.68841E-007	0.035142	8
	9	14	125953.1	2522.484	-248.5823	1	2534.703	-5.628133	2.282559E-007	0.034609	7
	10	15	100078.1	2541.43	-230.3351	1	2551.847	-5.178686	3.625082E-008	0.0349531	7
	11	17	79453.13	2561.735	-225.2129	1	2571.615	-5.024197	2.669012E-008	0.0349845	7
	12	18	63140.62	2582.913	-225.838	1	2592.767	-4.996971	6.06213E-008	0.0349454	7
	13	19	50203.12	2606.128	-229.0155	1	2616.171	-5.022009	5.130136E-008	0.0349292	7
	14	21	39890.62	2629.401	-236.8923	1	2640.051	-5.148085	-3.53698E-008	0.0350718	7
	15	22	31640.63	2654.179	-248.2976	1	2665.768	-5.344446	1.74296E-008	0.0349618	7
	16	23	25171.88	2678.893	-264.0485	1	2691.875	-5.629248	-6.129798E-009	0.0350493	7
	17	25	20015.62	2705.135	-286.1403	1	2720.226	-6.038107	2.085415E-009	0.0349722	7
	18	26	15890.62	2731.561	-312.6211	1	2749.392	-6.528967	-4.149818E-009	0.0350237	7
	19	27	12609.37	2759.04	-350.0915	1	2781.163	-7.23155	-3.005491E-008	0.0350524	7
	20	29	10078.13	2787.537	-393.6158	1	2815.19	-8.037347	-1.849553E-008	0.0350508	7
	21	30	8015.625	2816.974	-449.3483	1	2852.588	-9.063152	-5.112426E-009	0.0350387	7
	22	31	6328.125	2850.59	-521.0015	1	2897.811	-10.35761	-3.55306E-008	0.0350648	7
	23	33	5015.625	2886.412	-608.7627	1	2949.91	-11.90951	3.254335E-009	0.035074	7
	24	34	3984.375	2925.717	-715.9974	1	3012.055	-13.75146	-3.142222E-008	0.0350477	7
	25	35	3170.956	2968.002	-846.1927	1	3086.272	-15.91313	-5.995344E-009	0.0350009	7
	26	37	2527.573	3013.887	-1005.321	1	3177.135	-18.44679	4.043506E-009	0.0350709	7
	27	38	1976.103	3070.245	-1217.291	1	3302.756	-21.62735	-3.176761E-008	0.0350726	7
	28	39	1577.524	3127.02	-1459.169	1	3450.714	-25.01528	-1.631396E-008	0.0350473	7
	29	41	1265.625	3190.653	-1747.828	1	3638.017	-28.71376	6.200766E-008	0.0349331	7
	30	42	998.264	3265.303	-2133.909	1	3900.74	-33.16503	2.012868E-008	0.0349602	7
	31	43	796.875	3349.436	-2588.387	1	4233.021	-37.69624	9.975557E-009	0.0349743	7
	32	45	627.7902	3455.948	-3184.066	1	4699.133	-42.65527	4.992942E-009	0.0349654	7
	33	46	505.5147	3571.339	-3855.73	1	5255.58	-47.19285	-1.141955E-008	0.0350012	7
	34	47	397.9953	3728.14	-4766.588	1	6051.396	-51.96961	7.102857E-009	0.0350391	7
	35	49	315.5048	3919.405	-5865.369	1	7054.381	-56.24804	7.24297E-009	0.0350355	7
	36	50	252.4038	4152.645	-7165.717	1	8282.026	-59.90704	7.32555E-009	0.0350349	7
	37	51	198.6229	4474.599	-8885.805	1	9948.85	-63.27168	6.995219E-009	0.0350363	7
	38	53	158.3615	4868.825	-10891.75	1	11930.45	-65.91442	5.093043E-010	0.0349748	6
	39	54	125.558	5397.802	-13409.75	1	14455.37	-68.07382	5.455078E-010	0.0349775	6
	40	55	100.4464	6060.214	-16370.61	1	17456.32	-69.68602	1.095791E-009	0.0349697	6
	41	57	79.00281	7011.777	-20238.91	1	21419.12	-70.89134	7.783353E-010	0.0349724	6
	42	58	63.3446	8018.458	-24583.87	1	25858.5	-71.93536	4.10456E-010	0.0349702	6
	43	59	49.86702	9839.46	-30236.4	1	31797.08	-71.9742	8.54484E-010	0.0349708	6
	44	61	39.72458	11768.35	-36801.05	1	38636.92	-72.26662	4.581432E-010	0.0349757	6
	45	62	31.6723	14499.11	-44587.81	1	46886	-71.98646	-1.523975E-010	0.0349688	6
	46	63	24.93351	18117.34	-54349.93	1	57290.07	-71.56439	9.883306E-010	0.0349701	6
	47	65	19.86229	22595.03	-65305.18	1	69103.55	-70.91483	1.32095E-009	0.0349801	6
	48	66	15.83615	28359.37	-78284.08	1	83262.54	-70.08646	1.458132E-009	0.0349738	6
	49	67	12.40079	36318.43	-94443.67	1	101186.1	-68.96569	6.464728E-012	0.0349803	6
	50	69	9.93114	45130.43	-111270.9	1	120074.8	-67.92299	-2.382954E-010	0.034977	5
	51	70	7.944915	56427.49	-130938.3	1	142579.4	-66.68651	-5.315189E-010	0.0349776	5
	52	72	6.317385	70107.31	-153707.3	1	168940.7	-65.48183	-6.536851E-010	0.0349802	5
	53	74	5.008013	87270.94	-180043.2	1	200079.5	-64.13951	-1.31265E-010	0.0349793	5
	54	76	3.945707	108567.4	-210952.9	1	237250.9	-62.76727	-3.810857E-010	0.0349752	5
	55	79	3.158693	132082	-243317.2	1	276855.4	-61.50517	-2.590896E-011	0.0349935	5
	56	82	2.504006	161745.3	-281656.3	1	324795	-60.13276	-8.836438E-010	0.0349726	5
	57	85	1.998082	195367.4	-321093.7	1	375858.5	-58.68185	-3.243883E-010	0.0349339	5
	58	88	1.584686	234588	-367562.2	1	436043	-57.45289	-6.491838E-010	0.0349609	5
	59	92	1.266892	278979.9	-414439.5	1	499589.7	-56.05354	-3.521183E-010	0.034934	5
	60	96	0.999041	330932.2	-470141.2	1	574933.8	-54.8583	-4.348096E-010	0.0350193	5
