EXPLAIN
TAG	EISPOT
TITLE	LABEL	Potentiostatic EIS	Test &Identifier
DATE	LABEL	11/7/2019	Date
TIME	LABEL	11:14:16	Time
NOTES	NOTES	2	&Notes...
	
	
PSTAT	PSTAT	REF600-11020	Potentiostat
VDC	POTEN	0.00000E+000	T	DC &Voltage (V)
FREQINIT	QUANT	1.00000E+006	Initial Fre&q. (Hz)
FREQFINAL	QUANT	1.00000E+000	Final Fre&q. (Hz)
PTSPERDEC	QUANT	1.00000E+001	Points/&decade
VAC	QUANT	2.50000E+001	AC &Voltage (mV rms)
AREA	QUANT	1.00000E-002	&Area (cm^2)
CONDIT	TWOPARAM	T	5.00000E+000	0.00000E+000	Conditionin&g	Time(s)	E(V)
DELAY	TWOPARAM	T	5.00000E+000	0.00000E+000	Init. De&lay	Time(s)	Stab.(mV/s)
SPEED	SELECTOR	1	&Optimize for:
ZGUESS	QUANT	1.00000E+005	E&stimated Z (ohms)
OCVCURVE	TABLE	19
	Pt	T	Vf	Vm	Ach	Over
	#	s	V vs. Ref.	V	V	bits
	0	0.258333	4.68734E-003	4.68734E-003	5.49999E-004	...........
	1	0.516667	4.68546E-003	4.58888E-003	5.50733E-004	...........
	2	0.775	4.67425E-003	4.51353E-003	5.50866E-004	...........
	3	1.03333	4.64302E-003	4.40610E-003	5.48199E-004	...........
	4	1.29167	4.58747E-003	4.35749E-003	5.47666E-004	...........
	5	1.55	4.51493E-003	4.30066E-003	5.52532E-004	...........
	6	1.80833	4.43886E-003	4.24711E-003	5.56033E-004	...........
	7	2.06667	4.36913E-003	4.20153E-003	5.49566E-004	...........
	8	2.325	4.30757E-003	4.11819E-003	5.54999E-004	...........
	9	2.58333	4.24966E-003	4.04519E-003	5.59666E-004	...........
	10	2.84167	4.19122E-003	4.08246E-003	5.57666E-004	...........
	11	3.1	4.13662E-003	4.05082E-003	5.57032E-004	...........
	12	3.35833	4.09481E-003	4.01555E-003	5.56366E-004	...........
	13	3.61667	4.06642E-003	4.00276E-003	5.59666E-004	...........
	14	3.875	4.04447E-003	3.98724E-003	5.56466E-004	...........
	15	4.13333	4.02432E-003	3.96802E-003	5.59599E-004	...........
	16	4.39167	4.00483E-003	3.92679E-003	5.58466E-004	...........
	17	4.65	3.98471E-003	3.92667E-003	5.60799E-004	...........
	18	4.90833	3.96357E-003	3.91181E-003	5.61199E-004	...........
EOC	QUANT	0.0039636	Open Circuit (V)
PSTATMODEL	IQUANT	4	Pstat Model
PSTATSECTION	LABEL	REF600-11020	Pstat Section
PSTATSERIALNO	LABEL	11020	Pstat Serial Number
CTRLMODE	IQUANT	1	Control Mode
IESTAB	IQUANT	0	I/E Stability
CASPEED	IQUANT	1	Control Amp Speed
CONVENTION	IQUANT	1	Current Convention
ICHRANGE	IQUANT	2	Ich Range
ICHRANGEMODE	TOGGLE	F	Ich Auto Range
ICHOFFSETENABLE	TOGGLE	T	Ich Offset Enable
ICHOFFSET	QUANT	0	Ich Offset (V)
ICHFILTER	IQUANT	3	Ich Filter
VCHRANGE	IQUANT	2	Vch Range
VCHRANGEMODE	TOGGLE	F	Vch Auto Range
VCHOFFSETENABLE	TOGGLE	T	Vch Offset Enable
VCHOFFSET	QUANT	0	Vch Offset (V)
VCHFILTER	IQUANT	3	Vch Filter
ACHRANGE	IQUANT	2	Ach Range
ACHOFFSETENABLE	TOGGLE	F	Ach Offset Enable
ACHOFFSET	QUANT	0	Ach Offset (V)
ACHFILTER	IQUANT	3	Ach Filter
IERANGELOWERLIMIT	IQUANT	1	I/E Range Lower Limit
IERANGEMODE	TOGGLE	F	I/E AutoRange
IERANGE	IQUANT	4	I/E Range
POSFEEDENABLE	TOGGLE	F	Positive Feedback IR Comp
POSFEEDRESISTANCE	QUANT	0	Positive Feedback Resistance (ohm)
ACHSELECT	IQUANT	0	Ach Select
CABLEID	IQUANT	14	Cable ID
DCCALDATE	LABEL	8/19/2019	DC Calibration Date
ACCALDATE	LABEL	8/19/2019	AC Calibration Date
THERMOSELECT	IQUANT	1	Thermo Select
FRAMEWORKVERSION	QUANT	6.33	Framework Version
INSTRUMENTVERSION	LABEL	3.50	Instrument Version
ZCURVE	TABLE
	Pt	Time	Freq	Zreal	Zimag	Zsig	Zmod	Zphz	Idc	Vdc	IERange
	#	s	Hz	ohm	ohm	V	ohm	°	A	V	#
	0	2	1000078	2229.83	-1608.992	1	2749.727	-35.81331	5.484739E-006	0.0049195	8
	1	3	794390.6	2487.858	-1627.433	1	2972.874	-33.19071	-8.610696E-006	0.0063618	8
	2	5	630984.4	2754.573	-1623.618	1	3197.469	-30.51621	1.119176E-005	0.0047213	8
	3	6	501234.4	3016.593	-1602.057	1	3415.614	-27.97196	-1.656335E-006	0.0052419	8
	4	8	398109.4	3272.471	-1571.876	1	3630.408	-25.65651	3.507437E-006	0.0047945	8
	5	9	316265.6	3519.95	-1517.621	1	3833.174	-23.32321	1.963283E-006	0.0058652	8
	6	11	251203.1	3739.948	-1518.684	1	4036.535	-22.10064	-5.074242E-007	0.0060369	8
	7	12	199546.9	3972.698	-1505.106	1	4248.255	-20.74982	-7.39249E-007	0.005206	8
	8	14	158578.1	4213.784	-1453.245	1	4457.341	-19.02823	-7.306329E-007	0.0052068	8
	9	15	125953.1	4489.021	-1326.13	1	4680.804	-16.458	-1.465399E-006	0.0041909	7
	10	17	100078.1	4721.377	-1286.411	1	4893.491	-15.24115	1.205932E-006	0.0046233	7
	11	18	79453.13	4905.04	-1212.159	1	5052.598	-13.88112	-1.052046E-006	0.0074765	7
	12	19	63140.62	5092.618	-1128.539	1	5216.163	-12.49499	1.199327E-007	0.0038771	7
	13	21	50203.12	5264.666	-1042.208	1	5366.834	-11.19765	9.08709E-007	0.0033761	7
	14	22	39890.62	5408.528	-957.341	1	5492.602	-10.03772	1.285968E-006	0.003721	7
	15	24	31640.63	5507.047	-868.5206	1	5575.114	-8.962341	-3.784539E-007	0.0044843	7
	16	25	25171.88	5610.224	-804.9448	1	5667.676	-8.164971	9.829073E-008	0.0065985	7
	17	26	20015.62	5674.501	-743.0195	1	5722.94	-7.459872	5.596177E-007	0.0035112	7
	18	28	15890.62	5758.149	-720.6234	1	5803.066	-7.133391	1.210336E-006	0.0046075	7
	19	29	12609.37	5803.741	-698.8992	1	5845.671	-6.866618	-1.453722E-006	0.0072137	7
	20	30	10078.13	5850.455	-717.012	1	5894.229	-6.987133	-1.052638E-006	0.0074654	7
	21	32	8015.625	5887.408	-742.3538	1	5934.025	-7.186601	-1.293744E-006	0.0073931	7
	22	33	6328.125	5943.346	-784.2582	1	5994.866	-7.517074	5.597223E-007	0.0035088	7
	23	35	5015.625	5993.644	-868.9911	1	6056.312	-8.249571	1.155702E-006	0.0034591	7
	24	36	3984.375	6022.242	-978.652	1	6101.242	-9.230235	-1.292802E-006	0.0073955	7
	25	38	3170.956	6081.345	-1130.378	1	6185.508	-10.52976	-7.22461E-007	0.0073626	7
	26	39	2527.573	6122.79	-1316.656	1	6262.758	-12.13618	-8.722908E-007	0.0052999	7
	27	41	1976.103	6208.108	-1587.267	1	6407.81	-14.34194	1.010005E-007	0.0065938	7
	28	43	1577.524	6277.823	-1898.046	1	6558.478	-16.82224	1.158857E-006	0.0034559	7
	29	44	1265.625	6329.283	-2262.464	1	6721.5	-19.66993	-1.244924E-006	0.0060944	7
	30	46	998.264	6400.645	-2753.584	1	6967.817	-23.27758	-1.444817E-006	0.0067616	7
	31	47	796.875	6527.11	-3357.152	1	7339.866	-27.21856	-7.206646E-007	0.0073532	7
	32	49	627.7902	6656.787	-4116.147	1	7826.588	-31.73009	-3.770991E-007	0.00448	7
	33	50	505.5147	6817.061	-4983.348	1	8444.292	-36.16722	-1.29147E-006	0.0073895	7
	34	51	397.9953	7037.686	-6168.644	1	9358.482	-41.23508	8.011702E-009	0.0054858	7
	35	53	315.5048	7302.879	-7579.417	1	10525.19	-46.06453	4.824745E-010	0.0054197	6
	36	54	252.4038	7619.998	-9244.117	1	11979.9	-50.50098	2.303897E-009	0.0054238	6
	37	56	198.6229	8054.761	-11446.5	1	13996.48	-54.86642	1.278616E-009	0.0054222	6
	38	57	158.3615	8592.888	-14002.28	1	16428.68	-58.46348	1.209208E-009	0.0054263	6
	39	58	125.558	9303.571	-17217.1	1	19570	-61.61462	4.710123E-010	0.0054258	6
	40	60	100.4464	10221.42	-20973.29	1	23331.45	-64.01752	1.508558E-009	0.005425	6
	41	61	79.00281	11420.08	-25954.09	1	28355.48	-66.24998	-3.856459E-010	0.0054284	6
	42	63	63.3446	12683.31	-31133.75	1	33618.1	-67.83494	-3.134012E-010	0.0054321	6
	43	64	49.86702	15489.53	-38570.62	1	41564.62	-68.12016	-4.890465E-010	0.0054168	6
	44	65	39.72458	17934.32	-46749.98	1	50071.95	-69.01208	1.3565E-009	0.0054255	6
	45	67	31.6723	21553.29	-56547.75	1	60516.05	-69.13555	8.659249E-010	0.0054347	6
	46	68	24.93351	26251.33	-68722.07	1	73565.31	-69.09351	8.547389E-011	0.0054341	6
	47	70	19.86229	32145.49	-82458.52	1	88502.77	-68.70226	7.427291E-010	0.0054422	6
	48	71	15.83615	39514.37	-97947	1	105617.2	-68.02957	-2.738928E-010	0.0054274	5
	49	72	12.40079	49449.12	-118683.4	1	128572.8	-67.38108	8.335571E-011	0.0054126	5
	50	74	9.93114	62309.45	-138855.6	1	152195.1	-65.83253	-1.859148E-010	0.0054382	5
	51	76	7.944915	78024.09	-162796.8	1	180528.5	-64.39286	9.084877E-010	0.0054262	5
	52	77	6.317385	96871.6	-190215.4	1	213462	-63.01147	3.016236E-011	0.0054393	5
	53	79	5.008013	120549.6	-220553.9	1	251348.8	-61.34003	1.785673E-010	0.0054308	5
	54	82	3.945707	149485.6	-254209.3	1	294903.9	-59.54272	6.161905E-010	0.0054286	5
	55	84	3.158693	180980.4	-288658.8	1	340701.9	-57.91352	-1.926818E-010	0.0054117	5
	56	88	2.504006	217867.5	-326481.2	1	392499.9	-56.28402	5.238938E-010	0.0054255	5
	57	91	1.998082	257341.9	-365980.6	1	447399.9	-54.88675	5.086434E-010	0.0054194	5
	58	94	1.584686	302277.3	-409276.8	1	508801.6	-53.55175	6.743289E-011	0.0053723	5
	59	97	1.266892	345492.8	-456474.3	1	572480.7	-52.87893	3.457028E-010	0.0054041	5
	60	102	0.999041	395119.8	-514723.5	1	648891.3	-52.4889	-2.106334E-010	0.0054227	5
