EXPLAIN
TAG	EISPOT
TITLE	LABEL	Potentiostatic EIS	Test &Identifier
DATE	LABEL	11/27/2019	Date
TIME	LABEL	13:41:10	Time
NOTES	NOTES	3	&Notes...
	
	
	
PSTAT	PSTAT	REF600-11020	Potentiostat
VDC	POTEN	0.00000E+000	T	DC &Voltage (V)
FREQINIT	QUANT	1.00000E+006	Initial Fre&q. (Hz)
FREQFINAL	QUANT	1.00000E+000	Final Fre&q. (Hz)
PTSPERDEC	QUANT	1.00000E+001	Points/&decade
VAC	QUANT	2.50000E+001	AC &Voltage (mV rms)
AREA	QUANT	1.00000E-002	&Area (cm^2)
CONDIT	TWOPARAM	T	5.00000E+000	0.00000E+000	Conditionin&g	Time(s)	E(V)
DELAY	TWOPARAM	T	5.00000E+000	0.00000E+000	Init. De&lay	Time(s)	Stab.(mV/s)
SPEED	SELECTOR	0	&Optimize for:
ZGUESS	QUANT	1.00000E+005	E&stimated Z (ohms)
OCVCURVE	TABLE	19
	Pt	T	Vf	Vm	Ach	Over
	#	s	V vs. Ref.	V	V	bits
	0	0.258333	-2.88574E-002	-2.88574E-002	5.68466E-004	...........
	1	0.516667	-2.88272E-002	-2.72797E-002	5.61432E-004	...........
	2	0.775	-2.86660E-002	-2.70322E-002	5.64366E-004	...........
	3	1.03333	-2.83055E-002	-2.76498E-002	5.70999E-004	...........
	4	1.29167	-2.78866E-002	-2.83178E-002	5.71966E-004	...........
	5	1.55	-2.76652E-002	-2.81978E-002	5.67966E-004	...........
	6	1.80833	-2.77310E-002	-2.85385E-002	5.74966E-004	...........
	7	2.06667	-2.79611E-002	-2.84448E-002	5.72499E-004	...........
	8	2.325	-2.82067E-002	-2.89100E-002	5.77099E-004	...........
	9	2.58333	-2.84042E-002	-2.83747E-002	5.78532E-004	...........
	10	2.84167	-2.85435E-002	-2.90646E-002	5.82132E-004	...........
	11	3.1	-2.86345E-002	-2.85565E-002	5.73399E-004	...........
	12	3.35833	-2.86998E-002	-2.90803E-002	5.75566E-004	...........
	13	3.61667	-2.87605E-002	-2.89579E-002	5.79765E-004	...........
	14	3.875	-2.88317E-002	-2.91330E-002	5.77532E-004	...........
	15	4.13333	-2.89171E-002	-2.91804E-002	5.73199E-004	...........
	16	4.39167	-2.90058E-002	-2.91704E-002	5.74466E-004	...........
	17	4.65	-2.90843E-002	-2.92426E-002	5.74366E-004	...........
	18	4.90833	-2.91467E-002	-2.93460E-002	5.73166E-004	...........
EOC	QUANT	-0.0291467	Open Circuit (V)
PSTATMODEL	IQUANT	4	Pstat Model
PSTATSECTION	LABEL	REF600-11020	Pstat Section
PSTATSERIALNO	LABEL	11020	Pstat Serial Number
CTRLMODE	IQUANT	1	Control Mode
IESTAB	IQUANT	0	I/E Stability
CASPEED	IQUANT	1	Control Amp Speed
CONVENTION	IQUANT	1	Current Convention
ICHRANGE	IQUANT	2	Ich Range
ICHRANGEMODE	TOGGLE	F	Ich Auto Range
ICHOFFSETENABLE	TOGGLE	T	Ich Offset Enable
ICHOFFSET	QUANT	0	Ich Offset (V)
ICHFILTER	IQUANT	3	Ich Filter
VCHRANGE	IQUANT	2	Vch Range
VCHRANGEMODE	TOGGLE	F	Vch Auto Range
VCHOFFSETENABLE	TOGGLE	T	Vch Offset Enable
VCHOFFSET	QUANT	0	Vch Offset (V)
VCHFILTER	IQUANT	3	Vch Filter
ACHRANGE	IQUANT	2	Ach Range
ACHOFFSETENABLE	TOGGLE	F	Ach Offset Enable
ACHOFFSET	QUANT	0	Ach Offset (V)
ACHFILTER	IQUANT	3	Ach Filter
IERANGELOWERLIMIT	IQUANT	1	I/E Range Lower Limit
IERANGEMODE	TOGGLE	F	I/E AutoRange
IERANGE	IQUANT	5	I/E Range
POSFEEDENABLE	TOGGLE	F	Positive Feedback IR Comp
POSFEEDRESISTANCE	QUANT	0	Positive Feedback Resistance (ohm)
ACHSELECT	IQUANT	0	Ach Select
CABLEID	IQUANT	14	Cable ID
DCCALDATE	LABEL	8/19/2019	DC Calibration Date
ACCALDATE	LABEL	8/19/2019	AC Calibration Date
THERMOSELECT	IQUANT	1	Thermo Select
FRAMEWORKVERSION	QUANT	6.33	Framework Version
INSTRUMENTVERSION	LABEL	3.50	Instrument Version
ZCURVE	TABLE
	Pt	Time	Freq	Zreal	Zimag	Zsig	Zmod	Zphz	Idc	Vdc	IERange
	#	s	Hz	ohm	ohm	V	ohm	°	A	V	#
	0	2	1000078	646.309	-7599.969	1	7627.401	-85.13921	-7.061006E-007	-0.0268188	8
	1	2	794390.6	801.5338	-9493.863	1	9527.64	-85.17416	5.570281E-006	-0.0273227	8
	2	3	630984.4	864.4111	-11854.77	1	11886.24	-85.82956	1.763174E-006	-0.0271105	8
	3	3	501234.4	947.788	-14860.61	1	14890.81	-86.3507	4.284085E-007	-0.0271636	8
	4	4	398109.4	1208.799	-18326.44	1	18366.26	-86.22627	-9.08161E-007	-0.027224	8
	5	4	316265.6	2048.586	-22810.87	1	22902.67	-84.86818	-3.032294E-008	-0.0279528	8
	6	5	251203.1	1818.772	-28499.44	1	28557.42	-86.34846	-2.198879E-006	-0.0277909	8
	7	5	199546.9	2350.004	-35837.92	1	35914.89	-86.24831	-4.716969E-007	-0.0279641	8
	8	5	158578.1	-4852.825	-46796.59	1	47047.53	-95.9204	-2.329381E-006	-0.0272254	8
	9	6	125953.1	2877.845	-57455.03	1	57527.06	-87.13253	-2.051423E-006	-0.0228758	7
	10	6	100078.1	5220.672	-70087.1	1	70281.27	-85.74	-4.88707E-008	-0.0263926	7
	11	7	79453.13	6650.123	-87454.19	1	87706.66	-85.65153	-4.753918E-007	-0.0259802	7
	12	7	63140.62	8379.891	-108875.6	1	109197.6	-85.59876	6.2326E-007	-0.0272482	7
	13	8	50203.12	10321.42	-136504.5	1	136894.1	-85.67596	-4.764448E-007	-0.0259886	7
	14	8	39890.62	12821.09	-169056.8	1	169542.2	-85.66305	2.653062E-007	-0.0295543	7
	15	9	31640.63	17331.23	-211862.7	1	212570.4	-85.32339	3.294691E-007	-0.0268686	7
	16	9	25171.88	26382.07	-262577.7	1	263899.8	-84.26255	6.243054E-007	-0.0272523	7
	17	10	20015.62	20827.79	-319340.4	1	320018.9	-86.26838	-4.752354E-007	-0.0259911	7
	18	10	15890.62	41559.64	-402057	1	404199.3	-84.09843	-1.197006E-006	-0.027306	7
	19	11	12609.37	50812.92	-507433.3	1	509971.1	-84.28162	-3.058059E-007	-0.023549	6
	20	11	10078.13	79134.48	-639995.4	1	644869.3	-82.95124	-3.124375E-007	-0.0244883	6
	21	11	8015.625	159102.2	-844163.6	1	859026.1	-79.32648	-9.815805E-009	-0.0248139	6
	22	12	6328.125	114869	-960555	1	967399	-83.1806	1.220059E-007	-0.0318036	6
	23	12	5015.625	150521.1	-1186675	1	1196183	-82.77105	-1.016471E-007	-0.0239224	6
	24	13	3984.375	215797.3	-1474338	1	1490047	-81.67281	2.279549E-007	-0.0285757	6
	25	13	3170.956	272970.8	-1852109	1	1872117	-81.61589	-3.131647E-007	-0.0244935	6
	26	14	2527.573	453203.9	-2202322	1	2248470	-78.37174	-1.394716E-007	-0.0289174	6
	27	14	1976.103	788272.3	-2922749	1	3027182	-74.90632	-1.403034E-007	-0.0289189	6
	28	15	1577.524	4708757	382000.6	1	4724226	4.637995	-1.38839E-007	-0.0289159	6
	29	15	1265.625	1260422	-4102223	1	4291491	-72.92024	-1.472954E-008	-0.0234462	5
	30	16	998.264	1655145	-5074049	1	5337178	-71.93378	2.487379E-008	-0.0293268	5
	31	17	796.875	1884390	-5928203	1	6220492	-72.36617	2.010006E-008	-0.0279969	5
	32	17	627.7902	2784123	-6975659	1	7510737	-68.24208	2.766012E-008	-0.0311329	5
	33	17	505.5147	3929712	-8634441	1	9486633	-65.52874	2.590462E-008	-0.0293243	5
	34	18	397.9953	3932007	-9307092	1	1.01036E+007	-67.0972	6.569698E-010	-0.0277707	5
	35	19	315.5048	7570178	-1.046978E+007	1	1.29199E+007	-54.13116	7.978916E-010	-0.0277676	5
	36	19	252.4038	7111819	-1.542472E+007	1	1.698529E+007	-65.24717	-3.008065E-011	-0.0277771	5
	37	20	198.6229	6661231	-1.406086E+007	1	1.555891E+007	-64.65108	3.153424E-010	-0.0277815	5
	38	20	158.3615	1.751438E+007	-1.899534E+007	1	2.58375E+007	-47.32283	-6.682433E-010	-0.0277833	5
	39	21	125.558	1.506174E+007	-1.836446E+007	1	2.375099E+007	-50.64287	-1.897112E-010	-0.0277783	5
	40	22	100.4464	-1.624369E+007	-2.116988E+007	1	2.668373E+007	-127.4991	1.732817E-010	-0.027783	4
	41	22	79.00281	1.094827E+007	4506364	1	1.183942E+007	22.37232	7.808463E-010	-0.0277824	4
	42	22	63.3446	3539675	-1777382	1	3960857	-26.66266	-4.038492E-010	-0.0277762	4
	43	23	49.86702	7463292	-2.810202E+007	1	2.907618E+007	-75.12681	1.283833E-011	-0.0277816	4
	44	24	39.72458	2.280918E+007	-2041391	1	2.290035E+007	-5.114269	1.383587E-010	-0.0277915	4
	45	24	31.6723	3406420	-1.420597E+007	1	1.460867E+007	-76.51575	-6.837245E-010	-0.0277881	4
	46	25	24.93351	2.837212E+007	-1.04763E+007	1	3.02445E+007	-20.26648	-2.457655E-011	-0.0277889	5
	47	25	19.86229	2.473232E+007	-2.796319E+007	1	3.733132E+007	-48.50853	-1.839642E-010	-0.0277838	4
	48	26	15.83615	1.116613E+007	-1.86947E+007	1	2.177554E+007	-59.15062	-2.693464E-010	-0.0277779	4
	49	26	12.40079	-4.464557E+007	6.776634E+007	1	8.115111E+007	123.3775	-4.978459E-010	-0.0277955	4
	50	27	9.93114	5.855382E+007	-2.21879E+007	1	6.261672E+007	-20.75328	5.667273E-010	-0.0278024	6
	51	28	7.944915	3.316105E+007	1.632469E+007	1	3.696148E+007	26.21033	3.736793E-010	-0.0277869	6
	52	29	6.317385	4.380311E+007	-7741361	1	4.448192E+007	-10.02244	3.181248E-011	-0.0277756	4
	53	31	5.008013	4.226918E+007	-1.230394E+007	1	4.402352E+007	-16.22951	-2.03328E-011	-0.0277782	4
	54	32	3.945707	5.707718E+007	-2802167	1	5.714593E+007	-2.810642	-4.967709E-011	-0.0278006	4
	55	34	3.158693	4.765506E+007	-5997607	1	4.803099E+007	-7.173221	3.387266E-011	-0.027768	4
	56	36	2.504006	1.442193E+008	-1.858574E+007	1	1.454119E+008	-7.343314	2.110201E-011	-0.0277872	3
	57	38	1.998082	1.431062E+008	-1.575207E+007	1	1.439705E+008	-6.281407	1.959151E-011	-0.027797	3
	58	40	1.584686	1.478875E+008	-1.64131E+007	1	1.487955E+008	-6.332983	2.123117E-011	-0.0277535	3
	59	44	1.266892	1.424572E+009	-4.012888E+008	1	1.480013E+009	-15.73204	3.506551E-012	-0.0277557	2
	60	47	0.999041	1.432125E+009	-3.435897E+008	1	1.472765E+009	-13.49118	3.50267E-012	-0.0277768	2
