EXPLAIN
TAG	EISPOT
TITLE	LABEL	Potentiostatic EIS	Test &Identifier
DATE	LABEL	11/22/2019	Date
TIME	LABEL	9:37:34	Time
NOTES	NOTES	4	&Notes...
	
	
	
	
PSTAT	PSTAT	REF600-11020	Potentiostat
VDC	POTEN	0.00000E+000	T	DC &Voltage (V)
FREQINIT	QUANT	1.00000E+006	Initial Fre&q. (Hz)
FREQFINAL	QUANT	1.00000E+000	Final Fre&q. (Hz)
PTSPERDEC	QUANT	1.00000E+001	Points/&decade
VAC	QUANT	2.50000E+001	AC &Voltage (mV rms)
AREA	QUANT	1.00000E-002	&Area (cm^2)
CONDIT	TWOPARAM	T	5.00000E+000	0.00000E+000	Conditionin&g	Time(s)	E(V)
DELAY	TWOPARAM	T	5.00000E+000	0.00000E+000	Init. De&lay	Time(s)	Stab.(mV/s)
SPEED	SELECTOR	0	&Optimize for:
ZGUESS	QUANT	1.00000E+005	E&stimated Z (ohms)
OCVCURVE	TABLE	19
	Pt	T	Vf	Vm	Ach	Over
	#	s	V vs. Ref.	V	V	bits
	0	0.258333	-1.33091E-003	-1.33091E-003	5.53299E-004	...........
	1	0.516667	-1.33870E-003	-1.73853E-003	5.49966E-004	...........
	2	0.775	-1.38626E-003	-2.11140E-003	5.52432E-004	...........
	3	1.03333	-1.51980E-003	-2.46210E-003	5.55433E-004	...........
	4	1.29167	-1.75607E-003	-2.77700E-003	5.50366E-004	...........
	5	1.55	-2.06566E-003	-3.10778E-003	5.44666E-004	...........
	6	1.80833	-2.40369E-003	-3.38508E-003	5.45533E-004	...........
	7	2.06667	-2.73874E-003	-3.67018E-003	5.48699E-004	...........
	8	2.325	-3.05697E-003	-3.93185E-003	5.54999E-004	...........
	9	2.58333	-3.35576E-003	-4.19060E-003	5.47833E-004	...........
	10	2.84167	-3.63746E-003	-4.42663E-003	5.52466E-004	...........
	11	3.1	-3.90470E-003	-4.65636E-003	5.53199E-004	...........
	12	3.35833	-4.15907E-003	-4.88668E-003	5.52199E-004	...........
	13	3.61667	-4.40231E-003	-5.10987E-003	5.53966E-004	...........
	14	3.875	-4.63707E-003	-5.33010E-003	5.53099E-004	...........
	15	4.13333	-4.86579E-003	-5.54439E-003	5.57966E-004	...........
	16	4.39167	-5.08916E-003	-5.72410E-003	5.57999E-004	...........
	17	4.65	-5.30497E-003	-5.89347E-003	5.57866E-004	...........
	18	4.90833	-5.50939E-003	-6.07782E-003	5.57132E-004	...........
EOC	QUANT	-0.0055094	Open Circuit (V)
PSTATMODEL	IQUANT	4	Pstat Model
PSTATSECTION	LABEL	REF600-11020	Pstat Section
PSTATSERIALNO	LABEL	11020	Pstat Serial Number
CTRLMODE	IQUANT	1	Control Mode
IESTAB	IQUANT	0	I/E Stability
CASPEED	IQUANT	1	Control Amp Speed
CONVENTION	IQUANT	1	Current Convention
ICHRANGE	IQUANT	2	Ich Range
ICHRANGEMODE	TOGGLE	F	Ich Auto Range
ICHOFFSETENABLE	TOGGLE	T	Ich Offset Enable
ICHOFFSET	QUANT	0	Ich Offset (V)
ICHFILTER	IQUANT	3	Ich Filter
VCHRANGE	IQUANT	2	Vch Range
VCHRANGEMODE	TOGGLE	F	Vch Auto Range
VCHOFFSETENABLE	TOGGLE	T	Vch Offset Enable
VCHOFFSET	QUANT	0	Vch Offset (V)
VCHFILTER	IQUANT	3	Vch Filter
ACHRANGE	IQUANT	2	Ach Range
ACHOFFSETENABLE	TOGGLE	F	Ach Offset Enable
ACHOFFSET	QUANT	0	Ach Offset (V)
ACHFILTER	IQUANT	3	Ach Filter
IERANGELOWERLIMIT	IQUANT	1	I/E Range Lower Limit
IERANGEMODE	TOGGLE	F	I/E AutoRange
IERANGE	IQUANT	5	I/E Range
POSFEEDENABLE	TOGGLE	F	Positive Feedback IR Comp
POSFEEDRESISTANCE	QUANT	0	Positive Feedback Resistance (ohm)
ACHSELECT	IQUANT	0	Ach Select
CABLEID	IQUANT	14	Cable ID
DCCALDATE	LABEL	8/19/2019	DC Calibration Date
ACCALDATE	LABEL	8/19/2019	AC Calibration Date
THERMOSELECT	IQUANT	1	Thermo Select
FRAMEWORKVERSION	QUANT	6.33	Framework Version
INSTRUMENTVERSION	LABEL	3.50	Instrument Version
ZCURVE	TABLE
	Pt	Time	Freq	Zreal	Zimag	Zsig	Zmod	Zphz	Idc	Vdc	IERange
	#	s	Hz	ohm	ohm	V	ohm	°	A	V	#
	0	2	1000078	1704.477	-602.063	1	1807.684	-19.45447	-3.520277E-006	-0.0034159	8
	1	2	794390.6	1796.06	-534.0592	1	1873.78	-16.55987	-1.50955E-006	-0.0034204	8
	2	2	630984.4	1859.768	-468.7071	1	1917.922	-14.14536	2.478251E-006	-0.0042941	8
	3	2	501234.4	1910.707	-401.5233	1	1952.44	-11.86767	5.863889E-007	-0.0034977	8
	4	3	398109.4	1958.962	-348.2623	1	1989.678	-10.08067	-6.084143E-006	-0.0030587	8
	5	3	316265.6	1991.967	-304.3787	1	2015.088	-8.687771	-3.82456E-007	-0.0042469	8
	6	3	251203.1	2019.228	-269.9412	1	2037.191	-7.61446	-4.514114E-006	-0.0036031	8
	7	4	199546.9	2037.171	-241.962	1	2051.49	-6.773489	-1.592335E-007	-0.0035378	8
	8	4	158578.1	2037.503	-214.2153	1	2048.733	-6.001812	8.244403E-007	-0.0036284	8
	9	4	125953.1	2088.872	-173.7689	1	2096.087	-4.755367	3.024498E-006	-0.0076478	7
	10	5	100078.1	2102.875	-162.5969	1	2109.151	-4.421384	8.413651E-007	-0.0046389	7
	11	5	79453.13	2116.02	-166.5749	1	2122.566	-4.501091	-6.137957E-007	-0.0041129	7
	12	5	63140.62	2132.245	-173.3191	1	2139.277	-4.647059	6.134402E-007	-0.0054561	7
	13	5	50203.12	2149.683	-183.3044	1	2157.484	-4.873846	8.419777E-007	-0.0046522	7
	14	6	39890.62	2169.051	-194.8353	1	2177.784	-5.132825	6.126418E-007	-0.0054587	7
	15	6	31640.63	2188.839	-210.4914	1	2198.937	-5.493001	6.989941E-007	-0.0042561	7
	16	6	25171.88	2209.823	-229.1263	1	2221.67	-5.91958	8.786905E-007	-0.0052331	7
	17	7	20015.62	2231.237	-253.1729	1	2245.554	-6.473522	7.834604E-007	-0.0053991	7
	18	7	15890.62	2254.022	-280.9572	1	2271.465	-7.105104	-8.778582E-007	-0.0035599	7
	19	7	12609.37	2278.262	-316.6839	1	2300.166	-7.913545	8.789062E-007	-0.0052325	7
	20	8	10078.13	2302.035	-358.6551	1	2329.807	-8.855441	-7.197398E-007	-0.0026391	7
	21	8	8015.625	2329.664	-412.8048	1	2365.955	-10.04822	3.723231E-007	-0.0053591	7
	22	8	6328.125	2358.195	-482.3464	1	2407.019	-11.55986	8.44761E-007	-0.0046508	7
	23	9	5015.625	2388.023	-566.4113	1	2454.277	-13.34331	-1.013811E-006	-0.0027946	7
	24	9	3984.375	2421.911	-668.1575	1	2512.387	-15.42313	5.293211E-007	-0.003913	7
	25	9	3170.956	2460.213	-794.3362	1	2585.27	-17.89386	-8.771657E-007	-0.0035603	7
	26	9	2527.573	2502.939	-947.7443	1	2676.364	-20.7393	3.591246E-007	-0.0036522	7
	27	10	1976.103	2554.887	-1153.885	1	2803.373	-24.30577	3.732626E-007	-0.0053606	7
	28	10	1577.524	2617.512	-1371.279	1	2954.958	-27.64944	-7.212444E-007	-0.0026415	7
	29	10	1265.625	2674.142	-1663.462	1	3149.308	-31.88387	-7.189628E-007	-0.0026441	7
	30	11	998.264	2755.015	-2032.103	1	3423.383	-36.41254	-7.197273E-007	-0.0026435	7
	31	11	796.875	2846.667	-2465.483	1	3765.916	-40.89566	7.339827E-008	-0.0051175	7
	32	11	627.7902	2965.535	-3028.503	1	4238.659	-45.60188	3.749531E-007	-0.0053635	7
	33	12	505.5147	3100.298	-3653.034	1	4791.294	-49.67903	3.568681E-007	-0.0036557	7
	34	12	397.9953	3287.212	-4500.984	1	5573.564	-53.85816	2.553626E-009	-0.004001	7
	35	12	315.5048	3518.945	-5512.254	1	6539.719	-57.44642	3.329443E-009	-0.0040066	7
	36	13	252.4038	3801.968	-6693.748	1	7698.131	-60.40395	2.428416E-009	-0.0040053	7
	37	13	198.6229	4193.148	-8241.647	1	9247.013	-63.03413	1.140337E-009	-0.0040016	7
	38	13	158.3615	4674.968	-10019.98	1	11056.91	-64.98791	1.991998E-010	-0.0040637	6
	39	14	125.558	5302.95	-12220.18	1	13321.19	-66.54155	5.644256E-010	-0.0040672	6
	40	14	100.4464	6069.759	-14758.88	1	15958.27	-67.64452	4.673737E-010	-0.0040744	6
	41	14	79.00281	7151.553	-18065.19	1	19429.25	-68.40263	-7.957604E-011	-0.0040659	6
	42	15	63.3446	8328.466	-21771.03	1	23309.68	-69.06574	9.377208E-010	-0.004076	6
	43	15	49.86702	10018.09	-26360.05	1	28199.55	-69.1908	3.532486E-010	-0.0040717	6
	44	15	39.72458	12147.52	-31561.63	1	33818.62	-68.94916	8.847592E-010	-0.0040652	6
	45	16	31.6723	14691.16	-37635.86	1	40401.59	-68.67681	5.950204E-010	-0.0040692	6
	46	16	24.93351	17935.44	-45368.83	1	48785.36	-68.42987	1.014893E-009	-0.0040709	6
	47	16	19.86229	21776.92	-54033.4	1	58256.7	-68.04924	2.743396E-009	-0.0040623	6
	48	17	15.83615	26999.21	-63931.8	1	69399.09	-67.10505	-2.196295E-009	-0.0040706	6
	49	17	12.40079	32684.5	-77085.73	1	83728.64	-67.02296	4.110528E-011	-0.0040735	6
	50	17	9.93114	39712.16	-90312.98	1	98658.5	-66.26408	-1.267148E-010	-0.0040802	6
	51	17	7.944915	47966.59	-106128.9	1	116465.2	-65.67869	1.336023E-009	-0.0040694	5
	52	18	6.317385	58572.14	-124761.7	1	137826.6	-64.85125	1.601294E-009	-0.0040823	5
	53	19	5.008013	71701.69	-146786	1	163362.3	-63.96552	6.8272E-010	-0.0040744	5
	54	20	3.945707	87778.98	-172113.4	1	193205	-62.97812	6.858189E-010	-0.0040664	5
	55	21	3.158693	106091	-199798.3	1	226218.2	-62.03212	6.124724E-010	-0.0040607	5
	56	23	2.504006	128419	-232227	1	265369.2	-61.05788	2.725292E-010	-0.0040693	5
	57	24	1.998082	153510.8	-266691.1	1	307716.9	-60.07472	6.517333E-010	-0.0040421	5
	58	25	1.584686	183195.3	-308012.6	1	358374.5	-59.25727	6.761912E-010	-0.0040253	5
	59	27	1.266892	215007.8	-352532	1	412925.1	-58.62115	6.218315E-010	-0.004057	5
	60	30	0.999041	254009.2	-406035.3	1	478941.8	-57.97056	5.620439E-010	-0.0040906	5
