EXPLAIN
TAG	EISPOT
TITLE	LABEL	Potentiostatic EIS	Test &Identifier
DATE	LABEL	9/24/2019	Date
TIME	LABEL	9:04:57	Time
NOTES	NOTES	1	&Notes...
	
PSTAT	PSTAT	REF600-11020	Potentiostat
VDC	POTEN	0.00000E+000	T	DC &Voltage (V)
FREQINIT	QUANT	1.00000E+006	Initial Fre&q. (Hz)
FREQFINAL	QUANT	1.00000E+000	Final Fre&q. (Hz)
PTSPERDEC	QUANT	1.00000E+001	Points/&decade
VAC	QUANT	2.50000E+001	AC &Voltage (mV rms)
AREA	QUANT	1.00000E-002	&Area (cm^2)
CONDIT	TWOPARAM	T	5.00000E+000	0.00000E+000	Conditionin&g	Time(s)	E(V)
DELAY	TWOPARAM	T	5.00000E+000	0.00000E+000	Init. De&lay	Time(s)	Stab.(mV/s)
SPEED	SELECTOR	1	&Optimize for:
ZGUESS	QUANT	1.00000E+004	E&stimated Z (ohms)
OCVCURVE	TABLE	19
	Pt	T	Vf	Vm	Ach	Over
	#	s	V vs. Ref.	V	V	bits
	0	0.258333	-1.55900E-003	-1.55900E-003	5.76532E-004	...........
	1	0.516667	-1.56883E-003	-2.07363E-003	5.78899E-004	...........
	2	0.775	-1.62906E-003	-2.55407E-003	5.81065E-004	...........
	3	1.03333	-1.79873E-003	-3.00244E-003	5.71766E-004	...........
	4	1.29167	-2.10025E-003	-3.42829E-003	5.75232E-004	...........
	5	1.55	-2.49759E-003	-3.83184E-003	5.72599E-004	...........
	6	1.80833	-2.93361E-003	-4.21870E-003	5.71632E-004	...........
	7	2.06667	-3.36759E-003	-4.58526E-003	5.73899E-004	...........
	8	2.325	-3.78206E-003	-4.93756E-003	5.71166E-004	...........
	9	2.58333	-4.17396E-003	-5.27502E-003	5.69599E-004	...........
	10	2.84167	-4.54557E-003	-5.59894E-003	5.68299E-004	...........
	11	3.1	-4.89757E-003	-5.79007E-003	5.70966E-004	...........
	12	3.35833	-5.22791E-003	-6.25036E-003	5.73666E-004	...........
	13	3.61667	-5.54275E-003	-6.53292E-003	5.69266E-004	...........
	14	3.875	-5.85716E-003	-6.81717E-003	5.70232E-004	...........
	15	4.13333	-6.17540E-003	-7.09434E-003	5.69899E-004	...........
	16	4.39167	-6.48730E-003	-7.36397E-003	5.71132E-004	...........
	17	4.65	-6.78462E-003	-7.62731E-003	5.64566E-004	...........
	18	4.90833	-7.06733E-003	-7.87970E-003	5.68432E-004	...........
EOC	QUANT	-0.0070673	Open Circuit (V)
PSTATMODEL	IQUANT	4	Pstat Model
PSTATSECTION	LABEL	REF600-11020	Pstat Section
PSTATSERIALNO	LABEL	11020	Pstat Serial Number
CTRLMODE	IQUANT	1	Control Mode
IESTAB	IQUANT	0	I/E Stability
CASPEED	IQUANT	1	Control Amp Speed
CONVENTION	IQUANT	1	Current Convention
ICHRANGE	IQUANT	2	Ich Range
ICHRANGEMODE	TOGGLE	F	Ich Auto Range
ICHOFFSETENABLE	TOGGLE	T	Ich Offset Enable
ICHOFFSET	QUANT	0	Ich Offset (V)
ICHFILTER	IQUANT	3	Ich Filter
VCHRANGE	IQUANT	2	Vch Range
VCHRANGEMODE	TOGGLE	F	Vch Auto Range
VCHOFFSETENABLE	TOGGLE	T	Vch Offset Enable
VCHOFFSET	QUANT	0	Vch Offset (V)
VCHFILTER	IQUANT	3	Vch Filter
ACHRANGE	IQUANT	2	Ach Range
ACHOFFSETENABLE	TOGGLE	F	Ach Offset Enable
ACHOFFSET	QUANT	0	Ach Offset (V)
ACHFILTER	IQUANT	3	Ach Filter
IERANGELOWERLIMIT	IQUANT	1	I/E Range Lower Limit
IERANGEMODE	TOGGLE	F	I/E AutoRange
IERANGE	IQUANT	6	I/E Range
POSFEEDENABLE	TOGGLE	F	Positive Feedback IR Comp
POSFEEDRESISTANCE	QUANT	0	Positive Feedback Resistance (ohm)
ACHSELECT	IQUANT	0	Ach Select
CABLEID	IQUANT	14	Cable ID
DCCALDATE	LABEL	8/19/2019	DC Calibration Date
ACCALDATE	LABEL	8/19/2019	AC Calibration Date
THERMOSELECT	IQUANT	1	Thermo Select
FRAMEWORKVERSION	QUANT	6.33	Framework Version
INSTRUMENTVERSION	LABEL	3.50	Instrument Version
ZCURVE	TABLE
	Pt	Time	Freq	Zreal	Zimag	Zsig	Zmod	Zphz	Idc	Vdc	IERange
	#	s	Hz	ohm	ohm	V	ohm	°	A	V	#
	0	1	1000078	2269.335	-1533.433	1	2738.849	-34.04765	-2.36693E-006	-0.0043174	8
	1	3	794390.6	2575.744	-1463.786	1	2962.622	-29.60941	4.319101E-006	-0.0057128	8
	2	4	630984.4	2824.031	-1342.659	1	3126.961	-25.4283	-1.972937E-006	-0.0048311	8
	3	5	501234.4	3044.454	-1204.252	1	3273.976	-21.58158	-3.080392E-006	-0.0046334	8
	4	7	398109.4	3234.613	-1058.21	1	3403.311	-18.11561	5.3698E-006	-0.0063538	8
	5	8	316265.6	3370.047	-924.6728	1	3494.601	-15.34321	3.308497E-006	-0.0060916	8
	6	10	251203.1	3464.607	-783.3417	1	3552.06	-12.74026	4.724986E-006	-0.0063516	8
	7	11	199546.9	3535.249	-673.3943	1	3598.811	-10.78451	-9.494959E-007	-0.0051217	8
	8	13	158578.1	3609.45	-600.2671	1	3659.023	-9.442122	3.475939E-006	-0.0060823	8
	9	14	125953.1	3676.544	-493.8759	1	3709.567	-7.650831	-1.008678E-006	-0.0032193	7
	10	15	100078.1	3703.344	-438.9363	1	3729.266	-6.759408	-4.734318E-008	-0.0053826	7
	11	17	79453.13	3737.82	-408.715	1	3760.099	-6.240262	-6.795381E-008	-0.0053765	7
	12	18	63140.62	3769.875	-389.2965	1	3789.922	-5.895757	-4.424118E-008	-0.0053438	7
	13	19	50203.12	3802.546	-378.4301	1	3821.33	-5.683374	-7.601842E-009	-0.0054398	7
	14	21	39890.62	3834.584	-379.1316	1	3853.281	-5.646576	7.189963E-008	-0.0056165	7
	15	22	31640.63	3867.629	-386.9209	1	3886.935	-5.71291	7.798797E-008	-0.0056525	7
	16	24	25171.88	3902.846	-404.3545	1	3923.737	-5.915028	3.514931E-008	-0.005535	7
	17	25	20015.62	3938.838	-431.1208	1	3962.362	-6.246376	7.369052E-008	-0.005623	7
	18	26	15890.62	3982.35	-467.4541	1	4009.692	-6.694826	-3.859827E-008	-0.005445	7
	19	28	12609.37	4027.395	-512.3347	1	4059.852	-7.249794	-2.546436E-009	-0.0055425	7
	20	29	10078.13	4074.12	-565.9305	1	4113.239	-7.908273	7.854742E-008	-0.0056572	7
	21	30	8015.625	4127.187	-631.6493	1	4175.243	-8.70137	-3.313344E-008	-0.0054725	7
	22	32	6328.125	4185.433	-713.0763	1	4245.742	-9.6687	4.490377E-008	-0.0056283	7
	23	33	5015.625	4246.83	-811.6276	1	4323.691	-10.81954	7.259661E-008	-0.005624	7
	24	34	3984.375	4313.474	-930.0864	1	4412.609	-12.16802	-1.563886E-008	-0.0053521	7
	25	36	3170.956	4382.18	-1075.291	1	4512.179	-13.78674	-3.3671E-008	-0.0054755	7
	26	37	2527.573	4457.68	-1247.09	1	4628.838	-15.6296	-7.031435E-009	-0.0054509	7
	27	38	1976.103	4547.042	-1477.662	1	4781.116	-18.00273	4.634772E-008	-0.0056247	7
	28	40	1577.524	4635.362	-1740.084	1	4951.209	-20.5758	-4.355047E-008	-0.0053543	7
	29	41	1265.625	4747.353	-2037.841	1	5166.251	-23.23184	-2.049503E-009	-0.0054767	7
	30	42	998.264	4854.46	-2454.016	1	5439.483	-26.81741	3.512378E-008	-0.0055324	7
	31	44	796.875	4982.532	-2926.881	1	5778.604	-30.43119	7.382646E-008	-0.0055215	7
	32	45	627.7902	5138.637	-3542.854	1	6241.587	-34.58448	1.836281E-008	-0.0055714	7
	33	47	505.5147	5302.595	-4227.91	1	6781.794	-38.56635	-7.801569E-009	-0.0054492	7
	34	48	397.9953	5511.24	-5161.59	1	7550.879	-43.12362	6.47105E-009	-0.0054732	7
	35	49	315.5048	5753.135	-6280.219	1	8517.024	-47.50806	7.730209E-009	-0.0054725	7
	36	51	252.4038	6034.156	-7601.466	1	9705.32	-51.55693	6.838752E-009	-0.0054785	7
	37	52	198.6229	6408.102	-9349.387	1	11334.67	-55.57312	2.054054E-009	-0.0055343	6
	38	53	158.3615	6849.694	-11385.85	1	13287.43	-58.96901	1.935853E-009	-0.0055385	6
	39	55	125.558	7415.073	-13937.77	1	15787.49	-61.98645	1.981804E-009	-0.0055398	6
	40	56	100.4464	8098.501	-16923.79	1	18761.67	-64.42759	2.518071E-009	-0.0055412	6
	41	57	79.00281	9047.332	-20886.8	1	22762.09	-66.57966	2.475419E-009	-0.0055406	6
	42	59	63.3446	10427.53	-25302.61	1	27367.05	-67.60282	1.32806E-009	-0.0055426	6
	43	60	49.86702	11740.42	-31213.11	1	33348.1	-69.38683	2.191761E-009	-0.0055419	6
	44	61	39.72458	13732.86	-37740.17	1	40161.07	-70.00461	1.728033E-009	-0.0055344	6
	45	63	31.6723	16307.74	-45756.38	1	48575.6	-70.38374	1.808564E-009	-0.0055417	6
	46	64	24.93351	19781.4	-55789.68	1	59192.84	-70.47697	1.800932E-009	-0.0055382	6
	47	66	19.86229	24052.42	-67340.97	1	71507.52	-70.34461	1.711367E-009	-0.0055418	6
	48	67	15.83615	29079.14	-80181.93	1	85292.08	-70.06609	6.099392E-010	-0.00554	6
	49	68	12.40079	36684.61	-97539	1	104209.5	-69.38861	2.463497E-009	-0.0055368	6
	50	70	9.93114	45510.98	-116435.1	1	125013.6	-68.65097	1.250666E-009	-0.0055321	5
	51	71	7.944915	57063.11	-137889	1	149230	-67.51859	1.470083E-009	-0.0055364	5
	52	73	6.317385	70862.52	-162605.4	1	177375.3	-66.4527	1.407445E-009	-0.0055239	5
	53	75	5.008013	88282.88	-191661	1	211016.1	-65.26826	1.420436E-009	-0.0055271	5
	54	77	3.945707	110337.9	-225560.1	1	251101.1	-63.93337	6.265254E-010	-0.0055433	5
	55	80	3.158693	135231.4	-261060.8	1	294007.2	-62.61551	1.14156E-009	-0.0055265	5
	56	83	2.504006	166048.4	-302262.8	1	344869.3	-61.21775	5.217377E-010	-0.0055363	5
	57	86	1.998082	200233.9	-345476.1	1	399308.6	-59.90393	1.138778E-009	-0.0055765	5
	58	89	1.584686	241165.1	-396773.7	1	464316.7	-58.70813	7.122554E-010	-0.0055797	5
	59	93	1.266892	285225.2	-449175.3	1	532082.5	-57.58455	1.07001E-009	-0.0055803	5
	60	97	0.999041	337603.5	-514259.6	1	615174	-56.71572	5.411812E-010	-0.0055392	5
