EXPLAIN
TAG	EISPOT
TITLE	LABEL	Potentiostatic IDE	Test &Identifier
DATE	LABEL	9/6/2019	Date
TIME	LABEL	8:38:32	Time
NOTES	NOTES	1	&Notes...
	
PSTAT	PSTAT	REF600-11020	Potentiostat
VDC	POTEN	0.00000E+000	T	DC &Voltage (V)
FREQINIT	QUANT	1.00000E+006	Initial Fre&q. (Hz)
FREQFINAL	QUANT	1.00000E+000	Final Fre&q. (Hz)
PTSPERDEC	QUANT	1.00000E+001	Points/&decade
VAC	QUANT	2.50000E+001	AC &Voltage (mV rms)
AREA	QUANT	1.00000E-002	&Area (cm^2)
CONDIT	TWOPARAM	T	5.00000E+000	0.00000E+000	Conditionin&g	Time(s)	E(V)
DELAY	TWOPARAM	T	5.00000E+000	0.00000E+000	Init. De&lay	Time(s)	Stab.(mV/s)
SPEED	SELECTOR	1	&Optimize for:
ZGUESS	QUANT	1.00000E+007	E&stimated Z (ohms)
OCVCURVE	TABLE	19
	Pt	T	Vf	Vm	Ach	Over
	#	s	V vs. Ref.	V	V	bits
	0	0.258333	1.49522E+000	1.49522E+000	5.53099E-004	...........
	1	0.516667	1.48477E+000	9.48159E-001	5.54299E-004	...........
	2	0.775	1.42410E+000	6.12879E-001	5.51232E-004	...........
	3	1.03333	1.26629E+000	4.06129E-001	5.56933E-004	...........
	4	1.29167	1.01742E+000	2.78076E-001	5.56399E-004	...........
	5	1.55	7.42099E-001	1.95265E-001	5.50633E-004	...........
	6	1.80833	5.05575E-001	1.43610E-001	5.45999E-004	...........
	7	2.06667	3.34916E-001	1.07904E-001	5.48199E-004	...........
	8	2.325	2.24775E-001	8.60665E-002	5.55933E-004	...........
	9	2.58333	1.57486E-001	7.07083E-002	5.50099E-004	...........
	10	2.84167	1.16601E-001	6.18003E-002	5.53866E-004	...........
	11	3.1	9.11038E-002	5.38436E-002	5.53066E-004	...........
	12	3.35833	7.45973E-002	4.88951E-002	5.55333E-004	...........
	13	3.61667	6.34523E-002	4.40692E-002	5.56566E-004	...........
	14	3.875	5.55746E-002	4.19766E-002	5.56133E-004	...........
	15	4.13333	4.99853E-002	4.87838E-002	5.57966E-004	...........
	16	4.39167	4.73110E-002	8.22062E-002	5.56866E-004	...........
	17	4.65	5.02162E-002	1.08942E-001	5.52566E-004	...........
	18	4.90833	6.02703E-002	7.25565E-002	5.55599E-004	...........
EOC	QUANT	0.0602703	Open Circuit (V)
PSTATMODEL	IQUANT	4	Pstat Model
PSTATSECTION	LABEL	REF600-11020	Pstat Section
PSTATSERIALNO	LABEL	11020	Pstat Serial Number
CTRLMODE	IQUANT	1	Control Mode
IESTAB	IQUANT	0	I/E Stability
CASPEED	IQUANT	1	Control Amp Speed
CONVENTION	IQUANT	1	Current Convention
ICHRANGE	IQUANT	2	Ich Range
ICHRANGEMODE	TOGGLE	F	Ich Auto Range
ICHOFFSETENABLE	TOGGLE	T	Ich Offset Enable
ICHOFFSET	QUANT	0	Ich Offset (V)
ICHFILTER	IQUANT	3	Ich Filter
VCHRANGE	IQUANT	2	Vch Range
VCHRANGEMODE	TOGGLE	F	Vch Auto Range
VCHOFFSETENABLE	TOGGLE	T	Vch Offset Enable
VCHOFFSET	QUANT	0	Vch Offset (V)
VCHFILTER	IQUANT	3	Vch Filter
ACHRANGE	IQUANT	2	Ach Range
ACHOFFSETENABLE	TOGGLE	F	Ach Offset Enable
ACHOFFSET	QUANT	0	Ach Offset (V)
ACHFILTER	IQUANT	3	Ach Filter
IERANGELOWERLIMIT	IQUANT	1	I/E Range Lower Limit
IERANGEMODE	TOGGLE	F	I/E AutoRange
IERANGE	IQUANT	4	I/E Range
POSFEEDENABLE	TOGGLE	F	Positive Feedback IR Comp
POSFEEDRESISTANCE	QUANT	0	Positive Feedback Resistance (ohm)
ACHSELECT	IQUANT	0	Ach Select
CABLEID	IQUANT	14	Cable ID
DCCALDATE	LABEL	8/19/2019	DC Calibration Date
ACCALDATE	LABEL	8/19/2019	AC Calibration Date
THERMOSELECT	IQUANT	1	Thermo Select
FRAMEWORKVERSION	QUANT	6.33	Framework Version
INSTRUMENTVERSION	LABEL	3.50	Instrument Version
ZCURVE	TABLE
	Pt	Time	Freq	Zreal	Zimag	Zsig	Zmod	Zphz	Idc	Vdc	IERange
	#	s	Hz	ohm	ohm	V	ohm	°	A	V	#
	0	2	1000078	669.7878	-8178.068	1	8205.45	-85.31789	-1.828239E-006	0.0627127	8
	1	3	794390.6	742.9237	-10224.59	1	10251.55	-85.84416	1.05046E-006	0.062177	8
	2	5	630984.4	896.4158	-12976.92	1	13007.84	-86.04842	1.125703E-006	0.0617936	8
	3	7	501234.4	932.8389	-16047.11	1	16074.2	-86.67307	-1.265706E-006	0.0621622	8
	4	8	398109.4	1340.929	-20105.86	1	20150.53	-86.18439	-1.073999E-006	0.0620547	8
	5	10	316265.6	1699.352	-25200.5	1	25257.73	-86.1422	-7.186002E-007	0.0621294	8
	6	11	251203.1	1818.407	-31672.57	1	31724.73	-86.7141	-7.923545E-007	0.062138	8
	7	13	199546.9	1790.192	-39146.95	1	39187.86	-87.38168	8.832087E-007	0.0616831	8
	8	15	158578.1	3845.555	-49152.54	1	49302.74	-85.52645	-2.076122E-006	0.062308	8
	9	16	125953.1	3119.335	-61670.46	1	61749.3	-87.10441	-1.008821E-006	0.0638938	7
	10	18	100078.1	3592.052	-77677.59	1	77760.59	-87.35236	-2.317837E-008	0.0618818	7
	11	19	79453.13	4326.181	-97507.5	1	97603.5	-87.45959	6.562884E-008	0.0617184	7
	12	21	63140.62	4658.968	-121332.9	1	121422.3	-87.80103	-1.453385E-008	0.0619574	7
	13	23	50203.12	7648.398	-150862.4	1	151056.2	-87.09771	1.901219E-009	0.0617977	7
	14	24	39890.62	7895.753	-189401.2	1	189565.7	-87.61284	2.337889E-008	0.0617655	7
	15	26	31640.63	10571.72	-237561.7	1	237796.8	-87.45197	-2.671362E-008	0.0618548	7
	16	27	25171.88	13860.92	-295441.6	1	295766.5	-87.31388	-6.252626E-009	0.0618854	7
	17	29	20015.62	14215.61	-378027.6	1	378294.8	-87.84643	-2.696955E-008	0.0618578	7
	18	30	15890.62	9377.153	-459167.5	1	459263.3	-88.83006	-4.943433E-008	0.0619141	7
	19	32	12609.37	24750.73	-586945.1	1	587466.7	-87.58534	6.251946E-009	0.0616416	6
	20	33	10078.13	40741.95	-741452.3	1	742570.8	-86.85483	7.759919E-009	0.0617751	6
	21	35	8015.625	32089.12	-888372.4	1	888951.8	-87.9313	-6.114456E-009	0.0618391	6
	22	37	6328.125	5954.204	-1166549	1	1166564	-89.70756	-7.572712E-009	0.0618897	6
	23	39	5015.625	49517.65	-1456911	1	1457752	-88.05338	1.455551E-008	0.0615284	6
	24	40	3984.375	21781.13	-1799970	1	1800101	-89.30671	-5.024575E-009	0.0619345	6
	25	42	3170.956	77566.39	-2281214	1	2282532	-88.05257	-2.094343E-009	0.0619032	6
	26	44	2527.573	374283.1	-2927658	1	2951487	-82.71461	-5.053938E-009	0.0618476	6
	27	45	1976.103	54056.16	-3559346	1	3559757	-89.12991	-1.72989E-009	0.0619003	6
	28	47	1577.524	-471353.2	-4641153	1	4665027	-95.799	-2.640381E-009	0.0617568	6
	29	49	1265.625	297778	-5425920	1	5434085	-86.85872	8.736935E-011	0.0617012	5
	30	51	998.264	355491.2	-6827730	1	6836978	-87.01954	-7.526473E-010	0.0618347	5
	31	52	796.875	598807.4	-8404549	1	8425854	-85.92467	-7.902509E-010	0.0618741	5
	32	53	627.7902	541462.2	-1.063552E+007	1	1.064929E+007	-87.08554	-4.032436E-010	0.0619184	5
	33	55	505.5147	1699856	-1.426279E+007	1	1.436373E+007	-83.20348	-6.239713E-010	0.0618354	5
	34	56	397.9953	897491.4	-1.752107E+007	1	1.754404E+007	-87.06767	1.836815E-010	0.0617897	5
	35	58	315.5048	1042065	-2.079513E+007	1	2.082123E+007	-87.13125	1.844905E-010	0.0617923	5
	36	59	252.4038	188343.6	-2.810342E+007	1	2.810405E+007	-89.61602	-9.50902E-011	0.0617985	5
	37	61	198.6229	688522.5	-3.418626E+007	1	3.419319E+007	-88.8462	1.147379E-010	0.0617945	5
	38	62	158.3615	6426226	-4.099032E+007	1	4.1491E+007	-81.09003	1.442503E-011	0.0617951	5
	39	64	125.558	5542675	-4.029797E+007	1	4.067736E+007	-82.16855	1.972293E-010	0.0617877	4
	40	65	100.4464	-785558.4	-5.769939E+007	1	5.770474E+007	-90.78001	3.427302E-011	0.0617924	4
	41	67	79.00281	-6326665	-5.176398E+007	1	5.214918E+007	-96.9682	-5.232889E-011	0.0617857	4
	42	69	63.3446	-4704701	-1.723907E+007	1	1.786952E+007	-105.2648	1.180771E-010	0.0617896	4
	43	71	49.86702	-2.25009E+007	-3.934755E+008	1	3.941184E+008	-93.2729	3.599939E-011	0.0617887	4
	44	72	39.72458	1.040583E+008	-4.591262E+008	1	4.707707E+008	-77.22997	3.012805E-011	0.0617913	4
	45	74	31.6723	1.229037E+008	-7.165516E+007	1	1.422666E+008	-30.24298	8.49636E-011	0.0617903	4
	46	76	24.93351	-2.349793E+007	-1.862284E+008	1	1.87705E+008	-97.1915	3.875877E-012	0.0617863	4
	47	78	19.86229	1.680056E+008	-2.261302E+008	1	2.817104E+008	-53.38916	4.570093E-011	0.0617856	4
	48	79	15.83615	8048554	-4.181679E+007	1	4.25843E+007	-79.10541	3.652327E-010	0.0617922	4
	49	81	12.40079	2.335428E+008	1.177229E+008	1	2.615357E+008	26.7515	1.123701E-010	0.0617902	4
	50	83	9.93114	1.952212E+007	-1.833417E+008	1	1.843781E+008	-83.92208	1.12829E-010	0.0617917	5
	51	85	7.944915	-1.185885E+008	2.554389E+008	1	2.816243E+008	114.9033	1.932065E-010	0.0617898	5
	52	88	6.317385	2.497016E+008	-8.338529E+008	1	8.704375E+008	-73.3294	1.056079E-011	0.0617954	4
	53	91	5.008013	6.198676E+008	-7.160406E+008	1	9.470744E+008	-49.11766	3.430755E-011	0.0617795	4
	54	94	3.945707	9.611902E+008	-8.215748E+008	1	1.264465E+009	-40.52208	2.287641E-011	0.0617944	4
	55	98	3.158693	6.379571E+008	-1.413944E+009	1	1.551202E+009	-65.71559	2.884074E-011	0.0618012	4
	56	103	2.504006	1.116142E+009	-1.511628E+009	1	1.87904E+009	-53.5589	1.720139E-011	0.0617841	3
	57	107	1.998082	1.210113E+009	-1.478914E+009	1	1.910906E+009	-50.70844	1.734053E-011	0.0618057	3
	58	113	1.584686	1.706195E+009	-1.656445E+009	1	2.378006E+009	-44.15237	1.855483E-011	0.061733	3
	59	122	1.266892	2.129413E+009	-1.491841E+009	1	2.599998E+009	-35.01462	2.02513E-012	0.0617675	2
	60	129	0.999041	2.638313E+009	-6.243284E+008	1	2.711177E+009	-13.31352	2.129379E-012	0.0617837	2
