EXPLAIN
TAG	EISPOT
TITLE	LABEL	Potentiostatic EIS	Test &Identifier
DATE	LABEL	10/24/2019	Date
TIME	LABEL	9:29:19	Time
NOTES	NOTES	1	&Notes...
	
PSTAT	PSTAT	REF600-11020	Potentiostat
VDC	POTEN	0.00000E+000	T	DC &Voltage (V)
FREQINIT	QUANT	1.00000E+006	Initial Fre&q. (Hz)
FREQFINAL	QUANT	1.00000E+000	Final Fre&q. (Hz)
PTSPERDEC	QUANT	1.00000E+001	Points/&decade
VAC	QUANT	2.50000E+001	AC &Voltage (mV rms)
AREA	QUANT	1.00000E-002	&Area (cm^2)
CONDIT	TWOPARAM	T	5.00000E+000	0.00000E+000	Conditionin&g	Time(s)	E(V)
DELAY	TWOPARAM	T	5.00000E+000	0.00000E+000	Init. De&lay	Time(s)	Stab.(mV/s)
SPEED	SELECTOR	1	&Optimize for:
ZGUESS	QUANT	1.00000E+005	E&stimated Z (ohms)
OCVCURVE	TABLE	19
	Pt	T	Vf	Vm	Ach	Over
	#	s	V vs. Ref.	V	V	bits
	0	0.258333	1.70967E-003	1.70967E-003	5.81365E-004	...........
	1	0.516667	1.69630E-003	1.01014E-003	5.79732E-004	...........
	2	0.775	1.61198E-003	2.28666E-004	5.86665E-004	...........
	3	1.03333	1.39827E-003	1.17202E-003	5.82132E-004	...........
	4	1.29167	1.15036E-003	2.48838E-003	5.79765E-004	...........
	5	1.55	1.11684E-003	2.56479E-003	5.83832E-004	...........
	6	1.80833	1.41654E-003	2.55397E-003	5.84399E-004	...........
	7	2.06667	1.88671E-003	2.74333E-003	5.85765E-004	...........
	8	2.325	2.28575E-003	2.24652E-003	5.82499E-004	...........
	9	2.58333	2.48643E-003	1.92266E-003	5.85065E-004	...........
	10	2.84167	2.47255E-003	1.82877E-003	5.83199E-004	...........
	11	3.1	2.30536E-003	1.76130E-003	5.84265E-004	...........
	12	3.35833	2.08233E-003	1.27068E-003	5.81665E-004	...........
	13	3.61667	1.87269E-003	1.92710E-003	5.79932E-004	...........
	14	3.875	1.71535E-003	1.36669E-003	5.82399E-004	...........
	15	4.13333	1.62508E-003	1.50307E-003	5.80932E-004	...........
	16	4.39167	1.58362E-003	1.95631E-003	5.82699E-004	...........
	17	4.65	1.58583E-003	1.74542E-003	5.81032E-004	...........
	18	4.90833	1.61672E-003	6.01534E-004	5.80132E-004	...........
EOC	QUANT	0.0016167	Open Circuit (V)
PSTATMODEL	IQUANT	4	Pstat Model
PSTATSECTION	LABEL	REF600-11020	Pstat Section
PSTATSERIALNO	LABEL	11020	Pstat Serial Number
CTRLMODE	IQUANT	1	Control Mode
IESTAB	IQUANT	0	I/E Stability
CASPEED	IQUANT	1	Control Amp Speed
CONVENTION	IQUANT	1	Current Convention
ICHRANGE	IQUANT	2	Ich Range
ICHRANGEMODE	TOGGLE	F	Ich Auto Range
ICHOFFSETENABLE	TOGGLE	T	Ich Offset Enable
ICHOFFSET	QUANT	0	Ich Offset (V)
ICHFILTER	IQUANT	3	Ich Filter
VCHRANGE	IQUANT	2	Vch Range
VCHRANGEMODE	TOGGLE	F	Vch Auto Range
VCHOFFSETENABLE	TOGGLE	T	Vch Offset Enable
VCHOFFSET	QUANT	0	Vch Offset (V)
VCHFILTER	IQUANT	3	Vch Filter
ACHRANGE	IQUANT	2	Ach Range
ACHOFFSETENABLE	TOGGLE	F	Ach Offset Enable
ACHOFFSET	QUANT	0	Ach Offset (V)
ACHFILTER	IQUANT	3	Ach Filter
IERANGELOWERLIMIT	IQUANT	1	I/E Range Lower Limit
IERANGEMODE	TOGGLE	F	I/E AutoRange
IERANGE	IQUANT	4	I/E Range
POSFEEDENABLE	TOGGLE	F	Positive Feedback IR Comp
POSFEEDRESISTANCE	QUANT	0	Positive Feedback Resistance (ohm)
ACHSELECT	IQUANT	0	Ach Select
CABLEID	IQUANT	14	Cable ID
DCCALDATE	LABEL	8/19/2019	DC Calibration Date
ACCALDATE	LABEL	8/19/2019	AC Calibration Date
THERMOSELECT	IQUANT	1	Thermo Select
FRAMEWORKVERSION	QUANT	6.33	Framework Version
INSTRUMENTVERSION	LABEL	3.50	Instrument Version
ZCURVE	TABLE
	Pt	Time	Freq	Zreal	Zimag	Zsig	Zmod	Zphz	Idc	Vdc	IERange
	#	s	Hz	ohm	ohm	V	ohm	°	A	V	#
	0	2	1000078	2425.131	-1628.268	1	2921.047	-33.87799	7.373724E-007	0.0038067	8
	1	3	794390.6	2736.933	-1538.626	1	3139.772	-29.34346	-2.598516E-006	0.0038732	8
	2	4	630984.4	3012.153	-1402.832	1	3322.8	-24.97252	2.454842E-007	0.0032407	8
	3	6	501234.4	3233.585	-1239.077	1	3462.858	-20.96632	6.0531E-007	0.0031647	8
	4	7	398109.4	3420.5	-1083.93	1	3588.137	-17.58301	7.070883E-007	0.0028734	8
	5	9	316265.6	3551.662	-929.5381	1	3671.286	-14.66644	-1.758428E-006	0.0035376	8
	6	10	251203.1	3661.046	-803.7087	1	3748.227	-12.38172	1.449138E-006	0.002747	8
	7	12	199546.9	3726.059	-696.2552	1	3790.552	-10.58428	-1.47245E-006	0.0033139	8
	8	13	158578.1	3792.793	-591.0982	1	3838.577	-8.858159	-2.447729E-007	0.0030513	8
	9	14	125953.1	3838.251	-473.721	1	3867.374	-7.035923	5.268039E-007	0.0017277	7
	10	16	100078.1	3878.888	-424.6385	1	3902.063	-6.247536	3.297401E-008	0.0029849	7
	11	17	79453.13	3911.306	-392.7526	1	3930.976	-5.734117	-6.158576E-008	0.003102	7
	12	18	63140.62	3940.984	-371.0539	1	3958.413	-5.378691	-6.347039E-008	0.0030973	7
	13	20	50203.12	3969.714	-358.415	1	3985.861	-5.159097	-7.406469E-009	0.0030584	7
	14	21	39890.62	4001.108	-354.2379	1	4016.759	-5.059487	5.804687E-009	0.0029965	7
	15	22	31640.63	4028.382	-360.0922	1	4044.444	-5.108025	3.526966E-008	0.0029822	7
	16	24	25171.88	4057.773	-374.2228	1	4074.993	-5.269124	-5.781179E-008	0.0031171	7
	17	25	20015.62	4079.987	-399.842	1	4099.532	-5.59716	-5.73867E-008	0.0031172	7
	18	26	15890.62	4119.476	-430.9684	1	4141.958	-5.972404	-6.170921E-008	0.003098	7
	19	28	12609.37	4151.812	-477.1175	1	4179.137	-6.555553	1.018928E-007	0.0028667	7
	20	29	10078.13	4185.121	-535.0855	1	4219.188	-7.285981	-1.043661E-008	0.0030169	7
	21	31	8015.625	4215.181	-606.4604	1	4258.584	-8.187264	3.491024E-008	0.0029808	7
	22	32	6328.125	4259.513	-709.1692	1	4318.144	-9.452512	-4.150176E-008	0.003072	7
	23	33	5015.625	4301.567	-830.8855	1	4381.079	-10.93255	-5.664755E-008	0.0031205	7
	24	35	3984.375	4344.724	-980.854	1	4454.066	-12.72169	-2.097927E-009	0.0029709	7
	25	36	3170.956	4400.232	-1169.596	1	4553.021	-14.88522	-6.162011E-008	0.0030923	7
	26	37	2527.573	4462.076	-1396.797	1	4675.592	-17.38208	-1.313853E-008	0.0030469	7
	27	39	1976.103	4540.067	-1704.954	1	4849.647	-20.58291	-5.634381E-009	0.0030563	7
	28	40	1577.524	4633.102	-2037.109	1	5061.171	-23.73441	-6.090128E-008	0.0030971	7
	29	41	1265.625	4727.098	-2457.868	1	5327.904	-27.4723	1.022335E-007	0.0028667	7
	30	43	998.264	4859.064	-2991.358	1	5706.025	-31.61747	1.306695E-008	0.0029534	7
	31	44	796.875	5001.677	-3612.949	1	6170.103	-35.84237	8.423255E-008	0.0029416	7
	32	45	627.7902	5187.382	-4415.813	1	6812.367	-40.40644	8.577861E-008	0.0029417	7
	33	47	505.5147	5372.48	-5302.261	1	7548.345	-44.62311	8.650598E-008	0.0029464	7
	34	48	397.9953	5619.571	-6502.479	1	8594.29	-49.16578	4.850863E-009	0.00304	7
	35	49	315.5048	5903.894	-7944.781	1	9898.26	-53.38337	5.277838E-009	0.0030385	7
	36	51	252.4038	6233.322	-9649.55	1	11487.74	-57.13874	1.38131E-009	0.0029734	6
	37	52	198.6229	6668.405	-11909.68	1	13649.48	-60.7549	1.470252E-009	0.002978	6
	38	53	158.3615	7185.821	-14548.27	1	16226.15	-63.71386	1.568852E-009	0.0029746	6
	39	55	125.558	7861.884	-17879.96	1	19532.08	-66.26473	1.352028E-009	0.0029763	6
	40	56	100.4464	8679.693	-21794.43	1	23459.21	-68.28494	2.215784E-009	0.0029694	6
	41	58	79.00281	9927.12	-26942.87	1	28713.52	-69.77364	4.790457E-010	0.0029709	6
	42	59	63.3446	11045.66	-32555.36	1	34378.16	-71.25852	1.108656E-009	0.0029687	6
	43	60	49.86702	13542.07	-40347.55	1	42559.52	-71.44643	9.970803E-010	0.0029697	6
	44	62	39.72458	15816.02	-49196.61	1	51676.42	-72.17813	1.279927E-009	0.002972	6
	45	63	31.6723	19091.21	-59759.6	1	62735.03	-72.28304	4.241263E-010	0.0029683	6
	46	65	24.93351	23647.03	-72978.7	1	76714.23	-72.0463	5.159977E-010	0.0029722	6
	47	66	19.86229	29219.66	-88048.57	1	92770.36	-71.64114	1.055621E-009	0.0029764	6
	48	67	15.83615	35902.87	-106634.5	1	112516.4	-71.39209	2.185728E-009	0.0029771	5
	49	69	12.40079	45815.45	-129390.3	1	137262.2	-70.50159	-6.253726E-011	0.0029763	5
	50	70	9.93114	58038.25	-152805.3	1	163456.1	-69.2023	5.004515E-010	0.0029699	5
	51	72	7.944915	72644.09	-179857.5	1	193973.9	-68.00632	9.099461E-010	0.002976	5
	52	73	6.317385	90706.74	-213328.9	1	231812.3	-66.96497	4.355911E-010	0.0029798	5
	53	75	5.008013	113700.3	-251433.2	1	275946.3	-65.6671	5.614614E-010	0.0029777	5
	54	78	3.945707	143230	-296131	1	328950.4	-64.18829	-2.330506E-011	0.0029645	5
	55	80	3.158693	176200.9	-342476.1	1	385144.9	-62.77458	2.485041E-010	0.0029634	5
	56	84	2.504006	216674.5	-395987.5	1	451391.1	-61.31362	6.093998E-011	0.002977	5
	57	86	1.998082	261015.5	-452814.1	1	522656.3	-60.03958	5.051004E-010	0.0029561	5
	58	90	1.584686	318512.1	-517574.3	1	607727.9	-58.39211	8.371843E-011	0.0029238	5
	59	93	1.266892	374152.7	-587079.3	1	696169.8	-57.49015	3.765553E-010	0.0029643	5
	60	97	0.999041	442531.6	-673173.2	1	805603.1	-56.67982	-4.658198E-010	0.0029544	5
