EXPLAIN
TAG	EISPOT
TITLE	LABEL	Potentiostatic EIS	Test &Identifier
DATE	LABEL	10/31/2019	Date
TIME	LABEL	23:46:49	Time
NOTES	NOTES	1	&Notes...
	
PSTAT	PSTAT	REF600-11020	Potentiostat
VDC	POTEN	0.00000E+000	T	DC &Voltage (V)
FREQINIT	QUANT	1.00000E+006	Initial Fre&q. (Hz)
FREQFINAL	QUANT	1.00000E+000	Final Fre&q. (Hz)
PTSPERDEC	QUANT	1.00000E+001	Points/&decade
VAC	QUANT	2.50000E+001	AC &Voltage (mV rms)
AREA	QUANT	1.00000E-002	&Area (cm^2)
CONDIT	TWOPARAM	T	5.00000E+000	0.00000E+000	Conditionin&g	Time(s)	E(V)
DELAY	TWOPARAM	T	5.00000E+000	0.00000E+000	Init. De&lay	Time(s)	Stab.(mV/s)
SPEED	SELECTOR	0	&Optimize for:
ZGUESS	QUANT	1.00000E+005	E&stimated Z (ohms)
OCVCURVE	TABLE	19
	Pt	T	Vf	Vm	Ach	Over
	#	s	V vs. Ref.	V	V	bits
	0	0.258333	8.71531E-003	8.71531E-003	5.22033E-004	...........
	1	0.516667	8.72433E-003	9.18766E-003	5.20500E-004	...........
	2	0.775	8.78401E-003	9.85855E-003	5.25900E-004	...........
	3	1.03333	8.96207E-003	1.02449E-002	5.24166E-004	...........
	4	1.29167	9.28507E-003	1.05345E-002	5.13767E-004	...........
	5	1.55	9.69193E-003	1.05847E-002	5.24266E-004	...........
	6	1.80833	1.00731E-002	1.04520E-002	5.23833E-004	...........
	7	2.06667	1.03435E-002	1.06203E-002	5.24666E-004	...........
	8	2.325	1.04884E-002	1.05926E-002	5.27033E-004	...........
	9	2.58333	1.05565E-002	1.08747E-002	5.26466E-004	...........
	10	2.84167	1.06203E-002	1.13461E-002	5.22233E-004	...........
	11	3.1	1.07512E-002	1.18729E-002	5.20133E-004	...........
	12	3.35833	1.09975E-002	1.22766E-002	5.29633E-004	...........
	13	3.61667	1.13515E-002	1.24554E-002	5.28266E-004	...........
	14	3.875	1.17417E-002	1.23476E-002	5.25700E-004	...........
	15	4.13333	1.20700E-002	1.23689E-002	5.24166E-004	...........
	16	4.39167	1.22785E-002	1.25788E-002	5.25600E-004	...........
	17	4.65	1.23901E-002	1.27037E-002	5.25066E-004	...........
	18	4.90833	1.24714E-002	1.27903E-002	5.24733E-004	...........
EOC	QUANT	0.0124714	Open Circuit (V)
PSTATMODEL	IQUANT	4	Pstat Model
PSTATSECTION	LABEL	REF600-11020	Pstat Section
PSTATSERIALNO	LABEL	11020	Pstat Serial Number
CTRLMODE	IQUANT	1	Control Mode
IESTAB	IQUANT	0	I/E Stability
CASPEED	IQUANT	1	Control Amp Speed
CONVENTION	IQUANT	1	Current Convention
ICHRANGE	IQUANT	2	Ich Range
ICHRANGEMODE	TOGGLE	F	Ich Auto Range
ICHOFFSETENABLE	TOGGLE	T	Ich Offset Enable
ICHOFFSET	QUANT	0	Ich Offset (V)
ICHFILTER	IQUANT	3	Ich Filter
VCHRANGE	IQUANT	2	Vch Range
VCHRANGEMODE	TOGGLE	F	Vch Auto Range
VCHOFFSETENABLE	TOGGLE	T	Vch Offset Enable
VCHOFFSET	QUANT	0	Vch Offset (V)
VCHFILTER	IQUANT	3	Vch Filter
ACHRANGE	IQUANT	2	Ach Range
ACHOFFSETENABLE	TOGGLE	F	Ach Offset Enable
ACHOFFSET	QUANT	0	Ach Offset (V)
ACHFILTER	IQUANT	3	Ach Filter
IERANGELOWERLIMIT	IQUANT	1	I/E Range Lower Limit
IERANGEMODE	TOGGLE	F	I/E AutoRange
IERANGE	IQUANT	5	I/E Range
POSFEEDENABLE	TOGGLE	F	Positive Feedback IR Comp
POSFEEDRESISTANCE	QUANT	0	Positive Feedback Resistance (ohm)
ACHSELECT	IQUANT	0	Ach Select
CABLEID	IQUANT	14	Cable ID
DCCALDATE	LABEL	8/19/2019	DC Calibration Date
ACCALDATE	LABEL	8/19/2019	AC Calibration Date
THERMOSELECT	IQUANT	1	Thermo Select
FRAMEWORKVERSION	QUANT	6.33	Framework Version
INSTRUMENTVERSION	LABEL	3.50	Instrument Version
ZCURVE	TABLE
	Pt	Time	Freq	Zreal	Zimag	Zsig	Zmod	Zphz	Idc	Vdc	IERange
	#	s	Hz	ohm	ohm	V	ohm	°	A	V	#
	0	2	1000078	1964.392	-872.4034	1	2149.4	-23.94642	-3.520398E-006	0.0149881	8
	1	2	794390.6	2099.826	-773.3412	1	2237.705	-20.21816	-3.356456E-006	0.015186	8
	2	2	630984.4	2207.901	-668.3495	1	2306.842	-16.84149	3.788572E-007	0.0140059	8
	3	3	501234.4	2290.337	-575.108	1	2361.439	-14.09565	-6.396583E-006	0.0151093	8
	4	3	398109.4	2347.894	-496.5762	1	2399.832	-11.94199	2.337277E-007	0.0145904	8
	5	3	316265.6	2398.785	-423.4377	1	2435.871	-10.01082	5.840112E-006	0.0133934	8
	6	3	251203.1	2436.192	-364.1238	1	2463.254	-8.500747	-5.408774E-007	0.0145223	8
	7	4	199546.9	2462.106	-318.1122	1	2482.572	-7.362018	-3.072891E-007	0.0145183	8
	8	4	158578.1	2484.877	-287.3732	1	2501.439	-6.596885	-4.333528E-006	0.0144336	8
	9	4	125953.1	2522.773	-221.5654	1	2532.484	-5.019187	-2.079347E-006	0.0172292	7
	10	5	100078.1	2535.419	-203.7198	1	2543.591	-4.593821	9.308213E-007	0.0127917	7
	11	5	79453.13	2549.043	-201.5197	1	2556.996	-4.520231	-5.386854E-007	0.0154315	7
	12	5	63140.62	2565.327	-203.4221	1	2573.379	-4.533884	-9.528137E-007	0.0154577	7
	13	6	50203.12	2585.426	-209.8527	1	2593.928	-4.640387	6.682651E-007	0.0125216	7
	14	6	39890.62	2603.756	-219.1649	1	2612.963	-4.811394	-2.59977E-007	0.0132993	7
	15	6	31640.63	2623.635	-235.6139	1	2634.193	-5.131645	9.481611E-007	0.0130612	7
	16	7	25171.88	2644.134	-255.4143	1	2656.441	-5.517458	6.67526E-007	0.0125195	7
	17	7	20015.62	2664.413	-283.0892	1	2679.409	-6.064824	7.204817E-007	0.0138468	7
	18	7	15890.62	2686.748	-315.9587	1	2705.262	-6.707117	-9.568172E-007	0.0154499	7
	19	8	12609.37	2709.428	-359.0572	1	2733.116	-7.548929	-6.299195E-007	0.0138984	7
	20	8	10078.13	2734.1	-410.6469	1	2764.766	-8.541668	-1.065919E-006	0.0149883	7
	21	8	8015.625	2757.52	-477.7889	1	2798.606	-9.82991	-7.813995E-007	0.0154971	7
	22	9	6328.125	2789.805	-565.6753	1	2846.577	-11.46219	9.369518E-007	0.0127761	7
	23	9	5015.625	2821.148	-670.3542	1	2899.698	-13.36659	5.39954E-007	0.0141996	7
	24	9	3984.375	2857.757	-802.2434	1	2968.227	-15.68075	4.268073E-007	0.0125713	7
	25	10	3170.956	2896.028	-958.715	1	3050.592	-18.31685	-9.375645E-007	0.0144955	7
	26	10	2527.573	2942.322	-1150.898	1	3159.403	-21.3631	-5.542294E-007	0.0154552	7
	27	10	1976.103	3000.817	-1412.349	1	3316.57	-25.20425	3.566618E-007	0.0144771	7
	28	10	1577.524	3065.47	-1703.878	1	3507.179	-29.06658	3.581386E-007	0.0144788	7
	29	11	1265.625	3133.459	-2055.523	1	3747.498	-33.26453	3.569572E-007	0.0144759	7
	30	11	998.264	3224.083	-2520.281	1	4092.252	-38.01491	3.577406E-007	0.0144816	7
	31	11	796.875	3328.55	-3062.574	1	4523.119	-42.61693	-5.503711E-007	0.0154442	7
	32	12	627.7902	3456.545	-3783.68	1	5124.835	-47.58703	8.957081E-007	0.0134025	7
	33	12	505.5147	3602.247	-4583.406	1	5829.562	-51.83505	4.290561E-007	0.0125639	7
	34	12	397.9953	3805.537	-5659.757	1	6820.188	-56.0837	1.735825E-009	0.0140614	7
	35	13	315.5048	4052.192	-6960.28	1	8053.928	-59.79255	3.475413E-009	0.0140617	7
	36	13	252.4038	4357.965	-8495.315	1	9547.89	-62.84288	9.14508E-010	0.0140559	7
	37	13	198.6229	4785.826	-10524.19	1	11561.26	-65.54655	-5.88077E-010	0.0139984	6
	38	14	158.3615	5318.678	-12877.29	1	13932.44	-67.55801	7.674133E-010	0.0139922	6
	39	14	125.558	6034.334	-15818.64	1	16930.52	-69.11966	2.711575E-010	0.0139889	6
	40	14	100.4464	6922.037	-19246.68	1	20453.59	-70.21896	-9.207621E-010	0.0139949	6
	41	15	79.00281	8245.709	-23675.73	1	25070.54	-70.79796	-7.1484E-010	0.0139874	6
	42	15	63.3446	9922.4	-28929.37	1	30583.69	-71.06869	4.820153E-010	0.0139903	6
	43	15	49.86702	12123.34	-35295.72	1	37319.75	-71.04347	7.197035E-010	0.0139823	6
	44	16	39.72458	14966.73	-42254.24	1	44826.59	-70.49552	4.516971E-010	0.0139925	6
	45	16	31.6723	18463.63	-50559.18	1	53825.05	-69.93839	-2.827345E-011	0.0139991	6
	46	16	24.93351	23449.29	-61108.22	1	65452.91	-69.00651	-3.984102E-010	0.0139958	6
	47	17	19.86229	29438.68	-72547.98	1	78293.34	-67.91356	-3.109198E-010	0.0139963	6
	48	17	15.83615	36803.26	-84544.25	1	92207.43	-66.47585	1.58776E-009	0.0139971	6
	49	17	12.40079	45934.58	-100670.7	1	110655.2	-65.47347	-2.148704E-009	0.0139938	5
	50	18	9.93114	56571.84	-117662.1	1	130555.5	-64.32179	-9.12339E-011	0.0139968	5
	51	18	7.944915	68627.52	-136421.2	1	152710.5	-63.29504	1.534464E-009	0.0139975	5
	52	19	6.317385	82431.45	-157719.5	1	177961.7	-62.40636	1.167136E-009	0.0139791	5
	53	20	5.008013	99252.9	-183491.9	1	208615.5	-61.59052	1.32418E-010	0.013992	5
	54	21	3.945707	118990.6	-213237.4	1	244190.3	-60.83764	-4.573581E-010	0.0139928	5
	55	22	3.158693	139592.8	-245020.7	1	281995.2	-60.32904	-4.133999E-010	0.0139844	5
	56	24	2.504006	164500.8	-283301.9	1	327598	-59.85816	-3.942156E-011	0.0139841	5
	57	25	1.998082	191039	-326426.3	1	378219.6	-59.66196	-1.479258E-010	0.0139952	5
	58	27	1.584686	223399.2	-378033.9	1	439109.2	-59.41903	-3.213049E-010	0.0139445	5
	59	29	1.266892	258522.4	-437366.9	1	508058.7	-59.41317	-3.129936E-010	0.0139445	5
	60	31	0.999041	299893.6	-510288.9	1	591887.6	-59.55751	-3.28474E-010	0.0139664	5
