EXPLAIN
TAG	EISPOT
TITLE	LABEL	Potentiostatic EIS	Test &Identifier
DATE	LABEL	9/22/2019	Date
TIME	LABEL	9:28:30	Time
NOTES	NOTES	1	&Notes...
	
PSTAT	PSTAT	REF600-11020	Potentiostat
VDC	POTEN	0.00000E+000	T	DC &Voltage (V)
FREQINIT	QUANT	1.00000E+006	Initial Fre&q. (Hz)
FREQFINAL	QUANT	1.00000E+000	Final Fre&q. (Hz)
PTSPERDEC	QUANT	1.00000E+001	Points/&decade
VAC	QUANT	2.50000E+001	AC &Voltage (mV rms)
AREA	QUANT	1.00000E-002	&Area (cm^2)
CONDIT	TWOPARAM	T	5.00000E+000	0.00000E+000	Conditionin&g	Time(s)	E(V)
DELAY	TWOPARAM	T	5.00000E+000	0.00000E+000	Init. De&lay	Time(s)	Stab.(mV/s)
SPEED	SELECTOR	1	&Optimize for:
ZGUESS	QUANT	1.00000E+004	E&stimated Z (ohms)
OCVCURVE	TABLE	19
	Pt	T	Vf	Vm	Ach	Over
	#	s	V vs. Ref.	V	V	bits
	0	0.258333	-7.34110E-004	-7.34110E-004	5.45366E-004	...........
	1	0.516667	-7.41118E-004	-1.10097E-003	5.45099E-004	...........
	2	0.775	-7.83597E-004	-1.41959E-003	5.46366E-004	...........
	3	1.03333	-9.01674E-004	-1.71260E-003	5.49299E-004	...........
	4	1.29167	-1.10767E-003	-1.96161E-003	5.51599E-004	...........
	5	1.55	-1.37253E-003	-2.22464E-003	5.47666E-004	...........
	6	1.80833	-1.65565E-003	-2.47396E-003	5.50233E-004	...........
	7	2.06667	-1.93207E-003	-2.68976E-003	5.46999E-004	...........
	8	2.325	-2.19304E-003	-2.89836E-003	5.46199E-004	...........
	9	2.58333	-2.43774E-003	-3.16010E-003	5.46866E-004	...........
	10	2.84167	-2.67188E-003	-3.41771E-003	5.50166E-004	...........
	11	3.1	-2.90445E-003	-3.59133E-003	5.47133E-004	...........
	12	3.35833	-3.13612E-003	-3.74385E-003	5.50666E-004	...........
	13	3.61667	-3.35650E-003	-3.93854E-003	5.48433E-004	...........
	14	3.875	-3.55766E-003	-4.10127E-003	5.47166E-004	...........
	15	4.13333	-3.74193E-003	-4.24361E-003	5.48033E-004	...........
	16	4.39167	-3.91416E-003	-4.38201E-003	5.44766E-004	...........
	17	4.65	-4.07687E-003	-4.58441E-003	5.48499E-004	...........
	18	4.90833	-4.23572E-003	-4.78382E-003	5.48066E-004	...........
EOC	QUANT	-0.0042357	Open Circuit (V)
PSTATMODEL	IQUANT	4	Pstat Model
PSTATSECTION	LABEL	REF600-11020	Pstat Section
PSTATSERIALNO	LABEL	11020	Pstat Serial Number
CTRLMODE	IQUANT	1	Control Mode
IESTAB	IQUANT	0	I/E Stability
CASPEED	IQUANT	1	Control Amp Speed
CONVENTION	IQUANT	1	Current Convention
ICHRANGE	IQUANT	2	Ich Range
ICHRANGEMODE	TOGGLE	F	Ich Auto Range
ICHOFFSETENABLE	TOGGLE	T	Ich Offset Enable
ICHOFFSET	QUANT	0	Ich Offset (V)
ICHFILTER	IQUANT	3	Ich Filter
VCHRANGE	IQUANT	2	Vch Range
VCHRANGEMODE	TOGGLE	F	Vch Auto Range
VCHOFFSETENABLE	TOGGLE	T	Vch Offset Enable
VCHOFFSET	QUANT	0	Vch Offset (V)
VCHFILTER	IQUANT	3	Vch Filter
ACHRANGE	IQUANT	2	Ach Range
ACHOFFSETENABLE	TOGGLE	F	Ach Offset Enable
ACHOFFSET	QUANT	0	Ach Offset (V)
ACHFILTER	IQUANT	3	Ach Filter
IERANGELOWERLIMIT	IQUANT	1	I/E Range Lower Limit
IERANGEMODE	TOGGLE	F	I/E AutoRange
IERANGE	IQUANT	5	I/E Range
POSFEEDENABLE	TOGGLE	F	Positive Feedback IR Comp
POSFEEDRESISTANCE	QUANT	0	Positive Feedback Resistance (ohm)
ACHSELECT	IQUANT	0	Ach Select
CABLEID	IQUANT	14	Cable ID
DCCALDATE	LABEL	8/19/2019	DC Calibration Date
ACCALDATE	LABEL	8/19/2019	AC Calibration Date
THERMOSELECT	IQUANT	1	Thermo Select
FRAMEWORKVERSION	QUANT	6.33	Framework Version
INSTRUMENTVERSION	LABEL	3.50	Instrument Version
ZCURVE	TABLE
	Pt	Time	Freq	Zreal	Zimag	Zsig	Zmod	Zphz	Idc	Vdc	IERange
	#	s	Hz	ohm	ohm	V	ohm	°	A	V	#
	0	1	1000078	2399.707	-1906.384	1	3064.783	-38.46445	3.608124E-006	-0.0026463	8
	1	3	794390.6	2786.385	-1880.645	1	3361.662	-34.01702	4.800506E-006	-0.0034402	8
	2	4	630984.4	3160.234	-1793.737	1	3633.809	-29.57909	-6.45933E-006	-0.0012099	8
	3	6	501234.4	3485.367	-1671.103	1	3865.277	-25.61597	4.890952E-006	-0.0033121	8
	4	7	398109.4	3751.798	-1508.421	1	4043.677	-21.90273	-5.240312E-006	-0.0015109	8
	5	9	316265.6	4010.436	-1341.953	1	4228.999	-18.50102	-2.411677E-007	-0.0024419	8
	6	10	251203.1	4163.716	-1170.767	1	4325.185	-15.70509	-5.224667E-007	-0.0024688	8
	7	12	199546.9	4284.014	-992.369	1	4397.451	-13.04223	-5.883021E-007	-0.0024075	8
	8	13	158578.1	4423.923	-872.2515	1	4509.093	-11.15377	-5.955791E-007	-0.0024076	8
	9	15	125953.1	4505.745	-734.1078	1	4565.156	-9.253725	3.483737E-007	-0.0034032	7
	10	16	100078.1	4568.998	-633.1479	1	4612.659	-7.889505	-9.314572E-009	-0.0027686	7
	11	17	79453.13	4616.9	-573.8859	1	4652.431	-7.085586	-4.252065E-008	-0.0027106	7
	12	19	63140.62	4661.049	-532.4302	1	4691.36	-6.516634	-8.603513E-009	-0.0027816	7
	13	20	50203.12	4700.477	-503.8881	1	4727.408	-6.118704	-4.702125E-008	-0.0026383	7
	14	21	39890.62	4739.767	-492.3195	1	4765.267	-5.930047	8.213226E-008	-0.0029091	7
	15	23	31640.63	4780.141	-492.2235	1	4805.417	-5.879174	2.027384E-008	-0.0028181	7
	16	24	25171.88	4819.016	-505.2292	1	4845.428	-5.985067	-4.491783E-008	-0.002589	7
	17	26	20015.62	4860.572	-532.0562	1	4889.605	-6.246937	-3.740903E-008	-0.0027231	7
	18	27	15890.62	4905.025	-571.0242	1	4938.151	-6.640265	-1.529506E-008	-0.0026863	7
	19	28	12609.37	4953.005	-623.9767	1	4992.154	-7.180264	-8.336309E-009	-0.0027008	7
	20	30	10078.13	5002.289	-691.6468	1	5049.878	-7.87215	-7.061126E-009	-0.0027927	7
	21	31	8015.625	5055.037	-779.8525	1	5114.838	-8.770017	-4.132674E-008	-0.0026885	7
	22	32	6328.125	5115.171	-892.0477	1	5192.372	-9.89247	-1.28338E-008	-0.0026906	7
	23	34	5015.625	5177.407	-1029.78	1	5278.825	-11.24926	-1.077258E-008	-0.0026056	7
	24	35	3984.375	5245.457	-1199.449	1	5380.845	-12.88007	8.478263E-008	-0.0029155	7
	25	37	3170.956	5317.786	-1405.924	1	5500.498	-14.8091	-2.521048E-008	-0.002749	7
	26	38	2527.573	5405.343	-1657.707	1	5653.824	-17.04969	3.785591E-008	-0.002791	7
	27	39	1976.103	5507.613	-1997.173	1	5858.541	-19.93168	-3.745277E-008	-0.0027173	7
	28	41	1577.524	5615.015	-2379.049	1	6098.218	-22.96209	-7.081201E-008	-0.0026346	7
	29	42	1265.625	5736.495	-2829.776	1	6396.483	-26.25682	-3.969794E-008	-0.0027233	7
	30	43	998.264	5891.304	-3423.17	1	6813.63	-30.15893	-7.003447E-008	-0.0026293	7
	31	45	796.875	6060.114	-4117.518	1	7326.591	-34.19398	-4.37638E-008	-0.0025953	7
	32	46	627.7902	6267.956	-5011.001	1	8024.799	-38.64106	-6.246434E-009	-0.0027941	7
	33	47	505.5147	6490.001	-5997.533	1	8836.884	-42.74161	-4.355659E-008	-0.0027204	7
	34	49	397.9953	6769.35	-7352.118	1	9993.88	-47.36316	1.823034E-009	-0.0027842	6
	35	50	315.5048	7093.377	-8974.077	1	11438.97	-51.67611	1.070365E-009	-0.0027817	6
	36	52	252.4038	7469.586	-10890.2	1	13205.73	-55.55378	1.663996E-009	-0.0027877	6
	37	53	198.6229	7964.015	-13434.53	1	15617.68	-59.34045	1.751135E-009	-0.0027868	6
	38	54	158.3615	8548.681	-16406.53	1	18500.11	-62.47807	1.657247E-009	-0.0027834	6
	39	56	125.558	9318.479	-20145.21	1	22196.02	-65.17637	1.452553E-009	-0.0027853	6
	40	57	100.4464	10254.94	-24552.97	1	26608.5	-67.33137	2.126249E-009	-0.0027833	6
	41	58	79.00281	11664.22	-30368.45	1	32531.47	-68.9887	2.062581E-009	-0.0027908	6
	42	60	63.3446	13326.63	-37206.11	1	39520.8	-70.29328	1.255863E-009	-0.0027897	6
	43	61	49.86702	15430.7	-45371.1	1	47923.3	-71.21685	9.509807E-010	-0.0027923	6
	44	63	39.72458	18507.41	-55419.62	1	58428.23	-71.53323	1.403577E-009	-0.0027865	6
	45	64	31.6723	22647.47	-67315.38	1	71023.01	-71.40509	1.306272E-009	-0.0027933	6
	46	65	24.93351	28048.67	-82365.98	1	87010.81	-71.19439	1.707649E-009	-0.0027859	6
	47	67	19.86229	34999.29	-99258.7	1	105248.5	-70.57701	1.609128E-009	-0.0027934	6
	48	68	15.83615	44142.32	-120224.4	1	128072.1	-69.83848	2.864696E-009	-0.002789	5
	49	70	12.40079	57124.93	-143266.6	1	154235.5	-68.26127	9.440615E-010	-0.0027848	5
	50	71	9.93114	72196.54	-170288.5	1	184960.9	-67.0247	1.056032E-009	-0.0027835	5
	51	73	7.944915	91971.1	-199636.2	1	219802.9	-65.26479	1.481103E-009	-0.0027808	5
	52	74	6.317385	116350.5	-232303.9	1	259812.5	-63.3958	7.292181E-010	-0.0027789	5
	53	76	5.008013	147033.4	-268782.2	1	306370.2	-61.31979	8.783246E-010	-0.0027957	5
	54	79	3.945707	184714.2	-308751.5	1	359787.2	-59.10952	1.297546E-009	-0.0027827	5
	55	81	3.158693	225272.2	-348846.9	1	415261	-57.14714	8.053117E-010	-0.0028026	5
	56	85	2.504006	273563.3	-392356.7	1	478310.2	-55.11459	1.515758E-009	-0.0027828	5
	57	88	1.998082	325855.2	-436605.5	1	544799.1	-53.26463	1.391386E-009	-0.0027684	5
	58	91	1.584686	384709.2	-483543.8	1	617912.4	-51.49412	1.167078E-009	-0.0028207	5
	59	94	1.266892	446715	-534976.2	1	696960.4	-50.13749	1.256959E-009	-0.0027597	5
	60	99	0.999041	520273.9	-594329.1	1	789881.1	-48.80119	7.03464E-010	-0.0028174	5
