EXPLAIN
TAG	EISPOT
TITLE	LABEL	Potentiostatic EIS	Test &Identifier
DATE	LABEL	10/2/2019	Date
TIME	LABEL	10:35:42	Time
NOTES	NOTES	2	&Notes...
	
	
PSTAT	PSTAT	REF600-11020	Potentiostat
VDC	POTEN	0.00000E+000	T	DC &Voltage (V)
FREQINIT	QUANT	1.00000E+006	Initial Fre&q. (Hz)
FREQFINAL	QUANT	1.00000E+000	Final Fre&q. (Hz)
PTSPERDEC	QUANT	1.00000E+001	Points/&decade
VAC	QUANT	2.50000E+001	AC &Voltage (mV rms)
AREA	QUANT	1.00000E-002	&Area (cm^2)
CONDIT	TWOPARAM	T	5.00000E+000	0.00000E+000	Conditionin&g	Time(s)	E(V)
DELAY	TWOPARAM	T	5.00000E+000	0.00000E+000	Init. De&lay	Time(s)	Stab.(mV/s)
SPEED	SELECTOR	1	&Optimize for:
ZGUESS	QUANT	1.00000E+004	E&stimated Z (ohms)
OCVCURVE	TABLE	19
	Pt	T	Vf	Vm	Ach	Over
	#	s	V vs. Ref.	V	V	bits
	0	0.258333	4.29906E-003	4.29906E-003	5.09167E-004	...........
	1	0.516667	4.28775E-003	3.70683E-003	4.95633E-004	...........
	2	0.775	4.22777E-003	3.64236E-003	4.95500E-004	...........
	3	1.03333	4.07821E-003	2.98223E-003	5.02567E-004	...........
	4	1.29167	3.83509E-003	3.04141E-003	4.99100E-004	...........
	5	1.55	3.55585E-003	3.60270E-003	4.97033E-004	...........
	6	1.80833	3.35798E-003	3.78320E-003	4.92833E-004	...........
	7	2.06667	3.33144E-003	3.61062E-003	5.03800E-004	...........
	8	2.325	3.43585E-003	3.57973E-003	5.01033E-004	...........
	9	2.58333	3.54925E-003	3.48200E-003	4.92600E-004	...........
	10	2.84167	3.59348E-003	3.39445E-003	4.85467E-004	...........
	11	3.1	3.56705E-003	3.36204E-003	5.01300E-004	...........
	12	3.35833	3.50286E-003	3.30736E-003	5.03833E-004	...........
	13	3.61667	3.43126E-003	3.24437E-003	4.95200E-004	...........
	14	3.875	3.36576E-003	3.18266E-003	4.96467E-004	...........
	15	4.13333	3.30570E-003	3.12013E-003	5.01567E-004	...........
	16	4.39167	3.24765E-003	3.10761E-003	5.00433E-004	...........
	17	4.65	3.19296E-003	3.07471E-003	4.95100E-004	...........
	18	4.90833	3.14516E-003	3.00085E-003	5.02200E-004	...........
EOC	QUANT	0.0031452	Open Circuit (V)
PSTATMODEL	IQUANT	4	Pstat Model
PSTATSECTION	LABEL	REF600-11020	Pstat Section
PSTATSERIALNO	LABEL	11020	Pstat Serial Number
CTRLMODE	IQUANT	1	Control Mode
IESTAB	IQUANT	0	I/E Stability
CASPEED	IQUANT	1	Control Amp Speed
CONVENTION	IQUANT	1	Current Convention
ICHRANGE	IQUANT	2	Ich Range
ICHRANGEMODE	TOGGLE	F	Ich Auto Range
ICHOFFSETENABLE	TOGGLE	T	Ich Offset Enable
ICHOFFSET	QUANT	0	Ich Offset (V)
ICHFILTER	IQUANT	3	Ich Filter
VCHRANGE	IQUANT	2	Vch Range
VCHRANGEMODE	TOGGLE	F	Vch Auto Range
VCHOFFSETENABLE	TOGGLE	T	Vch Offset Enable
VCHOFFSET	QUANT	0	Vch Offset (V)
VCHFILTER	IQUANT	3	Vch Filter
ACHRANGE	IQUANT	2	Ach Range
ACHOFFSETENABLE	TOGGLE	F	Ach Offset Enable
ACHOFFSET	QUANT	0	Ach Offset (V)
ACHFILTER	IQUANT	3	Ach Filter
IERANGELOWERLIMIT	IQUANT	1	I/E Range Lower Limit
IERANGEMODE	TOGGLE	F	I/E AutoRange
IERANGE	IQUANT	5	I/E Range
POSFEEDENABLE	TOGGLE	F	Positive Feedback IR Comp
POSFEEDRESISTANCE	QUANT	0	Positive Feedback Resistance (ohm)
ACHSELECT	IQUANT	0	Ach Select
CABLEID	IQUANT	14	Cable ID
DCCALDATE	LABEL	8/19/2019	DC Calibration Date
ACCALDATE	LABEL	8/19/2019	AC Calibration Date
THERMOSELECT	IQUANT	1	Thermo Select
FRAMEWORKVERSION	QUANT	6.33	Framework Version
INSTRUMENTVERSION	LABEL	3.50	Instrument Version
ZCURVE	TABLE
	Pt	Time	Freq	Zreal	Zimag	Zsig	Zmod	Zphz	Idc	Vdc	IERange
	#	s	Hz	ohm	ohm	V	ohm	°	A	V	#
	0	1	1000078	2476.137	-2096.303	1	3244.34	-40.25132	4.684612E-006	0.0044814	8
	1	3	794390.6	2895.898	-2068.888	1	3559.006	-35.54277	-5.625538E-006	0.0060469	8
	2	4	630984.4	3319.23	-1977.414	1	3863.606	-30.78414	1.656905E-007	0.0054917	8
	3	6	501234.4	3671.501	-1819.304	1	4097.534	-26.35935	4.053859E-006	0.0040626	8
	4	7	398109.4	3989.813	-1644.755	1	4315.534	-22.40335	5.703508E-007	0.0048364	8
	5	8	316265.6	4220.006	-1459.41	1	4465.236	-19.07699	-3.159484E-006	0.0055207	8
	6	10	251203.1	4413.529	-1245.829	1	4585.992	-15.76305	3.807994E-006	0.0040363	8
	7	11	199546.9	4548.4	-1071.115	1	4672.819	-13.2513	7.718695E-007	0.0047953	8
	8	12	158578.1	4683.66	-929.9753	1	4775.094	-11.23043	8.093102E-007	0.0048337	8
	9	14	125953.1	4774.231	-771.7486	1	4836.205	-9.182363	8.940316E-007	0.0027176	7
	10	15	100078.1	4821.605	-672.1656	1	4868.232	-7.936285	8.221666E-008	0.0046392	7
	11	16	79453.13	4873.637	-607.4084	1	4911.342	-7.104223	-5.517862E-008	0.0048852	7
	12	18	63140.62	4921.718	-561.2959	1	4953.621	-6.506171	-6.22374E-008	0.0048775	7
	13	19	50203.12	4961.938	-530.3871	1	4990.204	-6.101244	-5.111714E-008	0.0048788	7
	14	21	39890.62	5003.524	-515.4817	1	5030.007	-5.882073	-1.771728E-008	0.0047628	7
	15	22	31640.63	5045.817	-513.9194	1	5071.921	-5.815554	1.210266E-007	0.0046333	7
	16	23	25171.88	5086.833	-526.0326	1	5113.96	-5.904006	1.603731E-008	0.0048943	7
	17	25	20015.62	5130.468	-550.7909	1	5159.949	-6.127625	-1.101324E-008	0.0047632	7
	18	26	15890.62	5175.517	-592.5618	1	5209.329	-6.531539	1.595295E-008	0.0048921	7
	19	27	12609.37	5221.376	-645.7647	1	5261.158	-7.050374	1.186372E-007	0.0046274	7
	20	29	10078.13	5274.006	-715.6749	1	5322.343	-7.727751	-4.997949E-008	0.0049083	7
	21	30	8015.625	5329.596	-804.6588	1	5389.997	-8.585635	-4.623302E-009	0.0048484	7
	22	31	6328.125	5386.477	-922.6977	1	5464.934	-9.72036	-4.743634E-009	0.0048013	7
	23	33	5015.625	5453.545	-1066.832	1	5556.914	-11.06852	6.084498E-008	0.0047057	7
	24	34	3984.375	5523.844	-1244.516	1	5662.302	-12.69668	-2.874629E-009	0.0048016	7
	25	35	3170.956	5599.087	-1461.898	1	5786.789	-14.63301	-6.515499E-008	0.0050161	7
	26	37	2527.573	5687.734	-1727.64	1	5944.33	-16.89607	-6.921649E-008	0.0050098	7
	27	38	1976.103	5796.594	-2079.683	1	6158.375	-19.73681	8.797274E-008	0.0046213	7
	28	39	1577.524	5916.347	-2480.294	1	6415.218	-22.74476	4.595914E-009	0.0047607	7
	29	41	1265.625	6050.478	-2954.034	1	6733.097	-26.02309	-5.903104E-008	0.0049031	7
	30	42	998.264	6222.484	-3572.776	1	7175.238	-29.86323	-4.394289E-008	0.0048129	7
	31	43	796.875	6409.96	-4291.447	1	7713.891	-33.80217	-4.792559E-009	0.0047964	7
	32	45	627.7902	6644.144	-5210.065	1	8443.307	-38.10209	1.205934E-007	0.0046293	7
	33	46	505.5147	6893.133	-6213.088	1	9279.965	-42.02975	8.695198E-008	0.0046185	7
	34	47	397.9953	7207.189	-7605.786	1	10478.15	-46.54138	2.216847E-009	0.0047604	6
	35	49	315.5048	7565.069	-9253.885	1	11952.6	-50.73394	4.396738E-009	0.0047562	6
	36	50	252.4038	7981.737	-11205.71	1	13757.76	-54.53804	1.733162E-009	0.0047553	6
	37	52	198.6229	8528.244	-13781.09	1	16206.47	-58.24927	4.557933E-009	0.0047545	6
	38	53	158.3615	9170.607	-16784.51	1	19126.42	-61.34899	3.582051E-009	0.0047541	6
	39	54	125.558	10008.16	-20561.71	1	22868.04	-64.04607	3.567227E-009	0.0047526	6
	40	56	100.4464	11047.97	-24997.09	1	27329.69	-66.15599	-3.055447E-009	0.0047534	6
	41	57	79.00281	12487.63	-30786.33	1	33222.56	-67.92142	2.094877E-009	0.0047525	6
	42	58	63.3446	13974.71	-37234.09	1	39770.21	-69.42787	-5.907862E-009	0.0047512	6
	43	60	49.86702	16726.81	-45795.21	1	48754.36	-69.93516	8.564388E-010	0.0047503	6
	44	61	39.72458	19568.96	-55806.96	1	59138.48	-70.67656	1.049868E-008	0.004756	6
	45	62	31.6723	23505.23	-67440.19	1	71419.01	-70.78479	-6.410721E-010	0.0047497	6
	46	64	24.93351	28541.48	-82330.38	1	87137.3	-70.8801	-6.286899E-009	0.0047469	6
	47	65	19.86229	35203.64	-99554.5	1	105595.4	-70.52581	1.04222E-009	0.0047521	6
	48	67	15.83615	42796.54	-119820.7	1	127234.2	-70.34472	1.240496E-009	0.0047525	5
	49	68	12.40079	55205.9	-144306.1	1	154505.5	-69.06509	8.875496E-010	0.0047545	5
	50	69	9.93114	69231.87	-171116.7	1	184591.3	-67.9723	-5.378361E-009	0.0047516	5
	51	71	7.944915	84298.73	-201825.2	1	218722.9	-67.33059	1.157965E-008	0.0047539	5
	52	73	6.317385	106364.7	-238619.9	1	261252.5	-65.97511	1.640175E-010	0.0047655	5
	53	75	5.008013	132635.1	-279642.3	1	309502.6	-64.62488	1.506364E-009	0.0047538	5
	54	77	3.945707	165739.2	-328860.7	1	368264.7	-63.25282	-2.251032E-009	0.0047634	5
	55	80	3.158693	201196.3	-375800.4	1	426269.8	-61.83626	9.286383E-010	0.004771	5
	56	83	2.504006	251730.2	-430545.5	1	498735.9	-59.68614	6.682782E-010	0.0047509	5
	57	86	1.998082	289873.8	-463259.8	1	546476.4	-57.96471	4.551385E-009	0.0047577	5
	58	89	1.584686	366937	-555031	1	665358.7	-56.53088	-1.288719E-009	0.0048137	5
	59	92	1.266892	411253.3	-644942.6	1	764905.4	-57.47602	-1.29544E-010	0.0047498	5
	60	97	0.999041	489610.2	-722948.4	1	873139.4	-55.89254	1.412979E-010	0.0047858	5
