EXPLAIN
TAG	EISPOT
TITLE	LABEL	Potentiostatic IDE	Test &Identifier
DATE	LABEL	9/12/2019	Date
TIME	LABEL	10:23:51	Time
NOTES	NOTES	1	&Notes...
	
PSTAT	PSTAT	REF600-11020	Potentiostat
VDC	POTEN	0.00000E+000	T	DC &Voltage (V)
FREQINIT	QUANT	1.00000E+006	Initial Fre&q. (Hz)
FREQFINAL	QUANT	1.00000E+000	Final Fre&q. (Hz)
PTSPERDEC	QUANT	1.00000E+001	Points/&decade
VAC	QUANT	2.50000E+001	AC &Voltage (mV rms)
AREA	QUANT	1.00000E-002	&Area (cm^2)
CONDIT	TWOPARAM	T	5.00000E+000	0.00000E+000	Conditionin&g	Time(s)	E(V)
DELAY	TWOPARAM	T	5.00000E+000	0.00000E+000	Init. De&lay	Time(s)	Stab.(mV/s)
SPEED	SELECTOR	1	&Optimize for:
ZGUESS	QUANT	1.00000E+007	E&stimated Z (ohms)
OCVCURVE	TABLE	19
	Pt	T	Vf	Vm	Ach	Over
	#	s	V vs. Ref.	V	V	bits
	0	0.258333	4.38627E-003	4.38627E-003	4.90834E-004	...........
	1	0.516667	4.38203E-003	4.16422E-003	4.93067E-004	...........
	2	0.775	4.35631E-003	3.97077E-003	5.01800E-004	...........
	3	1.03333	4.28482E-003	3.79528E-003	4.98767E-004	...........
	4	1.29167	4.16020E-003	3.64562E-003	4.80900E-004	...........
	5	1.55	4.00068E-003	3.50929E-003	4.88234E-004	...........
	6	1.80833	3.83257E-003	3.37763E-003	5.01200E-004	...........
	7	2.06667	3.67305E-003	3.25756E-003	4.96100E-004	...........
	8	2.325	3.52747E-003	3.14683E-003	4.92533E-004	...........
	9	2.58333	3.39494E-003	3.04339E-003	4.95033E-004	...........
	10	2.84167	3.27326E-003	2.94374E-003	5.04200E-004	...........
	11	3.1	3.16043E-003	2.84951E-003	4.93233E-004	...........
	12	3.35833	3.05477E-003	2.76146E-003	4.92233E-004	...........
	13	3.61667	2.95512E-003	2.67762E-003	4.96233E-004	...........
	14	3.875	2.86075E-003	2.59063E-003	5.06567E-004	...........
	15	4.13333	2.77069E-003	2.50751E-003	4.89400E-004	...........
	16	4.39167	2.68384E-003	2.43519E-003	4.91833E-004	...........
	17	4.65	2.59984E-003	2.36005E-003	4.99333E-004	...........
	18	4.90833	2.51913E-003	2.28916E-003	5.04967E-004	...........
EOC	QUANT	0.0025191	Open Circuit (V)
PSTATMODEL	IQUANT	4	Pstat Model
PSTATSECTION	LABEL	REF600-11020	Pstat Section
PSTATSERIALNO	LABEL	11020	Pstat Serial Number
CTRLMODE	IQUANT	1	Control Mode
IESTAB	IQUANT	0	I/E Stability
CASPEED	IQUANT	1	Control Amp Speed
CONVENTION	IQUANT	1	Current Convention
ICHRANGE	IQUANT	2	Ich Range
ICHRANGEMODE	TOGGLE	F	Ich Auto Range
ICHOFFSETENABLE	TOGGLE	T	Ich Offset Enable
ICHOFFSET	QUANT	0	Ich Offset (V)
ICHFILTER	IQUANT	3	Ich Filter
VCHRANGE	IQUANT	2	Vch Range
VCHRANGEMODE	TOGGLE	F	Vch Auto Range
VCHOFFSETENABLE	TOGGLE	T	Vch Offset Enable
VCHOFFSET	QUANT	0	Vch Offset (V)
VCHFILTER	IQUANT	3	Vch Filter
ACHRANGE	IQUANT	2	Ach Range
ACHOFFSETENABLE	TOGGLE	F	Ach Offset Enable
ACHOFFSET	QUANT	0	Ach Offset (V)
ACHFILTER	IQUANT	3	Ach Filter
IERANGELOWERLIMIT	IQUANT	1	I/E Range Lower Limit
IERANGEMODE	TOGGLE	F	I/E AutoRange
IERANGE	IQUANT	2	I/E Range
POSFEEDENABLE	TOGGLE	F	Positive Feedback IR Comp
POSFEEDRESISTANCE	QUANT	0	Positive Feedback Resistance (ohm)
ACHSELECT	IQUANT	0	Ach Select
CABLEID	IQUANT	14	Cable ID
DCCALDATE	LABEL	8/19/2019	DC Calibration Date
ACCALDATE	LABEL	8/19/2019	AC Calibration Date
THERMOSELECT	IQUANT	1	Thermo Select
FRAMEWORKVERSION	QUANT	6.33	Framework Version
INSTRUMENTVERSION	LABEL	3.50	Instrument Version
ZCURVE	TABLE
	Pt	Time	Freq	Zreal	Zimag	Zsig	Zmod	Zphz	Idc	Vdc	IERange
	#	s	Hz	ohm	ohm	V	ohm	°	A	V	#
	0	2	1000078	2537.878	-1969	1	3212.131	-37.80592	2.057123E-006	0.0041387	8
	1	3	794390.6	2960.495	-1906.583	1	3521.305	-32.78186	-1.821757E-006	0.0048846	8
	2	5	630984.4	3317.25	-1752.438	1	3751.691	-27.84661	3.447359E-006	0.0037697	8
	3	6	501234.4	3635.399	-1614.532	1	3977.794	-23.94668	-3.354241E-006	0.0046474	8
	4	8	398109.4	3857.98	-1413.105	1	4108.635	-20.11683	1.529034E-006	0.0038712	8
	5	9	316265.6	4062.493	-1213.057	1	4239.736	-16.62558	9.045528E-008	0.0040805	8
	6	11	251203.1	4180.713	-1023.751	1	4304.233	-13.75953	-2.571506E-006	0.0044841	8
	7	12	199546.9	4279.632	-902.4929	1	4373.756	-11.90811	4.826271E-006	0.0033132	8
	8	14	158578.1	4399.112	-776.0351	1	4467.037	-10.00446	-1.070675E-006	0.0044523	8
	9	15	125953.1	4463.598	-609.082	1	4504.962	-7.770327	-8.733726E-007	0.0058996	7
	10	17	100078.1	4510.16	-545.8068	1	4543.066	-6.900218	7.491877E-008	0.0040014	7
	11	18	79453.13	4551.439	-498.5261	1	4578.66	-6.250777	-5.220255E-009	0.0040703	7
	12	19	63140.62	4588.789	-463.8146	1	4612.169	-5.771605	-4.573047E-008	0.0042743	7
	13	21	50203.12	4622.645	-444.0402	1	4643.922	-5.486861	3.48946E-008	0.0040928	7
	14	22	39890.62	4658.219	-433.2611	1	4678.324	-5.313795	-1.014435E-008	0.0041685	7
	15	23	31640.63	4692.437	-436.2577	1	4712.673	-5.311543	-4.406148E-008	0.004269	7
	16	25	25171.88	4726.766	-451.0819	1	4748.241	-5.451308	1.437141E-007	0.003911	7
	17	26	20015.62	4761.261	-476.9156	1	4785.086	-5.72	-1.096169E-008	0.0041548	7
	18	27	15890.62	4797.223	-513.538	1	4824.632	-6.110188	-3.637139E-008	0.0041232	7
	19	29	12609.37	4836.661	-569.0997	1	4870.027	-6.71078	9.17242E-008	0.003926	7
	20	30	10078.13	4875.089	-638.7504	1	4916.757	-7.464562	-9.963086E-009	0.0041512	7
	21	31	8015.625	4916.924	-727.7736	1	4970.493	-8.419448	-9.028602E-009	0.0041631	7
	22	33	6328.125	4966.138	-844.6645	1	5037.458	-9.65277	-5.568964E-008	0.0042231	7
	23	34	5015.625	5017.349	-992.524	1	5114.577	-11.1897	8.101808E-008	0.0040835	7
	24	35	3984.375	5078.625	-1168.978	1	5211.424	-12.96235	-8.664471E-009	0.0041523	7
	25	37	3170.956	5148.051	-1389.644	1	5332.311	-15.10615	-1.696404E-008	0.0042749	7
	26	38	2527.573	5226.267	-1653.805	1	5481.691	-17.5595	-7.796766E-008	0.0042202	7
	27	39	1976.103	5327.635	-2006.086	1	5692.81	-20.63354	-4.654774E-008	0.0042532	7
	28	41	1577.524	5438.154	-2401.705	1	5944.889	-23.82816	-4.552107E-008	0.0041403	7
	29	42	1265.625	5558.63	-2879.781	1	6260.313	-27.38749	-1.835706E-008	0.0042616	7
	30	43	998.264	5722.618	-3485.761	1	6700.663	-31.34643	-7.415708E-009	0.0040485	7
	31	45	796.875	5899.455	-4189.679	1	7235.812	-35.38164	-3.932338E-008	0.004158	7
	32	46	627.7902	6120.986	-5103.734	1	7969.604	-39.82166	-4.869183E-009	0.0040583	7
	33	47	505.5147	6358.8	-6117.098	1	8823.447	-43.89012	-4.028677E-008	0.0041535	7
	34	49	397.9953	6646.972	-7474.676	1	10002.65	-48.3544	1.242238E-009	0.004061	6
	35	50	315.5048	6980.816	-9104.188	1	11472.49	-52.5201	8.83782E-010	0.0040647	6
	36	51	252.4038	7351.26	-11027.54	1	13253.21	-56.31149	1.49952E-009	0.0040702	6
	37	53	198.6229	7820.93	-13574.17	1	15666.05	-60.05106	9.012192E-010	0.0040626	6
	38	54	158.3615	8355.938	-16560.28	1	18548.97	-63.22553	1.945899E-009	0.00406	6
	39	55	125.558	9029.177	-20337.54	1	22251.78	-66.0604	8.165282E-010	0.0040697	6
	40	57	100.4464	9828.8	-24840.94	1	26714.75	-68.4128	2.536875E-010	0.0040611	6
	41	58	79.00281	11010.51	-30734.52	1	32647.23	-70.29016	1.153349E-009	0.0040609	6
	42	59	63.3446	11934.39	-37693.39	1	39537.59	-72.4313	1.183354E-009	0.0040654	6
	43	61	49.86702	14272.45	-46245.8	1	48398.11	-72.84866	8.607371E-010	0.0040588	6
	44	62	39.72458	16475.02	-57032.07	1	59363.99	-73.88743	1.200817E-009	0.0040654	6
	45	63	31.6723	19748.29	-69609.34	1	72356.45	-74.16126	7.363569E-010	0.004064	6
	46	65	24.93351	24079.97	-86011.64	1	89318.8	-74.35978	7.076486E-010	0.0040598	6
	47	66	19.86229	29620.76	-104860.3	1	108963.6	-74.22617	3.554657E-010	0.0040651	5
	48	67	15.83615	36735.87	-125869.1	1	131120.4	-73.72971	1.786727E-009	0.0040618	5
	49	69	12.40079	46584.7	-156653.4	1	163433.3	-73.43888	-5.628762E-011	0.0040638	5
	50	70	9.93114	61451.75	-188240.3	1	198017	-71.92054	4.952692E-010	0.0040627	5
	51	72	7.944915	78186.6	-225731.3	1	238888.6	-70.89544	6.251753E-010	0.00406	5
	52	74	6.317385	101346	-268167.1	1	286678.6	-69.29736	4.230739E-010	0.0040758	5
	53	76	5.008013	131172	-318625.4	1	344569.7	-67.62396	4.64626E-010	0.0040617	5
	54	78	3.945707	170406.5	-377330.6	1	414025	-65.69556	2.098491E-010	0.0040627	5
	55	81	3.158693	215762.1	-436859.6	1	487236.7	-63.71554	3.285008E-010	0.0040822	5
	56	84	2.504006	272946.1	-505353.5	1	574353.3	-61.62611	1.298853E-010	0.0040506	5
	57	87	1.998082	338219.6	-576450.2	1	668346.7	-59.59865	-2.062981E-011	0.004035	5
	58	90	1.584686	416251.9	-649794.3	1	771685.4	-57.35677	1.535569E-010	0.0041084	5
	59	94	1.266892	499511.6	-728902.9	1	883635.3	-55.57746	2.743054E-012	0.0040315	5
	60	98	0.999041	597761.7	-813851.7	1	1009789	-53.70329	2.705812E-010	0.0041065	4
