EXPLAIN
TAG	EISPOT
TITLE	LABEL	Potentiostatic EIS	Test &Identifier
DATE	LABEL	11/15/2019	Date
TIME	LABEL	12:33:35	Time
NOTES	NOTES	4	&Notes...
	
	
	
	
PSTAT	PSTAT	REF600-11020	Potentiostat
VDC	POTEN	0.00000E+000	T	DC &Voltage (V)
FREQINIT	QUANT	1.00000E+006	Initial Fre&q. (Hz)
FREQFINAL	QUANT	1.00000E+000	Final Fre&q. (Hz)
PTSPERDEC	QUANT	1.00000E+001	Points/&decade
VAC	QUANT	2.50000E+001	AC &Voltage (mV rms)
AREA	QUANT	1.00000E-002	&Area (cm^2)
CONDIT	TWOPARAM	T	5.00000E+000	0.00000E+000	Conditionin&g	Time(s)	E(V)
DELAY	TWOPARAM	T	5.00000E+000	0.00000E+000	Init. De&lay	Time(s)	Stab.(mV/s)
SPEED	SELECTOR	0	&Optimize for:
ZGUESS	QUANT	1.00000E+005	E&stimated Z (ohms)
OCVCURVE	TABLE	19
	Pt	T	Vf	Vm	Ach	Over
	#	s	V vs. Ref.	V	V	bits
	0	0.258333	7.63221E-003	7.63221E-003	6.19831E-004	...........
	1	0.516667	7.63175E-003	7.60776E-003	6.26231E-004	...........
	2	0.775	7.62945E-003	7.61437E-003	6.18865E-004	...........
	3	1.03333	7.62545E-003	7.65277E-003	6.16632E-004	...........
	4	1.29167	7.62443E-003	7.67982E-003	6.18798E-004	...........
	5	1.55	7.63258E-003	7.71287E-003	6.24631E-004	...........
	6	1.80833	7.65146E-003	7.73748E-003	6.27098E-004	...........
	7	2.06667	7.67794E-003	7.78544E-003	6.26298E-004	...........
	8	2.325	7.70861E-003	7.80785E-003	6.18865E-004	...........
	9	2.58333	7.74172E-003	7.85789E-003	6.23032E-004	...........
	10	2.84167	7.77655E-003	7.88829E-003	6.19965E-004	...........
	11	3.1	7.81300E-003	7.94073E-003	6.25631E-004	...........
	12	3.35833	7.85124E-003	7.97192E-003	6.23098E-004	...........
	13	3.61667	7.89114E-003	8.02448E-003	6.26465E-004	...........
	14	3.875	7.93210E-003	8.05001E-003	6.25098E-004	...........
	15	4.13333	7.97309E-003	8.09554E-003	6.24865E-004	...........
	16	4.39167	8.01328E-003	8.13934E-003	6.28898E-004	...........
	17	4.65	8.05326E-003	8.18801E-003	6.26865E-004	...........
	18	4.90833	8.09448E-003	8.22658E-003	6.24265E-004	...........
EOC	QUANT	0.0080945	Open Circuit (V)
PSTATMODEL	IQUANT	4	Pstat Model
PSTATSECTION	LABEL	REF600-11020	Pstat Section
PSTATSERIALNO	LABEL	11020	Pstat Serial Number
CTRLMODE	IQUANT	1	Control Mode
IESTAB	IQUANT	0	I/E Stability
CASPEED	IQUANT	1	Control Amp Speed
CONVENTION	IQUANT	1	Current Convention
ICHRANGE	IQUANT	2	Ich Range
ICHRANGEMODE	TOGGLE	F	Ich Auto Range
ICHOFFSETENABLE	TOGGLE	T	Ich Offset Enable
ICHOFFSET	QUANT	0	Ich Offset (V)
ICHFILTER	IQUANT	3	Ich Filter
VCHRANGE	IQUANT	2	Vch Range
VCHRANGEMODE	TOGGLE	F	Vch Auto Range
VCHOFFSETENABLE	TOGGLE	T	Vch Offset Enable
VCHOFFSET	QUANT	0	Vch Offset (V)
VCHFILTER	IQUANT	3	Vch Filter
ACHRANGE	IQUANT	2	Ach Range
ACHOFFSETENABLE	TOGGLE	F	Ach Offset Enable
ACHOFFSET	QUANT	0	Ach Offset (V)
ACHFILTER	IQUANT	3	Ach Filter
IERANGELOWERLIMIT	IQUANT	1	I/E Range Lower Limit
IERANGEMODE	TOGGLE	F	I/E AutoRange
IERANGE	IQUANT	5	I/E Range
POSFEEDENABLE	TOGGLE	F	Positive Feedback IR Comp
POSFEEDRESISTANCE	QUANT	0	Positive Feedback Resistance (ohm)
ACHSELECT	IQUANT	0	Ach Select
CABLEID	IQUANT	14	Cable ID
DCCALDATE	LABEL	8/19/2019	DC Calibration Date
ACCALDATE	LABEL	8/19/2019	AC Calibration Date
THERMOSELECT	IQUANT	1	Thermo Select
FRAMEWORKVERSION	QUANT	6.33	Framework Version
INSTRUMENTVERSION	LABEL	3.50	Instrument Version
ZCURVE	TABLE
	Pt	Time	Freq	Zreal	Zimag	Zsig	Zmod	Zphz	Idc	Vdc	IERange
	#	s	Hz	ohm	ohm	V	ohm	°	A	V	#
	0	1	1000078	2275.708	-2038.004	1	3054.883	-41.84595	3.631691E-006	0.0095071	8
	1	2	794390.6	2693.581	-2093.412	1	3411.415	-37.85384	-1.518696E-006	0.0094804	8
	2	2	630984.4	3118.527	-2057.055	1	3735.865	-33.4098	-2.857022E-006	0.0096469	8
	3	2	501234.4	3517.705	-1959.254	1	4026.528	-29.11646	6.971878E-006	0.0088597	8
	4	3	398109.4	3876.345	-1820.555	1	4282.578	-25.15746	-3.473777E-006	0.009516	8
	5	3	316265.6	4176.748	-1645.942	1	4489.359	-21.50805	2.235382E-006	0.009848	8
	6	3	251203.1	4416.61	-1451.684	1	4649.068	-18.19505	3.982958E-006	0.0095175	8
	7	4	199546.9	4621.025	-1259.569	1	4789.613	-15.24692	-1.068263E-007	0.009232	8
	8	4	158578.1	4796.204	-1097.961	1	4920.273	-12.89414	-6.262409E-006	0.0104718	8
	9	4	125953.1	4945.588	-911.5017	1	5028.884	-10.44277	3.280895E-006	0.007443	7
	10	4	100078.1	4971.902	-781.6021	1	5032.963	-8.934	-9.999854E-007	0.0113753	7
	11	5	79453.13	5065.847	-694.1789	1	5113.188	-7.802711	1.115412E-006	0.0087452	7
	12	5	63140.62	5111.685	-613.3319	1	5148.349	-6.841997	1.395417E-007	0.0079806	7
	13	5	50203.12	5144.842	-557.6405	1	5174.975	-6.186041	-1.34281E-006	0.0106929	7
	14	6	39890.62	5207.641	-525.3328	1	5234.071	-5.760358	5.492068E-007	0.0076533	7
	15	6	31640.63	5236.521	-500.2615	1	5260.362	-5.457087	-3.324336E-007	0.0085551	7
	16	6	25171.88	5282.656	-493.9403	1	5305.698	-5.341754	5.493662E-007	0.0076456	7
	17	7	20015.62	5326.711	-499.5782	1	5350.087	-5.357948	1.095386E-006	0.0076357	7
	18	7	15890.62	5349.687	-523.6164	1	5375.251	-5.590187	6.011209E-008	0.0105873	7
	19	7	12609.37	5377.27	-551.995	1	5405.527	-5.861076	-7.979548E-007	0.0093108	7
	20	8	10078.13	5439.989	-606.4001	1	5473.683	-6.360549	1.11928E-006	0.0087362	7
	21	8	8015.625	5446.018	-676.6622	1	5487.894	-7.082644	-1.149467E-006	0.0100521	7
	22	8	6328.125	5490.779	-771.5477	1	5544.722	-7.998661	-1.354879E-006	0.0110935	7
	23	9	5015.625	5542.259	-896.4525	1	5614.291	-9.187935	-7.005588E-007	0.0112742	7
	24	9	3984.375	5581.389	-1043.23	1	5678.048	-10.58712	-1.149486E-006	0.0100516	7
	25	9	3170.956	5656.366	-1241.22	1	5790.95	-12.37668	4.096129E-007	0.0101191	7
	26	9	2527.573	5705.526	-1477.384	1	5893.7	-14.51726	-6.985226E-007	0.0112714	7
	27	10	1976.103	5786.158	-1790.922	1	6056.982	-17.19826	-6.982881E-007	0.0112759	7
	28	10	1577.524	5855.33	-2148.079	1	6236.917	-20.146	-9.944769E-007	0.0113574	7
	29	11	1265.625	5958.303	-2586.242	1	6495.385	-23.46358	-6.99929E-007	0.0112702	7
	30	11	998.264	6074.578	-3160.926	1	6847.77	-27.49035	-3.380481E-007	0.0085441	7
	31	11	796.875	6211.817	-3836.639	1	7301.128	-31.70095	6.608548E-007	0.0097622	7
	32	12	627.7902	6367.38	-4691.166	1	7908.891	-36.38092	-1.000377E-006	0.0113544	7
	33	12	505.5147	6541.968	-5663.646	1	8652.99	-40.88406	-1.214704E-006	0.0112829	7
	34	12	397.9953	6774.81	-7015.437	1	9752.66	-45.99966	5.335913E-010	0.0095266	7
	35	13	315.5048	7056.233	-8619.321	1	11139.26	-50.69443	-7.164802E-011	0.0094661	6
	36	13	252.4038	7386.654	-10523.5	1	12857.17	-54.93422	-6.06823E-010	0.0094617	6
	37	13	198.6229	7839.493	-13046.65	1	15220.8	-58.99911	1.269004E-010	0.0094613	6
	38	14	158.3615	8376.985	-15997.56	1	18058.13	-62.36159	1.095134E-010	0.0094582	6
	39	14	125.558	9116.455	-19713.71	1	21719.57	-65.18217	9.886011E-010	0.0094424	6
	40	14	100.4464	10046.63	-24069.4	1	26082	-67.34422	-1.128845E-009	0.0094564	6
	41	15	79.00281	11423.82	-29871.95	1	31981.82	-69.07182	1.589572E-010	0.0094428	6
	42	15	63.3446	13108.24	-36728.83	1	38997.86	-70.35891	5.93905E-010	0.0094429	6
	43	15	49.86702	15271.04	-45208.14	1	47717.71	-71.33534	8.365146E-010	0.0094401	6
	44	16	39.72458	18381.89	-54708.92	1	57714.47	-71.42794	7.110194E-012	0.0094576	6
	45	16	31.6723	22344.47	-66195.7	1	69865.2	-71.3478	3.074832E-010	0.0094555	6
	46	16	24.93351	27933.2	-81146.27	1	85819.47	-71.00486	-9.532975E-011	0.0094447	6
	47	17	19.86229	35088.71	-97636.5	1	103750.2	-70.23252	-5.794707E-010	0.0094394	6
	48	17	15.83615	43476.26	-115477.2	1	123390.3	-69.36903	-1.03166E-009	0.0094497	5
	49	17	12.40079	57026.21	-140715.5	1	151831.6	-67.93931	-5.894331E-011	0.0094624	5
	50	18	9.93114	71420.9	-164355.8	1	179203.2	-66.51262	4.517321E-010	0.0094525	5
	51	18	7.944915	89216.98	-191382.9	1	211156.6	-65.00648	1.893364E-010	0.0094575	5
	52	19	6.317385	110742.1	-222882	1	248877.9	-63.57885	4.507368E-011	0.0094537	5
	53	20	5.008013	136491.2	-257831.5	1	291730.9	-62.10408	1.255511E-010	0.0094574	5
	54	21	3.945707	167167.9	-298991.9	1	342551.2	-60.79022	-2.554935E-010	0.009452	5
	55	22	3.158693	198419.8	-340429.8	1	394034.1	-59.7642	-1.40691E-010	0.0094444	5
	56	24	2.504006	235694.9	-390650.5	1	456245.4	-58.89575	1.210149E-010	0.009445	5
	57	25	1.998082	275681.2	-445290.5	1	523721.1	-58.23818	-9.971973E-011	0.0094188	5
	58	27	1.584686	322559.4	-512325	1	605410.2	-57.80552	-1.697355E-010	0.0093967	5
	59	28	1.266892	371450.3	-586023.4	1	693829	-57.63148	-1.301034E-010	0.0094207	5
	60	31	0.999041	431163.7	-676132.9	1	801908.9	-57.47472	-9.978415E-011	0.00945	5
