EXPLAIN
TAG	EISPOT
TITLE	LABEL	Potentiostatic IDE	Test &Identifier
DATE	LABEL	9/16/2019	Date
TIME	LABEL	10:24:24	Time
NOTES	NOTES	1	&Notes...
	
PSTAT	PSTAT	REF600-11020	Potentiostat
VDC	POTEN	0.00000E+000	T	DC &Voltage (V)
FREQINIT	QUANT	1.00000E+006	Initial Fre&q. (Hz)
FREQFINAL	QUANT	1.00000E+000	Final Fre&q. (Hz)
PTSPERDEC	QUANT	1.00000E+001	Points/&decade
VAC	QUANT	2.50000E+001	AC &Voltage (mV rms)
AREA	QUANT	1.00000E-002	&Area (cm^2)
CONDIT	TWOPARAM	T	5.00000E+000	0.00000E+000	Conditionin&g	Time(s)	E(V)
DELAY	TWOPARAM	T	5.00000E+000	0.00000E+000	Init. De&lay	Time(s)	Stab.(mV/s)
SPEED	SELECTOR	1	&Optimize for:
ZGUESS	QUANT	1.00000E+007	E&stimated Z (ohms)
OCVCURVE	TABLE	19
	Pt	T	Vf	Vm	Ach	Over
	#	s	V vs. Ref.	V	V	bits
	0	0.258333	6.86000E-004	6.86000E-004	5.64266E-004	...........
	1	0.516667	6.74230E-004	6.99165E-005	5.58766E-004	...........
	2	0.775	6.02361E-004	-4.93025E-004	5.58699E-004	...........
	3	1.03333	4.00957E-004	-1.00325E-003	5.63332E-004	...........
	4	1.29167	4.58980E-005	-1.48293E-003	5.61666E-004	...........
	5	1.55	-4.17076E-004	-1.94196E-003	5.59566E-004	...........
	6	1.80833	-9.18941E-004	-2.35349E-003	5.56999E-004	...........
	7	2.06667	-1.41142E-003	-2.74870E-003	5.61699E-004	...........
	8	2.325	-1.87362E-003	-3.11342E-003	5.54199E-004	...........
	9	2.58333	-2.30200E-003	-3.47165E-003	5.58432E-004	...........
	10	2.84167	-2.70077E-003	-3.80796E-003	5.60799E-004	...........
	11	3.1	-3.07582E-003	-4.13005E-003	5.60766E-004	...........
	12	3.35833	-3.43161E-003	-4.43629E-003	5.54799E-004	...........
	13	3.61667	-3.77064E-003	-4.73364E-003	5.59632E-004	...........
	14	3.875	-4.09427E-003	-5.00846E-003	5.57432E-004	...........
	15	4.13333	-4.40328E-003	-5.27863E-003	5.58166E-004	...........
	16	4.39167	-4.69820E-003	-5.53565E-003	5.59932E-004	...........
	17	4.65	-4.97989E-003	-5.78217E-003	5.64166E-004	...........
	18	4.90833	-5.24953E-003	-6.02221E-003	5.60832E-004	...........
EOC	QUANT	-0.0052495	Open Circuit (V)
PSTATMODEL	IQUANT	4	Pstat Model
PSTATSECTION	LABEL	REF600-11020	Pstat Section
PSTATSERIALNO	LABEL	11020	Pstat Serial Number
CTRLMODE	IQUANT	1	Control Mode
IESTAB	IQUANT	0	I/E Stability
CASPEED	IQUANT	1	Control Amp Speed
CONVENTION	IQUANT	1	Current Convention
ICHRANGE	IQUANT	2	Ich Range
ICHRANGEMODE	TOGGLE	F	Ich Auto Range
ICHOFFSETENABLE	TOGGLE	T	Ich Offset Enable
ICHOFFSET	QUANT	0	Ich Offset (V)
ICHFILTER	IQUANT	3	Ich Filter
VCHRANGE	IQUANT	2	Vch Range
VCHRANGEMODE	TOGGLE	F	Vch Auto Range
VCHOFFSETENABLE	TOGGLE	T	Vch Offset Enable
VCHOFFSET	QUANT	0	Vch Offset (V)
VCHFILTER	IQUANT	3	Vch Filter
ACHRANGE	IQUANT	2	Ach Range
ACHOFFSETENABLE	TOGGLE	F	Ach Offset Enable
ACHOFFSET	QUANT	0	Ach Offset (V)
ACHFILTER	IQUANT	3	Ach Filter
IERANGELOWERLIMIT	IQUANT	1	I/E Range Lower Limit
IERANGEMODE	TOGGLE	F	I/E AutoRange
IERANGE	IQUANT	2	I/E Range
POSFEEDENABLE	TOGGLE	F	Positive Feedback IR Comp
POSFEEDRESISTANCE	QUANT	0	Positive Feedback Resistance (ohm)
ACHSELECT	IQUANT	0	Ach Select
CABLEID	IQUANT	14	Cable ID
DCCALDATE	LABEL	8/19/2019	DC Calibration Date
ACCALDATE	LABEL	8/19/2019	AC Calibration Date
THERMOSELECT	IQUANT	1	Thermo Select
FRAMEWORKVERSION	QUANT	6.33	Framework Version
INSTRUMENTVERSION	LABEL	3.50	Instrument Version
ZCURVE	TABLE
	Pt	Time	Freq	Zreal	Zimag	Zsig	Zmod	Zphz	Idc	Vdc	IERange
	#	s	Hz	ohm	ohm	V	ohm	°	A	V	#
	0	3	1000078	2415.508	-1679.34	1	2941.915	-34.8083	5.267949E-007	-0.002647	8
	1	4	794390.6	2766.261	-1638.848	1	3215.279	-30.64426	2.954318E-006	-0.0039418	8
	2	6	630984.4	3051.423	-1527.1	1	3412.216	-26.58591	1.683038E-006	-0.0039448	8
	3	7	501234.4	3306.174	-1392.27	1	3587.367	-22.83655	-4.46244E-006	-0.0026434	8
	4	8	398109.4	3538.272	-1246.875	1	3751.542	-19.41229	2.514376E-006	-0.0042369	8
	5	10	316265.6	3690.276	-1114.306	1	3854.843	-16.80208	-8.240044E-007	-0.0034119	8
	6	11	251203.1	3819.447	-988.247	1	3945.226	-14.50662	-3.462689E-008	-0.0037688	8
	7	12	199546.9	3907.193	-863.458	1	4001.464	-12.46162	-1.263979E-006	-0.0033847	8
	8	14	158578.1	3996.176	-785.7861	1	4072.699	-11.1244	-9.611083E-007	-0.0033363	8
	9	15	125953.1	4101.931	-662.0793	1	4155.019	-9.168848	1.971119E-007	-0.0040756	7
	10	17	100078.1	4147.293	-621.6613	1	4193.626	-8.52492	-3.897173E-008	-0.0036588	7
	11	18	79453.13	4202.526	-601.4774	1	4245.35	-8.14502	1.490445E-007	-0.0039035	7
	12	19	63140.62	4259.219	-593.6536	1	4300.392	-7.934815	2.201316E-008	-0.003776	7
	13	21	50203.12	4314.22	-597.9587	1	4355.462	-7.891025	-4.314889E-008	-0.003661	7
	14	22	39890.62	4374.178	-614.5653	1	4417.14	-7.997619	-3.940614E-008	-0.0036448	7
	15	23	31640.63	4434.673	-645.965	1	4481.472	-8.287554	-4.253312E-008	-0.0036686	7
	16	25	25171.88	4502.547	-687.8303	1	4554.782	-8.685622	-5.173753E-008	-0.0035302	7
	17	26	20015.62	4574.2	-743.2334	1	4634.188	-9.228983	8.258861E-008	-0.0038322	7
	18	27	15890.62	4656.901	-810.0173	1	4726.823	-9.86726	-4.183776E-008	-0.0036476	7
	19	29	12609.37	4746.052	-894.9275	1	4829.69	-10.67845	-4.151897E-008	-0.0036468	7
	20	30	10078.13	4840.042	-990.268	1	4940.307	-11.56308	8.620471E-008	-0.0037302	7
	21	31	8015.625	4948.646	-1104.221	1	5070.345	-12.57869	8.431696E-008	-0.0038311	7
	22	33	6328.125	5077.168	-1240.818	1	5226.592	-13.73342	-4.037663E-008	-0.003643	7
	23	34	5015.625	5217.362	-1395.685	1	5400.815	-14.9764	9.629669E-008	-0.0038826	7
	24	35	3984.375	5373.933	-1575.263	1	5600.054	-16.33746	-4.161428E-008	-0.0036616	7
	25	37	3170.956	5549.856	-1777.788	1	5827.644	-17.76184	-5.416442E-008	-0.0035763	7
	26	38	2527.573	5747.713	-2004.322	1	6087.16	-19.2245	-3.835913E-008	-0.0036878	7
	27	39	1976.103	5986.887	-2286.34	1	6408.601	-20.90142	-8.455089E-009	-0.0036492	7
	28	41	1577.524	6230.64	-2577.772	1	6742.832	-22.4761	8.622719E-008	-0.0037358	7
	29	42	1265.625	6474.065	-2861.567	1	7078.283	-23.84565	-5.085776E-008	-0.0035372	7
	30	43	998.264	6795.25	-3281.239	1	7545.99	-25.77462	1.536323E-007	-0.0039095	7
	31	45	796.875	7088.06	-3705.711	1	7998.305	-27.60104	4.258625E-008	-0.0037299	7
	32	46	627.7902	7398.286	-4245.216	1	8529.742	-29.84767	-1.33217E-008	-0.0036289	7
	33	47	505.5147	7680.882	-4842.268	1	9079.841	-32.22861	-4.128941E-008	-0.0036577	7
	34	49	397.9953	7990.216	-5653.016	1	9787.75	-35.27911	1.566762E-009	-0.0037332	6
	35	50	315.5048	8287.313	-6654.85	1	10628.57	-38.76504	1.734037E-009	-0.0037312	6
	36	52	252.4038	8585.281	-7867.798	1	11645.14	-42.50304	1.454959E-009	-0.003737	6
	37	53	198.6229	8935.151	-9514.28	1	13052.14	-46.79791	7.861457E-010	-0.0037382	6
	38	54	158.3615	9315.688	-11476.61	1	14781.56	-50.93338	9.134166E-010	-0.0037395	6
	39	56	125.558	9778.49	-13979.31	1	17059.89	-55.02731	1.215906E-009	-0.0037333	6
	40	57	100.4464	10337.03	-16950.09	1	19853.46	-58.62302	4.499507E-010	-0.0037379	6
	41	58	79.00281	11110.27	-20923.3	1	23690.14	-62.03171	1.171084E-009	-0.0037356	6
	42	60	63.3446	11771.66	-25432.93	1	28025.1	-65.1629	1.1246E-009	-0.0037395	6
	43	61	49.86702	13374.6	-31550.7	1	34268.45	-67.02751	1.71581E-010	-0.0037369	6
	44	62	39.72458	14765.93	-38468.82	1	41205.37	-69.00112	4.761148E-010	-0.0037357	6
	45	64	31.6723	16812.34	-47051.12	1	49964.62	-70.33714	9.437263E-010	-0.0037355	6
	46	65	24.93351	19537.54	-57906.77	1	61113.9	-71.35578	7.076694E-010	-0.0037372	6
	47	66	19.86229	22850.02	-70525.98	1	74135.26	-72.04797	1.507595E-009	-0.0037325	6
	48	68	15.83615	27933.92	-85264.63	1	89723.8	-71.86046	2.619337E-009	-0.0037394	6
	49	69	12.40079	33107.57	-104562.6	1	109678.9	-72.43069	-6.998984E-010	-0.0037272	5
	50	71	9.93114	40100.47	-126632.6	1	132830.2	-72.42868	8.31925E-010	-0.0037236	5
	51	72	7.944915	49768.97	-152297.7	1	160223.4	-71.90326	2.71194E-010	-0.0037361	5
	52	74	6.317385	60802.11	-183755.2	1	193553.3	-71.69131	6.204304E-010	-0.0037454	5
	53	76	5.008013	75632	-221477.2	1	234034.9	-71.14553	7.72095E-011	-0.0037429	5
	54	78	3.945707	95190.8	-267067	1	283524.3	-70.38239	4.997033E-010	-0.0037318	5
	55	81	3.158693	118143.4	-317375	1	338651.4	-69.58212	1.834912E-010	-0.0037302	5
	56	84	2.504006	147407.6	-377891.8	1	405624.5	-68.6903	3.525479E-010	-0.0037443	5
	57	87	1.998082	181466.2	-445894.4	1	481406.1	-67.85509	1.136946E-010	-0.0037383	5
	58	90	1.584686	226125.1	-526299	1	572820.4	-66.74915	2.936096E-010	-0.0036908	5
	59	94	1.266892	274585.8	-616604.6	1	674980.4	-65.99568	1.762217E-010	-0.0037477	5
	60	98	0.999041	338541.7	-726278.6	1	801305.9	-65.00827	3.986898E-010	-0.0037086	5
