EXPLAIN
TAG	EISPOT
TITLE	LABEL	Potentiostatic EIS	Test &Identifier
DATE	LABEL	9/22/2019	Date
TIME	LABEL	11:11:45	Time
NOTES	NOTES	1	&Notes...
	
PSTAT	PSTAT	REF600-11020	Potentiostat
VDC	POTEN	0.00000E+000	T	DC &Voltage (V)
FREQINIT	QUANT	1.00000E+006	Initial Fre&q. (Hz)
FREQFINAL	QUANT	1.00000E+000	Final Fre&q. (Hz)
PTSPERDEC	QUANT	1.00000E+001	Points/&decade
VAC	QUANT	2.50000E+001	AC &Voltage (mV rms)
AREA	QUANT	1.00000E-002	&Area (cm^2)
CONDIT	TWOPARAM	T	5.00000E+000	0.00000E+000	Conditionin&g	Time(s)	E(V)
DELAY	TWOPARAM	T	5.00000E+000	0.00000E+000	Init. De&lay	Time(s)	Stab.(mV/s)
SPEED	SELECTOR	1	&Optimize for:
ZGUESS	QUANT	1.00000E+004	E&stimated Z (ohms)
OCVCURVE	TABLE	19
	Pt	T	Vf	Vm	Ach	Over
	#	s	V vs. Ref.	V	V	bits
	0	0.258333	-5.32132E-003	-5.32132E-003	5.72099E-004	...........
	1	0.516667	-5.34349E-003	-6.48208E-003	5.69399E-004	...........
	2	0.775	-5.47859E-003	-7.52678E-003	5.71332E-004	...........
	3	1.03333	-5.85666E-003	-8.49738E-003	5.67566E-004	...........
	4	1.29167	-6.52274E-003	-9.38579E-003	5.70999E-004	...........
	5	1.55	-7.39040E-003	-1.02129E-002	5.74966E-004	...........
	6	1.80833	-8.32762E-003	-1.09760E-002	5.69699E-004	...........
	7	2.06667	-9.24131E-003	-1.16926E-002	5.74132E-004	...........
	8	2.325	-1.00929E-002	-1.23676E-002	5.79132E-004	...........
	9	2.58333	-1.08785E-002	-1.30000E-002	5.67766E-004	...........
	10	2.84167	-1.16070E-002	-1.36245E-002	5.73599E-004	...........
	11	3.1	-1.22894E-002	-1.41723E-002	5.72266E-004	...........
	12	3.35833	-1.29312E-002	-1.46463E-002	5.68799E-004	...........
	13	3.61667	-1.35313E-002	-1.51634E-002	5.71532E-004	...........
	14	3.875	-1.40896E-002	-1.56586E-002	5.76132E-004	...........
	15	4.13333	-1.46145E-002	-1.61194E-002	5.70632E-004	...........
	16	4.39167	-1.51171E-002	-1.65682E-002	5.74799E-004	...........
	17	4.65	-1.56024E-002	-1.70062E-002	5.72966E-004	...........
	18	4.90833	-1.60709E-002	-1.74148E-002	5.71999E-004	...........
EOC	QUANT	-0.0160709	Open Circuit (V)
PSTATMODEL	IQUANT	4	Pstat Model
PSTATSECTION	LABEL	REF600-11020	Pstat Section
PSTATSERIALNO	LABEL	11020	Pstat Serial Number
CTRLMODE	IQUANT	1	Control Mode
IESTAB	IQUANT	0	I/E Stability
CASPEED	IQUANT	1	Control Amp Speed
CONVENTION	IQUANT	1	Current Convention
ICHRANGE	IQUANT	2	Ich Range
ICHRANGEMODE	TOGGLE	F	Ich Auto Range
ICHOFFSETENABLE	TOGGLE	T	Ich Offset Enable
ICHOFFSET	QUANT	0	Ich Offset (V)
ICHFILTER	IQUANT	3	Ich Filter
VCHRANGE	IQUANT	2	Vch Range
VCHRANGEMODE	TOGGLE	F	Vch Auto Range
VCHOFFSETENABLE	TOGGLE	T	Vch Offset Enable
VCHOFFSET	QUANT	0	Vch Offset (V)
VCHFILTER	IQUANT	3	Vch Filter
ACHRANGE	IQUANT	2	Ach Range
ACHOFFSETENABLE	TOGGLE	F	Ach Offset Enable
ACHOFFSET	QUANT	0	Ach Offset (V)
ACHFILTER	IQUANT	3	Ach Filter
IERANGELOWERLIMIT	IQUANT	1	I/E Range Lower Limit
IERANGEMODE	TOGGLE	F	I/E AutoRange
IERANGE	IQUANT	6	I/E Range
POSFEEDENABLE	TOGGLE	F	Positive Feedback IR Comp
POSFEEDRESISTANCE	QUANT	0	Positive Feedback Resistance (ohm)
ACHSELECT	IQUANT	0	Ach Select
CABLEID	IQUANT	14	Cable ID
DCCALDATE	LABEL	8/19/2019	DC Calibration Date
ACCALDATE	LABEL	8/19/2019	AC Calibration Date
THERMOSELECT	IQUANT	1	Thermo Select
FRAMEWORKVERSION	QUANT	6.33	Framework Version
INSTRUMENTVERSION	LABEL	3.50	Instrument Version
ZCURVE	TABLE
	Pt	Time	Freq	Zreal	Zimag	Zsig	Zmod	Zphz	Idc	Vdc	IERange
	#	s	Hz	ohm	ohm	V	ohm	°	A	V	#
	0	1	1000078	2380.508	-2075.054	1	3157.953	-41.07819	-1.772909E-006	-0.013867	8
	1	3	794390.6	2785.246	-2121.388	1	3501.125	-37.29478	3.574619E-007	-0.01396	8
	2	4	630984.4	3210.447	-2087.937	1	3829.68	-33.03825	-1.090205E-006	-0.0138513	8
	3	6	501234.4	3587.584	-1996.626	1	4105.761	-29.0976	4.032106E-006	-0.0150418	8
	4	7	398109.4	3951.758	-1858.726	1	4367.064	-25.19015	3.341964E-006	-0.0150772	8
	5	8	316265.6	4246.899	-1709.474	1	4578.04	-21.92592	2.093632E-006	-0.014932	8
	6	10	251203.1	4525.435	-1554.815	1	4785.082	-18.96131	-8.222316E-007	-0.0143537	8
	7	11	199546.9	4701.543	-1389.528	1	4902.581	-16.4649	-7.485708E-007	-0.0143396	8
	8	12	158578.1	4853.955	-1257.709	1	5014.251	-14.52645	1.134328E-006	-0.0145062	8
	9	14	125953.1	5007.871	-1059.392	1	5118.7	-11.94456	5.859363E-007	-0.0156288	7
	10	15	100078.1	5104.042	-976.838	1	5196.678	-10.83454	-6.41814E-008	-0.0144067	7
	11	17	79453.13	5196.648	-923.2053	1	5278.017	-10.07372	-9.684919E-009	-0.0145536	7
	12	18	63140.62	5282.78	-889.1614	1	5357.086	-9.55409	2.306797E-008	-0.0144178	7
	13	19	50203.12	5364.417	-874.4583	1	5435.223	-9.258401	-6.526437E-008	-0.0143827	7
	14	21	39890.62	5446.509	-880.0623	1	5517.152	-9.178681	5.07155E-008	-0.0145702	7
	15	22	31640.63	5531.688	-906.7238	1	5605.508	-9.308827	-1.12367E-008	-0.0144753	7
	16	23	25171.88	5618.799	-950.768	1	5698.672	-9.60416	2.195689E-008	-0.0144173	7
	17	25	20015.62	5713.326	-1013.911	1	5802.595	-10.06318	-8.547265E-009	-0.0144513	7
	18	26	15890.62	5806.742	-1091.642	1	5908.463	-10.64708	-9.169245E-009	-0.0145625	7
	19	27	12609.37	5925.075	-1206.458	1	6046.656	-11.50918	4.75688E-008	-0.0146653	7
	20	29	10078.13	6049.922	-1332.986	1	6195.031	-12.42551	-5.699015E-008	-0.014383	7
	21	30	8015.625	6187.906	-1485.551	1	6363.729	-13.4997	-6.274249E-008	-0.0144267	7
	22	31	6328.125	6349.244	-1675.468	1	6566.589	-14.7825	5.260732E-008	-0.0145718	7
	23	33	5015.625	6528.729	-1895.307	1	6798.271	-16.18815	-5.687574E-008	-0.0143797	7
	24	34	3984.375	6732.929	-2147.536	1	7067.125	-17.69061	-5.754772E-008	-0.0143797	7
	25	36	3170.956	6961.36	-2434.644	1	7374.824	-19.27661	-5.015186E-008	-0.0144898	7
	26	37	2527.573	7223.017	-2767.735	1	7735.136	-20.96597	5.30583E-008	-0.0145704	7
	27	38	1976.103	7544.279	-3182.932	1	8188.235	-22.87488	1.771E-009	-0.0145345	7
	28	40	1577.524	7879.96	-3605.431	1	8665.616	-24.5862	-8.109249E-009	-0.0145678	7
	29	41	1265.625	8231.919	-4089.935	1	9191.956	-26.41996	5.707119E-008	-0.0146066	7
	30	42	998.264	8705.979	-4657.83	1	9873.67	-28.14745	1.318351E-008	-0.0146302	6
	31	44	796.875	9163.142	-5285.31	1	10578.17	-29.97639	2.012623E-008	-0.0148378	6
	32	45	627.7902	9684.16	-6048.51	1	11417.86	-31.98797	1.360129E-009	-0.0145207	6
	33	46	505.5147	10180.23	-6855.969	1	12273.61	-33.95864	-1.098008E-008	-0.0144413	6
	34	48	397.9953	10729.83	-7925.294	1	13339.4	-36.45041	3.947828E-010	-0.014553	6
	35	49	315.5048	11272.87	-9196.672	1	14548.42	-39.20836	3.370487E-010	-0.0145528	6
	36	50	252.4038	11804.51	-10707.53	1	15937.31	-42.21025	1.437026E-009	-0.0145505	6
	37	52	198.6229	12398.9	-12742.84	1	17779.56	-45.78376	7.527516E-010	-0.0145544	6
	38	53	158.3615	13011.12	-15155.98	1	19974.8	-49.35454	8.571416E-010	-0.0145494	6
	39	54	125.558	13709.96	-18257.64	1	22832.09	-53.09651	1.105454E-009	-0.0145497	6
	40	56	100.4464	14487.81	-21979.05	1	26324.42	-56.60855	6.04406E-010	-0.0145503	6
	41	57	79.00281	15521.39	-26938.8	1	31090.39	-60.05066	1.213511E-009	-0.0145496	6
	42	59	63.3446	16930.02	-32381.8	1	36540.47	-62.3983	9.723886E-010	-0.0145506	6
	43	60	49.86702	18416.59	-40292.87	1	44302.21	-65.43637	2.962082E-010	-0.0145487	6
	44	61	39.72458	20617.87	-48873.64	1	53044.6	-67.12703	8.683532E-010	-0.0145454	6
	45	63	31.6723	23214.15	-59417.88	1	63791.7	-68.65976	1.061596E-009	-0.0145486	6
	46	64	24.93351	27065.8	-73132	1	77979.79	-69.69073	5.801938E-010	-0.0145536	6
	47	65	19.86229	31666.48	-88827.98	1	94303.63	-70.37924	5.297341E-010	-0.0145468	6
	48	67	15.83615	37729.54	-106526.6	1	113010.8	-70.49691	1.299876E-009	-0.0145442	5
	49	68	12.40079	45502.79	-131504.5	1	139154.3	-70.91351	3.135451E-010	-0.0145455	5
	50	70	9.93114	55566.74	-158023.2	1	167508.2	-70.62646	4.954256E-010	-0.0145436	5
	51	71	7.944915	67159.7	-188432.2	1	200042.8	-70.38327	9.25348E-010	-0.0145503	5
	52	73	6.317385	82758.3	-226000.2	1	240676.2	-69.88793	6.222499E-010	-0.0145578	5
	53	75	5.008013	102380.7	-270852.8	1	289556.6	-69.29372	3.753003E-010	-0.0145487	5
	54	77	3.945707	126745.3	-324523.2	1	348395.8	-68.66644	3.783664E-010	-0.0145451	5
	55	80	3.158693	154887.8	-383228.3	1	413345.1	-67.99312	4.296504E-010	-0.0145548	5
	56	83	2.504006	190304.9	-454603.5	1	492828.8	-67.28497	3.104843E-010	-0.0145405	5
	57	86	1.998082	231943.9	-534125.6	1	582312.7	-66.52711	4.350098E-010	-0.0145885	5
	58	89	1.584686	281624.6	-630380.4	1	690428.8	-65.92713	3.080103E-010	-0.0145637	5
	59	93	1.266892	341733.2	-737417.1	1	812751.8	-65.13609	3.642193E-010	-0.0145888	5
	60	97	0.999041	415905.9	-868324.9	1	962791	-64.40675	3.181522E-010	-0.0145113	5
