EXPLAIN
TAG	EISPOT
TITLE	LABEL	Potentiostatic EIS	Test &Identifier
DATE	LABEL	10/28/2019	Date
TIME	LABEL	10:04:02	Time
NOTES	NOTES	1	&Notes...
	
PSTAT	PSTAT	REF600-11020	Potentiostat
VDC	POTEN	0.00000E+000	T	DC &Voltage (V)
FREQINIT	QUANT	1.00000E+006	Initial Fre&q. (Hz)
FREQFINAL	QUANT	1.00000E+000	Final Fre&q. (Hz)
PTSPERDEC	QUANT	1.00000E+001	Points/&decade
VAC	QUANT	2.50000E+001	AC &Voltage (mV rms)
AREA	QUANT	1.00000E-002	&Area (cm^2)
CONDIT	TWOPARAM	T	5.00000E+000	0.00000E+000	Conditionin&g	Time(s)	E(V)
DELAY	TWOPARAM	T	5.00000E+000	0.00000E+000	Init. De&lay	Time(s)	Stab.(mV/s)
SPEED	SELECTOR	1	&Optimize for:
ZGUESS	QUANT	1.00000E+005	E&stimated Z (ohms)
OCVCURVE	TABLE	19
	Pt	T	Vf	Vm	Ach	Over
	#	s	V vs. Ref.	V	V	bits
	0	0.258333	6.51777E-003	6.51777E-003	5.59866E-004	...........
	1	0.516667	6.51672E-003	6.46289E-003	5.46633E-004	...........
	2	0.775	6.51124E-003	6.46063E-003	5.55066E-004	...........
	3	1.03333	6.49999E-003	6.51691E-003	5.66832E-004	...........
	4	1.29167	6.49060E-003	6.55782E-003	5.59032E-004	...........
	5	1.55	6.49449E-003	6.57423E-003	5.45199E-004	...........
	6	1.80833	6.51481E-003	6.63865E-003	5.57333E-004	...........
	7	2.06667	6.54623E-003	6.64628E-003	5.68299E-004	...........
	8	2.325	6.58170E-003	6.66596E-003	5.59032E-004	...........
	9	2.58333	6.61486E-003	6.67961E-003	5.56466E-004	...........
	10	2.84167	6.64208E-003	6.71218E-003	5.66366E-004	...........
	11	3.1	6.66457E-003	6.73266E-003	5.68699E-004	...........
	12	3.35833	6.68665E-003	6.79721E-003	5.52766E-004	...........
	13	3.61667	6.71307E-003	6.83182E-003	5.53299E-004	...........
	14	3.875	6.74659E-003	6.87475E-003	5.68399E-004	...........
	15	4.13333	6.78611E-003	6.91784E-003	5.65499E-004	...........
	16	4.39167	6.82844E-003	6.96061E-003	5.53666E-004	...........
	17	4.65	6.87138E-003	7.00118E-003	5.55366E-004	...........
	18	4.90833	6.91419E-003	7.04709E-003	5.69832E-004	...........
EOC	QUANT	0.0069142	Open Circuit (V)
PSTATMODEL	IQUANT	4	Pstat Model
PSTATSECTION	LABEL	REF600-11020	Pstat Section
PSTATSERIALNO	LABEL	11020	Pstat Serial Number
CTRLMODE	IQUANT	1	Control Mode
IESTAB	IQUANT	0	I/E Stability
CASPEED	IQUANT	1	Control Amp Speed
CONVENTION	IQUANT	1	Current Convention
ICHRANGE	IQUANT	2	Ich Range
ICHRANGEMODE	TOGGLE	F	Ich Auto Range
ICHOFFSETENABLE	TOGGLE	T	Ich Offset Enable
ICHOFFSET	QUANT	0	Ich Offset (V)
ICHFILTER	IQUANT	3	Ich Filter
VCHRANGE	IQUANT	2	Vch Range
VCHRANGEMODE	TOGGLE	F	Vch Auto Range
VCHOFFSETENABLE	TOGGLE	T	Vch Offset Enable
VCHOFFSET	QUANT	0	Vch Offset (V)
VCHFILTER	IQUANT	3	Vch Filter
ACHRANGE	IQUANT	2	Ach Range
ACHOFFSETENABLE	TOGGLE	F	Ach Offset Enable
ACHOFFSET	QUANT	0	Ach Offset (V)
ACHFILTER	IQUANT	3	Ach Filter
IERANGELOWERLIMIT	IQUANT	1	I/E Range Lower Limit
IERANGEMODE	TOGGLE	F	I/E AutoRange
IERANGE	IQUANT	5	I/E Range
POSFEEDENABLE	TOGGLE	F	Positive Feedback IR Comp
POSFEEDRESISTANCE	QUANT	0	Positive Feedback Resistance (ohm)
ACHSELECT	IQUANT	0	Ach Select
CABLEID	IQUANT	14	Cable ID
DCCALDATE	LABEL	8/19/2019	DC Calibration Date
ACCALDATE	LABEL	8/19/2019	AC Calibration Date
THERMOSELECT	IQUANT	1	Thermo Select
FRAMEWORKVERSION	QUANT	6.33	Framework Version
INSTRUMENTVERSION	LABEL	3.50	Instrument Version
ZCURVE	TABLE
	Pt	Time	Freq	Zreal	Zimag	Zsig	Zmod	Zphz	Idc	Vdc	IERange
	#	s	Hz	ohm	ohm	V	ohm	°	A	V	#
	0	1	1000078	2392.888	-1385.725	1	2765.167	-30.07519	8.200006E-006	0.0081614	8
	1	3	794390.6	2662.641	-1291.782	1	2959.453	-25.88038	2.619065E-006	0.0079331	8
	2	4	630984.4	2881.372	-1150.267	1	3102.485	-21.76228	4.420877E-006	0.0078563	8
	3	6	501234.4	3049.608	-1010.641	1	3212.71	-18.33522	-1.319929E-007	0.0085065	8
	4	7	398109.4	3172.156	-884.3284	1	3293.115	-15.57732	5.175128E-006	0.0076985	8
	5	9	316265.6	3283.294	-738.0281	1	3365.219	-12.66854	-1.348475E-006	0.0087911	8
	6	10	251203.1	3372.346	-648.8945	1	3434.208	-10.89153	-6.72869E-007	0.0088069	8
	7	12	199546.9	3409.525	-551.6202	1	3453.859	-9.190136	-1.096244E-006	0.0087829	8
	8	13	158578.1	3464.476	-481.9042	1	3497.831	-7.918959	2.711522E-006	0.0080307	8
	9	15	125953.1	3522.78	-374.1261	1	3542.591	-6.0622	2.147338E-007	0.0081201	7
	10	16	100078.1	3537.896	-347.8943	1	3554.96	-5.616048	-2.235539E-008	0.0084963	7
	11	17	79453.13	3560.86	-318.5347	1	3575.079	-5.111755	-1.236342E-008	0.0085614	7
	12	19	63140.62	3584.425	-310.7778	1	3597.872	-4.955283	-4.265972E-008	0.0086492	7
	13	20	50203.12	3610.621	-310.365	1	3623.936	-4.913005	-2.82609E-008	0.008505	7
	14	21	39890.62	3636.083	-317.7244	1	3649.938	-4.993876	7.121987E-008	0.0084876	7
	15	23	31640.63	3663.02	-332.4446	1	3678.075	-5.185784	1.427531E-007	0.0082934	7
	16	24	25171.88	3691.058	-356.434	1	3708.228	-5.515772	1.416201E-007	0.0082939	7
	17	25	20015.62	3723.298	-388.7001	1	3743.533	-5.959902	-1.70203E-008	0.0086433	7
	18	27	15890.62	3755.779	-429.745	1	3780.285	-6.527528	-4.821672E-008	0.0085673	7
	19	28	12609.37	3793.832	-479.6594	1	3824.033	-7.205752	-4.426383E-009	0.0085372	7
	20	29	10078.13	3831.539	-550.0074	1	3870.814	-8.168855	-6.249522E-008	0.0086221	7
	21	31	8015.625	3871.551	-621.2557	1	3921.079	-9.116359	-1.137108E-008	0.0085526	7
	22	32	6328.125	3916.872	-718.6295	1	3982.25	-10.39645	1.467755E-007	0.0082795	7
	23	33	5015.625	3965.394	-837.7954	1	4052.931	-11.92982	1.452971E-007	0.0082823	7
	24	35	3984.375	4018.927	-987.744	1	4138.528	-13.80808	3.530871E-008	0.0084616	7
	25	36	3170.956	4073.336	-1164.295	1	4236.466	-15.9517	7.157146E-008	0.0084819	7
	26	38	2527.573	4138.167	-1383.495	1	4363.311	-18.4861	-4.997634E-008	0.0085368	7
	27	39	1976.103	4214.971	-1679.918	1	4537.411	-21.73024	-6.072001E-008	0.008614	7
	28	40	1577.524	4308.597	-2033.874	1	4764.521	-25.26966	-4.637586E-008	0.0085593	7
	29	42	1265.625	4395.229	-2407.819	1	5011.549	-28.71506	1.430468E-007	0.0082789	7
	30	43	998.264	4521.679	-2932.167	1	5389.173	-32.96215	-6.732421E-008	0.0085926	7
	31	44	796.875	4656.968	-3539.407	1	5849.338	-37.2357	-5.011387E-008	0.0085369	7
	32	46	627.7902	4820.487	-4328.488	1	6478.65	-41.9218	-1.354952E-008	0.0086393	7
	33	47	505.5147	5009.919	-5204.634	1	7224.092	-46.09206	-1.290571E-008	0.0086382	7
	34	48	397.9953	5233.952	-6394.884	1	8263.703	-50.70107	3.997977E-009	0.0085186	7
	35	50	315.5048	5504.373	-7822.145	1	9564.73	-54.86629	4.422881E-009	0.0085166	7
	36	51	252.4038	5823.41	-9510.49	1	11151.75	-58.52028	1.672932E-010	0.0084519	6
	37	52	198.6229	6234.536	-11751.03	1	13302.48	-62.0517	1.084421E-009	0.0084541	6
	38	54	158.3615	6727.542	-14371.03	1	15867.78	-64.91419	2.222006E-011	0.0084563	6
	39	55	125.558	7367.998	-17665.4	1	19140.37	-67.35965	7.038497E-010	0.0084574	6
	40	56	100.4464	8164.628	-21576.91	1	23069.98	-69.27353	-4.921434E-010	0.0084502	6
	41	58	79.00281	9225.021	-26649.61	1	28201.12	-70.90621	1.547149E-009	0.008449	6
	42	59	63.3446	10185.9	-32560.79	1	34116.82	-72.62889	1.029584E-009	0.0084509	6
	43	61	49.86702	12690.38	-39871.54	1	41842.39	-72.34469	1.612392E-009	0.008449	6
	44	62	39.72458	14906.61	-49087	1	51300.49	-73.10765	1.127957E-009	0.0084517	6
	45	63	31.6723	18118	-59587.09	1	62280.68	-73.08762	5.923412E-010	0.0084547	6
	46	65	24.93351	22553.02	-73318.41	1	76708.73	-72.9019	9.831832E-010	0.0084473	6
	47	66	19.86229	27957.29	-88750.57	1	93049.84	-72.51507	1.70004E-009	0.008457	6
	48	67	15.83615	35008.59	-107918.7	1	113455.1	-72.02705	-1.438782E-009	0.008455	5
	49	69	12.40079	45130.85	-129540.4	1	137177	-70.79207	1.009431E-009	0.008461	5
	50	70	9.93114	59491.28	-154763.2	1	165803.7	-68.97314	-2.560097E-010	0.0084582	5
	51	72	7.944915	75055.08	-181914.7	1	196789.8	-67.57974	1.037889E-009	0.0084631	5
	52	73	6.317385	96226.4	-214737.3	1	235311.8	-65.86227	3.85098E-010	0.0084649	5
	53	75	5.008013	122619.7	-250614.9	1	279004.3	-63.92864	4.200988E-010	0.0084645	5
	54	78	3.945707	155108.6	-291235.4	1	329964.7	-61.96075	-6.031504E-011	0.0084546	5
	55	81	3.158693	190156	-331741.6	1	382376.5	-60.17845	3.09943E-010	0.0084757	5
	56	84	2.504006	232550.4	-377956.2	1	443768.6	-58.39667	-3.224277E-010	0.0084525	5
	57	87	1.998082	277968.5	-424710.1	1	507587.6	-56.79566	-4.801132E-012	0.0084118	5
	58	90	1.584686	326901.6	-478021.9	1	579111.1	-55.63321	-5.660614E-011	0.0084649	5
	59	93	1.266892	379762.2	-535619.1	1	656587.4	-54.66277	7.559802E-012	0.0084164	5
	60	98	0.999041	438016.9	-605519.4	1	747337	-54.11901	7.486457E-011	0.0084978	5
