EXPLAIN
TAG	EISPOT
TITLE	LABEL	Potentiostatic EIS	Test &Identifier
DATE	LABEL	10/14/2019	Date
TIME	LABEL	10:21:42	Time
NOTES	NOTES	1	&Notes...
	
PSTAT	PSTAT	REF600-11020	Potentiostat
VDC	POTEN	0.00000E+000	T	DC &Voltage (V)
FREQINIT	QUANT	1.00000E+006	Initial Fre&q. (Hz)
FREQFINAL	QUANT	1.00000E+000	Final Fre&q. (Hz)
PTSPERDEC	QUANT	1.00000E+001	Points/&decade
VAC	QUANT	2.50000E+001	AC &Voltage (mV rms)
AREA	QUANT	1.00000E-002	&Area (cm^2)
CONDIT	TWOPARAM	T	5.00000E+000	0.00000E+000	Conditionin&g	Time(s)	E(V)
DELAY	TWOPARAM	T	5.00000E+000	0.00000E+000	Init. De&lay	Time(s)	Stab.(mV/s)
SPEED	SELECTOR	1	&Optimize for:
ZGUESS	QUANT	1.00000E+004	E&stimated Z (ohms)
OCVCURVE	TABLE	19
	Pt	T	Vf	Vm	Ach	Over
	#	s	V vs. Ref.	V	V	bits
	0	0.258333	4.85050E-003	4.85050E-003	5.74032E-004	...........
	1	0.516667	4.84769E-003	4.70348E-003	5.75299E-004	...........
	2	0.775	4.83077E-003	4.58119E-003	5.74499E-004	...........
	3	1.03333	4.78417E-003	4.47368E-003	5.73799E-004	...........
	4	1.29167	4.70394E-003	4.38147E-003	5.80565E-004	...........
	5	1.55	4.60267E-003	4.29877E-003	5.83332E-004	...........
	6	1.80833	4.49674E-003	4.18028E-003	5.78399E-004	...........
	7	2.06667	4.39540E-003	4.16156E-003	5.79666E-004	...........
	8	2.325	4.30324E-003	4.09592E-003	5.73932E-004	...........
	9	2.58333	4.22267E-003	3.96328E-003	5.74366E-004	...........
	10	2.84167	4.14917E-003	3.92906E-003	5.75932E-004	...........
	11	3.1	4.07986E-003	4.08523E-003	5.76132E-004	...........
	12	3.35833	4.02720E-003	3.96012E-003	5.77099E-004	...........
	13	3.61667	4.00086E-003	3.91949E-003	5.81699E-004	...........
	14	3.875	3.98622E-003	3.87759E-003	5.76932E-004	...........
	15	4.13333	3.96312E-003	3.84586E-003	5.74966E-004	...........
	16	4.39167	3.92821E-003	3.80932E-003	5.77866E-004	...........
	17	4.65	3.88879E-003	3.78520E-003	5.75066E-004	...........
	18	4.90833	3.85094E-003	3.75226E-003	5.72599E-004	...........
EOC	QUANT	0.0038509	Open Circuit (V)
PSTATMODEL	IQUANT	4	Pstat Model
PSTATSECTION	LABEL	REF600-11020	Pstat Section
PSTATSERIALNO	LABEL	11020	Pstat Serial Number
CTRLMODE	IQUANT	1	Control Mode
IESTAB	IQUANT	0	I/E Stability
CASPEED	IQUANT	1	Control Amp Speed
CONVENTION	IQUANT	1	Current Convention
ICHRANGE	IQUANT	2	Ich Range
ICHRANGEMODE	TOGGLE	F	Ich Auto Range
ICHOFFSETENABLE	TOGGLE	T	Ich Offset Enable
ICHOFFSET	QUANT	0	Ich Offset (V)
ICHFILTER	IQUANT	3	Ich Filter
VCHRANGE	IQUANT	2	Vch Range
VCHRANGEMODE	TOGGLE	F	Vch Auto Range
VCHOFFSETENABLE	TOGGLE	T	Vch Offset Enable
VCHOFFSET	QUANT	0	Vch Offset (V)
VCHFILTER	IQUANT	3	Vch Filter
ACHRANGE	IQUANT	2	Ach Range
ACHOFFSETENABLE	TOGGLE	F	Ach Offset Enable
ACHOFFSET	QUANT	0	Ach Offset (V)
ACHFILTER	IQUANT	3	Ach Filter
IERANGELOWERLIMIT	IQUANT	1	I/E Range Lower Limit
IERANGEMODE	TOGGLE	F	I/E AutoRange
IERANGE	IQUANT	5	I/E Range
POSFEEDENABLE	TOGGLE	F	Positive Feedback IR Comp
POSFEEDRESISTANCE	QUANT	0	Positive Feedback Resistance (ohm)
ACHSELECT	IQUANT	0	Ach Select
CABLEID	IQUANT	14	Cable ID
DCCALDATE	LABEL	8/19/2019	DC Calibration Date
ACCALDATE	LABEL	8/19/2019	AC Calibration Date
THERMOSELECT	IQUANT	1	Thermo Select
FRAMEWORKVERSION	QUANT	6.33	Framework Version
INSTRUMENTVERSION	LABEL	3.50	Instrument Version
ZCURVE	TABLE
	Pt	Time	Freq	Zreal	Zimag	Zsig	Zmod	Zphz	Idc	Vdc	IERange
	#	s	Hz	ohm	ohm	V	ohm	°	A	V	#
	0	1	1000078	2293.176	-1623.901	1	2809.93	-35.30403	-2.360161E-006	0.0061454	8
	1	3	794390.6	2625.812	-1553.855	1	3051.123	-30.61543	2.162E-006	0.0052001	8
	2	4	630984.4	2919.461	-1451.401	1	3260.34	-26.43413	2.514008E-006	0.004849	8
	3	6	501234.4	3166.65	-1296.258	1	3421.689	-22.26158	-3.396147E-006	0.0059938	8
	4	7	398109.4	3363.195	-1146.73	1	3553.319	-18.82756	-1.941042E-007	0.0054946	8
	5	8	316265.6	3507.972	-981.067	1	3642.576	-15.62459	-9.959621E-007	0.0055108	8
	6	10	251203.1	3631.148	-856.8463	1	3730.874	-13.27727	-8.326246E-007	0.0056138	8
	7	11	199546.9	3709.649	-719.7363	1	3778.824	-10.97996	-7.446909E-007	0.0055966	8
	8	12	158578.1	3779.185	-625.0923	1	3830.532	-9.391918	-4.269785E-007	0.0053249	8
	9	14	125953.1	3845.555	-499.7306	1	3877.889	-7.404106	4.892464E-007	0.0042304	7
	10	15	100078.1	3869.282	-446.4206	1	3894.95	-6.581433	-1.360111E-008	0.0052596	7
	11	16	79453.13	3902.061	-409.7939	1	3923.52	-5.995219	3.712927E-008	0.005247	7
	12	18	63140.62	3931.928	-384.8662	1	3950.719	-5.590435	-1.297757E-008	0.0054148	7
	13	19	50203.12	3960.531	-370.9489	1	3977.865	-5.350793	-1.258373E-008	0.00525	7
	14	20	39890.62	3988.966	-367.0845	1	4005.821	-5.257833	-4.796357E-008	0.005426	7
	15	22	31640.63	4017.624	-372.4352	1	4034.849	-5.296203	-6.907273E-008	0.0053885	7
	16	23	25171.88	4047.075	-388.9694	1	4065.724	-5.489906	-1.243375E-008	0.0054067	7
	17	24	20015.62	4079.73	-413.0389	1	4100.585	-5.781025	-1.379487E-008	0.005244	7
	18	26	15890.62	4112.858	-451.7929	1	4137.599	-6.268744	-1.335574E-008	0.0054043	7
	19	27	12609.37	4149.609	-500.3643	1	4179.667	-6.875592	-4.848242E-008	0.0054264	7
	20	28	10078.13	4185.984	-560.4697	1	4223.338	-7.626091	3.824037E-008	0.0051494	7
	21	30	8015.625	4218.51	-633.9822	1	4265.883	-8.546781	3.87873E-008	0.0051494	7
	22	31	6328.125	4271.428	-737.6726	1	4334.658	-9.79829	-1.314787E-008	0.0053213	7
	23	32	5015.625	4319.186	-860.4072	1	4404.051	-11.26618	6.384071E-008	0.0051676	7
	24	34	3984.375	4383.04	-1020.142	1	4500.192	-13.10219	-1.833607E-008	0.0052526	7
	25	35	3170.956	4431.895	-1195.672	1	4590.351	-15.09825	-3.500243E-008	0.0052841	7
	26	37	2527.573	4497.891	-1419.306	1	4716.508	-17.51304	-4.123457E-008	0.0052936	7
	27	38	1976.103	4580.677	-1723.267	1	4894.104	-20.61648	-1.230872E-008	0.0052345	7
	28	39	1577.524	4641.5	-2072.989	1	5083.385	-24.06652	-4.807713E-009	0.0053148	7
	29	41	1265.625	4773.455	-2466.953	1	5373.242	-27.33022	-1.048504E-008	0.0054015	7
	30	42	998.264	4903.2	-2996.768	1	5746.476	-31.4327	-1.071579E-008	0.0052375	7
	31	43	796.875	5050.2	-3616.099	1	6211.336	-35.60383	1.288543E-007	0.0050725	7
	32	45	627.7902	5232.681	-4412.495	1	6844.784	-40.13949	-3.423202E-008	0.0052863	7
	33	46	505.5147	5419.791	-5296.226	1	7577.872	-44.33936	-4.73185E-008	0.0054228	7
	34	47	397.9953	5673.714	-6490.941	1	8621.099	-48.84338	4.482057E-009	0.00528	7
	35	49	315.5048	5960.662	-7923.37	1	9915.1	-53.04627	4.824339E-009	0.0052822	7
	36	50	252.4038	6294.311	-9614.32	1	11491.45	-56.78799	7.919722E-010	0.005219	6
	37	51	198.6229	6728.673	-11857.13	1	13633.29	-60.42599	1.105931E-009	0.0052211	6
	38	53	158.3615	7240.055	-14477.27	1	16186.72	-63.43045	1.277521E-009	0.0052172	6
	39	54	125.558	7896.712	-17776.58	1	19451.61	-66.04826	1.012567E-009	0.0052119	6
	40	55	100.4464	8729.018	-21677.31	1	23368.82	-68.06635	1.245353E-009	0.0052202	6
	41	57	79.00281	9823.89	-26752.44	1	28499.16	-69.83601	1.032505E-009	0.0052154	6
	42	58	63.3446	10924.98	-32672.68	1	34450.82	-71.51128	9.892662E-010	0.0052167	6
	43	60	49.86702	13146.17	-39952.06	1	42059.35	-71.78629	1.324465E-009	0.0052127	6
	44	61	39.72458	15581.87	-49047.42	1	51463.04	-72.37547	1.121119E-009	0.0052165	6
	45	62	31.6723	18699.88	-59452.28	1	62323.82	-72.53976	5.778294E-010	0.0052209	6
	46	64	24.93351	23093.88	-73019.66	1	76584.58	-72.44943	9.257037E-011	0.0052187	6
	47	65	19.86229	28502.62	-88531.7	1	93006.78	-72.15413	1.034992E-009	0.0052229	6
	48	66	15.83615	35894.57	-106147.5	1	112052.3	-71.31665	6.916871E-010	0.0052204	5
	49	68	12.40079	46243.01	-130441.6	1	138396	-70.48002	-9.712173E-011	0.0052272	5
	50	69	9.93114	58016.23	-154353.3	1	164896.4	-69.40044	-1.628161E-010	0.0052291	5
	51	71	7.944915	72812.38	-183363.9	1	197291.6	-68.34236	6.226332E-010	0.0052238	5
	52	72	6.317385	92797.04	-216320.2	1	235384.2	-66.78163	8.005901E-011	0.0052403	5
	53	74	5.008013	118154.5	-254070.7	1	280200.7	-65.05941	4.113187E-010	0.0052255	5
	54	77	3.945707	150015.3	-297331.3	1	333032.2	-63.22726	2.220686E-010	0.0052234	5
	55	80	3.158693	185663.8	-340776.2	1	388071.5	-61.41729	2.749641E-010	0.0052414	5
	56	83	2.504006	228706.1	-390596.4	1	452627.9	-59.64972	-9.309886E-011	0.0052154	5
	57	86	1.998082	275814.9	-442293.5	1	521246	-58.05227	-1.440726E-010	0.0052143	5
	58	89	1.584686	329910.8	-497942.9	1	597317.6	-56.47364	3.631559E-011	0.0052751	5
	59	92	1.266892	385388.8	-560151.3	1	679922.1	-55.4717	-9.869836E-011	0.0052041	5
	60	97	0.999041	449877.7	-632720.4	1	776353.7	-54.58636	2.411967E-010	0.0052637	5
