EXPLAIN
TAG	EISPOT
TITLE	LABEL	Potentiostatic EIS	Test &Identifier
DATE	LABEL	9/26/2019	Date
TIME	LABEL	10:06:35	Time
NOTES	NOTES	2	&Notes...
	
	
PSTAT	PSTAT	REF600-11020	Potentiostat
VDC	POTEN	0.00000E+000	T	DC &Voltage (V)
FREQINIT	QUANT	1.00000E+006	Initial Fre&q. (Hz)
FREQFINAL	QUANT	1.00000E+000	Final Fre&q. (Hz)
PTSPERDEC	QUANT	1.00000E+001	Points/&decade
VAC	QUANT	2.50000E+001	AC &Voltage (mV rms)
AREA	QUANT	1.00000E-002	&Area (cm^2)
CONDIT	TWOPARAM	T	5.00000E+000	0.00000E+000	Conditionin&g	Time(s)	E(V)
DELAY	TWOPARAM	T	5.00000E+000	0.00000E+000	Init. De&lay	Time(s)	Stab.(mV/s)
SPEED	SELECTOR	1	&Optimize for:
ZGUESS	QUANT	1.00000E+004	E&stimated Z (ohms)
OCVCURVE	TABLE	19
	Pt	T	Vf	Vm	Ach	Over
	#	s	V vs. Ref.	V	V	bits
	0	0.258333	7.12263E-002	7.12263E-002	5.58399E-004	...........
	1	0.516667	7.13078E-002	7.54929E-002	5.66032E-004	...........
	2	0.775	7.18052E-002	7.93733E-002	5.67966E-004	...........
	3	1.03333	7.32016E-002	8.30846E-002	5.73799E-004	...........
	4	1.29167	7.56764E-002	8.65257E-002	5.73599E-004	...........
	5	1.55	7.89272E-002	8.96276E-002	5.69732E-004	...........
	6	1.80833	8.24694E-002	9.26174E-002	5.64866E-004	...........
	7	2.06667	8.59485E-002	9.54051E-002	5.68299E-004	...........
	8	2.325	8.92137E-002	9.80558E-002	5.68066E-004	...........
	9	2.58333	9.22486E-002	1.00578E-001	5.65266E-004	...........
	10	2.84167	9.50869E-002	1.03046E-001	5.64799E-004	...........
	11	3.1	9.77682E-002	1.05352E-001	5.66899E-004	...........
	12	3.35833	1.00320E-001	1.07471E-001	5.63099E-004	...........
	13	3.61667	1.02750E-001	1.09516E-001	5.66566E-004	...........
	14	3.875	1.05051E-001	1.11419E-001	5.63332E-004	...........
	15	4.13333	1.07223E-001	1.13304E-001	5.66399E-004	...........
	16	4.39167	1.09278E-001	1.15144E-001	5.72966E-004	...........
	17	4.65	1.11239E-001	1.16883E-001	5.68199E-004	...........
	18	4.90833	1.13124E-001	1.18562E-001	5.68499E-004	...........
EOC	QUANT	0.1131239	Open Circuit (V)
PSTATMODEL	IQUANT	4	Pstat Model
PSTATSECTION	LABEL	REF600-11020	Pstat Section
PSTATSERIALNO	LABEL	11020	Pstat Serial Number
CTRLMODE	IQUANT	1	Control Mode
IESTAB	IQUANT	0	I/E Stability
CASPEED	IQUANT	1	Control Amp Speed
CONVENTION	IQUANT	1	Current Convention
ICHRANGE	IQUANT	2	Ich Range
ICHRANGEMODE	TOGGLE	F	Ich Auto Range
ICHOFFSETENABLE	TOGGLE	T	Ich Offset Enable
ICHOFFSET	QUANT	0	Ich Offset (V)
ICHFILTER	IQUANT	3	Ich Filter
VCHRANGE	IQUANT	2	Vch Range
VCHRANGEMODE	TOGGLE	F	Vch Auto Range
VCHOFFSETENABLE	TOGGLE	T	Vch Offset Enable
VCHOFFSET	QUANT	0	Vch Offset (V)
VCHFILTER	IQUANT	3	Vch Filter
ACHRANGE	IQUANT	2	Ach Range
ACHOFFSETENABLE	TOGGLE	F	Ach Offset Enable
ACHOFFSET	QUANT	0	Ach Offset (V)
ACHFILTER	IQUANT	3	Ach Filter
IERANGELOWERLIMIT	IQUANT	1	I/E Range Lower Limit
IERANGEMODE	TOGGLE	F	I/E AutoRange
IERANGE	IQUANT	7	I/E Range
POSFEEDENABLE	TOGGLE	F	Positive Feedback IR Comp
POSFEEDRESISTANCE	QUANT	0	Positive Feedback Resistance (ohm)
ACHSELECT	IQUANT	0	Ach Select
CABLEID	IQUANT	14	Cable ID
DCCALDATE	LABEL	8/19/2019	DC Calibration Date
ACCALDATE	LABEL	8/19/2019	AC Calibration Date
THERMOSELECT	IQUANT	1	Thermo Select
FRAMEWORKVERSION	QUANT	6.33	Framework Version
INSTRUMENTVERSION	LABEL	3.50	Instrument Version
ZCURVE	TABLE
	Pt	Time	Freq	Zreal	Zimag	Zsig	Zmod	Zphz	Idc	Vdc	IERange
	#	s	Hz	ohm	ohm	V	ohm	°	A	V	#
	0	1	1000078	2034.52	-2334.084	1	3096.323	-48.92274	-1.862995E-006	0.1145788	8
	1	3	794390.6	2408.227	-2546.52	1	3504.899	-46.59878	5.048103E-007	0.1149719	8
	2	4	630984.4	2891.24	-2728.453	1	3975.39	-43.34076	-3.798673E-006	0.1152499	8
	3	6	501234.4	3336.881	-2885.613	1	4411.523	-40.85205	2.998835E-006	0.1140912	8
	4	7	398109.4	3889.121	-3008.016	1	4916.647	-37.71993	-6.668752E-007	0.114547	8
	5	9	316265.6	4483.856	-3062.671	1	5430.002	-34.3348	3.782106E-006	0.1138531	8
	6	10	251203.1	5032.717	-3085.918	1	5903.485	-31.51543	-1.162644E-006	0.1147675	8
	7	12	199546.9	5602.379	-2932.45	1	6323.441	-27.62888	3.115921E-006	0.1139026	8
	8	14	158578.1	6121.403	-2858.282	1	6755.838	-25.0294	-3.094312E-006	0.1151921	8
	9	16	125953.1	6631.632	-2601.173	1	7123.527	-21.41696	8.172799E-008	0.1144381	7
	10	17	100078.1	7035.202	-2430.274	1	7443.138	-19.05721	3.294022E-009	0.1144303	7
	11	19	79453.13	7395.469	-2252.372	1	7730.857	-16.9387	8.365615E-008	0.1143215	7
	12	20	63140.62	7694.753	-2083.244	1	7971.771	-15.14885	4.704848E-008	0.1144369	7
	13	22	50203.12	7953.687	-1934.594	1	8185.584	-13.67071	1.004802E-007	0.11443	7
	14	23	39890.62	8180.136	-1807.619	1	8377.477	-12.46078	-3.999249E-009	0.114632	7
	15	25	31640.63	8383.199	-1706.661	1	8555.157	-11.50709	9.885117E-008	0.1144319	7
	16	27	25171.88	8575.098	-1645.62	1	8731.573	-10.86337	9.921115E-008	0.1144267	7
	17	28	20015.62	8730.094	-1603.754	1	8876.18	-10.40941	-6.211771E-008	0.1145405	7
	18	30	15890.62	8895.549	-1600.944	1	9038.463	-10.20239	-4.23254E-008	0.1145298	7
	19	31	12609.37	9112.191	-1519.418	1	9238.001	-9.466722	5.793711E-009	0.1142611	6
	20	33	10078.13	9262.184	-1601.223	1	9399.572	-9.8082	-1.141238E-008	0.1145926	6
	21	34	8015.625	9417.554	-1719.938	1	9573.32	-10.34992	-9.256155E-009	0.1144794	6
	22	36	6328.125	9594.43	-1882.268	1	9777.32	-11.09951	-4.012375E-009	0.1145587	6
	23	38	5015.625	9784.39	-2087.102	1	10004.51	-12.04127	-6.564032E-009	0.1144189	6
	24	39	3984.375	9988.37	-2333.041	1	10257.22	-13.1472	-4.443371E-009	0.1145585	6
	25	41	3170.956	10216.49	-2629.416	1	10549.43	-14.43297	-3.603651E-009	0.11442	6
	26	42	2527.573	10469.73	-2983.076	1	10886.41	-15.90352	-1.214256E-008	0.114521	6
	27	44	1976.103	10785.43	-3438.668	1	11320.33	-17.6836	-3.90715E-009	0.1145547	6
	28	46	1577.524	11109.82	-3929.06	1	11784.12	-19.47648	-4.572105E-011	0.1145028	6
	29	47	1265.625	11477.49	-4462.348	1	12314.44	-21.24564	-3.948462E-011	0.1145573	6
	30	49	998.264	11890.25	-5179.682	1	12969.47	-23.53911	-6.308238E-009	0.1144083	6
	31	50	796.875	12337.12	-5950.703	1	13697.27	-25.74994	-1.258798E-008	0.1145155	6
	32	51	627.7902	12847.92	-6926.864	1	14596.25	-28.33102	-9.382967E-009	0.11452	6
	33	53	505.5147	13338.85	-7964.637	1	15535.78	-30.84145	-5.217513E-009	0.1143391	6
	34	54	397.9953	13917.05	-9359.997	1	16771.81	-33.92305	-1.925986E-009	0.1144566	6
	35	55	315.5048	14509.13	-11019.9	1	18219.58	-37.21723	-2.573801E-009	0.1144549	6
	36	57	252.4038	15108.3	-12972.3	1	19913.35	-40.65008	-9.609475E-010	0.1144464	6
	37	58	198.6229	15804.82	-15585.91	1	22197.14	-44.60044	-2.240412E-009	0.114454	6
	38	59	158.3615	16531.32	-18657.02	1	24927.27	-48.45699	-2.246616E-009	0.1144426	6
	39	61	125.558	17400.18	-22582.85	1	28508.79	-52.3856	-1.551854E-009	0.1144465	6
	40	62	100.4464	18425.35	-27297.36	1	32933.86	-55.98118	-1.632719E-009	0.1144481	6
	41	64	79.00281	19568.93	-33408.37	1	38717.73	-59.6404	-2.018669E-009	0.1144447	6
	42	65	63.3446	20580.01	-40256.75	1	45212.19	-62.92303	-1.81984E-009	0.1144432	6
	43	66	49.86702	23717.02	-49848.72	1	55203.18	-64.55584	-2.427964E-009	0.1144485	6
	44	68	39.72458	25932.04	-60977.7	1	66262.73	-66.96136	-1.331926E-009	0.1144523	6
	45	69	31.6723	29170.76	-74211.06	1	79738.41	-68.54129	-1.740053E-009	0.1144488	6
	46	71	24.93351	33595.76	-91519.11	1	97490.6	-69.84232	-1.55314E-009	0.1144457	6
	47	72	19.86229	39063.91	-111312.4	1	117968	-70.66202	-1.860399E-009	0.114455	5
	48	74	15.83615	46375.16	-134092.5	1	141885.4	-70.92234	-1.229481E-009	0.1144566	5
	49	75	12.40079	56787.78	-167014.7	1	176405.1	-71.22111	-1.23964E-009	0.1144536	5
	50	77	9.93114	69215.97	-199790	1	211440	-70.89168	-2.017259E-009	0.1144527	5
	51	78	7.944915	85499.09	-239941.1	1	254719.2	-70.38731	-1.383733E-009	0.114455	5
	52	80	6.317385	106395	-288761.4	1	307738.6	-69.77354	-1.744524E-009	0.1144662	5
	53	82	5.008013	134175.3	-346189.8	1	371282.1	-68.8148	-1.540879E-009	0.1144528	5
	54	84	3.945707	170613.5	-414484.8	1	448226.1	-67.62656	-1.584726E-009	0.1144549	5
	55	87	3.158693	213940.3	-488250.4	1	533065.6	-66.33805	-1.709752E-009	0.1144512	5
	56	90	2.504006	268844.7	-575033.7	1	634776.5	-64.94257	-1.37257E-009	0.1144494	5
	57	93	1.998082	335730.4	-667976	1	747600.8	-63.31551	-1.541238E-009	0.1144933	5
	58	96	1.584686	419207	-773139.3	1	879476.5	-61.53283	-1.521288E-009	0.1144322	5
	59	100	1.266892	516856.8	-887125.7	1	1026710	-59.77408	-1.468758E-009	0.1144852	5
	60	104	0.999041	640430.4	-1017676	1	1202421	-57.81752	-1.618132E-009	0.1144179	4
