EXPLAIN
TAG	EISPOT
TITLE	LABEL	Potentiostatic IDE	Test &Identifier
DATE	LABEL	9/18/2019	Date
TIME	LABEL	9:40:15	Time
NOTES	NOTES	1	&Notes...
	
PSTAT	PSTAT	REF600-11020	Potentiostat
VDC	POTEN	0.00000E+000	T	DC &Voltage (V)
FREQINIT	QUANT	1.00000E+006	Initial Fre&q. (Hz)
FREQFINAL	QUANT	1.00000E+000	Final Fre&q. (Hz)
PTSPERDEC	QUANT	1.00000E+001	Points/&decade
VAC	QUANT	2.50000E+001	AC &Voltage (mV rms)
AREA	QUANT	1.00000E-002	&Area (cm^2)
CONDIT	TWOPARAM	T	5.00000E+000	0.00000E+000	Conditionin&g	Time(s)	E(V)
DELAY	TWOPARAM	T	5.00000E+000	0.00000E+000	Init. De&lay	Time(s)	Stab.(mV/s)
SPEED	SELECTOR	1	&Optimize for:
ZGUESS	QUANT	1.00000E+007	E&stimated Z (ohms)
OCVCURVE	TABLE	19
	Pt	T	Vf	Vm	Ach	Over
	#	s	V vs. Ref.	V	V	bits
	0	0.258333	1.73605E-002	1.73605E-002	5.54099E-004	...........
	1	0.516667	1.73671E-002	1.77066E-002	5.50533E-004	...........
	2	0.775	1.74076E-002	1.80291E-002	5.50133E-004	...........
	3	1.03333	1.75224E-002	1.83681E-002	5.49133E-004	...........
	4	1.29167	1.77296E-002	1.87006E-002	5.53866E-004	...........
	5	1.55	1.80103E-002	1.90145E-002	5.49899E-004	...........
	6	1.80833	1.83292E-002	1.93262E-002	5.50166E-004	...........
	7	2.06667	1.86577E-002	1.96272E-002	5.49699E-004	...........
	8	2.325	1.89810E-002	1.99255E-002	5.50966E-004	...........
	9	2.58333	1.92946E-002	2.01968E-002	5.48899E-004	...........
	10	2.84167	1.95976E-002	2.04720E-002	5.48833E-004	...........
	11	3.1	1.98899E-002	2.07348E-002	5.44266E-004	...........
	12	3.35833	2.01714E-002	2.09714E-002	5.47599E-004	...........
	13	3.61667	2.04422E-002	2.12255E-002	5.50366E-004	...........
	14	3.875	2.07036E-002	2.15039E-002	5.42933E-004	...........
	15	4.13333	2.09593E-002	2.17127E-002	5.42199E-004	...........
	16	4.39167	2.12110E-002	2.19206E-002	5.47133E-004	...........
	17	4.65	2.14545E-002	2.21363E-002	5.52899E-004	...........
	18	4.90833	2.16855E-002	2.23410E-002	5.45199E-004	...........
EOC	QUANT	0.0216855	Open Circuit (V)
PSTATMODEL	IQUANT	4	Pstat Model
PSTATSECTION	LABEL	REF600-11020	Pstat Section
PSTATSERIALNO	LABEL	11020	Pstat Serial Number
CTRLMODE	IQUANT	1	Control Mode
IESTAB	IQUANT	0	I/E Stability
CASPEED	IQUANT	1	Control Amp Speed
CONVENTION	IQUANT	1	Current Convention
ICHRANGE	IQUANT	2	Ich Range
ICHRANGEMODE	TOGGLE	F	Ich Auto Range
ICHOFFSETENABLE	TOGGLE	T	Ich Offset Enable
ICHOFFSET	QUANT	0	Ich Offset (V)
ICHFILTER	IQUANT	3	Ich Filter
VCHRANGE	IQUANT	2	Vch Range
VCHRANGEMODE	TOGGLE	F	Vch Auto Range
VCHOFFSETENABLE	TOGGLE	T	Vch Offset Enable
VCHOFFSET	QUANT	0	Vch Offset (V)
VCHFILTER	IQUANT	3	Vch Filter
ACHRANGE	IQUANT	2	Ach Range
ACHOFFSETENABLE	TOGGLE	F	Ach Offset Enable
ACHOFFSET	QUANT	0	Ach Offset (V)
ACHFILTER	IQUANT	3	Ach Filter
IERANGELOWERLIMIT	IQUANT	1	I/E Range Lower Limit
IERANGEMODE	TOGGLE	F	I/E AutoRange
IERANGE	IQUANT	3	I/E Range
POSFEEDENABLE	TOGGLE	F	Positive Feedback IR Comp
POSFEEDRESISTANCE	QUANT	0	Positive Feedback Resistance (ohm)
ACHSELECT	IQUANT	0	Ach Select
CABLEID	IQUANT	14	Cable ID
DCCALDATE	LABEL	8/19/2019	DC Calibration Date
ACCALDATE	LABEL	8/19/2019	AC Calibration Date
THERMOSELECT	IQUANT	1	Thermo Select
FRAMEWORKVERSION	QUANT	6.33	Framework Version
INSTRUMENTVERSION	LABEL	3.50	Instrument Version
ZCURVE	TABLE
	Pt	Time	Freq	Zreal	Zimag	Zsig	Zmod	Zphz	Idc	Vdc	IERange
	#	s	Hz	ohm	ohm	V	ohm	°	A	V	#
	0	1	1000078	2423.185	-1838.578	1	3041.742	-37.1892	6.338478E-006	0.0230943	8
	1	3	794390.6	2789.555	-1772.639	1	3305.127	-32.43415	-2.435684E-006	0.0237766	8
	2	4	630984.4	3114.167	-1669.069	1	3533.246	-28.18954	-2.726892E-007	0.0238807	8
	3	5	501234.4	3404.031	-1518.489	1	3727.363	-24.04096	3.582781E-006	0.0227175	8
	4	7	398109.4	3620.098	-1358.109	1	3866.468	-20.56398	-3.366405E-007	0.0233962	8
	5	8	316265.6	3802.952	-1197.488	1	3987.031	-17.47837	-7.43938E-007	0.0235331	8
	6	9	251203.1	3953.178	-1063.021	1	4093.609	-15.05097	-1.006398E-006	0.0235851	8
	7	11	199546.9	4051.545	-958.139	1	4163.298	-13.30529	-9.388632E-007	0.0236661	8
	8	12	158578.1	4152.759	-847.3109	1	4238.318	-11.53209	3.180175E-006	0.0226824	8
	9	13	125953.1	4244.577	-741.5913	1	4308.874	-9.9104	4.828045E-007	0.0222898	7
	10	15	100078.1	4298.666	-697.6921	1	4354.917	-9.218965	-2.368058E-008	0.0233884	7
	11	16	79453.13	4358.983	-673.2408	1	4410.667	-8.779903	-5.512479E-009	0.0233679	7
	12	17	63140.62	4420.563	-663.9337	1	4470.144	-8.54153	-3.983593E-008	0.0233912	7
	13	19	50203.12	4481.195	-670.1735	1	4531.031	-8.505683	-3.877169E-008	0.0234482	7
	14	20	39890.62	4544.48	-690.2627	1	4596.603	-8.636662	-2.99496E-009	0.0233076	7
	15	21	31640.63	4614.444	-725.8147	1	4671.178	-8.938924	5.462073E-008	0.0232866	7
	16	23	25171.88	4687.706	-775.6584	1	4751.445	-9.395406	2.879287E-009	0.0232744	7
	17	24	20015.62	4770.326	-840.138	1	4843.743	-9.98836	-3.870138E-008	0.0233863	7
	18	25	15890.62	4856.629	-923.4169	1	4943.637	-10.76545	6.998375E-008	0.0232318	7
	19	27	12609.37	4959.43	-1016.534	1	5062.537	-11.58347	5.062392E-009	0.0233815	7
	20	28	10078.13	5066.781	-1129.725	1	5191.199	-12.56946	-4.587364E-009	0.0233321	7
	21	29	8015.625	5192.83	-1261.421	1	5343.844	-13.6536	-3.35752E-009	0.0233332	7
	22	31	6328.125	5336.405	-1420.86	1	5522.324	-14.90955	5.588339E-008	0.0232848	7
	23	32	5015.625	5497.704	-1600.19	1	5725.85	-16.22844	3.680265E-008	0.0232658	7
	24	33	3984.375	5677.653	-1806.454	1	5958.105	-17.64946	-3.674175E-008	0.023444	7
	25	35	3170.956	5879.084	-2038.877	1	6222.592	-19.12664	-8.926262E-009	0.0233414	7
	26	36	2527.573	6102.347	-2297.001	1	6520.342	-20.62698	5.287217E-008	0.0232693	7
	27	37	1976.103	6370.649	-2614.597	1	6886.312	-22.31388	-1.374102E-009	0.0233529	7
	28	39	1577.524	6638.013	-2939.314	1	7259.668	-23.88378	5.954531E-009	0.023276	7
	29	40	1265.625	6907.699	-3299.45	1	7655.238	-25.53139	4.325054E-008	0.0232247	7
	30	41	998.264	7214.268	-3761.112	1	8135.824	-27.53499	5.37956E-008	0.0232305	7
	31	43	796.875	7493.829	-4278.386	1	8629.141	-29.72296	3.6141E-008	0.0232688	7
	32	44	627.7902	7788.593	-4962.268	1	9235.058	-32.50203	6.75065E-009	0.023281	7
	33	45	505.5147	8046.793	-5735.17	1	9881.45	-35.47852	-4.119809E-009	0.0232926	6
	34	47	397.9953	8330.341	-6812.187	1	10761.06	-39.27479	4.213075E-010	0.0232836	6
	35	48	315.5048	8615.932	-8146.12	1	11857.21	-43.39452	9.117745E-010	0.0232801	6
	36	49	252.4038	8919.76	-9761.08	1	13222.74	-47.57867	9.832437E-010	0.0232781	6
	37	51	198.6229	9292.84	-11945.05	1	15134.11	-52.11831	6.259853E-010	0.0232832	6
	38	52	158.3615	9717.79	-14536.79	1	17485.82	-56.23742	5.169297E-010	0.0232761	6
	39	54	125.558	10263.41	-17836.92	1	20578.95	-60.08375	9.101251E-010	0.023279	6
	40	55	100.4464	10931.91	-21750.85	1	24343.5	-63.31604	2.590666E-010	0.0232807	6
	41	56	79.00281	11873.46	-26969.12	1	29467.14	-66.23797	1.005417E-009	0.0232774	6
	42	58	63.3446	12816.77	-33068.07	1	35465.01	-68.81429	8.229935E-010	0.023279	6
	43	59	49.86702	14588.1	-40671.76	1	43208.85	-70.26817	2.852719E-010	0.0232763	6
	44	60	39.72458	16530.06	-50026.68	1	52686.92	-71.71516	5.935131E-010	0.0232807	6
	45	62	31.6723	19001.79	-61093.39	1	63980.24	-72.72281	6.197987E-010	0.0232802	6
	46	63	24.93351	22564.5	-75383.38	1	78688.06	-73.33598	2.992203E-010	0.0232778	6
	47	64	19.86229	27034.11	-91881.25	1	95775.8	-73.6046	6.203708E-010	0.0232778	6
	48	66	15.83615	32894.35	-111202	1	115965.2	-73.52141	9.871282E-010	0.0232846	5
	49	67	12.40079	40362.72	-137602.7	1	143400.3	-73.65211	2.068992E-010	0.02329	5
	50	68	9.93114	49073.56	-165311.9	1	172442	-73.46625	4.513559E-011	0.0232794	5
	51	70	7.944915	60739.43	-199065.9	1	208126.2	-73.03188	1.22568E-010	0.0232828	5
	52	72	6.317385	75095.57	-239528.3	1	251024.2	-72.59304	-2.499565E-011	0.0232915	5
	53	74	5.008013	93709.03	-288712.2	1	303539.3	-72.01781	1.824896E-010	0.0232911	5
	54	76	3.945707	117172.7	-348645.2	1	367808.3	-71.42352	7.85081E-011	0.0232776	5
	55	79	3.158693	144209.3	-415102.9	1	439439.1	-70.84246	2.115937E-010	0.0232953	5
	56	82	2.504006	179025.1	-496527.8	1	527816.1	-70.17303	2.146945E-011	0.023294	5
	57	85	1.998082	219779.9	-587983.4	1	627716.3	-69.50497	1.9441E-010	0.0232589	5
	58	88	1.584686	270737	-702327.9	1	752703.8	-68.91909	8.51284E-011	0.0232373	5
	59	91	1.266892	329810.1	-826859.9	1	890209	-68.25439	1.814396E-010	0.0232763	5
	60	96	0.999041	407358.4	-989124	1	1069722	-67.61629	-2.726136E-011	0.0232769	4
