EXPLAIN
TAG	EISPOT
TITLE	LABEL	Potentiostatic EIS	Test &Identifier
DATE	LABEL	11/22/2019	Date
TIME	LABEL	10:56:08	Time
NOTES	NOTES	4	&Notes...
	
	
	
	
PSTAT	PSTAT	REF600-11020	Potentiostat
VDC	POTEN	0.00000E+000	T	DC &Voltage (V)
FREQINIT	QUANT	1.00000E+006	Initial Fre&q. (Hz)
FREQFINAL	QUANT	1.00000E+000	Final Fre&q. (Hz)
PTSPERDEC	QUANT	1.00000E+001	Points/&decade
VAC	QUANT	2.50000E+001	AC &Voltage (mV rms)
AREA	QUANT	1.00000E-002	&Area (cm^2)
CONDIT	TWOPARAM	T	5.00000E+000	0.00000E+000	Conditionin&g	Time(s)	E(V)
DELAY	TWOPARAM	T	5.00000E+000	0.00000E+000	Init. De&lay	Time(s)	Stab.(mV/s)
SPEED	SELECTOR	0	&Optimize for:
ZGUESS	QUANT	1.00000E+005	E&stimated Z (ohms)
OCVCURVE	TABLE	19
	Pt	T	Vf	Vm	Ach	Over
	#	s	V vs. Ref.	V	V	bits
	0	0.258333	2.57605E-002	2.57605E-002	5.59066E-004	...........
	1	0.516667	2.57865E-002	2.71182E-002	5.63699E-004	...........
	2	0.775	2.59458E-002	2.84059E-002	5.62132E-004	...........
	3	1.03333	2.63960E-002	2.96182E-002	5.58032E-004	...........
	4	1.29167	2.71996E-002	3.07838E-002	5.58432E-004	...........
	5	1.55	2.82647E-002	3.18815E-002	5.68366E-004	...........
	6	1.80833	2.94410E-002	3.29368E-002	5.66232E-004	...........
	7	2.06667	3.06183E-002	3.39545E-002	5.65899E-004	...........
	8	2.325	3.17480E-002	3.49099E-002	5.67232E-004	...........
	9	2.58333	3.28200E-002	3.58390E-002	5.67032E-004	...........
	10	2.84167	3.38388E-002	3.67504E-002	5.67799E-004	...........
	11	3.1	3.48115E-002	3.75487E-002	5.66299E-004	...........
	12	3.35833	3.57415E-002	3.83806E-002	5.65866E-004	...........
	13	3.61667	3.66304E-002	3.92200E-002	5.68332E-004	...........
	14	3.875	3.74862E-002	4.00274E-002	5.63499E-004	...........
	15	4.13333	3.83174E-002	4.06290E-002	5.62732E-004	...........
	16	4.39167	3.91202E-002	4.14098E-002	5.59932E-004	...........
	17	4.65	3.98839E-002	4.19980E-002	5.69766E-004	...........
	18	4.90833	4.06063E-002	4.26094E-002	5.68466E-004	...........
EOC	QUANT	0.0406063	Open Circuit (V)
PSTATMODEL	IQUANT	4	Pstat Model
PSTATSECTION	LABEL	REF600-11020	Pstat Section
PSTATSERIALNO	LABEL	11020	Pstat Serial Number
CTRLMODE	IQUANT	1	Control Mode
IESTAB	IQUANT	0	I/E Stability
CASPEED	IQUANT	1	Control Amp Speed
CONVENTION	IQUANT	1	Current Convention
ICHRANGE	IQUANT	2	Ich Range
ICHRANGEMODE	TOGGLE	F	Ich Auto Range
ICHOFFSETENABLE	TOGGLE	T	Ich Offset Enable
ICHOFFSET	QUANT	0	Ich Offset (V)
ICHFILTER	IQUANT	3	Ich Filter
VCHRANGE	IQUANT	2	Vch Range
VCHRANGEMODE	TOGGLE	F	Vch Auto Range
VCHOFFSETENABLE	TOGGLE	T	Vch Offset Enable
VCHOFFSET	QUANT	0	Vch Offset (V)
VCHFILTER	IQUANT	3	Vch Filter
ACHRANGE	IQUANT	2	Ach Range
ACHOFFSETENABLE	TOGGLE	F	Ach Offset Enable
ACHOFFSET	QUANT	0	Ach Offset (V)
ACHFILTER	IQUANT	3	Ach Filter
IERANGELOWERLIMIT	IQUANT	1	I/E Range Lower Limit
IERANGEMODE	TOGGLE	F	I/E AutoRange
IERANGE	IQUANT	5	I/E Range
POSFEEDENABLE	TOGGLE	F	Positive Feedback IR Comp
POSFEEDRESISTANCE	QUANT	0	Positive Feedback Resistance (ohm)
ACHSELECT	IQUANT	0	Ach Select
CABLEID	IQUANT	14	Cable ID
DCCALDATE	LABEL	8/19/2019	DC Calibration Date
ACCALDATE	LABEL	8/19/2019	AC Calibration Date
THERMOSELECT	IQUANT	1	Thermo Select
FRAMEWORKVERSION	QUANT	6.33	Framework Version
INSTRUMENTVERSION	LABEL	3.50	Instrument Version
ZCURVE	TABLE
	Pt	Time	Freq	Zreal	Zimag	Zsig	Zmod	Zphz	Idc	Vdc	IERange
	#	s	Hz	ohm	ohm	V	ohm	°	A	V	#
	0	1	1000078	2099.776	-1744.987	1	2730.208	-39.72776	1.049901E-005	0.0407343	8
	1	1	794390.6	2358.504	-1800.309	1	2967.095	-37.35546	-1.167161E-005	0.0433524	8
	2	2	630984.4	2618.645	-1864.486	1	3214.593	-35.45103	1.096119E-005	0.041184	8
	3	2	501234.4	2880.018	-1934.155	1	3469.216	-33.88442	5.050776E-006	0.0412234	8
	4	2	398109.4	3115.52	-2021.451	1	3713.856	-32.97683	-4.403459E-006	0.0426181	8
	5	2	316265.6	3354.033	-2144.037	1	3980.758	-32.58841	-1.422452E-006	0.0417633	8
	6	3	251203.1	3628.536	-2306.213	1	4299.406	-32.43909	-2.798714E-007	0.0417234	8
	7	3	199546.9	3900.242	-2495.198	1	4630.108	-32.60928	7.278568E-007	0.0423857	8
	8	3	158578.1	4224.062	-2748.102	1	5039.321	-33.04734	1.800452E-006	0.0422928	8
	9	4	125953.1	4698.651	-2943.909	1	5544.72	-32.06893	-1.772778E-006	0.0455876	7
	10	4	100078.1	5159.402	-3234.43	1	6089.414	-32.0836	-1.336066E-006	0.043218	7
	11	4	79453.13	5735.737	-3564.981	1	6753.353	-31.86254	1.025178E-006	0.0401195	7
	12	5	63140.62	6386.809	-3835.807	1	7450.15	-30.9883	7.111653E-007	0.042106	7
	13	5	50203.12	7145.155	-4014.594	1	8195.742	-29.32999	1.022774E-006	0.0401121	7
	14	5	39890.62	7940.596	-4098.074	1	8935.73	-27.29787	7.116648E-007	0.0421026	7
	15	6	31640.63	8715.549	-3973.265	1	9578.5	-24.5074	-1.339939E-006	0.043205	7
	16	6	25171.88	9543.37	-3871.094	1	10298.61	-22.07904	9.386396E-007	0.0416291	7
	17	6	20015.62	10193.72	-3561.278	1	10797.9	-19.25738	7.868924E-007	0.0400456	7
	18	7	15890.62	10716.08	-3202.11	1	11184.27	-16.63686	-1.17446E-006	0.0426031	7
	19	7	12609.37	11192.05	-2881.286	1	11556.98	-14.43676	4.603658E-008	0.040557	7
	20	7	10078.13	11632.79	-2463.939	1	11890.87	-11.95905	-9.623671E-008	0.044693	6
	21	8	8015.625	11873.05	-2206.998	1	12076.43	-10.53013	-1.541261E-007	0.0450321	6
	22	8	6328.125	12069.31	-2020.821	1	12237.32	-9.50513	1.028097E-007	0.0390932	6
	23	8	5015.625	12218.3	-1900.785	1	12365.27	-8.84255	-1.975785E-007	0.0450363	6
	24	9	3984.375	12397.37	-1851.551	1	12534.88	-8.494353	1.690433E-007	0.0408554	6
	25	9	3170.956	12433.47	-1862.819	1	12572.24	-8.520844	-7.031671E-008	0.040737	6
	26	9	2527.573	12537.92	-1952.724	1	12689.08	-8.852434	-2.122413E-007	0.0438366	6
	27	10	1976.103	12685.91	-2147.338	1	12866.36	-9.60737	-1.540667E-007	0.0450269	6
	28	10	1577.524	12804.17	-2269.677	1	13003.78	-10.05188	1.367445E-007	0.0416723	6
	29	10	1265.625	12834.87	-2726.744	1	13121.31	-11.99406	-1.29052E-007	0.0417043	6
	30	11	998.264	13011.33	-3218.548	1	13403.49	-13.89407	1.727698E-007	0.0392297	6
	31	11	796.875	13084.29	-3809.148	1	13627.49	-16.23153	-1.79718E-007	0.0427857	6
	32	11	627.7902	13266.14	-4607.415	1	14043.46	-19.15244	-2.122803E-007	0.043833	6
	33	12	505.5147	13502.23	-5517.533	1	14586.07	-22.22682	1.806788E-007	0.0402663	6
	34	12	397.9953	13720.98	-6759.619	1	15295.68	-26.22709	-2.451231E-009	0.0419207	6
	35	12	315.5048	14012.58	-8256.936	1	16264.36	-30.50879	-1.368489E-009	0.0419099	6
	36	12	252.4038	14357.86	-10031.27	1	17514.98	-34.94047	-1.354742E-009	0.0419074	6
	37	13	198.6229	14842.83	-12380.36	1	19328.29	-39.83138	-2.566814E-009	0.0419177	6
	38	13	158.3615	15422.4	-15116.67	1	21595.47	-44.42643	-2.015765E-009	0.0419073	6
	39	13	125.558	16189.86	-18531.79	1	24607.7	-48.85868	-1.87705E-009	0.0419179	6
	40	14	100.4464	17172.33	-22517.86	1	28318.6	-52.67052	-1.244499E-009	0.0418993	6
	41	14	79.00281	18571.07	-27831.93	1	33458.95	-56.2865	-9.234761E-010	0.0419068	6
	42	14	63.3446	19792.49	-33751.28	1	39126.61	-59.61171	-2.205826E-009	0.041903	6
	43	15	49.86702	22242.29	-41360.28	1	46961.61	-61.73	-2.366238E-009	0.0419054	6
	44	15	39.72458	25438.68	-50218.78	1	56294.34	-63.13519	-2.026936E-009	0.0419104	6
	45	15	31.6723	29046.16	-60723.41	1	67312.79	-64.43656	-1.714426E-009	0.0418962	6
	46	16	24.93351	34368.61	-73684.27	1	81305.42	-64.99421	-1.900434E-009	0.0418952	6
	47	16	19.86229	40733.85	-88413.49	1	97345.7	-65.26353	-2.665047E-009	0.0419072	6
	48	16	15.83615	48531	-105336.7	1	115978.8	-65.2634	-1.296356E-009	0.0419088	5
	49	17	12.40079	59208.26	-127677.5	1	140737.9	-65.12129	-1.552123E-009	0.0419293	5
	50	17	9.93114	73415.27	-149560	1	166607.3	-63.85473	-1.060452E-009	0.0419152	5
	51	18	7.944915	89791.66	-175469.8	1	197109.6	-62.9002	-1.417568E-009	0.0419187	5
	52	18	6.317385	110331	-204725.2	1	232562.5	-61.67878	-1.364365E-009	0.0419038	5
	53	19	5.008013	136129.6	-237750.5	1	273964.6	-60.2057	-1.23476E-009	0.0419116	5
	54	20	3.945707	168149.8	-274387.8	1	321812.1	-58.49927	-1.622522E-009	0.041904	5
	55	21	3.158693	203161.3	-311107.3	1	371567.3	-56.8544	-1.704041E-009	0.0418853	5
	56	23	2.504006	245127.9	-351281.2	1	428352.8	-55.09224	-1.289811E-009	0.0418915	5
	57	24	1.998082	288650.4	-392301.4	1	487051.8	-53.65483	-1.376157E-009	0.0419024	5
	58	26	1.584686	338973.7	-437619.8	1	553547	-52.23917	-1.551751E-009	0.0418605	5
	59	28	1.266892	389447.9	-486392.8	1	623095.3	-51.31623	-1.383941E-009	0.0418699	5
	60	30	0.999041	445034.4	-545421.2	1	703945.9	-50.7874	-1.414246E-009	0.0418917	5
