EXPLAIN
TAG	EISPOT
TITLE	LABEL	Potentiostatic EIS	Test &Identifier
DATE	LABEL	11/11/2019	Date
TIME	LABEL	11:56:59	Time
NOTES	NOTES	3	&Notes...
	
	
	
PSTAT	PSTAT	REF600-11020	Potentiostat
VDC	POTEN	0.00000E+000	T	DC &Voltage (V)
FREQINIT	QUANT	1.00000E+006	Initial Fre&q. (Hz)
FREQFINAL	QUANT	1.00000E+000	Final Fre&q. (Hz)
PTSPERDEC	QUANT	1.00000E+001	Points/&decade
VAC	QUANT	2.50000E+001	AC &Voltage (mV rms)
AREA	QUANT	1.00000E-002	&Area (cm^2)
CONDIT	TWOPARAM	T	5.00000E+000	0.00000E+000	Conditionin&g	Time(s)	E(V)
DELAY	TWOPARAM	T	5.00000E+000	0.00000E+000	Init. De&lay	Time(s)	Stab.(mV/s)
SPEED	SELECTOR	1	&Optimize for:
ZGUESS	QUANT	1.00000E+005	E&stimated Z (ohms)
OCVCURVE	TABLE	19
	Pt	T	Vf	Vm	Ach	Over
	#	s	V vs. Ref.	V	V	bits
	0	0.258333	2.22168E-003	2.22168E-003	5.48033E-004	...........
	1	0.516667	2.21206E-003	1.71825E-003	5.45566E-004	...........
	2	0.775	2.15312E-003	1.24737E-003	5.60432E-004	...........
	3	1.03333	1.98687E-003	7.99087E-004	5.58366E-004	...........
	4	1.29167	1.69168E-003	4.30488E-004	5.58199E-004	...........
	5	1.55	1.30554E-003	4.46299E-005	5.57732E-004	...........
	6	1.80833	8.88708E-004	-2.74559E-004	5.53599E-004	...........
	7	2.06667	4.84131E-004	-5.78094E-004	5.56566E-004	...........
	8	2.325	1.10427E-004	-8.57848E-004	5.49699E-004	...........
	9	2.58333	-2.29641E-004	-1.14325E-003	5.46633E-004	...........
	10	2.84167	-5.41452E-004	-1.39192E-003	5.51133E-004	...........
	11	3.1	-8.31694E-004	-1.62119E-003	5.47533E-004	...........
	12	3.35833	-1.10363E-003	-1.84813E-003	5.50266E-004	...........
	13	3.61667	-1.35847E-003	-2.07512E-003	5.51232E-004	...........
	14	3.875	-1.59797E-003	-2.23647E-003	5.51499E-004	...........
	15	4.13333	-1.82343E-003	-2.47133E-003	5.51933E-004	...........
	16	4.39167	-2.03704E-003	-2.67698E-003	5.49499E-004	...........
	17	4.65	-2.24080E-003	-2.68757E-003	5.52432E-004	...........
	18	4.90833	-2.43035E-003	-3.00322E-003	5.45133E-004	...........
EOC	QUANT	-0.0024303	Open Circuit (V)
PSTATMODEL	IQUANT	4	Pstat Model
PSTATSECTION	LABEL	REF600-11020	Pstat Section
PSTATSERIALNO	LABEL	11020	Pstat Serial Number
CTRLMODE	IQUANT	1	Control Mode
IESTAB	IQUANT	0	I/E Stability
CASPEED	IQUANT	1	Control Amp Speed
CONVENTION	IQUANT	1	Current Convention
ICHRANGE	IQUANT	2	Ich Range
ICHRANGEMODE	TOGGLE	F	Ich Auto Range
ICHOFFSETENABLE	TOGGLE	T	Ich Offset Enable
ICHOFFSET	QUANT	0	Ich Offset (V)
ICHFILTER	IQUANT	3	Ich Filter
VCHRANGE	IQUANT	2	Vch Range
VCHRANGEMODE	TOGGLE	F	Vch Auto Range
VCHOFFSETENABLE	TOGGLE	T	Vch Offset Enable
VCHOFFSET	QUANT	0	Vch Offset (V)
VCHFILTER	IQUANT	3	Vch Filter
ACHRANGE	IQUANT	2	Ach Range
ACHOFFSETENABLE	TOGGLE	F	Ach Offset Enable
ACHOFFSET	QUANT	0	Ach Offset (V)
ACHFILTER	IQUANT	3	Ach Filter
IERANGELOWERLIMIT	IQUANT	1	I/E Range Lower Limit
IERANGEMODE	TOGGLE	F	I/E AutoRange
IERANGE	IQUANT	4	I/E Range
POSFEEDENABLE	TOGGLE	F	Positive Feedback IR Comp
POSFEEDRESISTANCE	QUANT	0	Positive Feedback Resistance (ohm)
ACHSELECT	IQUANT	0	Ach Select
CABLEID	IQUANT	14	Cable ID
DCCALDATE	LABEL	8/19/2019	DC Calibration Date
ACCALDATE	LABEL	8/19/2019	AC Calibration Date
THERMOSELECT	IQUANT	1	Thermo Select
FRAMEWORKVERSION	QUANT	6.33	Framework Version
INSTRUMENTVERSION	LABEL	3.50	Instrument Version
ZCURVE	TABLE
	Pt	Time	Freq	Zreal	Zimag	Zsig	Zmod	Zphz	Idc	Vdc	IERange
	#	s	Hz	ohm	ohm	V	ohm	°	A	V	#
	0	1	1000078	2491.109	-1633.187	1	2978.746	-33.2491	3.817929E-006	0.0003072	8
	1	3	794390.6	2818.105	-1543.671	1	3213.198	-28.71256	6.077323E-006	-0.0016007	8
	2	4	630984.4	3101.361	-1420.422	1	3411.164	-24.60775	6.539956E-006	-0.001695	8
	3	5	501234.4	3326.59	-1264.666	1	3558.874	-20.81525	-1.797468E-006	-0.0004396	8
	4	7	398109.4	3507.733	-1107.871	1	3678.528	-17.52803	-4.868246E-007	-0.0012495	8
	5	8	316265.6	3656.656	-961.331	1	3780.912	-14.72968	-1.881948E-007	-0.0012556	8
	6	10	251203.1	3751.502	-833.5153	1	3842.983	-12.5266	-2.479038E-006	-0.0004872	8
	7	11	199546.9	3831.649	-722.5184	1	3899.175	-10.67864	-4.302831E-006	-0.0006362	8
	8	12	158578.1	3930.945	-654.1939	1	3985.009	-9.448657	-1.403107E-006	-0.0011973	8
	9	14	125953.1	3989.961	-494.0901	1	4020.437	-7.05919	3.921163E-006	-0.0076268	7
	10	15	100078.1	4009.542	-446.8475	1	4034.364	-6.359147	1.069451E-006	-0.0021255	7
	11	16	79453.13	4039.386	-418.9751	1	4061.057	-5.921684	3.747768E-007	-0.0005053	7
	12	18	63140.62	4074.059	-403.3182	1	4093.974	-5.653668	5.922721E-007	-0.0008197	7
	13	19	50203.12	4102.856	-397.8437	1	4122.1	-5.538513	-2.886401E-007	0.0002952	7
	14	20	39890.62	4138.324	-403.0649	1	4157.906	-5.562954	4.832494E-007	-0.0026672	7
	15	22	31640.63	4171.692	-419.1523	1	4192.696	-5.737559	4.827259E-007	-0.0026708	7
	16	23	25171.88	4205.895	-444.9959	1	4229.371	-6.03959	3.764661E-007	-0.0005088	7
	17	24	20015.62	4245.734	-484.8864	1	4273.333	-6.515268	1.062458E-006	-0.002455	7
	18	26	15890.62	4280.788	-531.3051	1	4313.633	-7.07502	-1.194784E-006	0.0003794	7
	19	27	12609.37	4329.156	-594.8226	1	4369.829	-7.82341	-7.063815E-007	-0.0011991	7
	20	28	10078.13	4370.462	-662.4124	1	4420.376	-8.618484	3.777632E-007	-0.0005067	7
	21	30	8015.625	4433.799	-763.2875	1	4499.02	-9.76784	4.817273E-007	-0.0026725	7
	22	31	6328.125	4488.656	-881.3204	1	4574.358	-11.10837	-7.062408E-007	-0.0012073	7
	23	32	5015.625	4556.752	-1023.217	1	4670.221	-12.65582	1.233676E-007	-0.0023816	7
	24	34	3984.375	4625.341	-1193.977	1	4776.961	-14.47425	6.581911E-008	-8.800548E-005	7
	25	35	3170.956	4701.784	-1401.887	1	4906.328	-16.60251	-2.880307E-007	0.000292	7
	26	36	2527.573	4789.578	-1655.953	1	5067.764	-19.07236	1.234067E-007	-0.0023847	7
	27	38	1976.103	4893.391	-1992.653	1	5283.554	-22.1568	5.941098E-007	-0.0008294	7
	28	39	1577.524	5014.122	-2385.796	1	5552.787	-25.44582	-1.186195E-006	6.000993E-006	7
	29	41	1265.625	5131.338	-2825.406	1	5857.777	-28.83797	1.076549E-006	-0.0021453	7
	30	42	998.264	5284.513	-3410.591	1	6289.532	-32.83794	-7.048798E-007	-0.0012177	7
	31	43	796.875	5452.979	-4092.948	1	6818.152	-36.8915	-1.190111E-006	7.946233E-006	7
	32	45	627.7902	5663.371	-4979.347	1	7541.065	-41.32257	-6.091393E-007	0.0005289	7
	33	46	505.5147	5878.619	-5971.877	1	8379.826	-45.45088	3.821996E-007	-0.0005104	7
	34	47	397.9953	6155.35	-7304.225	1	9551.96	-49.8788	5.655968E-009	-0.0010114	7
	35	49	315.5048	6475.408	-8905.34	1	11010.72	-53.97769	8.317392E-010	-0.0010719	6
	36	50	252.4038	6833.278	-10801.62	1	12781.58	-57.6819	1.243032E-009	-0.0010781	6
	37	51	198.6229	7299.048	-13319.76	1	15188.56	-61.27787	1.019207E-009	-0.0010719	6
	38	53	158.3615	7843.437	-16271.54	1	18063.29	-64.26436	1.112316E-009	-0.0010698	6
	39	54	125.558	8540.098	-19985.78	1	21733.96	-66.86256	1.34073E-009	-0.0010788	6
	40	56	100.4464	9362.099	-24386.16	1	26121.52	-68.99769	5.684723E-010	-0.001075	6
	41	57	79.00281	10650.28	-30181.93	1	32005.9	-70.56363	6.496408E-010	-0.0010765	6
	42	58	63.3446	12058.88	-36400.8	1	38346.25	-71.67097	1.609968E-009	-0.0010838	6
	43	60	49.86702	14232.92	-45636.65	1	47804.6	-72.67863	8.326093E-010	-0.0010834	6
	44	61	39.72458	16454.96	-55511.57	1	57899.05	-73.48891	4.557993E-010	-0.0010732	6
	45	62	31.6723	19873.49	-67630.84	1	70490.33	-73.62444	9.287671E-010	-0.0010858	6
	46	64	24.93351	24425.96	-83283.41	1	86791.44	-73.65426	8.263504E-010	-0.0010834	6
	47	65	19.86229	30198.84	-100923.3	1	105344.6	-73.34148	1.124692E-009	-0.0010724	6
	48	67	15.83615	37667.82	-121665.1	1	127362.8	-72.79735	4.862484E-010	-0.0010716	5
	49	68	12.40079	48360.09	-149783.4	1	157396.8	-72.10645	6.604571E-010	-0.0010719	5
	50	69	9.93114	61160.64	-178865.7	1	189033.2	-71.12259	5.605451E-010	-0.0010783	5
	51	71	7.944915	75859.8	-213128.8	1	226226.9	-70.40762	1.115154E-011	-0.0010708	5
	52	73	6.317385	97834.2	-253001.2	1	271258.5	-68.85877	8.005875E-010	-0.0010581	5
	53	75	5.008013	124414.4	-299637.2	1	324440.1	-67.45096	3.873E-010	-0.001076	5
	54	77	3.945707	158285	-354436.5	1	388174.4	-65.93531	2.696071E-010	-0.0010708	5
	55	80	3.158693	195984.9	-411325.9	1	455630.4	-64.52355	3.196037E-010	-0.0010529	5
	56	83	2.504006	243041.3	-478840.2	1	536988.8	-63.08937	2.613116E-011	-0.0010895	5
	57	86	1.998082	296228.5	-551085.6	1	625657	-61.74036	7.766651E-011	-0.0011008	5
	58	89	1.584686	359579	-631822.1	1	726977.4	-60.35517	1.360971E-010	-0.0010454	5
	59	93	1.266892	428780.3	-722267.5	1	839954.1	-59.30415	8.410713E-011	-0.0011067	5
	60	97	0.999041	512152.3	-827627.1	1	973276	-58.24995	2.700141E-010	-0.0010392	5
