EXPLAIN
TAG	EISPOT
TITLE	LABEL	Potentiostatic EIS	Test &Identifier
DATE	LABEL	8/14/2018	Date
TIME	LABEL	5:44:56	Time
NOTES	NOTES	1	&Notes...
	
PSTAT	PSTAT	REF600-11020	Potentiostat
VDC	POTEN	0.00000E+000	T	DC &Voltage (V)
FREQINIT	QUANT	1.00000E+006	Initial Fre&q. (Hz)
FREQFINAL	QUANT	1.00000E+000	Final Fre&q. (Hz)
PTSPERDEC	QUANT	1.00000E+001	Points/&decade
VAC	QUANT	2.50000E+001	AC &Voltage (mV rms)
AREA	QUANT	1.00000E-002	&Area (cm^2)
CONDIT	TWOPARAM	T	5.00000E+000	0.00000E+000	Conditionin&g	Time(s)	E(V)
DELAY	TWOPARAM	T	5.00000E+000	0.00000E+000	Init. De&lay	Time(s)	Stab.(mV/s)
SPEED	SELECTOR	0	&Optimize for:
ZGUESS	QUANT	1.00000E+005	E&stimated Z (ohms)
OCVCURVE	TABLE	19
	Pt	T	Vf	Vm	Ach	Over
	#	s	V vs. Ref.	V	V	bits
	0	0.258333	3.03310E-002	3.03310E-002	5.88632E-004	...........
	1	0.516667	3.03719E-002	3.24707E-002	5.87399E-004	...........
	2	0.775	3.06210E-002	3.44004E-002	5.80932E-004	...........
	3	1.03333	3.13192E-002	3.62372E-002	5.82699E-004	...........
	4	1.29167	3.25561E-002	3.80587E-002	5.81699E-004	...........
	5	1.55	3.41871E-002	3.96735E-002	5.84965E-004	...........
	6	1.80833	3.59824E-002	4.12959E-002	5.82399E-004	...........
	7	2.06667	3.77742E-002	4.28280E-002	5.80266E-004	...........
	8	2.325	3.94874E-002	4.42149E-002	5.78199E-004	...........
	9	2.58333	4.11066E-002	4.56883E-002	5.82632E-004	...........
	10	2.84167	4.26414E-002	4.70295E-002	5.78466E-004	...........
	11	3.1	4.41085E-002	4.82857E-002	5.86165E-004	...........
	12	3.35833	4.55184E-002	4.95998E-002	5.84599E-004	...........
	13	3.61667	4.68753E-002	5.07873E-002	5.85532E-004	...........
	14	3.875	4.81839E-002	5.19712E-002	5.84232E-004	...........
	15	4.13333	4.94474E-002	5.30632E-002	5.81632E-004	...........
	16	4.39167	5.06645E-002	5.41634E-002	5.79799E-004	...........
	17	4.65	5.18343E-002	5.51821E-002	5.84899E-004	...........
	18	4.90833	5.29589E-002	5.62155E-002	5.82932E-004	...........
EOC	QUANT	0.0529589	Open Circuit (V)
PSTATMODEL	IQUANT	4	Pstat Model
PSTATSECTION	LABEL	REF600-11020	Pstat Section
PSTATSERIALNO	LABEL	11020	Pstat Serial Number
CTRLMODE	IQUANT	1	Control Mode
IESTAB	IQUANT	0	I/E Stability
CASPEED	IQUANT	1	Control Amp Speed
CONVENTION	IQUANT	1	Current Convention
ICHRANGE	IQUANT	2	Ich Range
ICHRANGEMODE	TOGGLE	F	Ich Auto Range
ICHOFFSETENABLE	TOGGLE	T	Ich Offset Enable
ICHOFFSET	QUANT	0	Ich Offset (V)
ICHFILTER	IQUANT	3	Ich Filter
VCHRANGE	IQUANT	2	Vch Range
VCHRANGEMODE	TOGGLE	F	Vch Auto Range
VCHOFFSETENABLE	TOGGLE	T	Vch Offset Enable
VCHOFFSET	QUANT	0	Vch Offset (V)
VCHFILTER	IQUANT	3	Vch Filter
ACHRANGE	IQUANT	2	Ach Range
ACHOFFSETENABLE	TOGGLE	F	Ach Offset Enable
ACHOFFSET	QUANT	0	Ach Offset (V)
ACHFILTER	IQUANT	3	Ach Filter
IERANGELOWERLIMIT	IQUANT	1	I/E Range Lower Limit
IERANGEMODE	TOGGLE	F	I/E AutoRange
IERANGE	IQUANT	5	I/E Range
POSFEEDENABLE	TOGGLE	F	Positive Feedback IR Comp
POSFEEDRESISTANCE	QUANT	0	Positive Feedback Resistance (ohm)
ACHSELECT	IQUANT	0	Ach Select
CABLEID	IQUANT	14	Cable ID
DCCALDATE	LABEL	8/19/2019	DC Calibration Date
ACCALDATE	LABEL	8/19/2019	AC Calibration Date
THERMOSELECT	IQUANT	1	Thermo Select
FRAMEWORKVERSION	QUANT	6.33	Framework Version
INSTRUMENTVERSION	LABEL	3.50	Instrument Version
ZCURVE	TABLE
	Pt	Time	Freq	Zreal	Zimag	Zsig	Zmod	Zphz	Idc	Vdc	IERange
	#	s	Hz	ohm	ohm	V	ohm	°	A	V	#
	0	2	1000078	2172.846	-1796.989	1	2819.651	-39.59145	-5.881695E-007	0.0558558	8
	1	2	794390.6	2549.934	-1816.531	1	3130.806	-35.46544	5.254721E-006	0.0538775	8
	2	2	630984.4	2889.093	-1814.425	1	3411.597	-32.12988	-3.308238E-006	0.0553877	8
	3	2	501234.4	3219.739	-1781.141	1	3679.563	-28.95112	4.086982E-007	0.0545926	8
	4	3	398109.4	3549.792	-1719.701	1	3944.413	-25.84792	-3.647654E-007	0.0546409	8
	5	3	316265.6	3812.964	-1616.169	1	4141.34	-22.97023	-1.891796E-006	0.0551183	8
	6	3	251203.1	4093.182	-1481.45	1	4353.025	-19.89676	-1.774422E-006	0.0550851	8
	7	4	199546.9	4325.87	-1352.934	1	4532.503	-17.36729	3.683085E-006	0.0539824	8
	8	4	158578.1	4504.912	-1310.178	1	4691.566	-16.21618	-3.112439E-006	0.0551995	8
	9	4	125953.1	4697.963	-1034.98	1	4810.617	-12.42404	2.563559E-007	0.0542024	7
	10	5	100078.1	4802.574	-933.0991	1	4892.381	-10.9951	-2.919541E-008	0.0545303	7
	11	5	79453.13	4921.149	-870.778	1	4997.596	-10.0344	7.57689E-008	0.0543703	7
	12	5	63140.62	5010.521	-811.6921	1	5075.841	-9.201838	-3.109254E-008	0.0545242	7
	13	6	50203.12	5096.72	-768.7941	1	5154.377	-8.577883	-6.509484E-009	0.0545732	7
	14	6	39890.62	5175.878	-740.3436	1	5228.559	-8.140218	6.461896E-008	0.0544201	7
	15	6	31640.63	5254.367	-729.741	1	5304.799	-7.906819	2.937977E-008	0.0544071	7
	16	7	25171.88	5328.809	-734.9814	1	5379.256	-7.853032	2.952667E-008	0.0544082	7
	17	7	20015.62	5406.055	-752.4285	1	5458.166	-7.923669	2.32923E-009	0.054459	7
	18	7	15890.62	5483.827	-781.8246	1	5539.278	-8.113933	-3.091439E-008	0.0545127	7
	19	8	12609.37	5575.615	-821.649	1	5635.831	-8.383042	1.15804E-007	0.0543607	7
	20	8	10078.13	5657.074	-890.3065	1	5726.704	-8.943811	4.505537E-008	0.0544653	7
	21	8	8015.625	5740.201	-964.082	1	5820.598	-9.534	-3.062215E-008	0.0545132	7
	22	8	6328.125	5843.061	-1061.211	1	5938.647	-10.2938	-5.305614E-010	0.054455	7
	23	9	5015.625	5941.257	-1179.638	1	6057.234	-11.23004	-5.611313E-008	0.0545836	7
	24	9	3984.375	6050.836	-1323.472	1	6193.884	-12.33775	-3.15707E-008	0.0545087	7
	25	10	3170.956	6149.479	-1506.66	1	6331.359	-13.76663	-5.75474E-008	0.0545877	7
	26	10	2527.573	6257.561	-1731.216	1	6492.625	-15.46463	7.65118E-008	0.0543563	7
	27	10	1976.103	6383.43	-2039.427	1	6701.302	-17.71804	-6.753735E-008	0.0547363	7
	28	11	1577.524	6514.07	-2361.188	1	6928.804	-19.92432	9.696944E-008	0.0544414	7
	29	11	1265.625	6640.216	-2787.836	1	7201.701	-22.77467	-1.633429E-008	0.0545525	7
	30	11	998.264	6796.569	-3336.083	1	7571.182	-26.14403	6.351047E-008	0.0544093	7
	31	12	796.875	6963.537	-3980.564	1	8020.956	-29.75356	6.434686E-008	0.0544078	7
	32	12	627.7902	7163.678	-4821.136	1	8634.908	-33.94045	-4.832664E-008	0.0545329	7
	33	12	505.5147	7382.373	-5763.976	1	9366.048	-37.98185	6.402193E-010	0.0544472	7
	34	13	397.9953	7656.879	-7035.011	1	10398.04	-42.57627	-8.73136E-010	0.0544838	6
	35	13	315.5048	7974.301	-8573.87	1	11709	-47.07502	-1.312274E-009	0.0544829	6
	36	13	252.4038	8344.715	-10397.27	1	13331.82	-51.24992	-2.385339E-009	0.0544812	6
	37	14	198.6229	8835.578	-12811.65	1	15562.96	-55.40783	-1.931177E-009	0.0544793	6
	38	14	158.3615	9421.765	-15628.82	1	18249.1	-58.91651	-2.503545E-009	0.0544785	6
	39	14	125.558	10187.4	-19179.38	1	21717.08	-62.02436	-2.09026E-009	0.0544803	6
	40	15	100.4464	11115.03	-23323.52	1	25836.61	-64.51945	-1.040669E-009	0.0544743	6
	41	15	79.00281	12487.14	-28764.29	1	31357.83	-66.53339	-1.49803E-009	0.0544755	6
	42	15	63.3446	14172.62	-35457.67	1	38185.2	-68.21314	-2.197074E-009	0.0544696	6
	43	16	49.86702	16442.11	-43487.13	1	46491.64	-69.28883	-2.833094E-009	0.0544739	6
	44	16	39.72458	19422.66	-52389.42	1	55873.88	-69.65842	-1.775146E-009	0.0544793	6
	45	16	31.6723	23108.28	-63217.55	1	67308.63	-69.92083	-2.105323E-009	0.0544752	6
	46	17	24.93351	28513.75	-77500.82	1	82579.73	-69.80065	-1.994822E-009	0.0544752	6
	47	17	19.86229	35343	-93320.73	1	99789.2	-69.25701	-1.197126E-009	0.0544782	6
	48	17	15.83615	44920.13	-110151.4	1	118958.6	-67.81419	-3.892586E-009	0.054482	5
	49	18	12.40079	56583.3	-133889.2	1	145354.7	-67.09045	-5.527377E-010	0.0544806	5
	50	18	9.93114	69829.35	-158009	1	172751.2	-66.15779	-2.146099E-009	0.0544733	5
	51	19	7.944915	87169.74	-184351.5	1	203921.6	-64.69309	-3.689184E-009	0.0544873	5
	52	19	6.317385	109654	-213961.4	1	240423.6	-62.86513	-2.241429E-009	0.0544977	5
	53	20	5.008013	135901.4	-247276.8	1	282161.4	-61.20715	-1.438475E-009	0.0544793	5
	54	21	3.945707	167064.2	-283616.9	1	329164.1	-59.49983	-1.367733E-009	0.0544747	5
	55	22	3.158693	199121	-321434.3	1	378112.7	-58.22276	-1.20892E-009	0.0544919	5
	56	24	2.504006	236496.1	-365008	1	434926.8	-57.05997	-1.366884E-009	0.0544856	5
	57	25	1.998082	274619.6	-413290.4	1	496210.5	-56.39711	-1.324059E-009	0.0544561	5
	58	27	1.584686	318179.3	-469041.1	1	566778.3	-55.84855	-1.102289E-009	0.054505	5
	59	29	1.266892	365480.7	-534148.7	1	647217.9	-55.61889	-1.031639E-009	0.0545173	5
	60	31	0.999041	419543.9	-616203.9	1	745469.2	-55.75092	-9.203209E-010	0.0545096	5
