EXPLAIN
TAG	EISPOT
TITLE	LABEL	Potentiostatic EIS	Test &Identifier
DATE	LABEL	11/21/2019	Date
TIME	LABEL	23:00:04	Time
NOTES	NOTES	4	&Notes...
	
	
	
	
PSTAT	PSTAT	REF600-11020	Potentiostat
VDC	POTEN	0.00000E+000	T	DC &Voltage (V)
FREQINIT	QUANT	1.00000E+006	Initial Fre&q. (Hz)
FREQFINAL	QUANT	1.00000E+000	Final Fre&q. (Hz)
PTSPERDEC	QUANT	1.00000E+001	Points/&decade
VAC	QUANT	2.50000E+001	AC &Voltage (mV rms)
AREA	QUANT	1.00000E-002	&Area (cm^2)
CONDIT	TWOPARAM	T	5.00000E+000	0.00000E+000	Conditionin&g	Time(s)	E(V)
DELAY	TWOPARAM	T	5.00000E+000	0.00000E+000	Init. De&lay	Time(s)	Stab.(mV/s)
SPEED	SELECTOR	1	&Optimize for:
ZGUESS	QUANT	1.00000E+005	E&stimated Z (ohms)
OCVCURVE	TABLE	19
	Pt	T	Vf	Vm	Ach	Over
	#	s	V vs. Ref.	V	V	bits
	0	0.258333	4.96846E-003	4.96846E-003	5.30533E-004	...........
	1	0.516667	4.96449E-003	4.76081E-003	5.36799E-004	...........
	2	0.775	4.94073E-003	4.59533E-003	5.41366E-004	...........
	3	1.03333	4.87569E-003	4.44643E-003	5.37899E-004	...........
	4	1.29167	4.76439E-003	4.32286E-003	5.36666E-004	...........
	5	1.55	4.62477E-003	4.21093E-003	5.41799E-004	...........
	6	1.80833	4.48083E-003	4.11091E-003	5.41866E-004	...........
	7	2.06667	4.34768E-003	4.02273E-003	5.29733E-004	...........
	8	2.325	4.22987E-003	3.93640E-003	5.31533E-004	...........
	9	2.58333	4.12602E-003	3.86118E-003	5.31233E-004	...........
	10	2.84167	4.03300E-003	3.78630E-003	5.35566E-004	...........
	11	3.1	3.94808E-003	3.71980E-003	5.30233E-004	...........
	12	3.35833	3.86949E-003	3.65569E-003	5.35733E-004	...........
	13	3.61667	3.79624E-003	3.59610E-003	5.39333E-004	...........
	14	3.875	3.72774E-003	3.53916E-003	5.38866E-004	...........
	15	4.13333	3.66347E-003	3.48552E-003	5.31100E-004	...........
	16	4.39167	3.60298E-003	3.43585E-003	5.34633E-004	...........
	17	4.65	3.54597E-003	3.38824E-003	5.32933E-004	...........
	18	4.90833	3.49219E-003	3.34015E-003	5.33233E-004	...........
EOC	QUANT	0.0034922	Open Circuit (V)
PSTATMODEL	IQUANT	4	Pstat Model
PSTATSECTION	LABEL	REF600-11020	Pstat Section
PSTATSERIALNO	LABEL	11020	Pstat Serial Number
CTRLMODE	IQUANT	1	Control Mode
IESTAB	IQUANT	0	I/E Stability
CASPEED	IQUANT	1	Control Amp Speed
CONVENTION	IQUANT	1	Current Convention
ICHRANGE	IQUANT	2	Ich Range
ICHRANGEMODE	TOGGLE	F	Ich Auto Range
ICHOFFSETENABLE	TOGGLE	T	Ich Offset Enable
ICHOFFSET	QUANT	0	Ich Offset (V)
ICHFILTER	IQUANT	3	Ich Filter
VCHRANGE	IQUANT	2	Vch Range
VCHRANGEMODE	TOGGLE	F	Vch Auto Range
VCHOFFSETENABLE	TOGGLE	T	Vch Offset Enable
VCHOFFSET	QUANT	0	Vch Offset (V)
VCHFILTER	IQUANT	3	Vch Filter
ACHRANGE	IQUANT	2	Ach Range
ACHOFFSETENABLE	TOGGLE	F	Ach Offset Enable
ACHOFFSET	QUANT	0	Ach Offset (V)
ACHFILTER	IQUANT	3	Ach Filter
IERANGELOWERLIMIT	IQUANT	1	I/E Range Lower Limit
IERANGEMODE	TOGGLE	F	I/E AutoRange
IERANGE	IQUANT	4	I/E Range
POSFEEDENABLE	TOGGLE	F	Positive Feedback IR Comp
POSFEEDRESISTANCE	QUANT	0	Positive Feedback Resistance (ohm)
ACHSELECT	IQUANT	0	Ach Select
CABLEID	IQUANT	14	Cable ID
DCCALDATE	LABEL	8/19/2019	DC Calibration Date
ACCALDATE	LABEL	8/19/2019	AC Calibration Date
THERMOSELECT	IQUANT	1	Thermo Select
FRAMEWORKVERSION	QUANT	6.33	Framework Version
INSTRUMENTVERSION	LABEL	3.50	Instrument Version
ZCURVE	TABLE
	Pt	Time	Freq	Zreal	Zimag	Zsig	Zmod	Zphz	Idc	Vdc	IERange
	#	s	Hz	ohm	ohm	V	ohm	°	A	V	#
	0	2	1000078	2360.592	-1588.859	1	2845.499	-33.94356	-7.909324E-006	0.0055307	8
	1	3	794390.6	2668.335	-1543.352	1	3082.523	-30.04487	1.064577E-005	0.0038753	8
	2	5	630984.4	2959.582	-1440.938	1	3291.721	-25.96015	5.837602E-006	0.0042913	8
	3	6	501234.4	3197.128	-1324.137	1	3460.486	-22.4976	-1.540727E-006	0.0048151	8
	4	7	398109.4	3395.402	-1179.396	1	3594.402	-19.15472	-4.580102E-006	0.0054469	8
	5	9	316265.6	3561.015	-1054.158	1	3713.768	-16.4902	-5.857976E-006	0.0059414	8
	6	10	251203.1	3678.498	-926.1403	1	3793.294	-14.13172	7.1957E-006	0.0042687	8
	7	11	199546.9	3792.327	-823.3033	1	3880.667	-12.24868	-8.091587E-007	0.0047627	8
	8	13	158578.1	3870.703	-725.2806	1	3938.068	-10.61284	6.788832E-006	0.0042874	8
	9	14	125953.1	3958.814	-592.8289	1	4002.955	-8.516707	-2.355406E-006	0.0057844	7
	10	15	100078.1	4002.621	-553.6458	1	4040.73	-7.875228	1.11001E-006	0.0038656	7
	11	17	79453.13	4049.141	-527.5597	1	4083.365	-7.42321	1.112473E-006	0.0038493	7
	12	18	63140.62	4093.696	-514.2606	1	4125.871	-7.160136	1.111277E-006	0.0038477	7
	13	19	50203.12	4137.293	-511.9327	1	4168.845	-7.053706	9.916203E-007	0.0032896	7
	14	21	39890.62	4174.099	-523.0959	1	4206.748	-7.143039	-9.07737E-007	0.006692	7
	15	22	31640.63	4227.563	-548.8617	1	4263.043	-7.397296	4.937165E-007	0.0033148	7
	16	23	25171.88	4278.419	-587.5536	1	4318.575	-7.819495	8.471193E-007	0.0047721	7
	17	25	20015.62	4334.433	-639.7816	1	4381.396	-8.396484	9.932627E-007	0.0032877	7
	18	26	15890.62	4391.475	-702.575	1	4447.321	-9.089502	-2.967178E-007	0.0063646	7
	19	27	12609.37	4457.905	-783.9813	1	4526.316	-9.97423	-2.936127E-007	0.0063716	7
	20	29	10078.13	4528.736	-876.4946	1	4612.775	-10.95364	-1.060452E-006	0.0055233	7
	21	30	8015.625	4608.472	-1000.971	1	4715.926	-12.25444	-7.319646E-007	0.004832	7
	22	31	6328.125	4699.025	-1129.329	1	4832.827	-13.51376	-6.304899E-007	0.0066071	7
	23	33	5015.625	4800.997	-1296.436	1	4972.959	-15.11143	8.474053E-007	0.0047634	7
	24	34	3984.375	4905.618	-1484.291	1	5125.252	-16.83422	3.93495E-007	0.0055291	7
	25	36	3170.956	5002.425	-1733.459	1	5294.255	-19.11242	-1.060061E-006	0.005522	7
	26	37	2527.573	5118.416	-2025.075	1	5504.463	-21.58597	-1.109957E-006	0.0066309	7
	27	38	1976.103	5262.021	-2412.157	1	5788.555	-24.62714	-6.299288E-007	0.006601	7
	28	40	1577.524	5432.483	-2923.699	1	6169.27	-28.28862	1.115396E-006	0.0038419	7
	29	41	1265.625	5560.769	-3373.677	1	6504.141	-31.24488	-1.059653E-006	0.0055149	7
	30	42	998.264	5758.696	-4058.921	1	7045.382	-35.17746	-1.064055E-006	0.0055139	7
	31	44	796.875	5971.534	-4857.31	1	7697.576	-39.12527	-1.062909E-006	0.0055159	7
	32	45	627.7902	6242.499	-5893.718	1	8585.145	-43.35384	-6.28109E-007	0.0066051	7
	33	47	505.5147	6508.862	-7031.99	1	9581.97	-47.21243	-1.064479E-006	0.0055059	7
	34	48	397.9953	6866.67	-8587.181	1	10995.04	-51.3527	5.364259E-009	0.0050175	7
	35	49	315.5048	7272.065	-10441.44	1	12724.25	-55.14426	-7.679238E-011	0.0049661	6
	36	51	252.4038	7728.328	-12631.73	1	14808.37	-58.54094	1.343067E-009	0.0049583	6
	37	52	198.6229	8315.975	-15534.27	1	17620.13	-61.83847	2.888283E-010	0.0049608	6
	38	53	158.3615	8997.812	-18928.2	1	20957.99	-64.5752	5.305371E-010	0.0049509	6
	39	55	125.558	9885.72	-23201.77	1	25220.02	-66.9223	8.746817E-010	0.00496	6
	40	56	100.4464	10979.59	-28244.07	1	30303.12	-68.75693	1.209835E-009	0.0049628	6
	41	57	79.00281	12545.26	-34908.36	1	37094.16	-70.23273	4.998807E-010	0.0049595	6
	42	59	63.3446	14200.08	-42059.3	1	44391.75	-71.34427	7.72051E-010	0.0049559	6
	43	60	49.86702	17168.52	-52602.08	1	55332.96	-71.9241	-6.820414E-010	0.0049572	6
	44	62	39.72458	20242.45	-64026.57	1	67150.27	-72.45528	8.716722E-010	0.0049582	6
	45	63	31.6723	24859.62	-77972.43	1	81839.48	-72.31638	-2.832827E-010	0.0049634	6
	46	64	24.93351	30995.56	-95357.2	1	100268.2	-71.99341	3.827623E-010	0.0049607	6
	47	66	19.86229	39152.87	-114985.9	1	121469	-71.19622	-1.013586E-011	0.0049553	5
	48	67	15.83615	48662.26	-137998.6	1	146327.2	-70.57589	-3.542945E-010	0.0049582	5
	49	68	12.40079	65956.83	-168440.7	1	180893.8	-68.61603	-7.501945E-010	0.0049701	5
	50	70	9.93114	82682.41	-196595.1	1	213274.5	-67.18974	5.375625E-010	0.0049632	5
	51	71	7.944915	106090.2	-230029.6	1	253315.5	-65.24075	6.42217E-010	0.0049704	5
	52	73	6.317385	134119	-267265.1	1	299029.3	-63.35159	-1.555692E-010	0.0049813	5
	53	75	5.008013	168571.4	-307979.1	1	351094.6	-61.30605	1.40335E-010	0.0049658	5
	54	78	3.945707	209497.9	-352684.6	1	410214.3	-59.2893	3.785033E-010	0.0049677	5
	55	80	3.158693	252727.1	-396920.8	1	470549.8	-57.51431	1.675669E-010	0.0049747	5
	56	84	2.504006	301015.8	-447448.4	1	539277.8	-56.06976	1.618358E-010	0.004951	5
	57	86	1.998082	351098.9	-502175.6	1	612740.4	-55.04046	-5.931085E-011	0.0049652	5
	58	89	1.584686	409095.6	-564452.6	1	697112.6	-54.06671	1.397433E-010	0.0050162	5
	59	93	1.266892	465677.4	-637055.4	1	789110.3	-53.83379	-6.600259E-011	0.0049579	5
	60	97	0.999041	534531.6	-726280.9	1	901780.4	-53.6475	3.215999E-010	0.004984	5
