EXPLAIN
TAG	EISPOT
TITLE	LABEL	Potentiostatic EIS	Test &Identifier
DATE	LABEL	10/10/2019	Date
TIME	LABEL	9:41:10	Time
NOTES	NOTES	1	&Notes...
	
PSTAT	PSTAT	REF600-11020	Potentiostat
VDC	POTEN	0.00000E+000	T	DC &Voltage (V)
FREQINIT	QUANT	1.00000E+006	Initial Fre&q. (Hz)
FREQFINAL	QUANT	1.00000E+000	Final Fre&q. (Hz)
PTSPERDEC	QUANT	1.00000E+001	Points/&decade
VAC	QUANT	2.50000E+001	AC &Voltage (mV rms)
AREA	QUANT	1.00000E-002	&Area (cm^2)
CONDIT	TWOPARAM	T	5.00000E+000	0.00000E+000	Conditionin&g	Time(s)	E(V)
DELAY	TWOPARAM	T	5.00000E+000	0.00000E+000	Init. De&lay	Time(s)	Stab.(mV/s)
SPEED	SELECTOR	1	&Optimize for:
ZGUESS	QUANT	1.00000E+004	E&stimated Z (ohms)
OCVCURVE	TABLE	19
	Pt	T	Vf	Vm	Ach	Over
	#	s	V vs. Ref.	V	V	bits
	0	0.258333	5.46024E-003	5.46024E-003	5.59766E-004	...........
	1	0.516667	5.45819E-003	5.35319E-003	5.59732E-004	...........
	2	0.775	5.44484E-003	5.21013E-003	5.58066E-004	...........
	3	1.03333	5.40200E-003	4.94574E-003	5.60899E-004	...........
	4	1.29167	5.31267E-003	4.85014E-003	5.58432E-004	...........
	5	1.55	5.18206E-003	4.89413E-003	5.53766E-004	...........
	6	1.80833	5.04663E-003	4.88263E-003	5.53032E-004	...........
	7	2.06667	4.94708E-003	4.86588E-003	5.60166E-004	...........
	8	2.325	4.89507E-003	4.89047E-003	5.58899E-004	...........
	9	2.58333	4.87710E-003	4.90177E-003	5.55199E-004	...........
	10	2.84167	4.87738E-003	4.91322E-003	5.53599E-004	...........
	11	3.1	4.88531E-003	4.86884E-003	5.48566E-004	...........
	12	3.35833	4.89142E-003	4.84908E-003	5.54033E-004	...........
	13	3.61667	4.88844E-003	4.84762E-003	5.60466E-004	...........
	14	3.875	4.87624E-003	4.82131E-003	5.60232E-004	...........
	15	4.13333	4.86028E-003	4.83501E-003	5.53266E-004	...........
	16	4.39167	4.84649E-003	4.85583E-003	5.60166E-004	...........
	17	4.65	4.83938E-003	4.84906E-003	5.57566E-004	...........
	18	4.90833	4.83959E-003	4.84060E-003	5.58366E-004	...........
EOC	QUANT	0.0048396	Open Circuit (V)
PSTATMODEL	IQUANT	4	Pstat Model
PSTATSECTION	LABEL	REF600-11020	Pstat Section
PSTATSERIALNO	LABEL	11020	Pstat Serial Number
CTRLMODE	IQUANT	1	Control Mode
IESTAB	IQUANT	0	I/E Stability
CASPEED	IQUANT	1	Control Amp Speed
CONVENTION	IQUANT	1	Current Convention
ICHRANGE	IQUANT	2	Ich Range
ICHRANGEMODE	TOGGLE	F	Ich Auto Range
ICHOFFSETENABLE	TOGGLE	T	Ich Offset Enable
ICHOFFSET	QUANT	0	Ich Offset (V)
ICHFILTER	IQUANT	3	Ich Filter
VCHRANGE	IQUANT	2	Vch Range
VCHRANGEMODE	TOGGLE	F	Vch Auto Range
VCHOFFSETENABLE	TOGGLE	T	Vch Offset Enable
VCHOFFSET	QUANT	0	Vch Offset (V)
VCHFILTER	IQUANT	3	Vch Filter
ACHRANGE	IQUANT	2	Ach Range
ACHOFFSETENABLE	TOGGLE	F	Ach Offset Enable
ACHOFFSET	QUANT	0	Ach Offset (V)
ACHFILTER	IQUANT	3	Ach Filter
IERANGELOWERLIMIT	IQUANT	1	I/E Range Lower Limit
IERANGEMODE	TOGGLE	F	I/E AutoRange
IERANGE	IQUANT	5	I/E Range
POSFEEDENABLE	TOGGLE	F	Positive Feedback IR Comp
POSFEEDRESISTANCE	QUANT	0	Positive Feedback Resistance (ohm)
ACHSELECT	IQUANT	0	Ach Select
CABLEID	IQUANT	14	Cable ID
DCCALDATE	LABEL	8/19/2019	DC Calibration Date
ACCALDATE	LABEL	8/19/2019	AC Calibration Date
THERMOSELECT	IQUANT	1	Thermo Select
FRAMEWORKVERSION	QUANT	6.33	Framework Version
INSTRUMENTVERSION	LABEL	3.50	Instrument Version
ZCURVE	TABLE
	Pt	Time	Freq	Zreal	Zimag	Zsig	Zmod	Zphz	Idc	Vdc	IERange
	#	s	Hz	ohm	ohm	V	ohm	°	A	V	#
	0	1	1000078	2661.56	-1885.038	1	3261.483	-35.30787	-1.295092E-006	0.006975	8
	1	3	794390.6	3028.93	-1807.542	1	3527.269	-30.82703	1.34542E-006	0.0066547	8
	2	4	630984.4	3366.111	-1663.733	1	3754.825	-26.30133	-2.231272E-006	0.0069539	8
	3	6	501234.4	3636.603	-1501.536	1	3934.398	-22.4355	1.202364E-006	0.0064082	8
	4	8	398109.4	3877.285	-1282.062	1	4083.751	-18.29697	-2.633668E-006	0.0070516	8
	5	9	316265.6	4031.496	-1113.497	1	4182.444	-15.44013	1.115164E-006	0.0063388	8
	6	11	251203.1	4152	-954.127	1	4260.218	-12.94185	7.965335E-007	0.0063081	8
	7	12	199546.9	4253.06	-819.0039	1	4331.199	-10.89992	8.638066E-007	0.0063345	8
	8	14	158578.1	4303.273	-698.9836	1	4359.672	-9.226016	-7.64411E-009	0.0063995	8
	9	15	125953.1	4417.365	-569.5464	1	4453.931	-7.346814	-7.669374E-007	0.0079807	7
	10	17	100078.1	4429.807	-492.1429	1	4457.062	-6.339453	-4.397398E-008	0.0063171	7
	11	18	79453.13	4464.468	-446.9675	1	4486.787	-5.717209	-2.62926E-009	0.0062785	7
	12	19	63140.62	4495.324	-415.8445	1	4514.517	-5.285163	-5.739072E-009	0.0063602	7
	13	21	50203.12	4526.998	-396.6783	1	4544.344	-5.007753	1.091969E-007	0.006216	7
	14	22	39890.62	4558.744	-388.721	1	4575.287	-4.873784	4.666026E-008	0.0061559	7
	15	23	31640.63	4589.646	-389.9634	1	4606.183	-4.856524	-7.665966E-008	0.0064063	7
	16	25	25171.88	4619.644	-402.834	1	4637.174	-4.983598	1.748128E-008	0.006402	7
	17	26	20015.62	4656.575	-422.2109	1	4675.677	-5.180832	5.27439E-008	0.0062436	7
	18	27	15890.62	4683.625	-461.2648	1	4706.283	-5.624613	-5.674605E-008	0.0063743	7
	19	29	12609.37	4723.892	-508.0151	1	4751.129	-6.138092	4.716815E-008	0.006147	7
	20	30	10078.13	4759.323	-564.6876	1	4792.706	-6.766438	4.288856E-009	0.0062612	7
	21	32	8015.625	4796.358	-638.3551	1	4838.651	-7.581037	-1.64921E-008	0.0062595	7
	22	33	6328.125	4846.401	-738.8754	1	4902.401	-8.668482	4.443652E-008	0.006155	7
	23	34	5015.625	4894.407	-858.731	1	4969.169	-9.95134	1.574822E-008	0.0062088	7
	24	36	3984.375	4957.199	-1010.86	1	5059.215	-11.5256	-1.233766E-009	0.0062952	7
	25	37	3170.956	5005.217	-1190.454	1	5144.84	-13.3788	-1.104069E-009	0.0062559	7
	26	38	2527.573	5071.217	-1412.191	1	5264.174	-15.56102	8.719135E-009	0.0064084	7
	27	40	1976.103	5153.157	-1708.675	1	5429.051	-18.3444	-4.69603E-008	0.0063569	7
	28	41	1577.524	5235.059	-2053.165	1	5623.284	-21.41487	-3.067371E-008	0.0062986	7
	29	42	1265.625	5334.622	-2446.729	1	5868.958	-24.63859	2.957418E-009	0.0062332	7
	30	44	998.264	5457.612	-2977.177	1	6216.841	-28.61287	-6.601153E-008	0.0064102	7
	31	45	796.875	5588.128	-3594.906	1	6644.586	-32.75364	-5.723815E-008	0.0064891	7
	32	47	627.7902	5749.652	-4392.157	1	7235.298	-37.37619	-2.302154E-009	0.0063357	7
	33	48	505.5147	5925.727	-5294.136	1	7946.202	-41.7781	-6.614562E-008	0.0064032	7
	34	49	397.9953	6153.487	-6515.746	1	8962.161	-46.63784	4.941668E-009	0.0063122	7
	35	51	315.5048	6425.905	-7983.618	1	10248.43	-51.16989	4.801176E-010	0.0062526	6
	36	52	252.4038	6740.298	-9719.37	1	11827.84	-55.25903	1.428786E-009	0.0062496	6
	37	53	198.6229	7158.372	-12025.54	1	13994.85	-59.23618	7.86166E-010	0.0062516	6
	38	55	158.3615	7660.395	-14715.31	1	16589.82	-62.49973	1.319486E-009	0.006248	6
	39	56	125.558	8324.931	-18114.44	1	19935.83	-65.3177	7.040207E-010	0.0062556	6
	40	58	100.4464	9161.833	-22110.51	1	23933.53	-67.49257	1.936285E-009	0.0062475	6
	41	59	79.00281	10255.57	-27427.15	1	29281.82	-69.4982	1.563296E-009	0.0062479	6
	42	60	63.3446	11357.54	-33223.65	1	35111.32	-71.12695	7.836156E-010	0.0062499	6
	43	62	49.86702	13935.95	-40975.29	1	43280.31	-71.21651	1.203355E-009	0.0062476	6
	44	63	39.72458	16331.12	-50167.5	1	52758.73	-71.96828	9.615286E-010	0.0062545	6
	45	65	31.6723	19710.57	-61123.9	1	64223.34	-72.12709	4.242398E-010	0.00625	6
	46	66	24.93351	24357.27	-74724.96	1	78594.51	-71.94616	6.811434E-010	0.0062448	6
	47	68	19.86229	30185.13	-90335.95	1	95245.6	-71.52331	1.282752E-010	0.006249	6
	48	69	15.83615	37212.05	-109376	1	115532.8	-71.21059	2.383781E-009	0.0062523	5
	49	70	12.40079	49717.16	-130832.7	1	139960.7	-69.19292	-7.461826E-010	0.0062606	5
	50	72	9.93114	62058.45	-156450.2	1	168309	-68.36346	-6.79426E-011	0.0062581	5
	51	73	7.944915	77200.57	-183332	1	198923.5	-67.16418	-6.547687E-010	0.0062532	5
	52	75	6.317385	98558.6	-216654.5	1	238018.9	-65.53867	1.986961E-010	0.0062391	5
	53	77	5.008013	124732.8	-253739.5	1	282740.2	-63.82227	6.178148E-011	0.006253	5
	54	80	3.945707	157370.1	-295816.8	1	335071.5	-61.98769	-9.717153E-011	0.0062478	5
	55	82	3.158693	193199	-337245.8	1	388665.2	-60.19277	1.91743E-010	0.0062507	5
	56	86	2.504006	236550.3	-384330.9	1	451294	-58.38828	-1.501441E-010	0.0062556	5
	57	89	1.998082	282836.8	-432449.7	1	516729.5	-56.81395	3.080617E-010	0.0062094	5
	58	92	1.584686	335325.8	-487244.9	1	591482.1	-55.46395	-3.948993E-011	0.0062539	5
	59	95	1.266892	391691.7	-544670	1	670885.8	-54.27874	1.203425E-010	0.0062142	5
	60	100	0.999041	453029.7	-613042.1	1	762270.6	-53.53611	1.353312E-010	0.0062966	5
