EXPLAIN
TAG	EISPOT
TITLE	LABEL	Potentiostatic EIS	Test &Identifier
DATE	LABEL	10/8/2019	Date
TIME	LABEL	8:27:28	Time
NOTES	NOTES	2	&Notes...
	
	
PSTAT	PSTAT	REF600-11020	Potentiostat
VDC	POTEN	0.00000E+000	T	DC &Voltage (V)
FREQINIT	QUANT	1.00000E+006	Initial Fre&q. (Hz)
FREQFINAL	QUANT	1.00000E+000	Final Fre&q. (Hz)
PTSPERDEC	QUANT	1.00000E+001	Points/&decade
VAC	QUANT	2.50000E+001	AC &Voltage (mV rms)
AREA	QUANT	1.00000E-002	&Area (cm^2)
CONDIT	TWOPARAM	T	5.00000E+000	0.00000E+000	Conditionin&g	Time(s)	E(V)
DELAY	TWOPARAM	T	5.00000E+000	0.00000E+000	Init. De&lay	Time(s)	Stab.(mV/s)
SPEED	SELECTOR	1	&Optimize for:
ZGUESS	QUANT	1.00000E+004	E&stimated Z (ohms)
OCVCURVE	TABLE	19
	Pt	T	Vf	Vm	Ach	Over
	#	s	V vs. Ref.	V	V	bits
	0	0.258333	7.02765E-003	7.02765E-003	5.40399E-004	...........
	1	0.516667	7.02799E-003	7.04557E-003	5.44333E-004	...........
	2	0.775	7.03029E-003	7.07289E-003	5.40299E-004	...........
	3	1.03333	7.03749E-003	7.10109E-003	5.37066E-004	...........
	4	1.29167	7.05209E-003	7.14301E-003	5.40033E-004	...........
	5	1.55	7.07511E-003	7.19783E-003	5.37033E-004	...........
	6	1.80833	7.10686E-003	7.24684E-003	5.38466E-004	...........
	7	2.06667	7.14681E-003	7.29598E-003	5.37499E-004	...........
	8	2.325	7.19427E-003	7.42372E-003	5.40799E-004	...........
	9	2.58333	7.24978E-003	7.40875E-003	5.38133E-004	...........
	10	2.84167	7.31013E-003	7.43963E-003	5.39166E-004	...........
	11	3.1	7.36680E-003	7.54932E-003	5.40399E-004	...........
	12	3.35833	7.41700E-003	7.55134E-003	5.36433E-004	...........
	13	3.61667	7.46528E-003	7.61270E-003	5.38233E-004	...........
	14	3.875	7.51394E-003	7.67961E-003	5.38533E-004	...........
	15	4.13333	7.56357E-003	7.73702E-003	5.40133E-004	...........
	16	4.39167	7.61568E-003	7.76265E-003	5.40299E-004	...........
	17	4.65	7.66879E-003	7.81508E-003	5.45066E-004	...........
	18	4.90833	7.71941E-003	7.86827E-003	5.39899E-004	...........
EOC	QUANT	0.0077194	Open Circuit (V)
PSTATMODEL	IQUANT	4	Pstat Model
PSTATSECTION	LABEL	REF600-11020	Pstat Section
PSTATSERIALNO	LABEL	11020	Pstat Serial Number
CTRLMODE	IQUANT	1	Control Mode
IESTAB	IQUANT	0	I/E Stability
CASPEED	IQUANT	1	Control Amp Speed
CONVENTION	IQUANT	1	Current Convention
ICHRANGE	IQUANT	2	Ich Range
ICHRANGEMODE	TOGGLE	F	Ich Auto Range
ICHOFFSETENABLE	TOGGLE	T	Ich Offset Enable
ICHOFFSET	QUANT	0	Ich Offset (V)
ICHFILTER	IQUANT	3	Ich Filter
VCHRANGE	IQUANT	2	Vch Range
VCHRANGEMODE	TOGGLE	F	Vch Auto Range
VCHOFFSETENABLE	TOGGLE	T	Vch Offset Enable
VCHOFFSET	QUANT	0	Vch Offset (V)
VCHFILTER	IQUANT	3	Vch Filter
ACHRANGE	IQUANT	2	Ach Range
ACHOFFSETENABLE	TOGGLE	F	Ach Offset Enable
ACHOFFSET	QUANT	0	Ach Offset (V)
ACHFILTER	IQUANT	3	Ach Filter
IERANGELOWERLIMIT	IQUANT	1	I/E Range Lower Limit
IERANGEMODE	TOGGLE	F	I/E AutoRange
IERANGE	IQUANT	6	I/E Range
POSFEEDENABLE	TOGGLE	F	Positive Feedback IR Comp
POSFEEDRESISTANCE	QUANT	0	Positive Feedback Resistance (ohm)
ACHSELECT	IQUANT	0	Ach Select
CABLEID	IQUANT	14	Cable ID
DCCALDATE	LABEL	8/19/2019	DC Calibration Date
ACCALDATE	LABEL	8/19/2019	AC Calibration Date
THERMOSELECT	IQUANT	1	Thermo Select
FRAMEWORKVERSION	QUANT	6.33	Framework Version
INSTRUMENTVERSION	LABEL	3.50	Instrument Version
ZCURVE	TABLE
	Pt	Time	Freq	Zreal	Zimag	Zsig	Zmod	Zphz	Idc	Vdc	IERange
	#	s	Hz	ohm	ohm	V	ohm	°	A	V	#
	0	2	1000078	2406.478	-1313.723	1	2741.716	-28.63061	-3.391539E-006	0.0107717	8
	1	3	794390.6	2648.518	-1190.771	1	2903.891	-24.20865	3.153023E-006	0.0095386	8
	2	5	630984.4	2832.455	-1050.646	1	3021.036	-20.35139	3.429399E-007	0.0093793	8
	3	6	501234.4	2978.127	-920.6053	1	3117.171	-17.17754	-4.698531E-006	0.0105561	8
	4	7	398109.4	3093.481	-801.7252	1	3195.683	-14.52945	-2.919928E-006	0.0098797	8
	5	8	316265.6	3196.02	-660.1741	1	3263.49	-11.67095	-3.115524E-006	0.0098428	8
	6	10	251203.1	3249.068	-587.4233	1	3301.744	-10.24823	9.592496E-007	0.009184	8
	7	11	199546.9	3306.257	-511.2824	1	3345.556	-8.790638	-5.536742E-007	0.0093935	8
	8	13	158578.1	3324.83	-453.9489	1	3355.677	-7.77469	1.443469E-006	0.0091849	8
	9	14	125953.1	3379.141	-359.7014	1	3398.232	-6.076115	-1.514979E-006	0.0123961	7
	10	15	100078.1	3404.572	-319.8123	1	3419.56	-5.366395	-1.286815E-008	0.0094399	7
	11	17	79453.13	3428.923	-303.6087	1	3442.338	-5.05997	-1.226027E-008	0.0092745	7
	12	18	63140.62	3454.51	-294.5745	1	3467.047	-4.87396	5.640616E-009	0.0092378	7
	13	19	50203.12	3479.206	-291.7079	1	3491.414	-4.792654	-1.23822E-008	0.0092626	7
	14	21	39890.62	3505.147	-296.5959	1	3517.674	-4.836689	-1.647489E-008	0.0092605	7
	15	22	31640.63	3530.396	-307.2098	1	3543.737	-4.973266	3.815597E-008	0.0092508	7
	16	23	25171.88	3557.238	-324.5962	1	3572.017	-5.213773	1.043109E-009	0.0092962	7
	17	25	20015.62	3583.534	-350.124	1	3600.598	-5.580289	-3.865362E-009	0.009328	7
	18	26	15890.62	3615.936	-385.1864	1	3636.394	-6.080484	-3.928587E-008	0.0093089	7
	19	27	12609.37	3647.909	-429.365	1	3673.091	-6.712924	-3.725741E-008	0.0093713	7
	20	29	10078.13	3680.239	-483.9283	1	3711.919	-7.491057	7.970228E-008	0.0091328	7
	21	30	8015.625	3721.21	-559.0798	1	3762.974	-8.544292	4.510379E-008	0.0091587	7
	22	31	6328.125	3752.964	-643.1273	1	3807.67	-9.72405	-3.33303E-008	0.0093275	7
	23	33	5015.625	3794.025	-752.1949	1	3867.871	-11.21392	-3.807318E-008	0.0093178	7
	24	34	3984.375	3837.243	-885.3401	1	3938.053	-12.9921	-1.195397E-008	0.0094307	7
	25	35	3170.956	3886.726	-1053.835	1	4027.06	-15.17027	-1.280721E-008	0.0094289	7
	26	37	2527.573	3941.76	-1256.691	1	4137.239	-17.68305	-3.400697E-008	0.0093202	7
	27	38	1976.103	4011.968	-1530.782	1	4294.087	-20.88455	-1.776259E-008	0.00934	7
	28	39	1577.524	4090.863	-1839.083	1	4485.241	-24.20671	8.83519E-008	0.0092297	7
	29	41	1265.625	4172.526	-2206.558	1	4720.05	-27.87124	1.29001E-009	0.0092949	7
	30	42	998.264	4279.941	-2691.337	1	5055.808	-32.16273	7.769357E-009	0.0092272	7
	31	43	796.875	4403.208	-3255.794	1	5476.17	-36.47974	-2.919382E-008	0.0093001	7
	32	45	627.7902	4555.254	-3991.943	1	6056.893	-41.22932	-3.580428E-008	0.0093725	7
	33	46	505.5147	4718.241	-4813.014	1	6739.948	-45.5697	1.179027E-009	0.0092988	7
	34	47	397.9953	4932.529	-5919.306	1	7705.064	-50.19572	5.648376E-009	0.0093136	7
	35	49	315.5048	5189.186	-7253.541	1	8918.604	-54.42006	4.934662E-009	0.0093133	7
	36	50	252.4038	5495.37	-8828.898	1	10399.45	-58.10063	4.0755E-010	0.0092485	6
	37	51	198.6229	5906.119	-10915.66	1	12411.04	-61.58358	1.054912E-009	0.0092489	6
	38	53	158.3615	6402.304	-13351.09	1	14806.79	-64.38068	1.173048E-009	0.0092526	6
	39	54	125.558	7059.118	-16409.33	1	17863.29	-66.72314	7.102758E-010	0.0092526	6
	40	55	100.4464	7873.659	-20012.94	1	21506.1	-68.52392	7.955164E-010	0.0092478	6
	41	57	79.00281	9032.352	-24752.72	1	26349.21	-69.9528	5.006732E-010	0.0092499	6
	42	58	63.3446	10547.3	-30148.66	1	31940.37	-70.71796	1.014582E-009	0.0092474	6
	43	59	49.86702	12412.92	-36867.84	1	38901.39	-71.3923	1.00763E-009	0.0092428	6
	44	61	39.72458	15124.62	-44826.18	1	47308.99	-71.3553	9.488333E-010	0.0092478	6
	45	62	31.6723	18392.34	-54185.63	1	57222.03	-71.25114	-1.708497E-012	0.0092404	6
	46	64	24.93351	23206.47	-66009.3	1	69969.77	-70.63018	6.026545E-010	0.0092443	6
	47	65	19.86229	28897.93	-79119.66	1	84231.88	-69.93561	5.194218E-010	0.0092442	6
	48	66	15.83615	36080.94	-94043.87	1	100727.8	-69.01015	8.457507E-010	0.0092434	6
	49	68	12.40079	45661.77	-113067.9	1	121939.9	-68.00898	4.603748E-010	0.0092483	5
	50	69	9.93114	57115	-132820.1	1	144579.7	-66.73144	3.641176E-010	0.0092499	5
	51	71	7.944915	70772.58	-155161.6	1	170540	-65.48125	2.206818E-010	0.0092481	5
	52	72	6.317385	87203.37	-180937.9	1	200855.6	-64.26817	6.245602E-010	0.0092481	5
	53	74	5.008013	106897.9	-210810	1	236364.1	-63.11127	3.772785E-010	0.0092567	5
	54	77	3.945707	130406.4	-245696.3	1	278159.2	-62.04231	-1.434067E-010	0.0092447	5
	55	80	3.158693	155375.6	-282579.4	1	322479	-61.19592	2.676289E-010	0.0092695	5
	56	83	2.504006	185632	-326872.7	1	375905.6	-60.40762	-2.832887E-010	0.0092412	5
	57	86	1.998082	218749	-375710.7	1	434752.4	-59.79087	-1.888668E-010	0.0092221	5
	58	89	1.584686	257625.8	-432053.2	1	503031.9	-59.19311	-4.885018E-011	0.0092808	5
	59	92	1.266892	299549.7	-497499.7	1	580720.3	-58.94742	-1.354325E-010	0.0092266	5
	60	97	0.999041	350684.6	-576558.5	1	674832.8	-58.69046	2.052243E-010	0.0092792	5
