EXPLAIN
TAG	EISPOT
TITLE	LABEL	Potentiostatic EIS	Test &Identifier
DATE	LABEL	10/26/2019	Date
TIME	LABEL	10:54:28	Time
NOTES	NOTES	1	&Notes...
	
PSTAT	PSTAT	REF600-11020	Potentiostat
VDC	POTEN	0.00000E+000	T	DC &Voltage (V)
FREQINIT	QUANT	1.00000E+006	Initial Fre&q. (Hz)
FREQFINAL	QUANT	1.00000E+000	Final Fre&q. (Hz)
PTSPERDEC	QUANT	1.00000E+001	Points/&decade
VAC	QUANT	2.50000E+001	AC &Voltage (mV rms)
AREA	QUANT	1.00000E-002	&Area (cm^2)
CONDIT	TWOPARAM	T	5.00000E+000	0.00000E+000	Conditionin&g	Time(s)	E(V)
DELAY	TWOPARAM	T	5.00000E+000	0.00000E+000	Init. De&lay	Time(s)	Stab.(mV/s)
SPEED	SELECTOR	0	&Optimize for:
ZGUESS	QUANT	1.00000E+005	E&stimated Z (ohms)
OCVCURVE	TABLE	19
	Pt	T	Vf	Vm	Ach	Over
	#	s	V vs. Ref.	V	V	bits
	0	0.258333	5.27125E-003	5.27125E-003	5.50733E-004	...........
	1	0.516667	5.27003E-003	5.20751E-003	5.55833E-004	...........
	2	0.775	5.26308E-003	5.17483E-003	5.57899E-004	...........
	3	1.03333	5.24542E-003	5.15532E-003	5.48533E-004	...........
	4	1.29167	5.21806E-003	5.12877E-003	5.49733E-004	...........
	5	1.55	5.18779E-003	5.12855E-003	5.54499E-004	...........
	6	1.80833	5.16197E-003	5.15737E-003	5.58932E-004	...........
	7	2.06667	5.14635E-003	5.16147E-003	5.52432E-004	...........
	8	2.325	5.14325E-003	5.17820E-003	5.50333E-004	...........
	9	2.58333	5.15029E-003	5.20473E-003	5.52799E-004	...........
	10	2.84167	5.16318E-003	5.19730E-003	5.51466E-004	...........
	11	3.1	5.17796E-003	5.21725E-003	5.55499E-004	...........
	12	3.35833	5.19211E-003	5.24977E-003	5.58832E-004	...........
	13	3.61667	5.20642E-003	5.26253E-003	5.55133E-004	...........
	14	3.875	5.22262E-003	5.26032E-003	5.58399E-004	...........
	15	4.13333	5.23888E-003	5.25804E-003	5.51866E-004	...........
	16	4.39167	5.24853E-003	5.12395E-003	5.53533E-004	...........
	17	4.65	5.23752E-003	4.91446E-003	5.50766E-004	...........
	18	4.90833	5.19227E-003	5.08466E-003	5.48333E-004	...........
EOC	QUANT	0.0051923	Open Circuit (V)
PSTATMODEL	IQUANT	4	Pstat Model
PSTATSECTION	LABEL	REF600-11020	Pstat Section
PSTATSERIALNO	LABEL	11020	Pstat Serial Number
CTRLMODE	IQUANT	1	Control Mode
IESTAB	IQUANT	0	I/E Stability
CASPEED	IQUANT	1	Control Amp Speed
CONVENTION	IQUANT	1	Current Convention
ICHRANGE	IQUANT	2	Ich Range
ICHRANGEMODE	TOGGLE	F	Ich Auto Range
ICHOFFSETENABLE	TOGGLE	T	Ich Offset Enable
ICHOFFSET	QUANT	0	Ich Offset (V)
ICHFILTER	IQUANT	3	Ich Filter
VCHRANGE	IQUANT	2	Vch Range
VCHRANGEMODE	TOGGLE	F	Vch Auto Range
VCHOFFSETENABLE	TOGGLE	T	Vch Offset Enable
VCHOFFSET	QUANT	0	Vch Offset (V)
VCHFILTER	IQUANT	3	Vch Filter
ACHRANGE	IQUANT	2	Ach Range
ACHOFFSETENABLE	TOGGLE	F	Ach Offset Enable
ACHOFFSET	QUANT	0	Ach Offset (V)
ACHFILTER	IQUANT	3	Ach Filter
IERANGELOWERLIMIT	IQUANT	1	I/E Range Lower Limit
IERANGEMODE	TOGGLE	F	I/E AutoRange
IERANGE	IQUANT	4	I/E Range
POSFEEDENABLE	TOGGLE	F	Positive Feedback IR Comp
POSFEEDRESISTANCE	QUANT	0	Positive Feedback Resistance (ohm)
ACHSELECT	IQUANT	0	Ach Select
CABLEID	IQUANT	14	Cable ID
DCCALDATE	LABEL	8/19/2019	DC Calibration Date
ACCALDATE	LABEL	8/19/2019	AC Calibration Date
THERMOSELECT	IQUANT	1	Thermo Select
FRAMEWORKVERSION	QUANT	6.33	Framework Version
INSTRUMENTVERSION	LABEL	3.50	Instrument Version
ZCURVE	TABLE
	Pt	Time	Freq	Zreal	Zimag	Zsig	Zmod	Zphz	Idc	Vdc	IERange
	#	s	Hz	ohm	ohm	V	ohm	°	A	V	#
	0	1	1000078	2378.188	-1583.926	1	2857.376	-33.66449	2.229572E-006	0.0070419	8
	1	2	794390.6	2681.231	-1505.513	1	3074.991	-29.31424	4.578145E-007	0.0070781	8
	2	2	630984.4	2947.958	-1407.8	1	3266.857	-25.52684	3.537328E-006	0.0064487	8
	3	2	501234.4	3194.38	-1264.749	1	3435.645	-21.60006	-3.438768E-006	0.0076513	8
	4	3	398109.4	3385.482	-1136.352	1	3571.104	-18.55456	-2.363851E-006	0.0073032	8
	5	3	316265.6	3543.222	-998.629	1	3681.261	-15.74007	-2.564776E-006	0.007516	8
	6	3	251203.1	3645.964	-861.9598	1	3746.469	-13.30135	1.11648E-006	0.0065907	8
	7	4	199546.9	3738.955	-742.0323	1	3811.876	-11.22506	-7.323395E-008	0.0068757	8
	8	4	158578.1	3808.467	-663.8081	1	3865.885	-9.88721	-2.612166E-006	0.0074803	8
	9	4	125953.1	3882.543	-539.3022	1	3919.82	-7.908033	1.816645E-007	0.006638	7
	10	5	100078.1	3920.02	-476.8547	1	3948.917	-6.935726	6.555971E-008	0.006661	7
	11	5	79453.13	3958.416	-440.7281	1	3982.875	-6.35312	1.002738E-007	0.0066446	7
	12	5	63140.62	3994.281	-416.6259	1	4015.951	-5.954738	7.422341E-008	0.006736	7
	13	6	50203.12	4030.601	-403.0084	1	4050.699	-5.709866	1.011849E-007	0.0066412	7
	14	6	39890.62	4065.221	-399.0067	1	4084.756	-5.6057	-2.951421E-008	0.0067914	7
	15	6	31640.63	4101.417	-402.4624	1	4121.116	-5.604358	-2.606685E-008	0.0068334	7
	16	6	25171.88	4139.481	-417.317	1	4160.463	-5.756758	7.449374E-008	0.0067321	7
	17	7	20015.62	4173.335	-442.5388	1	4196.733	-6.053002	-5.01201E-008	0.0069445	7
	18	7	15890.62	4223.842	-467.8826	1	4249.677	-6.320987	3.27937E-009	0.0068775	7
	19	7	12609.37	4269.366	-508.0822	1	4299.492	-6.78665	-4.884249E-009	0.0068243	7
	20	8	10078.13	4314.051	-554.207	1	4349.503	-7.32044	6.694271E-008	0.0066489	7
	21	8	8015.625	4363.202	-615.124	1	4406.349	-8.024671	-2.23226E-008	0.0067812	7
	22	8	6328.125	4411.937	-693.1891	1	4466.061	-8.92913	3.465307E-009	0.0067384	7
	23	9	5015.625	4461.528	-790.1752	1	4530.961	-10.04343	1.407189E-009	0.0067309	7
	24	9	3984.375	4513.458	-912.8231	1	4604.839	-11.43355	-5.429257E-008	0.0068727	7
	25	9	3170.956	4566.707	-1060.573	1	4688.244	-13.07461	-3.96015E-008	0.0068325	7
	26	10	2527.573	4625.468	-1248.524	1	4791.009	-15.10551	3.402105E-008	0.006741	7
	27	10	1976.103	4695.093	-1501.977	1	4929.486	-17.73966	6.53925E-008	0.0066459	7
	28	10	1577.524	4768.933	-1797.876	1	5096.576	-20.65632	3.523699E-010	0.0067341	7
	29	11	1265.625	4846.268	-2141.164	1	5298.197	-23.83666	-4.950129E-008	0.0068708	7
	30	11	998.264	4947.441	-2607.239	1	5592.394	-27.78867	7.5381E-008	0.0067312	7
	31	11	796.875	5063.505	-3155.052	1	5966.023	-31.92688	3.946623E-009	0.0068666	7
	32	12	627.7902	5213.155	-3867.741	1	6491.256	-36.57244	6.889566E-009	0.0067389	7
	33	12	505.5147	5382.243	-4665.207	1	7122.689	-40.91801	3.268973E-008	0.0066698	7
	34	12	397.9953	5612.856	-5748.874	1	8034.532	-45.68589	1.726832E-009	0.0068079	7
	35	13	315.5048	5900.998	-7042.289	1	9187.797	-50.0391	3.311956E-009	0.0068042	7
	36	13	252.4038	6258.721	-8555.563	1	10600.44	-53.8131	-8.256199E-011	0.0067416	6
	37	13	198.6229	6748.563	-10540.36	1	12515.68	-57.37022	2.458317E-010	0.0067447	6
	38	13	158.3615	7352.991	-12821.17	1	14780.02	-60.16556	-4.943247E-011	0.0067441	6
	39	14	125.558	8141.572	-15650.88	1	17641.86	-62.5166	2.826274E-010	0.0067443	6
	40	14	100.4464	9121.544	-18891.97	1	20978.78	-64.22752	1.556339E-009	0.0067407	6
	41	14	79.00281	10504.93	-23120.47	1	25395.07	-65.56503	1.068716E-009	0.0067428	6
	42	15	63.3446	11735.19	-27863.66	1	30234.05	-67.16089	-4.474808E-010	0.0067405	6
	43	15	49.86702	13872.4	-33794.03	1	36530.54	-67.68192	-6.753987E-010	0.0067374	6
	44	16	39.72458	16642	-40659.23	1	43933.23	-67.74049	3.934878E-010	0.0067428	6
	45	16	31.6723	19920.58	-48692.97	1	52610.22	-67.75024	-7.939534E-011	0.0067418	6
	46	16	24.93351	24059.85	-58889.78	1	63615.11	-67.77717	6.54849E-010	0.0067396	6
	47	17	19.86229	29140.04	-70417.62	1	76208.81	-67.51937	2.315118E-009	0.0067499	6
	48	17	15.83615	36710.84	-84047.88	1	91715.5	-66.40502	-2.83128E-009	0.0067458	6
	49	17	12.40079	45250.07	-100326	1	110058.5	-65.72318	1.089462E-009	0.0067439	5
	50	18	9.93114	55214.62	-117855.9	1	130148.7	-64.89726	-7.752644E-010	0.0067482	5
	51	18	7.944915	67435.3	-137370.3	1	153029.8	-63.8535	4.416738E-010	0.0067423	5
	52	19	6.317385	82916.88	-159205.6	1	179503.9	-62.48877	1.342179E-010	0.006745	5
	53	19	5.008013	101382.5	-184141.4	1	210205.7	-61.1642	-1.957848E-010	0.0067397	5
	54	21	3.945707	122784.6	-213029.4	1	245881.3	-60.04197	1.998113E-010	0.0067504	5
	55	22	3.158693	145299.7	-242424.6	1	282633.4	-59.0632	-1.827942E-010	0.0067578	5
	56	24	2.504006	170722.5	-277753.8	1	326026.6	-58.42286	-2.063684E-010	0.0067402	5
	57	25	1.998082	198028.4	-316477.9	1	373327.6	-57.96472	6.579486E-011	0.0067829	5
	58	26	1.584686	227428.3	-364176.7	1	429358	-58.01523	6.293861E-011	0.0067731	5
	59	28	1.266892	258596.5	-417665.7	1	491240	-58.23639	-6.854843E-011	0.0067369	5
	60	31	0.999041	297044.1	-486749.6	1	570228.4	-58.60593	-5.714268E-011	0.006711	5
