EXPLAIN
TAG	EISPOT
TITLE	LABEL	Potentiostatic EIS	Test &Identifier
DATE	LABEL	11/12/2019	Date
TIME	LABEL	22:04:22	Time
NOTES	NOTES	3	&Notes...
	
	
	
PSTAT	PSTAT	REF600-11020	Potentiostat
VDC	POTEN	0.00000E+000	T	DC &Voltage (V)
FREQINIT	QUANT	1.00000E+006	Initial Fre&q. (Hz)
FREQFINAL	QUANT	1.00000E+000	Final Fre&q. (Hz)
PTSPERDEC	QUANT	1.00000E+001	Points/&decade
VAC	QUANT	2.50000E+001	AC &Voltage (mV rms)
AREA	QUANT	1.00000E-002	&Area (cm^2)
CONDIT	TWOPARAM	T	5.00000E+000	0.00000E+000	Conditionin&g	Time(s)	E(V)
DELAY	TWOPARAM	T	5.00000E+000	0.00000E+000	Init. De&lay	Time(s)	Stab.(mV/s)
SPEED	SELECTOR	1	&Optimize for:
ZGUESS	QUANT	1.00000E+005	E&stimated Z (ohms)
OCVCURVE	TABLE	19
	Pt	T	Vf	Vm	Ach	Over
	#	s	V vs. Ref.	V	V	bits
	0	0.258333	7.66987E-004	7.66987E-004	5.39433E-004	...........
	1	0.516667	7.57071E-004	2.47934E-004	5.46399E-004	...........
	2	0.775	6.85837E-004	-7.85582E-004	5.48166E-004	...........
	3	1.03333	4.60113E-004	-1.24500E-003	5.47366E-004	...........
	4	1.29167	5.28820E-005	-7.00612E-004	5.44266E-004	...........
	5	1.55	-3.97340E-004	-6.87161E-004	5.43633E-004	...........
	6	1.80833	-6.93041E-004	-4.28917E-004	5.44633E-004	...........
	7	2.06667	-7.69863E-004	-7.04619E-004	5.38266E-004	...........
	8	2.325	-7.21106E-004	-8.05746E-004	5.45166E-004	...........
	9	2.58333	-6.71716E-004	-6.52275E-004	5.42499E-004	...........
	10	2.84167	-6.68972E-004	-7.14407E-004	5.38699E-004	...........
	11	3.1	-6.88724E-004	-7.64438E-004	5.34566E-004	...........
	12	3.35833	-7.07471E-004	-7.61754E-004	5.31666E-004	...........
	13	3.61667	-7.26740E-004	-8.59794E-004	5.38399E-004	...........
	14	3.875	-7.54013E-004	-9.00668E-004	5.40399E-004	...........
	15	4.13333	-7.98973E-004	-1.26852E-003	5.41233E-004	...........
	16	4.39167	-8.95479E-004	-2.18314E-003	5.39399E-004	...........
	17	4.65	-1.11488E-003	-2.82325E-003	5.41299E-004	...........
	18	4.90833	-1.52612E-003	-4.00839E-003	5.36133E-004	...........
EOC	QUANT	-0.0015261	Open Circuit (V)
PSTATMODEL	IQUANT	4	Pstat Model
PSTATSECTION	LABEL	REF600-11020	Pstat Section
PSTATSERIALNO	LABEL	11020	Pstat Serial Number
CTRLMODE	IQUANT	1	Control Mode
IESTAB	IQUANT	0	I/E Stability
CASPEED	IQUANT	1	Control Amp Speed
CONVENTION	IQUANT	1	Current Convention
ICHRANGE	IQUANT	2	Ich Range
ICHRANGEMODE	TOGGLE	F	Ich Auto Range
ICHOFFSETENABLE	TOGGLE	T	Ich Offset Enable
ICHOFFSET	QUANT	0	Ich Offset (V)
ICHFILTER	IQUANT	3	Ich Filter
VCHRANGE	IQUANT	2	Vch Range
VCHRANGEMODE	TOGGLE	F	Vch Auto Range
VCHOFFSETENABLE	TOGGLE	T	Vch Offset Enable
VCHOFFSET	QUANT	0	Vch Offset (V)
VCHFILTER	IQUANT	3	Vch Filter
ACHRANGE	IQUANT	2	Ach Range
ACHOFFSETENABLE	TOGGLE	F	Ach Offset Enable
ACHOFFSET	QUANT	0	Ach Offset (V)
ACHFILTER	IQUANT	3	Ach Filter
IERANGELOWERLIMIT	IQUANT	1	I/E Range Lower Limit
IERANGEMODE	TOGGLE	F	I/E AutoRange
IERANGE	IQUANT	4	I/E Range
POSFEEDENABLE	TOGGLE	F	Positive Feedback IR Comp
POSFEEDRESISTANCE	QUANT	0	Positive Feedback Resistance (ohm)
ACHSELECT	IQUANT	0	Ach Select
CABLEID	IQUANT	14	Cable ID
DCCALDATE	LABEL	8/19/2019	DC Calibration Date
ACCALDATE	LABEL	8/19/2019	AC Calibration Date
THERMOSELECT	IQUANT	1	Thermo Select
FRAMEWORKVERSION	QUANT	6.33	Framework Version
INSTRUMENTVERSION	LABEL	3.50	Instrument Version
ZCURVE	TABLE
	Pt	Time	Freq	Zreal	Zimag	Zsig	Zmod	Zphz	Idc	Vdc	IERange
	#	s	Hz	ohm	ohm	V	ohm	°	A	V	#
	0	2	1000078	1793.757	-1837.747	1	2568.049	-45.69401	1.125517E-005	-0.0007133	8
	1	3	794390.6	2118.469	-1978.011	1	2898.351	-43.03624	-9.208394E-006	0.0008165	8
	2	5	630984.4	2474.531	-2099.901	1	3245.441	-40.31813	-4.875662E-007	0.0001257	8
	3	6	501234.4	2882.134	-2177.632	1	3612.31	-37.07332	5.76375E-006	-0.0005535	8
	4	7	398109.4	3274.14	-2233.903	1	3963.624	-34.30521	1.429654E-006	-0.0003731	8
	5	9	316265.6	3722.315	-2230.714	1	4339.552	-30.93347	-1.466262E-006	-0.0001562	8
	6	10	251203.1	4152.056	-2167.02	1	4683.54	-27.56073	1.903716E-006	-0.0004003	8
	7	12	199546.9	4542.363	-2056.346	1	4986.143	-24.35646	-2.17253E-006	-5.692165E-005	8
	8	13	158578.1	4869.858	-1871.207	1	5216.985	-21.0189	-1.764144E-006	0.0001519	8
	9	15	125953.1	5207.141	-1605.364	1	5448.992	-17.13456	-2.138442E-006	0.0030816	7
	10	16	100078.1	5444.967	-1419.87	1	5627.05	-14.61539	-3.215133E-007	-0.0007662	7
	11	18	79453.13	5618.692	-1244.097	1	5754.779	-12.48506	-1.025938E-006	0.0015285	7
	12	19	63140.62	5775.771	-1065.077	1	5873.152	-10.44821	7.934126E-008	-0.001289	7
	13	20	50203.12	5894.516	-934.5596	1	5968.142	-9.009103	3.868629E-007	0.000462	7
	14	22	39890.62	5986.491	-804.8116	1	6040.347	-7.656819	9.774981E-007	-0.0007424	7
	15	23	31640.63	6014.642	-692.5384	1	6054.38	-6.568231	-3.220681E-007	-0.0007884	7
	16	25	25171.88	6087.12	-621.81	1	6118.797	-5.832633	1.029966E-006	-0.0014412	7
	17	26	20015.62	6100.571	-561.0302	1	6126.314	-5.254344	7.805984E-008	-0.0012842	7
	18	28	15890.62	6138.677	-530.8702	1	6161.589	-4.942618	4.344787E-007	-0.0015862	7
	19	29	12609.37	6135.04	-519.4172	1	6156.988	-4.839351	-1.00075E-006	0.0004922	7
	20	31	10078.13	6166.777	-527.5439	1	6189.301	-4.889527	-7.119025E-007	-0.0001341	7
	21	32	8015.625	6203.604	-558.4581	1	6228.69	-5.14399	8.010544E-008	-0.0012894	7
	22	34	6328.125	6209.917	-610.0104	1	6239.806	-5.61026	-7.134277E-007	-0.0001354	7
	23	36	5015.625	6236.036	-693.2388	1	6274.45	-6.343331	-1.024154E-006	0.0015128	7
	24	37	3984.375	6255.999	-798.5115	1	6306.753	-7.273864	-1.150599E-006	0.0013546	7
	25	39	3170.956	6288.317	-937.015	1	6357.746	-8.475219	-1.153078E-006	0.0010155	7
	26	40	2527.573	6365.675	-1126.016	1	6464.498	-10.03121	6.005185E-007	0.0001316	7
	27	42	1976.103	6386.194	-1366.494	1	6530.756	-12.07781	7.16938E-008	-0.0012928	7
	28	43	1577.524	6455.844	-1674	1	6669.348	-14.53664	9.474507E-008	0.0008589	7
	29	45	1265.625	6487.134	-1984.482	1	6783.884	-17.00942	-7.132308E-007	-0.0001425	7
	30	46	998.264	6578.803	-2435.065	1	7014.998	-20.31143	-7.175743E-007	-0.0001397	7
	31	48	796.875	6724.82	-3005.966	1	7366.074	-24.08444	9.792576E-007	-0.0007457	7
	32	49	627.7902	6834.589	-3672.841	1	7758.954	-28.25315	7.593941E-008	-0.0012947	7
	33	51	505.5147	6998.051	-4436.826	1	8286.021	-32.37506	-8.272358E-007	0.0015524	7
	34	52	397.9953	7247.33	-5500.488	1	9098.305	-37.19732	8.040712E-009	-1.027207E-005	7
	35	53	315.5048	7552.561	-6741.49	1	10123.68	-41.75241	1.573071E-009	-7.926711E-005	6
	36	55	252.4038	7932.578	-8191.148	1	11402.66	-45.91875	1.794051E-009	-7.880419E-005	6
	37	56	198.6229	8465.11	-10078.42	1	13161.79	-49.97229	1.372751E-009	-7.667539E-005	6
	38	57	158.3615	9129.792	-12235.8	1	15266.56	-53.2714	7.392739E-010	-6.855187E-005	6
	39	59	125.558	10024.78	-14879.57	1	17941.51	-56.03077	1.059449E-009	-6.992085E-005	6
	40	60	100.4464	11141.99	-17892.47	1	21078.06	-58.08868	1.949999E-010	-7.623027E-005	6
	41	62	79.00281	12737.67	-21732.25	1	25190.06	-59.62465	5.160482E-010	-7.503801E-005	6
	42	63	63.3446	14705.44	-25905.8	1	29788.6	-60.41858	8.333068E-010	-7.885312E-005	6
	43	64	49.86702	16990.8	-31126	1	35461.46	-61.37113	7.130593E-010	-8.14702E-005	6
	44	66	39.72458	20054	-36701.71	1	41823.18	-61.34758	1.303174E-009	-7.89312E-005	6
	45	67	31.6723	23575.39	-43088.97	1	49116.78	-61.31549	1.839822E-009	-8.098467E-005	6
	46	69	24.93351	28092.97	-50831.29	1	58077.83	-61.07185	9.026923E-010	-8.261856E-005	6
	47	70	19.86229	32998.2	-59179.52	1	67757.64	-60.85618	1.49597E-009	-8.604054E-005	6
	48	71	15.83615	38200.69	-68608.13	1	78526.22	-60.89114	7.703876E-010	-8.020075E-005	6
	49	73	12.40079	44958.53	-80906.27	1	92558.59	-60.93966	2.213088E-010	-6.872304E-005	6
	50	74	9.93114	51792.23	-93743.43	1	107099.3	-61.07983	6.209172E-010	-7.902265E-005	5
	51	76	7.944915	59368.96	-108920.8	1	124050	-61.40673	1.178533E-009	-7.479089E-005	5
	52	78	6.317385	68250.5	-128059	1	145111.1	-61.94411	1.696478E-011	-9.180791E-005	5
	53	80	5.008013	78838.67	-151262.7	1	170575.3	-62.47131	1.020676E-010	-6.846433E-005	5
	54	82	3.945707	91498.73	-179652.4	1	201611	-63.00981	-3.500197E-011	-7.889081E-005	5
	55	85	3.158693	105768.7	-211242.5	1	236242.3	-63.40297	4.36811E-010	-6.14904E-005	5
	56	88	2.504006	123861.1	-250610.5	1	279548.3	-63.6997	-1.244185E-010	-8.161012E-005	5
	57	91	1.998082	145102	-295121.9	1	328864	-63.81813	-1.091271E-011	-7.372833E-005	5
	58	94	1.584686	171628.6	-349496.7	1	389364	-63.84557	2.674768E-010	-2.745699E-005	5
	59	98	1.266892	202290.1	-409646.6	1	456871.5	-63.7191	3.911917E-011	-4.031499E-005	5
	60	102	0.999041	240796.3	-484714	1	541230.6	-63.58273	3.209473E-010	-9.040955E-005	5
