EXPLAIN
TAG	EISPOT
TITLE	LABEL	Potentiostatic EIS	Test &Identifier
DATE	LABEL	10/28/2019	Date
TIME	LABEL	9:56:11	Time
NOTES	NOTES	1	&Notes...
	
PSTAT	PSTAT	REF600-11020	Potentiostat
VDC	POTEN	0.00000E+000	T	DC &Voltage (V)
FREQINIT	QUANT	1.00000E+006	Initial Fre&q. (Hz)
FREQFINAL	QUANT	1.00000E+000	Final Fre&q. (Hz)
PTSPERDEC	QUANT	1.00000E+001	Points/&decade
VAC	QUANT	2.50000E+001	AC &Voltage (mV rms)
AREA	QUANT	1.00000E-002	&Area (cm^2)
CONDIT	TWOPARAM	T	5.00000E+000	0.00000E+000	Conditionin&g	Time(s)	E(V)
DELAY	TWOPARAM	T	5.00000E+000	0.00000E+000	Init. De&lay	Time(s)	Stab.(mV/s)
SPEED	SELECTOR	1	&Optimize for:
ZGUESS	QUANT	1.00000E+005	E&stimated Z (ohms)
OCVCURVE	TABLE	19
	Pt	T	Vf	Vm	Ach	Over
	#	s	V vs. Ref.	V	V	bits
	0	0.258333	6.55267E-003	6.55267E-003	5.82132E-004	...........
	1	0.516667	6.55341E-003	6.59126E-003	5.72466E-004	...........
	2	0.775	6.56339E-003	6.91353E-003	5.74066E-004	...........
	3	1.03333	6.60080E-003	6.75285E-003	5.73032E-004	...........
	4	1.29167	6.67281E-003	7.07682E-003	5.72366E-004	...........
	5	1.55	6.77469E-003	7.44249E-003	5.72232E-004	...........
	6	1.80833	6.90689E-003	7.04486E-003	5.73532E-004	...........
	7	2.06667	7.04047E-003	6.90562E-003	5.71066E-004	...........
	8	2.325	7.10955E-003	6.99923E-003	5.79432E-004	...........
	9	2.58333	7.11509E-003	8.12260E-003	5.78366E-004	...........
	10	2.84167	7.20519E-003	9.66764E-003	5.75265E-004	...........
	11	3.1	7.58207E-003	1.03163E-002	5.79965E-004	...........
	12	3.35833	8.23937E-003	7.85525E-003	5.76566E-004	...........
	13	3.61667	8.77680E-003	5.66874E-003	5.81365E-004	...........
	14	3.875	8.66309E-003	4.63487E-003	5.78366E-004	...........
	15	4.13333	7.79941E-003	5.69113E-003	5.78066E-004	...........
	16	4.39167	6.69612E-003	6.91280E-003	5.76932E-004	...........
	17	4.65	5.99858E-003	6.49420E-003	5.83232E-004	...........
	18	4.90833	5.91998E-003	7.22140E-003	5.77266E-004	...........
EOC	QUANT	0.00592	Open Circuit (V)
PSTATMODEL	IQUANT	4	Pstat Model
PSTATSECTION	LABEL	REF600-11020	Pstat Section
PSTATSERIALNO	LABEL	11020	Pstat Serial Number
CTRLMODE	IQUANT	1	Control Mode
IESTAB	IQUANT	0	I/E Stability
CASPEED	IQUANT	1	Control Amp Speed
CONVENTION	IQUANT	1	Current Convention
ICHRANGE	IQUANT	2	Ich Range
ICHRANGEMODE	TOGGLE	F	Ich Auto Range
ICHOFFSETENABLE	TOGGLE	T	Ich Offset Enable
ICHOFFSET	QUANT	0	Ich Offset (V)
ICHFILTER	IQUANT	3	Ich Filter
VCHRANGE	IQUANT	2	Vch Range
VCHRANGEMODE	TOGGLE	F	Vch Auto Range
VCHOFFSETENABLE	TOGGLE	T	Vch Offset Enable
VCHOFFSET	QUANT	0	Vch Offset (V)
VCHFILTER	IQUANT	3	Vch Filter
ACHRANGE	IQUANT	2	Ach Range
ACHOFFSETENABLE	TOGGLE	F	Ach Offset Enable
ACHOFFSET	QUANT	0	Ach Offset (V)
ACHFILTER	IQUANT	3	Ach Filter
IERANGELOWERLIMIT	IQUANT	1	I/E Range Lower Limit
IERANGEMODE	TOGGLE	F	I/E AutoRange
IERANGE	IQUANT	5	I/E Range
POSFEEDENABLE	TOGGLE	F	Positive Feedback IR Comp
POSFEEDRESISTANCE	QUANT	0	Positive Feedback Resistance (ohm)
ACHSELECT	IQUANT	0	Ach Select
CABLEID	IQUANT	14	Cable ID
DCCALDATE	LABEL	8/19/2019	DC Calibration Date
ACCALDATE	LABEL	8/19/2019	AC Calibration Date
THERMOSELECT	IQUANT	1	Thermo Select
FRAMEWORKVERSION	QUANT	6.33	Framework Version
INSTRUMENTVERSION	LABEL	3.50	Instrument Version
ZCURVE	TABLE
	Pt	Time	Freq	Zreal	Zimag	Zsig	Zmod	Zphz	Idc	Vdc	IERange
	#	s	Hz	ohm	ohm	V	ohm	°	A	V	#
	0	1	1000078	2298.034	-1614.236	1	2808.33	-35.08582	5.968416E-007	0.0084028	8
	1	3	794390.6	2574.247	-1607.742	1	3035.059	-31.98678	-4.868908E-006	0.0090258	8
	2	5	630984.4	2837.754	-1602.957	1	3259.19	-29.46072	1.114017E-006	0.0076414	8
	3	6	501234.4	3108.664	-1594.81	1	3493.882	-27.15878	3.288732E-007	0.0077643	8
	4	8	398109.4	3397.335	-1550.992	1	3734.63	-24.53821	-3.828185E-006	0.0085123	8
	5	9	316265.6	3667.975	-1506.45	1	3965.278	-22.32813	1.201927E-007	0.0076785	8
	6	10	251203.1	3915.507	-1422.435	1	4165.875	-19.96519	-3.051581E-006	0.0081767	8
	7	12	199546.9	4161.555	-1321.924	1	4366.466	-17.62253	-2.884717E-006	0.0081586	8
	8	13	158578.1	4355.768	-1176.07	1	4511.746	-15.10973	4.818536E-008	0.0074771	8
	9	15	125953.1	4568.731	-1006.749	1	4678.338	-12.42689	-2.937819E-007	0.0078063	7
	10	16	100078.1	4695.409	-882.8436	1	4777.686	-10.64858	5.392125E-009	0.0074764	7
	11	18	79453.13	4800.657	-784.4744	1	4864.33	-9.280665	3.963812E-009	0.0076441	7
	12	19	63140.62	4884.668	-693.52	1	4933.655	-8.080785	4.835802E-009	0.0076393	7
	13	20	50203.12	4946.965	-618.2136	1	4985.444	-7.123225	-5.739611E-008	0.0075799	7
	14	22	39890.62	5004.726	-562.617	1	5036.25	-6.414099	1.331564E-007	0.0073292	7
	15	23	31640.63	5047.84	-519.6762	1	5074.52	-5.877904	-5.204069E-008	0.0076969	7
	16	25	25171.88	5086.227	-491.9732	1	5109.965	-5.524836	-4.950128E-008	0.0075715	7
	17	26	20015.62	5120.468	-486.3279	1	5143.511	-5.42552	-3.892484E-008	0.0075294	7
	18	27	15890.62	5153.11	-485.0261	1	5175.886	-5.377008	-3.840602E-008	0.0075285	7
	19	29	12609.37	5183.411	-500.1422	1	5207.484	-5.511352	-3.656984E-008	0.0075245	7
	20	30	10078.13	5219.739	-533.9322	1	5246.977	-5.840527	-6.868046E-008	0.0076285	7
	21	31	8015.625	5234.286	-594.3038	1	5267.917	-6.477655	-4.770729E-008	0.0075718	7
	22	33	6328.125	5288.238	-665.2594	1	5329.919	-7.170133	-4.98779E-008	0.0075689	7
	23	34	5015.625	5326.855	-765.7764	1	5381.617	-8.180661	-2.42791E-008	0.0075899	7
	24	35	3984.375	5373.212	-893.0945	1	5446.928	-9.436996	-4.280038E-008	0.0075941	7
	25	37	3170.956	5417.238	-1049.552	1	5517.973	-10.96481	-4.940753E-008	0.0076837	7
	26	38	2527.573	5468.719	-1243.682	1	5608.354	-12.81215	8.328469E-009	0.0074555	7
	27	40	1976.103	5527.921	-1507.28	1	5729.729	-15.25189	-6.690366E-008	0.0076202	7
	28	41	1577.524	5567.485	-1851.715	1	5867.345	-18.39684	1.661929E-009	0.0075488	7
	29	42	1265.625	5677.49	-2172.726	1	6079.032	-20.94142	8.258142E-009	0.0074546	7
	30	44	998.264	5782.108	-2642.11	1	6357.163	-24.55783	5.800183E-010	0.007546	7
	31	45	796.875	5888.188	-3200.645	1	6701.857	-28.5272	-4.060853E-008	0.0075915	7
	32	46	627.7902	6026.27	-3925.382	1	7191.978	-33.07936	4.481451E-008	0.0074584	7
	33	48	505.5147	6170.199	-4744.953	1	7783.697	-37.5607	-5.59378E-008	0.007566	7
	34	49	397.9953	6365.291	-5849.529	1	8644.878	-42.58216	4.468514E-009	0.0075338	7
	35	50	315.5048	6598.433	-7183.934	1	9754.39	-47.43257	4.659789E-009	0.0075338	7
	36	52	252.4038	6877.583	-8761.217	1	11138.23	-51.86798	-2.610312E-011	0.0074737	6
	37	53	198.6229	7250.961	-10858.46	1	13056.89	-56.26616	6.355312E-010	0.0074721	6
	38	55	158.3615	7706.427	-13305	1	15375.7	-59.92002	1.595637E-009	0.0074699	6
	39	56	125.558	8300.229	-16383.2	1	18365.81	-63.13184	1.001634E-009	0.0074708	6
	40	57	100.4464	9039.389	-20035.29	1	21980.07	-65.71637	2.091671E-009	0.0074679	6
	41	59	79.00281	10040.53	-24796.79	1	26752.44	-67.95637	-1.405596E-010	0.0074667	6
	42	60	63.3446	11059.21	-30050.84	1	32021.23	-69.79556	-1.215009E-010	0.0074658	6
	43	61	49.86702	13400.3	-37102.95	1	39448.66	-70.14204	-2.917573E-010	0.0074649	6
	44	63	39.72458	15555.43	-45474.47	1	48061.41	-71.11575	7.661905E-010	0.0074762	6
	45	64	31.6723	18650.62	-55484.84	1	58535.57	-71.4205	1.724239E-010	0.0074747	6
	46	66	24.93351	22863.27	-67905.01	1	71650.67	-71.39188	3.601234E-010	0.0074676	6
	47	67	19.86229	28345.66	-82104.78	1	86860.07	-70.9534	7.056163E-010	0.007473	6
	48	69	15.83615	35667.03	-99386.1	1	105592.3	-70.25829	-3.404555E-010	0.0074677	6
	49	70	12.40079	45874.23	-119097	1	127626.5	-68.93412	6.739241E-010	0.0074774	5
	50	72	9.93114	58060.52	-141696.4	1	153130.3	-67.7185	5.894788E-010	0.0074745	5
	51	73	7.944915	74071.22	-165549.8	1	181365	-65.89503	-8.000858E-010	0.007472	5
	52	75	6.317385	93264.89	-194742.7	1	215923.7	-64.40961	6.221325E-010	0.0074629	5
	53	77	5.008013	117651.5	-226393.3	1	255138.8	-62.5401	3.527286E-010	0.0074784	5
	54	79	3.945707	147342.5	-261253.9	1	299939	-60.57779	-2.535013E-010	0.0074632	5
	55	82	3.158693	178939.1	-296097.3	1	345966.4	-58.85437	3.53356E-010	0.0074903	5
	56	85	2.504006	216273.4	-335743.8	1	399372.1	-57.2119	-3.904024E-010	0.0074711	5
	57	88	1.998082	255296.4	-376701.1	1	455060.4	-55.87387	-6.93515E-011	0.0074362	5
	58	91	1.584686	299056.9	-424040.8	1	518888.9	-54.8064	1.436934E-010	0.0074935	5
	59	95	1.266892	339714.1	-475526.3	1	584406.5	-54.45814	-3.996866E-010	0.0074422	5
	60	99	0.999041	391341.6	-538803.8	1	665926.2	-54.00851	2.662052E-010	0.0075121	5
