EXPLAIN
TAG	EISPOT
TITLE	LABEL	Potentiostatic IDE	Test &Identifier
DATE	LABEL	9/16/2019	Date
TIME	LABEL	8:29:37	Time
NOTES	NOTES	1	&Notes...
	
PSTAT	PSTAT	REF600-11020	Potentiostat
VDC	POTEN	0.00000E+000	T	DC &Voltage (V)
FREQINIT	QUANT	1.00000E+006	Initial Fre&q. (Hz)
FREQFINAL	QUANT	1.00000E+000	Final Fre&q. (Hz)
PTSPERDEC	QUANT	1.00000E+001	Points/&decade
VAC	QUANT	2.50000E+001	AC &Voltage (mV rms)
AREA	QUANT	1.00000E-002	&Area (cm^2)
CONDIT	TWOPARAM	T	5.00000E+000	0.00000E+000	Conditionin&g	Time(s)	E(V)
DELAY	TWOPARAM	T	5.00000E+000	0.00000E+000	Init. De&lay	Time(s)	Stab.(mV/s)
SPEED	SELECTOR	1	&Optimize for:
ZGUESS	QUANT	1.00000E+007	E&stimated Z (ohms)
OCVCURVE	TABLE	19
	Pt	T	Vf	Vm	Ach	Over
	#	s	V vs. Ref.	V	V	bits
	0	0.258333	-1.26019E-003	-1.26019E-003	5.80407E-004	...........
	1	0.516667	-1.26681E-003	-1.60653E-003	5.83474E-004	...........
	2	0.775	-1.30895E-003	-2.01386E-003	5.78007E-004	...........
	3	1.03333	-1.43006E-003	-2.24210E-003	5.77674E-004	...........
	4	1.29167	-1.64192E-003	-2.40877E-003	5.80307E-004	...........
	5	1.55	-1.89841E-003	-2.35878E-003	5.79874E-004	...........
	6	1.80833	-2.13376E-003	-2.71793E-003	5.78941E-004	...........
	7	2.06667	-2.32501E-003	-2.95369E-003	5.79741E-004	...........
	8	2.325	-2.50301E-003	-3.18153E-003	5.78574E-004	...........
	9	2.58333	-2.70009E-003	-3.32647E-003	5.81707E-004	...........
	10	2.84167	-2.91363E-003	-3.53819E-003	5.82041E-004	...........
	11	3.1	-3.12489E-003	-3.71309E-003	5.79240E-004	...........
	12	3.35833	-3.32514E-003	-3.91109E-003	5.82441E-004	...........
	13	3.61667	-3.51653E-003	-4.06756E-003	5.79641E-004	...........
	14	3.875	-3.70084E-003	-4.17798E-003	5.80674E-004	...........
	15	4.13333	-3.87347E-003	-4.29348E-003	5.80241E-004	...........
	16	4.39167	-4.02844E-003	-4.43998E-003	5.83574E-004	...........
	17	4.65	-4.16697E-003	-4.55556E-003	5.80774E-004	...........
	18	4.90833	-4.29654E-003	-4.68768E-003	5.83074E-004	...........
EOC	QUANT	-0.0042965	Open Circuit (V)
PSTATMODEL	IQUANT	4	Pstat Model
PSTATSECTION	LABEL	REF600-11020	Pstat Section
PSTATSERIALNO	LABEL	11020	Pstat Serial Number
CTRLMODE	IQUANT	1	Control Mode
IESTAB	IQUANT	0	I/E Stability
CASPEED	IQUANT	1	Control Amp Speed
CONVENTION	IQUANT	1	Current Convention
ICHRANGE	IQUANT	2	Ich Range
ICHRANGEMODE	TOGGLE	F	Ich Auto Range
ICHOFFSETENABLE	TOGGLE	T	Ich Offset Enable
ICHOFFSET	QUANT	0	Ich Offset (V)
ICHFILTER	IQUANT	3	Ich Filter
VCHRANGE	IQUANT	2	Vch Range
VCHRANGEMODE	TOGGLE	F	Vch Auto Range
VCHOFFSETENABLE	TOGGLE	T	Vch Offset Enable
VCHOFFSET	QUANT	0	Vch Offset (V)
VCHFILTER	IQUANT	3	Vch Filter
ACHRANGE	IQUANT	2	Ach Range
ACHOFFSETENABLE	TOGGLE	F	Ach Offset Enable
ACHOFFSET	QUANT	0	Ach Offset (V)
ACHFILTER	IQUANT	2	Ach Filter
IERANGELOWERLIMIT	IQUANT	1	I/E Range Lower Limit
IERANGEMODE	TOGGLE	F	I/E AutoRange
IERANGE	IQUANT	2	I/E Range
POSFEEDENABLE	TOGGLE	F	Positive Feedback IR Comp
POSFEEDRESISTANCE	QUANT	0	Positive Feedback Resistance (ohm)
ACHSELECT	IQUANT	0	Ach Select
CABLEID	IQUANT	14	Cable ID
DCCALDATE	LABEL	8/19/2019	DC Calibration Date
ACCALDATE	LABEL	8/19/2019	AC Calibration Date
THERMOSELECT	IQUANT	1	Thermo Select
FRAMEWORKVERSION	QUANT	6.33	Framework Version
INSTRUMENTVERSION	LABEL	3.50	Instrument Version
ZCURVE	TABLE
	Pt	Time	Freq	Zreal	Zimag	Zsig	Zmod	Zphz	Idc	Vdc	IERange
	#	s	Hz	ohm	ohm	V	ohm	°	A	V	#
	0	2	1000078	1591.265	-2665.364	1	3104.238	-59.16212	-2.732573E-006	-0.0015814	8
	1	3	794390.6	1774.019	-3131.416	1	3599.015	-60.46745	-2.263125E-006	-0.0018314	8
	2	5	630984.4	1947.068	-3677.601	1	4161.228	-62.10148	-2.712321E-007	-0.0021979	8
	3	6	501234.4	2156.228	-4375.62	1	4878.05	-63.76674	4.467916E-006	-0.0033849	8
	4	8	398109.4	2380.069	-5238.3	1	5753.652	-65.5649	-4.29652E-006	-0.0017823	8
	5	9	316265.6	2726.128	-6279.068	1	6845.325	-66.53138	3.852615E-007	-0.0024331	8
	6	11	251203.1	3142.335	-7537.736	1	8166.501	-67.3697	-7.646069E-007	-0.0023683	8
	7	13	199546.9	3700.951	-9195.185	1	9912.04	-68.07581	-7.733029E-007	-0.0023983	8
	8	15	158578.1	4337.573	-11213.12	1	12022.84	-68.85204	4.798073E-007	-0.0028406	8
	9	16	125953.1	5398.689	-13346.04	1	14396.61	-67.97586	-9.760495E-007	-0.0002704	7
	10	18	100078.1	6514.092	-15999.84	1	17275.08	-67.84705	-1.259563E-008	-0.0027481	7
	11	19	79453.13	7996.454	-19179.81	1	20780	-67.36775	-5.033765E-008	-0.0026714	7
	12	20	63140.62	9978.49	-22933.29	1	25010.12	-66.48569	-4.561402E-008	-0.0026862	7
	13	22	50203.12	12439.34	-27244.04	1	29949.54	-65.45906	1.503646E-007	-0.0029298	7
	14	24	39890.62	15782.4	-32110.81	1	35779.72	-63.82598	-3.528475E-008	-0.0026801	7
	15	25	31640.63	19951.49	-37613.28	1	42577.23	-62.05685	1.500807E-007	-0.0029297	7
	16	27	25171.88	25244.6	-43460.68	1	50260.52	-59.84938	2.219771E-010	-0.0026796	7
	17	28	20015.62	31928.69	-49518.5	1	58919.63	-57.18676	-4.628975E-008	-0.0026894	7
	18	30	15890.62	39568.09	-55949.7	1	68527.38	-54.73173	-8.249312E-008	-0.0025832	7
	19	31	12609.37	50471.35	-61424.96	1	79500.84	-50.59091	-8.883425E-009	-0.0026369	6
	20	33	10078.13	61157.33	-66670.76	1	90472.14	-47.46973	5.057124E-010	-0.0026415	6
	21	35	8015.625	73469.54	-70795.59	1	102028.4	-43.93815	-5.869864E-009	-0.0025741	6
	22	36	6328.125	87024.17	-73435.38	1	113868.2	-40.15936	-1.263601E-008	-0.0026523	6
	23	38	5015.625	100763.3	-74722.52	1	125446	-36.55933	4.835757E-009	-0.0029824	6
	24	39	3984.375	113888.2	-74601.21	1	136146.4	-33.22637	-7.383977E-009	-0.0027116	6
	25	41	3170.956	126729.1	-73321.81	1	146411.6	-30.05243	-5.894374E-009	-0.0025689	6
	26	43	2527.573	138168.5	-71199.39	1	155434.5	-27.26243	1.976329E-008	-0.0031369	6
	27	44	1976.103	149203.1	-68217.04	1	164058.3	-24.57031	-1.238144E-008	-0.002658	6
	28	46	1577.524	159173.1	-65865.79	1	172262.5	-22.47976	2.808547E-009	-0.0028907	6
	29	47	1265.625	169452	-61194.18	1	180163	-19.85616	-6.927757E-010	-0.002664	5
	30	49	998.264	177496.8	-59537.19	1	187215.9	-18.54284	2.064453E-010	-0.0029551	5
	31	50	796.875	184994.2	-58332.72	1	193973.1	-17.50121	9.916464E-010	-0.0026569	5
	32	51	627.7902	192744.4	-57899.6	1	201253	-16.72004	-5.162732E-010	-0.0026987	5
	33	52	505.5147	199276.3	-58075.54	1	207566.5	-16.24782	2.209566E-009	-0.0030499	5
	34	54	397.9953	206388.7	-58621.08	1	214552.4	-15.85627	9.332981E-010	-0.0027494	5
	35	55	315.5048	213611	-60301.93	1	221959.4	-15.76426	7.887802E-010	-0.002756	5
	36	56	252.4038	220258.6	-62050.42	1	228832.1	-15.73339	-1.320978E-010	-0.0027581	5
	37	58	198.6229	227398.7	-65452.22	1	236630.9	-16.05742	3.502833E-010	-0.0027601	5
	38	59	158.3615	233930.5	-68820.3	1	243843.7	-16.39342	2.322568E-010	-0.0027561	5
	39	61	125.558	241305.6	-75434.09	1	252821.5	-17.35967	5.73128E-010	-0.0027582	5
	40	62	100.4464	248436.1	-81493.82	1	261460.8	-18.1609	5.464872E-010	-0.0027567	5
	41	64	79.00281	259057	-91110.49	1	274611.8	-19.3768	8.376527E-010	-0.0027589	5
	42	65	63.3446	278035.5	-93542.68	1	293349.6	-18.59508	1.413503E-010	-0.0027647	5
	43	67	49.86702	277860.8	-115265.1	1	300820	-22.53016	4.45033E-010	-0.0027644	5
	44	68	39.72458	285086.6	-132562.6	1	314399.8	-24.93798	1.198454E-010	-0.0027574	5
	45	70	31.6723	298820.7	-149254	1	334021.8	-26.54107	7.114725E-010	-0.0027602	5
	46	71	24.93351	316460.1	-176429.9	1	362318.3	-29.14013	4.805039E-010	-0.002754	5
	47	73	19.86229	339661.7	-202710.6	1	395552.3	-30.82881	1.026305E-009	-0.0027524	5
	48	74	15.83615	368646.8	-248445.8	1	444551.3	-33.9776	-6.097707E-010	-0.0027529	5
	49	75	12.40079	397463.5	-257392.2	1	473527.2	-32.92657	1.842716E-009	-0.0027543	5
	50	77	9.93114	433834.6	-302115.7	1	528664.7	-34.85275	4.099925E-010	-0.0027498	5
	51	78	7.944915	476459.5	-331853.1	1	580637.7	-34.85713	4.323466E-010	-0.0027566	5
	52	80	6.317385	524300.6	-376894	1	645709.1	-35.71051	8.316949E-010	-0.0027677	5
	53	82	5.008013	578815	-414199.9	1	711750.3	-35.58751	1.30118E-009	-0.0027625	6
	54	85	3.945707	639160	-452873.8	1	783339.1	-35.3193	1.041931E-009	-0.0027636	6
	55	88	3.158693	690047.3	-485573.4	1	843769.4	-35.13334	8.492428E-010	-0.0027426	6
	56	92	2.504006	761823.9	-539315.4	1	933400.7	-35.29569	3.099075E-010	-0.0027616	5
	57	94	1.998082	823923.7	-584677.2	1	1010296	-35.36048	1.895659E-010	-0.0027625	4
	58	97	1.584686	892265.4	-640165	1	1098157	-35.65794	5.511712E-010	-0.0027075	4
	59	101	1.266892	960970	-709652.8	1	1194601	-36.44495	2.299135E-010	-0.0027574	4
	60	105	0.999041	1044524	-788545.8	1	1308753	-37.05036	7.447945E-010	-0.0027335	4
