EXPLAIN
TAG	EISPOT
TITLE	LABEL	Potentiostatic EIS	Test &Identifier
DATE	LABEL	10/10/2019	Date
TIME	LABEL	7:57:23	Time
NOTES	NOTES	1	&Notes...
	
PSTAT	PSTAT	REF600-11020	Potentiostat
VDC	POTEN	0.00000E+000	T	DC &Voltage (V)
FREQINIT	QUANT	1.00000E+006	Initial Fre&q. (Hz)
FREQFINAL	QUANT	1.00000E+000	Final Fre&q. (Hz)
PTSPERDEC	QUANT	1.00000E+001	Points/&decade
VAC	QUANT	2.50000E+001	AC &Voltage (mV rms)
AREA	QUANT	1.00000E-002	&Area (cm^2)
CONDIT	TWOPARAM	T	5.00000E+000	0.00000E+000	Conditionin&g	Time(s)	E(V)
DELAY	TWOPARAM	T	5.00000E+000	0.00000E+000	Init. De&lay	Time(s)	Stab.(mV/s)
SPEED	SELECTOR	1	&Optimize for:
ZGUESS	QUANT	1.00000E+004	E&stimated Z (ohms)
OCVCURVE	TABLE	19
	Pt	T	Vf	Vm	Ach	Over
	#	s	V vs. Ref.	V	V	bits
	0	0.258333	5.68601E-003	5.68601E-003	5.48799E-004	...........
	1	0.516667	5.68306E-003	5.53171E-003	5.57466E-004	...........
	2	0.775	5.66936E-003	5.61539E-003	5.53566E-004	...........
	3	1.03333	5.64454E-003	5.66238E-003	5.53633E-004	...........
	4	1.29167	5.62537E-003	5.69352E-003	5.49466E-004	...........
	5	1.55	5.62802E-003	5.71702E-003	5.53866E-004	...........
	6	1.80833	5.65047E-003	5.73278E-003	5.49099E-004	...........
	7	2.06667	5.68026E-003	5.75524E-003	5.50099E-004	...........
	8	2.325	5.70864E-003	5.79330E-003	5.47133E-004	...........
	9	2.58333	5.73519E-003	5.85143E-003	5.56266E-004	...........
	10	2.84167	5.76477E-003	5.89618E-003	5.39133E-004	...........
	11	3.1	5.80069E-003	5.90660E-003	5.49933E-004	...........
	12	3.35833	5.83959E-003	5.91793E-003	5.47033E-004	...........
	13	3.61667	5.87411E-003	5.93607E-003	5.52199E-004	...........
	14	3.875	5.90027E-003	5.95579E-003	5.47733E-004	...........
	15	4.13333	5.92012E-003	5.97865E-003	5.43166E-004	...........
	16	4.39167	5.93795E-003	5.99898E-003	5.46733E-004	...........
	17	4.65	5.95537E-003	5.95806E-003	5.49733E-004	...........
	18	4.90833	5.96950E-003	5.99679E-003	5.50833E-004	...........
EOC	QUANT	0.0059695	Open Circuit (V)
PSTATMODEL	IQUANT	4	Pstat Model
PSTATSECTION	LABEL	REF600-11020	Pstat Section
PSTATSERIALNO	LABEL	11020	Pstat Serial Number
CTRLMODE	IQUANT	1	Control Mode
IESTAB	IQUANT	0	I/E Stability
CASPEED	IQUANT	1	Control Amp Speed
CONVENTION	IQUANT	1	Current Convention
ICHRANGE	IQUANT	2	Ich Range
ICHRANGEMODE	TOGGLE	F	Ich Auto Range
ICHOFFSETENABLE	TOGGLE	T	Ich Offset Enable
ICHOFFSET	QUANT	0	Ich Offset (V)
ICHFILTER	IQUANT	3	Ich Filter
VCHRANGE	IQUANT	2	Vch Range
VCHRANGEMODE	TOGGLE	F	Vch Auto Range
VCHOFFSETENABLE	TOGGLE	T	Vch Offset Enable
VCHOFFSET	QUANT	0	Vch Offset (V)
VCHFILTER	IQUANT	3	Vch Filter
ACHRANGE	IQUANT	2	Ach Range
ACHOFFSETENABLE	TOGGLE	F	Ach Offset Enable
ACHOFFSET	QUANT	0	Ach Offset (V)
ACHFILTER	IQUANT	3	Ach Filter
IERANGELOWERLIMIT	IQUANT	1	I/E Range Lower Limit
IERANGEMODE	TOGGLE	F	I/E AutoRange
IERANGE	IQUANT	6	I/E Range
POSFEEDENABLE	TOGGLE	F	Positive Feedback IR Comp
POSFEEDRESISTANCE	QUANT	0	Positive Feedback Resistance (ohm)
ACHSELECT	IQUANT	0	Ach Select
CABLEID	IQUANT	14	Cable ID
DCCALDATE	LABEL	8/19/2019	DC Calibration Date
ACCALDATE	LABEL	8/19/2019	AC Calibration Date
THERMOSELECT	IQUANT	1	Thermo Select
FRAMEWORKVERSION	QUANT	6.33	Framework Version
INSTRUMENTVERSION	LABEL	3.50	Instrument Version
ZCURVE	TABLE
	Pt	Time	Freq	Zreal	Zimag	Zsig	Zmod	Zphz	Idc	Vdc	IERange
	#	s	Hz	ohm	ohm	V	ohm	°	A	V	#
	0	1	1000078	2403.876	-997.117	1	2602.472	-22.52845	-2.700849E-006	0.0092916	8
	1	3	794390.6	2561.378	-873.0212	1	2706.072	-18.82119	-1.930227E-006	0.0085688	8
	2	4	630984.4	2674.605	-753.442	1	2778.703	-15.73264	-2.38866E-006	0.0085726	8
	3	6	501234.4	2764.162	-647.999	1	2839.101	-13.19353	-1.139847E-006	0.00806	8
	4	7	398109.4	2836.173	-555.7297	1	2890.106	-11.08628	3.457354E-007	0.0076891	8
	5	8	316265.6	2884.229	-475.6678	1	2923.189	-9.364939	-2.381038E-006	0.0082612	8
	6	10	251203.1	2923.355	-408.4489	1	2951.751	-7.953832	-4.768009E-007	0.0075358	8
	7	11	199546.9	2952.735	-364.5823	1	2975.158	-7.038841	5.929102E-007	0.0076314	8
	8	12	158578.1	2976.571	-309.9559	1	2992.666	-5.94489	1.407369E-006	0.0073513	8
	9	14	125953.1	3028.463	-264.9392	1	3040.03	-4.999681	6.074812E-007	0.0063028	7
	10	15	100078.1	3036.221	-236.8594	1	3045.446	-4.460681	-4.710794E-009	0.0075768	7
	11	16	79453.13	3056.463	-233.6437	1	3065.38	-4.371332	1.232269E-007	0.0074059	7
	12	18	63140.62	3078.264	-234.3686	1	3087.173	-4.353906	-3.37804E-008	0.0075787	7
	13	19	50203.12	3101.562	-238.6768	1	3110.731	-4.400454	9.214774E-008	0.0075109	7
	14	20	39890.62	3125.316	-247.5236	1	3135.103	-4.528347	9.502934E-008	0.0075032	7
	15	22	31640.63	3152.417	-261.0439	1	3163.206	-4.733724	1.468711E-008	0.0075037	7
	16	23	25171.88	3178.347	-278.4892	1	3190.525	-5.007511	4.297538E-008	0.007536	7
	17	25	20015.62	3208.917	-299.662	1	3222.879	-5.335044	-5.193672E-009	0.0075501	7
	18	26	15890.62	3236.24	-330.3733	1	3253.06	-5.828876	-1.018185E-008	0.0075373	7
	19	27	12609.37	3264.119	-368.2729	1	3284.829	-6.437151	8.149002E-008	0.0074077	7
	20	29	10078.13	3294.792	-413.5941	1	3320.65	-7.154893	-7.252162E-008	0.0077859	7
	21	30	8015.625	3323.01	-471.1936	1	3356.251	-8.070579	-1.119451E-008	0.0075299	7
	22	31	6328.125	3361.985	-544.8746	1	3405.853	-9.205841	8.043359E-008	0.0074098	7
	23	33	5015.625	3399.653	-635.5826	1	3458.556	-10.58949	-2.862503E-008	0.0075642	7
	24	34	3984.375	3440.629	-745.0552	1	3520.375	-12.21853	-6.754593E-008	0.0076564	7
	25	35	3170.956	3484.61	-881.7014	1	3594.427	-14.19937	2.429246E-009	0.0075536	7
	26	37	2527.573	3533.702	-1043.22	1	3684.476	-16.44766	1.488563E-008	0.0074877	7
	27	38	1976.103	3591.837	-1266.683	1	3808.645	-19.4255	8.290424E-008	0.0074006	7
	28	40	1577.524	3653.157	-1514.908	1	3954.808	-22.52303	8.296364E-008	0.007402	7
	29	41	1265.625	3717.955	-1820.001	1	4139.516	-26.08253	5.664606E-010	0.0075642	7
	30	42	998.264	3795.548	-2219.565	1	4396.891	-30.31829	-5.254961E-008	0.0076448	7
	31	44	796.875	3883.826	-2692.227	1	4725.695	-34.72929	-1.264626E-008	0.0075985	7
	32	45	627.7902	3995.092	-3311.499	1	5189.102	-39.65506	-3.172039E-008	0.0075762	7
	33	46	505.5147	4114.569	-4009.991	1	5745.407	-44.26254	9.985499E-008	0.0074971	7
	34	48	397.9953	4280.083	-4955.167	1	6547.732	-49.18081	7.44491E-009	0.0075828	7
	35	49	315.5048	4479.947	-6095.711	1	7564.894	-53.68656	7.422987E-009	0.0075797	7
	36	51	252.4038	4722.762	-7444.073	1	8815.821	-57.60763	6.725278E-009	0.0075805	7
	37	52	198.6229	5058.124	-9229.746	1	10524.87	-61.27619	1.185182E-009	0.0075173	6
	38	53	158.3615	5466.023	-11307.77	1	12559.58	-64.20149	4.954664E-010	0.0075096	6
	39	55	125.558	6008.027	-13918.06	1	15159.45	-66.65154	9.387853E-010	0.0075156	6
	40	56	100.4464	6676.92	-16980.18	1	18245.76	-68.53433	1.753244E-009	0.007518	6
	41	57	79.00281	7629.426	-20981.99	1	22326.04	-70.01783	1.612031E-009	0.0075164	6
	42	59	63.3446	8919.71	-25373.4	1	26895.55	-70.63149	3.351233E-010	0.0075156	6
	43	60	49.86702	10434.81	-31564.37	1	33244.46	-71.70671	-6.789841E-011	0.0075121	6
	44	62	39.72458	12468.14	-38211.57	1	40194.26	-71.92889	8.085775E-010	0.0075155	6
	45	63	31.6723	15158.68	-46153.63	1	48579.24	-71.81777	1.144199E-009	0.0075156	6
	46	64	24.93351	18781.6	-56442.37	1	59485.21	-71.59476	1.030209E-009	0.0075127	6
	47	66	19.86229	23141.2	-68016.64	1	71845.52	-71.21024	1.580806E-009	0.0075201	6
	48	67	15.83615	29252.25	-80980.8	1	86102.18	-70.13904	-1.80692E-011	0.0075177	6
	49	68	12.40079	36810.25	-98888.9	1	105517.8	-69.5828	1.970542E-009	0.0075187	6
	50	70	9.93114	45180.56	-116652	1	125095.8	-68.82808	3.283763E-010	0.0075204	5
	51	71	7.944915	55979.48	-138045.2	1	148963.7	-67.92668	9.739458E-011	0.007514	5
	52	73	6.317385	69609.02	-162723.7	1	176987	-66.84	2.583411E-010	0.007507	5
	53	75	5.008013	86363.09	-192199.6	1	210711.3	-65.80368	-1.116055E-010	0.0075145	5
	54	78	3.945707	107483.3	-226741.4	1	250926.9	-64.63741	1.407633E-010	0.0075187	5
	55	80	3.158693	131379.5	-263310.8	1	294267.2	-63.48299	7.975218E-014	0.0075068	5
	56	84	2.504006	160652.4	-306373.3	1	345938.9	-62.32892	4.577746E-010	0.0075293	5
	57	86	1.998082	194299.6	-353310.1	1	403212.5	-61.19182	4.3889E-010	0.0075299	5
	58	89	1.584686	235378.8	-405939.2	1	469243.9	-59.89323	1.181901E-010	0.0074731	5
	59	93	1.266892	277957.1	-465286.1	1	541988.3	-59.14634	3.025956E-010	0.0075325	5
	60	97	0.999041	331889.2	-534685	1	629315.9	-58.17134	-1.495834E-010	0.0074834	5
