EXPLAIN
TAG	EISPOT
TITLE	LABEL	Potentiostatic EIS	Test &Identifier
DATE	LABEL	11/13/2019	Date
TIME	LABEL	0:21:18	Time
NOTES	NOTES	3	&Notes...
	
	
	
PSTAT	PSTAT	REF600-11020	Potentiostat
VDC	POTEN	0.00000E+000	T	DC &Voltage (V)
FREQINIT	QUANT	1.00000E+006	Initial Fre&q. (Hz)
FREQFINAL	QUANT	1.00000E+000	Final Fre&q. (Hz)
PTSPERDEC	QUANT	1.00000E+001	Points/&decade
VAC	QUANT	2.50000E+001	AC &Voltage (mV rms)
AREA	QUANT	1.00000E-002	&Area (cm^2)
CONDIT	TWOPARAM	T	5.00000E+000	0.00000E+000	Conditionin&g	Time(s)	E(V)
DELAY	TWOPARAM	T	5.00000E+000	0.00000E+000	Init. De&lay	Time(s)	Stab.(mV/s)
SPEED	SELECTOR	1	&Optimize for:
ZGUESS	QUANT	1.00000E+005	E&stimated Z (ohms)
OCVCURVE	TABLE	19
	Pt	T	Vf	Vm	Ach	Over
	#	s	V vs. Ref.	V	V	bits
	0	0.258333	5.33115E-003	5.33115E-003	5.75966E-004	...........
	1	0.516667	5.32881E-003	5.20882E-003	5.80932E-004	...........
	2	0.775	5.31462E-003	5.10108E-003	5.79866E-004	...........
	3	1.03333	5.27517E-003	5.00693E-003	5.75899E-004	...........
	4	1.29167	5.20657E-003	4.92741E-003	5.72766E-004	...........
	5	1.55	5.11929E-003	4.85680E-003	5.80799E-004	...........
	6	1.80833	5.02847E-003	4.79786E-003	5.77866E-004	...........
	7	2.06667	4.94439E-003	4.74341E-003	5.75099E-004	...........
	8	2.325	4.87090E-003	4.70269E-003	5.75899E-004	...........
	9	2.58333	4.80795E-003	4.65789E-003	5.75832E-004	...........
	10	2.84167	4.75399E-003	4.62467E-003	5.73666E-004	...........
	11	3.1	4.70717E-003	4.59295E-003	5.76666E-004	...........
	12	3.35833	4.66613E-003	4.56739E-003	5.80132E-004	...........
	13	3.61667	4.63008E-003	4.53926E-003	5.78799E-004	...........
	14	3.875	4.59828E-003	4.51938E-003	5.79699E-004	...........
	15	4.13333	4.56994E-003	4.49673E-003	5.79866E-004	...........
	16	4.39167	4.54450E-003	4.48196E-003	5.84332E-004	...........
	17	4.65	4.52171E-003	4.46383E-003	5.80799E-004	...........
	18	4.90833	4.50137E-003	4.44978E-003	5.79899E-004	...........
EOC	QUANT	0.0045014	Open Circuit (V)
PSTATMODEL	IQUANT	4	Pstat Model
PSTATSECTION	LABEL	REF600-11020	Pstat Section
PSTATSERIALNO	LABEL	11020	Pstat Serial Number
CTRLMODE	IQUANT	1	Control Mode
IESTAB	IQUANT	0	I/E Stability
CASPEED	IQUANT	1	Control Amp Speed
CONVENTION	IQUANT	1	Current Convention
ICHRANGE	IQUANT	2	Ich Range
ICHRANGEMODE	TOGGLE	F	Ich Auto Range
ICHOFFSETENABLE	TOGGLE	T	Ich Offset Enable
ICHOFFSET	QUANT	0	Ich Offset (V)
ICHFILTER	IQUANT	3	Ich Filter
VCHRANGE	IQUANT	2	Vch Range
VCHRANGEMODE	TOGGLE	F	Vch Auto Range
VCHOFFSETENABLE	TOGGLE	T	Vch Offset Enable
VCHOFFSET	QUANT	0	Vch Offset (V)
VCHFILTER	IQUANT	3	Vch Filter
ACHRANGE	IQUANT	2	Ach Range
ACHOFFSETENABLE	TOGGLE	F	Ach Offset Enable
ACHOFFSET	QUANT	0	Ach Offset (V)
ACHFILTER	IQUANT	3	Ach Filter
IERANGELOWERLIMIT	IQUANT	1	I/E Range Lower Limit
IERANGEMODE	TOGGLE	F	I/E AutoRange
IERANGE	IQUANT	4	I/E Range
POSFEEDENABLE	TOGGLE	F	Positive Feedback IR Comp
POSFEEDRESISTANCE	QUANT	0	Positive Feedback Resistance (ohm)
ACHSELECT	IQUANT	0	Ach Select
CABLEID	IQUANT	14	Cable ID
DCCALDATE	LABEL	8/19/2019	DC Calibration Date
ACCALDATE	LABEL	8/19/2019	AC Calibration Date
THERMOSELECT	IQUANT	1	Thermo Select
FRAMEWORKVERSION	QUANT	6.33	Framework Version
INSTRUMENTVERSION	LABEL	3.50	Instrument Version
ZCURVE	TABLE
	Pt	Time	Freq	Zreal	Zimag	Zsig	Zmod	Zphz	Idc	Vdc	IERange
	#	s	Hz	ohm	ohm	V	ohm	°	A	V	#
	0	1	1000078	2208.861	-1936.796	1	2937.728	-41.24526	-3.509873E-006	0.0063615	8
	1	2	794390.6	2618.408	-1977.097	1	3281.002	-37.05558	-3.327326E-006	0.007126	8
	2	4	630984.4	3021.089	-1952.488	1	3597.109	-32.87403	5.185337E-006	0.0062153	8
	3	5	501234.4	3400.854	-1859.837	1	3876.184	-28.67308	-7.864571E-007	0.0058261	8
	4	7	398109.4	3739.705	-1721.93	1	4117.09	-24.72349	-1.517683E-006	0.0058745	8
	5	8	316265.6	4018.127	-1541.402	1	4303.634	-20.98742	-4.424242E-006	0.0064168	8
	6	9	251203.1	4257.177	-1380.402	1	4475.385	-17.96543	-5.68825E-008	0.005782	8
	7	11	199546.9	4428.414	-1212.334	1	4591.362	-15.31032	3.71479E-006	0.0060087	8
	8	12	158578.1	4558.558	-1018.959	1	4671.052	-12.60001	6.671052E-007	0.0063839	8
	9	13	125953.1	4737.175	-855.7176	1	4813.843	-10.23942	4.026164E-006	-0.0007907	7
	10	15	100078.1	4782.271	-756.235	1	4841.694	-8.985948	1.02578E-006	0.0052954	7
	11	16	79453.13	4855.085	-664.9272	1	4900.406	-7.798415	1.028094E-006	0.0052919	7
	12	18	63140.62	4910.599	-598.9482	1	4946.991	-6.954046	1.031015E-006	0.0052846	7
	13	19	50203.12	4955.792	-544.8029	1	4985.648	-6.27348	1.106936E-006	0.0045148	7
	14	20	39890.62	4988.407	-511.2563	1	5014.538	-5.851748	3.843625E-007	0.0065456	7
	15	22	31640.63	5030.261	-487.5112	1	5053.829	-5.535572	5.005455E-007	0.0042934	7
	16	23	25171.88	5050.796	-481.3039	1	5073.677	-5.443431	-7.352197E-007	0.0058245	7
	17	25	20015.62	5072.356	-481.7494	1	5095.182	-5.425419	-1.242311E-006	0.0074614	7
	18	26	15890.62	5121.813	-509.4154	1	5147.084	-5.679957	-7.35887E-007	0.0058246	7
	19	27	12609.37	5181.496	-550.3485	1	5210.642	-6.062895	1.005067E-006	0.0042765	7
	20	29	10078.13	5191.058	-603.0985	1	5225.975	-6.626929	-3.070083E-007	0.005118	7
	21	30	8015.625	5248.16	-671.2804	1	5290.917	-7.288996	1.003122E-006	0.0042735	7
	22	31	6328.125	5281.831	-775.7747	1	5338.499	-8.355638	1.266071E-007	0.0045959	7
	23	33	5015.625	5312.479	-898.5085	1	5387.926	-9.59969	-1.115783E-006	0.0076316	7
	24	34	3984.375	5370.984	-1059.211	1	5474.431	-11.15614	6.427204E-008	0.0069802	7
	25	36	3170.956	5423.603	-1254.707	1	5566.844	-13.02577	-3.054971E-007	0.0051102	7
	26	37	2527.573	5504.971	-1500.025	1	5705.679	-15.24223	1.120422E-006	0.0048406	7
	27	38	1976.103	5576.042	-1823.031	1	5866.488	-18.10464	5.018973E-007	0.0042843	7
	28	40	1577.524	5661.354	-2181.787	1	6067.217	-21.0758	5.009362E-007	0.0042913	7
	29	41	1265.625	5738.249	-2618.745	1	6307.561	-24.53037	-1.232527E-006	0.0070856	7
	30	43	998.264	5854.458	-3196.875	1	6670.434	-28.63711	-1.063171E-006	0.0065074	7
	31	44	796.875	5990.586	-3872.881	1	7133.465	-32.88245	-9.106076E-007	0.0076958	7
	32	45	627.7902	6159.475	-4760.792	1	7784.875	-37.70121	-6.327982E-007	0.0076125	7
	33	47	505.5147	6341.969	-5744.518	1	8556.872	-42.1701	-6.327249E-007	0.0076169	7
	34	48	397.9953	6584.08	-7106.128	1	9687.47	-47.1838	6.173313E-009	0.0060146	7
	35	50	315.5048	6875.249	-8729.434	1	11111.8	-51.77625	1.034114E-009	0.0059503	6
	36	51	252.4038	7216.291	-10649.6	1	12864.25	-55.87799	6.415887E-010	0.005951	6
	37	52	198.6229	7681.564	-13197.09	1	15269.89	-59.79781	8.310833E-010	0.005953	6
	38	54	158.3615	8248.237	-16173.49	1	18155.31	-62.97911	5.564472E-010	0.0059472	6
	39	55	125.558	9002.481	-19916.06	1	21856.21	-65.67602	7.430841E-010	0.0059424	6
	40	57	100.4464	9954.96	-24308.85	1	26268.26	-67.72992	1.546488E-009	0.0059385	6
	41	58	79.00281	11308.59	-30103.75	1	32157.73	-69.41112	1.102824E-009	0.0059361	6
	42	59	63.3446	13161.15	-36856.61	1	39135.99	-70.34884	2.039474E-011	0.00595	6
	43	61	49.86702	15215.2	-45245.48	1	47735.27	-71.41319	-1.136102E-010	0.0059479	6
	44	62	39.72458	18489.8	-55149.43	1	58166.41	-71.46539	1.008996E-009	0.0059403	6
	45	64	31.6723	22726.78	-66803.95	1	70563.97	-71.21164	1.203133E-009	0.0059476	6
	46	65	24.93351	28431.57	-81584.38	1	86396.56	-70.78692	-1.808397E-010	0.0059503	6
	47	66	19.86229	35736.68	-97920.1	1	104237.5	-69.95006	1.188023E-009	0.0059379	6
	48	68	15.83615	44989.66	-117558	1	125872.8	-69.05807	-7.189135E-010	0.0059424	5
	49	69	12.40079	59052.5	-140544.4	1	152446.5	-67.20933	1.46455E-009	0.0059592	5
	50	71	9.93114	72984.74	-164475.4	1	179941.5	-66.0711	4.027089E-012	0.0059645	5
	51	72	7.944915	90472.21	-191381.9	1	211689	-64.69843	8.796783E-011	0.0059664	5
	52	74	6.317385	112640.9	-221856.7	1	248813.9	-63.08223	2.68196E-010	0.0059386	5
	53	76	5.008013	138228.9	-256239.5	1	291145.8	-61.65528	3.533221E-010	0.0059569	5
	54	79	3.945707	168860.1	-295747.8	1	340559.1	-60.27536	4.247007E-011	0.0059608	5
	55	81	3.158693	200931.1	-337045.2	1	392393.7	-59.19852	5.915969E-011	0.0059665	5
	56	85	2.504006	238091.1	-386113.3	1	453619.7	-58.34055	3.589082E-010	0.0059542	5
	57	87	1.998082	278626.3	-440088.5	1	520874.7	-57.66151	7.674522E-012	0.0059972	5
	58	91	1.584686	323953.2	-503469.8	1	598688.2	-57.2411	1.665273E-010	0.0059411	5
	59	94	1.266892	375481.5	-575972.6	1	687554.3	-56.89933	9.248374E-011	0.0059918	5
	60	99	0.999041	436837.7	-663880.8	1	794710.6	-56.65484	-1.0385E-010	0.0059137	5
