EXPLAIN
TAG	EISPOT
TITLE	LABEL	Potentiostatic EIS	Test &Identifier
DATE	LABEL	10/12/2019	Date
TIME	LABEL	10:08:29	Time
NOTES	NOTES	1	&Notes...
	
PSTAT	PSTAT	REF600-11020	Potentiostat
VDC	POTEN	0.00000E+000	T	DC &Voltage (V)
FREQINIT	QUANT	1.00000E+006	Initial Fre&q. (Hz)
FREQFINAL	QUANT	1.00000E+000	Final Fre&q. (Hz)
PTSPERDEC	QUANT	1.00000E+001	Points/&decade
VAC	QUANT	2.50000E+001	AC &Voltage (mV rms)
AREA	QUANT	1.00000E-002	&Area (cm^2)
CONDIT	TWOPARAM	T	5.00000E+000	0.00000E+000	Conditionin&g	Time(s)	E(V)
DELAY	TWOPARAM	T	5.00000E+000	0.00000E+000	Init. De&lay	Time(s)	Stab.(mV/s)
SPEED	SELECTOR	1	&Optimize for:
ZGUESS	QUANT	1.00000E+004	E&stimated Z (ohms)
OCVCURVE	TABLE	19
	Pt	T	Vf	Vm	Ach	Over
	#	s	V vs. Ref.	V	V	bits
	0	0.258333	7.96296E-003	7.96296E-003	5.14466E-004	...........
	1	0.516667	7.96208E-003	7.91712E-003	5.13133E-004	...........
	2	0.775	7.96052E-003	8.07351E-003	5.11567E-004	...........
	3	1.03333	7.96721E-003	8.14033E-003	5.17633E-004	...........
	4	1.29167	7.99762E-003	8.24712E-003	5.21366E-004	...........
	5	1.55	8.05563E-003	8.21989E-003	5.20833E-004	...........
	6	1.80833	8.12824E-003	8.42050E-003	5.19833E-004	...........
	7	2.06667	8.20606E-003	8.53849E-003	5.19466E-004	...........
	8	2.325	8.29173E-003	8.47145E-003	5.18800E-004	...........
	9	2.58333	8.38069E-003	8.62099E-003	5.24800E-004	...........
	10	2.84167	8.45929E-003	8.60448E-003	5.26966E-004	...........
	11	3.1	8.52336E-003	8.70960E-003	5.20900E-004	...........
	12	3.35833	8.57970E-003	8.76712E-003	5.21500E-004	...........
	13	3.61667	8.63730E-003	8.88674E-003	5.19100E-004	...........
	14	3.875	8.70075E-003	8.80708E-003	5.26366E-004	...........
	15	4.13333	8.76616E-003	9.05782E-003	5.18500E-004	...........
	16	4.39167	8.82745E-003	8.82239E-003	5.23300E-004	...........
	17	4.65	8.88006E-003	9.10189E-003	5.27166E-004	...........
	18	4.90833	8.92478E-003	9.09255E-003	5.21733E-004	...........
EOC	QUANT	0.0089248	Open Circuit (V)
PSTATMODEL	IQUANT	4	Pstat Model
PSTATSECTION	LABEL	REF600-11020	Pstat Section
PSTATSERIALNO	LABEL	11020	Pstat Serial Number
CTRLMODE	IQUANT	1	Control Mode
IESTAB	IQUANT	0	I/E Stability
CASPEED	IQUANT	1	Control Amp Speed
CONVENTION	IQUANT	1	Current Convention
ICHRANGE	IQUANT	2	Ich Range
ICHRANGEMODE	TOGGLE	F	Ich Auto Range
ICHOFFSETENABLE	TOGGLE	T	Ich Offset Enable
ICHOFFSET	QUANT	0	Ich Offset (V)
ICHFILTER	IQUANT	3	Ich Filter
VCHRANGE	IQUANT	2	Vch Range
VCHRANGEMODE	TOGGLE	F	Vch Auto Range
VCHOFFSETENABLE	TOGGLE	T	Vch Offset Enable
VCHOFFSET	QUANT	0	Vch Offset (V)
VCHFILTER	IQUANT	3	Vch Filter
ACHRANGE	IQUANT	2	Ach Range
ACHOFFSETENABLE	TOGGLE	F	Ach Offset Enable
ACHOFFSET	QUANT	0	Ach Offset (V)
ACHFILTER	IQUANT	3	Ach Filter
IERANGELOWERLIMIT	IQUANT	1	I/E Range Lower Limit
IERANGEMODE	TOGGLE	F	I/E AutoRange
IERANGE	IQUANT	6	I/E Range
POSFEEDENABLE	TOGGLE	F	Positive Feedback IR Comp
POSFEEDRESISTANCE	QUANT	0	Positive Feedback Resistance (ohm)
ACHSELECT	IQUANT	0	Ach Select
CABLEID	IQUANT	14	Cable ID
DCCALDATE	LABEL	8/19/2019	DC Calibration Date
ACCALDATE	LABEL	8/19/2019	AC Calibration Date
THERMOSELECT	IQUANT	1	Thermo Select
FRAMEWORKVERSION	QUANT	6.33	Framework Version
INSTRUMENTVERSION	LABEL	3.50	Instrument Version
ZCURVE	TABLE
	Pt	Time	Freq	Zreal	Zimag	Zsig	Zmod	Zphz	Idc	Vdc	IERange
	#	s	Hz	ohm	ohm	V	ohm	°	A	V	#
	0	2	1000078	2387.81	-1868.895	1	3032.228	-38.04963	-1.255797E-006	0.0121081	8
	1	3	794390.6	2758.392	-1839.714	1	3315.611	-33.70136	-5.137904E-007	0.0113715	8
	2	5	630984.4	3131.468	-1730.018	1	3577.576	-28.919	-4.626491E-006	0.0116777	8
	3	6	501234.4	3449.09	-1596.238	1	3800.553	-24.83469	-1.482705E-006	0.0111253	8
	4	7	398109.4	3707.929	-1417.205	1	3969.535	-20.91733	-1.084752E-007	0.0105739	8
	5	9	316265.6	3902.31	-1228.14	1	4091.008	-17.46991	3.723152E-007	0.0106845	8
	6	10	251203.1	4062.655	-1086.115	1	4205.331	-14.96749	-1.987734E-006	0.0110957	8
	7	12	199546.9	4173.631	-928.9526	1	4275.763	-12.54815	6.324076E-007	0.0103938	8
	8	13	158578.1	4252.093	-784.6624	1	4323.886	-10.45549	-6.849908E-007	0.0108596	8
	9	14	125953.1	4352.653	-640.5848	1	4399.539	-8.372183	5.111937E-007	0.0087861	7
	10	16	100078.1	4388.021	-568.4055	1	4424.683	-7.380751	-6.517843E-008	0.0106521	7
	11	17	79453.13	4431.107	-516.4182	1	4461.098	-6.647481	1.404016E-008	0.0106194	7
	12	18	63140.62	4469.804	-481.5048	1	4495.664	-6.148417	7.040793E-009	0.0105064	7
	13	20	50203.12	4505.986	-458.0452	1	4529.207	-5.804328	9.092635E-009	0.0105019	7
	14	21	39890.62	4541.405	-448.8326	1	4563.531	-5.644282	6.328201E-009	0.0105059	7
	15	22	31640.63	4574.874	-450.0263	1	4596.955	-5.618062	-9.688046E-009	0.0105735	7
	16	24	25171.88	4608.225	-465.7467	1	4631.702	-5.771204	4.533664E-008	0.0103844	7
	17	25	20015.62	4650.887	-489.5591	1	4676.582	-6.008909	8.292516E-009	0.0105025	7
	18	27	15890.62	4684.286	-537.0603	1	4714.973	-6.540488	-1.999883E-008	0.0105044	7
	19	28	12609.37	4725.923	-593.8726	1	4763.091	-7.162403	-2.074737E-008	0.0105076	7
	20	29	10078.13	4766.977	-664.8596	1	4813.118	-7.939935	-1.23978E-008	0.0105562	7
	21	31	8015.625	4801.952	-756.6553	1	4861.201	-8.954609	-3.328971E-008	0.0105226	7
	22	32	6328.125	4867.376	-879.2129	1	4946.147	-10.23915	-1.294631E-008	0.0105224	7
	23	33	5015.625	4925.984	-1027.031	1	5031.909	-11.77703	9.916272E-008	0.0104367	7
	24	35	3984.375	4998.754	-1244.51	1	5151.344	-13.98037	9.927835E-008	0.0104375	7
	25	36	3170.956	5060.672	-1427.682	1	5258.201	-15.75445	7.793639E-008	0.0103626	7
	26	37	2527.573	5141.465	-1698.2	1	5414.66	-18.27813	9.958777E-008	0.0104364	7
	27	39	1976.103	5242.334	-2060.999	1	5632.92	-21.46204	-1.377922E-008	0.0105637	7
	28	40	1577.524	5349.497	-2476.177	1	5894.792	-24.83849	6.146072E-008	0.0104262	7
	29	41	1265.625	5476.745	-2949.125	1	6220.295	-28.30164	1.023539E-007	0.0104358	7
	30	43	998.264	5636.305	-3586.415	1	6680.592	-32.46884	1.536415E-008	0.0104522	7
	31	44	796.875	5814.164	-4321.854	1	7244.51	-36.6246	-5.159331E-008	0.0105797	7
	32	45	627.7902	6040.42	-5276.084	1	8020.208	-41.13602	4.379008E-008	0.0103875	7
	33	47	505.5147	6296.792	-6339.607	1	8935.335	-45.19413	-1.435291E-008	0.0105545	7
	34	48	397.9953	6627.756	-7758.574	1	10204.05	-49.49442	6.02222E-010	0.0104752	6
	35	49	315.5048	7017.122	-9455.806	1	11775.07	-53.42101	2.485538E-010	0.010473	6
	36	51	252.4038	7471.001	-11446.13	1	13668.57	-56.86712	1.597211E-009	0.0104709	6
	37	52	198.6229	8065.326	-14065.24	1	16213.59	-60.16906	9.184025E-010	0.0104727	6
	38	54	158.3615	8767.341	-17113.29	1	19228.39	-62.87341	1.200272E-009	0.010474	6
	39	55	125.558	9668.69	-20927.67	1	23053.22	-65.20283	7.088758E-010	0.0104756	6
	40	56	100.4464	10790.11	-25406.2	1	27602.56	-66.98888	1.696274E-009	0.0104703	6
	41	58	79.00281	12234	-31316.11	1	33620.97	-68.66132	4.399766E-010	0.0104684	6
	42	59	63.3446	14055.52	-38348.18	1	40842.87	-69.8709	8.517494E-010	0.0104696	6
	43	60	49.86702	16684.9	-46417.56	1	49325.2	-70.2289	2.051844E-010	0.0104699	6
	44	62	39.72458	20361.29	-56539.54	1	60094.1	-70.19479	3.583264E-010	0.0104733	6
	45	63	31.6723	24663.89	-68340.92	1	72655.27	-70.15575	-7.653727E-011	0.0104721	6
	46	65	24.93351	31406.11	-83131.31	1	88865.96	-69.30398	1.089914E-009	0.01047	6
	47	66	19.86229	39393.54	-99290.3	1	106819.5	-68.35924	6.959344E-011	0.0104799	5
	48	67	15.83615	48533.45	-117815	1	127420.1	-67.61097	1.557262E-009	0.0104716	5
	49	69	12.40079	64494.66	-139444	1	153636.5	-65.17884	-7.233703E-010	0.0104752	5
	50	70	9.93114	80739.63	-163610.2	1	182447.8	-63.73422	2.553896E-011	0.0104704	5
	51	72	7.944915	99696.9	-187955.4	1	212759.7	-62.05725	3.75634E-010	0.0104677	5
	52	73	6.317385	123418.8	-215202.4	1	248081.2	-60.16568	6.07327E-010	0.0104613	5
	53	75	5.008013	150243.1	-245348.7	1	287695.9	-58.51814	1.269947E-010	0.0104792	5
	54	78	3.945707	180881.1	-278877.4	1	332401.2	-57.03238	-1.991257E-011	0.0104715	5
	55	80	3.158693	212295.9	-313450.6	1	378577.3	-55.89074	1.12371E-010	0.0104692	5
	56	84	2.504006	246947.3	-354197	1	431785.2	-55.11567	1.916461E-011	0.0104792	5
	57	86	1.998082	282500.8	-399337.4	1	489159.6	-54.72351	3.252016E-010	0.0104414	5
	58	90	1.584686	323655.5	-455103.1	1	558454.8	-54.58072	-3.239173E-011	0.0104262	5
	59	93	1.266892	364925.8	-516497	1	632408.1	-54.75726	2.280029E-010	0.0104557	5
	60	98	0.999041	414480	-596718.9	1	726544.6	-55.21621	-1.490727E-010	0.0104793	5
