EXPLAIN
TAG	EISPOT
TITLE	LABEL	Potentiostatic EIS	Test &Identifier
DATE	LABEL	8/14/2018	Date
TIME	LABEL	5:00:33	Time
NOTES	NOTES	1	&Notes...
	
PSTAT	PSTAT	REF600-11020	Potentiostat
VDC	POTEN	0.00000E+000	T	DC &Voltage (V)
FREQINIT	QUANT	1.00000E+006	Initial Fre&q. (Hz)
FREQFINAL	QUANT	1.00000E+000	Final Fre&q. (Hz)
PTSPERDEC	QUANT	1.00000E+001	Points/&decade
VAC	QUANT	2.50000E+001	AC &Voltage (mV rms)
AREA	QUANT	1.00000E-002	&Area (cm^2)
CONDIT	TWOPARAM	T	5.00000E+000	0.00000E+000	Conditionin&g	Time(s)	E(V)
DELAY	TWOPARAM	T	5.00000E+000	0.00000E+000	Init. De&lay	Time(s)	Stab.(mV/s)
SPEED	SELECTOR	0	&Optimize for:
ZGUESS	QUANT	1.00000E+005	E&stimated Z (ohms)
OCVCURVE	TABLE	19
	Pt	T	Vf	Vm	Ach	Over
	#	s	V vs. Ref.	V	V	bits
	0	0.258333	6.07645E-003	6.07645E-003	5.93365E-004	...........
	1	0.516667	6.07814E-003	6.16462E-003	5.92165E-004	...........
	2	0.775	6.08805E-003	6.22583E-003	5.92932E-004	...........
	3	1.03333	6.11478E-003	6.28936E-003	5.95232E-004	...........
	4	1.29167	6.16081E-003	6.38061E-003	5.90299E-004	...........
	5	1.55	6.22272E-003	6.49257E-003	5.91099E-004	...........
	6	1.80833	6.29838E-003	6.61548E-003	5.93232E-004	...........
	7	2.06667	6.38839E-003	6.73377E-003	5.93365E-004	...........
	8	2.325	6.49169E-003	6.83910E-003	5.95099E-004	...........
	9	2.58333	6.60280E-003	6.92040E-003	6.00732E-004	...........
	10	2.84167	6.71362E-003	7.01729E-003	5.98865E-004	...........
	11	3.1	6.81823E-003	7.10642E-003	5.95932E-004	...........
	12	3.35833	6.91582E-003	7.19458E-003	5.99799E-004	...........
	13	3.61667	7.00860E-003	7.28092E-003	5.98665E-004	...........
	14	3.875	7.09871E-003	7.37324E-003	6.06198E-004	...........
	15	4.13333	7.18749E-003	7.45545E-003	5.98732E-004	...........
	16	4.39167	7.27561E-003	7.54329E-003	6.00799E-004	...........
	17	4.65	7.36306E-003	7.62729E-003	5.93665E-004	...........
	18	4.90833	7.44959E-003	7.70779E-003	5.98299E-004	...........
EOC	QUANT	0.0074496	Open Circuit (V)
PSTATMODEL	IQUANT	4	Pstat Model
PSTATSECTION	LABEL	REF600-11020	Pstat Section
PSTATSERIALNO	LABEL	11020	Pstat Serial Number
CTRLMODE	IQUANT	1	Control Mode
IESTAB	IQUANT	0	I/E Stability
CASPEED	IQUANT	1	Control Amp Speed
CONVENTION	IQUANT	1	Current Convention
ICHRANGE	IQUANT	2	Ich Range
ICHRANGEMODE	TOGGLE	F	Ich Auto Range
ICHOFFSETENABLE	TOGGLE	T	Ich Offset Enable
ICHOFFSET	QUANT	0	Ich Offset (V)
ICHFILTER	IQUANT	3	Ich Filter
VCHRANGE	IQUANT	2	Vch Range
VCHRANGEMODE	TOGGLE	F	Vch Auto Range
VCHOFFSETENABLE	TOGGLE	T	Vch Offset Enable
VCHOFFSET	QUANT	0	Vch Offset (V)
VCHFILTER	IQUANT	3	Vch Filter
ACHRANGE	IQUANT	2	Ach Range
ACHOFFSETENABLE	TOGGLE	F	Ach Offset Enable
ACHOFFSET	QUANT	0	Ach Offset (V)
ACHFILTER	IQUANT	3	Ach Filter
IERANGELOWERLIMIT	IQUANT	1	I/E Range Lower Limit
IERANGEMODE	TOGGLE	F	I/E AutoRange
IERANGE	IQUANT	5	I/E Range
POSFEEDENABLE	TOGGLE	F	Positive Feedback IR Comp
POSFEEDRESISTANCE	QUANT	0	Positive Feedback Resistance (ohm)
ACHSELECT	IQUANT	0	Ach Select
CABLEID	IQUANT	14	Cable ID
DCCALDATE	LABEL	8/19/2019	DC Calibration Date
ACCALDATE	LABEL	8/19/2019	AC Calibration Date
THERMOSELECT	IQUANT	1	Thermo Select
FRAMEWORKVERSION	QUANT	6.33	Framework Version
INSTRUMENTVERSION	LABEL	3.50	Instrument Version
ZCURVE	TABLE
	Pt	Time	Freq	Zreal	Zimag	Zsig	Zmod	Zphz	Idc	Vdc	IERange
	#	s	Hz	ohm	ohm	V	ohm	°	A	V	#
	0	1	1000078	1949.669	-807.6418	1	2110.33	-22.50157	5.666707E-007	0.009694	8
	1	1	794390.6	2073.908	-730.5831	1	2198.828	-19.40602	1.762288E-006	0.0090135	8
	2	2	630984.4	2176.038	-642.1318	1	2268.805	-16.44092	-6.131675E-007	0.0092472	8
	3	2	501234.4	2258.174	-556.4906	1	2325.732	-13.84378	-4.121872E-007	0.009313	8
	4	2	398109.4	2315.499	-477.8192	1	2364.285	-11.65972	3.723987E-007	0.008937	8
	5	3	316265.6	2364.97	-420.1155	1	2401.995	-10.073	-1.440023E-007	0.0090887	8
	6	3	251203.1	2398.156	-373.9491	1	2427.137	-8.862866	-4.411825E-007	0.0092218	8
	7	3	199546.9	2428.42	-334.6365	1	2451.368	-7.845951	3.477683E-006	0.0084318	8
	8	4	158578.1	2445.278	-270.5481	1	2460.2	-6.313584	2.155904E-006	0.0086146	8
	9	4	125953.1	2500.769	-245.0426	1	2512.746	-5.596371	-1.040794E-006	0.0111142	7
	10	4	100078.1	2509.416	-225.8773	1	2519.561	-5.143442	-1.820348E-008	0.009103	7
	11	5	79453.13	2535.417	-232.6592	1	2546.07	-5.242987	-3.921736E-008	0.0091772	7
	12	5	63140.62	2557.708	-239.972	1	2568.941	-5.359976	-3.989551E-008	0.0091772	7
	13	5	50203.12	2581.524	-252.342	1	2593.828	-5.582881	-3.785141E-008	0.0091135	7
	14	6	39890.62	2607.861	-268.9286	1	2621.69	-5.887661	-3.504791E-008	0.009056	7
	15	6	31640.63	2635.366	-289.9718	1	2651.271	-6.279051	-3.962818E-008	0.0091112	7
	16	6	25171.88	2665.597	-316.6977	1	2684.344	-6.775511	6.275773E-008	0.0089013	7
	17	6	20015.62	2700.485	-348.2158	1	2722.843	-7.347499	-3.981717E-008	0.0090764	7
	18	7	15890.62	2736.665	-387.2412	1	2763.927	-8.053947	-3.220831E-008	0.0090445	7
	19	7	12609.37	2777.538	-432.834	1	2811.061	-8.857372	-3.108472E-008	0.0090468	7
	20	7	10078.13	2821.927	-485.4716	1	2863.382	-9.76135	-1.926058E-009	0.0091267	7
	21	8	8015.625	2868.014	-546.0745	1	2919.538	-10.78018	-3.279432E-008	0.0090427	7
	22	8	6328.125	2917.973	-620.5635	1	2983.231	-12.00618	1.063278E-007	0.0088787	7
	23	8	5015.625	2971.243	-709.2307	1	3054.717	-13.42519	-1.651715E-008	0.0090871	7
	24	9	3984.375	3025.914	-817.3879	1	3134.371	-15.11648	6.409542E-008	0.0088891	7
	25	9	3170.956	3085.153	-943.538	1	3226.21	-17.0053	-1.44606E-008	0.0090684	7
	26	9	2527.573	3145.827	-1099.557	1	3332.454	-19.266	-4.045475E-008	0.0090675	7
	27	10	1976.103	3215.014	-1308.149	1	3470.961	-22.1408	7.16121E-008	0.0088981	7
	28	10	1577.524	3289.826	-1545.602	1	3634.81	-25.16473	-3.538844E-008	0.0090399	7
	29	10	1265.625	3356.87	-1838.945	1	3827.571	-28.71461	6.190451E-008	0.0090003	7
	30	11	998.264	3444.206	-2220.245	1	4097.81	-32.80712	-3.129323E-008	0.0090361	7
	31	11	796.875	3538.395	-2674.387	1	4435.378	-37.08269	-3.215361E-008	0.0090341	7
	32	11	627.7902	3655.776	-3273.075	1	4906.906	-41.8386	-3.513753E-008	0.0090385	7
	33	12	505.5147	3780.742	-3943.555	1	5463.116	-46.2075	7.179804E-008	0.0088952	7
	34	12	397.9953	3953.999	-4859.59	1	6264.959	-50.86652	2.345265E-009	0.0090449	7
	35	12	315.5048	4163.907	-5962.844	1	7272.8	-55.07306	8.541437E-010	0.0090435	7
	36	13	252.4038	4418.373	-7267.171	1	8504.928	-58.70078	4.111276E-010	0.0090363	7
	37	13	198.6229	4770.454	-8990.838	1	10178.04	-62.05	1.710898E-009	0.0090414	7
	38	13	158.3615	5204.877	-10996.03	1	12165.66	-64.66986	-6.691999E-010	0.0089816	6
	39	13	125.558	5783.858	-13504.34	1	14690.83	-66.81474	-2.193478E-010	0.0089852	6
	40	14	100.4464	6517.886	-16417.75	1	17664.24	-68.3468	2.744869E-010	0.0089816	6
	41	14	79.00281	7577.375	-20253.41	1	21624.46	-69.48775	-7.632671E-010	0.008976	6
	42	14	63.3446	8623.401	-24680.85	1	26143.97	-70.74076	2.601206E-010	0.0089757	6
	43	15	49.86702	10382.8	-30152.14	1	31889.72	-70.99902	-1.307899E-009	0.0089756	6
	44	15	39.72458	12774.03	-36447.91	1	38621.57	-70.68578	-5.782617E-012	0.0089801	6
	45	16	31.6723	15672.92	-43882.43	1	46597.3	-70.34545	4.070668E-011	0.0089797	6
	46	16	24.93351	19502.47	-53220.38	1	56681.17	-69.87477	-2.999611E-010	0.0089772	6
	47	16	19.86229	24242.19	-63599.43	1	68062.99	-69.13466	-5.109232E-010	0.0089772	6
	48	16	15.83615	29531.19	-75180.95	1	80772.94	-68.55502	-8.081311E-010	0.0089796	6
	49	17	12.40079	37685.67	-90480.3	1	98014.8	-67.38793	4.121409E-010	0.0089821	6
	50	17	9.93114	46996.9	-106026.3	1	115975.3	-66.09434	8.999176E-010	0.0089837	5
	51	18	7.944915	57985.97	-123888.9	1	136787.5	-64.91814	2.827947E-010	0.0089856	5
	52	18	6.317385	70849.57	-144371.8	1	160819.4	-63.86079	4.371424E-010	0.0089729	5
	53	19	5.008013	86442.8	-168175.5	1	189090.8	-62.79667	3.131484E-010	0.0089906	5
	54	20	3.945707	105264.4	-195780.8	1	222285.2	-61.73466	-2.585226E-010	0.0089849	5
	55	22	3.158693	125111.2	-225143.2	1	257570	-60.93924	-2.986023E-010	0.0089622	5
	56	23	2.504006	149088.5	-260020.4	1	299729.8	-60.17123	9.453265E-011	0.0089685	5
	57	24	1.998082	174525.5	-298422.2	1	345709.3	-59.67974	-1.014127E-010	0.0089656	5
	58	26	1.584686	205519.5	-344859.2	1	401455.1	-59.20709	-2.865708E-010	0.0089264	5
	59	28	1.266892	238018	-397586.8	1	463387.3	-59.09286	-2.600996E-010	0.0089376	5
	60	30	0.999041	277286.9	-461943.5	1	538776.3	-59.02523	-2.460663E-010	0.0089598	5
