EXPLAIN
TAG	EISPOT
TITLE	LABEL	Potentiostatic EIS	Test &Identifier
DATE	LABEL	10/14/2019	Date
TIME	LABEL	9:16:11	Time
NOTES	NOTES	1	&Notes...
	
PSTAT	PSTAT	REF600-11020	Potentiostat
VDC	POTEN	0.00000E+000	T	DC &Voltage (V)
FREQINIT	QUANT	1.00000E+006	Initial Fre&q. (Hz)
FREQFINAL	QUANT	1.00000E+000	Final Fre&q. (Hz)
PTSPERDEC	QUANT	1.00000E+001	Points/&decade
VAC	QUANT	2.50000E+001	AC &Voltage (mV rms)
AREA	QUANT	1.00000E-002	&Area (cm^2)
CONDIT	TWOPARAM	T	5.00000E+000	0.00000E+000	Conditionin&g	Time(s)	E(V)
DELAY	TWOPARAM	T	5.00000E+000	0.00000E+000	Init. De&lay	Time(s)	Stab.(mV/s)
SPEED	SELECTOR	1	&Optimize for:
ZGUESS	QUANT	1.00000E+004	E&stimated Z (ohms)
OCVCURVE	TABLE	19
	Pt	T	Vf	Vm	Ach	Over
	#	s	V vs. Ref.	V	V	bits
	0	0.258333	9.07784E-003	9.07784E-003	5.44633E-004	...........
	1	0.516667	9.08072E-003	9.22886E-003	5.47633E-004	...........
	2	0.775	9.09870E-003	9.38566E-003	5.48866E-004	...........
	3	1.03333	9.15059E-003	9.54507E-003	5.51399E-004	...........
	4	1.29167	9.24600E-003	9.70540E-003	5.48866E-004	...........
	5	1.55	9.37734E-003	9.86103E-003	5.51933E-004	...........
	6	1.80833	9.52869E-003	1.00079E-002	5.48599E-004	...........
	7	2.06667	9.68622E-003	1.01513E-002	5.44833E-004	...........
	8	2.325	9.84189E-003	1.02965E-002	5.44199E-004	...........
	9	2.58333	9.99125E-003	1.03484E-002	5.50366E-004	...........
	10	2.84167	1.01290E-002	1.04727E-002	5.52133E-004	...........
	11	3.1	1.02531E-002	1.06824E-002	5.49099E-004	...........
	12	3.35833	1.03738E-002	1.08282E-002	5.48333E-004	...........
	13	3.61667	1.05077E-002	1.10432E-002	5.42866E-004	...........
	14	3.875	1.06596E-002	1.10739E-002	5.38833E-004	...........
	15	4.13333	1.08113E-002	1.09340E-002	5.41966E-004	...........
	16	4.39167	1.09311E-002	1.11932E-002	5.39999E-004	...........
	17	4.65	1.10120E-002	1.13537E-002	5.49033E-004	...........
	18	4.90833	1.10882E-002	1.14834E-002	5.43799E-004	...........
EOC	QUANT	0.0110882	Open Circuit (V)
PSTATMODEL	IQUANT	4	Pstat Model
PSTATSECTION	LABEL	REF600-11020	Pstat Section
PSTATSERIALNO	LABEL	11020	Pstat Serial Number
CTRLMODE	IQUANT	1	Control Mode
IESTAB	IQUANT	0	I/E Stability
CASPEED	IQUANT	1	Control Amp Speed
CONVENTION	IQUANT	1	Current Convention
ICHRANGE	IQUANT	2	Ich Range
ICHRANGEMODE	TOGGLE	F	Ich Auto Range
ICHOFFSETENABLE	TOGGLE	T	Ich Offset Enable
ICHOFFSET	QUANT	0	Ich Offset (V)
ICHFILTER	IQUANT	3	Ich Filter
VCHRANGE	IQUANT	2	Vch Range
VCHRANGEMODE	TOGGLE	F	Vch Auto Range
VCHOFFSETENABLE	TOGGLE	T	Vch Offset Enable
VCHOFFSET	QUANT	0	Vch Offset (V)
VCHFILTER	IQUANT	3	Vch Filter
ACHRANGE	IQUANT	2	Ach Range
ACHOFFSETENABLE	TOGGLE	F	Ach Offset Enable
ACHOFFSET	QUANT	0	Ach Offset (V)
ACHFILTER	IQUANT	3	Ach Filter
IERANGELOWERLIMIT	IQUANT	1	I/E Range Lower Limit
IERANGEMODE	TOGGLE	F	I/E AutoRange
IERANGE	IQUANT	6	I/E Range
POSFEEDENABLE	TOGGLE	F	Positive Feedback IR Comp
POSFEEDRESISTANCE	QUANT	0	Positive Feedback Resistance (ohm)
ACHSELECT	IQUANT	0	Ach Select
CABLEID	IQUANT	14	Cable ID
DCCALDATE	LABEL	8/19/2019	DC Calibration Date
ACCALDATE	LABEL	8/19/2019	AC Calibration Date
THERMOSELECT	IQUANT	1	Thermo Select
FRAMEWORKVERSION	QUANT	6.33	Framework Version
INSTRUMENTVERSION	LABEL	3.50	Instrument Version
ZCURVE	TABLE
	Pt	Time	Freq	Zreal	Zimag	Zsig	Zmod	Zphz	Idc	Vdc	IERange
	#	s	Hz	ohm	ohm	V	ohm	°	A	V	#
	0	2	1000078	2221.081	-1109.802	1	2482.914	-26.5498	-3.755503E-006	0.0133644	8
	1	3	794390.6	2412.989	-1020.657	1	2619.972	-22.92762	-1.040574E-006	0.0133062	8
	2	4	630984.4	2571.824	-898.0201	1	2724.1	-19.24799	1.189427E-006	0.0126778	8
	3	6	501234.4	2701.187	-780.0034	1	2811.551	-16.10677	7.490145E-007	0.0124357	8
	4	7	398109.4	2777.987	-674.5161	1	2858.703	-13.64774	1.550904E-006	0.0121304	8
	5	9	316265.6	2839.961	-588.4318	1	2900.281	-11.70588	8.803786E-007	0.0125164	8
	6	10	251203.1	2909.385	-506.4117	1	2953.13	-9.87406	2.292035E-006	0.0121289	8
	7	11	199546.9	2944.652	-443.6292	1	2977.882	-8.567517	-1.024808E-006	0.0128906	8
	8	13	158578.1	2988.193	-401.3266	1	3015.022	-7.649287	1.208795E-006	0.0123408	8
	9	14	125953.1	3021.047	-328.7442	1	3038.881	-6.210375	-4.116201E-007	0.0131877	7
	10	15	100078.1	3047.113	-315.1176	1	3063.364	-5.904262	-1.458716E-008	0.0125384	7
	11	17	79453.13	3073.384	-311.4904	1	3089.128	-5.78722	-1.106947E-008	0.0125862	7
	12	18	63140.62	3101.867	-314.8164	1	3117.802	-5.795249	-4.631023E-008	0.0126787	7
	13	19	50203.12	3131.914	-325.344	1	3148.767	-5.930628	8.136251E-009	0.0124924	7
	14	21	39890.62	3162.408	-342.098	1	3180.858	-6.174044	-2.001599E-008	0.0126732	7
	15	22	31640.63	3197.72	-367.0293	1	3218.714	-6.547668	-3.413669E-008	0.012578	7
	16	23	25171.88	3234.748	-398.4128	1	3259.191	-7.02156	9.075412E-009	0.0124796	7
	17	25	20015.62	3274.426	-443.4973	1	3304.323	-7.713361	-3.179109E-008	0.0125762	7
	18	26	15890.62	3315.484	-488.8033	1	3351.323	-8.386726	-1.986131E-008	0.0126698	7
	19	28	12609.37	3362.208	-549.9661	1	3406.891	-9.289765	-4.579296E-008	0.0126724	7
	20	29	10078.13	3409.551	-620.7825	1	3465.604	-10.3189	-3.782939E-008	0.0126234	7
	21	30	8015.625	3455.801	-709.5275	1	3527.887	-11.60244	-1.094135E-008	0.0125712	7
	22	32	6328.125	3517.236	-819.4732	1	3611.438	-13.11525	1.005214E-008	0.0124757	7
	23	33	5015.625	3576.517	-955.323	1	3701.907	-14.95513	-4.423026E-008	0.012672	7
	24	34	3984.375	3633.666	-1125.205	1	3803.895	-17.20572	5.586312E-008	0.0124372	7
	25	36	3170.956	3710.782	-1320.849	1	3938.851	-19.59314	1.141867E-007	0.0123699	7
	26	37	2527.573	3787.639	-1565.94	1	4098.582	-22.46188	-3.19317E-008	0.0125606	7
	27	38	1976.103	3882.034	-1893.641	1	4319.267	-26.00294	-8.320688E-009	0.0125734	7
	28	40	1577.524	3982.522	-2272.609	1	4585.328	-29.71106	-3.480867E-008	0.0125581	7
	29	41	1265.625	4090.187	-2700.313	1	4901.155	-33.43251	-1.009435E-008	0.012507	7
	30	43	998.264	4222.981	-3285.199	1	5350.337	-37.88055	-1.719758E-008	0.012659	7
	31	44	796.875	4369.034	-3966.286	1	5900.837	-42.23372	-9.027015E-009	0.0125683	7
	32	45	627.7902	4542.254	-4855.489	1	6648.898	-46.90902	-4.447874E-008	0.0126685	7
	33	47	505.5147	4731.319	-5853.072	1	7526.209	-51.04973	-9.618523E-009	0.0125655	7
	34	48	397.9953	4986.122	-7209.669	1	8765.885	-55.33273	2.198929E-009	0.0125424	7
	35	49	315.5048	5290.613	-8848.851	1	10309.84	-59.12534	7.545401E-010	0.0124834	6
	36	51	252.4038	5651.112	-10787.17	1	12177.77	-62.35114	8.29294E-010	0.0124727	6
	37	52	198.6229	6147.284	-13357.67	1	14704.3	-65.28781	6.181796E-010	0.0124717	6
	38	54	158.3615	6751.015	-16351.83	1	17690.63	-67.56623	9.750185E-010	0.0124712	6
	39	55	125.558	7557.897	-20121.53	1	21494.13	-69.4132	6.675593E-010	0.0124737	6
	40	56	100.4464	8553.5	-24525.49	1	25974.26	-70.77329	1.245785E-009	0.0124759	6
	41	58	79.00281	10047.09	-30372.26	1	31990.91	-71.69588	-2.624576E-010	0.0124793	6
	42	59	63.3446	12073.29	-36950.59	1	38873	-71.90565	1.041526E-010	0.0124758	6
	43	60	49.86702	14071.58	-45521.89	1	47647.16	-72.82274	5.159664E-012	0.0124772	6
	44	62	39.72458	17398.1	-55100.91	1	57782.39	-72.4765	1.000907E-010	0.0124822	6
	45	63	31.6723	21512.87	-66921.1	1	70293.94	-72.17915	-2.097693E-010	0.0124757	6
	46	65	24.93351	27483.51	-81381.96	1	85897.42	-71.33966	-2.195959E-010	0.0124768	6
	47	66	19.86229	34604.96	-97827.6	1	103767.8	-70.51958	-1.820752E-010	0.0124775	6
	48	67	15.83615	44719.94	-115939.7	1	124265.4	-68.90752	6.789516E-010	0.0124842	5
	49	69	12.40079	56808.2	-140014.3	1	151099.9	-67.91605	-1.702243E-010	0.0124914	5
	50	70	9.93114	71966.87	-164191	1	179270.5	-66.33159	-3.068699E-010	0.012488	5
	51	72	7.944915	89650.55	-191991.3	1	211891.2	-64.96973	5.201816E-010	0.012478	5
	52	73	6.317385	112943.2	-221992.9	1	249072.3	-63.0344	5.49418E-010	0.0124748	5
	53	75	5.008013	140302.4	-256565.5	1	292422	-61.32804	-4.200186E-011	0.012487	5
	54	78	3.945707	172760.2	-295474.3	1	342273.6	-59.6857	-1.266865E-010	0.0124855	5
	55	80	3.158693	206988.3	-334670.6	1	393508.1	-58.26388	-3.642237E-011	0.012478	5
	56	84	2.504006	246095.4	-380429	1	453088.4	-57.10161	1.454318E-010	0.0124926	5
	57	86	1.998082	287946.9	-430454.5	1	517884.6	-56.21998	3.01451E-010	0.0124959	5
	58	90	1.584686	336369.4	-487573.7	1	592344.9	-55.39882	3.265717E-011	0.0124413	5
	59	93	1.266892	386076.5	-553406.9	1	674769.8	-55.09899	1.668967E-010	0.0125057	5
	60	97	0.999041	446254.1	-633510.8	1	774905.6	-54.83858	-2.120029E-010	0.0124511	5
