EXPLAIN
TAG	EISPOT
TITLE	LABEL	Potentiostatic EIS	Test &Identifier
DATE	LABEL	10/6/2019	Date
TIME	LABEL	8:46:01	Time
NOTES	NOTES	2	&Notes...
	
	
PSTAT	PSTAT	REF600-11020	Potentiostat
VDC	POTEN	0.00000E+000	T	DC &Voltage (V)
FREQINIT	QUANT	1.00000E+006	Initial Fre&q. (Hz)
FREQFINAL	QUANT	1.00000E+000	Final Fre&q. (Hz)
PTSPERDEC	QUANT	1.00000E+001	Points/&decade
VAC	QUANT	2.50000E+001	AC &Voltage (mV rms)
AREA	QUANT	1.00000E-002	&Area (cm^2)
CONDIT	TWOPARAM	T	5.00000E+000	0.00000E+000	Conditionin&g	Time(s)	E(V)
DELAY	TWOPARAM	T	5.00000E+000	0.00000E+000	Init. De&lay	Time(s)	Stab.(mV/s)
SPEED	SELECTOR	1	&Optimize for:
ZGUESS	QUANT	1.00000E+004	E&stimated Z (ohms)
OCVCURVE	TABLE	19
	Pt	T	Vf	Vm	Ach	Over
	#	s	V vs. Ref.	V	V	bits
	0	0.258333	-6.78664E-003	-6.78664E-003	5.63099E-004	...........
	1	0.516667	-6.80025E-003	-7.49937E-003	5.71599E-004	...........
	2	0.775	-6.88332E-003	-8.14644E-003	5.67799E-004	...........
	3	1.03333	-7.11598E-003	-8.74098E-003	5.70632E-004	...........
	4	1.29167	-7.52763E-003	-9.36841E-003	5.71699E-004	...........
	5	1.55	-8.07110E-003	-9.94625E-003	5.67599E-004	...........
	6	1.80833	-8.67430E-003	-1.05127E-002	5.74232E-004	...........
	7	2.06667	-9.28577E-003	-1.10671E-002	5.70532E-004	...........
	8	2.325	-9.88184E-003	-1.16076E-002	5.70999E-004	...........
	9	2.58333	-1.04564E-002	-1.20844E-002	5.70066E-004	...........
	10	2.84167	-1.10070E-002	-1.25159E-002	5.67832E-004	...........
	11	3.1	-1.15281E-002	-1.29464E-002	5.62699E-004	...........
	12	3.35833	-1.20159E-002	-1.33798E-002	5.61132E-004	...........
	13	3.61667	-1.24742E-002	-1.37802E-002	5.69366E-004	...........
	14	3.875	-1.29115E-002	-1.41860E-002	5.64599E-004	...........
	15	4.13333	-1.33343E-002	-1.45867E-002	5.65499E-004	...........
	16	4.39167	-1.37468E-002	-1.49742E-002	5.65099E-004	...........
	17	4.65	-1.41515E-002	-1.53670E-002	5.64332E-004	...........
	18	4.90833	-1.45500E-002	-1.57506E-002	5.71232E-004	...........
EOC	QUANT	-0.01455	Open Circuit (V)
PSTATMODEL	IQUANT	4	Pstat Model
PSTATSECTION	LABEL	REF600-11020	Pstat Section
PSTATSERIALNO	LABEL	11020	Pstat Serial Number
CTRLMODE	IQUANT	1	Control Mode
IESTAB	IQUANT	0	I/E Stability
CASPEED	IQUANT	1	Control Amp Speed
CONVENTION	IQUANT	1	Current Convention
ICHRANGE	IQUANT	2	Ich Range
ICHRANGEMODE	TOGGLE	F	Ich Auto Range
ICHOFFSETENABLE	TOGGLE	T	Ich Offset Enable
ICHOFFSET	QUANT	0	Ich Offset (V)
ICHFILTER	IQUANT	3	Ich Filter
VCHRANGE	IQUANT	2	Vch Range
VCHRANGEMODE	TOGGLE	F	Vch Auto Range
VCHOFFSETENABLE	TOGGLE	T	Vch Offset Enable
VCHOFFSET	QUANT	0	Vch Offset (V)
VCHFILTER	IQUANT	3	Vch Filter
ACHRANGE	IQUANT	2	Ach Range
ACHOFFSETENABLE	TOGGLE	F	Ach Offset Enable
ACHOFFSET	QUANT	0	Ach Offset (V)
ACHFILTER	IQUANT	3	Ach Filter
IERANGELOWERLIMIT	IQUANT	1	I/E Range Lower Limit
IERANGEMODE	TOGGLE	F	I/E AutoRange
IERANGE	IQUANT	6	I/E Range
POSFEEDENABLE	TOGGLE	F	Positive Feedback IR Comp
POSFEEDRESISTANCE	QUANT	0	Positive Feedback Resistance (ohm)
ACHSELECT	IQUANT	0	Ach Select
CABLEID	IQUANT	14	Cable ID
DCCALDATE	LABEL	8/19/2019	DC Calibration Date
ACCALDATE	LABEL	8/19/2019	AC Calibration Date
THERMOSELECT	IQUANT	1	Thermo Select
FRAMEWORKVERSION	QUANT	6.33	Framework Version
INSTRUMENTVERSION	LABEL	3.50	Instrument Version
ZCURVE	TABLE
	Pt	Time	Freq	Zreal	Zimag	Zsig	Zmod	Zphz	Idc	Vdc	IERange
	#	s	Hz	ohm	ohm	V	ohm	°	A	V	#
	0	1	1000078	2132.533	-1184.324	1	2439.328	-29.04604	-6.232389E-006	-0.011203	8
	1	3	794390.6	2343.326	-1084.744	1	2582.218	-24.83979	1.092358E-006	-0.0127893	8
	2	4	630984.4	2519.196	-974.903	1	2701.256	-21.15594	-2.067492E-006	-0.0124226	8
	3	6	501234.4	2663.007	-869.858	1	2801.475	-18.08937	5.501997E-006	-0.0140354	8
	4	7	398109.4	2776.069	-748.8698	1	2875.302	-15.09671	1.923503E-007	-0.0132062	8
	5	8	316265.6	2865.375	-654.9294	1	2939.27	-12.87475	4.745627E-006	-0.0140166	8
	6	10	251203.1	2925.781	-549.5297	1	2976.941	-10.63754	-4.571848E-006	-0.0122026	8
	7	11	199546.9	2967.046	-485.9836	1	3006.583	-9.302092	-1.761125E-006	-0.0126473	8
	8	12	158578.1	3019.411	-440.7774	1	3051.414	-8.305445	3.658761E-006	-0.0135962	8
	9	14	125953.1	3066.456	-349.097	1	3086.263	-6.494807	-8.831657E-007	-0.0112811	7
	10	15	100078.1	3089.669	-322.5701	1	3106.462	-5.960247	1.254194E-007	-0.0132087	7
	11	17	79453.13	3114.845	-310.5397	1	3130.287	-5.693385	5.889471E-008	-0.0131156	7
	12	18	63140.62	3141.711	-306.5592	1	3156.632	-5.573116	-3.521559E-009	-0.0130848	7
	13	19	50203.12	3168.761	-308.4492	1	3183.738	-5.559692	1.120701E-008	-0.0130551	7
	14	21	39890.62	3197.079	-315.8581	1	3212.644	-5.642274	-9.259859E-009	-0.0130015	7
	15	22	31640.63	3225.946	-334.588	1	3243.251	-5.921419	-9.545829E-009	-0.0129802	7
	16	24	25171.88	3257.189	-358.0732	1	3276.813	-6.273516	-4.946815E-009	-0.0130813	7
	17	25	20015.62	3292.003	-390.758	1	3315.113	-6.769288	1.253397E-007	-0.013222	7
	18	26	15890.62	3326.765	-430.3112	1	3354.48	-7.370185	-1.004121E-008	-0.0130059	7
	19	28	12609.37	3367.525	-480.949	1	3401.696	-8.128001	4.523348E-008	-0.013075	7
	20	29	10078.13	3406.899	-540.9691	1	3449.581	-9.022463	-6.415701E-009	-0.0130022	7
	21	30	8015.625	3448.71	-615.7021	1	3503.24	-10.12243	-3.885142E-008	-0.0130241	7
	22	32	6328.125	3500.981	-708.4392	1	3571.94	-11.43959	6.031056E-008	-0.013129	7
	23	33	5015.625	3553.178	-822.1473	1	3647.054	-13.02804	4.639458E-008	-0.013072	7
	24	35	3984.375	3607.916	-960.395	1	3733.553	-14.90598	1.065434E-007	-0.0131273	7
	25	36	3170.956	3669.974	-1128.12	1	3839.448	-17.087	8.473265E-008	-0.0132002	7
	26	37	2527.573	3736.851	-1333.413	1	3967.625	-19.63782	-6.222331E-008	-0.0129185	7
	27	39	1976.103	3815.32	-1607.598	1	4140.174	-22.84829	-6.712685E-009	-0.0130044	7
	28	40	1577.524	3900.117	-1917.456	1	4345.98	-26.1806	1.277588E-007	-0.0132239	7
	29	41	1265.625	3985.828	-2290.324	1	4597	-29.8824	4.518662E-008	-0.0130803	7
	30	43	998.264	4097.998	-2787.959	1	4956.44	-34.22833	-9.627104E-009	-0.0130022	7
	31	44	796.875	4219.249	-3367.733	1	5398.489	-38.59628	-7.072067E-009	-0.0129765	7
	32	45	627.7902	4372.804	-4132.415	1	6016.499	-43.38104	-7.486864E-008	-0.0127978	7
	33	47	505.5147	4543.261	-4985.308	1	6744.962	-47.65615	1.107893E-007	-0.0131404	7
	34	48	397.9953	4784.332	-6143.738	1	7786.87	-52.09093	6.432336E-009	-0.0130077	7
	35	50	315.5048	5078.167	-7536.479	1	9087.701	-56.02745	7.399227E-009	-0.0130055	7
	36	51	252.4038	5444.025	-9174.501	1	10668.13	-59.31568	1.954035E-009	-0.0130762	6
	37	52	198.6229	5950.039	-11332.93	1	12799.94	-62.29954	2.367196E-009	-0.0130675	6
	38	54	158.3615	6577.781	-13826	1	15310.96	-64.55701	3.021047E-009	-0.0130669	6
	39	55	125.558	7426.659	-16933.56	1	18490.56	-66.31888	2.181992E-009	-0.0130716	6
	40	56	100.4464	8496.178	-20519.53	1	22208.92	-67.50784	1.589593E-009	-0.0130691	6
	41	58	79.00281	10023.71	-25257.73	1	27174.03	-68.354	2.158954E-009	-0.0130705	6
	42	59	63.3446	11700.98	-30246.13	1	32430.56	-68.85061	2.703859E-009	-0.0130735	6
	43	60	49.86702	14655.99	-36873.94	1	39679.79	-68.32406	1.847581E-009	-0.0130704	6
	44	62	39.72458	17912.83	-44391.32	1	47869.18	-68.02489	2.17809E-009	-0.0130623	6
	45	63	31.6723	22223.43	-52974.8	1	57447.45	-67.24149	1.660334E-009	-0.0130682	6
	46	65	24.93351	28000.55	-63445.69	1	69349.74	-66.18664	2.636664E-009	-0.0130705	6
	47	66	19.86229	35171.7	-74760.09	1	82620.33	-64.80485	2.341761E-009	-0.0130678	6
	48	67	15.83615	43852.61	-87486.2	1	97861.6	-63.3776	2.139039E-009	-0.0130687	6
	49	69	12.40079	55209.54	-102116.1	1	116085.3	-61.60193	1.798655E-009	-0.0130681	5
	50	70	9.93114	67896.79	-116606.6	1	134933.6	-59.78895	2.459601E-009	-0.0130672	5
	51	72	7.944915	82432.54	-132346.3	1	155918.7	-58.08308	9.654428E-010	-0.0130617	5
	52	73	6.317385	98993.9	-149853.2	1	179598.9	-56.55102	9.458433E-010	-0.0130563	5
	53	75	5.008013	117900.6	-168984.3	1	206049.1	-55.09647	1.372576E-009	-0.013075	5
	54	78	3.945707	138770.2	-190480.8	1	235669.5	-53.92569	1.932787E-009	-0.0130607	5
	55	81	3.158693	159907.5	-213199.3	1	266504	-53.12873	1.093955E-009	-0.0130706	5
	56	84	2.504006	183045.9	-240517.1	1	302248.7	-52.727	1.925228E-009	-0.0130661	5
	57	87	1.998082	207105.3	-271145.9	1	341193	-52.62687	1.575702E-009	-0.0130406	5
	58	90	1.584686	233853.7	-307258.5	1	386128.7	-52.72532	1.475121E-009	-0.013107	5
	59	93	1.266892	261881.1	-351600	1	438411.1	-53.32028	1.568749E-009	-0.0130568	5
	60	98	0.999041	296565.5	-408909.2	1	505131.5	-54.04812	8.490467E-010	-0.0130878	5
