EXPLAIN
TAG	EISPOT
TITLE	LABEL	Potentiostatic EIS	Test &Identifier
DATE	LABEL	11/5/2019	Date
TIME	LABEL	10:24:54	Time
NOTES	NOTES	2	&Notes...
	
	
PSTAT	PSTAT	REF600-11020	Potentiostat
VDC	POTEN	0.00000E+000	T	DC &Voltage (V)
FREQINIT	QUANT	1.00000E+006	Initial Fre&q. (Hz)
FREQFINAL	QUANT	1.00000E+000	Final Fre&q. (Hz)
PTSPERDEC	QUANT	1.00000E+001	Points/&decade
VAC	QUANT	2.50000E+001	AC &Voltage (mV rms)
AREA	QUANT	1.00000E-002	&Area (cm^2)
CONDIT	TWOPARAM	T	5.00000E+000	0.00000E+000	Conditionin&g	Time(s)	E(V)
DELAY	TWOPARAM	T	5.00000E+000	0.00000E+000	Init. De&lay	Time(s)	Stab.(mV/s)
SPEED	SELECTOR	1	&Optimize for:
ZGUESS	QUANT	1.00000E+005	E&stimated Z (ohms)
OCVCURVE	TABLE	19
	Pt	T	Vf	Vm	Ach	Over
	#	s	V vs. Ref.	V	V	bits
	0	0.258333	4.87558E-003	4.87558E-003	5.70299E-004	...........
	1	0.516667	4.87495E-003	4.84280E-003	5.70766E-004	...........
	2	0.775	4.87159E-003	4.83719E-003	5.72599E-004	...........
	3	1.03333	4.86369E-003	4.83080E-003	5.74699E-004	...........
	4	1.29167	4.85280E-003	4.83553E-003	5.73832E-004	...........
	5	1.55	4.84320E-003	4.84750E-003	5.73799E-004	...........
	6	1.80833	4.83856E-003	4.85549E-003	5.71032E-004	...........
	7	2.06667	4.84011E-003	4.87386E-003	5.70732E-004	...........
	8	2.325	4.84711E-003	4.88707E-003	5.69432E-004	...........
	9	2.58333	4.85815E-003	4.90638E-003	5.73466E-004	...........
	10	2.84167	4.87196E-003	4.92157E-003	5.73866E-004	...........
	11	3.1	4.88753E-003	4.94094E-003	5.69532E-004	...........
	12	3.35833	4.90410E-003	4.95587E-003	5.72566E-004	...........
	13	3.61667	4.92119E-003	4.97662E-003	5.75832E-004	...........
	14	3.875	4.93855E-003	4.99199E-003	5.70399E-004	...........
	15	4.13333	4.95615E-003	5.01283E-003	5.66832E-004	...........
	16	4.39167	4.97404E-003	5.03157E-003	5.72466E-004	...........
	17	4.65	4.99231E-003	5.04993E-003	5.69699E-004	...........
	18	4.90833	5.01091E-003	5.06674E-003	5.74499E-004	...........
EOC	QUANT	0.0050109	Open Circuit (V)
PSTATMODEL	IQUANT	4	Pstat Model
PSTATSECTION	LABEL	REF600-11020	Pstat Section
PSTATSERIALNO	LABEL	11020	Pstat Serial Number
CTRLMODE	IQUANT	1	Control Mode
IESTAB	IQUANT	0	I/E Stability
CASPEED	IQUANT	1	Control Amp Speed
CONVENTION	IQUANT	1	Current Convention
ICHRANGE	IQUANT	2	Ich Range
ICHRANGEMODE	TOGGLE	F	Ich Auto Range
ICHOFFSETENABLE	TOGGLE	T	Ich Offset Enable
ICHOFFSET	QUANT	0	Ich Offset (V)
ICHFILTER	IQUANT	3	Ich Filter
VCHRANGE	IQUANT	2	Vch Range
VCHRANGEMODE	TOGGLE	F	Vch Auto Range
VCHOFFSETENABLE	TOGGLE	T	Vch Offset Enable
VCHOFFSET	QUANT	0	Vch Offset (V)
VCHFILTER	IQUANT	3	Vch Filter
ACHRANGE	IQUANT	2	Ach Range
ACHOFFSETENABLE	TOGGLE	F	Ach Offset Enable
ACHOFFSET	QUANT	0	Ach Offset (V)
ACHFILTER	IQUANT	3	Ach Filter
IERANGELOWERLIMIT	IQUANT	1	I/E Range Lower Limit
IERANGEMODE	TOGGLE	F	I/E AutoRange
IERANGE	IQUANT	4	I/E Range
POSFEEDENABLE	TOGGLE	F	Positive Feedback IR Comp
POSFEEDRESISTANCE	QUANT	0	Positive Feedback Resistance (ohm)
ACHSELECT	IQUANT	0	Ach Select
CABLEID	IQUANT	14	Cable ID
DCCALDATE	LABEL	8/19/2019	DC Calibration Date
ACCALDATE	LABEL	8/19/2019	AC Calibration Date
THERMOSELECT	IQUANT	1	Thermo Select
FRAMEWORKVERSION	QUANT	6.33	Framework Version
INSTRUMENTVERSION	LABEL	3.50	Instrument Version
ZCURVE	TABLE
	Pt	Time	Freq	Zreal	Zimag	Zsig	Zmod	Zphz	Idc	Vdc	IERange
	#	s	Hz	ohm	ohm	V	ohm	°	A	V	#
	0	1	1000078	2289.575	-1677.693	1	2838.451	-36.2322	6.455786E-006	0.005876	8
	1	3	794390.6	2620.953	-1646.837	1	3095.395	-32.14259	3.208686E-006	0.0067624	8
	2	4	630984.4	2918.887	-1570.747	1	3314.687	-28.28612	-2.660458E-006	0.0072094	8
	3	5	501234.4	3194.199	-1474.392	1	3518.059	-24.7773	-5.011254E-006	0.0069864	8
	4	7	398109.4	3427.48	-1354.276	1	3685.334	-21.56011	4.875215E-006	0.0065248	8
	5	8	316265.6	3625.833	-1220.245	1	3825.658	-18.60024	-5.549847E-007	0.0062143	8
	6	10	251203.1	3798.338	-1107.145	1	3956.405	-16.25042	-4.848183E-006	0.0068712	8
	7	11	199546.9	3929.463	-990.043	1	4052.266	-14.14155	-3.798588E-006	0.0071045	8
	8	12	158578.1	4044.497	-889.7543	1	4141.209	-12.40695	-3.070911E-006	0.0071258	8
	9	14	125953.1	4183.363	-731.9938	1	4246.921	-9.92499	4.527872E-006	-0.0010412	7
	10	15	100078.1	4257.512	-653.0265	1	4307.302	-8.720191	-1.365531E-006	0.0076882	7
	11	16	79453.13	4320.244	-610.791	1	4363.207	-8.047077	6.769868E-007	0.006735	7
	12	18	63140.62	4383.921	-568.7991	1	4420.667	-7.392637	6.76868E-007	0.0067328	7
	13	19	50203.12	4439.955	-536.6144	1	4472.265	-6.891362	8.937928E-007	0.0044728	7
	14	20	39890.62	4487.96	-511.4773	1	4517.012	-6.50175	-8.030852E-007	0.0062638	7
	15	22	31640.63	4536.603	-501.9712	1	4564.29	-6.314044	-7.128901E-007	0.0082896	7
	16	23	25171.88	4582.477	-500.874	1	4609.769	-6.237782	-1.243208E-006	0.0082961	7
	17	24	20015.62	4622.73	-512.7232	1	4651.078	-6.329007	-1.367411E-006	0.0076789	7
	18	26	15890.62	4671.919	-538.8126	1	4702.887	-6.578858	8.942992E-007	0.0044734	7
	19	27	12609.37	4712.849	-578.982	1	4748.28	-7.003795	1.511057E-007	0.0049198	7
	20	29	10078.13	4755.109	-624.5085	1	4795.944	-7.482073	-8.037431E-007	0.0062671	7
	21	30	8015.625	4803.729	-705.8122	1	4855.304	-8.358665	1.138792E-006	0.0057027	7
	22	31	6328.125	4838.838	-795.4033	1	4903.776	-9.334743	-1.367498E-006	0.0076732	7
	23	33	5015.625	4892	-921.228	1	4977.984	-10.66466	1.141352E-006	0.0056994	7
	24	34	3984.375	4942.647	-1077.447	1	5058.721	-12.29752	9.276928E-007	0.0062578	7
	25	35	3170.956	4997.839	-1268.559	1	5156.32	-14.24214	-1.169421E-006	0.0070312	7
	26	37	2527.573	5063.967	-1506.12	1	5283.196	-16.56348	-7.126135E-007	0.0082826	7
	27	38	1976.103	5146.646	-1830.296	1	5462.412	-19.57685	-7.110586E-007	0.0082824	7
	28	39	1577.524	5229.438	-2187.805	1	5668.644	-22.70264	-1.019729E-006	0.0083612	7
	29	41	1265.625	5336.695	-2631.33	1	5950.144	-26.24623	5.678594E-007	0.0045799	7
	30	42	998.264	5453.593	-3202.791	1	6324.52	-30.42491	-1.167488E-006	0.0070287	7
	31	44	796.875	5597.543	-3882.171	1	6812.029	-34.74321	-8.115395E-007	0.0062532	7
	32	45	627.7902	5783.238	-4766.782	1	7494.535	-39.49675	-3.337916E-007	0.0054817	7
	33	47	505.5147	5983.358	-5762.928	1	8307.341	-43.92492	1.142603E-006	0.0056907	7
	34	48	397.9953	6267.768	-7093.715	1	9466.029	-48.53727	5.111478E-009	0.0064929	7
	35	49	315.5048	6619.845	-8694.104	1	10927.48	-52.71371	1.483227E-009	0.0064407	6
	36	51	252.4038	7048.888	-10578.4	1	12711.78	-56.3226	-1.004967E-010	0.006435	6
	37	52	198.6229	7645.435	-13056.92	1	15130.63	-59.64904	8.207448E-010	0.0064227	6
	38	53	158.3615	8380.941	-15923.98	1	17994.81	-62.24174	7.133927E-011	0.0064325	6
	39	55	125.558	9385.796	-19489.33	1	21631.63	-64.28517	2.34864E-010	0.00643	6
	40	56	100.4464	10652.44	-23600.61	1	25893.3	-65.70736	1.503403E-009	0.0064261	6
	41	57	79.00281	12551.01	-28978.57	1	31579.83	-66.58191	6.746437E-010	0.0064231	6
	42	59	63.3446	15039.16	-35158.55	1	38240.03	-66.84106	1.437449E-009	0.0064193	6
	43	60	49.86702	17615.18	-42564.08	1	46065.12	-67.51775	-3.237894E-010	0.0064218	6
	44	62	39.72458	21859.73	-50804.28	1	55307.53	-66.71908	3.266823E-010	0.006423	6
	45	63	31.6723	27042.09	-60181.49	1	65977.92	-65.8036	9.211762E-010	0.006422	6
	46	64	24.93351	34080.1	-71812.88	1	79489.27	-64.61248	3.004085E-010	0.0064281	6
	47	66	19.86229	42233.72	-83918.8	1	93947.08	-63.28531	1.708751E-009	0.0064291	6
	48	67	15.83615	52634.52	-96597	1	110006.2	-61.41457	-7.629751E-010	0.0064338	5
	49	69	12.40079	64070	-112772.7	1	129702.2	-60.39762	6.932737E-010	0.0064336	5
	50	70	9.93114	78650.09	-128660.1	1	150795.4	-58.56249	9.299873E-010	0.0064347	5
	51	72	7.944915	93240.38	-146653.5	1	173784.4	-57.55234	5.939754E-010	0.0064206	5
	52	73	6.317385	111278.7	-165055	1	199063.1	-56.01249	4.371808E-010	0.0064373	5
	53	75	5.008013	130787.1	-186662.2	1	227921.2	-54.98253	5.429624E-010	0.0064326	5
	54	78	3.945707	152436.7	-211944.1	1	261069.4	-54.27515	3.942245E-010	0.0064369	5
	55	81	3.158693	175007.3	-238991.8	1	296217.2	-53.78569	-1.116647E-010	0.0064369	5
	56	84	2.504006	200517.3	-271455.2	1	337483.5	-53.54763	6.041424E-010	0.0064292	5
	57	87	1.998082	228442.7	-307847.3	1	383348.5	-53.42218	9.248845E-011	0.0064714	5
	58	90	1.584686	258073.3	-351567.2	1	436120.8	-53.71889	2.780275E-010	0.0064266	5
	59	93	1.266892	292780.4	-401078.5	1	496572.6	-53.8712	-3.77215E-012	0.0064688	5
	60	98	0.999041	332896.3	-462608.9	1	569935.9	-54.26097	9.722458E-011	0.0063907	5
