EXPLAIN
TAG	EISPOT
TITLE	LABEL	Potentiostatic EIS	Test &Identifier
DATE	LABEL	11/5/2019	Date
TIME	LABEL	10:07:46	Time
NOTES	NOTES	2	&Notes...
	
	
PSTAT	PSTAT	REF600-11020	Potentiostat
VDC	POTEN	0.00000E+000	T	DC &Voltage (V)
FREQINIT	QUANT	1.00000E+006	Initial Fre&q. (Hz)
FREQFINAL	QUANT	1.00000E+000	Final Fre&q. (Hz)
PTSPERDEC	QUANT	1.00000E+001	Points/&decade
VAC	QUANT	2.50000E+001	AC &Voltage (mV rms)
AREA	QUANT	1.00000E-002	&Area (cm^2)
CONDIT	TWOPARAM	T	5.00000E+000	0.00000E+000	Conditionin&g	Time(s)	E(V)
DELAY	TWOPARAM	T	5.00000E+000	0.00000E+000	Init. De&lay	Time(s)	Stab.(mV/s)
SPEED	SELECTOR	1	&Optimize for:
ZGUESS	QUANT	1.00000E+005	E&stimated Z (ohms)
OCVCURVE	TABLE	19
	Pt	T	Vf	Vm	Ach	Over
	#	s	V vs. Ref.	V	V	bits
	0	0.258333	4.29144E-003	4.29144E-003	5.64232E-004	...........
	1	0.516667	4.28713E-003	4.06539E-003	5.61399E-004	...........
	2	0.775	4.26151E-003	3.89827E-003	5.62899E-004	...........
	3	1.03333	4.19252E-003	3.76332E-003	5.62799E-004	...........
	4	1.29167	4.07624E-003	3.59343E-003	5.62366E-004	...........
	5	1.55	3.93005E-003	3.45682E-003	5.64566E-004	...........
	6	1.80833	3.77450E-003	3.34500E-003	5.65266E-004	...........
	7	2.06667	3.62344E-003	3.22889E-003	5.68132E-004	...........
	8	2.325	3.48547E-003	3.18981E-003	5.68232E-004	...........
	9	2.58333	3.36526E-003	3.05539E-003	5.72499E-004	...........
	10	2.84167	3.26114E-003	2.96023E-003	5.67166E-004	...........
	11	3.1	3.16508E-003	2.88584E-003	5.66866E-004	...........
	12	3.35833	3.07122E-003	2.80948E-003	5.66532E-004	...........
	13	3.61667	2.98094E-003	2.75175E-003	5.65699E-004	...........
	14	3.875	2.89784E-003	2.67968E-003	5.69132E-004	...........
	15	4.13333	2.82269E-003	2.62045E-003	5.65199E-004	...........
	16	4.39167	2.75359E-003	2.55785E-003	5.62999E-004	...........
	17	4.65	2.68825E-003	2.49945E-003	5.65899E-004	...........
	18	4.90833	2.62520E-003	2.43445E-003	5.63299E-004	...........
EOC	QUANT	0.0026252	Open Circuit (V)
PSTATMODEL	IQUANT	4	Pstat Model
PSTATSECTION	LABEL	REF600-11020	Pstat Section
PSTATSERIALNO	LABEL	11020	Pstat Serial Number
CTRLMODE	IQUANT	1	Control Mode
IESTAB	IQUANT	0	I/E Stability
CASPEED	IQUANT	1	Control Amp Speed
CONVENTION	IQUANT	1	Current Convention
ICHRANGE	IQUANT	2	Ich Range
ICHRANGEMODE	TOGGLE	F	Ich Auto Range
ICHOFFSETENABLE	TOGGLE	T	Ich Offset Enable
ICHOFFSET	QUANT	0	Ich Offset (V)
ICHFILTER	IQUANT	3	Ich Filter
VCHRANGE	IQUANT	2	Vch Range
VCHRANGEMODE	TOGGLE	F	Vch Auto Range
VCHOFFSETENABLE	TOGGLE	T	Vch Offset Enable
VCHOFFSET	QUANT	0	Vch Offset (V)
VCHFILTER	IQUANT	3	Vch Filter
ACHRANGE	IQUANT	2	Ach Range
ACHOFFSETENABLE	TOGGLE	F	Ach Offset Enable
ACHOFFSET	QUANT	0	Ach Offset (V)
ACHFILTER	IQUANT	3	Ach Filter
IERANGELOWERLIMIT	IQUANT	1	I/E Range Lower Limit
IERANGEMODE	TOGGLE	F	I/E AutoRange
IERANGE	IQUANT	4	I/E Range
POSFEEDENABLE	TOGGLE	F	Positive Feedback IR Comp
POSFEEDRESISTANCE	QUANT	0	Positive Feedback Resistance (ohm)
ACHSELECT	IQUANT	0	Ach Select
CABLEID	IQUANT	14	Cable ID
DCCALDATE	LABEL	8/19/2019	DC Calibration Date
ACCALDATE	LABEL	8/19/2019	AC Calibration Date
THERMOSELECT	IQUANT	1	Thermo Select
FRAMEWORKVERSION	QUANT	6.33	Framework Version
INSTRUMENTVERSION	LABEL	3.50	Instrument Version
ZCURVE	TABLE
	Pt	Time	Freq	Zreal	Zimag	Zsig	Zmod	Zphz	Idc	Vdc	IERange
	#	s	Hz	ohm	ohm	V	ohm	°	A	V	#
	0	1	1000078	2215.548	-1642.954	1	2758.251	-36.55902	1.600514E-006	0.0047655	8
	1	3	794390.6	2563.063	-1581.88	1	3011.916	-31.68219	7.906086E-006	0.003058	8
	2	4	630984.4	2871.928	-1504.234	1	3242.02	-27.64426	-2.139948E-006	0.0041153	8
	3	6	501234.4	3123.536	-1356.054	1	3405.196	-23.46763	1.143645E-006	0.0048358	8
	4	7	398109.4	3339.076	-1226.308	1	3557.142	-20.16624	-4.547866E-007	0.0040015	8
	5	8	316265.6	3495.899	-1091.786	1	3662.418	-17.34384	7.716063E-006	0.0034814	8
	6	10	251203.1	3646.184	-955.36	1	3769.267	-14.68238	6.179902E-006	0.0031187	8
	7	11	199546.9	3742.43	-845.2025	1	3836.685	-12.72636	-1.841894E-006	0.0040499	8
	8	12	158578.1	3806.832	-762.638	1	3882.472	-11.32833	4.164366E-006	0.0042645	8
	9	14	125953.1	3923.066	-622.675	1	3972.175	-9.01884	-4.216819E-007	0.0018329	7
	10	15	100078.1	3974.217	-569.9507	1	4014.877	-8.16126	1.212264E-006	0.0026304	7
	11	17	79453.13	4026.149	-536.6213	1	4061.753	-7.591867	5.566829E-007	0.0023774	7
	12	18	63140.62	4071.355	-521.0707	1	4104.564	-7.293328	6.483615E-008	0.0053261	7
	13	19	50203.12	4126.357	-514.639	1	4158.327	-7.109215	1.215701E-006	0.0026235	7
	14	21	39890.62	4168.833	-513.8641	1	4200.384	-7.02702	-1.007615E-006	0.0061104	7
	15	22	31640.63	4219.772	-526.0211	1	4252.432	-7.105625	-1.369731E-006	0.0058593	7
	16	23	25171.88	4283.273	-550.8637	1	4318.551	-7.328474	1.102984E-006	0.0023665	7
	17	25	20015.62	4338.562	-583.2575	1	4377.591	-7.656692	1.228387E-006	0.0029915	7
	18	26	15890.62	4397.917	-623.2475	1	4441.858	-8.06592	6.72719E-007	0.0044897	7
	19	27	12609.37	4459.47	-675.6816	1	4510.368	-8.615702	-3.230854E-007	0.0032692	7
	20	29	10078.13	4538	-736.8283	1	4597.429	-9.222548	1.215387E-006	0.0026215	7
	21	30	8015.625	4603.971	-813.0349	1	4675.208	-10.01485	8.810021E-007	0.0022639	7
	22	32	6328.125	4669.942	-908.7164	1	4757.533	-11.01149	-1.15556E-006	0.0047951	7
	23	33	5015.625	4749.402	-1025.474	1	4858.849	-12.18406	-3.363888E-007	0.005762	7
	24	34	3984.375	4829.166	-1167.217	1	4968.223	-13.58788	-1.227467E-006	0.0060373	7
	25	36	3170.956	4908.203	-1339.332	1	5087.658	-15.26306	-1.155605E-006	0.0047961	7
	26	37	2527.573	5004.526	-1556.944	1	5241.122	-17.28129	6.731175E-007	0.0044872	7
	27	38	1976.103	5102.113	-1846.7	1	5426.035	-19.89763	-1.370277E-006	0.005857	7
	28	40	1577.524	5222.578	-2180.079	1	5659.334	-22.65729	1.217821E-006	0.0026199	7
	29	41	1265.625	5319.477	-2570.881	1	5908.152	-25.79428	1.500368E-007	0.0027	7
	30	43	998.264	5456.344	-3086.911	1	6269.027	-29.49889	-1.007306E-006	0.0061137	7
	31	44	796.875	5601.113	-3695.643	1	6710.458	-33.41703	-1.002885E-006	0.0061118	7
	32	45	627.7902	5779.864	-4510.247	1	7331.381	-37.96627	1.122152E-006	0.0034795	7
	33	47	505.5147	5961.029	-5414.822	1	8053.208	-42.25108	9.171851E-007	0.0040209	7
	34	48	397.9953	6208.237	-6622.636	1	9077.528	-46.84984	5.988346E-009	0.0042571	7
	35	50	315.5048	6497.028	-8091.371	1	10376.98	-51.23701	1.688566E-009	0.0042001	6
	36	51	252.4038	6832.197	-9833.9	1	11974.32	-55.20998	2.048E-009	0.0041902	6
	37	52	198.6229	7280.755	-12144.99	1	14160.17	-59.0579	5.507897E-010	0.0042116	6
	38	54	158.3615	7816.225	-14841.7	1	16774.07	-62.22694	-1.103806E-010	0.0042031	6
	39	55	125.558	8526.383	-18229.32	1	20124.79	-64.93314	7.27119E-010	0.0041998	6
	40	57	100.4464	9399.427	-22196.02	1	24104.2	-67.04863	1.429968E-009	0.0042008	6
	41	58	79.00281	10693.36	-27520.79	1	29525.27	-68.76608	1.982359E-009	0.004187	6
	42	59	63.3446	12081.01	-33003.48	1	35145.14	-69.89471	4.560738E-010	0.0041887	6
	43	61	49.86702	14424.46	-41398.68	1	43839.66	-70.79024	-3.784835E-010	0.0041908	6
	44	62	39.72458	17108.78	-50023	1	52867.86	-71.11838	1.145731E-009	0.0041915	6
	45	63	31.6723	20827.01	-60685.31	1	64159.73	-71.05795	-7.846207E-010	0.004201	6
	46	65	24.93351	25574.07	-74101.75	1	78390.7	-70.95937	5.88444E-010	0.0041991	6
	47	66	19.86229	31749.75	-89099.6	1	94587.45	-70.38698	5.618855E-010	0.0042058	6
	48	67	15.83615	40996.68	-106150.5	1	113792.1	-68.8828	2.696725E-009	0.0041914	5
	49	69	12.40079	50990.8	-128334	1	138093	-68.33065	-6.800601E-010	0.004201	5
	50	70	9.93114	64784.54	-151877.3	1	165117.4	-66.89892	6.514854E-010	0.0041962	5
	51	72	7.944915	80888.48	-177322.8	1	194900.8	-65.47919	7.690973E-010	0.0042068	5
	52	73	6.317385	101472.3	-207359	1	230855.7	-63.92492	5.865447E-010	0.0042015	5
	53	75	5.008013	126653	-240677.6	1	271968.1	-62.24508	2.771656E-010	0.0042084	5
	54	78	3.945707	156134.6	-277209.1	1	318155.4	-60.61016	3.141651E-010	0.0041966	5
	55	80	3.158693	187138.8	-315125	1	366503.3	-59.2958	5.508555E-012	0.0041804	5
	56	84	2.504006	222800.3	-359000.3	1	422517.7	-58.17572	5.314843E-010	0.0042028	5
	57	87	1.998082	260743	-406946.3	1	483313.8	-57.35107	2.900578E-010	0.0042378	5
	58	90	1.584686	301363.9	-462961.4	1	552407	-56.93796	2.429503E-010	0.0041885	5
	59	93	1.266892	345937.2	-528608.4	1	631743.1	-56.79806	2.111836E-010	0.0042302	5
	60	98	0.999041	398434.4	-609509.9	1	728184.3	-56.8275	-1.154218E-010	0.0041566	5
