EXPLAIN
TAG	EISPOT
TITLE	LABEL	Potentiostatic EIS	Test &Identifier
DATE	LABEL	10/24/2019	Date
TIME	LABEL	9:27:01	Time
NOTES	NOTES	1	&Notes...
	
PSTAT	PSTAT	REF600-11020	Potentiostat
VDC	POTEN	0.00000E+000	T	DC &Voltage (V)
FREQINIT	QUANT	1.00000E+006	Initial Fre&q. (Hz)
FREQFINAL	QUANT	1.00000E+000	Final Fre&q. (Hz)
PTSPERDEC	QUANT	1.00000E+001	Points/&decade
VAC	QUANT	2.50000E+001	AC &Voltage (mV rms)
AREA	QUANT	1.00000E-002	&Area (cm^2)
CONDIT	TWOPARAM	T	5.00000E+000	0.00000E+000	Conditionin&g	Time(s)	E(V)
DELAY	TWOPARAM	T	5.00000E+000	0.00000E+000	Init. De&lay	Time(s)	Stab.(mV/s)
SPEED	SELECTOR	1	&Optimize for:
ZGUESS	QUANT	1.00000E+005	E&stimated Z (ohms)
OCVCURVE	TABLE	19
	Pt	T	Vf	Vm	Ach	Over
	#	s	V vs. Ref.	V	V	bits
	0	0.258333	3.99650E-003	3.99650E-003	5.60566E-004	...........
	1	0.516667	3.99308E-003	3.81766E-003	5.61132E-004	...........
	2	0.775	3.97210E-003	3.64783E-003	5.61899E-004	...........
	3	1.03333	3.91142E-003	3.41727E-003	5.54633E-004	...........
	4	1.29167	3.79887E-003	3.28392E-003	5.63532E-004	...........
	5	1.55	3.64222E-003	2.99948E-003	5.63232E-004	...........
	6	1.80833	3.45658E-003	2.77991E-003	5.62932E-004	...........
	7	2.06667	3.25035E-003	2.53777E-003	5.62332E-004	...........
	8	2.325	3.02438E-003	2.11435E-003	5.62299E-004	...........
	9	2.58333	2.76482E-003	1.43084E-003	5.62966E-004	...........
	10	2.84167	2.43551E-003	8.28506E-004	5.60899E-004	...........
	11	3.1	1.98755E-003	-6.35780E-004	5.59732E-004	...........
	12	3.35833	1.36795E-003	-1.59370E-003	5.59699E-004	...........
	13	3.61667	5.57130E-004	-2.21432E-003	5.60366E-004	...........
	14	3.875	-3.47266E-004	-1.66852E-003	5.59466E-004	...........
	15	4.13333	-1.13516E-003	-2.12140E-003	5.62832E-004	...........
	16	4.39167	-1.65744E-003	-2.42572E-003	5.60832E-004	...........
	17	4.65	-1.94987E-003	-2.24941E-003	5.67732E-004	...........
	18	4.90833	-2.13400E-003	-2.84021E-003	5.60966E-004	...........
EOC	QUANT	-0.002134	Open Circuit (V)
PSTATMODEL	IQUANT	4	Pstat Model
PSTATSECTION	LABEL	REF600-11020	Pstat Section
PSTATSERIALNO	LABEL	11020	Pstat Serial Number
CTRLMODE	IQUANT	1	Control Mode
IESTAB	IQUANT	0	I/E Stability
CASPEED	IQUANT	1	Control Amp Speed
CONVENTION	IQUANT	1	Current Convention
ICHRANGE	IQUANT	2	Ich Range
ICHRANGEMODE	TOGGLE	F	Ich Auto Range
ICHOFFSETENABLE	TOGGLE	T	Ich Offset Enable
ICHOFFSET	QUANT	0	Ich Offset (V)
ICHFILTER	IQUANT	3	Ich Filter
VCHRANGE	IQUANT	2	Vch Range
VCHRANGEMODE	TOGGLE	F	Vch Auto Range
VCHOFFSETENABLE	TOGGLE	T	Vch Offset Enable
VCHOFFSET	QUANT	0	Vch Offset (V)
VCHFILTER	IQUANT	3	Vch Filter
ACHRANGE	IQUANT	2	Ach Range
ACHOFFSETENABLE	TOGGLE	F	Ach Offset Enable
ACHOFFSET	QUANT	0	Ach Offset (V)
ACHFILTER	IQUANT	3	Ach Filter
IERANGELOWERLIMIT	IQUANT	1	I/E Range Lower Limit
IERANGEMODE	TOGGLE	F	I/E AutoRange
IERANGE	IQUANT	4	I/E Range
POSFEEDENABLE	TOGGLE	F	Positive Feedback IR Comp
POSFEEDRESISTANCE	QUANT	0	Positive Feedback Resistance (ohm)
ACHSELECT	IQUANT	0	Ach Select
CABLEID	IQUANT	14	Cable ID
DCCALDATE	LABEL	8/19/2019	DC Calibration Date
ACCALDATE	LABEL	8/19/2019	AC Calibration Date
THERMOSELECT	IQUANT	1	Thermo Select
FRAMEWORKVERSION	QUANT	6.33	Framework Version
INSTRUMENTVERSION	LABEL	3.50	Instrument Version
ZCURVE	TABLE
	Pt	Time	Freq	Zreal	Zimag	Zsig	Zmod	Zphz	Idc	Vdc	IERange
	#	s	Hz	ohm	ohm	V	ohm	°	A	V	#
	0	1	1000078	2366.26	-1541.317	1	2823.977	-33.07912	6.376507E-006	-0.0012315	8
	1	3	794390.6	2663.456	-1441.156	1	3028.354	-28.41716	-1.731436E-006	-0.0008326	8
	2	4	630984.4	2919.458	-1295.301	1	3193.906	-23.92584	-7.543376E-007	-0.0003948	8
	3	6	501234.4	3124.944	-1142.283	1	3327.173	-20.07923	-5.837379E-007	-0.000407	8
	4	7	398109.4	3279.315	-997.019	1	3427.529	-16.91099	5.154171E-007	-0.0008344	8
	5	8	316265.6	3413.295	-857.0447	1	3519.249	-14.09501	-3.122374E-006	-0.0001561	8
	6	10	251203.1	3490.583	-732.3757	1	3566.587	-11.84961	1.464386E-007	-0.0008069	8
	7	11	199546.9	3551.363	-627.6021	1	3606.392	-10.02192	-2.035417E-007	-0.0005738	8
	8	13	158578.1	3597.233	-540.0052	1	3637.54	-8.537312	2.974207E-006	-0.0012022	8
	9	14	125953.1	3664.001	-442.5908	1	3690.635	-6.887638	7.338332E-007	-0.0024752	7
	10	15	100078.1	3691.986	-390.061	1	3712.534	-6.030967	-5.649444E-008	-0.0006598	7
	11	17	79453.13	3719.635	-364.5574	1	3737.458	-5.59762	4.904026E-008	-0.000846	7
	12	18	63140.62	3745.978	-348.5403	1	3762.158	-5.315716	4.054429E-009	-0.0007721	7
	13	20	50203.12	3772.393	-341.1863	1	3787.79	-5.167938	-5.910103E-008	-0.0006878	7
	14	21	39890.62	3798.82	-344.694	1	3814.426	-5.184656	6.490336E-008	-0.0008967	7
	15	22	31640.63	3826.789	-355.4395	1	3843.261	-5.306517	3.853416E-008	-0.0008826	7
	16	24	25171.88	3856.512	-376.1217	1	3874.81	-5.570382	3.603223E-008	-0.000874	7
	17	25	20015.62	3886.274	-400.383	1	3906.844	-5.882139	1.026022E-007	-0.0009206	7
	18	26	15890.62	3924.754	-446.065	1	3950.021	-6.484086	-6.273903E-008	-0.0006841	7
	19	28	12609.37	3960.828	-496.9715	1	3991.885	-7.15162	8.269173E-008	-0.0008385	7
	20	29	10078.13	4001.116	-557.6301	1	4039.787	-7.934128	-5.830561E-008	-0.0006611	7
	21	31	8015.625	4040.569	-627.9908	1	4089.08	-8.834309	7.373663E-009	-0.0007919	7
	22	32	6328.125	4091.711	-732.993	1	4156.848	-10.15629	-6.469396E-008	-0.0005766	7
	23	33	5015.625	4142.813	-850.9301	1	4229.3	-11.60707	8.299646E-008	-0.0008442	7
	24	35	3984.375	4205.528	-1000.178	1	4322.826	-13.37783	-5.614595E-008	-0.0006699	7
	25	36	3170.956	4255.284	-1175.417	1	4414.64	-15.4415	5.191722E-008	-0.0008614	7
	26	37	2527.573	4321.018	-1393.107	1	4540.038	-17.86945	-5.403094E-009	-0.0007261	7
	27	39	1976.103	4403.592	-1686.673	1	4715.558	-20.95794	5.22204E-008	-0.0008537	7
	28	40	1577.524	4491.85	-2008.906	1	4920.612	-24.09579	1.011934E-008	-0.0007946	7
	29	41	1265.625	4587.268	-2413.745	1	5183.55	-27.75261	3.983745E-008	-0.0008881	7
	30	43	998.264	4712.608	-2932.354	1	5550.439	-31.89135	-5.008609E-010	-0.0008177	7
	31	44	796.875	4849.854	-3537.896	1	6003.148	-36.11018	-5.842208E-009	-0.0007371	7
	32	46	627.7902	5019.145	-4326.458	1	6626.466	-40.76104	-2.727482E-008	-0.0007846	7
	33	47	505.5147	5202.982	-5194.739	1	7352.301	-44.95458	3.576219E-008	-0.0008107	7
	34	48	397.9953	5435.958	-6375.89	1	8378.641	-49.54974	5.407701E-009	-0.0007481	7
	35	50	315.5048	5708.386	-7795.6	1	9662.15	-53.78627	6.284847E-009	-0.00075	7
	36	51	252.4038	6025.636	-9472.106	1	11226.27	-57.53771	2.413147E-010	-0.000811	6
	37	52	198.6229	6438.612	-11697.27	1	13352.22	-61.16997	8.00211E-010	-0.0008093	6
	38	54	158.3615	6930.277	-14298	1	15889.04	-64.14042	8.191984E-010	-0.0008122	6
	39	55	125.558	7557.096	-17573.64	1	19129.63	-66.73112	9.623903E-010	-0.0008077	6
	40	57	100.4464	8343.498	-21458.36	1	23023.36	-68.75278	-1.264731E-010	-0.0008118	6
	41	58	79.00281	9372	-26550.91	1	28156.44	-70.55787	5.022253E-010	-0.0008113	6
	42	59	63.3446	10462.57	-32433.01	1	34078.81	-72.12081	9.558202E-010	-0.0008115	6
	43	61	49.86702	12668.45	-39733.13	1	41703.84	-72.31572	9.388677E-010	-0.000812	6
	44	62	39.72458	14961.37	-48727.11	1	50972.28	-72.93121	9.882907E-010	-0.0008091	6
	45	64	31.6723	18115.98	-59204.52	1	61914.17	-72.98643	1.435528E-009	-0.000815	6
	46	65	24.93351	22454.49	-72903.07	1	76282.77	-72.88092	6.275443E-010	-0.0008172	6
	47	66	19.86229	27995.51	-88398.77	1	92725.9	-72.42723	7.050676E-010	-0.000811	6
	48	68	15.83615	34438.62	-106593	1	112018.2	-72.09512	-1.146975E-009	-0.0008123	5
	49	69	12.40079	45812.86	-129529.6	1	137392.6	-70.522	7.666368E-010	-0.0008157	5
	50	71	9.93114	58381.78	-154040.8	1	164733.2	-69.24319	-3.107117E-010	-0.0008052	5
	51	72	7.944915	74582.52	-181894.9	1	196591.7	-67.70486	9.658551E-010	-0.0008055	5
	52	74	6.317385	94793.44	-214765.9	1	234755.6	-66.18428	-2.216827E-010	-0.0008006	5
	53	76	5.008013	120802.3	-251450.7	1	278963.6	-64.33937	-1.104274E-010	-0.0008138	5
	54	78	3.945707	152755.3	-292318.3	1	329824.5	-62.41	4.818177E-010	-0.0008016	5
	55	81	3.158693	188758.7	-333588.1	1	383289.5	-60.49693	-1.078566E-010	-0.0008229	5
	56	85	2.504006	230887.7	-379728.1	1	444412.6	-58.69897	4.593464E-010	-0.0008029	5
	57	87	1.998082	274544.9	-427546.9	1	508105.6	-57.29387	4.844923E-010	-0.0008083	5
	58	91	1.584686	328528.9	-482088.7	1	583387.3	-55.72675	5.528566E-011	-0.0008584	5
	59	94	1.266892	379986.5	-539289.3	1	659714.1	-54.83125	3.064644E-010	-0.000827	5
	60	98	0.999041	440091.1	-612137.9	1	753918.4	-54.28609	-1.924986E-010	-0.0008229	5
