EXPLAIN
TAG	EISPOT
TITLE	LABEL	Potentiostatic EIS	Test &Identifier
DATE	LABEL	8/14/2018	Date
TIME	LABEL	5:43:44	Time
NOTES	NOTES	1	&Notes...
	
PSTAT	PSTAT	REF600-11020	Potentiostat
VDC	POTEN	0.00000E+000	T	DC &Voltage (V)
FREQINIT	QUANT	1.00000E+006	Initial Fre&q. (Hz)
FREQFINAL	QUANT	1.00000E+000	Final Fre&q. (Hz)
PTSPERDEC	QUANT	1.00000E+001	Points/&decade
VAC	QUANT	2.50000E+001	AC &Voltage (mV rms)
AREA	QUANT	1.00000E-002	&Area (cm^2)
CONDIT	TWOPARAM	T	5.00000E+000	0.00000E+000	Conditionin&g	Time(s)	E(V)
DELAY	TWOPARAM	T	5.00000E+000	0.00000E+000	Init. De&lay	Time(s)	Stab.(mV/s)
SPEED	SELECTOR	0	&Optimize for:
ZGUESS	QUANT	1.00000E+005	E&stimated Z (ohms)
OCVCURVE	TABLE	19
	Pt	T	Vf	Vm	Ach	Over
	#	s	V vs. Ref.	V	V	bits
	0	0.258333	3.73874E-002	3.73874E-002	5.52199E-004	...........
	1	0.516667	3.74359E-002	3.99263E-002	5.64232E-004	...........
	2	0.775	3.77350E-002	4.24033E-002	5.58366E-004	...........
	3	1.03333	3.85809E-002	4.45181E-002	5.67099E-004	...........
	4	1.29167	4.00839E-002	4.67049E-002	5.65532E-004	...........
	5	1.55	4.20604E-002	4.86678E-002	5.64999E-004	...........
	6	1.80833	4.42220E-002	5.04437E-002	5.66732E-004	...........
	7	2.06667	4.63604E-002	5.23357E-002	5.65132E-004	...........
	8	2.325	4.83858E-002	5.39317E-002	5.67699E-004	...........
	9	2.58333	5.02863E-002	5.55488E-002	5.58666E-004	...........
	10	2.84167	5.20754E-002	5.70947E-002	5.65032E-004	...........
	11	3.1	5.37688E-002	5.85670E-002	5.71666E-004	...........
	12	3.35833	5.53811E-002	5.99303E-002	5.64899E-004	...........
	13	3.61667	5.69195E-002	6.12237E-002	5.70866E-004	...........
	14	3.875	5.83832E-002	6.25311E-002	5.68099E-004	...........
	15	4.13333	5.97732E-002	6.36091E-002	5.64132E-004	...........
	16	4.39167	6.10927E-002	6.48685E-002	5.63799E-004	...........
	17	4.65	6.23497E-002	6.60074E-002	5.59699E-004	...........
	18	4.90833	6.35581E-002	6.69800E-002	5.62899E-004	...........
EOC	QUANT	0.0635581	Open Circuit (V)
PSTATMODEL	IQUANT	4	Pstat Model
PSTATSECTION	LABEL	REF600-11020	Pstat Section
PSTATSERIALNO	LABEL	11020	Pstat Serial Number
CTRLMODE	IQUANT	1	Control Mode
IESTAB	IQUANT	0	I/E Stability
CASPEED	IQUANT	1	Control Amp Speed
CONVENTION	IQUANT	1	Current Convention
ICHRANGE	IQUANT	2	Ich Range
ICHRANGEMODE	TOGGLE	F	Ich Auto Range
ICHOFFSETENABLE	TOGGLE	T	Ich Offset Enable
ICHOFFSET	QUANT	0	Ich Offset (V)
ICHFILTER	IQUANT	3	Ich Filter
VCHRANGE	IQUANT	2	Vch Range
VCHRANGEMODE	TOGGLE	F	Vch Auto Range
VCHOFFSETENABLE	TOGGLE	T	Vch Offset Enable
VCHOFFSET	QUANT	0	Vch Offset (V)
VCHFILTER	IQUANT	3	Vch Filter
ACHRANGE	IQUANT	2	Ach Range
ACHOFFSETENABLE	TOGGLE	F	Ach Offset Enable
ACHOFFSET	QUANT	0	Ach Offset (V)
ACHFILTER	IQUANT	3	Ach Filter
IERANGELOWERLIMIT	IQUANT	1	I/E Range Lower Limit
IERANGEMODE	TOGGLE	F	I/E AutoRange
IERANGE	IQUANT	6	I/E Range
POSFEEDENABLE	TOGGLE	F	Positive Feedback IR Comp
POSFEEDRESISTANCE	QUANT	0	Positive Feedback Resistance (ohm)
ACHSELECT	IQUANT	0	Ach Select
CABLEID	IQUANT	14	Cable ID
DCCALDATE	LABEL	8/19/2019	DC Calibration Date
ACCALDATE	LABEL	8/19/2019	AC Calibration Date
THERMOSELECT	IQUANT	1	Thermo Select
FRAMEWORKVERSION	QUANT	6.33	Framework Version
INSTRUMENTVERSION	LABEL	3.50	Instrument Version
ZCURVE	TABLE
	Pt	Time	Freq	Zreal	Zimag	Zsig	Zmod	Zphz	Idc	Vdc	IERange
	#	s	Hz	ohm	ohm	V	ohm	°	A	V	#
	0	1	1000078	1995.687	-976.961	1	2221.986	-26.08341	2.774228E-006	0.0651995	8
	1	2	794390.6	2191.666	-956.343	1	2391.232	-23.57426	1.024108E-006	0.0649594	8
	2	2	630984.4	2341.778	-891.5446	1	2505.748	-20.84247	-1.502415E-007	0.0650939	8
	3	2	501234.4	2465.666	-822.6633	1	2599.285	-18.45115	4.07675E-006	0.0644864	8
	4	3	398109.4	2581.596	-771.9692	1	2694.546	-16.64813	-2.536471E-006	0.0655319	8
	5	3	316265.6	2678.124	-709.8068	1	2770.591	-14.84431	-7.734561E-007	0.0652326	8
	6	3	251203.1	2760.444	-665.6125	1	2839.558	-13.55667	-2.987341E-006	0.0656736	8
	7	4	199546.9	2842.01	-630.1058	1	2911.023	-12.50091	4.942016E-007	0.0650067	8
	8	4	158578.1	2917.148	-601.5447	1	2978.524	-11.65164	-1.919341E-006	0.0655748	8
	9	4	125953.1	3002.24	-518.8213	1	3046.739	-9.80453	5.411538E-007	0.0640247	7
	10	5	100078.1	3062.04	-523.728	1	3106.506	-9.70589	6.299842E-008	0.0649138	7
	11	5	79453.13	3117.88	-531.6823	1	3162.888	-9.67738	-8.290459E-010	0.064969	7
	12	5	63140.62	3178.608	-549.942	1	3225.831	-9.81577	6.544249E-008	0.0649139	7
	13	5	50203.12	3244.749	-572.7743	1	3294.915	-10.01092	-3.206766E-008	0.0650906	7
	14	6	39890.62	3315.054	-603.6239	1	3369.562	-10.31968	6.278126E-008	0.0649085	7
	15	6	31640.63	3388.129	-640.0562	1	3448.056	-10.69776	-7.170476E-009	0.0650374	7
	16	6	25171.88	3467.228	-682.16	1	3533.696	-11.1305	8.147437E-008	0.0649594	7
	17	7	20015.62	3550.17	-733.948	1	3625.243	-11.68055	-3.795599E-008	0.0650275	7
	18	7	15890.62	3637.995	-793.2148	1	3723.466	-12.30005	-3.237864E-008	0.0650991	7
	19	7	12609.37	3731.455	-862.9744	1	3829.945	-13.02187	-3.423044E-008	0.0650171	7
	20	8	10078.13	3836.486	-930.3373	1	3947.677	-13.63095	-2.679037E-008	0.0650128	7
	21	8	8015.625	3927.822	-1031.017	1	4060.884	-14.70781	-3.102221E-008	0.0650973	7
	22	8	6328.125	4037.678	-1144.975	1	4196.882	-15.83189	-1.176019E-008	0.064998	7
	23	9	5015.625	4149.391	-1278.604	1	4341.92	-17.12629	-6.549098E-008	0.0651255	7
	24	9	3984.375	4267.309	-1436.547	1	4502.62	-18.60529	6.695053E-008	0.0648639	7
	25	9	3170.956	4380.103	-1628.259	1	4672.958	-20.39211	1.110268E-007	0.064855	7
	26	10	2527.573	4495.623	-1861.987	1	4865.965	-22.49825	-6.59207E-008	0.0651223	7
	27	10	1976.103	4623.998	-2173.426	1	5109.319	-25.17502	2.967512E-008	0.0648974	7
	28	10	1577.524	4731.187	-2542.292	1	5370.976	-28.25125	-3.076747E-008	0.0650127	7
	29	11	1265.625	4871.365	-2990.063	1	5715.827	-31.54177	1.121473E-007	0.0648542	7
	30	11	998.264	5021.867	-3584.528	1	6169.926	-35.51863	-6.294688E-008	0.0651198	7
	31	11	796.875	5181.407	-4295.049	1	6730.114	-39.65652	-6.579845E-009	0.065023	7
	32	11	627.7902	5375.857	-5229.313	1	7499.704	-44.20833	-3.259274E-008	0.0650781	7
	33	12	505.5147	5586.026	-6271.055	1	8398.203	-48.30652	-6.317318E-008	0.065207	7
	34	12	397.9953	5868.592	-7698.356	1	9680.14	-52.68109	-2.099051E-009	0.0650313	7
	35	12	315.5048	6208.711	-9414.85	1	11277.74	-56.59677	-6.804734E-010	0.064973	6
	36	13	252.4038	6609.833	-11445.75	1	13217.23	-59.99389	-1.94349E-009	0.0649682	6
	37	13	198.6229	7147.776	-14129.48	1	15834.55	-63.16621	-1.253348E-009	0.0649699	6
	38	13	158.3615	7794.851	-17250.73	1	18930.06	-65.68387	-7.97753E-010	0.0649708	6
	39	14	125.558	8634.322	-21168.62	1	22861.8	-67.81028	-1.075899E-009	0.0649647	6
	40	14	100.4464	9627.45	-25760.29	1	27500.56	-69.50767	-1.362817E-009	0.0649648	6
	41	14	79.00281	11052.57	-31720.24	1	33590.67	-70.78967	-1.066466E-009	0.06496	6
	42	15	63.3446	13340.32	-38668.47	1	40904.95	-70.96597	-1.638254E-009	0.0649607	6
	43	15	49.86702	15597.21	-47571.28	1	50062.95	-71.84721	-2.190433E-009	0.0649615	6
	44	15	39.72458	18274.33	-57711.82	1	60535.99	-72.42972	-1.535273E-009	0.064965	6
	45	16	31.6723	22127.41	-69708.45	1	73136.1	-72.38911	-2.062705E-009	0.0649615	6
	46	16	24.93351	27258.54	-85642.66	1	89875.98	-72.34465	-1.213941E-009	0.0649609	6
	47	16	19.86229	33850.25	-103538.3	1	108931.3	-71.89565	-1.874857E-010	0.0649735	5
	48	17	15.83615	41496.73	-123054.5	1	129862.9	-71.36473	-3.228448E-010	0.0649652	5
	49	17	12.40079	56400.93	-150641	1	160853.3	-69.47379	-1.667869E-010	0.0649611	5
	50	17	9.93114	68511.18	-179116.1	1	191771.6	-69.06835	-2.084983E-009	0.0649659	5
	51	18	7.944915	86499.28	-210669.1	1	227735.8	-67.67728	-1.906852E-009	0.0649616	5
	52	19	6.317385	109586.8	-249402.3	1	272416.6	-66.27942	-1.558925E-009	0.0649696	5
	53	19	5.008013	137408.5	-293007.2	1	323626.7	-64.87533	-1.585459E-009	0.0649556	5
	54	20	3.945707	172378.9	-340491.4	1	381639.7	-63.1485	-1.133615E-009	0.0649602	5
	55	22	3.158693	211376.6	-391712.5	1	445105.3	-61.64773	-1.148251E-009	0.0649763	5
	56	23	2.504006	257835.4	-450875	1	519391.3	-60.23668	-1.237151E-009	0.0649607	5
	57	25	1.998082	308344.9	-512987.9	1	598525.8	-58.99091	-1.003921E-009	0.0649827	5
	58	26	1.584686	368258	-586881.2	1	692851.8	-57.89242	-8.889737E-010	0.065011	5
	59	28	1.266892	430975.2	-666467.9	1	793674.5	-57.11104	-8.595609E-010	0.0649823	5
	60	31	0.999041	507515.5	-761115.5	1	914805.3	-56.30445	-8.088032E-010	0.064957	5
