EXPLAIN
TAG	EISPOT
TITLE	LABEL	Potentiostatic EIS	Test &Identifier
DATE	LABEL	9/24/2019	Date
TIME	LABEL	9:32:15	Time
NOTES	NOTES	1	&Notes...
	
PSTAT	PSTAT	REF600-11020	Potentiostat
VDC	POTEN	0.00000E+000	T	DC &Voltage (V)
FREQINIT	QUANT	1.00000E+006	Initial Fre&q. (Hz)
FREQFINAL	QUANT	1.00000E+000	Final Fre&q. (Hz)
PTSPERDEC	QUANT	1.00000E+001	Points/&decade
VAC	QUANT	2.50000E+001	AC &Voltage (mV rms)
AREA	QUANT	1.00000E-002	&Area (cm^2)
CONDIT	TWOPARAM	T	5.00000E+000	0.00000E+000	Conditionin&g	Time(s)	E(V)
DELAY	TWOPARAM	T	5.00000E+000	0.00000E+000	Init. De&lay	Time(s)	Stab.(mV/s)
SPEED	SELECTOR	1	&Optimize for:
ZGUESS	QUANT	1.00000E+004	E&stimated Z (ohms)
OCVCURVE	TABLE	19
	Pt	T	Vf	Vm	Ach	Over
	#	s	V vs. Ref.	V	V	bits
	0	0.258333	-5.30187E-003	-5.30187E-003	5.73166E-004	...........
	1	0.516667	-5.31813E-003	-6.15329E-003	5.69966E-004	...........
	2	0.775	-5.41783E-003	-6.95085E-003	5.68199E-004	...........
	3	1.03333	-5.69866E-003	-7.68507E-003	5.70032E-004	...........
	4	1.29167	-6.19697E-003	-8.36948E-003	5.68166E-004	...........
	5	1.55	-6.85151E-003	-9.04182E-003	5.66732E-004	...........
	6	1.80833	-7.56730E-003	-9.67607E-003	5.70732E-004	...........
	7	2.06667	-8.27875E-003	-1.02804E-002	5.66366E-004	...........
	8	2.325	-8.95885E-003	-1.08568E-002	5.65232E-004	...........
	9	2.58333	-9.60250E-003	-1.14004E-002	5.68866E-004	...........
	10	2.84167	-1.02120E-002	-1.19291E-002	5.65132E-004	...........
	11	3.1	-1.07912E-002	-1.24342E-002	5.61899E-004	...........
	12	3.35833	-1.13438E-002	-1.29268E-002	5.62599E-004	...........
	13	3.61667	-1.18737E-002	-1.33988E-002	5.63799E-004	...........
	14	3.875	-1.23834E-002	-1.38487E-002	5.64799E-004	...........
	15	4.13333	-1.28747E-002	-1.42973E-002	5.62666E-004	...........
	16	4.39167	-1.33488E-002	-1.47272E-002	5.61766E-004	...........
	17	4.65	-1.38073E-002	-1.51427E-002	5.64766E-004	...........
	18	4.90833	-1.42516E-002	-1.55288E-002	5.66332E-004	...........
EOC	QUANT	-0.0142516	Open Circuit (V)
PSTATMODEL	IQUANT	4	Pstat Model
PSTATSECTION	LABEL	REF600-11020	Pstat Section
PSTATSERIALNO	LABEL	11020	Pstat Serial Number
CTRLMODE	IQUANT	1	Control Mode
IESTAB	IQUANT	0	I/E Stability
CASPEED	IQUANT	1	Control Amp Speed
CONVENTION	IQUANT	1	Current Convention
ICHRANGE	IQUANT	2	Ich Range
ICHRANGEMODE	TOGGLE	F	Ich Auto Range
ICHOFFSETENABLE	TOGGLE	T	Ich Offset Enable
ICHOFFSET	QUANT	0	Ich Offset (V)
ICHFILTER	IQUANT	3	Ich Filter
VCHRANGE	IQUANT	2	Vch Range
VCHRANGEMODE	TOGGLE	F	Vch Auto Range
VCHOFFSETENABLE	TOGGLE	T	Vch Offset Enable
VCHOFFSET	QUANT	0	Vch Offset (V)
VCHFILTER	IQUANT	3	Vch Filter
ACHRANGE	IQUANT	2	Ach Range
ACHOFFSETENABLE	TOGGLE	F	Ach Offset Enable
ACHOFFSET	QUANT	0	Ach Offset (V)
ACHFILTER	IQUANT	3	Ach Filter
IERANGELOWERLIMIT	IQUANT	1	I/E Range Lower Limit
IERANGEMODE	TOGGLE	F	I/E AutoRange
IERANGE	IQUANT	6	I/E Range
POSFEEDENABLE	TOGGLE	F	Positive Feedback IR Comp
POSFEEDRESISTANCE	QUANT	0	Positive Feedback Resistance (ohm)
ACHSELECT	IQUANT	0	Ach Select
CABLEID	IQUANT	14	Cable ID
DCCALDATE	LABEL	8/19/2019	DC Calibration Date
ACCALDATE	LABEL	8/19/2019	AC Calibration Date
THERMOSELECT	IQUANT	1	Thermo Select
FRAMEWORKVERSION	QUANT	6.33	Framework Version
INSTRUMENTVERSION	LABEL	3.50	Instrument Version
ZCURVE	TABLE
	Pt	Time	Freq	Zreal	Zimag	Zsig	Zmod	Zphz	Idc	Vdc	IERange
	#	s	Hz	ohm	ohm	V	ohm	°	A	V	#
	0	1	1000078	2175.105	-1877.771	1	2873.518	-40.80408	5.817303E-006	-0.0125931	8
	1	2	794390.6	2567.548	-1873.905	1	3178.651	-36.12355	7.351697E-007	-0.0128707	8
	2	4	630984.4	2946.711	-1792.801	1	3449.238	-31.31664	5.22215E-006	-0.0134653	8
	3	5	501234.4	3279.798	-1662.126	1	3676.92	-26.87484	2.283402E-006	-0.0131785	8
	4	7	398109.4	3550.488	-1508.585	1	3857.693	-23.0204	-3.508736E-006	-0.0119429	8
	5	8	316265.6	3784.649	-1322.874	1	4009.185	-19.26639	3.813372E-006	-0.0133401	8
	6	9	251203.1	3950.801	-1149.604	1	4114.658	-16.22393	1.399725E-006	-0.0131649	8
	7	11	199546.9	4089.108	-1011.914	1	4212.455	-13.89949	6.061213E-007	-0.0126009	8
	8	12	158578.1	4205.704	-876.9572	1	4296.161	-11.77833	-6.298476E-007	-0.0124081	8
	9	14	125953.1	4310.165	-716.4515	1	4369.305	-9.437625	4.241746E-007	-0.0138423	7
	10	15	100078.1	4360.419	-629.8632	1	4405.676	-8.219529	-3.721214E-008	-0.0127051	7
	11	16	79453.13	4411.835	-568.1315	1	4448.266	-7.337847	4.037813E-008	-0.012857	7
	12	18	63140.62	4457.898	-518.7419	1	4487.979	-6.637354	-8.215968E-009	-0.0127042	7
	13	19	50203.12	4497.574	-487.0787	1	4523.872	-6.180934	7.967413E-008	-0.0127689	7
	14	20	39890.62	4535.024	-465.8615	1	4558.89	-5.86515	-3.99666E-009	-0.012691	7
	15	22	31640.63	4571.754	-457.6369	1	4594.602	-5.71632	-3.394602E-008	-0.0127213	7
	16	23	25171.88	4607.516	-461.0956	1	4630.53	-5.714829	3.859821E-008	-0.0127824	7
	17	24	20015.62	4644.5	-477.2253	1	4668.953	-5.866589	-6.258745E-008	-0.0126376	7
	18	26	15890.62	4682.808	-504.8007	1	4709.938	-6.152653	1.236708E-007	-0.012913	7
	19	27	12609.37	4722.974	-546.7887	1	4754.52	-6.603854	-1.820327E-008	-0.0126703	7
	20	29	10078.13	4763.257	-601.5273	1	4801.089	-7.19749	7.10714E-008	-0.0128495	7
	21	30	8015.625	4809.538	-675.5109	1	4856.745	-7.995028	-4.037348E-008	-0.0126489	7
	22	31	6328.125	4857.924	-769.0592	1	4918.422	-8.995854	-2.58262E-008	-0.0127424	7
	23	33	5015.625	4911.844	-886.2219	1	4991.152	-10.22759	1.257701E-010	-0.0127974	7
	24	34	3984.375	4969.898	-1032.255	1	5075.966	-11.73359	-7.52994E-009	-0.0127084	7
	25	35	3170.956	5033.702	-1208.216	1	5176.672	-13.4971	-4.231125E-008	-0.0125915	7
	26	37	2527.573	5104.261	-1424.635	1	5299.346	-15.59479	-2.548865E-008	-0.0127431	7
	27	38	1976.103	5192.551	-1715.963	1	5468.74	-18.28697	7.865212E-008	-0.0127755	7
	28	39	1577.524	5287.759	-2041.185	1	5668.054	-21.10763	7.180119E-008	-0.0128575	7
	29	41	1265.625	5398.503	-2420.816	1	5916.434	-24.15259	-8.076892E-009	-0.0127076	7
	30	42	998.264	5522.328	-2937.744	1	6255.114	-28.01189	-4.412574E-008	-0.0125867	7
	31	44	796.875	5664.64	-3529.191	1	6674.079	-31.92379	1.625122E-008	-0.0128062	7
	32	45	627.7902	5842.417	-4300.484	1	7254.516	-36.35603	8.051991E-008	-0.0127734	7
	33	46	505.5147	6029.673	-5154.676	1	7932.694	-40.52663	-3.2143E-008	-0.0127241	7
	34	48	397.9953	6276.707	-6312.619	1	8902.034	-45.16344	6.333524E-009	-0.012722	7
	35	49	315.5048	6563.55	-7701.345	1	10118.84	-49.56036	1.106607E-009	-0.0127749	6
	36	50	252.4038	6895.102	-9338.847	1	11608.47	-53.56063	1.54618E-009	-0.0127832	6
	37	52	198.6229	7329.379	-11509.77	1	13645.32	-57.51117	1.581182E-009	-0.0127815	6
	38	53	158.3615	7841.935	-14036.74	1	16078.74	-60.80912	8.85957E-010	-0.0127841	6
	39	54	125.558	8511.834	-17216.62	1	19205.82	-63.69238	1.456722E-009	-0.0127807	6
	40	56	100.4464	9340.173	-20976.05	1	22961.57	-65.99764	1.359205E-009	-0.012784	6
	41	57	79.00281	10510.63	-25841.72	1	27897.45	-67.86691	1.569809E-009	-0.0127843	6
	42	59	63.3446	11948.51	-31118.42	1	33333.51	-68.99475	1.834999E-009	-0.0127838	6
	43	60	49.86702	13833.85	-38930.01	1	41314.9	-70.43723	2.050339E-009	-0.0127878	6
	44	61	39.72458	16175.54	-47131.52	1	49830	-71.05778	1.927668E-009	-0.0127798	6
	45	63	31.6723	19105.81	-57166.17	1	60274.39	-71.51958	1.91628E-009	-0.0127811	6
	46	64	24.93351	23541.4	-69869.86	1	73729.2	-71.37968	1.702179E-009	-0.0127839	6
	47	66	19.86229	28851.51	-84233.67	1	89037.75	-71.09277	1.886704E-009	-0.012782	6
	48	67	15.83615	36045.25	-101189	1	107417.3	-70.39323	1.889116E-009	-0.012776	5
	49	68	12.40079	45673.8	-122407.8	1	130651.3	-69.53803	2.280598E-009	-0.0127817	5
	50	70	9.93114	56181.54	-146408.6	1	156817.9	-69.00665	1.303698E-009	-0.012777	5
	51	72	7.944915	69288.13	-173705.2	1	187014.3	-68.25376	1.15458E-009	-0.0127841	5
	52	73	6.317385	87188.9	-204670.1	1	222467.4	-66.92613	1.321639E-009	-0.0127864	5
	53	75	5.008013	109496.4	-241400.1	1	265072.6	-65.60148	1.014819E-009	-0.0127662	5
	54	78	3.945707	137523.7	-284611.3	1	316095.5	-64.21024	6.228758E-010	-0.0127806	5
	55	80	3.158693	168866.5	-329318.3	1	370089.8	-62.85234	8.536332E-010	-0.0127565	5
	56	84	2.504006	208363.2	-382078.1	1	435199.8	-61.39452	4.474938E-010	-0.0127802	5
	57	86	1.998082	253112.7	-437961.2	1	505841.9	-59.97492	3.605362E-010	-0.0127771	5
	58	90	1.584686	308562.3	-500366.8	1	587858.5	-58.33902	6.829596E-010	-0.012723	5
	59	93	1.266892	366660.1	-566677.2	1	674953.8	-57.09571	3.290273E-010	-0.0127598	5
	60	98	0.999041	437021.1	-643112.4	1	777548.1	-55.80229	8.907902E-010	-0.0127688	5
