EXPLAIN
TAG	EISPOT
TITLE	LABEL	Potentiostatic EIS	Test &Identifier
DATE	LABEL	11/15/2019	Date
TIME	LABEL	10:39:15	Time
NOTES	NOTES	4	&Notes...
	
	
	
	
PSTAT	PSTAT	REF600-11020	Potentiostat
VDC	POTEN	0.00000E+000	T	DC &Voltage (V)
FREQINIT	QUANT	1.00000E+006	Initial Fre&q. (Hz)
FREQFINAL	QUANT	1.00000E+000	Final Fre&q. (Hz)
PTSPERDEC	QUANT	1.00000E+001	Points/&decade
VAC	QUANT	2.50000E+001	AC &Voltage (mV rms)
AREA	QUANT	1.00000E-002	&Area (cm^2)
CONDIT	TWOPARAM	T	5.00000E+000	0.00000E+000	Conditionin&g	Time(s)	E(V)
DELAY	TWOPARAM	T	5.00000E+000	0.00000E+000	Init. De&lay	Time(s)	Stab.(mV/s)
SPEED	SELECTOR	0	&Optimize for:
ZGUESS	QUANT	1.00000E+005	E&stimated Z (ohms)
OCVCURVE	TABLE	19
	Pt	T	Vf	Vm	Ach	Over
	#	s	V vs. Ref.	V	V	bits
	0	0.258333	7.54413E-003	7.54413E-003	5.66766E-004	...........
	1	0.516667	7.54370E-003	7.52201E-003	5.66932E-004	...........
	2	0.775	7.54118E-003	7.50475E-003	5.69599E-004	...........
	3	1.03333	7.53458E-003	7.50379E-003	5.71632E-004	...........
	4	1.29167	7.52458E-003	7.50657E-003	5.64899E-004	...........
	5	1.55	7.51536E-003	7.53047E-003	5.62099E-004	...........
	6	1.80833	7.51204E-003	7.55760E-003	5.69132E-004	...........
	7	2.06667	7.51819E-003	7.59394E-003	5.65366E-004	...........
	8	2.325	7.53463E-003	7.62564E-003	5.65666E-004	...........
	9	2.58333	7.55989E-003	7.67403E-003	5.65899E-004	...........
	10	2.84167	7.59183E-003	7.71451E-003	5.59999E-004	...........
	11	3.1	7.62869E-003	7.75390E-003	5.67266E-004	...........
	12	3.35833	7.66848E-003	7.78640E-003	5.64832E-004	...........
	13	3.61667	7.70860E-003	7.82022E-003	5.69066E-004	...........
	14	3.875	7.74705E-003	7.85514E-003	5.66699E-004	...........
	15	4.13333	7.78348E-003	7.89617E-003	5.67666E-004	...........
	16	4.39167	7.81908E-003	7.93268E-003	5.70699E-004	...........
	17	4.65	7.85522E-003	7.97178E-003	5.73199E-004	...........
	18	4.90833	7.89234E-003	8.00868E-003	5.68932E-004	...........
EOC	QUANT	0.0078923	Open Circuit (V)
PSTATMODEL	IQUANT	4	Pstat Model
PSTATSECTION	LABEL	REF600-11020	Pstat Section
PSTATSERIALNO	LABEL	11020	Pstat Serial Number
CTRLMODE	IQUANT	1	Control Mode
IESTAB	IQUANT	0	I/E Stability
CASPEED	IQUANT	1	Control Amp Speed
CONVENTION	IQUANT	1	Current Convention
ICHRANGE	IQUANT	2	Ich Range
ICHRANGEMODE	TOGGLE	F	Ich Auto Range
ICHOFFSETENABLE	TOGGLE	T	Ich Offset Enable
ICHOFFSET	QUANT	0	Ich Offset (V)
ICHFILTER	IQUANT	3	Ich Filter
VCHRANGE	IQUANT	2	Vch Range
VCHRANGEMODE	TOGGLE	F	Vch Auto Range
VCHOFFSETENABLE	TOGGLE	T	Vch Offset Enable
VCHOFFSET	QUANT	0	Vch Offset (V)
VCHFILTER	IQUANT	3	Vch Filter
ACHRANGE	IQUANT	2	Ach Range
ACHOFFSETENABLE	TOGGLE	F	Ach Offset Enable
ACHOFFSET	QUANT	0	Ach Offset (V)
ACHFILTER	IQUANT	3	Ach Filter
IERANGELOWERLIMIT	IQUANT	1	I/E Range Lower Limit
IERANGEMODE	TOGGLE	F	I/E AutoRange
IERANGE	IQUANT	5	I/E Range
POSFEEDENABLE	TOGGLE	F	Positive Feedback IR Comp
POSFEEDRESISTANCE	QUANT	0	Positive Feedback Resistance (ohm)
ACHSELECT	IQUANT	0	Ach Select
CABLEID	IQUANT	14	Cable ID
DCCALDATE	LABEL	8/19/2019	DC Calibration Date
ACCALDATE	LABEL	8/19/2019	AC Calibration Date
THERMOSELECT	IQUANT	1	Thermo Select
FRAMEWORKVERSION	QUANT	6.33	Framework Version
INSTRUMENTVERSION	LABEL	3.50	Instrument Version
ZCURVE	TABLE
	Pt	Time	Freq	Zreal	Zimag	Zsig	Zmod	Zphz	Idc	Vdc	IERange
	#	s	Hz	ohm	ohm	V	ohm	°	A	V	#
	0	1	1000078	2338.531	-1503.7	1	2780.26	-32.74145	-2.506768E-006	0.0110344	8
	1	2	794390.6	2640.917	-1401.809	1	2989.901	-27.95953	3.626658E-007	0.0104636	8
	2	2	630984.4	2889.79	-1265.445	1	3154.717	-23.64871	-9.149867E-008	0.0093378	8
	3	2	501234.4	3083.639	-1118.011	1	3280.057	-19.92873	2.731669E-006	0.0090139	8
	4	3	398109.4	3234.681	-977.608	1	3379.183	-16.81623	6.190246E-006	0.0084183	8
	5	3	316265.6	3355.328	-853.7825	1	3462.249	-14.27627	-3.423444E-006	0.0101359	8
	6	3	251203.1	3444.48	-743.595	1	3523.83	-12.18207	-1.821106E-006	0.0096509	8
	7	4	199546.9	3506.951	-642.6223	1	3565.343	-10.38382	-4.423468E-006	0.0098538	8
	8	4	158578.1	3552.262	-583.3629	1	3599.844	-9.326036	2.505923E-006	0.0089938	8
	9	4	125953.1	3623.756	-470.2956	1	3654.146	-7.394587	1.166736E-006	0.011109	7
	10	5	100078.1	3649.455	-433.2656	1	3675.084	-6.770501	3.750159E-007	0.010075	7
	11	5	79453.13	3684.329	-417.4355	1	3707.901	-6.464062	-3.25492E-007	0.0109016	7
	12	5	63140.62	3719.948	-414.153	1	3742.931	-6.35275	5.305027E-007	0.0077603	7
	13	6	50203.12	3754.409	-418.2835	1	3777.638	-6.35718	1.021085E-006	0.0077722	7
	14	6	39890.62	3791.083	-430.7733	1	3815.478	-6.482604	-1.267581E-006	0.0109655	7
	15	6	31640.63	3830.813	-456.2926	1	3857.893	-6.792563	4.522881E-008	0.0105024	7
	16	7	25171.88	3876.983	-492.8863	1	3908.188	-7.245226	8.326252E-007	0.009308	7
	17	7	20015.62	3919.859	-535.5691	1	3956.278	-7.78013	-1.24468E-006	0.0105638	7
	18	7	15890.62	3975.421	-593.4999	1	4019.479	-8.491109	1.128866E-006	0.0083567	7
	19	8	12609.37	4033.075	-660.9426	1	4086.874	-9.306933	5.322937E-007	0.0077543	7
	20	8	10078.13	4094.508	-738.1321	1	4160.508	-10.21916	8.253632E-007	0.0076608	7
	21	8	8015.625	4162.402	-837.4088	1	4245.803	-11.37515	6.039486E-007	0.0097303	7
	22	8	6328.125	4238.448	-959.791	1	4345.761	-12.75936	-6.603721E-007	0.0111291	7
	23	9	5015.625	4320.994	-1102.069	1	4459.321	-14.30824	-3.228463E-007	0.0108913	7
	24	9	3984.375	4413.261	-1273.866	1	4593.431	-16.10052	1.563174E-007	0.0080418	7
	25	9	3170.956	4507.812	-1474.139	1	4742.726	-18.10872	-1.055457E-006	0.0099666	7
	26	10	2527.573	4610.026	-1719.942	1	4920.421	-20.4599	-1.242862E-006	0.0105597	7
	27	10	1976.103	4736.236	-2043.814	1	5158.401	-23.3415	5.323718E-007	0.0077491	7
	28	10	1577.524	4862.438	-2404.214	1	5424.348	-26.30992	-1.139386E-006	0.0111289	7
	29	11	1265.625	5004.773	-2839.261	1	5754.056	-29.5667	1.1278E-006	0.0083527	7
	30	11	998.264	5173.741	-3399.276	1	6190.531	-33.3059	4.811166E-008	0.010494	7
	31	11	796.875	5360.178	-4059.069	1	6723.656	-37.13533	6.07749E-007	0.0097317	7
	32	12	627.7902	5574.921	-4912.809	1	7430.708	-41.38759	1.023005E-006	0.0077637	7
	33	12	505.5147	5807.929	-5853.755	1	8246.119	-45.22515	-2.828861E-007	0.0085511	7
	34	12	397.9953	6094.027	-7126.339	1	9376.667	-49.46488	5.080404E-009	0.009506	7
	35	13	315.5048	6420.005	-8661.639	1	10781.49	-53.45416	4.821668E-010	0.0094507	6
	36	13	252.4038	6784.237	-10479.15	1	12483.52	-57.08084	7.806598E-010	0.0094436	6
	37	13	198.6229	7259.805	-12899.8	1	14802.35	-60.62987	4.601498E-010	0.0094508	6
	38	14	158.3615	7818.055	-15723.97	1	17560.33	-63.56315	1.390027E-009	0.0094411	6
	39	14	125.558	8540.389	-19296.61	1	21102.07	-66.12654	7.748613E-010	0.0094457	6
	40	14	100.4464	9410.387	-23489.1	1	25304.01	-68.16759	-3.995111E-010	0.00944	6
	41	15	79.00281	10634.64	-29001.29	1	30889.65	-69.86224	4.063812E-010	0.009447	6
	42	15	63.3446	12241.88	-35673	1	37715.07	-71.05935	5.926552E-010	0.0094324	6
	43	15	49.86702	14226.67	-43824.25	1	46075.62	-72.01501	3.923143E-010	0.0094275	6
	44	16	39.72458	17023.17	-53056.63	1	55720.68	-72.21121	3.303919E-010	0.0094339	6
	45	16	31.6723	20468.28	-64291.41	1	67471	-72.34023	-3.452333E-011	0.009439	6
	46	16	24.93351	25236.73	-78803.48	1	82745.88	-72.24239	-5.821427E-010	0.009433	6
	47	17	19.86229	31043.16	-95245.8	1	100177	-71.94781	-7.266759E-010	0.0094364	6
	48	17	15.83615	39229.12	-114820.5	1	121337	-71.13696	7.880966E-010	0.0094318	5
	49	17	12.40079	50245.52	-139529.6	1	148300.7	-70.19572	-9.007204E-010	0.0094488	5
	50	18	9.93114	60997.08	-165098.9	1	176006.5	-69.72285	2.105127E-010	0.0094327	5
	51	18	7.944915	75512.86	-195422.6	1	209504.6	-68.87307	-4.08905E-010	0.0094495	5
	52	19	6.317385	94629.17	-231407.6	1	250008.3	-67.75895	-3.077849E-010	0.009448	5
	53	20	5.008013	118020.5	-273654.7	1	298019.7	-66.67065	-7.177857E-011	0.0094372	5
	54	21	3.945707	147723.6	-323484.6	1	355618.5	-65.45555	-8.726924E-011	0.0094338	5
	55	22	3.158693	180684.1	-377266.4	1	418302.2	-64.40885	1.801414E-010	0.0094381	5
	56	24	2.504006	222577.1	-440558.3	1	493591.2	-63.19637	1.340703E-011	0.009439	5
	57	25	1.998082	270986.6	-510466.8	1	577936.1	-62.03794	-1.280692E-010	0.0093934	5
	58	27	1.584686	328995.9	-589383.6	1	674989.9	-60.8296	-5.58277E-011	0.0094264	5
	59	29	1.266892	396356.7	-674298.9	1	782162.2	-59.55275	-1.893695E-011	0.0094562	5
	60	31	0.999041	478821.7	-775729.8	1	911606.8	-58.31491	2.371953E-011	0.0094727	5
