EXPLAIN
TAG	EISPOT
TITLE	LABEL	Potentiostatic IDE	Test &Identifier
DATE	LABEL	9/10/2019	Date
TIME	LABEL	10:24:13	Time
NOTES	NOTES	1	&Notes...
	
PSTAT	PSTAT	REF600-11020	Potentiostat
VDC	POTEN	0.00000E+000	T	DC &Voltage (V)
FREQINIT	QUANT	1.00000E+006	Initial Fre&q. (Hz)
FREQFINAL	QUANT	1.00000E+000	Final Fre&q. (Hz)
PTSPERDEC	QUANT	1.00000E+001	Points/&decade
VAC	QUANT	2.50000E+001	AC &Voltage (mV rms)
AREA	QUANT	1.00000E-002	&Area (cm^2)
CONDIT	TWOPARAM	T	5.00000E+000	0.00000E+000	Conditionin&g	Time(s)	E(V)
DELAY	TWOPARAM	T	5.00000E+000	0.00000E+000	Init. De&lay	Time(s)	Stab.(mV/s)
SPEED	SELECTOR	1	&Optimize for:
ZGUESS	QUANT	1.00000E+007	E&stimated Z (ohms)
OCVCURVE	TABLE	19
	Pt	T	Vf	Vm	Ach	Over
	#	s	V vs. Ref.	V	V	bits
	0	0.258333	4.58009E-003	4.58009E-003	5.66132E-004	...........
	1	0.516667	4.57586E-003	4.35875E-003	5.66366E-004	...........
	2	0.775	4.55015E-003	4.16188E-003	5.63799E-004	...........
	3	1.03333	4.47849E-003	3.98739E-003	5.67832E-004	...........
	4	1.29167	4.35334E-003	3.83370E-003	5.68399E-004	...........
	5	1.55	4.19261E-003	3.68537E-003	5.71266E-004	...........
	6	1.80833	4.02176E-003	3.53984E-003	5.65999E-004	...........
	7	2.06667	3.85681E-003	3.41284E-003	5.64299E-004	...........
	8	2.325	3.70338E-003	3.30991E-003	5.64299E-004	...........
	9	2.58333	3.56288E-003	3.19566E-003	5.69566E-004	...........
	10	2.84167	3.43509E-003	3.09008E-003	5.67932E-004	...........
	11	3.1	3.31759E-003	2.99175E-003	5.64932E-004	...........
	12	3.35833	3.20734E-003	2.89787E-003	5.68732E-004	...........
	13	3.61667	3.10261E-003	2.80459E-003	5.70966E-004	...........
	14	3.875	3.00258E-003	2.71362E-003	5.73066E-004	...........
	15	4.13333	2.90650E-003	2.63105E-003	5.71366E-004	...........
	16	4.39167	2.81381E-003	2.54310E-003	5.68299E-004	...........
	17	4.65	2.72416E-003	2.46222E-003	5.71632E-004	...........
	18	4.90833	2.63705E-003	2.37646E-003	5.68199E-004	...........
EOC	QUANT	0.002637	Open Circuit (V)
PSTATMODEL	IQUANT	4	Pstat Model
PSTATSECTION	LABEL	REF600-11020	Pstat Section
PSTATSERIALNO	LABEL	11020	Pstat Serial Number
CTRLMODE	IQUANT	1	Control Mode
IESTAB	IQUANT	0	I/E Stability
CASPEED	IQUANT	1	Control Amp Speed
CONVENTION	IQUANT	1	Current Convention
ICHRANGE	IQUANT	2	Ich Range
ICHRANGEMODE	TOGGLE	F	Ich Auto Range
ICHOFFSETENABLE	TOGGLE	T	Ich Offset Enable
ICHOFFSET	QUANT	0	Ich Offset (V)
ICHFILTER	IQUANT	3	Ich Filter
VCHRANGE	IQUANT	2	Vch Range
VCHRANGEMODE	TOGGLE	F	Vch Auto Range
VCHOFFSETENABLE	TOGGLE	T	Vch Offset Enable
VCHOFFSET	QUANT	0	Vch Offset (V)
VCHFILTER	IQUANT	3	Vch Filter
ACHRANGE	IQUANT	2	Ach Range
ACHOFFSETENABLE	TOGGLE	F	Ach Offset Enable
ACHOFFSET	QUANT	0	Ach Offset (V)
ACHFILTER	IQUANT	3	Ach Filter
IERANGELOWERLIMIT	IQUANT	1	I/E Range Lower Limit
IERANGEMODE	TOGGLE	F	I/E AutoRange
IERANGE	IQUANT	2	I/E Range
POSFEEDENABLE	TOGGLE	F	Positive Feedback IR Comp
POSFEEDRESISTANCE	QUANT	0	Positive Feedback Resistance (ohm)
ACHSELECT	IQUANT	0	Ach Select
CABLEID	IQUANT	14	Cable ID
DCCALDATE	LABEL	8/19/2019	DC Calibration Date
ACCALDATE	LABEL	8/19/2019	AC Calibration Date
THERMOSELECT	IQUANT	1	Thermo Select
FRAMEWORKVERSION	QUANT	6.33	Framework Version
INSTRUMENTVERSION	LABEL	3.50	Instrument Version
ZCURVE	TABLE
	Pt	Time	Freq	Zreal	Zimag	Zsig	Zmod	Zphz	Idc	Vdc	IERange
	#	s	Hz	ohm	ohm	V	ohm	°	A	V	#
	0	2	1000078	2683.303	-1678.146	1	3164.852	-32.02198	-3.666733E-006	0.0053006	8
	1	3	794390.6	3022.25	-1555.891	1	3399.234	-27.23997	-7.089399E-007	0.0052862	8
	2	4	630984.4	3283.193	-1419.819	1	3577.043	-23.3861	8.686602E-007	0.0045156	8
	3	6	501234.4	3500.557	-1249.214	1	3716.777	-19.63953	2.752136E-008	0.0045648	8
	4	7	398109.4	3669.827	-1099.146	1	3830.895	-16.67342	-2.598438E-006	0.0049943	8
	5	8	316265.6	3808.149	-933.7545	1	3920.956	-13.77706	3.786797E-006	0.003766	8
	6	10	251203.1	3900.753	-814.6176	1	3984.906	-11.79589	3.451803E-006	0.003773	8
	7	11	199546.9	3978.8	-701.5118	1	4040.169	-9.99919	2.684965E-006	0.0038056	8
	8	12	158578.1	4022.229	-607.5839	1	4067.86	-8.589959	-1.684144E-006	0.0047359	8
	9	14	125953.1	4096.664	-498.3344	1	4126.862	-6.935611	-6.715108E-007	0.0053109	7
	10	15	100078.1	4122.197	-456.7778	1	4147.428	-6.323109	2.435487E-009	0.0043367	7
	11	16	79453.13	4154.471	-427.7812	1	4176.437	-5.878962	-2.061455E-008	0.0043999	7
	12	18	63140.62	4186.463	-412.228	1	4206.71	-5.623609	3.215829E-008	0.0043175	7
	13	19	50203.12	4217.374	-408.4704	1	4237.108	-5.532082	-1.526381E-008	0.0043374	7
	14	20	39890.62	4246.243	-413.7998	1	4266.358	-5.565944	-2.409784E-008	0.004359	7
	15	22	31640.63	4283.534	-432.6069	1	4305.323	-5.766919	-2.076302E-008	0.0043927	7
	16	23	25171.88	4320.391	-461.6533	1	4344.986	-6.09917	9.006463E-008	0.0042352	7
	17	24	20015.62	4360.37	-502.0923	1	4389.182	-6.568624	6.588005E-008	0.0042247	7
	18	26	15890.62	4404.742	-554.8534	1	4439.551	-7.179578	-4.81183E-008	0.0044119	7
	19	27	12609.37	4452.156	-621.7611	1	4495.362	-7.950163	-2.514483E-008	0.0043555	7
	20	28	10078.13	4506.737	-700.6907	1	4560.882	-8.837379	-3.01674E-008	0.0043612	7
	21	30	8015.625	4563.153	-801.3094	1	4632.976	-9.95984	-3.021741E-008	0.0043582	7
	22	31	6328.125	4630.689	-925.323	1	4722.235	-11.30024	-4.546949E-008	0.0044224	7
	23	32	5015.625	4704.874	-1073.947	1	4825.888	-12.85819	-2.031293E-008	0.0043901	7
	24	34	3984.375	4788.224	-1250.515	1	4948.826	-14.63671	3.663076E-008	0.004243	7
	25	35	3170.956	4878.222	-1462.702	1	5092.793	-16.691	6.811317E-008	0.0043006	7
	26	36	2527.573	4983.296	-1716.315	1	5270.576	-19.0044	-1.642021E-008	0.0043201	7
	27	38	1976.103	5113.335	-2054.5	1	5510.641	-21.8899	6.08753E-009	0.004416	7
	28	39	1577.524	5243.242	-2423.687	1	5776.317	-24.80873	6.790846E-008	0.0042145	7
	29	40	1265.625	5392.513	-2862.867	1	6105.342	-27.96368	-2.855469E-008	0.0044229	7
	30	42	998.264	5577.701	-3429.757	1	6547.822	-31.58757	-4.91804E-008	0.0044979	7
	31	43	796.875	5777.73	-4088.781	1	7078.156	-35.28625	6.833007E-008	0.0043055	7
	32	44	627.7902	6022.467	-4933.75	1	7785.371	-39.32516	-4.55525E-008	0.0045057	7
	33	46	505.5147	6275.667	-5864.19	1	8589.105	-43.05872	-1.636913E-008	0.0043229	7
	34	47	397.9953	6614.473	-7118.089	1	9716.92	-47.10027	4.442987E-009	0.0043676	7
	35	48	315.5048	6994.128	-8607.291	1	11090.68	-50.90332	8.079961E-010	0.0043078	6
	36	50	252.4038	7419.088	-10350.4	1	12734.74	-54.36733	6.390479E-010	0.0043119	6
	37	51	198.6229	7955.927	-12642.62	1	14937.62	-57.81803	1.276268E-009	0.0043096	6
	38	52	158.3615	8556.57	-15300.56	1	17530.61	-60.78467	1.219473E-009	0.0043133	6
	39	54	125.558	9292.24	-18637.01	1	20825.08	-63.49958	9.642971E-010	0.0043161	6
	40	55	100.4464	10128.19	-22563.04	1	24731.98	-65.82545	6.923693E-010	0.0043079	6
	41	56	79.00281	11222.69	-27759.27	1	29942.04	-67.98719	1.21065E-009	0.0043066	6
	42	58	63.3446	12398.59	-33535.62	1	35754.21	-69.70993	6.164065E-010	0.0043067	6
	43	59	49.86702	14383.08	-41470	1	43893.44	-70.87186	3.762973E-010	0.0043082	6
	44	61	39.72458	16334.85	-50558.51	1	53131.82	-72.09497	7.824045E-010	0.0043106	6
	45	62	31.6723	19132.06	-61755.08	1	64650.79	-72.78674	3.641851E-010	0.0043153	6
	46	63	24.93351	22821.25	-75967.89	1	79321.69	-73.27939	9.718695E-010	0.0043101	6
	47	64	19.86229	27514.09	-92485.98	1	96491.9	-73.43253	1.012883E-009	0.0043188	6
	48	66	15.83615	33184.28	-112288.9	1	117089.7	-73.53622	3.102673E-010	0.0043066	5
	49	67	12.40079	42448.45	-138777.3	1	145124.1	-72.99245	8.024674E-010	0.0043158	5
	50	69	9.93114	53234.99	-166247.4	1	174562.7	-72.24413	8.449045E-010	0.004301	5
	51	70	7.944915	66980.93	-199232.8	1	210190.8	-71.41765	3.968988E-011	0.0043111	5
	52	72	6.317385	85391.29	-239181	1	253967	-70.35265	9.376441E-011	0.0043203	5
	53	74	5.008013	109627.5	-285657.3	1	305971.1	-69.00456	5.253634E-010	0.0043146	5
	54	76	3.945707	141279.4	-341005.4	1	369113.2	-67.49565	1.482525E-010	0.0043057	5
	55	79	3.158693	178414.3	-399354.8	1	437396.8	-65.92699	4.011239E-010	0.0043174	5
	56	82	2.504006	226129.8	-467568.8	1	519379.7	-64.19024	-1.095162E-010	0.0043137	5
	57	85	1.998082	281558.4	-537361.4	1	606656.8	-62.34705	4.031179E-010	0.0042755	5
	58	88	1.584686	349060.8	-619369.8	1	710958.8	-60.59552	1.193215E-010	0.0042654	5
	59	92	1.266892	422359.3	-700795.8	1	818231.1	-58.92324	4.008587E-010	0.0042916	5
	60	96	0.999041	512221.3	-800422.4	1	950288	-57.38324	-6.619208E-011	0.0042968	5
