EXPLAIN
TAG	EISPOT
TITLE	LABEL	Potentiostatic EIS	Test &Identifier
DATE	LABEL	10/8/2019	Date
TIME	LABEL	9:53:33	Time
NOTES	NOTES	2	&Notes...
	
	
PSTAT	PSTAT	REF600-11020	Potentiostat
VDC	POTEN	0.00000E+000	T	DC &Voltage (V)
FREQINIT	QUANT	1.00000E+006	Initial Fre&q. (Hz)
FREQFINAL	QUANT	1.00000E+000	Final Fre&q. (Hz)
PTSPERDEC	QUANT	1.00000E+001	Points/&decade
VAC	QUANT	2.50000E+001	AC &Voltage (mV rms)
AREA	QUANT	1.00000E-002	&Area (cm^2)
CONDIT	TWOPARAM	T	5.00000E+000	0.00000E+000	Conditionin&g	Time(s)	E(V)
DELAY	TWOPARAM	T	5.00000E+000	0.00000E+000	Init. De&lay	Time(s)	Stab.(mV/s)
SPEED	SELECTOR	1	&Optimize for:
ZGUESS	QUANT	1.00000E+004	E&stimated Z (ohms)
OCVCURVE	TABLE	19
	Pt	T	Vf	Vm	Ach	Over
	#	s	V vs. Ref.	V	V	bits
	0	0.258333	5.96866E-003	5.96866E-003	5.53032E-004	...........
	1	0.516667	5.96728E-003	5.89623E-003	5.49966E-004	...........
	2	0.775	5.95911E-003	5.84511E-003	5.48299E-004	...........
	3	1.03333	5.93744E-003	5.81193E-003	5.45733E-004	...........
	4	1.29167	5.90226E-003	5.78589E-003	5.42266E-004	...........
	5	1.55	5.86155E-003	5.76406E-003	5.51433E-004	...........
	6	1.80833	5.82376E-003	5.74297E-003	5.44233E-004	...........
	7	2.06667	5.79289E-003	5.74711E-003	5.46799E-004	...........
	8	2.325	5.77014E-003	5.75187E-003	5.48433E-004	...........
	9	2.58333	5.75593E-003	5.73858E-003	5.47533E-004	...........
	10	2.84167	5.74896E-003	5.75398E-003	5.42499E-004	...........
	11	3.1	5.74748E-003	5.79659E-003	5.39266E-004	...........
	12	3.35833	5.75298E-003	5.82937E-003	5.41766E-004	...........
	13	3.61667	5.76890E-003	5.88205E-003	5.42433E-004	...........
	14	3.875	5.79549E-003	5.88085E-003	5.41966E-004	...........
	15	4.13333	5.82603E-003	5.82641E-003	5.39199E-004	...........
	16	4.39167	5.84793E-003	5.81584E-003	5.39799E-004	...........
	17	4.65	5.85373E-003	5.88970E-003	5.44666E-004	...........
	18	4.90833	5.85153E-003	5.89606E-003	5.41633E-004	...........
EOC	QUANT	0.0058515	Open Circuit (V)
PSTATMODEL	IQUANT	4	Pstat Model
PSTATSECTION	LABEL	REF600-11020	Pstat Section
PSTATSERIALNO	LABEL	11020	Pstat Serial Number
CTRLMODE	IQUANT	1	Control Mode
IESTAB	IQUANT	0	I/E Stability
CASPEED	IQUANT	1	Control Amp Speed
CONVENTION	IQUANT	1	Current Convention
ICHRANGE	IQUANT	2	Ich Range
ICHRANGEMODE	TOGGLE	F	Ich Auto Range
ICHOFFSETENABLE	TOGGLE	T	Ich Offset Enable
ICHOFFSET	QUANT	0	Ich Offset (V)
ICHFILTER	IQUANT	3	Ich Filter
VCHRANGE	IQUANT	2	Vch Range
VCHRANGEMODE	TOGGLE	F	Vch Auto Range
VCHOFFSETENABLE	TOGGLE	T	Vch Offset Enable
VCHOFFSET	QUANT	0	Vch Offset (V)
VCHFILTER	IQUANT	3	Vch Filter
ACHRANGE	IQUANT	2	Ach Range
ACHOFFSETENABLE	TOGGLE	F	Ach Offset Enable
ACHOFFSET	QUANT	0	Ach Offset (V)
ACHFILTER	IQUANT	3	Ach Filter
IERANGELOWERLIMIT	IQUANT	1	I/E Range Lower Limit
IERANGEMODE	TOGGLE	F	I/E AutoRange
IERANGE	IQUANT	6	I/E Range
POSFEEDENABLE	TOGGLE	F	Positive Feedback IR Comp
POSFEEDRESISTANCE	QUANT	0	Positive Feedback Resistance (ohm)
ACHSELECT	IQUANT	0	Ach Select
CABLEID	IQUANT	14	Cable ID
DCCALDATE	LABEL	8/19/2019	DC Calibration Date
ACCALDATE	LABEL	8/19/2019	AC Calibration Date
THERMOSELECT	IQUANT	1	Thermo Select
FRAMEWORKVERSION	QUANT	6.33	Framework Version
INSTRUMENTVERSION	LABEL	3.50	Instrument Version
ZCURVE	TABLE
	Pt	Time	Freq	Zreal	Zimag	Zsig	Zmod	Zphz	Idc	Vdc	IERange
	#	s	Hz	ohm	ohm	V	ohm	°	A	V	#
	0	2	1000078	2582.237	-1792.253	1	3143.266	-34.76335	-3.220093E-007	0.0080019	8
	1	3	794390.6	2946.389	-1731.82	1	3417.662	-30.44604	1.125532E-006	0.0074126	8
	2	5	630984.4	3270.193	-1608.71	1	3644.463	-26.19402	7.293683E-007	0.0073003	8
	3	6	501234.4	3531.725	-1441.883	1	3814.723	-22.20852	6.658887E-008	0.0074715	8
	4	8	398109.4	3764.18	-1274.379	1	3974.052	-18.70375	-7.683811E-007	0.0074414	8
	5	9	316265.6	3936.033	-1135.581	1	4096.572	-16.09332	1.933049E-006	0.0071186	8
	6	10	251203.1	4046.252	-948.9045	1	4156.029	-13.19818	1.632641E-007	0.0073966	8
	7	12	199546.9	4179.903	-818.0438	1	4259.2	-11.07333	8.052028E-007	0.0071851	8
	8	13	158578.1	4227.107	-725.7763	1	4288.961	-9.74245	1.311686E-006	0.0068863	8
	9	15	125953.1	4335.811	-561.6136	1	4372.032	-7.380378	-5.042021E-007	0.0092533	7
	10	16	100078.1	4359.051	-531.1163	1	4391.288	-6.946803	-2.73092E-008	0.0073971	7
	11	17	79453.13	4397.131	-490.3289	1	4424.385	-6.362829	-1.59733E-008	0.0072832	7
	12	19	63140.62	4440.517	-461.498	1	4464.434	-5.933386	1.035555E-007	0.0072412	7
	13	20	50203.12	4476.879	-444.5698	1	4498.898	-5.671079	-9.172581E-008	0.0074657	7
	14	21	39890.62	4513.563	-437.6465	1	4534.731	-5.53823	1.524263E-007	0.0070774	7
	15	23	31640.63	4548.524	-446.2736	1	4570.364	-5.60358	4.545382E-008	0.0071588	7
	16	24	25171.88	4584.361	-462.653	1	4607.647	-5.76277	-2.822964E-008	0.0073851	7
	17	26	20015.62	4618.333	-489.6487	1	4644.217	-6.052051	-1.745316E-008	0.0072816	7
	18	27	15890.62	4662.861	-533.2184	1	4693.25	-6.523683	-4.221122E-008	0.0073975	7
	19	28	12609.37	4701.898	-589.4783	1	4738.706	-7.145905	-7.514316E-009	0.0074537	7
	20	30	10078.13	4744.476	-662.0306	1	4790.442	-7.943598	-6.458773E-008	0.0075129	7
	21	31	8015.625	4799.125	-750.9974	1	4857.529	-8.893877	1.496883E-007	0.0070761	7
	22	32	6328.125	4838.848	-875.06	1	4917.335	-10.25062	-4.029847E-008	0.0073264	7
	23	34	5015.625	4893.865	-1023.314	1	4999.708	-11.81046	5.3515E-009	0.00724	7
	24	35	3984.375	4950.9	-1215.871	1	5098.015	-13.79796	-2.528548E-008	0.0073766	7
	25	36	3170.956	5017.784	-1428.962	1	5217.288	-15.89587	8.400365E-009	0.0072352	7
	26	38	2527.573	5097.441	-1701.942	1	5374.059	-18.46321	1.115488E-007	0.0072192	7
	27	39	1976.103	5184.659	-2075.156	1	5584.529	-21.81372	-3.724024E-008	0.007396	7
	28	40	1577.524	5285.787	-2489.827	1	5842.84	-25.2224	-6.616451E-008	0.0075121	7
	29	42	1265.625	5396.377	-2992.667	1	6170.652	-29.01142	1.47774E-007	0.0070834	7
	30	43	998.264	5540.552	-3650.554	1	6635.078	-33.38005	5.048059E-008	0.0072499	7
	31	44	796.875	5698.801	-4421.54	1	7212.929	-37.80688	-2.940122E-009	0.0073403	7
	32	46	627.7902	5905.277	-5426.917	1	8020.208	-42.58284	9.035737E-008	0.0071161	7
	33	47	505.5147	6144.204	-6571.93	1	8996.75	-46.9265	-3.384685E-008	0.0073255	7
	34	48	397.9953	6454.017	-8073.983	1	10336.51	-51.36257	1.210988E-009	0.0072589	6
	35	50	315.5048	6839.213	-9902.08	1	12034.36	-55.36775	1.308846E-009	0.0072568	6
	36	51	252.4038	7308.964	-12055.72	1	14098.28	-58.77303	1.172156E-009	0.0072582	6
	37	53	198.6229	7967.018	-14895.67	1	16892.43	-61.8597	1.069987E-009	0.0072591	6
	38	54	158.3615	8782.386	-18192.07	1	20201.03	-64.23065	8.308009E-010	0.0072539	6
	39	55	125.558	9898.12	-22300.71	1	24398.66	-66.06608	5.776027E-010	0.0072579	6
	40	57	100.4464	11308.44	-27063.12	1	29330.75	-67.32219	9.47744E-010	0.0072572	6
	41	58	79.00281	13348.78	-33293.25	1	35869.63	-68.1519	1.305714E-009	0.007259	6
	42	59	63.3446	15885.09	-40495.68	1	43499.84	-68.5816	5.951559E-010	0.0072555	6
	43	61	49.86702	19585.24	-48702.04	1	52492.58	-68.09277	5.743713E-010	0.0072523	6
	44	62	39.72458	24509.82	-58707.7	1	63618.6	-67.34	2.960136E-010	0.0072614	6
	45	63	31.6723	30555.2	-69886.83	1	76274.43	-66.38458	3.102531E-010	0.0072566	6
	46	65	24.93351	39229.62	-82963.6	1	91771.03	-64.69272	9.81306E-010	0.0072543	6
	47	66	19.86229	49236.16	-96595.4	1	108419.9	-62.99136	1.084712E-009	0.0072648	5
	48	67	15.83615	61593.91	-111243.9	1	127157.4	-61.02742	1.308506E-009	0.0072614	5
	49	69	12.40079	76563.52	-127673.1	1	148870.4	-59.04955	1.231858E-009	0.0072652	5
	50	70	9.93114	92630.5	-144485.9	1	171629.2	-57.3359	6.329955E-010	0.0072692	5
	51	72	7.944915	110319	-161562.2	1	195633.9	-55.67368	8.42751E-010	0.007269	5
	52	73	6.317385	129143.6	-180947.4	1	222306.2	-54.48424	3.650691E-010	0.0072722	5
	53	75	5.008013	149226.8	-203301.4	1	252190.6	-53.72067	3.163478E-010	0.0072778	5
	54	78	3.945707	171045.3	-229818.2	1	286483.8	-53.34103	-6.65961E-011	0.0072641	5
	55	80	3.158693	192287.6	-258897.8	1	322494.4	-53.39812	-3.099161E-011	0.0072517	5
	56	84	2.504006	215916.7	-295741.8	1	366173.8	-53.86738	3.608268E-010	0.007267	5
	57	86	1.998082	241144.2	-338927.8	1	415959.8	-54.56848	2.631156E-010	0.0072974	5
	58	90	1.584686	269201	-391969	1	475509.1	-55.51905	1.439119E-010	0.0072534	5
	59	93	1.266892	301789	-454528.3	1	545593.8	-56.4174	9.36143E-011	0.0073083	5
	60	97	0.999041	340918.9	-533744.6	1	633331.7	-57.4324	-1.381465E-012	0.007223	5
