EXPLAIN
TAG	EISPOT
TITLE	LABEL	Potentiostatic EIS	Test &Identifier
DATE	LABEL	10/8/2019	Date
TIME	LABEL	8:12:41	Time
NOTES	NOTES	2	&Notes...
	
	
PSTAT	PSTAT	REF600-11020	Potentiostat
VDC	POTEN	0.00000E+000	T	DC &Voltage (V)
FREQINIT	QUANT	1.00000E+006	Initial Fre&q. (Hz)
FREQFINAL	QUANT	1.00000E+000	Final Fre&q. (Hz)
PTSPERDEC	QUANT	1.00000E+001	Points/&decade
VAC	QUANT	2.50000E+001	AC &Voltage (mV rms)
AREA	QUANT	1.00000E-002	&Area (cm^2)
CONDIT	TWOPARAM	T	5.00000E+000	0.00000E+000	Conditionin&g	Time(s)	E(V)
DELAY	TWOPARAM	T	5.00000E+000	0.00000E+000	Init. De&lay	Time(s)	Stab.(mV/s)
SPEED	SELECTOR	1	&Optimize for:
ZGUESS	QUANT	1.00000E+004	E&stimated Z (ohms)
OCVCURVE	TABLE	19
	Pt	T	Vf	Vm	Ach	Over
	#	s	V vs. Ref.	V	V	bits
	0	0.258333	8.23863E-003	8.23863E-003	5.48633E-004	...........
	1	0.516667	8.24226E-003	8.42860E-003	5.40999E-004	...........
	2	0.775	8.26527E-003	8.64652E-003	5.45799E-004	...........
	3	1.03333	8.33253E-003	8.84354E-003	5.48966E-004	...........
	4	1.29167	8.45617E-003	9.01470E-003	5.48333E-004	...........
	5	1.55	8.62339E-003	9.21323E-003	5.43399E-004	...........
	6	1.80833	8.81113E-003	9.40657E-003	5.43733E-004	...........
	7	2.06667	9.00419E-003	9.59723E-003	5.44799E-004	...........
	8	2.325	9.19736E-003	9.78138E-003	5.43733E-004	...........
	9	2.58333	9.38919E-003	9.96623E-003	5.40466E-004	...........
	10	2.84167	9.57876E-003	1.01463E-002	5.42866E-004	...........
	11	3.1	9.76551E-003	1.03232E-002	5.44833E-004	...........
	12	3.35833	9.94895E-003	1.04829E-002	5.40499E-004	...........
	13	3.61667	1.01281E-002	1.06520E-002	5.41766E-004	...........
	14	3.875	1.03025E-002	1.08411E-002	5.42133E-004	...........
	15	4.13333	1.04741E-002	1.09864E-002	5.42499E-004	...........
	16	4.39167	1.06442E-002	1.11437E-002	5.39266E-004	...........
	17	4.65	1.08114E-002	1.13056E-002	5.46966E-004	...........
	18	4.90833	1.09742E-002	1.14569E-002	5.38133E-004	...........
EOC	QUANT	0.0109742	Open Circuit (V)
PSTATMODEL	IQUANT	4	Pstat Model
PSTATSECTION	LABEL	REF600-11020	Pstat Section
PSTATSERIALNO	LABEL	11020	Pstat Serial Number
CTRLMODE	IQUANT	1	Control Mode
IESTAB	IQUANT	0	I/E Stability
CASPEED	IQUANT	1	Control Amp Speed
CONVENTION	IQUANT	1	Current Convention
ICHRANGE	IQUANT	2	Ich Range
ICHRANGEMODE	TOGGLE	F	Ich Auto Range
ICHOFFSETENABLE	TOGGLE	T	Ich Offset Enable
ICHOFFSET	QUANT	0	Ich Offset (V)
ICHFILTER	IQUANT	3	Ich Filter
VCHRANGE	IQUANT	2	Vch Range
VCHRANGEMODE	TOGGLE	F	Vch Auto Range
VCHOFFSETENABLE	TOGGLE	T	Vch Offset Enable
VCHOFFSET	QUANT	0	Vch Offset (V)
VCHFILTER	IQUANT	3	Vch Filter
ACHRANGE	IQUANT	2	Ach Range
ACHOFFSETENABLE	TOGGLE	F	Ach Offset Enable
ACHOFFSET	QUANT	0	Ach Offset (V)
ACHFILTER	IQUANT	3	Ach Filter
IERANGELOWERLIMIT	IQUANT	1	I/E Range Lower Limit
IERANGEMODE	TOGGLE	F	I/E AutoRange
IERANGE	IQUANT	6	I/E Range
POSFEEDENABLE	TOGGLE	F	Positive Feedback IR Comp
POSFEEDRESISTANCE	QUANT	0	Positive Feedback Resistance (ohm)
ACHSELECT	IQUANT	0	Ach Select
CABLEID	IQUANT	14	Cable ID
DCCALDATE	LABEL	8/19/2019	DC Calibration Date
ACCALDATE	LABEL	8/19/2019	AC Calibration Date
THERMOSELECT	IQUANT	1	Thermo Select
FRAMEWORKVERSION	QUANT	6.33	Framework Version
INSTRUMENTVERSION	LABEL	3.50	Instrument Version
ZCURVE	TABLE
	Pt	Time	Freq	Zreal	Zimag	Zsig	Zmod	Zphz	Idc	Vdc	IERange
	#	s	Hz	ohm	ohm	V	ohm	°	A	V	#
	0	2	1000078	2263.375	-1135.749	1	2532.349	-26.64725	-2.541536E-006	0.0139777	8
	1	3	794390.6	2464.975	-1022.758	1	2668.733	-22.53435	-2.149498E-007	0.0132259	8
	2	4	630984.4	2615.081	-902.7681	1	2766.521	-19.0455	-3.975368E-006	0.0136694	8
	3	6	501234.4	2746.638	-774.6519	1	2853.788	-15.75038	3.586636E-006	0.0121009	8
	4	7	398109.4	2850.594	-676.9365	1	2929.869	-13.3587	1.310785E-006	0.0122436	8
	5	8	316265.6	2892.25	-581.6967	1	2950.167	-11.37176	-5.389924E-007	0.012767	8
	6	10	251203.1	2945.135	-513.0606	1	2989.49	-9.88211	-7.311217E-007	0.0127386	8
	7	11	199546.9	2993.597	-445.3163	1	3026.538	-8.461061	1.505703E-006	0.0122248	8
	8	12	158578.1	3025.017	-391.1087	1	3050.196	-7.366984	-8.411761E-007	0.0127469	8
	9	14	125953.1	3076.601	-327.2701	1	3093.958	-6.071943	6.298353E-007	0.0108332	7
	10	15	100078.1	3094.887	-300.5332	1	3109.444	-5.546396	-1.730628E-008	0.0126709	7
	11	16	79453.13	3119.434	-294.3947	1	3133.294	-5.391288	6.964152E-008	0.0124185	7
	12	18	63140.62	3145.778	-294.5373	1	3159.536	-5.348976	-1.30463E-008	0.0125774	7
	13	19	50203.12	3173.138	-301.1715	1	3187.398	-5.421863	-9.764636E-009	0.0125742	7
	14	20	39890.62	3201.782	-314.2135	1	3217.163	-5.604893	1.447931E-008	0.0124584	7
	15	22	31640.63	3232.097	-333.9742	1	3249.306	-5.899466	-4.703373E-008	0.0126249	7
	16	23	25171.88	3264.801	-361.3006	1	3284.732	-6.314966	-3.61854E-008	0.0125502	7
	17	24	20015.62	3299.458	-395.4516	1	3323.072	-6.834497	4.440211E-008	0.0123912	7
	18	26	15890.62	3337.976	-439.5376	1	3366.79	-7.501429	-1.252749E-008	0.0126629	7
	19	27	12609.37	3381.163	-493.2187	1	3416.947	-8.299343	1.425429E-008	0.0124563	7
	20	28	10078.13	3424.747	-554.5961	1	3469.361	-9.198503	-1.475752E-008	0.0126618	7
	21	30	8015.625	3472.896	-634.5035	1	3530.382	-10.35383	-1.488095E-008	0.0126664	7
	22	31	6328.125	3526.5	-727.5013	1	3600.759	-11.65634	-4.187213E-008	0.0125806	7
	23	32	5015.625	3583.781	-843.312	1	3681.665	-13.24157	-1.317915E-008	0.0126536	7
	24	34	3984.375	3644.094	-981.551	1	3773.972	-15.07507	3.606973E-008	0.01249	7
	25	35	3170.956	3711.988	-1149.875	1	3886.01	-17.21159	-3.607605E-008	0.0125442	7
	26	36	2527.573	3783.704	-1352.975	1	4018.328	-19.67601	-7.075181E-009	0.0125662	7
	27	38	1976.103	3871.511	-1627.031	1	4199.503	-22.79493	-1.1443E-008	0.0126563	7
	28	39	1577.524	3960.118	-1932.566	1	4406.511	-26.01271	-6.694116E-008	0.0126341	7
	29	40	1265.625	4058.602	-2297.158	1	4663.602	-29.50975	1.338487E-007	0.0123326	7
	30	42	998.264	4176.111	-2780.903	1	5017.303	-33.65993	7.634121E-008	0.0124929	7
	31	43	796.875	4303.657	-3349.169	1	5453.292	-37.89058	-3.84451E-008	0.0125478	7
	32	44	627.7902	4459.2	-4092.553	1	6052.558	-42.54501	-4.089527E-008	0.0125718	7
	33	46	505.5147	4626.18	-4925.818	1	6757.605	-46.79673	7.647479E-008	0.0124936	7
	34	47	397.9953	4854.584	-6058.853	1	7763.806	-51.29696	5.812631E-009	0.0125386	7
	35	48	315.5048	5128.432	-7425.417	1	9024.28	-55.36874	5.696334E-009	0.0125378	7
	36	50	252.4038	5463.625	-9039.083	1	10562.02	-58.84936	9.978507E-010	0.0124797	6
	37	51	198.6229	5922.599	-11173.36	1	12646	-62.07354	7.269482E-010	0.0124757	6
	38	53	158.3615	6491.021	-13654.64	1	15118.95	-64.57494	4.825528E-010	0.0124769	6
	39	54	125.558	7250.704	-16758.03	1	18259.36	-66.60329	6.639154E-010	0.0124798	6
	40	55	100.4464	8202.398	-20388.77	1	21976.84	-68.08509	8.066863E-010	0.012474	6
	41	57	79.00281	9611.2	-25103.2	1	26880.21	-69.04977	-1.395173E-010	0.0124708	6
	42	58	63.3446	11248.79	-30207.45	1	32233.91	-69.57545	4.451372E-010	0.0124733	6
	43	59	49.86702	13740.49	-37299.37	1	39749.77	-69.77702	2.973834E-010	0.0124675	6
	44	61	39.72458	16728.22	-44892.71	1	47908.13	-69.56327	1.792042E-010	0.0124743	6
	45	62	31.6723	20765.88	-53910.93	1	57772.05	-68.93388	6.57974E-010	0.0124757	6
	46	63	24.93351	26280.4	-65119.03	1	70222.13	-68.02224	2.426079E-010	0.0124709	6
	47	65	19.86229	32988.43	-77227.34	1	83977.96	-66.86976	-6.106846E-010	0.0124716	6
	48	66	15.83615	41318.23	-90579.91	1	99558.6	-65.47979	-6.19488E-012	0.0124763	6
	49	67	12.40079	52845.15	-107575.2	1	119854.2	-63.83792	5.577767E-010	0.0124749	5
	50	69	9.93114	65771.77	-123979.8	1	140345.7	-62.05388	5.926047E-010	0.0124739	5
	51	70	7.944915	80756.75	-141674.2	1	163074.3	-60.3161	1.07927E-010	0.0124849	5
	52	72	6.317385	98354.8	-161458.3	1	189056.7	-58.65169	6.150887E-011	0.0124908	5
	53	74	5.008013	118252.2	-183220.1	1	218067	-57.16138	3.141809E-010	0.0124884	5
	54	77	3.945707	140928.6	-207717.1	1	251012.5	-55.84452	-4.496986E-010	0.0124723	5
	55	79	3.158693	163840	-232836.9	1	284704.3	-54.86715	-1.741734E-010	0.0124703	5
	56	82	2.504006	188581	-262974.6	1	323602.2	-54.35542	-4.038078E-011	0.0124854	5
	57	85	1.998082	213996.4	-297306.4	1	366313.4	-54.25427	1.833974E-010	0.0124872	5
	58	88	1.584686	242459.4	-338133	1	416077.5	-54.35745	-1.184786E-010	0.0124433	5
	59	92	1.266892	272049.2	-387863.8	1	473760.6	-54.95403	-4.573369E-012	0.0125087	5
	60	96	0.999041	307745.4	-450025.9	1	545188.6	-55.63414	-3.329527E-010	0.0124333	5
