EXPLAIN
TAG	EISPOT
TITLE	LABEL	Potentiostatic EIS	Test &Identifier
DATE	LABEL	11/12/2019	Date
TIME	LABEL	23:00:54	Time
NOTES	NOTES	3	&Notes...
	
	
	
PSTAT	PSTAT	REF600-11020	Potentiostat
VDC	POTEN	0.00000E+000	T	DC &Voltage (V)
FREQINIT	QUANT	1.00000E+006	Initial Fre&q. (Hz)
FREQFINAL	QUANT	1.00000E+000	Final Fre&q. (Hz)
PTSPERDEC	QUANT	1.00000E+001	Points/&decade
VAC	QUANT	2.50000E+001	AC &Voltage (mV rms)
AREA	QUANT	1.00000E-002	&Area (cm^2)
CONDIT	TWOPARAM	T	5.00000E+000	0.00000E+000	Conditionin&g	Time(s)	E(V)
DELAY	TWOPARAM	T	5.00000E+000	0.00000E+000	Init. De&lay	Time(s)	Stab.(mV/s)
SPEED	SELECTOR	1	&Optimize for:
ZGUESS	QUANT	1.00000E+005	E&stimated Z (ohms)
OCVCURVE	TABLE	19
	Pt	T	Vf	Vm	Ach	Over
	#	s	V vs. Ref.	V	V	bits
	0	0.258333	7.39638E-003	7.39638E-003	5.15900E-004	...........
	1	0.516667	7.39685E-003	7.42104E-003	5.12233E-004	...........
	2	0.775	7.40007E-003	7.46176E-003	5.15933E-004	...........
	3	1.03333	7.41034E-003	7.50303E-003	5.17100E-004	...........
	4	1.29167	7.43123E-003	7.55376E-003	5.08900E-004	...........
	5	1.55	7.46305E-003	7.59868E-003	5.14366E-004	...........
	6	1.80833	7.50332E-003	7.65396E-003	5.13967E-004	...........
	7	2.06667	7.54906E-003	7.70590E-003	5.10267E-004	...........
	8	2.325	7.59833E-003	7.76596E-003	5.09667E-004	...........
	9	2.58333	7.65023E-003	7.81700E-003	5.19800E-004	...........
	10	2.84167	7.70410E-003	7.87658E-003	5.14166E-004	...........
	11	3.1	7.75908E-003	7.92528E-003	5.14066E-004	...........
	12	3.35833	7.81425E-003	7.98322E-003	5.21233E-004	...........
	13	3.61667	7.86914E-003	8.03914E-003	5.16700E-004	...........
	14	3.875	7.92389E-003	8.09266E-003	5.12267E-004	...........
	15	4.13333	7.97871E-003	8.14267E-003	5.09567E-004	...........
	16	4.39167	8.03321E-003	8.19812E-003	5.19300E-004	...........
	17	4.65	8.08694E-003	8.24646E-003	5.15400E-004	...........
	18	4.90833	8.13977E-003	8.29737E-003	5.14066E-004	...........
EOC	QUANT	0.0081398	Open Circuit (V)
PSTATMODEL	IQUANT	4	Pstat Model
PSTATSECTION	LABEL	REF600-11020	Pstat Section
PSTATSERIALNO	LABEL	11020	Pstat Serial Number
CTRLMODE	IQUANT	1	Control Mode
IESTAB	IQUANT	0	I/E Stability
CASPEED	IQUANT	1	Control Amp Speed
CONVENTION	IQUANT	1	Current Convention
ICHRANGE	IQUANT	2	Ich Range
ICHRANGEMODE	TOGGLE	F	Ich Auto Range
ICHOFFSETENABLE	TOGGLE	T	Ich Offset Enable
ICHOFFSET	QUANT	0	Ich Offset (V)
ICHFILTER	IQUANT	3	Ich Filter
VCHRANGE	IQUANT	2	Vch Range
VCHRANGEMODE	TOGGLE	F	Vch Auto Range
VCHOFFSETENABLE	TOGGLE	T	Vch Offset Enable
VCHOFFSET	QUANT	0	Vch Offset (V)
VCHFILTER	IQUANT	3	Vch Filter
ACHRANGE	IQUANT	2	Ach Range
ACHOFFSETENABLE	TOGGLE	F	Ach Offset Enable
ACHOFFSET	QUANT	0	Ach Offset (V)
ACHFILTER	IQUANT	3	Ach Filter
IERANGELOWERLIMIT	IQUANT	1	I/E Range Lower Limit
IERANGEMODE	TOGGLE	F	I/E AutoRange
IERANGE	IQUANT	5	I/E Range
POSFEEDENABLE	TOGGLE	F	Positive Feedback IR Comp
POSFEEDRESISTANCE	QUANT	0	Positive Feedback Resistance (ohm)
ACHSELECT	IQUANT	0	Ach Select
CABLEID	IQUANT	14	Cable ID
DCCALDATE	LABEL	8/19/2019	DC Calibration Date
ACCALDATE	LABEL	8/19/2019	AC Calibration Date
THERMOSELECT	IQUANT	1	Thermo Select
FRAMEWORKVERSION	QUANT	6.33	Framework Version
INSTRUMENTVERSION	LABEL	3.50	Instrument Version
ZCURVE	TABLE
	Pt	Time	Freq	Zreal	Zimag	Zsig	Zmod	Zphz	Idc	Vdc	IERange
	#	s	Hz	ohm	ohm	V	ohm	°	A	V	#
	0	2	1000078	2096.563	-1530.135	1	2595.552	-36.1231	-4.496559E-006	0.0110591	8
	1	3	794390.6	2414.972	-1465.166	1	2824.677	-31.24523	-1.007039E-006	0.0104233	8
	2	5	630984.4	2691.451	-1360.034	1	3015.56	-26.80821	-4.615803E-006	0.0104159	8
	3	6	501234.4	2922.43	-1224.05	1	3168.422	-22.72621	-1.790246E-006	0.0098186	8
	4	7	398109.4	3107.078	-1074.857	1	3287.742	-19.08246	5.754118E-006	0.008796	8
	5	9	316265.6	3247.208	-937.5029	1	3379.833	-16.10398	-3.596378E-006	0.010323	8
	6	10	251203.1	3355.709	-811.6877	1	3452.48	-13.59768	1.83497E-006	0.0100475	8
	7	11	199546.9	3440.046	-694.3217	1	3509.416	-11.41099	-2.212412E-006	0.009701	8
	8	13	158578.1	3500.43	-594.8965	1	3550.622	-9.64524	7.371517E-007	0.0101071	8
	9	14	125953.1	3572.795	-490.0884	1	3606.251	-7.810647	-2.022143E-006	0.0104423	7
	10	16	100078.1	3597.964	-427.8639	1	3623.315	-6.781671	-1.078257E-006	0.0107107	7
	11	17	79453.13	3636.056	-403.5673	1	3658.384	-6.333358	4.2569E-007	0.0082677	7
	12	18	63140.62	3667.515	-379.4034	1	3687.087	-5.906224	-2.758571E-007	0.0089925	7
	13	20	50203.12	3697.898	-365.9052	1	3715.957	-5.650994	9.576047E-007	0.008444	7
	14	21	39890.62	3727.125	-359.641	1	3744.437	-5.511571	9.016612E-007	0.0090947	7
	15	22	31640.63	3754.562	-363.08	1	3772.077	-5.523538	6.955243E-008	0.0105772	7
	16	24	25171.88	3782.583	-375.6838	1	3801.194	-5.67198	-6.494518E-007	0.0096036	7
	17	25	20015.62	3812.463	-396.1853	1	3832.993	-5.932794	-2.515398E-007	0.0109319	7
	18	26	15890.62	3842.838	-432.0324	1	3867.047	-6.414564	-2.511225E-007	0.01093	7
	19	28	12609.37	3876.336	-479.8548	1	3905.924	-7.056792	6.851035E-007	0.0081675	7
	20	29	10078.13	3905.772	-536.1806	1	3942.404	-7.81665	5.47241E-007	0.0099114	7
	21	31	8015.625	3939.652	-611.4563	1	3986.82	-8.822241	9.995976E-008	0.0085214	7
	22	32	6328.125	3975.066	-717.0448	1	4039.221	-10.22537	-6.508926E-007	0.0096007	7
	23	33	5015.625	4018.483	-844.3004	1	4106.221	-11.8655	8.676143E-007	0.0082406	7
	24	35	3984.375	4057.62	-997.816	1	4178.507	-13.81556	-5.460768E-007	0.0111495	7
	25	36	3170.956	4111.71	-1195.134	1	4281.881	-16.20734	-9.690532E-007	0.0111685	7
	26	37	2527.573	4171.724	-1433.867	1	4411.264	-18.9684	-1.082476E-006	0.0110177	7
	27	39	1976.103	4251.823	-1753.672	1	4599.278	-22.41378	3.519534E-007	0.0101963	7
	28	40	1577.524	4349.006	-2128.755	1	4842.05	-26.08086	7.077447E-008	0.010576	7
	29	42	1265.625	4438.768	-2541.141	1	5114.691	-29.79062	-9.2939E-007	0.0101961	7
	30	43	998.264	4572.548	-3102.969	1	5525.994	-34.16114	6.868029E-007	0.0081653	7
	31	44	796.875	4727.014	-3747.571	1	6032.326	-38.40734	-1.07904E-006	0.0107043	7
	32	46	627.7902	4914.571	-4591.205	1	6725.487	-43.05167	4.274064E-007	0.0082617	7
	33	47	505.5147	5122.688	-5511.541	1	7524.561	-47.09415	-6.549115E-007	0.0095985	7
	34	49	397.9953	5380.962	-6761.446	1	8641.291	-51.48617	2.501391E-009	0.0097635	7
	35	50	315.5048	5687.424	-8258.546	1	10027.48	-55.44593	3.53978E-009	0.0097567	7
	36	51	252.4038	6044.673	-10023.92	1	11705.43	-58.90899	1.10022E-009	0.0096942	6
	37	53	198.6229	6513.084	-12363.26	1	13973.92	-62.2193	1.087187E-009	0.0096937	6
	38	54	158.3615	7068.337	-15088.14	1	16661.74	-64.89833	1.422628E-009	0.009686	6
	39	56	125.558	7796.547	-18520.54	1	20094.69	-67.17049	9.582242E-010	0.0096852	6
	40	57	100.4464	8675.709	-22542.7	1	24154.53	-68.95045	7.209503E-010	0.0096868	6
	41	58	79.00281	9992.26	-27876.34	1	29613.1	-70.27981	5.725526E-010	0.0096956	6
	42	60	63.3446	11661.31	-33946.72	1	35893.81	-71.04148	1.607247E-010	0.0096906	6
	43	61	49.86702	13494.86	-41789.33	1	43914.23	-72.10338	2.547012E-011	0.009681	6
	44	63	39.72458	16286.39	-50661.06	1	53214.56	-72.17857	7.136468E-010	0.0096882	6
	45	64	31.6723	19694.73	-61334.14	1	64418.62	-72.19789	3.123947E-010	0.0096944	6
	46	65	24.93351	24526.02	-74948.66	1	78859.54	-71.87996	3.379758E-010	0.0096899	6
	47	67	19.86229	30482.2	-90347.64	1	95351.3	-71.35623	9.522486E-011	0.0096857	6
	48	68	15.83615	38672.02	-107852.9	1	114576.5	-70.27406	-2.095957E-010	0.009695	5
	49	69	12.40079	48005.78	-131405.2	1	139899.5	-69.93142	6.668908E-010	0.0096973	5
	50	71	9.93114	60317.54	-155470.2	1	166760.9	-68.79532	3.074497E-010	0.009693	5
	51	73	7.944915	75767.66	-183737.6	1	198746.7	-67.59028	1.368805E-010	0.009693	5
	52	74	6.317385	95054.1	-216605.1	1	236544	-66.3064	4.754853E-012	0.0096803	5
	53	76	5.008013	119210.8	-254600.7	1	281127.6	-64.90976	-1.513194E-010	0.0096881	5
	54	79	3.945707	149441.3	-298370.4	1	333702.8	-63.39562	9.488951E-012	0.0096918	5
	55	81	3.158693	183567.7	-344036	1	389946	-61.91691	1.289508E-010	0.0096857	5
	56	85	2.504006	225051.7	-396716.5	1	456105.5	-60.43436	-1.631506E-010	0.0096927	5
	57	88	1.998082	271141.5	-451896.6	1	526999.3	-59.03591	2.079262E-010	0.0096487	5
	58	91	1.584686	324903.5	-516118.7	1	609869.5	-57.80905	-9.007366E-011	0.0096916	5
	59	94	1.266892	384706.4	-583162.8	1	698625.7	-56.58758	6.612839E-011	0.0096561	5
	60	99	0.999041	454299	-662935.1	1	803660.8	-55.57777	3.900972E-012	0.0097399	5
