EXPLAIN
TAG	EISPOT
TITLE	LABEL	Potentiostatic IDE	Test &Identifier
DATE	LABEL	9/8/2019	Date
TIME	LABEL	11:09:47	Time
NOTES	NOTES	1	&Notes...
	
PSTAT	PSTAT	REF600-11020	Potentiostat
VDC	POTEN	0.00000E+000	T	DC &Voltage (V)
FREQINIT	QUANT	1.00000E+006	Initial Fre&q. (Hz)
FREQFINAL	QUANT	1.00000E+000	Final Fre&q. (Hz)
PTSPERDEC	QUANT	1.00000E+001	Points/&decade
VAC	QUANT	2.50000E+001	AC &Voltage (mV rms)
AREA	QUANT	1.00000E-002	&Area (cm^2)
CONDIT	TWOPARAM	T	5.00000E+000	0.00000E+000	Conditionin&g	Time(s)	E(V)
DELAY	TWOPARAM	T	5.00000E+000	0.00000E+000	Init. De&lay	Time(s)	Stab.(mV/s)
SPEED	SELECTOR	1	&Optimize for:
ZGUESS	QUANT	1.00000E+007	E&stimated Z (ohms)
OCVCURVE	TABLE	19
	Pt	T	Vf	Vm	Ach	Over
	#	s	V vs. Ref.	V	V	bits
	0	0.258333	8.49617E-003	8.49617E-003	5.46799E-004	...........
	1	0.516667	8.49876E-003	8.63171E-003	5.39866E-004	...........
	2	0.775	8.51433E-003	8.74273E-003	5.50333E-004	...........
	3	1.03333	8.55767E-003	8.87079E-003	5.45033E-004	...........
	4	1.29167	8.63475E-003	8.98809E-003	5.49599E-004	...........
	5	1.55	8.73820E-003	9.11598E-003	5.49633E-004	...........
	6	1.80833	8.85607E-003	9.24121E-003	5.46166E-004	...........
	7	2.06667	8.98018E-003	9.38882E-003	5.52066E-004	...........
	8	2.325	9.10829E-003	9.53649E-003	5.58899E-004	...........
	9	2.58333	9.24158E-003	9.68205E-003	5.50899E-004	...........
	10	2.84167	9.38063E-003	9.82253E-003	5.44299E-004	...........
	11	3.1	9.52341E-003	9.95660E-003	5.50266E-004	...........
	12	3.35833	9.66640E-003	1.00864E-002	5.52299E-004	...........
	13	3.61667	9.80662E-003	1.02165E-002	5.47233E-004	...........
	14	3.875	9.94278E-003	1.03410E-002	5.46899E-004	...........
	15	4.13333	1.00750E-002	1.04640E-002	5.54733E-004	...........
	16	4.39167	1.02038E-002	1.05848E-002	5.54899E-004	...........
	17	4.65	1.03296E-002	1.07007E-002	5.54866E-004	...........
	18	4.90833	1.04526E-002	1.08177E-002	5.48566E-004	...........
EOC	QUANT	0.0104526	Open Circuit (V)
PSTATMODEL	IQUANT	4	Pstat Model
PSTATSECTION	LABEL	REF600-11020	Pstat Section
PSTATSERIALNO	LABEL	11020	Pstat Serial Number
CTRLMODE	IQUANT	1	Control Mode
IESTAB	IQUANT	0	I/E Stability
CASPEED	IQUANT	1	Control Amp Speed
CONVENTION	IQUANT	1	Current Convention
ICHRANGE	IQUANT	2	Ich Range
ICHRANGEMODE	TOGGLE	F	Ich Auto Range
ICHOFFSETENABLE	TOGGLE	T	Ich Offset Enable
ICHOFFSET	QUANT	0	Ich Offset (V)
ICHFILTER	IQUANT	3	Ich Filter
VCHRANGE	IQUANT	2	Vch Range
VCHRANGEMODE	TOGGLE	F	Vch Auto Range
VCHOFFSETENABLE	TOGGLE	T	Vch Offset Enable
VCHOFFSET	QUANT	0	Vch Offset (V)
VCHFILTER	IQUANT	3	Vch Filter
ACHRANGE	IQUANT	2	Ach Range
ACHOFFSETENABLE	TOGGLE	F	Ach Offset Enable
ACHOFFSET	QUANT	0	Ach Offset (V)
ACHFILTER	IQUANT	3	Ach Filter
IERANGELOWERLIMIT	IQUANT	1	I/E Range Lower Limit
IERANGEMODE	TOGGLE	F	I/E AutoRange
IERANGE	IQUANT	3	I/E Range
POSFEEDENABLE	TOGGLE	F	Positive Feedback IR Comp
POSFEEDRESISTANCE	QUANT	0	Positive Feedback Resistance (ohm)
ACHSELECT	IQUANT	0	Ach Select
CABLEID	IQUANT	14	Cable ID
DCCALDATE	LABEL	8/19/2019	DC Calibration Date
ACCALDATE	LABEL	8/19/2019	AC Calibration Date
THERMOSELECT	IQUANT	1	Thermo Select
FRAMEWORKVERSION	QUANT	6.33	Framework Version
INSTRUMENTVERSION	LABEL	3.50	Instrument Version
ZCURVE	TABLE
	Pt	Time	Freq	Zreal	Zimag	Zsig	Zmod	Zphz	Idc	Vdc	IERange
	#	s	Hz	ohm	ohm	V	ohm	°	A	V	#
	0	3	1000078	2536.394	-1632.793	1	3016.506	-32.77124	2.978245E-007	0.0132232	8
	1	4	794390.6	2842.43	-1554.788	1	3239.873	-28.67833	-6.108597E-006	0.0139374	8
	2	6	630984.4	3121.575	-1397.52	1	3420.131	-24.11791	1.359176E-006	0.0126429	8
	3	7	501234.4	3354.964	-1257.89	1	3583.025	-20.55273	-2.769085E-007	0.0125423	8
	4	9	398109.4	3526.301	-1098.389	1	3693.407	-17.30101	-3.652487E-006	0.0129856	8
	5	10	316265.6	3666.429	-926.0414	1	3781.568	-14.17492	1.698747E-006	0.0117897	8
	6	11	251203.1	3769.893	-808.6913	1	3855.655	-12.10721	-2.444177E-006	0.0124715	8
	7	13	199546.9	3838.698	-683.9971	1	3899.16	-10.1032	1.888876E-006	0.0116402	8
	8	14	158578.1	3884.886	-591.9379	1	3929.724	-8.663491	-6.340692E-007	0.0123694	8
	9	16	125953.1	3955.158	-474.5982	1	3983.531	-6.842476	3.626064E-007	0.0114317	7
	10	17	100078.1	3990.96	-423.7251	1	4013.391	-6.060459	-1.181956E-008	0.0121764	7
	11	18	79453.13	4020.993	-388.8262	1	4039.749	-5.523275	-3.065243E-009	0.0120689	7
	12	19	63140.62	4049.64	-368.1147	1	4066.336	-5.193947	-2.056454E-008	0.0121054	7
	13	21	50203.12	4077.165	-355.5996	1	4092.643	-4.984574	7.46625E-008	0.0120842	7
	14	22	39890.62	4101.842	-351.7378	1	4116.895	-4.901191	-4.320822E-008	0.0121443	7
	15	23	31640.63	4134.083	-357.9832	1	4149.553	-4.949077	-4.013595E-008	0.0121426	7
	16	25	25171.88	4163.583	-374.3484	1	4180.377	-5.137658	-9.302074E-009	0.0121461	7
	17	26	20015.62	4194.089	-398.4832	1	4212.977	-5.427418	-1.872055E-008	0.0122623	7
	18	27	15890.62	4228.256	-434.5971	1	4250.532	-5.868482	-4.118765E-008	0.0121693	7
	19	29	12609.37	4260.396	-481.377	1	4287.504	-6.446441	-4.225031E-008	0.012146	7
	20	30	10078.13	4297.535	-537.7494	1	4331.048	-7.132335	-4.17018E-008	0.0121473	7
	21	31	8015.625	4335.449	-613.9846	1	4378.709	-8.060604	7.609551E-008	0.012089	7
	22	33	6328.125	4379.938	-710.2831	1	4437.156	-9.21132	-1.88846E-008	0.012102	7
	23	34	5015.625	4428.302	-828.43	1	4505.125	-10.5962	-1.047723E-008	0.0121478	7
	24	35	3984.375	4481.537	-972.211	1	4585.779	-12.23992	-9.256731E-009	0.0121467	7
	25	37	3170.956	4540.259	-1149.318	1	4683.469	-14.2054	-9.839631E-009	0.0121446	7
	26	38	2527.573	4606.826	-1363.766	1	4804.446	-16.49041	1.388556E-007	0.0119167	7
	27	39	1976.103	4693.26	-1649.627	1	4974.732	-19.36599	2.477682E-009	0.0120568	7
	28	41	1577.524	4783.601	-1970.76	1	5173.658	-22.3908	-3.684331E-008	0.0122518	7
	29	42	1265.625	4886.455	-2354.815	1	5424.26	-25.72973	-6.458929E-008	0.0122141	7
	30	43	998.264	5020.309	-2856.658	1	5776.158	-29.64076	-4.955442E-008	0.0122222	7
	31	45	796.875	5171.414	-3433.471	1	6207.435	-33.58149	5.133119E-008	0.0119603	7
	32	46	627.7902	5356.938	-4180.459	1	6795.073	-37.96784	-6.415258E-008	0.0122105	7
	33	47	505.5147	5558.692	-5008.795	1	7482.452	-42.02121	-1.130252E-008	0.01214	7
	34	49	397.9953	5820.972	-6108.589	1	8437.925	-46.38111	5.57631E-009	0.0121315	7
	35	50	315.5048	6119.187	-7426.317	1	9622.61	-50.51193	6.780234E-009	0.0121314	7
	36	51	252.4038	6458.136	-8973.349	1	11055.7	-54.25736	1.585823E-009	0.0120687	6
	37	53	198.6229	6889.833	-11017.88	1	12994.75	-57.98093	1.253188E-009	0.0120702	6
	38	54	158.3615	7381.353	-13400.71	1	15299.13	-61.15324	8.009007E-010	0.0120663	6
	39	55	125.558	8006.416	-16399.8	1	18249.83	-63.97828	1.175967E-009	0.0120607	6
	40	57	100.4464	8745.538	-19931.59	1	21765.87	-66.3092	4.227028E-010	0.0120633	6
	41	58	79.00281	9752.76	-24650.87	1	26510.03	-68.4145	6.431332E-010	0.012063	6
	42	60	63.3446	11195.9	-29894.53	1	31922.26	-69.46841	7.639233E-010	0.012064	6
	43	61	49.86702	12574.08	-36976.75	1	39056.21	-71.21921	3.05194E-010	0.0120592	6
	44	62	39.72458	14851.33	-44993.29	1	47380.99	-71.73305	1.122487E-009	0.0120675	6
	45	64	31.6723	17472.26	-54666.95	1	57391.25	-72.27545	1.357616E-009	0.0120636	6
	46	65	24.93351	21451.01	-67121.7	1	70466.08	-72.27696	6.26407E-010	0.0120668	6
	47	66	19.86229	26262.83	-81254.51	1	85393.39	-72.08829	9.090411E-010	0.0120619	6
	48	68	15.83615	32503.52	-97789.9	1	103050.2	-71.61416	3.966679E-010	0.0120636	6
	49	69	12.40079	41361.02	-119446.2	1	126404.6	-70.90041	2.457055E-010	0.0120656	5
	50	70	9.93114	51380.61	-142757.6	1	151722.4	-70.20543	7.650709E-010	0.0120602	5
	51	72	7.944915	64172.19	-169168.1	1	180930.7	-69.22627	8.844865E-010	0.0120661	5
	52	74	6.317385	80641.13	-200905.5	1	216485.6	-68.13005	7.353174E-010	0.0120633	5
	53	76	5.008013	101435.7	-238345.4	1	259032.3	-66.94623	4.889962E-010	0.0120803	5
	54	78	3.945707	127717.3	-281946	1	309524.2	-65.63019	-7.704876E-011	0.0120613	5
	55	81	3.158693	157478	-327664.5	1	363542.8	-64.33071	4.019634E-010	0.0120809	5
	56	84	2.504006	194959.6	-381936	1	428817.4	-62.95791	-5.422014E-011	0.0120756	5
	57	87	1.998082	236302.4	-438938.2	1	498503.3	-61.7042	4.522677E-010	0.0120456	5
	58	90	1.584686	288246.3	-507160.4	1	583350.4	-60.38812	7.933288E-011	0.0120136	5
	59	94	1.266892	342713.3	-578804.6	1	672656.9	-59.37	3.173124E-010	0.0120617	5
	60	98	0.999041	411712.3	-666207.9	1	783160.3	-58.28419	-1.230384E-010	0.0120369	5
