EXPLAIN
TAG	EISPOT
TITLE	LABEL	Potentiostatic EIS	Test &Identifier
DATE	LABEL	10/20/2019	Date
TIME	LABEL	10:12:22	Time
NOTES	NOTES	1	&Notes...
	
PSTAT	PSTAT	REF600-11020	Potentiostat
VDC	POTEN	0.00000E+000	T	DC &Voltage (V)
FREQINIT	QUANT	1.00000E+006	Initial Fre&q. (Hz)
FREQFINAL	QUANT	1.00000E+000	Final Fre&q. (Hz)
PTSPERDEC	QUANT	1.00000E+001	Points/&decade
VAC	QUANT	2.50000E+001	AC &Voltage (mV rms)
AREA	QUANT	1.00000E-002	&Area (cm^2)
CONDIT	TWOPARAM	T	5.00000E+000	0.00000E+000	Conditionin&g	Time(s)	E(V)
DELAY	TWOPARAM	T	5.00000E+000	0.00000E+000	Init. De&lay	Time(s)	Stab.(mV/s)
SPEED	SELECTOR	1	&Optimize for:
ZGUESS	QUANT	1.00000E+005	E&stimated Z (ohms)
OCVCURVE	TABLE	19
	Pt	T	Vf	Vm	Ach	Over
	#	s	V vs. Ref.	V	V	bits
	0	0.258333	6.16867E-003	6.16867E-003	5.83832E-004	...........
	1	0.516667	6.16459E-003	5.95520E-003	5.80765E-004	...........
	2	0.775	6.14034E-003	5.79438E-003	5.80032E-004	...........
	3	1.03333	6.07455E-003	5.64868E-003	5.82499E-004	...........
	4	1.29167	5.96307E-003	5.53072E-003	5.85132E-004	...........
	5	1.55	5.82486E-003	5.42672E-003	5.77532E-004	...........
	6	1.80833	5.68431E-003	5.33435E-003	5.77966E-004	...........
	7	2.06667	5.55632E-003	5.24966E-003	5.80332E-004	...........
	8	2.325	5.44474E-003	5.17265E-003	5.78632E-004	...........
	9	2.58333	5.34992E-003	5.23119E-003	5.74132E-004	...........
	10	2.84167	5.27449E-003	5.07021E-003	5.72232E-004	...........
	11	3.1	5.21730E-003	5.11470E-003	5.70532E-004	...........
	12	3.35833	5.16971E-003	4.99573E-003	5.73399E-004	...........
	13	3.61667	5.12269E-003	4.93459E-003	5.69832E-004	...........
	14	3.875	5.06981E-003	4.85828E-003	5.79365E-004	...........
	15	4.13333	5.00765E-003	4.77674E-003	5.81765E-004	...........
	16	4.39167	4.93712E-003	4.68524E-003	5.78332E-004	...........
	17	4.65	4.87052E-003	5.13339E-003	5.74632E-004	...........
	18	4.90833	4.85128E-003	5.54602E-003	5.68566E-004	...........
EOC	QUANT	0.0048513	Open Circuit (V)
PSTATMODEL	IQUANT	4	Pstat Model
PSTATSECTION	LABEL	REF600-11020	Pstat Section
PSTATSERIALNO	LABEL	11020	Pstat Serial Number
CTRLMODE	IQUANT	1	Control Mode
IESTAB	IQUANT	0	I/E Stability
CASPEED	IQUANT	1	Control Amp Speed
CONVENTION	IQUANT	1	Current Convention
ICHRANGE	IQUANT	2	Ich Range
ICHRANGEMODE	TOGGLE	F	Ich Auto Range
ICHOFFSETENABLE	TOGGLE	T	Ich Offset Enable
ICHOFFSET	QUANT	0	Ich Offset (V)
ICHFILTER	IQUANT	3	Ich Filter
VCHRANGE	IQUANT	2	Vch Range
VCHRANGEMODE	TOGGLE	F	Vch Auto Range
VCHOFFSETENABLE	TOGGLE	T	Vch Offset Enable
VCHOFFSET	QUANT	0	Vch Offset (V)
VCHFILTER	IQUANT	3	Vch Filter
ACHRANGE	IQUANT	2	Ach Range
ACHOFFSETENABLE	TOGGLE	F	Ach Offset Enable
ACHOFFSET	QUANT	0	Ach Offset (V)
ACHFILTER	IQUANT	3	Ach Filter
IERANGELOWERLIMIT	IQUANT	1	I/E Range Lower Limit
IERANGEMODE	TOGGLE	F	I/E AutoRange
IERANGE	IQUANT	4	I/E Range
POSFEEDENABLE	TOGGLE	F	Positive Feedback IR Comp
POSFEEDRESISTANCE	QUANT	0	Positive Feedback Resistance (ohm)
ACHSELECT	IQUANT	0	Ach Select
CABLEID	IQUANT	14	Cable ID
DCCALDATE	LABEL	8/19/2019	DC Calibration Date
ACCALDATE	LABEL	8/19/2019	AC Calibration Date
THERMOSELECT	IQUANT	1	Thermo Select
FRAMEWORKVERSION	QUANT	6.33	Framework Version
INSTRUMENTVERSION	LABEL	3.50	Instrument Version
ZCURVE	TABLE
	Pt	Time	Freq	Zreal	Zimag	Zsig	Zmod	Zphz	Idc	Vdc	IERange
	#	s	Hz	ohm	ohm	V	ohm	°	A	V	#
	0	2	1000078	2467.814	-1528.587	1	2902.875	-31.77446	4.137744E-006	0.0060423	8
	1	3	794390.6	2762.24	-1450.017	1	3119.699	-27.69688	-5.764561E-006	0.0073056	8
	2	5	630984.4	3005.755	-1351.141	1	3295.473	-24.20478	4.76256E-006	0.0057897	8
	3	6	501234.4	3226.053	-1208.94	1	3445.135	-20.54312	-5.872005E-006	0.0076405	8
	4	8	398109.4	3379.026	-1081.585	1	3547.906	-17.74923	2.37784E-006	0.0057925	8
	5	9	316265.6	3533.563	-959.99	1	3661.646	-15.19913	2.852324E-006	0.005711	8
	6	11	251203.1	3636.601	-858.2332	1	3736.5	-13.27877	-3.578633E-007	0.0063025	8
	7	12	199546.9	3714.463	-752.3485	1	3789.89	-11.45011	-2.99251E-007	0.0064901	8
	8	13	158578.1	3774.483	-716.4336	1	3841.874	-10.74745	3.066075E-006	0.005731	8
	9	15	125953.1	3868.49	-596.3311	1	3914.182	-8.763218	-5.533684E-007	0.0071964	7
	10	16	100078.1	3922.115	-568.759	1	3963.139	-8.251136	-8.720749E-009	0.0063553	7
	11	18	79453.13	3974.772	-565.1108	1	4014.743	-8.091763	6.668329E-008	0.0061953	7
	12	19	63140.62	4030.226	-570.5728	1	4070.415	-8.058006	-3.485867E-008	0.0063291	7
	13	20	50203.12	4088.229	-588.4588	1	4130.363	-8.190884	6.730367E-008	0.0061843	7
	14	22	39890.62	4148.363	-614.9071	1	4193.688	-8.431495	1.431422E-007	0.0060773	7
	15	23	31640.63	4213.698	-653.3525	1	4264.05	-8.813777	-6.292256E-009	0.006333	7
	16	24	25171.88	4284.357	-703.1651	1	4341.677	-9.320508	-8.832377E-008	0.0064391	7
	17	26	20015.62	4346.208	-759.8165	1	4412.125	-9.9164	3.819818E-008	0.0061576	7
	18	27	15890.62	4439.919	-840.9794	1	4518.863	-10.72552	-4.841521E-008	0.0063919	7
	19	29	12609.37	4527.89	-931.0223	1	4622.617	-11.61918	-4.215499E-008	0.0063201	7
	20	30	10078.13	4620.708	-1032.158	1	4734.585	-12.59182	-5.470357E-008	0.0064651	7
	21	31	8015.625	4726.287	-1159.228	1	4866.374	-13.78102	1.53888E-008	0.0062076	7
	22	33	6328.125	4838.926	-1309.321	1	5012.936	-15.14059	-4.46897E-008	0.006317	7
	23	34	5015.625	4962.582	-1487.623	1	5180.756	-16.68705	-1.655618E-008	0.0062592	7
	24	35	3984.375	5074.916	-1696.7	1	5351.034	-18.48636	-5.212458E-009	0.0063331	7
	25	37	3170.956	5234.12	-1949.19	1	5585.28	-20.42536	1.464614E-007	0.0060754	7
	26	38	2527.573	5381.583	-2247.688	1	5832.113	-22.66849	-4.810816E-009	0.0063387	7
	27	40	1976.103	5558.629	-2647.43	1	6156.886	-25.46725	-4.551324E-008	0.0063204	7
	28	41	1577.524	5711.536	-3075.795	1	6487.076	-28.3035	-1.81222E-008	0.0062683	7
	29	42	1265.625	5917.855	-3624.61	1	6939.655	-31.48693	1.442247E-007	0.0060764	7
	30	44	998.264	6145.274	-4325.875	1	7515.157	-35.14306	6.58139E-008	0.0061815	7
	31	45	796.875	6388.699	-5142.265	1	8201.119	-38.8306	-1.310011E-008	0.0064486	7
	32	47	627.7902	6690.457	-6197.095	1	9119.551	-42.80767	4.172972E-008	0.0062534	7
	33	48	505.5147	7015.521	-7371.576	1	10176.33	-46.41768	-3.228918E-009	0.0061878	6
	34	49	397.9953	7415.067	-8956.249	1	11627.45	-50.37793	1.120378E-009	0.0062507	6
	35	51	315.5048	7886.193	-10850.32	1	13413.48	-53.98971	1.309502E-009	0.0062475	6
	36	52	252.4038	8427.025	-13070.44	1	15551.56	-57.18854	7.353759E-010	0.0062499	6
	37	53	198.6229	9133.705	-15988.58	1	18413.56	-60.26222	9.516078E-010	0.0062529	6
	38	55	158.3615	9951.09	-19363.53	1	21770.86	-62.80096	-2.789424E-010	0.0062432	6
	39	56	125.558	10969.05	-23610.47	1	26034.1	-65.08117	4.480632E-010	0.0062464	6
	40	58	100.4464	12139.75	-28608.13	1	31077.31	-67.00625	-8.187762E-010	0.0062476	6
	41	59	79.00281	13658.76	-35020.55	1	37589.91	-68.69316	1.006196E-009	0.0062512	6
	42	60	63.3446	15948.26	-41572.47	1	44526.59	-69.01191	4.873258E-010	0.0062448	6
	43	62	49.86702	18656.76	-52733.68	1	55936.71	-70.51662	4.474011E-010	0.0062438	6
	44	63	39.72458	21778.27	-63531.7	1	67160.77	-71.07861	5.419438E-010	0.0062421	6
	45	65	31.6723	25729.78	-76993.51	1	81178.95	-71.52135	-2.506119E-010	0.0062443	6
	46	66	24.93351	32071.86	-94111.54	1	99426.3	-71.18163	-9.008016E-011	0.006243	6
	47	68	19.86229	39682.95	-113675	1	120402.4	-70.75635	-3.633131E-010	0.0062488	5
	48	69	15.83615	49393.64	-139533.5	1	148018	-70.50648	3.189629E-009	0.0062467	5
	49	70	12.40079	65639.22	-162040.2	1	174830	-67.94812	-1.370869E-009	0.0062512	5
	50	72	9.93114	82221.85	-194947.8	1	211577.6	-67.13176	-5.390553E-011	0.0062558	5
	51	73	7.944915	103392.5	-230190.9	1	252344.8	-65.81229	-1.352174E-010	0.0062541	5
	52	75	6.317385	130481.6	-266112	1	296379.9	-63.8801	-2.436922E-010	0.0062528	5
	53	77	5.008013	163979.8	-307798.4	1	348753.9	-61.95351	-5.035469E-011	0.0062382	5
	54	80	3.945707	203207.5	-354888.8	1	408949.1	-60.20478	3.360214E-010	0.006252	5
	55	82	3.158693	245540	-402313.4	1	471323.6	-58.60345	-4.479483E-011	0.006241	5
	56	86	2.504006	294384.3	-455699.2	1	542516.3	-57.13731	3.983298E-010	0.0062427	5
	57	88	1.998082	345659.4	-512438.1	1	618120.7	-55.99881	8.475676E-011	0.0062903	5
	58	92	1.584686	400293.5	-578438	1	703438.3	-55.3158	1.959724E-010	0.0062429	5
	59	95	1.266892	459952.4	-652784.9	1	798551.4	-54.83147	1.149305E-010	0.0062871	5
	60	100	0.999041	526680.8	-745835	1	913051.2	-54.77169	1.015107E-011	0.0062087	5
