EXPLAIN
TAG	EISPOT
TITLE	LABEL	Potentiostatic EIS	Test &Identifier
DATE	LABEL	10/10/2019	Date
TIME	LABEL	9:36:56	Time
NOTES	NOTES	1	&Notes...
	
PSTAT	PSTAT	REF600-11020	Potentiostat
VDC	POTEN	0.00000E+000	T	DC &Voltage (V)
FREQINIT	QUANT	1.00000E+006	Initial Fre&q. (Hz)
FREQFINAL	QUANT	1.00000E+000	Final Fre&q. (Hz)
PTSPERDEC	QUANT	1.00000E+001	Points/&decade
VAC	QUANT	2.50000E+001	AC &Voltage (mV rms)
AREA	QUANT	1.00000E-002	&Area (cm^2)
CONDIT	TWOPARAM	T	5.00000E+000	0.00000E+000	Conditionin&g	Time(s)	E(V)
DELAY	TWOPARAM	T	5.00000E+000	0.00000E+000	Init. De&lay	Time(s)	Stab.(mV/s)
SPEED	SELECTOR	1	&Optimize for:
ZGUESS	QUANT	1.00000E+004	E&stimated Z (ohms)
OCVCURVE	TABLE	19
	Pt	T	Vf	Vm	Ach	Over
	#	s	V vs. Ref.	V	V	bits
	0	0.258333	5.73752E-003	5.73752E-003	5.66266E-004	...........
	1	0.516667	5.73595E-003	5.65543E-003	5.66966E-004	...........
	2	0.775	5.72661E-003	5.59295E-003	5.71599E-004	...........
	3	1.03333	5.70142E-003	5.54618E-003	5.70466E-004	...........
	4	1.29167	5.65945E-003	5.50664E-003	5.70899E-004	...........
	5	1.55	5.60885E-003	5.47235E-003	5.68832E-004	...........
	6	1.80833	5.55933E-003	5.44965E-003	5.69799E-004	...........
	7	2.06667	5.51645E-003	5.42801E-003	5.65666E-004	...........
	8	2.325	5.48167E-003	5.41012E-003	5.70566E-004	...........
	9	2.58333	5.45400E-003	5.39505E-003	5.69266E-004	...........
	10	2.84167	5.43179E-003	5.38652E-003	5.69566E-004	...........
	11	3.1	5.41373E-003	5.37347E-003	5.65966E-004	...........
	12	3.35833	5.39903E-003	5.36857E-003	5.70732E-004	...........
	13	3.61667	5.38694E-003	5.35791E-003	5.74165E-004	...........
	14	3.875	5.37684E-003	5.35540E-003	5.74066E-004	...........
	15	4.13333	5.36824E-003	5.34440E-003	5.71766E-004	...........
	16	4.39167	5.36070E-003	5.34299E-003	5.68399E-004	...........
	17	4.65	5.35392E-003	5.33693E-003	5.64699E-004	...........
	18	4.90833	5.34799E-003	5.33889E-003	5.65532E-004	...........
EOC	QUANT	0.005348	Open Circuit (V)
PSTATMODEL	IQUANT	4	Pstat Model
PSTATSECTION	LABEL	REF600-11020	Pstat Section
PSTATSERIALNO	LABEL	11020	Pstat Serial Number
CTRLMODE	IQUANT	1	Control Mode
IESTAB	IQUANT	0	I/E Stability
CASPEED	IQUANT	1	Control Amp Speed
CONVENTION	IQUANT	1	Current Convention
ICHRANGE	IQUANT	2	Ich Range
ICHRANGEMODE	TOGGLE	F	Ich Auto Range
ICHOFFSETENABLE	TOGGLE	T	Ich Offset Enable
ICHOFFSET	QUANT	0	Ich Offset (V)
ICHFILTER	IQUANT	3	Ich Filter
VCHRANGE	IQUANT	2	Vch Range
VCHRANGEMODE	TOGGLE	F	Vch Auto Range
VCHOFFSETENABLE	TOGGLE	T	Vch Offset Enable
VCHOFFSET	QUANT	0	Vch Offset (V)
VCHFILTER	IQUANT	3	Vch Filter
ACHRANGE	IQUANT	2	Ach Range
ACHOFFSETENABLE	TOGGLE	F	Ach Offset Enable
ACHOFFSET	QUANT	0	Ach Offset (V)
ACHFILTER	IQUANT	3	Ach Filter
IERANGELOWERLIMIT	IQUANT	1	I/E Range Lower Limit
IERANGEMODE	TOGGLE	F	I/E AutoRange
IERANGE	IQUANT	6	I/E Range
POSFEEDENABLE	TOGGLE	F	Positive Feedback IR Comp
POSFEEDRESISTANCE	QUANT	0	Positive Feedback Resistance (ohm)
ACHSELECT	IQUANT	0	Ach Select
CABLEID	IQUANT	14	Cable ID
DCCALDATE	LABEL	8/19/2019	DC Calibration Date
ACCALDATE	LABEL	8/19/2019	AC Calibration Date
THERMOSELECT	IQUANT	1	Thermo Select
FRAMEWORKVERSION	QUANT	6.33	Framework Version
INSTRUMENTVERSION	LABEL	3.50	Instrument Version
ZCURVE	TABLE
	Pt	Time	Freq	Zreal	Zimag	Zsig	Zmod	Zphz	Idc	Vdc	IERange
	#	s	Hz	ohm	ohm	V	ohm	°	A	V	#
	0	1	1000078	2622.212	-1804.798	1	3183.283	-34.5386	5.765717E-006	0.0064621	8
	1	2	794390.6	2972.456	-1715.502	1	3431.973	-29.99066	-5.188179E-006	0.0078422	8
	2	4	630984.4	3279.233	-1569.965	1	3635.679	-25.58323	3.206753E-006	0.0064282	8
	3	5	501234.4	3561.216	-1402.137	1	3827.303	-21.49076	-3.826913E-006	0.0076796	8
	4	7	398109.4	3742.963	-1211.703	1	3934.208	-17.93823	4.903194E-006	0.0061183	8
	5	8	316265.6	3916.91	-1040.854	1	4052.846	-14.88148	-6.154802E-007	0.0068473	8
	6	10	251203.1	4030.416	-899.4915	1	4129.568	-12.58087	2.920952E-006	0.0062413	8
	7	11	199546.9	4113.327	-767.0089	1	4184.228	-10.56259	-1.393564E-006	0.007124	8
	8	13	158578.1	4163.714	-646.9299	1	4213.672	-8.831617	-2.97081E-006	0.0074852	8
	9	14	125953.1	4234.812	-516.0469	1	4266.138	-6.947711	6.480323E-007	0.0054801	7
	10	16	100078.1	4274.843	-458.0004	1	4299.308	-6.115258	-1.700938E-008	0.0069729	7
	11	17	79453.13	4308.133	-418.0292	1	4328.367	-5.542206	-1.727814E-008	0.0069646	7
	12	18	63140.62	4339.646	-392.4026	1	4357.351	-5.166789	1.170079E-008	0.0067292	7
	13	20	50203.12	4367.919	-375.3694	1	4384.019	-4.911805	4.215028E-008	0.0066552	7
	14	21	39890.62	4397.762	-370.2818	1	4413.323	-4.812826	-1.473406E-008	0.0067645	7
	15	22	31640.63	4426.83	-373.785	1	4442.583	-4.826393	-8.783776E-008	0.0069486	7
	16	24	25171.88	4456.069	-387.6403	1	4472.898	-4.971732	-5.969955E-008	0.0069865	7
	17	25	20015.62	4503.726	-404.9805	1	4521.897	-5.138287	8.552649E-008	0.0066286	7
	18	27	15890.62	4523.027	-443.5504	1	4544.724	-5.6008	-3.38929E-008	0.0068237	7
	19	28	12609.37	4559.146	-490.7656	1	4585.483	-6.143901	-1.478563E-008	0.006765	7
	20	29	10078.13	4595.894	-547.1311	1	4628.346	-6.788986	-1.460902E-008	0.0069614	7
	21	31	8015.625	4649.208	-619.7173	1	4690.329	-7.592499	-1.688591E-008	0.0067642	7
	22	32	6328.125	4680.69	-712.3355	1	4734.584	-8.653218	-3.58713E-008	0.0068356	7
	23	33	5015.625	4727.774	-827.9042	1	4799.716	-9.93264	4.684154E-008	0.0066605	7
	24	35	3984.375	4779.208	-967.639	1	4876.182	-11.44586	1.525973E-009	0.0068393	7
	25	36	3170.956	4836.146	-1144.805	1	4969.797	-13.31783	-1.576388E-008	0.0067702	7
	26	37	2527.573	4901.514	-1358.355	1	5086.252	-15.48964	7.069006E-008	0.0066869	7
	27	39	1976.103	4982.479	-1642.407	1	5246.199	-18.2441	-5.839627E-008	0.006981	7
	28	40	1577.524	5061.414	-1960.789	1	5427.947	-21.17634	-4.403804E-008	0.0068311	7
	29	41	1265.625	5163.603	-2352.012	1	5674.042	-24.48918	7.089949E-008	0.0066847	7
	30	43	998.264	5289.682	-2851.792	1	6009.447	-28.33015	-4.261251E-008	0.0068271	7
	31	44	796.875	5422.697	-3438.808	1	6421.14	-32.38086	-1.711533E-008	0.0067682	7
	32	46	627.7902	5601.077	-4197.615	1	6999.431	-36.84899	8.873091E-008	0.0066152	7
	33	47	505.5147	5770.803	-5039.729	1	7661.66	-41.1312	4.318023E-008	0.0066578	7
	34	48	397.9953	6006.984	-6185.413	1	8622.25	-45.83843	5.704266E-009	0.0068141	7
	35	50	315.5048	6275.532	-7556.194	1	9822.34	-50.28986	5.133756E-009	0.0068124	7
	36	51	252.4038	6588.824	-9177.481	1	11297.73	-54.32415	8.425725E-010	0.0067522	6
	37	52	198.6229	6999.215	-11323.95	1	13312.43	-58.28023	8.558943E-010	0.0067503	6
	38	54	158.3615	7482.606	-13836.07	1	15729.79	-61.59529	1.098025E-009	0.0067458	6
	39	55	125.558	8108.764	-16990.31	1	18826.11	-64.48681	7.175714E-010	0.0067507	6
	40	56	100.4464	8902.721	-20702.59	1	22535.65	-66.73087	4.856602E-010	0.0067465	6
	41	58	79.00281	10006.49	-25660.87	1	27542.88	-68.69664	1.669826E-009	0.006746	6
	42	59	63.3446	11252.19	-31509.46	1	33458.29	-70.3481	7.145453E-010	0.0067521	6
	43	61	49.86702	12928.22	-38384.99	1	40503.66	-71.38626	4.325558E-010	0.0067443	6
	44	62	39.72458	15398.94	-46980.94	1	49440.22	-71.85241	1.445576E-009	0.0067505	6
	45	63	31.6723	18370.61	-56982.95	1	59870.99	-72.13131	2.291245E-010	0.0067483	6
	46	65	24.93351	22803.92	-70049.27	1	73667.63	-71.9678	3.906396E-010	0.0067504	6
	47	66	19.86229	28393.17	-84694.48	1	89327.09	-71.46667	8.234037E-010	0.0067563	6
	48	68	15.83615	35672.86	-101461.2	1	107549.7	-70.62878	6.552429E-010	0.006751	5
	49	69	12.40079	45065.67	-124344.4	1	132259	-70.07816	-1.274087E-010	0.0067538	5
	50	70	9.93114	57135.14	-147014.8	1	157726.9	-68.76212	7.10043E-010	0.0067537	5
	51	72	7.944915	71534.02	-174289	1	188397.9	-67.68512	4.607103E-010	0.0067504	5
	52	74	6.317385	91277.49	-203889.4	1	223388.6	-65.88283	7.92189E-010	0.0067505	5
	53	76	5.008013	115052.5	-238760.9	1	265035.5	-64.27184	5.571965E-010	0.006758	5
	54	78	3.945707	144608.9	-278289.4	1	313618.7	-62.54204	2.975222E-010	0.0067498	5
	55	81	3.158693	176936.4	-318125.6	1	364019.8	-60.91789	1.682283E-010	0.0067597	5
	56	84	2.504006	215074.9	-364257.7	1	423014.1	-59.4404	3.896156E-010	0.0067417	5
	57	87	1.998082	256167.2	-413038.5	1	486027.2	-58.19273	4.818303E-011	0.006793	5
	58	90	1.584686	301608.2	-469521.4	1	558048.3	-57.28438	3.324418E-010	0.0067581	5
	59	94	1.266892	351286.5	-530514.9	1	636276.9	-56.48901	1.223135E-010	0.0067949	5
	60	98	0.999041	408003	-605442.1	1	730086.7	-56.02426	5.135062E-011	0.0067101	5
