EXPLAIN
TAG	EISPOT
TITLE	LABEL	Potentiostatic EIS	Test &Identifier
DATE	LABEL	11/20/2019	Date
TIME	LABEL	12:05:36	Time
NOTES	NOTES	4	&Notes...
	
	
	
	
PSTAT	PSTAT	REF600-11020	Potentiostat
VDC	POTEN	0.00000E+000	T	DC &Voltage (V)
FREQINIT	QUANT	1.00000E+006	Initial Fre&q. (Hz)
FREQFINAL	QUANT	1.00000E+000	Final Fre&q. (Hz)
PTSPERDEC	QUANT	1.00000E+001	Points/&decade
VAC	QUANT	2.50000E+001	AC &Voltage (mV rms)
AREA	QUANT	1.00000E-002	&Area (cm^2)
CONDIT	TWOPARAM	T	5.00000E+000	0.00000E+000	Conditionin&g	Time(s)	E(V)
DELAY	TWOPARAM	T	5.00000E+000	0.00000E+000	Init. De&lay	Time(s)	Stab.(mV/s)
SPEED	SELECTOR	1	&Optimize for:
ZGUESS	QUANT	1.00000E+005	E&stimated Z (ohms)
OCVCURVE	TABLE	19
	Pt	T	Vf	Vm	Ach	Over
	#	s	V vs. Ref.	V	V	bits
	0	0.258333	6.11358E-003	6.11358E-003	5.69599E-004	...........
	1	0.516667	6.11063E-003	5.95928E-003	5.64066E-004	...........
	2	0.775	6.09312E-003	5.84388E-003	5.59499E-004	...........
	3	1.03333	6.04562E-003	5.73740E-003	5.59166E-004	...........
	4	1.29167	5.96511E-003	5.65163E-003	5.62866E-004	...........
	5	1.55	5.86512E-003	5.57565E-003	5.60532E-004	...........
	6	1.80833	5.76313E-003	5.50539E-003	5.57833E-004	...........
	7	2.06667	5.66987E-003	5.44831E-003	5.58399E-004	...........
	8	2.325	5.58849E-003	5.39645E-003	5.63399E-004	...........
	9	2.58333	5.51831E-003	5.35104E-003	5.64566E-004	...........
	10	2.84167	5.45754E-003	5.30658E-003	5.62832E-004	...........
	11	3.1	5.40419E-003	5.26982E-003	5.63566E-004	...........
	12	3.35833	5.35652E-003	5.23010E-003	5.63866E-004	...........
	13	3.61667	5.31320E-003	5.19976E-003	5.58066E-004	...........
	14	3.875	5.27342E-003	5.16746E-003	5.59632E-004	...........
	15	4.13333	5.23687E-003	5.14294E-003	5.57732E-004	...........
	16	4.39167	5.20346E-003	5.11531E-003	5.62766E-004	...........
	17	4.65	5.17297E-003	5.09102E-003	5.63699E-004	...........
	18	4.90833	5.14478E-003	5.06248E-003	5.61299E-004	...........
EOC	QUANT	0.0051448	Open Circuit (V)
PSTATMODEL	IQUANT	4	Pstat Model
PSTATSECTION	LABEL	REF600-11020	Pstat Section
PSTATSERIALNO	LABEL	11020	Pstat Serial Number
CTRLMODE	IQUANT	1	Control Mode
IESTAB	IQUANT	0	I/E Stability
CASPEED	IQUANT	1	Control Amp Speed
CONVENTION	IQUANT	1	Current Convention
ICHRANGE	IQUANT	2	Ich Range
ICHRANGEMODE	TOGGLE	F	Ich Auto Range
ICHOFFSETENABLE	TOGGLE	T	Ich Offset Enable
ICHOFFSET	QUANT	0	Ich Offset (V)
ICHFILTER	IQUANT	3	Ich Filter
VCHRANGE	IQUANT	2	Vch Range
VCHRANGEMODE	TOGGLE	F	Vch Auto Range
VCHOFFSETENABLE	TOGGLE	T	Vch Offset Enable
VCHOFFSET	QUANT	0	Vch Offset (V)
VCHFILTER	IQUANT	3	Vch Filter
ACHRANGE	IQUANT	2	Ach Range
ACHOFFSETENABLE	TOGGLE	F	Ach Offset Enable
ACHOFFSET	QUANT	0	Ach Offset (V)
ACHFILTER	IQUANT	3	Ach Filter
IERANGELOWERLIMIT	IQUANT	1	I/E Range Lower Limit
IERANGEMODE	TOGGLE	F	I/E AutoRange
IERANGE	IQUANT	4	I/E Range
POSFEEDENABLE	TOGGLE	F	Positive Feedback IR Comp
POSFEEDRESISTANCE	QUANT	0	Positive Feedback Resistance (ohm)
ACHSELECT	IQUANT	0	Ach Select
CABLEID	IQUANT	14	Cable ID
DCCALDATE	LABEL	8/19/2019	DC Calibration Date
ACCALDATE	LABEL	8/19/2019	AC Calibration Date
THERMOSELECT	IQUANT	1	Thermo Select
FRAMEWORKVERSION	QUANT	6.33	Framework Version
INSTRUMENTVERSION	LABEL	3.50	Instrument Version
ZCURVE	TABLE
	Pt	Time	Freq	Zreal	Zimag	Zsig	Zmod	Zphz	Idc	Vdc	IERange
	#	s	Hz	ohm	ohm	V	ohm	°	A	V	#
	0	2	1000078	2290.877	-2267.707	1	3223.447	-44.70879	1.096191E-005	0.005947	8
	1	3	794390.6	2764.11	-2373.145	1	3643.092	-40.64795	-6.824779E-006	0.0070645	8
	2	4	630984.4	3256.895	-2366.627	1	4025.952	-36.00408	1.49246E-006	0.0066829	8
	3	6	501234.4	3742.297	-2298.025	1	4391.549	-31.55275	-3.807424E-006	0.0074678	8
	4	7	398109.4	4134.881	-2122.157	1	4647.666	-27.16839	6.111959E-006	0.0057607	8
	5	8	316265.6	4531.609	-1930.638	1	4925.732	-23.07585	-6.92124E-007	0.0072489	8
	6	10	251203.1	4820.456	-1711.851	1	5115.391	-19.55108	-3.155868E-007	0.0072299	8
	7	11	199546.9	5074.328	-1500.242	1	5291.458	-16.47049	-1.35722E-006	0.0066077	8
	8	12	158578.1	5233.605	-1277.703	1	5387.314	-13.71951	-7.648573E-007	0.0071982	8
	9	14	125953.1	5419.685	-1068.592	1	5524.026	-11.15386	1.203273E-006	0.0082866	7
	10	15	100078.1	5499.184	-923.3196	1	5576.159	-9.53113	-7.127995E-007	0.0066038	7
	11	16	79453.13	5574.688	-815.6118	1	5634.037	-8.323676	-2.981695E-007	0.00811	7
	12	18	63140.62	5648.679	-726.7181	1	5695.234	-7.33099	1.235207E-007	0.0054033	7
	13	19	50203.12	5712.707	-651.079	1	5749.688	-6.501963	7.741875E-007	0.0050018	7
	14	21	39890.62	5758.357	-606.2319	1	5790.181	-6.009882	1.216642E-007	0.0053977	7
	15	22	31640.63	5812.734	-581.5703	1	5841.755	-5.71349	9.778544E-007	0.0050912	7
	16	23	25171.88	5841.145	-560.6101	1	5867.986	-5.482232	-6.20365E-007	0.0083359	7
	17	25	20015.62	5903.171	-554.2491	1	5929.133	-5.36378	1.076183E-006	0.005325	7
	18	26	15890.62	5925.61	-584.6981	1	5954.388	-5.635308	-7.119665E-007	0.0065929	7
	19	27	12609.37	5977.563	-615.7532	1	6009.194	-5.881337	3.683931E-007	0.0073115	7
	20	29	10078.13	6023.111	-657.9822	1	6058.944	-6.234436	4.909865E-007	0.0051002	7
	21	30	8015.625	6072.445	-726.2501	1	6115.72	-6.820046	1.079803E-006	0.0053151	7
	22	32	6328.125	6103.646	-827.2894	1	6159.456	-7.718843	8.12985E-007	0.0065536	7
	23	33	5015.625	6167.901	-955.933	1	6241.54	-8.809902	1.086171E-006	0.0056448	7
	24	35	3984.375	6205.341	-1125.6	1	6306.602	-10.28122	8.144133E-007	0.0065543	7
	25	36	3170.956	6261.731	-1290.594	1	6393.349	-11.64605	-1.022464E-006	0.0072503	7
	26	38	2527.573	6323.621	-1531.918	1	6506.532	-13.61774	-1.02302E-006	0.0072607	7
	27	39	1976.103	6430.136	-1850.664	1	6691.159	-16.0564	1.074894E-006	0.0053165	7
	28	41	1577.524	6531.512	-2142.035	1	6873.788	-18.15711	-2.981821E-007	0.0059157	7
	29	42	1265.625	6601.403	-2656.369	1	7115.815	-21.91959	-1.073234E-006	0.0083396	7
	30	44	998.264	6729.26	-3226.176	1	7462.65	-25.61423	-2.926153E-007	0.0080928	7
	31	45	796.875	6873.022	-3893.312	1	7899.133	-29.52994	-8.834667E-007	0.0084018	7
	32	47	627.7902	7056.632	-4788.454	1	8527.916	-34.15983	4.849956E-007	0.0050887	7
	33	48	505.5147	7237.606	-5752.345	1	9245.129	-38.47717	-1.199876E-006	0.0081572	7
	34	49	397.9953	7482.896	-7096.006	1	10312.47	-43.47986	2.683877E-009	0.0067781	7
	35	51	315.5048	7773.083	-8698.394	1	11665.46	-48.2153	-1.05404E-010	0.006717	6
	36	52	252.4038	8113.025	-10599.66	1	13348.18	-52.56939	3.386373E-010	0.0067152	6
	37	53	198.6229	8567.279	-13119.2	1	15668.82	-56.85412	7.916294E-010	0.006709	6
	38	55	158.3615	9106.842	-16061.81	1	18463.92	-60.44732	1.512144E-009	0.0067089	6
	39	56	125.558	9842.49	-19766.03	1	22081	-63.529	4.638841E-010	0.0067183	6
	40	57	100.4464	10703.99	-24136.88	1	26403.88	-66.08414	1.820407E-009	0.0067148	6
	41	59	79.00281	11942.96	-29987.9	1	32278.61	-68.28462	1.102304E-009	0.0067192	6
	42	60	63.3446	13975.22	-36683.18	1	39255.09	-69.14462	7.854896E-010	0.0067177	6
	43	62	49.86702	15471.35	-45223.92	1	47797.13	-71.1139	1.225627E-009	0.0067206	6
	44	63	39.72458	18594.95	-54916.63	1	57979.38	-71.29373	1.103149E-009	0.0067144	6
	45	64	31.6723	22451.69	-66990.04	1	70652.27	-71.47144	1.39289E-009	0.0067118	6
	46	66	24.93351	27935.14	-81740.73	1	86382.41	-71.13198	1.12645E-009	0.0067059	6
	47	67	19.86229	34706.78	-98927.2	1	104838.7	-70.66752	1.191145E-009	0.006712	6
	48	68	15.83615	43650.26	-116932.6	1	124814.1	-69.52969	-4.423401E-010	0.0067233	5
	49	70	12.40079	57211.35	-142981.6	1	154002.8	-68.19212	1.741435E-009	0.0067175	5
	50	71	9.93114	71076.19	-168532.7	1	182907.4	-67.13313	7.561516E-010	0.0067155	5
	51	73	7.944915	88016.09	-195915.6	1	214778.4	-65.80775	-6.247052E-010	0.0067077	5
	52	74	6.317385	110456.7	-230228.7	1	255354.5	-64.36973	2.801805E-010	0.006709	5
	53	77	5.008013	136925.5	-267387.7	1	300407.7	-62.88365	3.001498E-010	0.0067197	5
	54	79	3.945707	168491.3	-309602	1	352480.8	-61.44412	4.996932E-011	0.00671	5
	55	82	3.158693	202497.5	-354283.6	1	408071.2	-60.24906	1.757273E-010	0.0067232	5
	56	85	2.504006	241532.2	-406065.5	1	472469	-59.25536	4.441204E-011	0.0067224	5
	57	88	1.998082	283172.1	-462684.7	1	542460.7	-58.53255	3.44316E-010	0.0066965	5
	58	91	1.584686	332996.8	-531776.4	1	627433.8	-57.94532	2.796598E-011	0.0066775	5
	59	95	1.266892	384575.4	-605801.4	1	717560.9	-57.59176	2.553281E-010	0.006697	5
	60	99	0.999041	447867.9	-700868.8	1	831746.8	-57.42068	-1.010932E-010	0.0067245	5
