EXPLAIN
TAG	EISPOT
TITLE	LABEL	Potentiostatic IDE	Test &Identifier
DATE	LABEL	9/14/2019	Date
TIME	LABEL	9:56:36	Time
NOTES	NOTES	1	&Notes...
	
PSTAT	PSTAT	REF600-11020	Potentiostat
VDC	POTEN	0.00000E+000	T	DC &Voltage (V)
FREQINIT	QUANT	1.00000E+006	Initial Fre&q. (Hz)
FREQFINAL	QUANT	1.00000E+000	Final Fre&q. (Hz)
PTSPERDEC	QUANT	1.00000E+001	Points/&decade
VAC	QUANT	2.50000E+001	AC &Voltage (mV rms)
AREA	QUANT	1.00000E-002	&Area (cm^2)
CONDIT	TWOPARAM	T	5.00000E+000	0.00000E+000	Conditionin&g	Time(s)	E(V)
DELAY	TWOPARAM	T	5.00000E+000	0.00000E+000	Init. De&lay	Time(s)	Stab.(mV/s)
SPEED	SELECTOR	1	&Optimize for:
ZGUESS	QUANT	1.00000E+007	E&stimated Z (ohms)
OCVCURVE	TABLE	19
	Pt	T	Vf	Vm	Ach	Over
	#	s	V vs. Ref.	V	V	bits
	0	0.258333	3.32838E-003	3.32838E-003	5.64899E-004	...........
	1	0.516667	3.32434E-003	3.11729E-003	5.63432E-004	...........
	2	0.775	3.29895E-003	2.88394E-003	5.66966E-004	...........
	3	1.03333	3.22663E-003	2.74594E-003	5.63166E-004	...........
	4	1.29167	3.09950E-003	2.57064E-003	5.64799E-004	...........
	5	1.55	2.93655E-003	2.40802E-003	5.68366E-004	...........
	6	1.80833	2.76450E-003	2.35369E-003	5.67232E-004	...........
	7	2.06667	2.60407E-003	2.25144E-003	5.72366E-004	...........
	8	2.325	2.46636E-003	2.09918E-003	5.66899E-004	...........
	9	2.58333	2.34591E-003	1.91383E-003	5.68066E-004	...........
	10	2.84167	2.22697E-003	1.90571E-003	5.65132E-004	...........
	11	3.1	2.09636E-003	1.32220E-003	5.66399E-004	...........
	12	3.35833	1.95095E-003	2.03086E-003	5.64766E-004	...........
	13	3.61667	1.81999E-003	1.63436E-003	5.65699E-004	...........
	14	3.875	1.72962E-003	8.55601E-004	5.65666E-004	...........
	15	4.13333	1.63049E-003	1.27045E-003	5.64632E-004	...........
	16	4.39167	1.47471E-003	1.15158E-003	5.64266E-004	...........
	17	4.65	1.31105E-003	1.10412E-003	5.72399E-004	...........
	18	4.90833	1.20192E-003	1.11629E-003	5.66366E-004	...........
EOC	QUANT	0.0012019	Open Circuit (V)
PSTATMODEL	IQUANT	4	Pstat Model
PSTATSECTION	LABEL	REF600-11020	Pstat Section
PSTATSERIALNO	LABEL	11020	Pstat Serial Number
CTRLMODE	IQUANT	1	Control Mode
IESTAB	IQUANT	0	I/E Stability
CASPEED	IQUANT	1	Control Amp Speed
CONVENTION	IQUANT	1	Current Convention
ICHRANGE	IQUANT	2	Ich Range
ICHRANGEMODE	TOGGLE	F	Ich Auto Range
ICHOFFSETENABLE	TOGGLE	T	Ich Offset Enable
ICHOFFSET	QUANT	0	Ich Offset (V)
ICHFILTER	IQUANT	3	Ich Filter
VCHRANGE	IQUANT	2	Vch Range
VCHRANGEMODE	TOGGLE	F	Vch Auto Range
VCHOFFSETENABLE	TOGGLE	T	Vch Offset Enable
VCHOFFSET	QUANT	0	Vch Offset (V)
VCHFILTER	IQUANT	3	Vch Filter
ACHRANGE	IQUANT	2	Ach Range
ACHOFFSETENABLE	TOGGLE	F	Ach Offset Enable
ACHOFFSET	QUANT	0	Ach Offset (V)
ACHFILTER	IQUANT	3	Ach Filter
IERANGELOWERLIMIT	IQUANT	1	I/E Range Lower Limit
IERANGEMODE	TOGGLE	F	I/E AutoRange
IERANGE	IQUANT	2	I/E Range
POSFEEDENABLE	TOGGLE	F	Positive Feedback IR Comp
POSFEEDRESISTANCE	QUANT	0	Positive Feedback Resistance (ohm)
ACHSELECT	IQUANT	0	Ach Select
CABLEID	IQUANT	14	Cable ID
DCCALDATE	LABEL	8/19/2019	DC Calibration Date
ACCALDATE	LABEL	8/19/2019	AC Calibration Date
THERMOSELECT	IQUANT	1	Thermo Select
FRAMEWORKVERSION	QUANT	6.33	Framework Version
INSTRUMENTVERSION	LABEL	3.50	Instrument Version
ZCURVE	TABLE
	Pt	Time	Freq	Zreal	Zimag	Zsig	Zmod	Zphz	Idc	Vdc	IERange
	#	s	Hz	ohm	ohm	V	ohm	°	A	V	#
	0	2	1000078	2383.725	-1478.94	1	2805.247	-31.8168	-2.221777E-006	0.0046999	8
	1	3	794390.6	2694.291	-1370.03	1	3022.612	-26.95305	-1.341013E-006	0.0035188	8
	2	5	630984.4	2912.166	-1255.172	1	3171.146	-23.31651	-1.133168E-006	0.0035874	8
	3	6	501234.4	3097.976	-1086.789	1	3283.073	-19.33118	-7.921008E-007	0.0032531	8
	4	7	398109.4	3229.143	-942.1948	1	3363.792	-16.26611	-3.141281E-006	0.0036152	8
	5	9	316265.6	3343.477	-800.5927	1	3437.992	-13.46589	-1.189415E-006	0.0030365	8
	6	10	251203.1	3417.102	-697.4532	1	3487.553	-11.536	-2.985789E-006	0.003531	8
	7	12	199546.9	3482.74	-591.7422	1	3532.653	-9.64287	1.507601E-006	0.0024745	8
	8	13	158578.1	3534.895	-518.52	1	3572.722	-8.344984	-3.014496E-006	0.0035284	8
	9	14	125953.1	3594.554	-426.2149	1	3619.734	-6.762125	1.34161E-006	-4.121688E-005	7
	10	16	100078.1	3614.65	-382.8656	1	3634.87	-6.046254	2.543709E-008	0.002839	7
	11	17	79453.13	3640.848	-365.3056	1	3659.128	-5.729614	-3.557909E-008	0.0029779	7
	12	18	63140.62	3668.335	-357.7407	1	3685.737	-5.569945	4.685402E-008	0.002715	7
	13	20	50203.12	3697.869	-357.7643	1	3715.135	-5.526097	-3.980933E-008	0.002875	7
	14	21	39890.62	3734.557	-366.9535	1	3752.542	-5.611807	-5.415194E-008	0.0029301	7
	15	22	31640.63	3761.681	-385.855	1	3781.419	-5.85664	-1.15336E-008	0.0029786	7
	16	24	25171.88	3797.789	-413.7599	1	3820.261	-6.217713	1.213126E-007	0.0026866	7
	17	25	20015.62	3837.657	-449.6709	1	3863.912	-6.683062	5.950419E-008	0.0028441	7
	18	26	15890.62	3883.387	-492.1207	1	3914.444	-7.222289	6.052622E-008	0.002842	7
	19	28	12609.37	3932.995	-550.2408	1	3971.299	-7.964202	7.719878E-008	0.0026979	7
	20	29	10078.13	3986.701	-613.6562	1	4033.653	-8.750622	-2.584493E-008	0.0028538	7
	21	30	8015.625	4048.104	-689.9797	1	4106.484	-9.67283	-5.687417E-008	0.0029292	7
	22	32	6328.125	4115.534	-783.2955	1	4189.412	-10.77603	-4.757288E-008	0.0029399	7
	23	33	5015.625	4189.56	-890.8264	1	4283.221	-12.00403	-1.498252E-008	0.0029666	7
	24	34	3984.375	4267.785	-1018.16	1	4387.555	-13.41816	7.752696E-008	0.002696	7
	25	36	3170.956	4350.81	-1170.256	1	4505.446	-15.05478	-1.304163E-008	0.0028867	7
	26	37	2527.573	4441.156	-1350.246	1	4641.878	-16.91086	-4.147831E-008	0.0028632	7
	27	38	1976.103	4547.441	-1589.477	1	4817.225	-19.26617	4.626021E-008	0.002699	7
	28	40	1577.524	4653.668	-1856.594	1	5010.346	-21.74966	6.067226E-009	0.0027759	7
	29	41	1265.625	4765.435	-2172.743	1	5237.383	-24.51004	4.821738E-009	0.0027747	7
	30	42	998.264	4901.861	-2589.184	1	5543.655	-27.84321	2.804644E-008	0.0028223	7
	31	44	796.875	5046.439	-3076.901	1	5910.488	-31.37138	-4.198778E-008	0.002908	7
	32	45	627.7902	5210.586	-3704.928	1	6393.489	-35.4143	-3.602012E-008	0.0028709	7
	33	46	505.5147	5383.301	-4411.293	1	6959.845	-39.33257	-4.525432E-008	0.0029457	7
	34	48	397.9953	5597.664	-5358.297	1	7748.883	-43.7484	5.389657E-009	0.0028681	7
	35	49	315.5048	5838.122	-6503.376	1	8739.426	-48.08548	5.978574E-009	0.0028646	7
	36	50	252.4038	6107.996	-7856.994	1	9951.88	-52.13865	1.52272E-009	0.0028094	6
	37	52	198.6229	6448.582	-9659.74	1	11614.42	-56.274	1.157056E-009	0.0028031	6
	38	53	158.3615	6838.211	-11766.91	1	13609.6	-59.83745	1.161211E-009	0.0027967	6
	39	54	125.558	7330.637	-14439.96	1	16194.16	-63.08478	1.372341E-009	0.0028	6
	40	56	100.4464	7912.248	-17594.51	1	19291.72	-65.78656	4.104357E-010	0.0027931	6
	41	57	79.00281	8717.528	-21775.1	1	23455.29	-68.18161	1.347671E-009	0.00279	6
	42	58	63.3446	9693.83	-26743.87	1	28446.52	-70.07598	4.245114E-010	0.0027965	6
	43	60	49.86702	11034.3	-32705.25	1	34516.51	-71.35632	6.786829E-010	0.0027904	6
	44	61	39.72458	12826.78	-40203.48	1	42200.07	-72.30489	1.115454E-009	0.0027935	6
	45	62	31.6723	14997.24	-49077.31	1	51317.63	-73.00768	1.375476E-009	0.0027888	6
	46	64	24.93351	18240.21	-60374.93	1	63070.11	-73.18961	1.104593E-009	0.0027911	6
	47	65	19.86229	22188.69	-73378.69	1	76660.09	-73.17542	1.165869E-009	0.0027898	6
	48	66	15.83615	27413.49	-89317.61	1	93429.84	-72.93763	1.859632E-009	0.0027902	6
	49	68	12.40079	34179.53	-108894.1	1	114132.2	-72.57404	1.050321E-009	0.0028022	5
	50	69	9.93114	43394.32	-130831.9	1	137840.7	-71.65036	2.075635E-010	0.002799	5
	51	71	7.944915	54656.4	-156197.7	1	165484.3	-70.71413	4.44398E-010	0.0027904	5
	52	72	6.317385	68878.1	-186580.5	1	198888.1	-69.73786	-5.445459E-011	0.0027929	5
	53	74	5.008013	87661.73	-222668.7	1	239303	-68.51109	1.085413E-010	0.0027922	5
	54	77	3.945707	111608.3	-264882.5	1	287435.5	-67.15187	3.757687E-010	0.002795	5
	55	79	3.158693	139202.3	-309828.9	1	339663.4	-65.80621	1.66165E-010	0.0028063	5
	56	83	2.504006	173775.5	-362599.8	1	402090.2	-64.39398	2.287037E-010	0.0027882	5
	57	85	1.998082	213580.7	-420079.8	1	471257.7	-63.0499	-3.662817E-012	0.0028049	5
	58	89	1.584686	263776.9	-486305.4	1	553237.1	-61.52416	3.873724E-010	0.0028428	5
	59	92	1.266892	317986.5	-557026.4	1	641399.9	-60.2795	-2.877887E-011	0.0028057	5
	60	97	0.999041	385270.3	-642266.4	1	748958.8	-59.04211	5.11349E-010	0.00281	5
