EXPLAIN
TAG	EISPOT
TITLE	LABEL	Potentiostatic EIS	Test &Identifier
DATE	LABEL	10/24/2019	Date
TIME	LABEL	8:21:56	Time
NOTES	NOTES	1	&Notes...
	
PSTAT	PSTAT	REF600-11020	Potentiostat
VDC	POTEN	0.00000E+000	T	DC &Voltage (V)
FREQINIT	QUANT	1.00000E+006	Initial Fre&q. (Hz)
FREQFINAL	QUANT	1.00000E+000	Final Fre&q. (Hz)
PTSPERDEC	QUANT	1.00000E+001	Points/&decade
VAC	QUANT	2.50000E+001	AC &Voltage (mV rms)
AREA	QUANT	1.00000E-002	&Area (cm^2)
CONDIT	TWOPARAM	T	5.00000E+000	0.00000E+000	Conditionin&g	Time(s)	E(V)
DELAY	TWOPARAM	T	5.00000E+000	0.00000E+000	Init. De&lay	Time(s)	Stab.(mV/s)
SPEED	SELECTOR	1	&Optimize for:
ZGUESS	QUANT	1.00000E+005	E&stimated Z (ohms)
OCVCURVE	TABLE	19
	Pt	T	Vf	Vm	Ach	Over
	#	s	V vs. Ref.	V	V	bits
	0	0.258333	-9.99502E-004	-9.99502E-004	5.49599E-004	...........
	1	0.516667	-1.01251E-003	-1.68028E-003	5.51499E-004	...........
	2	0.775	-1.08734E-003	-2.06223E-003	5.47633E-004	...........
	3	1.03333	-1.26851E-003	-1.70703E-003	5.53266E-004	...........
	4	1.29167	-1.49608E-003	-1.15414E-003	5.54966E-004	...........
	5	1.55	-1.60695E-003	-4.05963E-004	5.55499E-004	...........
	6	1.80833	-1.49144E-003	-9.76502E-004	5.50133E-004	...........
	7	2.06667	-1.16512E-003	2.23148E-003	5.51799E-004	...........
	8	2.325	-6.63207E-004	-9.98652E-005	5.52166E-004	...........
	9	2.58333	-8.60978E-005	3.51483E-004	5.49999E-004	...........
	10	2.84167	3.08788E-004	-8.08184E-004	5.52366E-004	...........
	11	3.1	2.65365E-004	-4.22358E-003	5.49399E-004	...........
	12	3.35833	-3.24943E-004	-2.53813E-003	5.50033E-004	...........
	13	3.61667	-1.25796E-003	-1.07732E-003	5.53099E-004	...........
	14	3.875	-2.00304E-003	-2.30887E-003	5.50833E-004	...........
	15	4.13333	-2.23494E-003	-1.59100E-003	5.49033E-004	...........
	16	4.39167	-2.12778E-003	-2.02118E-003	5.44366E-004	...........
	17	4.65	-1.99194E-003	-2.80717E-003	5.47633E-004	...........
	18	4.90833	-1.99780E-003	-2.54974E-003	5.47899E-004	...........
EOC	QUANT	-0.0019978	Open Circuit (V)
PSTATMODEL	IQUANT	4	Pstat Model
PSTATSECTION	LABEL	REF600-11020	Pstat Section
PSTATSERIALNO	LABEL	11020	Pstat Serial Number
CTRLMODE	IQUANT	1	Control Mode
IESTAB	IQUANT	0	I/E Stability
CASPEED	IQUANT	1	Control Amp Speed
CONVENTION	IQUANT	1	Current Convention
ICHRANGE	IQUANT	2	Ich Range
ICHRANGEMODE	TOGGLE	F	Ich Auto Range
ICHOFFSETENABLE	TOGGLE	T	Ich Offset Enable
ICHOFFSET	QUANT	0	Ich Offset (V)
ICHFILTER	IQUANT	3	Ich Filter
VCHRANGE	IQUANT	2	Vch Range
VCHRANGEMODE	TOGGLE	F	Vch Auto Range
VCHOFFSETENABLE	TOGGLE	T	Vch Offset Enable
VCHOFFSET	QUANT	0	Vch Offset (V)
VCHFILTER	IQUANT	3	Vch Filter
ACHRANGE	IQUANT	2	Ach Range
ACHOFFSETENABLE	TOGGLE	F	Ach Offset Enable
ACHOFFSET	QUANT	0	Ach Offset (V)
ACHFILTER	IQUANT	3	Ach Filter
IERANGELOWERLIMIT	IQUANT	1	I/E Range Lower Limit
IERANGEMODE	TOGGLE	F	I/E AutoRange
IERANGE	IQUANT	4	I/E Range
POSFEEDENABLE	TOGGLE	F	Positive Feedback IR Comp
POSFEEDRESISTANCE	QUANT	0	Positive Feedback Resistance (ohm)
ACHSELECT	IQUANT	0	Ach Select
CABLEID	IQUANT	14	Cable ID
DCCALDATE	LABEL	8/19/2019	DC Calibration Date
ACCALDATE	LABEL	8/19/2019	AC Calibration Date
THERMOSELECT	IQUANT	1	Thermo Select
FRAMEWORKVERSION	QUANT	6.33	Framework Version
INSTRUMENTVERSION	LABEL	3.50	Instrument Version
ZCURVE	TABLE
	Pt	Time	Freq	Zreal	Zimag	Zsig	Zmod	Zphz	Idc	Vdc	IERange
	#	s	Hz	ohm	ohm	V	ohm	°	A	V	#
	0	2	1000078	1301.211	-1645.919	1	2098.142	-51.67123	4.022179E-006	0.0001979	8
	1	3	794390.6	1406.735	-1938.025	1	2394.753	-54.0256	-4.477538E-006	0.000515	8
	2	4	630984.4	1517.993	-2298.879	1	2754.841	-56.56246	1.884665E-006	-0.0005106	8
	3	6	501234.4	1651.154	-2750.745	1	3208.256	-59.02542	-9.198133E-008	-0.000297	8
	4	7	398109.4	1827.478	-3293.903	1	3766.891	-60.97821	1.53994E-006	-0.00075	8
	5	8	316265.6	2061.047	-3987.782	1	4488.911	-62.66825	2.604972E-006	-0.0009179	8
	6	10	251203.1	2395.265	-4786.508	1	5352.378	-63.4157	-4.667379E-007	-0.0004249	8
	7	11	199546.9	2778.783	-5827.171	1	6455.816	-64.50509	2.621734E-006	-0.000915	8
	8	13	158578.1	3329.9	-7026.989	1	7776.041	-64.645	-1.190142E-006	-0.0002136	8
	9	15	125953.1	4176.583	-8408.356	1	9388.52	-63.58558	6.564505E-008	-0.0005074	7
	10	16	100078.1	5162.042	-9962.27	1	11220.23	-62.60865	6.023131E-008	-0.0005815	7
	11	18	79453.13	6476.009	-11748.1	1	13414.79	-61.13474	7.552331E-009	-0.0004747	7
	12	19	63140.62	8168.504	-13656.71	1	15913.21	-59.11504	-4.141965E-008	-0.0004602	7
	13	21	50203.12	10265.55	-15684.42	1	18745.2	-56.79501	9.566435E-008	-0.0005839	7
	14	22	39890.62	12883.24	-17677.67	1	21874.13	-53.91596	6.273611E-008	-0.0005975	7
	15	24	31640.63	15933.77	-19556.84	1	25226.08	-50.82886	1.089343E-007	-0.000653	7
	16	25	25171.88	19359.18	-21092.92	1	28630.22	-47.45415	-6.566732E-008	-0.000406	7
	17	27	20015.62	23531.5	-23065.8	1	32950.91	-44.4274	6.251383E-008	-0.0005986	7
	18	29	15890.62	26936.41	-23586.05	1	35803.24	-41.20604	1.096209E-007	-0.0006567	7
	19	30	12609.37	31123.86	-24003.85	1	39304.96	-37.64071	-6.443961E-009	-0.0004015	6
	20	32	10078.13	34815.57	-24583.07	1	42619.85	-35.22569	2.220497E-009	-0.000653	6
	21	33	8015.625	38783.99	-25171.56	1	46236.41	-32.98435	-1.51639E-009	-0.0005745	6
	22	35	6328.125	42324.74	-25729.61	1	49531.77	-31.29581	1.56479E-008	-0.0007871	6
	23	37	5015.625	45979.61	-26324.45	1	52982.08	-29.79219	-2.642709E-009	-0.0005582	6
	24	38	3984.375	49874.4	-27187.32	1	56803.23	-28.5955	4.908877E-009	-0.0006993	6
	25	40	3170.956	53339.49	-27966.83	1	60226.61	-27.66882	2.888228E-009	-0.0005364	6
	26	41	2527.573	56987.84	-29471.47	1	64157.47	-27.34592	2.355008E-009	-0.0005065	7
	27	43	1976.103	61227.66	-30364.91	1	68343.65	-26.3784	-5.657546E-009	-0.0004762	6
	28	44	1577.524	63566.75	-28564.07	1	69689.58	-24.19703	4.998809E-009	-0.0005881	6
	29	46	1265.625	69560.3	-33888.02	1	77375.93	-25.97417	-2.055974E-009	-0.0006376	6
	30	47	998.264	74507.8	-36065.65	1	82777.67	-25.8294	2.918611E-009	-0.0005211	6
	31	49	796.875	79360.01	-38162.25	1	88058.89	-25.68174	1.816745E-009	-0.0004755	6
	32	50	627.7902	85155.55	-40054.34	1	94105.35	-25.19073	-6.996632E-010	-0.0004995	5
	33	52	505.5147	90394.96	-42475.93	1	99877.2	-25.16849	-1.174482E-009	-0.0004577	5
	34	53	397.9953	96605.7	-45373.46	1	106730.5	-25.15836	7.601036E-010	-0.0005543	5
	35	54	315.5048	102715.6	-48337.84	1	113521.1	-25.20161	-1.129817E-010	-0.000549	5
	36	56	252.4038	108893.2	-51688.94	1	120538.2	-25.39256	7.855759E-010	-0.0005491	5
	37	57	198.6229	115556.9	-55616.16	1	128244.1	-25.70096	-4.252181E-011	-0.0005514	5
	38	58	158.3615	122100.7	-60265.94	1	136163.7	-26.26983	-5.643491E-011	-0.0005523	5
	39	60	125.558	129131.6	-65800.57	1	144929.9	-27.00167	1.318622E-010	-0.0005504	5
	40	61	100.4464	136367.8	-72137.88	1	154272.7	-27.8786	2.172006E-010	-0.0005513	5
	41	63	79.00281	143783.1	-80232.8	1	164653.9	-29.16207	1.849974E-010	-0.0005596	5
	42	65	63.3446	160701.8	-91294.01	1	184823.3	-29.60073	5.034411E-010	-0.00056	5
	43	66	49.86702	163836	-101343.7	1	192646.7	-31.73961	1.093756E-010	-0.0005603	5
	44	68	39.72458	174356.1	-112229	1	207353.3	-32.76844	3.360635E-010	-0.0005558	5
	45	69	31.6723	187036.4	-126209.2	1	225635.5	-34.01085	2.825832E-010	-0.0005575	5
	46	71	24.93351	201255.4	-145469	1	248324.3	-35.8597	4.655648E-010	-0.0005609	5
	47	72	19.86229	216956.9	-166067.5	1	273219.2	-37.43189	6.776598E-010	-0.0005494	5
	48	73	15.83615	230806.2	-187531.4	1	297387.8	-39.09406	4.113602E-010	-0.000555	5
	49	75	12.40079	259552.4	-212402.9	1	335384	-39.29494	-9.832496E-010	-0.0005511	5
	50	76	9.93114	279019.9	-249144	1	374065.3	-41.76248	2.391412E-010	-0.0005523	5
	51	78	7.944915	302528	-286711.6	1	416805.4	-43.46244	-3.940176E-010	-0.0005544	5
	52	79	6.317385	338360.7	-325504.9	1	469511.8	-43.8906	-8.290947E-011	-0.000569	5
	53	81	5.008013	379548.6	-371251.1	1	530927.9	-44.36682	1.750273E-010	-0.0005574	5
	54	84	3.945707	425943.5	-429794.4	1	605104.2	-45.25783	2.383236E-011	-0.0005576	5
	55	87	3.158693	482226.7	-488565.6	1	686468.4	-45.37411	6.804213E-010	-0.000545	6
	56	91	2.504006	551262.6	-553471.2	1	781166.3	-45.11455	-1.626416E-010	-0.0005628	5
	57	93	1.998082	614346.7	-611586.5	1	866867.9	-44.871	-5.019603E-010	-0.0005496	5
	58	97	1.584686	707922.9	-689118.9	1	987947	-44.22885	2.467057E-010	-0.0005128	5
	59	100	1.266892	796184.7	-761311.7	1	1101592	-43.71734	-8.547472E-011	-0.0005276	4
	60	105	0.999041	890786.3	-846576.5	1	1228899	-43.54234	5.098062E-010	-0.0005852	4
