EXPLAIN
TAG	EISPOT
TITLE	LABEL	Potentiostatic EIS	Test &Identifier
DATE	LABEL	10/16/2019	Date
TIME	LABEL	9:05:53	Time
NOTES	NOTES	1	&Notes...
	
PSTAT	PSTAT	REF600-11020	Potentiostat
VDC	POTEN	0.00000E+000	T	DC &Voltage (V)
FREQINIT	QUANT	1.00000E+006	Initial Fre&q. (Hz)
FREQFINAL	QUANT	1.00000E+000	Final Fre&q. (Hz)
PTSPERDEC	QUANT	1.00000E+001	Points/&decade
VAC	QUANT	2.50000E+001	AC &Voltage (mV rms)
AREA	QUANT	1.00000E-002	&Area (cm^2)
CONDIT	TWOPARAM	T	5.00000E+000	0.00000E+000	Conditionin&g	Time(s)	E(V)
DELAY	TWOPARAM	T	5.00000E+000	0.00000E+000	Init. De&lay	Time(s)	Stab.(mV/s)
SPEED	SELECTOR	1	&Optimize for:
ZGUESS	QUANT	1.00000E+005	E&stimated Z (ohms)
OCVCURVE	TABLE	19
	Pt	T	Vf	Vm	Ach	Over
	#	s	V vs. Ref.	V	V	bits
	0	0.258333	6.60944E-003	6.60944E-003	5.77666E-004	...........
	1	0.516667	6.61040E-003	6.65956E-003	5.74632E-004	...........
	2	0.775	6.61279E-003	6.52437E-003	5.78966E-004	...........
	3	1.03333	6.60344E-003	6.15901E-003	5.79199E-004	...........
	4	1.29167	6.54914E-003	6.04446E-003	5.70799E-004	...........
	5	1.55	6.43213E-003	6.11036E-003	5.72999E-004	...........
	6	1.80833	6.29079E-003	6.26759E-003	5.78732E-004	...........
	7	2.06667	6.19592E-003	6.41411E-003	5.79799E-004	...........
	8	2.325	6.18887E-003	6.47702E-003	5.84465E-004	...........
	9	2.58333	6.25615E-003	6.54561E-003	5.79866E-004	...........
	10	2.84167	6.35565E-003	6.63610E-003	5.81632E-004	...........
	11	3.1	6.45428E-003	6.67411E-003	5.81999E-004	...........
	12	3.35833	6.54058E-003	6.77253E-003	5.83065E-004	...........
	13	3.61667	6.61694E-003	6.85859E-003	5.77699E-004	...........
	14	3.875	6.69028E-003	6.90395E-003	5.81799E-004	...........
	15	4.13333	6.76344E-003	6.95123E-003	5.84432E-004	...........
	16	4.39167	6.83296E-003	7.01900E-003	5.81032E-004	...........
	17	4.65	6.89633E-003	7.08384E-003	5.77966E-004	...........
	18	4.90833	6.95638E-003	7.15443E-003	5.75799E-004	...........
EOC	QUANT	0.0069564	Open Circuit (V)
PSTATMODEL	IQUANT	4	Pstat Model
PSTATSECTION	LABEL	REF600-11020	Pstat Section
PSTATSERIALNO	LABEL	11020	Pstat Serial Number
CTRLMODE	IQUANT	1	Control Mode
IESTAB	IQUANT	0	I/E Stability
CASPEED	IQUANT	1	Control Amp Speed
CONVENTION	IQUANT	1	Current Convention
ICHRANGE	IQUANT	2	Ich Range
ICHRANGEMODE	TOGGLE	F	Ich Auto Range
ICHOFFSETENABLE	TOGGLE	T	Ich Offset Enable
ICHOFFSET	QUANT	0	Ich Offset (V)
ICHFILTER	IQUANT	3	Ich Filter
VCHRANGE	IQUANT	2	Vch Range
VCHRANGEMODE	TOGGLE	F	Vch Auto Range
VCHOFFSETENABLE	TOGGLE	T	Vch Offset Enable
VCHOFFSET	QUANT	0	Vch Offset (V)
VCHFILTER	IQUANT	3	Vch Filter
ACHRANGE	IQUANT	2	Ach Range
ACHOFFSETENABLE	TOGGLE	F	Ach Offset Enable
ACHOFFSET	QUANT	0	Ach Offset (V)
ACHFILTER	IQUANT	3	Ach Filter
IERANGELOWERLIMIT	IQUANT	1	I/E Range Lower Limit
IERANGEMODE	TOGGLE	F	I/E AutoRange
IERANGE	IQUANT	5	I/E Range
POSFEEDENABLE	TOGGLE	F	Positive Feedback IR Comp
POSFEEDRESISTANCE	QUANT	0	Positive Feedback Resistance (ohm)
ACHSELECT	IQUANT	0	Ach Select
CABLEID	IQUANT	14	Cable ID
DCCALDATE	LABEL	8/19/2019	DC Calibration Date
ACCALDATE	LABEL	8/19/2019	AC Calibration Date
THERMOSELECT	IQUANT	1	Thermo Select
FRAMEWORKVERSION	QUANT	6.33	Framework Version
INSTRUMENTVERSION	LABEL	3.50	Instrument Version
ZCURVE	TABLE
	Pt	Time	Freq	Zreal	Zimag	Zsig	Zmod	Zphz	Idc	Vdc	IERange
	#	s	Hz	ohm	ohm	V	ohm	°	A	V	#
	0	2	1000078	1980.64	-889.5689	1	2171.236	-24.18638	-1.50546E-006	0.0097466	8
	1	3	794390.6	2133.663	-803.8534	1	2280.066	-20.6438	1.247891E-006	0.0089719	8
	2	5	630984.4	2252.492	-706.7427	1	2360.764	-17.41979	2.746702E-006	0.0082745	8
	3	6	501234.4	2339.421	-614.2327	1	2418.713	-14.71139	1.866996E-007	0.0086858	8
	4	7	398109.4	2411.903	-530.4941	1	2469.555	-12.4046	-6.49511E-007	0.0088919	8
	5	9	316265.6	2465.718	-462.4145	1	2508.703	-10.62173	-2.70047E-006	0.0090784	8
	6	10	251203.1	2506.404	-398.1475	1	2537.83	-9.026136	-1.836775E-006	0.009094	8
	7	11	199546.9	2538.371	-353.9903	1	2562.935	-7.939022	-1.987562E-007	0.0085745	8
	8	13	158578.1	2560.999	-320.1613	1	2580.934	-7.12582	-2.284985E-007	0.0085573	8
	9	14	125953.1	2593.868	-259.1129	1	2606.778	-5.704603	-4.787224E-007	0.0098646	7
	10	16	100078.1	2620.335	-240.9345	1	2631.388	-5.25346	-2.359477E-008	0.0085414	7
	11	17	79453.13	2640.454	-240.405	1	2651.375	-5.202256	-4.84576E-008	0.0086042	7
	12	18	63140.62	2662.842	-244.9109	1	2674.081	-5.254911	-4.874666E-008	0.0086231	7
	13	20	50203.12	2686.624	-253.9025	1	2698.594	-5.39877	6.752391E-008	0.0084807	7
	14	21	39890.62	2712.961	-268.1193	1	2726.178	-5.644157	-2.367121E-008	0.0085294	7
	15	22	31640.63	2740.256	-286.7259	1	2755.216	-5.973392	-1.492941E-008	0.0085715	7
	16	24	25171.88	2769.964	-310.8658	1	2787.353	-6.403361	5.678818E-008	0.0084095	7
	17	25	20015.62	2797.672	-339.0481	1	2818.141	-6.909943	-2.490262E-008	0.008538	7
	18	26	15890.62	2838.596	-377.9806	1	2863.651	-7.584749	5.122182E-008	0.0084436	7
	19	28	12609.37	2878.729	-420.9937	1	2909.35	-8.320122	-4.569453E-008	0.0086131	7
	20	29	10078.13	2920.076	-471.2973	1	2957.865	-9.168416	5.037324E-008	0.0084502	7
	21	30	8015.625	2972.17	-529.5847	1	3018.982	-10.103	-5.896927E-009	0.0085701	7
	22	32	6328.125	3021.194	-604.7277	1	3081.121	-11.31885	5.761486E-008	0.0084089	7
	23	33	5015.625	3078.791	-690.6176	1	3155.298	-12.643	6.953211E-008	0.0084792	7
	24	34	3984.375	3140.496	-792.0267	1	3238.83	-14.15471	-5.445285E-009	0.0085645	7
	25	36	3170.956	3209.334	-909.38	1	3335.686	-15.82033	-1.283532E-008	0.0085158	7
	26	37	2527.573	3282.792	-1048.921	1	3446.297	-17.71977	-2.990286E-009	0.0085089	7
	27	38	1976.103	3366.76	-1231.086	1	3584.78	-20.08539	5.832594E-008	0.0084077	7
	28	40	1577.524	3453.181	-1434.736	1	3739.375	-22.56203	6.883045E-008	0.0084744	7
	29	41	1265.625	3538.569	-1674.08	1	3914.589	-25.3186	9.639047E-008	0.008393	7
	30	43	998.264	3637.009	-1992.129	1	4146.855	-28.7112	-3.776053E-010	0.0085345	7
	31	44	796.875	3737.85	-2362.286	1	4421.755	-32.2925	-1.201646E-008	0.0085165	7
	32	45	627.7902	3850.291	-2855.114	1	4793.372	-36.55812	-4.375849E-008	0.0086152	7
	33	47	505.5147	3962.274	-3403.106	1	5223.098	-40.65852	-2.490887E-008	0.0085428	7
	34	48	397.9953	4102.295	-4161.265	1	5843.368	-45.40886	4.960216E-009	0.0085477	7
	35	49	315.5048	4262.601	-5081.793	1	6632.827	-50.01012	4.595232E-009	0.0085491	7
	36	51	252.4038	4447.077	-6177.223	1	7611.477	-54.24931	4.480636E-009	0.0085491	7
	37	52	198.6229	4693.496	-7637.413	1	8964.316	-58.42761	4.457566E-009	0.008546	7
	38	53	158.3615	4989.338	-9350.985	1	10598.79	-61.91727	-4.100745E-011	0.0084846	6
	39	55	125.558	5370.58	-11517.19	1	12707.83	-64.9999	6.86127E-010	0.0084834	6
	40	56	100.4464	5831.137	-14081.25	1	15240.85	-67.50523	-2.188774E-010	0.0084812	6
	41	57	79.00281	6513.687	-17476.78	1	18651.17	-69.55931	9.674893E-011	0.008484	6
	42	59	63.3446	7409.108	-21314.16	1	22565.21	-70.83182	7.267645E-010	0.0084784	6
	43	60	49.86702	8272.617	-26385.61	1	27652.06	-72.59235	8.638595E-010	0.0084784	6
	44	62	39.72458	9718.82	-32202.34	1	33636.98	-73.20593	6.56413E-010	0.0084846	6
	45	63	31.6723	11477.69	-39379.72	1	41018.29	-73.7506	1.21117E-009	0.0084787	6
	46	64	24.93351	13961.94	-48409.46	1	50382.66	-73.91173	1.266553E-010	0.0084793	6
	47	66	19.86229	17045.71	-58956.9	1	61371.59	-73.87428	4.950621E-010	0.0084815	6
	48	67	15.83615	20603.36	-71860.69	1	74755.98	-74.00174	-1.702266E-009	0.0084827	6
	49	68	12.40079	26743.47	-87666.24	1	91654.7	-73.03515	-8.571344E-010	0.0084832	6
	50	70	9.93114	33017.36	-105253.1	1	110310.3	-72.58363	3.916924E-010	0.0084865	5
	51	71	7.944915	41089.71	-125871.4	1	132408.3	-71.92113	1.072043E-009	0.0084889	5
	52	73	6.317385	51649.88	-151206.4	1	159784.5	-71.14059	3.858452E-010	0.0085033	5
	53	75	5.008013	65298.56	-181121.1	1	192532.5	-70.17454	4.216174E-010	0.0084883	5
	54	78	3.945707	82513.74	-216933	1	232095.7	-69.17493	1.689115E-010	0.0084859	5
	55	80	3.158693	102355.1	-255451.5	1	275194.5	-68.16486	2.617898E-010	0.008504	5
	56	84	2.504006	127337.8	-302578.2	1	328281.1	-67.17657	-1.991771E-010	0.0084754	5
	57	86	1.998082	156353.5	-354696.3	1	387628.5	-66.21165	-1.860612E-010	0.0084661	5
	58	89	1.584686	193238.3	-415600.1	1	458328	-65.06335	-5.228812E-011	0.0085261	5
	59	93	1.266892	233599.6	-484770.3	1	538118	-64.27166	-2.14632E-010	0.0084605	5
	60	97	0.999041	286312.7	-568132.7	1	636199.4	-63.254	1.51058E-010	0.0085175	5
