EXPLAIN
TAG	EISPOT
TITLE	LABEL	Potentiostatic IDE	Test &Identifier
DATE	LABEL	9/12/2019	Date
TIME	LABEL	10:44:14	Time
NOTES	NOTES	1	&Notes...
	
PSTAT	PSTAT	REF600-11020	Potentiostat
VDC	POTEN	0.00000E+000	T	DC &Voltage (V)
FREQINIT	QUANT	1.00000E+006	Initial Fre&q. (Hz)
FREQFINAL	QUANT	1.00000E+000	Final Fre&q. (Hz)
PTSPERDEC	QUANT	1.00000E+001	Points/&decade
VAC	QUANT	2.50000E+001	AC &Voltage (mV rms)
AREA	QUANT	1.00000E-002	&Area (cm^2)
CONDIT	TWOPARAM	T	5.00000E+000	0.00000E+000	Conditionin&g	Time(s)	E(V)
DELAY	TWOPARAM	T	5.00000E+000	0.00000E+000	Init. De&lay	Time(s)	Stab.(mV/s)
SPEED	SELECTOR	1	&Optimize for:
ZGUESS	QUANT	1.00000E+007	E&stimated Z (ohms)
OCVCURVE	TABLE	18
	Pt	T	Vf	Vm	Ach	Over
	#	s	V vs. Ref.	V	V	bits
	0	0.258333	-1.63496E-002	-1.63496E-002	5.61399E-004	...........
	1	0.516667	-1.63533E-002	-1.65418E-002	5.58899E-004	...........
	2	0.775	-1.63771E-002	-1.67893E-002	5.57899E-004	...........
	3	1.03333	-1.64443E-002	-1.68059E-002	5.57966E-004	...........
	4	1.29167	-1.65598E-002	-1.71154E-002	5.57032E-004	...........
	5	1.55	-1.67100E-002	-1.73313E-002	5.54133E-004	...........
	6	1.80833	-1.68829E-002	-1.73241E-002	5.53233E-004	...........
	7	2.06667	-1.70616E-002	-1.75100E-002	5.53433E-004	...........
	8	2.325	-1.72222E-002	-1.75374E-002	5.60532E-004	...........
	9	2.58333	-1.73551E-002	-1.77421E-002	5.53366E-004	...........
	10	2.84167	-1.74685E-002	-1.76937E-002	5.56199E-004	...........
	11	3.1	-1.75702E-002	-1.78704E-002	5.54166E-004	...........
	12	3.35833	-1.76549E-002	-1.75234E-002	5.53433E-004	...........
	13	3.61667	-1.77055E-002	-1.77780E-002	5.53966E-004	...........
	14	3.875	-1.77195E-002	-1.78500E-002	5.53799E-004	...........
	15	4.13333	-1.77337E-002	-1.81702E-002	5.52333E-004	...........
	16	4.39167	-1.77924E-002	-1.80777E-002	5.56133E-004	...........
	17	4.65	-1.78982E-002	-1.82788E-002	5.56733E-004	...........
EOC	QUANT	-0.0180198	Open Circuit (V)
PSTATMODEL	IQUANT	4	Pstat Model
PSTATSECTION	LABEL	REF600-11020	Pstat Section
PSTATSERIALNO	LABEL	11020	Pstat Serial Number
CTRLMODE	IQUANT	1	Control Mode
IESTAB	IQUANT	0	I/E Stability
CASPEED	IQUANT	1	Control Amp Speed
CONVENTION	IQUANT	1	Current Convention
ICHRANGE	IQUANT	2	Ich Range
ICHRANGEMODE	TOGGLE	F	Ich Auto Range
ICHOFFSETENABLE	TOGGLE	T	Ich Offset Enable
ICHOFFSET	QUANT	0	Ich Offset (V)
ICHFILTER	IQUANT	3	Ich Filter
VCHRANGE	IQUANT	2	Vch Range
VCHRANGEMODE	TOGGLE	F	Vch Auto Range
VCHOFFSETENABLE	TOGGLE	T	Vch Offset Enable
VCHOFFSET	QUANT	0	Vch Offset (V)
VCHFILTER	IQUANT	3	Vch Filter
ACHRANGE	IQUANT	2	Ach Range
ACHOFFSETENABLE	TOGGLE	F	Ach Offset Enable
ACHOFFSET	QUANT	0	Ach Offset (V)
ACHFILTER	IQUANT	3	Ach Filter
IERANGELOWERLIMIT	IQUANT	1	I/E Range Lower Limit
IERANGEMODE	TOGGLE	F	I/E AutoRange
IERANGE	IQUANT	3	I/E Range
POSFEEDENABLE	TOGGLE	F	Positive Feedback IR Comp
POSFEEDRESISTANCE	QUANT	0	Positive Feedback Resistance (ohm)
ACHSELECT	IQUANT	0	Ach Select
CABLEID	IQUANT	14	Cable ID
DCCALDATE	LABEL	8/19/2019	DC Calibration Date
ACCALDATE	LABEL	8/19/2019	AC Calibration Date
THERMOSELECT	IQUANT	1	Thermo Select
FRAMEWORKVERSION	QUANT	6.33	Framework Version
INSTRUMENTVERSION	LABEL	3.50	Instrument Version
ZCURVE	TABLE
	Pt	Time	Freq	Zreal	Zimag	Zsig	Zmod	Zphz	Idc	Vdc	IERange
	#	s	Hz	ohm	ohm	V	ohm	°	A	V	#
	0	1	1000078	910.4818	-8885.615	1	8932.141	-84.1495	-3.958462E-006	-0.0138476	8
	1	3	794390.6	1129.889	-10827.94	1	10886.73	-84.04278	2.626139E-006	-0.016916	8
	2	5	630984.4	1068.186	-13587.16	1	13629.09	-85.50481	2.337664E-006	-0.0166397	8
	3	6	501234.4	1381.515	-16854.58	1	16911.1	-85.31413	-7.513622E-007	-0.0158953	8
	4	8	398109.4	1491.263	-20744.31	1	20797.85	-85.88821	-1.039994E-006	-0.0161344	8
	5	10	316265.6	1861.55	-27682.47	1	27745	-86.15285	3.790398E-007	-0.0164213	8
	6	12	251203.1	2788.339	-33293.08	1	33409.64	-85.21258	7.831628E-007	-0.0163043	8
	7	13	199546.9	2535.093	-40033.52	1	40113.71	-86.37663	2.452794E-006	-0.016872	8
	8	15	158578.1	3615.392	-52625.26	1	52749.3	-86.06992	-1.025813E-006	-0.0161135	8
	9	17	125953.1	5935.212	-64133.04	1	64407.09	-84.71261	-1.89092E-006	-0.0126045	7
	10	18	100078.1	5608.881	-80343.46	1	80539.01	-86.00658	-2.98396E-008	-0.0164537	7
	11	20	79453.13	6952.307	-100348.7	1	100589.3	-86.0368	5.552397E-008	-0.0164846	7
	12	21	63140.62	8032.303	-125081.2	1	125338.8	-86.3257	1.76206E-007	-0.0166909	7
	13	23	50203.12	11202.32	-155470.1	1	155873.2	-85.87871	-5.044125E-008	-0.0164274	7
	14	25	39890.62	16244.48	-200632.8	1	201289.3	-85.37107	-7.169226E-008	-0.0163055	7
	15	27	31640.63	14906.21	-244420.3	1	244874.5	-86.51009	5.835166E-008	-0.0164941	7
	16	28	25171.88	18796.92	-306441.7	1	307017.7	-86.48991	8.97671E-008	-0.0165913	7
	17	30	20015.62	22696.25	-383406.9	1	384078.1	-86.61226	-1.92774E-008	-0.0162524	7
	18	31	15890.62	-1831.125	-476803.3	1	476806.8	-90.22004	-9.760694E-008	-0.0163053	7
	19	33	12609.37	51265.07	-597370.9	1	599566.6	-85.09502	-1.009804E-008	-0.0164276	6
	20	34	10078.13	56879.39	-739801.6	1	741984.9	-85.60349	6.325244E-009	-0.0167926	6
	21	36	8015.625	73751.51	-920521.6	1	923471.4	-85.41929	5.926084E-009	-0.0164503	6
	22	38	6328.125	109488.3	-1138057	1	1143312	-84.5047	-5.455849E-009	-0.0166175	6
	23	39	5015.625	143446.9	-1442324	1	1449440	-84.3203	-9.217225E-009	-0.0163724	6
	24	41	3984.375	176076.1	-1794596	1	1803214	-84.39639	7.584021E-009	-0.0164198	6
	25	43	3170.956	259838.6	-2224502	1	2239627	-83.33762	1.038074E-008	-0.016764	6
	26	44	2527.573	377025.9	-2776088	1	2801573	-82.26587	1.032272E-008	-0.0167696	6
	27	46	1976.103	395094.2	-3574378	1	3596147	-83.69241	-1.073319E-008	-0.0164301	6
	28	48	1577.524	814050.3	-4320452	1	4396474	-79.32955	-1.267292E-008	-0.0164029	6
	29	49	1265.625	1066153	-5357613	1	5462665	-78.7453	-8.775984E-010	-0.0163177	5
	30	51	998.264	1485735	-6484134	1	6652172	-77.09438	-2.121865E-009	-0.0163263	5
	31	53	796.875	2617850	-7873966	1	8297740	-71.60963	1.364176E-009	-0.0164924	5
	32	54	627.7902	3365613	-1.008644E+007	1	1.063313E+007	-71.54733	8.066682E-010	-0.0164945	5
	33	56	505.5147	4521691	-1.172586E+007	1	1.256748E+007	-68.91252	7.6732E-010	-0.0167498	5
	34	57	397.9953	4822424	-1.428127E+007	1	1.50735E+007	-71.34147	-3.83659E-010	-0.0164991	5
	35	59	315.5048	8755621	-1.769248E+007	1	1.974044E+007	-63.6702	-9.92586E-012	-0.0165015	5
	36	60	252.4038	9245689	-1.571439E+007	1	1.823252E+007	-59.52923	3.842697E-010	-0.0165032	5
	37	61	198.6229	1.640834E+007	-1.761462E+007	1	2.407298E+007	-47.03057	-1.163271E-010	-0.0165045	5
	38	63	158.3615	1.512262E+007	-2.350575E+007	1	2.795021E+007	-57.24446	3.079262E-010	-0.0165071	5
	39	65	125.558	2.440673E+007	-1.452078E+007	1	2.839967E+007	-30.75053	-2.073504E-010	-0.0165062	4
	40	66	100.4464	2.823228E+007	-1.144086E+007	1	3.046235E+007	-22.05978	-6.94611E-012	-0.016505	4
	41	68	79.00281	1.78092E+007	3282639	1	1.81092E+007	10.44369	-4.279197E-011	-0.0165076	4
	42	69	63.3446	2293560	4389636	1	4952709	62.41319	9.010898E-011	-0.0165137	4
	43	71	49.86702	3.112471E+007	2.350184E+007	1	3.900108E+007	37.05595	1.155768E-010	-0.0165015	4
	44	73	39.72458	7.800697E+007	3.997864E+007	1	8.765488E+007	27.13518	1.92193E-010	-0.0165131	4
	45	74	31.6723	1.438342E+007	-3.414039E+007	1	3.704658E+007	-67.1542	2.973982E-010	-0.0165056	4
	46	76	24.93351	4.63678E+007	-5252619	1	4.666436E+007	-6.463006	1.472486E-011	-0.0165052	4
	47	78	19.86229	2.756806E+007	866434.6	1	2.758167E+007	1.800152	-1.379272E-010	-0.0164954	4
	48	79	15.83615	1.452956E+007	-3096795	1	1.485591E+007	-12.03185	6.718813E-010	-0.016518	4
	49	81	12.40079	1.818545E+007	-5.71497E+007	1	5.997332E+007	-72.34855	3.865476E-010	-0.0165007	4
	50	82	9.93114	2.845091E+007	-2975067	1	2.860604E+007	-5.969633	2.700055E-010	-0.0165086	5
	51	84	7.944915	2.065854E+007	6564503	1	2.167644E+007	17.62829	4.896577E-010	-0.0165039	4
	52	86	6.317385	4.140623E+007	-2162653	1	4.146267E+007	-2.989849	-2.131197E-011	-0.0164958	4
	53	89	5.008013	4.486684E+007	-2643807	1	4.494467E+007	-3.37229	8.521944E-011	-0.0164984	4
	54	92	3.945707	3.624977E+007	1907613	1	3.629993E+007	3.012362	1.383759E-010	-0.0165158	4
	55	95	3.158693	4.18502E+007	-89694.29	1	4.185029E+007	-0.1227974	-1.660789E-011	-0.0164893	4
	56	99	2.504006	1.218115E+008	-5863852	1	1.219526E+008	-2.756019	4.551499E-011	-0.0165274	3
	57	102	1.998082	1.224992E+008	-5338694	1	1.226155E+008	-2.495454	4.649164E-011	-0.0165339	3
	58	107	1.584686	1.231889E+008	-6207444	1	1.233452E+008	-2.884673	4.813303E-011	-0.0164942	3
	59	113	1.266892	8.291604E+008	-1.781594E+008	1	8.480847E+008	-12.12661	1.882272E-012	-0.0165469	2
	60	117	0.999041	8.856947E+008	-1.337318E+008	1	8.95734E+008	-8.586278	-1.606896E-012	-0.0164659	2
