EXPLAIN
TAG	EISPOT
TITLE	LABEL	Potentiostatic EIS	Test &Identifier
DATE	LABEL	11/13/2019	Date
TIME	LABEL	9:33:57	Time
NOTES	NOTES	3	&Notes...
	
	
	
PSTAT	PSTAT	REF600-11020	Potentiostat
VDC	POTEN	0.00000E+000	T	DC &Voltage (V)
FREQINIT	QUANT	1.00000E+006	Initial Fre&q. (Hz)
FREQFINAL	QUANT	1.00000E+000	Final Fre&q. (Hz)
PTSPERDEC	QUANT	1.00000E+001	Points/&decade
VAC	QUANT	2.50000E+001	AC &Voltage (mV rms)
AREA	QUANT	1.00000E-002	&Area (cm^2)
CONDIT	TWOPARAM	T	5.00000E+000	0.00000E+000	Conditionin&g	Time(s)	E(V)
DELAY	TWOPARAM	T	5.00000E+000	0.00000E+000	Init. De&lay	Time(s)	Stab.(mV/s)
SPEED	SELECTOR	0	&Optimize for:
ZGUESS	QUANT	1.00000E+005	E&stimated Z (ohms)
OCVCURVE	TABLE	19
	Pt	T	Vf	Vm	Ach	Over
	#	s	V vs. Ref.	V	V	bits
	0	0.258333	-1.07833E-002	-1.07833E-002	5.82712E-004	...........
	1	0.516667	-1.08023E-002	-1.17772E-002	5.89612E-004	...........
	2	0.775	-1.09188E-002	-1.27151E-002	5.85579E-004	...........
	3	1.03333	-1.12480E-002	-1.36082E-002	5.78112E-004	...........
	4	1.29167	-1.18358E-002	-1.44621E-002	5.81479E-004	...........
	5	1.55	-1.26159E-002	-1.52830E-002	5.81346E-004	...........
	6	1.80833	-1.34796E-002	-1.60702E-002	5.77312E-004	...........
	7	2.06667	-1.43479E-002	-1.68316E-002	5.74679E-004	...........
	8	2.325	-1.51861E-002	-1.75765E-002	5.79046E-004	...........
	9	2.58333	-1.59879E-002	-1.82960E-002	5.78512E-004	...........
	10	2.84167	-1.67584E-002	-1.90009E-002	5.75112E-004	...........
	11	3.1	-1.75037E-002	-1.96852E-002	5.68412E-004	...........
	12	3.35833	-1.82278E-002	-2.03590E-002	5.79412E-004	...........
	13	3.61667	-1.89341E-002	-2.10575E-002	5.82512E-004	...........
	14	3.875	-1.96263E-002	-2.16580E-002	5.82412E-004	...........
	15	4.13333	-2.03036E-002	-2.22323E-002	5.72513E-004	...........
	16	4.39167	-2.09592E-002	-2.28590E-002	5.80579E-004	...........
	17	4.65	-2.15902E-002	-2.34671E-002	5.85412E-004	...........
	18	4.90833	-2.22041E-002	-2.40631E-002	5.79646E-004	...........
EOC	QUANT	-0.0222041	Open Circuit (V)
PSTATMODEL	IQUANT	4	Pstat Model
PSTATSECTION	LABEL	REF600-11020	Pstat Section
PSTATSERIALNO	LABEL	11020	Pstat Serial Number
CTRLMODE	IQUANT	1	Control Mode
IESTAB	IQUANT	0	I/E Stability
CASPEED	IQUANT	1	Control Amp Speed
CONVENTION	IQUANT	1	Current Convention
ICHRANGE	IQUANT	2	Ich Range
ICHRANGEMODE	TOGGLE	F	Ich Auto Range
ICHOFFSETENABLE	TOGGLE	T	Ich Offset Enable
ICHOFFSET	QUANT	0	Ich Offset (V)
ICHFILTER	IQUANT	3	Ich Filter
VCHRANGE	IQUANT	2	Vch Range
VCHRANGEMODE	TOGGLE	F	Vch Auto Range
VCHOFFSETENABLE	TOGGLE	T	Vch Offset Enable
VCHOFFSET	QUANT	0	Vch Offset (V)
VCHFILTER	IQUANT	3	Vch Filter
ACHRANGE	IQUANT	2	Ach Range
ACHOFFSETENABLE	TOGGLE	F	Ach Offset Enable
ACHOFFSET	QUANT	0	Ach Offset (V)
ACHFILTER	IQUANT	1	Ach Filter
IERANGELOWERLIMIT	IQUANT	1	I/E Range Lower Limit
IERANGEMODE	TOGGLE	F	I/E AutoRange
IERANGE	IQUANT	5	I/E Range
POSFEEDENABLE	TOGGLE	F	Positive Feedback IR Comp
POSFEEDRESISTANCE	QUANT	0	Positive Feedback Resistance (ohm)
ACHSELECT	IQUANT	0	Ach Select
CABLEID	IQUANT	14	Cable ID
DCCALDATE	LABEL	8/19/2019	DC Calibration Date
ACCALDATE	LABEL	8/19/2019	AC Calibration Date
THERMOSELECT	IQUANT	1	Thermo Select
FRAMEWORKVERSION	QUANT	6.33	Framework Version
INSTRUMENTVERSION	LABEL	3.50	Instrument Version
ZCURVE	TABLE
	Pt	Time	Freq	Zreal	Zimag	Zsig	Zmod	Zphz	Idc	Vdc	IERange
	#	s	Hz	ohm	ohm	V	ohm	°	A	V	#
	0	1216800	1000078	1094.741	-1563.601	1	1908.745	-55.00256	-1.134607E-005	-0.0188469	8
	1	1216800	794390.6	1200.274	-1841.534	1	2198.159	-56.90451	-1.783837E-006	-0.0198497	8
	2	1216800	630984.4	1327.89	-2194.438	1	2564.927	-58.8212	7.088302E-006	-0.0218012	8
	3	1216801	501234.4	1471.014	-2626.033	1	3009.972	-60.74394	-1.401244E-006	-0.02012	8
	4	1216801	398109.4	1660.154	-3155.343	1	3565.431	-62.24931	-2.689077E-007	-0.0201959	8
	5	1216801	316265.6	1896.224	-3785.452	1	4233.83	-63.3926	5.776985E-006	-0.0218148	8
	6	1216802	251203.1	2216.004	-4557.261	1	5067.475	-64.06831	1.60479E-006	-0.0211516	8
	7	1216802	199546.9	2586.751	-5473.721	1	6054.164	-64.70569	-6.140591E-007	-0.0210042	8
	8	1216802	158578.1	3167.898	-6593.923	1	7315.422	-64.33912	-6.458301E-007	-0.0210003	8
	9	1216803	125953.1	3923.762	-7826.221	1	8754.75	-63.3726	-2.729758E-006	-0.0193776	7
	10	1216803	100078.1	4846.078	-9249.198	1	10441.85	-62.3479	-1.1694E-006	-0.0188514	7
	11	1216803	79453.13	6078.862	-10858.88	1	12444.59	-60.75965	-1.805779E-007	-0.0193358	7
	12	1216804	63140.62	7584.162	-12758.6	1	14842.56	-59.27126	7.38635E-007	-0.0227376	7
	13	1216804	50203.12	9588.5	-14448.99	1	17341.07	-56.43132	-5.687712E-007	-0.0190187	7
	14	1216804	39890.62	11963.08	-16346.34	1	20256.31	-53.80145	-1.398279E-006	-0.0193729	7
	15	1216805	31640.63	14804.77	-17983.08	1	23293.19	-50.5367	2.240635E-007	-0.0198242	7
	16	1216805	25171.88	17957.54	-19430.21	1	26457.63	-47.25566	-1.809812E-007	-0.0193444	7
	17	1216805	20015.62	21559.59	-20783.09	1	29945.83	-43.94939	1.061306E-006	-0.0212743	7
	18	1216806	15890.62	24951.98	-21571.59	1	32983.86	-40.84421	-1.804693E-007	-0.0193468	7
	19	1216806	12609.37	29010.63	-22355.62	1	36624.99	-37.61789	-1.083173E-007	-0.0212615	6
	20	1216806	10078.13	32343.01	-22794.81	1	39568.6	-35.17554	-1.650495E-007	-0.0176474	6
	21	1216806	8015.625	35884.65	-23202.34	1	42732.39	-32.88594	-1.656838E-007	-0.0176462	6
	22	1216807	6328.125	39551.75	-23847.47	1	46184.88	-31.08761	1.883942E-007	-0.0229429	6
	23	1216807	5015.625	43012.73	-24345.36	1	49424.6	-29.51002	1.149201E-007	-0.0236343	6
	24	1216807	3984.375	46452.8	-25035.53	1	52769.7	-28.32225	1.784301E-007	-0.0233798	6
	25	1216808	3170.956	49666.44	-25438.14	1	55801.92	-27.12061	1.605366E-008	-0.0190588	6
	26	1216808	2527.573	53342.65	-26583.86	1	59599.83	-26.48984	1.549935E-007	-0.0236487	6
	27	1216808	1976.103	56925.21	-27564.98	1	63247.98	-25.83773	-1.928581E-007	-0.0192799	6
	28	1216809	1577.524	60654.14	-30114.49	1	67718.59	-26.40418	1.674245E-007	-0.0216818	6
	29	1216809	1265.625	64156.59	-29743.44	1	70715.91	-24.87277	-1.644648E-007	-0.017651	6
	30	1216809	998.264	68802.16	-31851.12	1	75817.09	-24.84121	1.899756E-007	-0.0224494	6
	31	1216810	796.875	72585.69	-33114.62	1	79782.58	-24.52314	-1.926595E-007	-0.0192874	6
	32	1216810	627.7902	77645.13	-35362.65	1	85318.71	-24.48639	7.549748E-008	-0.0198795	6
	33	1216811	505.5147	82531.46	-37554.51	1	90674.05	-24.46709	6.325315E-008	-0.0233705	6
	34	1216811	397.9953	87437.92	-39582.25	1	95979.9	-24.35577	1.636453E-009	-0.0208138	6
	35	1216811	315.5048	92697.91	-41589.11	1	101600	-24.16348	1.268102E-009	-0.0208092	5
	36	1216812	252.4038	97907.3	-44565.12	1	107572.7	-24.47393	1.028947E-009	-0.0208149	5
	37	1216812	198.6229	103284.7	-47922.47	1	113860.9	-24.89055	2.188893E-009	-0.0208097	5
	38	1216812	158.3615	109265.2	-52127.86	1	121062.8	-25.50471	2.701593E-009	-0.0208115	5
	39	1216813	125.558	115038	-56921.1	1	128350.1	-26.32633	2.397296E-009	-0.0208196	5
	40	1216813	100.4464	120726.6	-63224.87	1	136280.2	-27.64118	1.250355E-009	-0.0208184	5
	41	1216813	79.00281	129191.9	-68544.84	1	146249.6	-27.94891	2.923329E-009	-0.0208136	5
	42	1216813	63.3446	142472	-73797.83	1	160450.6	-27.38331	2.49339E-009	-0.0208175	5
	43	1216814	49.86702	150257.2	-87203.52	1	173728.8	-30.12923	9.862252E-010	-0.0208147	5
	44	1216814	39.72458	156050.3	-98611.7	1	184596.7	-32.28971	2.197208E-009	-0.0208146	5
	45	1216814	31.6723	167919.7	-109952.6	1	200715.2	-33.21648	2.746815E-009	-0.0208131	5
	46	1216815	24.93351	180776.5	-126013.1	1	220362.1	-34.87903	1.46054E-009	-0.0208218	5
	47	1216815	19.86229	195499.3	-142514.6	1	241930.5	-36.09121	6.331659E-010	-0.0208065	5
	48	1216815	15.83615	213265.8	-162581.9	1	268170	-37.31987	1.705901E-009	-0.0208113	5
	49	1216816	12.40079	233977.5	-180016.9	1	295214.4	-37.57385	2.663502E-009	-0.0208169	5
	50	1216816	9.93114	257219.7	-206297.9	1	329728.3	-38.73066	1.523746E-009	-0.020819	5
	51	1216817	7.944915	280807.3	-229590	1	362717.9	-39.26966	2.013373E-009	-0.0208118	5
	52	1216817	6.317385	312028	-257370.4	1	404476.2	-39.51687	2.160108E-009	-0.0208349	5
	53	1216818	5.008013	347749.5	-287009.1	1	450892.3	-39.53398	1.977739E-009	-0.0208311	5
	54	1216819	3.945707	387469.7	-322079.4	1	503853.1	-39.73463	2.192662E-009	-0.0208182	5
	55	1216820	3.158693	426419.7	-358528.7	1	557114.4	-40.05673	1.343363E-009	-0.0208164	5
	56	1216822	2.504006	473124.5	-394805.4	1	616212.8	-39.84379	1.387704E-009	-0.0208224	5
	57	1216823	1.998082	517939.6	-433000.3	1	675093.1	-39.8958	1.978022E-009	-0.0207889	5
	58	1216825	1.584686	573442.8	-479343.1	1	747399.8	-39.89238	2.04388E-009	-0.0207767	5
	59	1216827	1.266892	622222.4	-535828.1	1	821141	-40.73345	1.566767E-009	-0.0208155	5
	60	1216829	0.999041	683515.8	-601994.7	1	910819.1	-41.37143	1.698994E-009	-0.0208434	5
