EXPLAIN
TAG	EISPOT
TITLE	LABEL	Potentiostatic EIS	Test &Identifier
DATE	LABEL	11/13/2019	Date
TIME	LABEL	0:14:04	Time
NOTES	NOTES	3	&Notes...
	
	
	
PSTAT	PSTAT	REF600-11020	Potentiostat
VDC	POTEN	0.00000E+000	T	DC &Voltage (V)
FREQINIT	QUANT	1.00000E+006	Initial Fre&q. (Hz)
FREQFINAL	QUANT	1.00000E+000	Final Fre&q. (Hz)
PTSPERDEC	QUANT	1.00000E+001	Points/&decade
VAC	QUANT	2.50000E+001	AC &Voltage (mV rms)
AREA	QUANT	1.00000E-002	&Area (cm^2)
CONDIT	TWOPARAM	T	5.00000E+000	0.00000E+000	Conditionin&g	Time(s)	E(V)
DELAY	TWOPARAM	T	5.00000E+000	0.00000E+000	Init. De&lay	Time(s)	Stab.(mV/s)
SPEED	SELECTOR	1	&Optimize for:
ZGUESS	QUANT	1.00000E+005	E&stimated Z (ohms)
OCVCURVE	TABLE	19
	Pt	T	Vf	Vm	Ach	Over
	#	s	V vs. Ref.	V	V	bits
	0	0.258333	6.45826E-003	6.45826E-003	5.29999E-004	...........
	1	0.516667	6.45941E-003	6.51807E-003	5.27900E-004	...........
	2	0.775	6.46677E-003	6.59276E-003	5.31200E-004	...........
	3	1.03333	6.48877E-003	6.66658E-003	5.31333E-004	...........
	4	1.29167	6.53085E-003	6.75449E-003	5.32066E-004	...........
	5	1.55	6.59154E-003	6.83662E-003	5.27766E-004	...........
	6	1.80833	6.66532E-003	6.92850E-003	5.25400E-004	...........
	7	2.06667	6.74683E-003	7.01398E-003	5.32700E-004	...........
	8	2.325	6.83173E-003	7.06992E-003	5.28033E-004	...........
	9	2.58333	6.91413E-003	7.07037E-003	5.27200E-004	...........
	10	2.84167	6.98457E-003	7.07469E-003	5.32533E-004	...........
	11	3.1	7.03380E-003	7.05064E-003	5.31500E-004	...........
	12	3.35833	7.06415E-003	7.32115E-003	5.36366E-004	...........
	13	3.61667	7.08853E-003	6.87220E-003	5.31566E-004	...........
	14	3.875	7.11001E-003	7.40203E-003	5.28466E-004	...........
	15	4.13333	7.13771E-003	7.63655E-003	5.35466E-004	...........
	16	4.39167	7.21396E-003	7.85009E-003	5.33966E-004	...........
	17	4.65	7.36807E-003	8.00234E-003	5.35399E-004	...........
	18	4.90833	7.57118E-003	8.03134E-003	5.37733E-004	...........
EOC	QUANT	0.0075712	Open Circuit (V)
PSTATMODEL	IQUANT	4	Pstat Model
PSTATSECTION	LABEL	REF600-11020	Pstat Section
PSTATSERIALNO	LABEL	11020	Pstat Serial Number
CTRLMODE	IQUANT	1	Control Mode
IESTAB	IQUANT	0	I/E Stability
CASPEED	IQUANT	1	Control Amp Speed
CONVENTION	IQUANT	1	Current Convention
ICHRANGE	IQUANT	2	Ich Range
ICHRANGEMODE	TOGGLE	F	Ich Auto Range
ICHOFFSETENABLE	TOGGLE	T	Ich Offset Enable
ICHOFFSET	QUANT	0	Ich Offset (V)
ICHFILTER	IQUANT	3	Ich Filter
VCHRANGE	IQUANT	2	Vch Range
VCHRANGEMODE	TOGGLE	F	Vch Auto Range
VCHOFFSETENABLE	TOGGLE	T	Vch Offset Enable
VCHOFFSET	QUANT	0	Vch Offset (V)
VCHFILTER	IQUANT	3	Vch Filter
ACHRANGE	IQUANT	2	Ach Range
ACHOFFSETENABLE	TOGGLE	F	Ach Offset Enable
ACHOFFSET	QUANT	0	Ach Offset (V)
ACHFILTER	IQUANT	3	Ach Filter
IERANGELOWERLIMIT	IQUANT	1	I/E Range Lower Limit
IERANGEMODE	TOGGLE	F	I/E AutoRange
IERANGE	IQUANT	5	I/E Range
POSFEEDENABLE	TOGGLE	F	Positive Feedback IR Comp
POSFEEDRESISTANCE	QUANT	0	Positive Feedback Resistance (ohm)
ACHSELECT	IQUANT	0	Ach Select
CABLEID	IQUANT	14	Cable ID
DCCALDATE	LABEL	8/19/2019	DC Calibration Date
ACCALDATE	LABEL	8/19/2019	AC Calibration Date
THERMOSELECT	IQUANT	1	Thermo Select
FRAMEWORKVERSION	QUANT	6.33	Framework Version
INSTRUMENTVERSION	LABEL	3.50	Instrument Version
ZCURVE	TABLE
	Pt	Time	Freq	Zreal	Zimag	Zsig	Zmod	Zphz	Idc	Vdc	IERange
	#	s	Hz	ohm	ohm	V	ohm	°	A	V	#
	0	2	1000078	2195.132	-1539.861	1	2681.376	-35.04924	3.19721E-006	0.0090084	8
	1	3	794390.6	2495.708	-1519.069	1	2921.666	-31.32773	-5.699094E-006	0.0100512	8
	2	5	630984.4	2776.174	-1447.123	1	3130.704	-27.53146	9.91465E-007	0.0089043	8
	3	6	501234.4	3025.047	-1353.577	1	3314.073	-24.10644	1.84909E-006	0.0094298	8
	4	7	398109.4	3246.034	-1241.359	1	3475.3	-20.92802	-8.426084E-007	0.0087821	8
	5	9	316265.6	3429.645	-1126.248	1	3609.833	-18.17947	-2.120143E-006	0.0092171	8
	6	10	251203.1	3591.357	-993.241	1	3726.174	-15.45955	1.862715E-006	0.0086234	8
	7	12	199546.9	3716.821	-891.7748	1	3822.305	-13.49191	6.520133E-006	0.0083317	8
	8	13	158578.1	3817.667	-757.7908	1	3892.149	-11.22704	-2.470152E-006	0.0095191	8
	9	14	125953.1	3922.917	-655.9235	1	3977.376	-9.492218	3.872595E-006	0.0024805	7
	10	16	100078.1	3975.474	-571.0439	1	4016.278	-8.17415	-8.652625E-007	0.0106402	7
	11	17	79453.13	4027.265	-510.8122	1	4059.531	-7.22871	-1.020937E-006	0.0095172	7
	12	18	63140.62	4070.799	-469.1129	1	4097.739	-6.573685	-1.060458E-006	0.010576	7
	13	20	50203.12	4116.847	-438.8355	1	4140.169	-6.084471	7.477277E-007	0.0072789	7
	14	21	39890.62	4152.941	-421.3534	1	4174.261	-5.793351	1.050408E-006	0.0075699	7
	15	23	31640.63	4185.174	-414.8707	1	4205.687	-5.66116	6.021672E-007	0.0091873	7
	16	24	25171.88	4209.985	-418.7565	1	4230.76	-5.680381	-3.071192E-007	0.0081777	7
	17	25	20015.62	4249.162	-437.0414	1	4271.579	-5.872424	1.05293E-006	0.0075656	7
	18	27	15890.62	4271.143	-465.446	1	4296.429	-6.219243	-7.163766E-007	0.0088512	7
	19	28	12609.37	4306.883	-509.0983	1	4336.868	-6.741408	-5.973572E-007	0.0105349	7
	20	29	10078.13	4339.877	-570.1382	1	4377.167	-7.4842	-1.186481E-006	0.0100615	7
	21	31	8015.625	4385.756	-641.3871	1	4432.407	-8.320141	7.503061E-007	0.0072664	7
	22	32	6328.125	4414.545	-750.496	1	4477.885	-9.64834	-1.062032E-006	0.0105642	7
	23	33	5015.625	4466.259	-879.4448	1	4552.021	-11.13952	6.023344E-007	0.009169	7
	24	35	3984.375	4509.883	-1038.225	1	4627.846	-12.96425	-2.761775E-007	0.0102917	7
	25	36	3170.956	4561.025	-1232.906	1	4724.723	-15.12631	-1.022395E-006	0.0094954	7
	26	38	2527.573	4634.102	-1475.662	1	4863.381	-17.66331	8.180654E-007	0.0087459	7
	27	39	1976.103	4708.482	-1798.311	1	5040.211	-20.90336	7.877713E-008	0.009908	7
	28	40	1577.524	4791.031	-2163.743	1	5256.973	-24.30507	-1.060916E-006	0.0105687	7
	29	42	1265.625	4900.144	-2601.38	1	5547.845	-27.96286	3.860409E-007	0.0094911	7
	30	43	998.264	5023.978	-3179.42	1	5945.508	-32.32764	4.648091E-007	0.0073707	7
	31	44	796.875	5169.898	-3850.959	1	6446.529	-36.68172	8.212581E-007	0.0087476	7
	32	46	627.7902	5361.577	-4724.576	1	7146.197	-41.38623	4.579559E-007	0.0073752	7
	33	47	505.5147	5571.993	-5692.69	1	7965.792	-45.61388	7.469371E-007	0.0072638	7
	34	49	397.9953	5854.238	-6990.379	1	9117.977	-50.05481	4.063419E-009	0.0090148	7
	35	50	315.5048	6196.352	-8544.402	1	10554.7	-54.05059	5.363888E-010	0.0089551	6
	36	51	252.4038	6596.377	-10371.02	1	12291.06	-57.54202	9.009906E-010	0.0089524	6
	37	53	198.6229	7130.66	-12775.43	1	14630.72	-60.83175	4.472545E-010	0.0089561	6
	38	54	158.3615	7768.298	-15568.11	1	17398.63	-63.48136	-8.790082E-010	0.0089555	6
	39	55	125.558	8593.001	-19065.5	1	20912.51	-65.73846	9.908512E-011	0.0089438	6
	40	57	100.4464	9607.61	-23178.36	1	25090.68	-67.48561	5.387803E-010	0.0089403	6
	41	58	79.00281	11040.51	-28520.91	1	30583.25	-68.83846	5.795783E-010	0.0089412	6
	42	60	63.3446	12921.78	-34401.64	1	36748.41	-69.41306	8.701897E-010	0.0089384	6
	43	61	49.86702	15430.79	-42662.59	1	45367.46	-70.11526	1.288133E-009	0.0089453	6
	44	62	39.72458	18548.94	-51534.91	1	54771.43	-70.2047	2.258887E-010	0.0089518	6
	45	64	31.6723	22661.65	-62233.65	1	66231.24	-69.9915	-3.943527E-011	0.008956	6
	46	65	24.93351	28692.4	-75523.35	1	80790.04	-69.1975	-6.260208E-010	0.0089545	6
	47	67	19.86229	36184.61	-90176.62	1	97165.6	-68.13619	4.704285E-010	0.0089597	6
	48	68	15.83615	45984.29	-106188.4	1	115717.5	-66.58526	5.785206E-010	0.008956	5
	49	69	12.40079	58536.79	-127213.8	1	140035.4	-65.29072	-3.081805E-011	0.0089549	5
	50	71	9.93114	73782.38	-147951.5	1	165328.4	-63.49489	8.54684E-010	0.0089477	5
	51	72	7.944915	91314.19	-170816	1	193691.5	-61.8721	1.479119E-010	0.0089499	5
	52	74	6.317385	113607.6	-195389.8	1	226017.4	-59.82454	6.032028E-010	0.0089623	5
	53	76	5.008013	139452.6	-222492.4	1	262583.1	-57.92154	4.254378E-010	0.0089677	5
	54	79	3.945707	169488.4	-252332.7	1	303970.6	-56.11129	-9.474548E-011	0.0089564	5
	55	81	3.158693	200372	-281723.8	1	345712.7	-54.57821	1.514961E-010	0.0089617	5
	56	85	2.504006	235323.7	-315432.2	1	393541.2	-53.27574	-1.549246E-010	0.0089435	5
	57	87	1.998082	271200.1	-351341.1	1	443835.6	-52.33546	-4.025928E-010	0.0089659	5
	58	90	1.584686	311390.8	-392956.2	1	501376.9	-51.60559	7.913107E-011	0.0089988	5
	59	94	1.266892	350373.2	-438974.1	1	561657.9	-51.4044	-2.989381E-010	0.008977	5
	60	98	0.999041	394937.8	-498124.8	1	635691.9	-51.5909	2.428772E-010	0.0089471	5
