EXPLAIN
TAG	EISPOT
TITLE	LABEL	Potentiostatic IDE	Test &Identifier
DATE	LABEL	9/12/2019	Date
TIME	LABEL	9:45:03	Time
NOTES	NOTES	1	&Notes...
	
PSTAT	PSTAT	REF600-11020	Potentiostat
VDC	POTEN	0.00000E+000	T	DC &Voltage (V)
FREQINIT	QUANT	1.00000E+006	Initial Fre&q. (Hz)
FREQFINAL	QUANT	1.00000E+000	Final Fre&q. (Hz)
PTSPERDEC	QUANT	1.00000E+001	Points/&decade
VAC	QUANT	2.50000E+001	AC &Voltage (mV rms)
AREA	QUANT	1.00000E-002	&Area (cm^2)
CONDIT	TWOPARAM	T	5.00000E+000	0.00000E+000	Conditionin&g	Time(s)	E(V)
DELAY	TWOPARAM	T	5.00000E+000	0.00000E+000	Init. De&lay	Time(s)	Stab.(mV/s)
SPEED	SELECTOR	1	&Optimize for:
ZGUESS	QUANT	1.00000E+007	E&stimated Z (ohms)
OCVCURVE	TABLE	19
	Pt	T	Vf	Vm	Ach	Over
	#	s	V vs. Ref.	V	V	bits
	0	0.258333	6.22624E-003	6.22624E-003	5.63299E-004	...........
	1	0.516667	6.23045E-003	6.44655E-003	5.67799E-004	...........
	2	0.775	6.24723E-003	6.18072E-003	5.63399E-004	...........
	3	1.03333	6.26943E-003	6.18090E-003	5.56899E-004	...........
	4	1.29167	6.27209E-003	6.18268E-003	5.64499E-004	...........
	5	1.55	6.24646E-003	6.11782E-003	5.64566E-004	...........
	6	1.80833	6.20750E-003	6.09687E-003	5.62899E-004	...........
	7	2.06667	6.16866E-003	6.08531E-003	5.65999E-004	...........
	8	2.325	6.13483E-003	6.07685E-003	5.65599E-004	...........
	9	2.58333	6.10870E-003	6.07634E-003	5.62466E-004	...........
	10	2.84167	6.09130E-003	6.07512E-003	5.61399E-004	...........
	11	3.1	6.08143E-003	6.07330E-003	5.62866E-004	...........
	12	3.35833	6.07683E-003	6.08223E-003	5.64032E-004	...........
	13	3.61667	6.07612E-003	6.10626E-003	5.64432E-004	...........
	14	3.875	6.07929E-003	6.08962E-003	5.59899E-004	...........
	15	4.13333	6.08463E-003	6.06709E-003	5.61099E-004	...........
	16	4.39167	6.08733E-003	6.06877E-003	5.60366E-004	...........
	17	4.65	6.08433E-003	6.06760E-003	5.63699E-004	...........
	18	4.90833	6.07815E-003	6.07853E-003	5.58466E-004	...........
EOC	QUANT	0.0060781	Open Circuit (V)
PSTATMODEL	IQUANT	4	Pstat Model
PSTATSECTION	LABEL	REF600-11020	Pstat Section
PSTATSERIALNO	LABEL	11020	Pstat Serial Number
CTRLMODE	IQUANT	1	Control Mode
IESTAB	IQUANT	0	I/E Stability
CASPEED	IQUANT	1	Control Amp Speed
CONVENTION	IQUANT	1	Current Convention
ICHRANGE	IQUANT	2	Ich Range
ICHRANGEMODE	TOGGLE	F	Ich Auto Range
ICHOFFSETENABLE	TOGGLE	T	Ich Offset Enable
ICHOFFSET	QUANT	0	Ich Offset (V)
ICHFILTER	IQUANT	3	Ich Filter
VCHRANGE	IQUANT	2	Vch Range
VCHRANGEMODE	TOGGLE	F	Vch Auto Range
VCHOFFSETENABLE	TOGGLE	T	Vch Offset Enable
VCHOFFSET	QUANT	0	Vch Offset (V)
VCHFILTER	IQUANT	3	Vch Filter
ACHRANGE	IQUANT	2	Ach Range
ACHOFFSETENABLE	TOGGLE	F	Ach Offset Enable
ACHOFFSET	QUANT	0	Ach Offset (V)
ACHFILTER	IQUANT	3	Ach Filter
IERANGELOWERLIMIT	IQUANT	1	I/E Range Lower Limit
IERANGEMODE	TOGGLE	F	I/E AutoRange
IERANGE	IQUANT	3	I/E Range
POSFEEDENABLE	TOGGLE	F	Positive Feedback IR Comp
POSFEEDRESISTANCE	QUANT	0	Positive Feedback Resistance (ohm)
ACHSELECT	IQUANT	0	Ach Select
CABLEID	IQUANT	14	Cable ID
DCCALDATE	LABEL	8/19/2019	DC Calibration Date
ACCALDATE	LABEL	8/19/2019	AC Calibration Date
THERMOSELECT	IQUANT	1	Thermo Select
FRAMEWORKVERSION	QUANT	6.33	Framework Version
INSTRUMENTVERSION	LABEL	3.50	Instrument Version
ZCURVE	TABLE
	Pt	Time	Freq	Zreal	Zimag	Zsig	Zmod	Zphz	Idc	Vdc	IERange
	#	s	Hz	ohm	ohm	V	ohm	°	A	V	#
	0	3	1000078	2431.748	-1555.473	1	2886.676	-32.6051	-8.863344E-007	0.0080896	8
	1	4	794390.6	2739.069	-1452.749	1	3100.48	-27.94062	3.005391E-006	0.0072627	8
	2	6	630984.4	2990.741	-1296.496	1	3259.668	-23.43689	1.20073E-006	0.0073612	8
	3	7	501234.4	3198.817	-1149.875	1	3399.213	-19.77193	2.052225E-006	0.0073077	8
	4	8	398109.4	3342.211	-1010.505	1	3491.632	-16.82248	-1.054087E-006	0.0079366	8
	5	10	316265.6	3456.424	-833.765	1	3555.563	-13.56191	2.117009E-006	0.007244	8
	6	11	251203.1	3551.713	-718.3602	1	3623.632	-11.43424	1.947084E-006	0.0072432	8
	7	12	199546.9	3610.326	-612.5189	1	3661.917	-9.62897	5.045609E-007	0.007466	8
	8	14	158578.1	3643.464	-548.0715	1	3684.455	-8.554631	2.02993E-006	0.0070624	8
	9	15	125953.1	3713.613	-433.0788	1	3738.78	-6.651746	-5.309871E-007	0.0083616	7
	10	16	100078.1	3734.018	-391.7798	1	3754.515	-5.98966	-4.976852E-008	0.0076502	7
	11	18	79453.13	3761.319	-369.2031	1	3779.396	-5.606073	1.979253E-008	0.007522	7
	12	19	63140.62	3786.933	-360.3777	1	3804.042	-5.436096	4.539133E-008	0.0074598	7
	13	20	50203.12	3814.176	-358.3484	1	3830.973	-5.367282	-4.300978E-008	0.0076368	7
	14	22	39890.62	3840.419	-366.6951	1	3857.886	-5.454243	-4.23722E-008	0.0077444	7
	15	23	31640.63	3873.735	-386.7427	1	3892.992	-5.701356	-2.474012E-008	0.0075943	7
	16	24	25171.88	3906.768	-415.7619	1	3928.828	-6.074607	4.542104E-008	0.007454	7
	17	26	20015.62	3944.663	-451.97	1	3970.472	-6.536308	-4.328948E-008	0.0076569	7
	18	27	15890.62	3984.881	-501.4294	1	4016.306	-7.172002	4.621802E-008	0.0074531	7
	19	28	12609.37	4030.741	-562.8023	1	4069.843	-7.948677	7.915063E-008	0.0074584	7
	20	30	10078.13	4079.376	-634.6357	1	4128.447	-8.842721	7.870212E-008	0.007458	7
	21	31	8015.625	4133.423	-723.3691	1	4196.243	-9.92651	-6.884296E-008	0.0077059	7
	22	32	6328.125	4195.471	-832.7917	1	4277.326	-11.22715	7.571422E-008	0.0075665	7
	23	34	5015.625	4263.913	-964.154	1	4371.561	-12.74142	-2.251008E-008	0.0075827	7
	24	35	3984.375	4337.715	-1120.135	1	4480.009	-14.47927	-1.288226E-008	0.0076477	7
	25	36	3170.956	4419.813	-1306.793	1	4608.953	-16.47122	-1.8047E-008	0.0077364	7
	26	38	2527.573	4510.616	-1534.058	1	4764.346	-18.78314	-5.27658E-008	0.0077023	7
	27	39	1976.103	4621.43	-1829.905	1	4970.53	-21.60162	-4.248939E-008	0.0076179	7
	28	40	1577.524	4734.843	-2161.608	1	5204.93	-24.53823	8.751737E-008	0.0074152	7
	29	42	1265.625	4849.508	-2541.527	1	5475.134	-27.65811	-4.049068E-008	0.0076251	7
	30	43	998.264	5015.396	-3070.739	1	5880.786	-31.47757	-8.760675E-009	0.0076261	7
	31	44	796.875	5180.501	-3666.067	1	6346.466	-35.28576	1.393229E-007	0.007397	7
	32	46	627.7902	5384.753	-4435.684	1	6976.451	-39.47995	-4.02825E-008	0.0076496	7
	33	47	505.5147	5597.848	-5284.319	1	7698.047	-43.34969	-4.441609E-008	0.0076404	7
	34	48	397.9953	5873.112	-6444.879	1	8719.514	-47.6576	5.718158E-009	0.0076067	7
	35	50	315.5048	6188.994	-7823.896	1	9975.82	-51.65469	1.280697E-009	0.0075447	6
	36	51	252.4038	6545.394	-9445.813	1	11491.98	-55.28032	4.337209E-010	0.0075431	6
	37	52	198.6229	7003.49	-11584.11	1	13536.64	-58.8438	1.212386E-009	0.0075464	6
	38	54	158.3615	7521.277	-14071.3	1	15955.28	-61.87497	1.71686E-009	0.0075382	6
	39	55	125.558	8167.929	-17193.24	1	19034.78	-64.58919	1.159291E-009	0.007537	6
	40	56	100.4464	8902.405	-20867.37	1	22687	-66.89601	1.742069E-009	0.0075421	6
	41	58	79.00281	9914.66	-25797.29	1	27636.95	-68.97676	1.46485E-009	0.0075399	6
	42	59	63.3446	11096.25	-30976.94	1	32904.37	-70.29197	7.02669E-010	0.0075415	6
	43	60	49.86702	12544.48	-38778.34	1	40756.89	-72.07403	1.576449E-009	0.0075385	6
	44	62	39.72458	14638.6	-47108.73	1	49330.73	-72.73785	1.113306E-009	0.0075403	6
	45	63	31.6723	16944.93	-57410.09	1	59858.58	-73.55572	4.546011E-010	0.0075394	6
	46	65	24.93351	20548.93	-70901.02	1	73818.79	-73.83707	6.309185E-010	0.0075388	6
	47	66	19.86229	24869.27	-86506.69	1	90010.48	-73.96091	3.949903E-010	0.0075408	6
	48	67	15.83615	30965.37	-104368.1	1	108864.9	-73.47472	1.473044E-009	0.0075471	5
	49	69	12.40079	39174.28	-128769.3	1	134596.3	-73.07915	-2.777789E-010	0.0075555	5
	50	70	9.93114	48435.23	-155414.4	1	162787	-72.69025	1.754655E-010	0.0075518	5
	51	72	7.944915	60979.75	-185968.6	1	195711.1	-71.8455	-2.962652E-010	0.007545	5
	52	73	6.317385	77732.36	-224018.2	1	237121.2	-70.86367	-3.931792E-010	0.0075548	5
	53	75	5.008013	100201.8	-268164.1	1	286273.2	-69.51138	4.173409E-010	0.0075511	5
	54	78	3.945707	129058.6	-320893.8	1	345874.2	-68.09077	9.738504E-011	0.0075398	5
	55	80	3.158693	163472.7	-376762.2	1	410698.3	-66.54455	3.721163E-010	0.0075581	5
	56	84	2.504006	208552.1	-442325.7	1	489025.6	-64.7566	-2.945616E-011	0.0075518	5
	57	86	1.998082	260575	-510394.2	1	573063.3	-62.95401	4.952321E-010	0.0075258	5
	58	89	1.584686	327227.2	-589298.1	1	674054.8	-60.95734	1.39412E-010	0.0074976	5
	59	93	1.266892	398514.7	-668979.3	1	778683.1	-59.21751	4.163082E-010	0.0075425	5
	60	97	0.999041	489286.1	-763372.6	1	906718.6	-57.34203	-1.316602E-010	0.0075278	5
