EXPLAIN
TAG	EISPOT
TITLE	LABEL	Potentiostatic EIS	Test &Identifier
DATE	LABEL	10/6/2019	Date
TIME	LABEL	11:26:02	Time
NOTES	NOTES	2	&Notes...
	
	
PSTAT	PSTAT	REF600-11020	Potentiostat
VDC	POTEN	0.00000E+000	T	DC &Voltage (V)
FREQINIT	QUANT	1.00000E+006	Initial Fre&q. (Hz)
FREQFINAL	QUANT	1.00000E+000	Final Fre&q. (Hz)
PTSPERDEC	QUANT	1.00000E+001	Points/&decade
VAC	QUANT	2.50000E+001	AC &Voltage (mV rms)
AREA	QUANT	1.00000E-002	&Area (cm^2)
CONDIT	TWOPARAM	T	5.00000E+000	0.00000E+000	Conditionin&g	Time(s)	E(V)
DELAY	TWOPARAM	T	5.00000E+000	0.00000E+000	Init. De&lay	Time(s)	Stab.(mV/s)
SPEED	SELECTOR	1	&Optimize for:
ZGUESS	QUANT	1.00000E+004	E&stimated Z (ohms)
OCVCURVE	TABLE	19
	Pt	T	Vf	Vm	Ach	Over
	#	s	V vs. Ref.	V	V	bits
	0	0.258333	4.66587E-003	4.66587E-003	5.12533E-004	...........
	1	0.516667	4.66285E-003	4.50789E-003	5.22366E-004	...........
	2	0.775	4.64470E-003	4.37826E-003	5.19766E-004	...........
	3	1.03333	4.59488E-003	4.26659E-003	5.17600E-004	...........
	4	1.29167	4.50933E-003	4.16145E-003	5.20966E-004	...........
	5	1.55	4.40136E-003	4.07851E-003	5.19566E-004	...........
	6	1.80833	4.28902E-003	3.99148E-003	5.21833E-004	...........
	7	2.06667	4.18378E-003	3.91613E-003	5.19666E-004	...........
	8	2.325	4.08922E-003	3.85800E-003	5.18633E-004	...........
	9	2.58333	4.00532E-003	3.80209E-003	5.13800E-004	...........
	10	2.84167	3.93124E-003	3.73620E-003	5.14233E-004	...........
	11	3.1	3.86504E-003	3.68771E-003	5.13666E-004	...........
	12	3.35833	3.80436E-003	3.65116E-003	5.11967E-004	...........
	13	3.61667	3.74888E-003	3.61726E-003	5.07700E-004	...........
	14	3.875	3.69988E-003	3.58419E-003	5.04900E-004	...........
	15	4.13333	3.65767E-003	3.55268E-003	5.10800E-004	...........
	16	4.39167	3.62072E-003	3.51884E-003	5.12933E-004	...........
	17	4.65	3.58692E-003	3.49381E-003	5.10567E-004	...........
	18	4.90833	3.55493E-003	3.46291E-003	5.10200E-004	...........
EOC	QUANT	0.0035549	Open Circuit (V)
PSTATMODEL	IQUANT	4	Pstat Model
PSTATSECTION	LABEL	REF600-11020	Pstat Section
PSTATSERIALNO	LABEL	11020	Pstat Serial Number
CTRLMODE	IQUANT	1	Control Mode
IESTAB	IQUANT	0	I/E Stability
CASPEED	IQUANT	1	Control Amp Speed
CONVENTION	IQUANT	1	Current Convention
ICHRANGE	IQUANT	2	Ich Range
ICHRANGEMODE	TOGGLE	F	Ich Auto Range
ICHOFFSETENABLE	TOGGLE	T	Ich Offset Enable
ICHOFFSET	QUANT	0	Ich Offset (V)
ICHFILTER	IQUANT	3	Ich Filter
VCHRANGE	IQUANT	2	Vch Range
VCHRANGEMODE	TOGGLE	F	Vch Auto Range
VCHOFFSETENABLE	TOGGLE	T	Vch Offset Enable
VCHOFFSET	QUANT	0	Vch Offset (V)
VCHFILTER	IQUANT	3	Vch Filter
ACHRANGE	IQUANT	2	Ach Range
ACHOFFSETENABLE	TOGGLE	F	Ach Offset Enable
ACHOFFSET	QUANT	0	Ach Offset (V)
ACHFILTER	IQUANT	3	Ach Filter
IERANGELOWERLIMIT	IQUANT	1	I/E Range Lower Limit
IERANGEMODE	TOGGLE	F	I/E AutoRange
IERANGE	IQUANT	5	I/E Range
POSFEEDENABLE	TOGGLE	F	Positive Feedback IR Comp
POSFEEDRESISTANCE	QUANT	0	Positive Feedback Resistance (ohm)
ACHSELECT	IQUANT	0	Ach Select
CABLEID	IQUANT	14	Cable ID
DCCALDATE	LABEL	8/19/2019	DC Calibration Date
ACCALDATE	LABEL	8/19/2019	AC Calibration Date
THERMOSELECT	IQUANT	1	Thermo Select
FRAMEWORKVERSION	QUANT	6.33	Framework Version
INSTRUMENTVERSION	LABEL	3.50	Instrument Version
ZCURVE	TABLE
	Pt	Time	Freq	Zreal	Zimag	Zsig	Zmod	Zphz	Idc	Vdc	IERange
	#	s	Hz	ohm	ohm	V	ohm	°	A	V	#
	0	1	1000078	2304.631	-1549.364	1	2777.022	-33.91227	-4.996521E-006	0.0055371	8
	1	2	794390.6	2607.226	-1456.966	1	2986.7	-29.19726	-1.163939E-006	0.0061612	8
	2	4	630984.4	2872.756	-1338.335	1	3169.206	-24.97948	-4.770332E-006	0.0061358	8
	3	5	501234.4	3081.54	-1172.944	1	3297.224	-20.83861	4.520276E-006	0.0044626	8
	4	6	398109.4	3239.031	-1014.091	1	3394.068	-17.38453	4.765393E-007	0.0050715	8
	5	8	316265.6	3361.136	-880.9444	1	3474.665	-14.68671	-2.296366E-006	0.005535	8
	6	9	251203.1	3458.183	-745.7288	1	3537.675	-12.16902	-4.282362E-007	0.0050879	8
	7	10	199546.9	3527.702	-641.3714	1	3585.532	-10.30439	-3.234283E-007	0.0050294	8
	8	12	158578.1	3585.136	-547.1614	1	3626.65	-8.677488	-2.210319E-006	0.0056505	8
	9	13	125953.1	3639.537	-442.8947	1	3666.386	-6.938201	-5.819232E-007	0.0067174	7
	10	15	100078.1	3659.834	-393.5186	1	3680.929	-6.137071	-4.880273E-008	0.0051334	7
	11	16	79453.13	3687.535	-365.3664	1	3705.591	-5.658482	5.46874E-009	0.0050012	7
	12	17	63140.62	3712.793	-348.5706	1	3729.12	-5.363417	1.196421E-007	0.0048446	7
	13	19	50203.12	3739.346	-340.1143	1	3754.781	-5.19707	-7.126745E-009	0.0049649	7
	14	20	39890.62	3765.329	-341.9698	1	3780.826	-5.189406	-7.906627E-008	0.005246	7
	15	21	31640.63	3793.53	-352.9938	1	3809.918	-5.316153	4.687902E-008	0.004875	7
	16	23	25171.88	3822.562	-372.7979	1	3840.698	-5.570193	-1.213056E-008	0.005043	7
	17	24	20015.62	3853.608	-402.8966	1	3874.612	-5.968618	-8.094617E-008	0.0051285	7
	18	25	15890.62	3889.289	-440.7778	1	3914.186	-6.465811	5.303065E-009	0.0049984	7
	19	27	12609.37	3925.573	-490.4156	1	3956.087	-7.120979	1.39011E-008	0.0049392	7
	20	28	10078.13	3965.301	-550.3458	1	4003.31	-7.901628	1.208532E-007	0.0048376	7
	21	29	8015.625	4010.173	-624.8533	1	4058.562	-8.856442	-5.262455E-009	0.0049641	7
	22	31	6328.125	4056.628	-720.7778	1	4120.164	-10.07511	-8.670739E-009	0.0049988	7
	23	32	5015.625	4107.017	-836.6558	1	4191.37	-11.51438	4.82339E-008	0.0048757	7
	24	34	3984.375	4157.806	-980.251	1	4271.796	-13.2659	1.374954E-008	0.0049403	7
	25	35	3170.956	4219.534	-1153.355	1	4374.322	-15.28763	5.586775E-008	0.0049227	7
	26	36	2527.573	4285.319	-1365.486	1	4497.611	-17.6741	-1.340262E-008	0.0050665	7
	27	38	1976.103	4365.718	-1651.44	1	4667.628	-20.72036	-4.274799E-009	0.0049591	7
	28	39	1577.524	4451.933	-1974.591	1	4870.186	-23.91899	-4.073447E-008	0.0050144	7
	29	40	1265.625	4549.006	-2359.593	1	5124.562	-27.416	4.285349E-008	0.0049644	7
	30	42	998.264	4671.173	-2865.973	1	5480.298	-31.53097	1.214932E-007	0.0048257	7
	31	43	796.875	4808.531	-3455.169	1	5921.163	-35.69913	4.752601E-008	0.0048668	7
	32	44	627.7902	4974.94	-4215.666	1	6520.879	-40.27728	-1.018205E-008	0.0050275	7
	33	46	505.5147	5158.767	-5071.757	1	7234.334	-44.51272	-4.119441E-008	0.0050084	7
	34	47	397.9953	5396.541	-6211.773	1	8228.534	-49.01719	3.26557E-009	0.0050342	7
	35	48	315.5048	5669.934	-7586.766	1	9471.387	-53.22757	3.687939E-009	0.0050429	7
	36	50	252.4038	5987.362	-9208.725	1	10984.04	-56.96874	9.62501E-010	0.0049737	6
	37	51	198.6229	6402.281	-11359.88	1	13039.79	-60.59496	8.453253E-010	0.0049792	6
	38	52	158.3615	6886.474	-13868.94	1	15484.54	-63.5938	1.091329E-009	0.0049763	6
	39	54	125.558	7517.308	-17035.56	1	18620.42	-66.18949	9.677734E-010	0.0049803	6
	40	55	100.4464	8299.248	-20750.99	1	22349.08	-68.20132	9.462111E-010	0.0049733	6
	41	56	79.00281	9321.142	-25675.39	1	27315.01	-70.04718	7.790864E-010	0.004968	6
	42	58	63.3446	10534.83	-31387.88	1	33108.64	-71.4465	9.236319E-010	0.0049711	6
	43	59	49.86702	12374.58	-38414.86	1	40358.79	-72.14468	-1.51505E-010	0.0049701	6
	44	61	39.72458	14784.73	-47005.59	1	49275.89	-72.54	1.131079E-009	0.0049739	6
	45	62	31.6723	17721.49	-57140.76	1	59825.73	-72.76938	8.4907E-010	0.0049731	6
	46	63	24.93351	21913.38	-70222.25	1	73561.95	-72.66908	5.921643E-010	0.0049721	6
	47	65	19.86229	27253.11	-84964.28	1	89228.14	-72.21586	1.03265E-009	0.0049767	6
	48	66	15.83615	34408.05	-103068.8	1	108660.5	-71.53915	2.095959E-009	0.0049724	5
	49	67	12.40079	43942.77	-124443	1	131973.6	-70.55107	1.078522E-009	0.0049706	5
	50	69	9.93114	55192.34	-148475.7	1	158402.1	-69.60857	5.528243E-010	0.0049771	5
	51	70	7.944915	70243.1	-176039.1	1	189535.9	-68.24702	8.679238E-010	0.0049782	5
	52	72	6.317385	89158.5	-207821	1	226138.9	-66.7799	3.740373E-010	0.0049835	5
	53	74	5.008013	113300.1	-244042.1	1	269060.3	-65.09622	4.947056E-010	0.0049819	5
	54	77	3.945707	143442.3	-285821.1	1	319795.8	-63.34974	2.077377E-011	0.0049713	5
	55	79	3.158693	176907	-328111.3	1	372764.1	-61.66789	3.361485E-010	0.0049905	5
	56	83	2.504006	218058	-376864.8	1	435403.7	-59.94586	-2.650848E-010	0.0049713	5
	57	85	1.998082	263314.7	-427166.3	1	501802.4	-58.34941	-1.893036E-011	0.0049349	5
	58	88	1.584686	313976.9	-483304.8	1	576337.6	-56.9904	-2.650638E-011	0.0049742	5
	59	92	1.266892	369532.8	-543396.3	1	657140.8	-55.78262	1.024957E-010	0.0049209	5
	60	96	0.999041	431069.8	-613969.8	1	750186.6	-54.92721	5.523224E-011	0.0050057	5
