EXPLAIN
TAG	EISPOT
TITLE	LABEL	Potentiostatic EIS	Test &Identifier
DATE	LABEL	11/20/2019	Date
TIME	LABEL	10:25:31	Time
NOTES	NOTES	4	&Notes...
	
	
	
	
PSTAT	PSTAT	REF600-11020	Potentiostat
VDC	POTEN	0.00000E+000	T	DC &Voltage (V)
FREQINIT	QUANT	1.00000E+006	Initial Fre&q. (Hz)
FREQFINAL	QUANT	1.00000E+000	Final Fre&q. (Hz)
PTSPERDEC	QUANT	1.00000E+001	Points/&decade
VAC	QUANT	2.50000E+001	AC &Voltage (mV rms)
AREA	QUANT	1.00000E-002	&Area (cm^2)
CONDIT	TWOPARAM	T	5.00000E+000	0.00000E+000	Conditionin&g	Time(s)	E(V)
DELAY	TWOPARAM	T	5.00000E+000	0.00000E+000	Init. De&lay	Time(s)	Stab.(mV/s)
SPEED	SELECTOR	0	&Optimize for:
ZGUESS	QUANT	1.00000E+005	E&stimated Z (ohms)
OCVCURVE	TABLE	19
	Pt	T	Vf	Vm	Ach	Over
	#	s	V vs. Ref.	V	V	bits
	0	0.258333	5.04504E-003	5.04504E-003	5.49966E-004	...........
	1	0.516667	5.04350E-003	4.96418E-003	5.45833E-004	...........
	2	0.775	5.03448E-003	4.91197E-003	5.45766E-004	...........
	3	1.03333	5.01039E-003	4.85515E-003	5.48866E-004	...........
	4	1.29167	4.96962E-003	4.79461E-003	5.52299E-004	...........
	5	1.55	4.91670E-003	4.70007E-003	5.44833E-004	...........
	6	1.80833	4.85506E-003	4.61661E-003	5.41966E-004	...........
	7	2.06667	4.78550E-003	4.56351E-003	5.47799E-004	...........
	8	2.325	4.71216E-003	4.55444E-003	5.50866E-004	...........
	9	2.58333	4.64553E-003	4.55979E-003	5.50833E-004	...........
	10	2.84167	4.59664E-003	4.55423E-003	5.47333E-004	...........
	11	3.1	4.56849E-003	4.53365E-003	5.47766E-004	...........
	12	3.35833	4.55467E-003	4.53229E-003	5.50033E-004	...........
	13	3.61667	4.54669E-003	4.53727E-003	5.58099E-004	...........
	14	3.875	4.54065E-003	4.52768E-003	5.52999E-004	...........
	15	4.13333	4.53576E-003	4.50580E-003	5.53433E-004	...........
	16	4.39167	4.53061E-003	4.51953E-003	5.51799E-004	...........
	17	4.65	4.52493E-003	4.53317E-003	5.52466E-004	...........
	18	4.90833	4.52089E-003	4.49857E-003	5.43533E-004	...........
EOC	QUANT	0.0045209	Open Circuit (V)
PSTATMODEL	IQUANT	4	Pstat Model
PSTATSECTION	LABEL	REF600-11020	Pstat Section
PSTATSERIALNO	LABEL	11020	Pstat Serial Number
CTRLMODE	IQUANT	1	Control Mode
IESTAB	IQUANT	0	I/E Stability
CASPEED	IQUANT	1	Control Amp Speed
CONVENTION	IQUANT	1	Current Convention
ICHRANGE	IQUANT	2	Ich Range
ICHRANGEMODE	TOGGLE	F	Ich Auto Range
ICHOFFSETENABLE	TOGGLE	T	Ich Offset Enable
ICHOFFSET	QUANT	0	Ich Offset (V)
ICHFILTER	IQUANT	3	Ich Filter
VCHRANGE	IQUANT	2	Vch Range
VCHRANGEMODE	TOGGLE	F	Vch Auto Range
VCHOFFSETENABLE	TOGGLE	T	Vch Offset Enable
VCHOFFSET	QUANT	0	Vch Offset (V)
VCHFILTER	IQUANT	3	Vch Filter
ACHRANGE	IQUANT	2	Ach Range
ACHOFFSETENABLE	TOGGLE	F	Ach Offset Enable
ACHOFFSET	QUANT	0	Ach Offset (V)
ACHFILTER	IQUANT	3	Ach Filter
IERANGELOWERLIMIT	IQUANT	1	I/E Range Lower Limit
IERANGEMODE	TOGGLE	F	I/E AutoRange
IERANGE	IQUANT	4	I/E Range
POSFEEDENABLE	TOGGLE	F	Positive Feedback IR Comp
POSFEEDRESISTANCE	QUANT	0	Positive Feedback Resistance (ohm)
ACHSELECT	IQUANT	0	Ach Select
CABLEID	IQUANT	14	Cable ID
DCCALDATE	LABEL	8/19/2019	DC Calibration Date
ACCALDATE	LABEL	8/19/2019	AC Calibration Date
THERMOSELECT	IQUANT	1	Thermo Select
FRAMEWORKVERSION	QUANT	6.33	Framework Version
INSTRUMENTVERSION	LABEL	3.50	Instrument Version
ZCURVE	TABLE
	Pt	Time	Freq	Zreal	Zimag	Zsig	Zmod	Zphz	Idc	Vdc	IERange
	#	s	Hz	ohm	ohm	V	ohm	°	A	V	#
	0	2	1000078	1886.291	-2163.031	1	2869.982	-48.90965	-2.629788E-007	0.0064534	8
	1	2	794390.6	2267.7	-2341.694	1	3259.754	-45.91969	-2.076952E-007	0.0060939	8
	2	2	630984.4	2695.269	-2522.517	1	3691.553	-43.10374	-2.805378E-006	0.0068244	8
	3	3	501234.4	3154.812	-2669.231	1	4132.509	-40.23398	-2.05972E-006	0.0060733	8
	4	3	398109.4	3674.893	-2752.47	1	4591.397	-36.83297	3.967898E-006	0.0060695	8
	5	3	316265.6	4202.271	-2796.118	1	5047.51	-33.63911	-2.676249E-006	0.0065604	8
	6	4	251203.1	4748.534	-2749.407	1	5487.059	-30.07089	-6.974704E-007	0.00646	8
	7	4	199546.9	5264.454	-2632.302	1	5885.873	-26.56571	6.484016E-007	0.0064182	8
	8	4	158578.1	5729.896	-2376.295	1	6203.104	-22.5247	-2.382301E-006	0.006539	8
	9	5	125953.1	6231.725	-2186.805	1	6604.279	-19.33673	2.195863E-006	0.0058906	7
	10	5	100078.1	6508.014	-1895.732	1	6778.499	-16.24042	-6.257939E-007	0.0076642	7
	11	5	79453.13	6752	-1655.702	1	6952.04	-13.778	-1.111033E-006	0.0076855	7
	12	6	63140.62	6948.541	-1423.143	1	7092.782	-11.57478	-1.072166E-006	0.0065756	7
	13	6	50203.12	7122.607	-1220.91	1	7226.489	-9.72673	4.783347E-007	0.0043353	7
	14	7	39890.62	7229.686	-1059.806	1	7306.952	-8.339643	-2.901498E-007	0.0074033	7
	15	7	31640.63	7317.965	-907.0792	1	7373.968	-7.065908	4.72182E-007	0.0043375	7
	16	7	25171.88	7394.485	-803.9517	1	7438.061	-6.205005	4.015372E-007	0.006569	7
	17	8	20015.62	7419.839	-732.1349	1	7455.872	-5.635283	-9.03923E-007	0.0077305	7
	18	8	15890.62	7450.791	-651.6537	1	7479.233	-4.998428	-3.445617E-007	0.005193	7
	19	8	12609.37	7478.171	-621.4155	1	7503.945	-4.750209	-1.240829E-006	0.0071365	7
	20	9	10078.13	7536.49	-620.9753	1	7562.03	-4.710293	-2.901467E-007	0.0073937	7
	21	9	8015.625	7570.742	-627.2303	1	7596.68	-4.736096	8.053626E-008	0.0069994	7
	22	10	6328.125	7561.256	-672.7632	1	7591.126	-5.084507	-1.243067E-006	0.0071334	7
	23	10	5015.625	7605.126	-748.8782	1	7641.909	-5.623796	-9.069869E-007	0.0077328	7
	24	10	3984.375	7620.624	-850.5291	1	7667.94	-6.368361	-1.242699E-006	0.0074959	7
	25	11	3170.956	7653.693	-992.762	1	7717.811	-7.390584	-1.110297E-006	0.0076678	7
	26	11	2527.573	7714.083	-1167.137	1	7801.877	-8.603571	-6.223347E-007	0.0076389	7
	27	11	1976.103	7797.179	-1427.972	1	7926.86	-10.37811	1.109958E-006	0.0045028	7
	28	12	1577.524	7831.292	-1690.37	1	8011.647	-12.18032	7.815503E-007	0.0042024	7
	29	12	1265.625	7891.249	-2043.945	1	8151.657	-14.52129	4.735301E-007	0.004324	7
	30	13	998.264	7956.449	-2490.896	1	8337.244	-17.38358	-1.24239E-006	0.0074935	7
	31	13	796.875	8086.802	-3048.169	1	8642.205	-20.653	4.743589E-007	0.0043234	7
	32	13	627.7902	8239.741	-3768.088	1	9060.454	-24.57493	7.821678E-007	0.0042043	7
	33	14	505.5147	8416.258	-4579.474	1	9581.49	-28.5516	6.321459E-007	0.0062194	7
	34	14	397.9953	8626.176	-5616.345	1	10293.41	-33.06741	-1.031308E-009	0.0060397	7
	35	14	315.5048	8921.985	-6887.032	1	11270.89	-37.66516	3.369981E-010	0.0059744	6
	36	15	252.4038	9290.117	-8376.645	1	12508.97	-42.04012	1.9954E-010	0.0059688	6
	37	15	198.6229	9808.65	-10321.06	1	14238.46	-46.45817	6.935744E-010	0.0059745	6
	38	15	158.3615	10453.43	-12548.38	1	16332.06	-50.204	7.727665E-010	0.0059759	6
	39	16	125.558	11314.11	-15296.71	1	19026.26	-53.51176	4.977871E-011	0.0059798	6
	40	16	100.4464	12402.65	-18444.91	1	22227.02	-56.08248	-4.787457E-010	0.0059664	6
	41	16	79.00281	13968.02	-22495.22	1	26479.06	-58.1625	1.613065E-010	0.0059637	6
	42	17	63.3446	15589.06	-26979.96	1	31159.87	-59.98063	9.389499E-010	0.0059714	6
	43	17	49.86702	18136.76	-32480.49	1	37201.13	-60.82148	2.251063E-010	0.0059727	6
	44	17	39.72458	21325.89	-38549.44	1	44055.11	-61.04825	1.134207E-009	0.0059616	6
	45	18	31.6723	25078.91	-45435.29	1	51897.18	-61.10262	9.950706E-010	0.005964	6
	46	18	24.93351	29764.65	-53793.91	1	61479.42	-61.04385	-2.621418E-010	0.0059741	6
	47	18	19.86229	34996.63	-62823.24	1	71913.3	-60.87935	1.318704E-010	0.0059724	6
	48	18	15.83615	41367.28	-72658.59	1	83609.35	-60.3455	-1.094143E-009	0.0059694	6
	49	19	12.40079	48628.45	-86034.99	1	98826.8	-60.52412	-4.718786E-010	0.0059677	6
	50	19	9.93114	55990.04	-99245.5	1	113949.8	-60.57018	-1.068807E-009	0.0059744	5
	51	19	7.944915	64134.54	-114951.3	1	131632.2	-60.84163	4.740666E-010	0.0059738	5
	52	20	6.317385	73860.61	-134499.3	1	153445.3	-61.2265	3.006749E-010	0.0059529	5
	53	21	5.008013	85080.92	-158161.8	1	179593.8	-61.7226	3.608552E-010	0.0059693	5
	54	22	3.945707	98594.6	-187400.5	1	211754.2	-62.25037	-1.526165E-010	0.0059702	5
	55	23	3.158693	113617.6	-219763.1	1	247396	-62.66103	-6.928045E-013	0.0059475	5
	56	25	2.504006	132401.4	-260241.8	1	291986.2	-63.03469	2.219031E-010	0.0059615	5
	57	26	1.998082	154195.6	-305939	1	342600.3	-63.25155	-4.819054E-011	0.0059365	5
	58	28	1.584686	181665.9	-362616.9	1	405578	-63.38978	-9.76601E-011	0.0059164	5
	59	29	1.266892	212272.2	-425694.7	1	475684.2	-63.49691	-3.824819E-011	0.0059426	5
	60	32	0.999041	251864.6	-503101.3	1	562624.9	-63.40635	9.67743E-013	0.005972	5
