EXPLAIN
TAG	EISPOT
TITLE	LABEL	Potentiostatic EIS	Test &Identifier
DATE	LABEL	10/28/2019	Date
TIME	LABEL	10:29:12	Time
NOTES	NOTES	1	&Notes...
	
PSTAT	PSTAT	REF600-11020	Potentiostat
VDC	POTEN	0.00000E+000	T	DC &Voltage (V)
FREQINIT	QUANT	1.00000E+006	Initial Fre&q. (Hz)
FREQFINAL	QUANT	1.00000E+000	Final Fre&q. (Hz)
PTSPERDEC	QUANT	1.00000E+001	Points/&decade
VAC	QUANT	2.50000E+001	AC &Voltage (mV rms)
AREA	QUANT	1.00000E-002	&Area (cm^2)
CONDIT	TWOPARAM	T	5.00000E+000	0.00000E+000	Conditionin&g	Time(s)	E(V)
DELAY	TWOPARAM	T	5.00000E+000	0.00000E+000	Init. De&lay	Time(s)	Stab.(mV/s)
SPEED	SELECTOR	1	&Optimize for:
ZGUESS	QUANT	1.00000E+005	E&stimated Z (ohms)
OCVCURVE	TABLE	19
	Pt	T	Vf	Vm	Ach	Over
	#	s	V vs. Ref.	V	V	bits
	0	0.258333	8.36228E-003	8.36228E-003	5.70432E-004	...........
	1	0.516667	8.36369E-003	8.43604E-003	5.71299E-004	...........
	2	0.775	8.37229E-003	8.50319E-003	5.65366E-004	...........
	3	1.03333	8.39573E-003	8.53045E-003	5.70099E-004	...........
	4	1.29167	8.43105E-003	8.38978E-003	5.68966E-004	...........
	5	1.55	8.46166E-003	8.56817E-003	5.69432E-004	...........
	6	1.80833	8.48170E-003	8.66128E-003	5.68732E-004	...........
	7	2.06667	8.51079E-003	8.77152E-003	5.66999E-004	...........
	8	2.325	8.56980E-003	8.91436E-003	5.67532E-004	...........
	9	2.58333	8.66013E-003	9.01929E-003	5.66266E-004	...........
	10	2.84167	8.77013E-003	9.10007E-003	5.62499E-004	...........
	11	3.1	8.88481E-003	9.17787E-003	5.68532E-004	...........
	12	3.35833	8.99149E-003	9.23736E-003	5.67966E-004	...........
	13	3.61667	9.08434E-003	9.31115E-003	5.65232E-004	...........
	14	3.875	9.16473E-003	9.39089E-003	5.71599E-004	...........
	15	4.13333	9.23810E-003	9.45348E-003	5.71766E-004	...........
	16	4.39167	9.30913E-003	9.51955E-003	5.69866E-004	...........
	17	4.65	9.37954E-003	9.60889E-003	5.72566E-004	...........
	18	4.90833	9.45053E-003	9.68799E-003	5.68599E-004	...........
EOC	QUANT	0.0094505	Open Circuit (V)
PSTATMODEL	IQUANT	4	Pstat Model
PSTATSECTION	LABEL	REF600-11020	Pstat Section
PSTATSERIALNO	LABEL	11020	Pstat Serial Number
CTRLMODE	IQUANT	1	Control Mode
IESTAB	IQUANT	0	I/E Stability
CASPEED	IQUANT	1	Control Amp Speed
CONVENTION	IQUANT	1	Current Convention
ICHRANGE	IQUANT	2	Ich Range
ICHRANGEMODE	TOGGLE	F	Ich Auto Range
ICHOFFSETENABLE	TOGGLE	T	Ich Offset Enable
ICHOFFSET	QUANT	0	Ich Offset (V)
ICHFILTER	IQUANT	3	Ich Filter
VCHRANGE	IQUANT	2	Vch Range
VCHRANGEMODE	TOGGLE	F	Vch Auto Range
VCHOFFSETENABLE	TOGGLE	T	Vch Offset Enable
VCHOFFSET	QUANT	0	Vch Offset (V)
VCHFILTER	IQUANT	3	Vch Filter
ACHRANGE	IQUANT	2	Ach Range
ACHOFFSETENABLE	TOGGLE	F	Ach Offset Enable
ACHOFFSET	QUANT	0	Ach Offset (V)
ACHFILTER	IQUANT	3	Ach Filter
IERANGELOWERLIMIT	IQUANT	1	I/E Range Lower Limit
IERANGEMODE	TOGGLE	F	I/E AutoRange
IERANGE	IQUANT	5	I/E Range
POSFEEDENABLE	TOGGLE	F	Positive Feedback IR Comp
POSFEEDRESISTANCE	QUANT	0	Positive Feedback Resistance (ohm)
ACHSELECT	IQUANT	0	Ach Select
CABLEID	IQUANT	14	Cable ID
DCCALDATE	LABEL	8/19/2019	DC Calibration Date
ACCALDATE	LABEL	8/19/2019	AC Calibration Date
THERMOSELECT	IQUANT	1	Thermo Select
FRAMEWORKVERSION	QUANT	6.33	Framework Version
INSTRUMENTVERSION	LABEL	3.50	Instrument Version
ZCURVE	TABLE
	Pt	Time	Freq	Zreal	Zimag	Zsig	Zmod	Zphz	Idc	Vdc	IERange
	#	s	Hz	ohm	ohm	V	ohm	°	A	V	#
	0	2	1000078	2305.527	-1949.708	1	3019.407	-40.2201	-8.146398E-006	0.0122328	8
	1	3	794390.6	2742.293	-2081.429	1	3442.749	-37.19888	-2.34484E-006	0.0124496	8
	2	5	630984.4	3163.402	-2062.958	1	3776.626	-33.10969	2.842927E-006	0.0105057	8
	3	6	501234.4	3543.606	-1997.21	1	4067.676	-29.40602	-1.162776E-006	0.0113891	8
	4	8	398109.4	3923.852	-1881.577	1	4351.66	-25.61879	3.012848E-006	0.0104832	8
	5	10	316265.6	4219.446	-1737.562	1	4563.206	-22.38179	3.743271E-008	0.0109263	8
	6	11	251203.1	4512.938	-1558.632	1	4774.509	-19.05336	-2.194488E-006	0.0114628	8
	7	13	199546.9	4725.776	-1408.56	1	4931.227	-16.59717	-6.014463E-007	0.0112655	8
	8	14	158578.1	4918.254	-1247.375	1	5073.97	-14.23137	4.593973E-006	0.0101845	8
	9	16	125953.1	5117.057	-1010.495	1	5215.877	-11.1708	4.441407E-007	0.0098919	7
	10	17	100078.1	5224.562	-930.6114	1	5306.796	-10.09974	-4.926377E-008	0.0110386	7
	11	19	79453.13	5285.405	-808.1101	1	5346.826	-8.692898	-1.398864E-008	0.0111717	7
	12	20	63140.62	5354.703	-734.2797	1	5404.814	-7.808156	-4.99951E-008	0.0110354	7
	13	21	50203.12	5418.988	-682.9052	1	5461.849	-7.182596	4.92231E-008	0.0109446	7
	14	23	39890.62	5473.199	-646.7405	1	5511.278	-6.739105	-5.219538E-008	0.0110319	7
	15	24	31640.63	5527.2	-631.85	1	5563.198	-6.521542	1.0018E-007	0.010943	7
	16	25	25171.88	5579.656	-631.4565	1	5615.273	-6.456762	-8.887852E-008	0.0111369	7
	17	27	20015.62	5624.746	-649.8167	1	5662.157	-6.590063	-4.976695E-008	0.0111768	7
	18	28	15890.62	5682.791	-682.2894	1	5723.603	-6.846297	4.731972E-008	0.0108359	7
	19	30	12609.37	5733.633	-740.6935	1	5781.278	-7.360929	1.653983E-007	0.0107635	7
	20	31	10078.13	5774.02	-860.4803	1	5837.785	-8.476192	5.21235E-008	0.0108372	7
	21	32	8015.625	5854.304	-896.0405	1	5922.479	-8.701971	-8.822999E-008	0.0111366	7
	22	34	6328.125	5912.757	-1022.547	1	6000.524	-9.81164	1.003269E-007	0.0107898	7
	23	35	5015.625	5982.042	-1181.034	1	6097.513	-11.16827	-2.958607E-008	0.0109824	7
	24	37	3984.375	6064.834	-1384.835	1	6220.931	-12.86231	-4.823862E-008	0.0110272	7
	25	39	3170.956	6127.209	-1617.13	1	6337.019	-14.78472	2.065372E-008	0.0109007	7
	26	40	2527.573	6222.893	-1914.042	1	6510.604	-17.09689	-1.44417E-008	0.0110643	7
	27	41	1976.103	6344.378	-2308.284	1	6751.245	-19.99298	1.97811E-008	0.0108908	7
	28	43	1577.524	6466.963	-2704.106	1	7009.551	-22.69183	-1.573843E-008	0.0110657	7
	29	44	1265.625	6592.411	-3291.938	1	7368.631	-26.53537	-7.423529E-009	0.0111456	7
	30	46	998.264	6762.737	-3998.575	1	7856.412	-30.59437	-1.502976E-008	0.0110417	7
	31	47	796.875	6940.658	-4821.506	1	8451.015	-34.78677	-5.193694E-008	0.0110246	7
	32	49	627.7902	7178.556	-5888.237	1	9284.558	-39.36044	9.934817E-008	0.0107884	7
	33	50	505.5147	7427.792	-7080.731	1	10262.01	-43.62968	1.887204E-009	0.0110599	6
	34	51	397.9953	7753.098	-8694.934	1	11649.57	-48.27725	2.787649E-010	0.010958	6
	35	53	315.5048	8139.555	-10641.35	1	13397.41	-52.58767	1.809416E-009	0.0109569	6
	36	54	252.4038	8594.087	-12938.82	1	15532.91	-56.40751	1.583471E-010	0.010953	6
	37	55	198.6229	9213.072	-15981.63	1	18447.04	-60.03747	4.363066E-010	0.0109584	6
	38	57	158.3615	9953.33	-19529.84	1	21919.93	-62.99445	1.72901E-010	0.0109544	6
	39	58	125.558	10947.38	-23970.98	1	26352.48	-65.45415	7.366395E-010	0.0109523	6
	40	59	100.4464	12173.2	-29251.75	1	31683.62	-67.40522	-4.879304E-010	0.0109547	6
	41	61	79.00281	13849.54	-35990.33	1	38563.11	-68.95263	-5.408747E-010	0.0109562	6
	42	62	63.3446	16084.5	-43011.2	1	45920.3	-69.49618	8.548738E-010	0.0109517	6
	43	64	49.86702	19460.96	-54421.48	1	57796.43	-70.3231	8.993277E-011	0.0109534	6
	44	65	39.72458	23247.79	-65594.35	1	69592.23	-70.48478	1.177769E-009	0.0109603	6
	45	66	31.6723	28148.27	-79556.22	1	84389.08	-70.5154	1.332526E-009	0.0109576	6
	46	68	24.93351	35922.77	-96589.7	1	103053.4	-69.59927	2.739673E-010	0.0109502	6
	47	69	19.86229	45532.66	-115337.4	1	123999.7	-68.45699	1.082327E-009	0.0109583	5
	48	71	15.83615	58408.75	-139493.7	1	151228.6	-67.27999	2.413975E-009	0.0109507	5
	49	72	12.40079	74896.01	-161522.2	1	178041.7	-65.12338	-6.823277E-010	0.0109598	5
	50	74	9.93114	94724.51	-190967.6	1	213169.8	-63.61749	1.055018E-010	0.0109673	5
	51	75	7.944915	120065.6	-219660.5	1	250332.8	-61.33915	3.580823E-010	0.0109643	5
	52	77	6.317385	148484.2	-249199.9	1	290083	-59.21167	-2.422806E-010	0.0109693	5
	53	79	5.008013	182523.8	-281574	1	335557.5	-57.04761	-1.015871E-010	0.0109509	5
	54	82	3.945707	220518.1	-315909.6	1	385262.3	-55.08335	4.005322E-010	0.0109627	5
	55	84	3.158693	258872.4	-350714.7	1	435907.9	-53.56792	-1.931015E-010	0.010945	5
	56	88	2.504006	300191.7	-390046.6	1	492190.4	-52.41703	4.037833E-010	0.010968	5
	57	90	1.998082	341900.4	-433507.4	1	552109.2	-51.73771	2.597882E-010	0.0109771	5
	58	93	1.584686	386461	-484591.7	1	619823.5	-51.4277	1.533432E-011	0.0109061	5
	59	97	1.266892	429967.3	-546320.6	1	695225.2	-51.79641	1.889082E-010	0.0109623	5
	60	101	0.999041	481489.3	-625895.6	1	789669.1	-52.42962	-2.001376E-010	0.0109329	5
