EXPLAIN
TAG	EISPOT
TITLE	LABEL	Potentiostatic IDE	Test &Identifier
DATE	LABEL	9/10/2019	Date
TIME	LABEL	8:20:11	Time
NOTES	NOTES	1	&Notes...
	
PSTAT	PSTAT	REF600-11020	Potentiostat
VDC	POTEN	0.00000E+000	T	DC &Voltage (V)
FREQINIT	QUANT	1.00000E+006	Initial Fre&q. (Hz)
FREQFINAL	QUANT	1.00000E+000	Final Fre&q. (Hz)
PTSPERDEC	QUANT	1.00000E+001	Points/&decade
VAC	QUANT	2.50000E+001	AC &Voltage (mV rms)
AREA	QUANT	1.00000E-002	&Area (cm^2)
CONDIT	TWOPARAM	T	5.00000E+000	0.00000E+000	Conditionin&g	Time(s)	E(V)
DELAY	TWOPARAM	T	5.00000E+000	0.00000E+000	Init. De&lay	Time(s)	Stab.(mV/s)
SPEED	SELECTOR	1	&Optimize for:
ZGUESS	QUANT	1.00000E+007	E&stimated Z (ohms)
OCVCURVE	TABLE	18
	Pt	T	Vf	Vm	Ach	Over
	#	s	V vs. Ref.	V	V	bits
	0	0.258333	6.24563E-003	6.24563E-003	5.66166E-004	...........
	1	0.516667	6.24579E-003	6.25421E-003	5.64266E-004	...........
	2	0.775	6.24724E-003	6.28531E-003	5.66066E-004	...........
	3	1.03333	6.25295E-003	6.32392E-003	5.70732E-004	...........
	4	1.29167	6.26692E-003	6.37092E-003	5.66199E-004	...........
	5	1.55	6.29154E-003	6.41754E-003	5.65166E-004	...........
	6	1.80833	6.32629E-003	6.47166E-003	5.65166E-004	...........
	7	2.06667	6.36878E-003	6.52324E-003	5.62299E-004	...........
	8	2.325	6.41636E-003	6.57281E-003	5.61466E-004	...........
	9	2.58333	6.46672E-003	6.62778E-003	5.69266E-004	...........
	10	2.84167	6.51832E-003	6.68054E-003	5.61432E-004	...........
	11	3.1	6.57058E-003	6.73419E-003	5.65332E-004	...........
	12	3.35833	6.62340E-003	6.78883E-003	5.69132E-004	...........
	13	3.61667	6.67674E-003	6.84411E-003	5.64466E-004	...........
	14	3.875	6.73058E-003	6.89738E-003	5.62066E-004	...........
	15	4.13333	6.78477E-003	6.95095E-003	5.66332E-004	...........
	16	4.39167	6.83892E-003	7.00059E-003	5.63466E-004	...........
	17	4.65	6.89246E-003	7.04957E-003	5.65232E-004	...........
EOC	QUANT	0.0069448	Open Circuit (V)
PSTATMODEL	IQUANT	4	Pstat Model
PSTATSECTION	LABEL	REF600-11020	Pstat Section
PSTATSERIALNO	LABEL	11020	Pstat Serial Number
CTRLMODE	IQUANT	1	Control Mode
IESTAB	IQUANT	0	I/E Stability
CASPEED	IQUANT	1	Control Amp Speed
CONVENTION	IQUANT	1	Current Convention
ICHRANGE	IQUANT	2	Ich Range
ICHRANGEMODE	TOGGLE	F	Ich Auto Range
ICHOFFSETENABLE	TOGGLE	T	Ich Offset Enable
ICHOFFSET	QUANT	0	Ich Offset (V)
ICHFILTER	IQUANT	3	Ich Filter
VCHRANGE	IQUANT	2	Vch Range
VCHRANGEMODE	TOGGLE	F	Vch Auto Range
VCHOFFSETENABLE	TOGGLE	T	Vch Offset Enable
VCHOFFSET	QUANT	0	Vch Offset (V)
VCHFILTER	IQUANT	3	Vch Filter
ACHRANGE	IQUANT	2	Ach Range
ACHOFFSETENABLE	TOGGLE	F	Ach Offset Enable
ACHOFFSET	QUANT	0	Ach Offset (V)
ACHFILTER	IQUANT	3	Ach Filter
IERANGELOWERLIMIT	IQUANT	1	I/E Range Lower Limit
IERANGEMODE	TOGGLE	F	I/E AutoRange
IERANGE	IQUANT	3	I/E Range
POSFEEDENABLE	TOGGLE	F	Positive Feedback IR Comp
POSFEEDRESISTANCE	QUANT	0	Positive Feedback Resistance (ohm)
ACHSELECT	IQUANT	0	Ach Select
CABLEID	IQUANT	14	Cable ID
DCCALDATE	LABEL	8/19/2019	DC Calibration Date
ACCALDATE	LABEL	8/19/2019	AC Calibration Date
THERMOSELECT	IQUANT	1	Thermo Select
FRAMEWORKVERSION	QUANT	6.33	Framework Version
INSTRUMENTVERSION	LABEL	3.50	Instrument Version
ZCURVE	TABLE
	Pt	Time	Freq	Zreal	Zimag	Zsig	Zmod	Zphz	Idc	Vdc	IERange
	#	s	Hz	ohm	ohm	V	ohm	°	A	V	#
	0	2	1000078	2071.623	-927.1631	1	2269.637	-24.11109	-2.201654E-006	0.009348	8
	1	3	794390.6	2213.703	-833.4012	1	2365.384	-20.63004	2.21205E-007	0.0093374	8
	2	5	630984.4	2333.232	-732.4799	1	2445.506	-17.42883	-4.425428E-007	0.0090998	8
	3	6	501234.4	2428.137	-634.3577	1	2509.633	-14.64143	3.503036E-006	0.0080327	8
	4	7	398109.4	2497.956	-550.5316	1	2557.903	-12.42889	-1.660326E-006	0.0090562	8
	5	9	316265.6	2546.994	-477.4971	1	2591.367	-10.61826	-5.832414E-007	0.008784	8
	6	10	251203.1	2586.916	-416.8117	1	2620.279	-9.153005	-1.238665E-006	0.0089804	8
	7	11	199546.9	2621.568	-379.2473	1	2648.858	-8.231549	-3.804184E-007	0.0088412	8
	8	13	158578.1	2653.131	-340.9843	1	2674.953	-7.323592	9.400319E-007	0.0084116	8
	9	14	125953.1	2690.721	-288.3029	1	2706.122	-6.115743	-7.336884E-008	0.0084462	7
	10	15	100078.1	2709.932	-275.4695	1	2723.897	-5.804282	6.151538E-008	0.0085503	7
	11	17	79453.13	2734.358	-275.9997	1	2748.252	-5.763779	-6.650929E-010	0.0085959	7
	12	18	63140.62	2760.278	-282.2198	1	2774.668	-5.83782	7.136016E-009	0.0086564	7
	13	19	50203.12	2788.081	-293.1191	1	2803.447	-6.001626	-2.438066E-008	0.0086488	7
	14	20	39890.62	2817.431	-310.7893	1	2834.521	-6.294817	-4.358175E-008	0.0086617	7
	15	22	31640.63	2850.115	-334.6965	1	2869.7	-6.69772	-1.299433E-009	0.0085864	7
	16	23	25171.88	2886.708	-360.8504	1	2909.174	-7.125249	-4.106044E-009	0.0085795	7
	17	24	20015.62	2924.336	-396.7593	1	2951.128	-7.726427	7.854939E-009	0.0086508	7
	18	26	15890.62	2967.41	-437.2683	1	2999.455	-8.382601	-5.151095E-008	0.00865	7
	19	27	12609.37	3016.343	-486.9769	1	3055.4	-9.171048	-4.422244E-008	0.0086607	7
	20	28	10078.13	3065.98	-542.9447	1	3113.684	-10.04222	2.854058E-008	0.0084935	7
	21	30	8015.625	3123.315	-609.9633	1	3182.318	-11.05041	4.856677E-008	0.0085009	7
	22	31	6328.125	3189.253	-691.6401	1	3263.388	-12.23602	-1.046316E-008	0.0085615	7
	23	32	5015.625	3259.178	-786.0648	1	3352.632	-13.55991	6.625825E-008	0.0085294	7
	24	34	3984.375	3336.064	-895.1161	1	3454.064	-15.01956	-2.446506E-008	0.0085836	7
	25	35	3170.956	3419.399	-1023.327	1	3569.242	-16.66092	2.96861E-008	0.0085621	7
	26	36	2527.573	3512.675	-1175.389	1	3704.109	-18.50094	-4.419278E-008	0.0086549	7
	27	38	1976.103	3619.661	-1365.717	1	3868.737	-20.67176	-5.331213E-009	0.008579	7
	28	39	1577.524	3727	-1578.862	1	4047.634	-22.95888	-2.213193E-008	0.0085718	7
	29	40	1265.625	3843.767	-1830.662	1	4257.449	-25.46695	-2.508702E-008	0.0085831	7
	30	42	998.264	3979.467	-2152.225	1	4524.183	-28.40597	-3.759098E-008	0.0086329	7
	31	43	796.875	4118.964	-2521.862	1	4829.664	-31.47731	-3.101211E-009	0.0085669	7
	32	44	627.7902	4282.341	-3001.874	1	5229.693	-35.03004	9.628995E-009	0.0086473	7
	33	46	505.5147	4447.115	-3535.01	1	5680.945	-38.48118	4.490064E-008	0.008488	7
	34	47	397.9953	4641.068	-4251.992	1	6294.358	-42.49488	4.614682E-009	0.0086046	7
	35	48	315.5048	4851.815	-5113.162	1	7048.726	-46.50232	4.095376E-009	0.0086079	7
	36	50	252.4038	5078.262	-6134.143	1	7963.445	-50.37972	4.581424E-009	0.0086037	7
	37	51	198.6229	5355.542	-7492.854	1	9210.032	-54.44459	5.050231E-009	0.008606	7
	38	52	158.3615	5663.792	-9089.706	1	10709.87	-58.07298	1.030113E-009	0.0085388	6
	39	54	125.558	6043.168	-11119.06	1	12655.17	-61.47609	1.019323E-009	0.0085477	6
	40	55	100.4464	6488.813	-13526.79	1	15002.63	-64.37293	4.439383E-010	0.0085403	6
	41	56	79.00281	7088.09	-16717.12	1	18157.73	-67.02296	3.988702E-010	0.0085493	6
	42	58	63.3446	7869.471	-20344.68	1	21813.63	-68.85316	5.2674E-010	0.0085465	6
	43	59	49.86702	8772.615	-25215.68	1	26698.12	-70.81705	2.805922E-010	0.0085451	6
	44	61	39.72458	10064.79	-30820.28	1	32422.05	-71.91483	6.044532E-010	0.0085469	6
	45	62	31.6723	11694.85	-37671.72	1	39445.25	-72.75351	6.644511E-010	0.0085505	6
	46	63	24.93351	13922.59	-46458.15	1	48499.46	-73.31757	2.17915E-010	0.0085439	6
	47	65	19.86229	16769.65	-56621.18	1	59052.34	-73.50214	4.481805E-010	0.0085431	6
	48	66	15.83615	20488.77	-68622.05	1	71615.48	-73.37574	-9.303875E-011	0.0085426	6
	49	67	12.40079	25641.85	-84513.84	1	88318.13	-73.12198	1.347441E-009	0.0085449	6
	50	69	9.93114	31736.22	-101760.5	1	106594.5	-72.67878	6.097969E-010	0.0085533	5
	51	70	7.944915	39308.96	-121912.3	1	128092.9	-72.12879	1.071777E-009	0.0085442	5
	52	72	6.317385	49530.29	-146602.8	1	154743.7	-71.33227	5.961261E-010	0.0085354	5
	53	74	5.008013	62533.9	-175988.8	1	186768.7	-70.4384	-1.040853E-010	0.0085414	5
	54	76	3.945707	79152.16	-211056.4	1	225410.5	-69.44253	4.577681E-010	0.0085534	5
	55	79	3.158693	98739	-249356.6	1	268194.2	-68.39767	-1.484092E-011	0.0085543	5
	56	82	2.504006	123201.7	-295134.6	1	319817.3	-67.34228	6.780837E-011	0.0085403	5
	57	85	1.998082	151480.8	-346514.1	1	378177.8	-66.38715	-1.614113E-010	0.0085404	5
	58	88	1.584686	187808.5	-406907.2	1	448157.9	-65.22425	2.22314E-011	0.0085856	5
	59	91	1.266892	228432.1	-473904	1	526085.8	-64.26492	-7.766529E-011	0.0085133	5
	60	96	0.999041	280590.2	-553965.5	1	620973.9	-63.13723	8.936088E-011	0.0085913	5
