EXPLAIN
TAG	EISPOT
TITLE	LABEL	Potentiostatic EIS	Test &Identifier
DATE	LABEL	11/21/2019	Date
TIME	LABEL	23:29:12	Time
NOTES	NOTES	4	&Notes...
	
	
	
	
PSTAT	PSTAT	REF600-11020	Potentiostat
VDC	POTEN	0.00000E+000	T	DC &Voltage (V)
FREQINIT	QUANT	1.00000E+006	Initial Fre&q. (Hz)
FREQFINAL	QUANT	1.00000E+000	Final Fre&q. (Hz)
PTSPERDEC	QUANT	1.00000E+001	Points/&decade
VAC	QUANT	2.50000E+001	AC &Voltage (mV rms)
AREA	QUANT	1.00000E-002	&Area (cm^2)
CONDIT	TWOPARAM	T	5.00000E+000	0.00000E+000	Conditionin&g	Time(s)	E(V)
DELAY	TWOPARAM	T	5.00000E+000	0.00000E+000	Init. De&lay	Time(s)	Stab.(mV/s)
SPEED	SELECTOR	1	&Optimize for:
ZGUESS	QUANT	1.00000E+005	E&stimated Z (ohms)
OCVCURVE	TABLE	19
	Pt	T	Vf	Vm	Ach	Over
	#	s	V vs. Ref.	V	V	bits
	0	0.258333	9.35254E-003	9.35254E-003	5.50166E-004	...........
	1	0.516667	9.35647E-003	9.55789E-003	5.41966E-004	...........
	2	0.775	9.38437E-003	9.95198E-003	5.46766E-004	...........
	3	1.03333	9.47073E-003	1.00570E-002	5.44733E-004	...........
	4	1.29167	9.62620E-003	1.01151E-002	5.40499E-004	...........
	5	1.55	9.81138E-003	1.01600E-002	5.45499E-004	...........
	6	1.80833	9.97231E-003	1.02308E-002	5.42633E-004	...........
	7	2.06667	1.00874E-002	1.03083E-002	5.44366E-004	...........
	8	2.325	1.01689E-002	1.03882E-002	5.37999E-004	...........
	9	2.58333	1.02384E-002	1.04746E-002	5.42233E-004	...........
	10	2.84167	1.03095E-002	1.05648E-002	5.44633E-004	...........
	11	3.1	1.03869E-002	1.06527E-002	5.42566E-004	...........
	12	3.35833	1.04704E-002	1.07507E-002	5.48133E-004	...........
	13	3.61667	1.05575E-002	1.08057E-002	5.45166E-004	...........
	14	3.875	1.06422E-002	1.07664E-002	5.41866E-004	...........
	15	4.13333	1.06902E-002	9.63755E-003	5.40699E-004	...........
	16	4.39167	1.06400E-002	1.06289E-002	5.45033E-004	...........
	17	4.65	1.04883E-002	9.69035E-003	5.36999E-004	...........
	18	4.90833	1.02350E-002	6.19293E-003	5.38733E-004	...........
EOC	QUANT	0.010235	Open Circuit (V)
PSTATMODEL	IQUANT	4	Pstat Model
PSTATSECTION	LABEL	REF600-11020	Pstat Section
PSTATSERIALNO	LABEL	11020	Pstat Serial Number
CTRLMODE	IQUANT	1	Control Mode
IESTAB	IQUANT	0	I/E Stability
CASPEED	IQUANT	1	Control Amp Speed
CONVENTION	IQUANT	1	Current Convention
ICHRANGE	IQUANT	2	Ich Range
ICHRANGEMODE	TOGGLE	F	Ich Auto Range
ICHOFFSETENABLE	TOGGLE	T	Ich Offset Enable
ICHOFFSET	QUANT	0	Ich Offset (V)
ICHFILTER	IQUANT	3	Ich Filter
VCHRANGE	IQUANT	2	Vch Range
VCHRANGEMODE	TOGGLE	F	Vch Auto Range
VCHOFFSETENABLE	TOGGLE	T	Vch Offset Enable
VCHOFFSET	QUANT	0	Vch Offset (V)
VCHFILTER	IQUANT	3	Vch Filter
ACHRANGE	IQUANT	2	Ach Range
ACHOFFSETENABLE	TOGGLE	F	Ach Offset Enable
ACHOFFSET	QUANT	0	Ach Offset (V)
ACHFILTER	IQUANT	3	Ach Filter
IERANGELOWERLIMIT	IQUANT	1	I/E Range Lower Limit
IERANGEMODE	TOGGLE	F	I/E AutoRange
IERANGE	IQUANT	5	I/E Range
POSFEEDENABLE	TOGGLE	F	Positive Feedback IR Comp
POSFEEDRESISTANCE	QUANT	0	Positive Feedback Resistance (ohm)
ACHSELECT	IQUANT	0	Ach Select
CABLEID	IQUANT	14	Cable ID
DCCALDATE	LABEL	8/19/2019	DC Calibration Date
ACCALDATE	LABEL	8/19/2019	AC Calibration Date
THERMOSELECT	IQUANT	1	Thermo Select
FRAMEWORKVERSION	QUANT	6.33	Framework Version
INSTRUMENTVERSION	LABEL	3.50	Instrument Version
ZCURVE	TABLE
	Pt	Time	Freq	Zreal	Zimag	Zsig	Zmod	Zphz	Idc	Vdc	IERange
	#	s	Hz	ohm	ohm	V	ohm	°	A	V	#
	0	2	1000078	2010.411	-1194.154	1	2338.323	-30.70966	9.363119E-006	0.0113234	8
	1	3	794390.6	2238.701	-1090.067	1	2489.986	-25.96235	-6.774524E-006	0.0127573	8
	2	4	630984.4	2429.248	-982.973	1	2620.588	-22.03028	7.077281E-007	0.0116219	8
	3	6	501234.4	2569.34	-874.6019	1	2714.118	-18.79855	-1.806801E-006	0.0116273	8
	4	7	398109.4	2687.859	-773.3088	1	2796.89	-16.05076	-6.144293E-006	0.01273	8
	5	8	316265.6	2779.553	-667.8953	1	2858.671	-13.51137	7.389979E-006	0.0110091	8
	6	10	251203.1	2841.825	-583.0231	1	2901.014	-11.59381	-1.115974E-006	0.0122076	8
	7	11	199546.9	2897.999	-518.1353	1	2943.953	-10.13685	-2.618538E-006	0.0123052	8
	8	13	158578.1	2936.401	-452.3783	1	2971.043	-8.75806	-1.873548E-007	0.0115182	8
	9	14	125953.1	2994.902	-387.2448	1	3019.833	-7.367544	-1.389993E-006	0.015444	7
	10	15	100078.1	3025.94	-349.2901	1	3046.033	-6.58462	9.533885E-007	0.0110607	7
	11	17	79453.13	3054.787	-343.1903	1	3074.005	-6.410021	1.031479E-006	0.0106633	7
	12	18	63140.62	3083.396	-340.4914	1	3102.139	-6.301493	-8.382384E-007	0.0133207	7
	13	19	50203.12	3116.622	-348.0282	1	3135.993	-6.371732	1.033045E-006	0.010661	7
	14	21	39890.62	3148.89	-359.1481	1	3169.305	-6.50678	-2.930376E-007	0.0109549	7
	15	22	31640.63	3183.506	-380.1034	1	3206.117	-6.808753	7.773951E-008	0.0126287	7
	16	23	25171.88	3219.241	-407.6265	1	3244.946	-7.216497	-8.370258E-007	0.0133153	7
	17	25	20015.62	3260.893	-446.3222	1	3291.295	-7.793713	-2.941409E-007	0.0109421	7
	18	26	15890.62	3306.666	-488.9489	1	3342.62	-8.411242	7.973661E-008	0.0126166	7
	19	28	12609.37	3357.144	-542.8912	1	3400.757	-9.185906	8.23682E-008	0.0126219	7
	20	29	10078.13	3410.823	-610.1311	1	3464.964	-10.14185	-2.620615E-007	0.01299	7
	21	30	8015.625	3472.733	-681.368	1	3538.946	-11.10071	1.036678E-006	0.0106546	7
	22	32	6328.125	3540.887	-780.2551	1	3625.835	-12.42686	9.597065E-007	0.0110496	7
	23	33	5015.625	3611.771	-890.5759	1	3719.948	-13.85145	-2.944347E-007	0.0109485	7
	24	34	3984.375	3694.261	-1021.961	1	3833.01	-15.46329	1.035531E-006	0.0106535	7
	25	36	3170.956	3782.681	-1171.69	1	3959.991	-17.21043	-8.373634E-007	0.0133122	7
	26	37	2527.573	3885.289	-1353.566	1	4114.317	-19.20743	1.036265E-006	0.0106569	7
	27	38	1976.103	4002.182	-1586.681	1	4305.231	-21.62605	8.183068E-008	0.0126213	7
	28	40	1577.524	4132.472	-1813.912	1	4513.048	-23.69865	-2.618068E-007	0.0129929	7
	29	41	1265.625	4258.36	-2145.435	1	4768.283	-26.73975	1.017905E-006	0.0103579	7
	30	43	998.264	4415.624	-2530.732	1	5089.434	-29.81837	8.009519E-008	0.0126236	7
	31	44	796.875	4582.295	-2972.605	1	5462.033	-32.97209	8.082273E-008	0.0126243	7
	32	45	627.7902	4776.039	-3540.113	1	5944.993	-36.54672	-9.90417E-007	0.0122384	7
	33	47	505.5147	4968.497	-4170.864	1	6487.069	-40.01218	-9.905842E-007	0.0122323	7
	34	48	397.9953	5195.754	-5017.122	1	7222.698	-43.99795	2.110393E-009	0.0117641	7
	35	49	315.5048	5442.096	-6035.744	1	8126.907	-47.96077	3.931258E-009	0.0117647	7
	36	51	252.4038	5706.491	-7243.314	1	9221.151	-51.76795	6.609827E-009	0.0117557	7
	37	52	198.6229	6034.146	-8851.774	1	10712.83	-55.71823	6.134293E-010	0.0116955	6
	38	54	158.3615	6396.322	-10743.37	1	12503.32	-59.23154	1.135725E-009	0.0116972	6
	39	55	125.558	6850.308	-13142.14	1	14820.34	-62.46933	4.899381E-010	0.0116962	6
	40	56	100.4464	7382.79	-15971.78	1	17595.54	-65.19174	7.051205E-010	0.0116986	6
	41	58	79.00281	8129.712	-19741.11	1	21349.56	-67.61734	4.097977E-010	0.0116944	6
	42	59	63.3446	9113.051	-24037.48	1	25706.97	-69.23736	-1.636779E-010	0.0116956	6
	43	61	49.86702	10079.35	-29783.36	1	31442.68	-71.30303	5.927323E-010	0.0116907	6
	44	62	39.72458	11603.87	-36358.2	1	38165.02	-72.2993	9.53326E-010	0.0116905	6
	45	63	31.6723	13524.88	-44314.66	1	46332.62	-73.02776	8.722886E-010	0.0116959	6
	46	65	24.93351	16128.42	-54724.45	1	57051.66	-73.57867	2.966781E-010	0.0116956	6
	47	66	19.86229	19377.17	-66651.22	1	69410.8	-73.78954	1.227577E-009	0.0116972	6
	48	67	15.83615	23814.76	-81422.22	1	84833.48	-73.69661	1.303231E-009	0.0116944	6
	49	69	12.40079	29371.94	-99725.6	1	103961.1	-73.58885	6.326629E-010	0.011695	6
	50	70	9.93114	36737.04	-120087	1	125580.7	-72.99007	-3.770272E-010	0.0117037	5
	51	72	7.944915	45551.14	-144618.8	1	151622.9	-72.51693	1.05973E-010	0.0117063	5
	52	74	6.317385	57716.51	-173939.1	1	183264.9	-71.64311	-1.634667E-010	0.0117049	5
	53	76	5.008013	73503.58	-208952.8	1	221504.1	-70.6196	-5.676506E-011	0.0116793	5
	54	78	3.945707	94119.21	-250781.9	1	267861.8	-69.42873	3.467399E-010	0.0116954	5
	55	81	3.158693	118200.6	-296198.2	1	318911.8	-68.24508	-1.906156E-010	0.0116838	5
	56	84	2.504006	149273.9	-350073.9	1	380571.2	-66.90627	3.471045E-010	0.0117019	5
	57	87	1.998082	185800.5	-409140.4	1	449352.5	-65.57606	2.533329E-010	0.0117148	5
	58	90	1.584686	232412.9	-477885	1	531403.6	-64.06465	1.021831E-011	0.0116494	5
	59	94	1.266892	283511.7	-551250.6	1	619883.9	-62.78296	2.092026E-010	0.0116912	5
	60	98	0.999041	348873	-641777.6	1	730473.1	-61.47131	-2.487278E-010	0.0116797	5
