EXPLAIN
TAG	EISPOT
TITLE	LABEL	Potentiostatic EIS	Test &Identifier
DATE	LABEL	9/26/2019	Date
TIME	LABEL	7:38:44	Time
NOTES	NOTES	2	&Notes...
	
	
PSTAT	PSTAT	REF600-11020	Potentiostat
VDC	POTEN	0.00000E+000	T	DC &Voltage (V)
FREQINIT	QUANT	1.00000E+006	Initial Fre&q. (Hz)
FREQFINAL	QUANT	1.00000E+000	Final Fre&q. (Hz)
PTSPERDEC	QUANT	1.00000E+001	Points/&decade
VAC	QUANT	2.50000E+001	AC &Voltage (mV rms)
AREA	QUANT	1.00000E-002	&Area (cm^2)
CONDIT	TWOPARAM	T	5.00000E+000	0.00000E+000	Conditionin&g	Time(s)	E(V)
DELAY	TWOPARAM	T	5.00000E+000	0.00000E+000	Init. De&lay	Time(s)	Stab.(mV/s)
SPEED	SELECTOR	1	&Optimize for:
ZGUESS	QUANT	1.00000E+004	E&stimated Z (ohms)
OCVCURVE	TABLE	19
	Pt	T	Vf	Vm	Ach	Over
	#	s	V vs. Ref.	V	V	bits
	0	0.258333	1.24511E-002	1.24511E-002	5.72899E-004	...........
	1	0.516667	1.24611E-002	1.29768E-002	5.75499E-004	...........
	2	0.775	1.25230E-002	1.34854E-002	5.73332E-004	...........
	3	1.03333	1.26984E-002	1.39609E-002	5.78799E-004	...........
	4	1.29167	1.30130E-002	1.44455E-002	5.77566E-004	...........
	5	1.55	1.34336E-002	1.49061E-002	5.79365E-004	...........
	6	1.80833	1.39040E-002	1.53250E-002	5.72832E-004	...........
	7	2.06667	1.43804E-002	1.57109E-002	5.70566E-004	...........
	8	2.325	1.48380E-002	1.60911E-002	5.78732E-004	...........
	9	2.58333	1.52679E-002	1.64740E-002	5.76066E-004	...........
	10	2.84167	1.56733E-002	1.68567E-002	5.73432E-004	...........
	11	3.1	1.60631E-002	1.72229E-002	5.78466E-004	...........
	12	3.35833	1.64443E-002	1.75838E-002	5.73699E-004	...........
	13	3.61667	1.68198E-002	1.79457E-002	5.77999E-004	...........
	14	3.875	1.71896E-002	1.82991E-002	5.81565E-004	...........
	15	4.13333	1.75537E-002	1.86344E-002	5.77266E-004	...........
	16	4.39167	1.79116E-002	1.89719E-002	5.75532E-004	...........
	17	4.65	1.82618E-002	1.92799E-002	5.74899E-004	...........
	18	4.90833	1.86022E-002	1.95750E-002	5.82965E-004	...........
EOC	QUANT	0.0186022	Open Circuit (V)
PSTATMODEL	IQUANT	4	Pstat Model
PSTATSECTION	LABEL	REF600-11020	Pstat Section
PSTATSERIALNO	LABEL	11020	Pstat Serial Number
CTRLMODE	IQUANT	1	Control Mode
IESTAB	IQUANT	0	I/E Stability
CASPEED	IQUANT	1	Control Amp Speed
CONVENTION	IQUANT	1	Current Convention
ICHRANGE	IQUANT	2	Ich Range
ICHRANGEMODE	TOGGLE	F	Ich Auto Range
ICHOFFSETENABLE	TOGGLE	T	Ich Offset Enable
ICHOFFSET	QUANT	0	Ich Offset (V)
ICHFILTER	IQUANT	3	Ich Filter
VCHRANGE	IQUANT	2	Vch Range
VCHRANGEMODE	TOGGLE	F	Vch Auto Range
VCHOFFSETENABLE	TOGGLE	T	Vch Offset Enable
VCHOFFSET	QUANT	0	Vch Offset (V)
VCHFILTER	IQUANT	3	Vch Filter
ACHRANGE	IQUANT	2	Ach Range
ACHOFFSETENABLE	TOGGLE	F	Ach Offset Enable
ACHOFFSET	QUANT	0	Ach Offset (V)
ACHFILTER	IQUANT	3	Ach Filter
IERANGELOWERLIMIT	IQUANT	1	I/E Range Lower Limit
IERANGEMODE	TOGGLE	F	I/E AutoRange
IERANGE	IQUANT	6	I/E Range
POSFEEDENABLE	TOGGLE	F	Positive Feedback IR Comp
POSFEEDRESISTANCE	QUANT	0	Positive Feedback Resistance (ohm)
ACHSELECT	IQUANT	0	Ach Select
CABLEID	IQUANT	14	Cable ID
DCCALDATE	LABEL	8/19/2019	DC Calibration Date
ACCALDATE	LABEL	8/19/2019	AC Calibration Date
THERMOSELECT	IQUANT	1	Thermo Select
FRAMEWORKVERSION	QUANT	6.33	Framework Version
INSTRUMENTVERSION	LABEL	3.50	Instrument Version
ZCURVE	TABLE
	Pt	Time	Freq	Zreal	Zimag	Zsig	Zmod	Zphz	Idc	Vdc	IERange
	#	s	Hz	ohm	ohm	V	ohm	°	A	V	#
	0	1	1000078	2105.627	-981.425	1	2323.115	-24.99006	5.682393E-007	0.0205767	8
	1	3	794390.6	2275.439	-880.5068	1	2439.86	-21.15451	4.281262E-006	0.0195851	8
	2	4	630984.4	2401.308	-772.8405	1	2522.61	-17.84033	8.587957E-007	0.0198323	8
	3	5	501234.4	2497.746	-686.8637	1	2590.467	-15.3759	3.644133E-006	0.0195223	8
	4	7	398109.4	2576.589	-583.6426	1	2641.865	-12.76312	-2.484403E-006	0.0205684	8
	5	8	316265.6	2631.213	-512.0288	1	2680.57	-11.01202	1.305923E-007	0.0200518	8
	6	9	251203.1	2657.248	-442.1876	1	2693.788	-9.447908	4.854372E-007	0.0202096	8
	7	11	199546.9	2717.029	-401.4952	1	2746.533	-8.405766	-1.204775E-007	0.0200616	8
	8	12	158578.1	2748.249	-362.8853	1	2772.103	-7.521958	-8.380072E-007	0.0204203	8
	9	13	125953.1	2791.556	-295.8571	1	2807.19	-6.049787	1.226495E-006	0.0174438	7
	10	15	100078.1	2811.941	-281.1184	1	2825.958	-5.709067	-3.150039E-008	0.0201083	7
	11	16	79453.13	2836.66	-282.964	1	2850.738	-5.696554	8.347137E-009	0.0200273	7
	12	18	63140.62	2863.425	-290.8359	1	2878.157	-5.7996	9.395794E-009	0.0200262	7
	13	19	50203.12	2891.616	-304.9484	1	2907.652	-6.020132	1.052876E-008	0.0200247	7
	14	20	39890.62	2923.455	-323.403	1	2941.289	-6.312596	-5.274911E-009	0.0201017	7
	15	22	31640.63	2956.665	-349.7048	1	2977.274	-6.745423	-1.151954E-008	0.0201274	7
	16	23	25171.88	2994.333	-381.9343	1	3018.593	-7.268961	7.073853E-008	0.0199567	7
	17	24	20015.62	3035.132	-422.3969	1	3064.383	-7.92292	7.291386E-008	0.0199623	7
	18	26	15890.62	3078.914	-470.0408	1	3114.587	-8.680012	-2.120994E-008	0.0200772	7
	19	27	12609.37	3123.957	-528.5493	1	3168.354	-9.60306	7.231999E-008	0.0200524	7
	20	28	10078.13	3173.83	-595.7561	1	3229.261	-10.63122	7.598924E-008	0.0199303	7
	21	30	8015.625	3225.996	-680.0972	1	3296.905	-11.90464	-4.472408E-008	0.0201351	7
	22	31	6328.125	3280.767	-784.8362	1	3373.337	-13.45365	7.103701E-008	0.020052	7
	23	32	5015.625	3340.342	-911.9672	1	3462.595	-15.27052	2.813588E-008	0.0200427	7
	24	34	3984.375	3403.674	-1065.581	1	3566.576	-17.38367	-1.072096E-008	0.0201125	7
	25	35	3170.956	3474.552	-1254.335	1	3694.032	-19.8499	-4.255659E-008	0.0201673	7
	26	37	2527.573	3551.222	-1480.07	1	3847.309	-22.62529	4.591952E-008	0.0199443	7
	27	38	1976.103	3646.506	-1783.221	1	4059.173	-26.05965	-2.183816E-008	0.0200595	7
	28	39	1577.524	3743.704	-2125.346	1	4304.929	-29.5841	-5.305645E-010	0.02009	7
	29	41	1265.625	3847.467	-2534.39	1	4607.183	-33.37356	-1.060381E-008	0.0201193	7
	30	42	998.264	3982.244	-3073.288	1	5030.245	-37.65908	-3.630609E-008	0.0201047	7
	31	43	796.875	4129.13	-3702.246	1	5545.84	-41.87992	3.019239E-008	0.020044	7
	32	45	627.7902	4312.092	-4523.922	1	6249.801	-46.37332	3.094093E-008	0.0200415	7
	33	46	505.5147	4514.978	-5448.993	1	7076.479	-50.35522	-1.983415E-009	0.0200233	7
	34	47	397.9953	4787.58	-6701.62	1	8236.057	-54.45831	4.667514E-009	0.020095	7
	35	49	315.5048	5124.617	-8207.433	1	9675.93	-58.01987	5.807597E-009	0.0200918	7
	36	50	252.4038	5545.001	-9977.65	1	11414.92	-60.93721	9.81397E-011	0.0200271	6
	37	52	198.6229	6126.208	-12303.86	1	13744.65	-63.53085	4.691351E-010	0.0200306	6
	38	53	158.3615	6848.751	-14989.57	1	16480.07	-65.44429	-5.7517E-010	0.0200297	6
	39	54	125.558	7829.483	-18317.3	1	19920.45	-66.85637	2.7654E-010	0.0200282	6
	40	56	100.4464	9072.215	-22137.13	1	23924	-67.71526	-9.279819E-012	0.0200329	6
	41	57	79.00281	10808.69	-27168.16	1	29239.3	-68.30516	9.522828E-010	0.0200319	6
	42	59	63.3446	12536.41	-32611.01	1	34937.65	-68.97211	3.348062E-010	0.0200278	6
	43	60	49.86702	15852.72	-39197.45	1	42281.78	-67.97999	5.789917E-011	0.0200245	6
	44	61	39.72458	19313.15	-47076.59	1	50884.21	-67.69412	-3.091401E-010	0.0200322	6
	45	63	31.6723	23738.04	-56178.73	1	60988.06	-67.09376	-6.609447E-010	0.0200236	6
	46	64	24.93351	29480.59	-66761.2	1	72980.56	-66.17458	-2.375347E-010	0.0200234	6
	47	66	19.86229	36213.33	-78509.77	1	86459.17	-65.23807	-8.261432E-010	0.0200275	6
	48	67	15.83615	44787.12	-92911.03	1	103142.4	-64.26393	-2.429159E-009	0.0200265	6
	49	68	12.40079	54568.89	-108021	1	121021.9	-63.1985	-2.651707E-010	0.0200303	5
	50	70	9.93114	66073.02	-125511.1	1	141840.3	-62.23625	2.502093E-010	0.020026	5
	51	71	7.944915	78680.36	-145699.3	1	165586.5	-61.63013	-2.391912E-010	0.0200285	5
	52	73	6.317385	94809.58	-167655.8	1	192606.7	-60.51178	8.020896E-011	0.0200356	5
	53	75	5.008013	113712.4	-194015.7	1	224883.5	-59.62549	-2.44217E-010	0.0200411	5
	54	78	3.945707	135894.7	-225077.9	1	262920.9	-58.87778	-5.349921E-010	0.0200287	5
	55	80	3.158693	160132.9	-257641.8	1	303351	-58.13767	-5.707244E-010	0.0200414	5
	56	84	2.504006	189056.7	-296488.7	1	351636.2	-57.47628	-4.425803E-010	0.0200196	5
	57	86	1.998082	220884.8	-338852	1	404488.3	-56.90118	-7.839661E-010	0.0200739	5
	58	89	1.584686	257271.6	-388976.8	1	466359.9	-56.5191	-4.200104E-010	0.0200468	5
	59	93	1.266892	298766.2	-443689.8	1	534903.6	-56.04497	-6.53E-010	0.020076	5
	60	97	0.999041	347084.6	-510316.3	1	617163.3	-55.77896	-6.533127E-010	0.0199922	5
