EXPLAIN
TAG	EISPOT
TITLE	LABEL	Potentiostatic EIS	Test &Identifier
DATE	LABEL	10/2/2019	Date
TIME	LABEL	10:01:21	Time
NOTES	NOTES	2	&Notes...
	
	
PSTAT	PSTAT	REF600-11020	Potentiostat
VDC	POTEN	0.00000E+000	T	DC &Voltage (V)
FREQINIT	QUANT	1.00000E+006	Initial Fre&q. (Hz)
FREQFINAL	QUANT	1.00000E+000	Final Fre&q. (Hz)
PTSPERDEC	QUANT	1.00000E+001	Points/&decade
VAC	QUANT	2.50000E+001	AC &Voltage (mV rms)
AREA	QUANT	1.00000E-002	&Area (cm^2)
CONDIT	TWOPARAM	T	5.00000E+000	0.00000E+000	Conditionin&g	Time(s)	E(V)
DELAY	TWOPARAM	T	5.00000E+000	0.00000E+000	Init. De&lay	Time(s)	Stab.(mV/s)
SPEED	SELECTOR	1	&Optimize for:
ZGUESS	QUANT	1.00000E+004	E&stimated Z (ohms)
OCVCURVE	TABLE	19
	Pt	T	Vf	Vm	Ach	Over
	#	s	V vs. Ref.	V	V	bits
	0	0.258333	9.37642E-003	9.37642E-003	5.74532E-004	...........
	1	0.516667	9.38259E-003	9.69966E-003	5.71366E-004	...........
	2	0.775	9.42044E-003	1.00023E-002	5.73632E-004	...........
	3	1.03333	9.52775E-003	1.03184E-002	5.76066E-004	...........
	4	1.29167	9.72153E-003	1.06265E-002	5.68999E-004	...........
	5	1.55	9.98414E-003	1.09414E-002	5.72899E-004	...........
	6	1.80833	1.02779E-002	1.09256E-002	5.76299E-004	...........
	7	2.06667	1.05500E-002	1.07678E-002	5.69099E-004	...........
	8	2.325	1.07364E-002	1.05275E-002	5.72932E-004	...........
	9	2.58333	1.07918E-002	1.03355E-002	5.73699E-004	...........
	10	2.84167	1.07236E-002	1.03510E-002	5.75299E-004	...........
	11	3.1	1.05977E-002	1.07061E-002	5.69666E-004	...........
	12	3.35833	1.05169E-002	1.11969E-002	5.68432E-004	...........
	13	3.61667	1.05751E-002	1.17160E-002	5.74932E-004	...........
	14	3.875	1.08033E-002	1.18946E-002	5.65766E-004	...........
	15	4.13333	1.11412E-002	1.17879E-002	5.71166E-004	...........
	16	4.39167	1.14689E-002	1.18111E-002	5.71566E-004	...........
	17	4.65	1.16937E-002	1.19425E-002	5.70699E-004	...........
	18	4.90833	1.18127E-002	1.20574E-002	5.67666E-004	...........
EOC	QUANT	0.0118127	Open Circuit (V)
PSTATMODEL	IQUANT	4	Pstat Model
PSTATSECTION	LABEL	REF600-11020	Pstat Section
PSTATSERIALNO	LABEL	11020	Pstat Serial Number
CTRLMODE	IQUANT	1	Control Mode
IESTAB	IQUANT	0	I/E Stability
CASPEED	IQUANT	1	Control Amp Speed
CONVENTION	IQUANT	1	Current Convention
ICHRANGE	IQUANT	2	Ich Range
ICHRANGEMODE	TOGGLE	F	Ich Auto Range
ICHOFFSETENABLE	TOGGLE	T	Ich Offset Enable
ICHOFFSET	QUANT	0	Ich Offset (V)
ICHFILTER	IQUANT	3	Ich Filter
VCHRANGE	IQUANT	2	Vch Range
VCHRANGEMODE	TOGGLE	F	Vch Auto Range
VCHOFFSETENABLE	TOGGLE	T	Vch Offset Enable
VCHOFFSET	QUANT	0	Vch Offset (V)
VCHFILTER	IQUANT	3	Vch Filter
ACHRANGE	IQUANT	2	Ach Range
ACHOFFSETENABLE	TOGGLE	F	Ach Offset Enable
ACHOFFSET	QUANT	0	Ach Offset (V)
ACHFILTER	IQUANT	3	Ach Filter
IERANGELOWERLIMIT	IQUANT	1	I/E Range Lower Limit
IERANGEMODE	TOGGLE	F	I/E AutoRange
IERANGE	IQUANT	6	I/E Range
POSFEEDENABLE	TOGGLE	F	Positive Feedback IR Comp
POSFEEDRESISTANCE	QUANT	0	Positive Feedback Resistance (ohm)
ACHSELECT	IQUANT	0	Ach Select
CABLEID	IQUANT	14	Cable ID
DCCALDATE	LABEL	8/19/2019	DC Calibration Date
ACCALDATE	LABEL	8/19/2019	AC Calibration Date
THERMOSELECT	IQUANT	1	Thermo Select
FRAMEWORKVERSION	QUANT	6.33	Framework Version
INSTRUMENTVERSION	LABEL	3.50	Instrument Version
ZCURVE	TABLE
	Pt	Time	Freq	Zreal	Zimag	Zsig	Zmod	Zphz	Idc	Vdc	IERange
	#	s	Hz	ohm	ohm	V	ohm	°	A	V	#
	0	2	1000078	2465.594	-2024.593	1	3190.318	-39.39072	-3.626776E-006	0.0144346	8
	1	3	794390.6	2859.606	-2024.845	1	3503.904	-35.30175	4.525411E-006	0.0129627	8
	2	4	630984.4	3258.748	-1943.587	1	3794.333	-30.81275	4.751435E-006	0.0122245	8
	3	6	501234.4	3607.184	-1817.27	1	4039.089	-26.73859	-1.743008E-006	0.0135574	8
	4	7	398109.4	3898.806	-1644.411	1	4231.404	-22.8687	-2.291563E-006	0.0140125	8
	5	9	316265.6	4169.492	-1488.905	1	4427.358	-19.6514	-1.797766E-006	0.0137099	8
	6	10	251203.1	4367.756	-1310.131	1	4560.015	-16.69689	-2.265893E-006	0.0139583	8
	7	11	199546.9	4542.222	-1157.946	1	4687.496	-14.30175	4.276486E-006	0.0125812	8
	8	13	158578.1	4646.799	-1006.45	1	4754.543	-12.22093	-2.187342E-006	0.0137238	8
	9	14	125953.1	4771.5	-871.8378	1	4850.496	-10.35473	-1.236276E-006	0.0159893	7
	10	16	100078.1	4848.835	-778.5024	1	4910.934	-9.121253	5.177815E-008	0.0131535	7
	11	17	79453.13	4917.613	-720.6799	1	4970.141	-8.337389	5.813838E-008	0.0132077	7
	12	18	63140.62	4980.332	-682.8779	1	5026.93	-7.807423	1.279557E-007	0.0131162	7
	13	20	50203.12	5039.104	-660.4276	1	5082.197	-7.466658	-6.420173E-008	0.0133844	7
	14	21	39890.62	5097.231	-655.6317	1	5139.223	-7.329431	5.28517E-008	0.0131489	7
	15	23	31640.63	5155.919	-667.4428	1	5198.94	-7.37602	1.28562E-007	0.0131156	7
	16	24	25171.88	5215.583	-694.0117	1	5261.554	-7.579539	-4.390677E-008	0.0133055	7
	17	25	20015.62	5281.961	-735.5875	1	5332.936	-7.928252	-8.468734E-008	0.0135436	7
	18	27	15890.62	5349.545	-795.0927	1	5408.309	-8.453876	5.405346E-008	0.0131402	7
	19	28	12609.37	5425.069	-871.8705	1	5494.683	-9.130015	-6.858983E-008	0.0134236	7
	20	29	10078.13	5508.146	-962.344	1	5591.581	-9.91028	2.476664E-008	0.0132001	7
	21	31	8015.625	5597.372	-1077.218	1	5700.085	-10.89342	2.464787E-008	0.0131949	7
	22	32	6328.125	5701.333	-1221.272	1	5830.669	-12.09051	-4.245658E-008	0.0132985	7
	23	34	5015.625	5815.373	-1391.408	1	5979.513	-13.45584	-4.354267E-008	0.0132989	7
	24	35	3984.375	5941.069	-1591.531	1	6150.55	-14.99664	-3.17756E-008	0.0132811	7
	25	36	3170.956	6079.56	-1829.243	1	6348.793	-16.7457	-1.295695E-008	0.0133581	7
	26	38	2527.573	6233.567	-2111.037	1	6581.325	-18.70899	7.927766E-009	0.0132555	7
	27	39	1976.103	6420.398	-2473.226	1	6880.288	-21.06737	5.374402E-008	0.0131308	7
	28	40	1577.524	6614.014	-2874.63	1	7211.705	-23.49107	-4.399541E-008	0.0132939	7
	29	42	1265.625	6819.866	-3339.594	1	7593.646	-26.09035	1.668506E-008	0.0133837	7
	30	43	998.264	7067.336	-3937.144	1	8090.016	-29.12175	-4.406825E-008	0.0132919	7
	31	44	796.875	7324.812	-4625	1	8662.766	-32.26895	-3.092345E-008	0.0132746	7
	32	46	627.7902	7629.017	-5512.852	1	9412.408	-35.85249	1.485688E-009	0.0132136	7
	33	47	505.5147	7945.916	-6493.648	1	10261.82	-39.25676	-2.283638E-009	0.0134349	6
	34	49	397.9953	8321.076	-7815.817	1	11416.1	-43.20661	4.195826E-010	0.0132487	6
	35	50	315.5048	8740.997	-9397.633	1	12834.35	-47.07326	1.00961E-009	0.0132466	6
	36	51	252.4038	9203.637	-11261.94	1	14544.35	-50.74314	8.74845E-010	0.0132481	6
	37	53	198.6229	9782.65	-13727.95	1	16856.96	-54.52602	1.622203E-009	0.0132539	6
	38	54	158.3615	10440.78	-16607.35	1	19616.67	-57.84306	9.118391E-010	0.0132476	6
	39	55	125.558	11250.28	-20239.73	1	23156.33	-60.93246	1.51471E-009	0.0132495	6
	40	57	100.4464	12235.07	-24512.55	1	27396.39	-63.47461	1.931848E-010	0.0132489	6
	41	58	79.00281	13591.38	-30197.71	1	33115.36	-65.76846	4.654972E-010	0.0132457	6
	42	60	63.3446	15203.71	-36772.68	1	39791.74	-67.53729	3.051152E-010	0.0132394	6
	43	61	49.86702	17137.7	-44948.87	1	48105.12	-69.1296	1.482687E-009	0.0132438	6
	44	62	39.72458	20057.4	-54737.66	1	58296.74	-69.87576	8.917939E-010	0.0132491	6
	45	64	31.6723	23535.93	-66412.2	1	70459.34	-70.4861	6.682762E-011	0.0132438	6
	46	65	24.93351	28583.26	-81493.6	1	86360.93	-70.67207	3.927319E-010	0.0132427	6
	47	67	19.86229	34679.42	-98360.9	1	104295.4	-70.57871	-6.61238E-010	0.0132487	6
	48	68	15.83615	42521.84	-118324.5	1	125733	-70.23327	-4.96679E-010	0.0132465	5
	49	69	12.40079	54608.14	-144682.6	1	154645.1	-69.32178	7.42491E-010	0.0132543	5
	50	71	9.93114	68152.46	-171726	1	184755.4	-68.35348	2.154048E-011	0.0132513	5
	51	72	7.944915	86045.15	-203863	1	221277.9	-67.11669	1.041867E-009	0.0132482	5
	52	74	6.317385	108309.6	-239771	1	263099	-65.69029	3.684895E-010	0.0132601	5
	53	76	5.008013	137049.1	-280329.5	1	312036.9	-63.94665	3.064437E-010	0.0132542	5
	54	79	3.945707	172970.4	-327189.9	1	370097.3	-62.13664	3.182734E-010	0.0132514	5
	55	81	3.158693	212979.7	-374711.4	1	431009.3	-60.38683	-1.394647E-010	0.013239	5
	56	85	2.504006	262809.1	-427642.6	1	501943	-58.42707	3.682728E-010	0.0132473	5
	57	87	1.998082	321969.2	-487957.6	1	584608.2	-56.58196	-2.083698E-010	0.0132889	5
	58	90	1.584686	378631.1	-539591.8	1	659181.9	-54.9427	3.750784E-010	0.013255	5
	59	94	1.266892	446140.3	-600971.9	1	748470.7	-53.41111	5.879821E-013	0.0132934	5
	60	98	0.999041	512678.5	-676583	1	848883.8	-52.8471	2.432534E-010	0.0132135	5
