EXPLAIN
TAG	EISPOT
TITLE	LABEL	Potentiostatic EIS	Test &Identifier
DATE	LABEL	10/28/2019	Date
TIME	LABEL	11:09:38	Time
NOTES	NOTES	1	&Notes...
	
PSTAT	PSTAT	REF600-11020	Potentiostat
VDC	POTEN	0.00000E+000	T	DC &Voltage (V)
FREQINIT	QUANT	1.00000E+006	Initial Fre&q. (Hz)
FREQFINAL	QUANT	1.00000E+000	Final Fre&q. (Hz)
PTSPERDEC	QUANT	1.00000E+001	Points/&decade
VAC	QUANT	2.50000E+001	AC &Voltage (mV rms)
AREA	QUANT	1.00000E-002	&Area (cm^2)
CONDIT	TWOPARAM	T	5.00000E+000	0.00000E+000	Conditionin&g	Time(s)	E(V)
DELAY	TWOPARAM	T	5.00000E+000	0.00000E+000	Init. De&lay	Time(s)	Stab.(mV/s)
SPEED	SELECTOR	1	&Optimize for:
ZGUESS	QUANT	1.00000E+005	E&stimated Z (ohms)
OCVCURVE	TABLE	19
	Pt	T	Vf	Vm	Ach	Over
	#	s	V vs. Ref.	V	V	bits
	0	0.258333	5.89249E-003	5.89249E-003	5.35566E-004	...........
	1	0.516667	5.89310E-003	5.92419E-003	5.29366E-004	...........
	2	0.775	5.89716E-003	5.97213E-003	5.26633E-004	...........
	3	1.03333	5.91000E-003	6.02959E-003	5.33400E-004	...........
	4	1.29167	5.93630E-003	6.09394E-003	5.32166E-004	...........
	5	1.55	5.97693E-003	6.15509E-003	5.33233E-004	...........
	6	1.80833	6.02902E-003	6.22304E-003	5.32500E-004	...........
	7	2.06667	6.08852E-003	6.29206E-003	5.30700E-004	...........
	8	2.325	6.15232E-003	6.36020E-003	5.41266E-004	...........
	9	2.58333	6.21861E-003	6.42657E-003	5.38833E-004	...........
	10	2.84167	6.28616E-003	6.49627E-003	5.32800E-004	...........
	11	3.1	6.35417E-003	6.56493E-003	5.36566E-004	...........
	12	3.35833	6.42236E-003	6.63123E-003	5.35866E-004	...........
	13	3.61667	6.49057E-003	6.69895E-003	5.35033E-004	...........
	14	3.875	6.55851E-003	6.76356E-003	5.40399E-004	...........
	15	4.13333	6.62594E-003	6.83189E-003	5.31666E-004	...........
	16	4.39167	6.69279E-003	6.89379E-003	5.33700E-004	...........
	17	4.65	6.75904E-003	6.95889E-003	5.33666E-004	...........
	18	4.90833	6.82454E-003	7.02213E-003	5.32333E-004	...........
EOC	QUANT	0.0068245	Open Circuit (V)
PSTATMODEL	IQUANT	4	Pstat Model
PSTATSECTION	LABEL	REF600-11020	Pstat Section
PSTATSERIALNO	LABEL	11020	Pstat Serial Number
CTRLMODE	IQUANT	1	Control Mode
IESTAB	IQUANT	0	I/E Stability
CASPEED	IQUANT	1	Control Amp Speed
CONVENTION	IQUANT	1	Current Convention
ICHRANGE	IQUANT	2	Ich Range
ICHRANGEMODE	TOGGLE	F	Ich Auto Range
ICHOFFSETENABLE	TOGGLE	T	Ich Offset Enable
ICHOFFSET	QUANT	0	Ich Offset (V)
ICHFILTER	IQUANT	3	Ich Filter
VCHRANGE	IQUANT	2	Vch Range
VCHRANGEMODE	TOGGLE	F	Vch Auto Range
VCHOFFSETENABLE	TOGGLE	T	Vch Offset Enable
VCHOFFSET	QUANT	0	Vch Offset (V)
VCHFILTER	IQUANT	3	Vch Filter
ACHRANGE	IQUANT	2	Ach Range
ACHOFFSETENABLE	TOGGLE	F	Ach Offset Enable
ACHOFFSET	QUANT	0	Ach Offset (V)
ACHFILTER	IQUANT	3	Ach Filter
IERANGELOWERLIMIT	IQUANT	1	I/E Range Lower Limit
IERANGEMODE	TOGGLE	F	I/E AutoRange
IERANGE	IQUANT	5	I/E Range
POSFEEDENABLE	TOGGLE	F	Positive Feedback IR Comp
POSFEEDRESISTANCE	QUANT	0	Positive Feedback Resistance (ohm)
ACHSELECT	IQUANT	0	Ach Select
CABLEID	IQUANT	14	Cable ID
DCCALDATE	LABEL	8/19/2019	DC Calibration Date
ACCALDATE	LABEL	8/19/2019	AC Calibration Date
THERMOSELECT	IQUANT	1	Thermo Select
FRAMEWORKVERSION	QUANT	6.33	Framework Version
INSTRUMENTVERSION	LABEL	3.50	Instrument Version
ZCURVE	TABLE
	Pt	Time	Freq	Zreal	Zimag	Zsig	Zmod	Zphz	Idc	Vdc	IERange
	#	s	Hz	ohm	ohm	V	ohm	°	A	V	#
	0	2	1000078	2427.455	-1504.998	1	2856.144	-31.79851	-3.370069E-007	0.0094331	8
	1	4	794390.6	2707.711	-1417.409	1	3056.264	-27.63077	3.296597E-006	0.0080171	8
	2	5	630984.4	2937.835	-1334.015	1	3226.526	-24.4219	3.95816E-007	0.0085142	8
	3	7	501234.4	3167.314	-1207.764	1	3389.775	-20.87291	1.105505E-006	0.0083952	8
	4	8	398109.4	3348.091	-1098.624	1	3523.732	-18.16644	9.408362E-007	0.0083468	8
	5	10	316265.6	3480.029	-996.818	1	3619.979	-15.98382	5.375373E-006	0.007387	8
	6	11	251203.1	3612.446	-893.1516	1	3721.221	-13.88747	-1.093586E-006	0.0085825	8
	7	13	199546.9	3730.928	-799.8613	1	3815.705	-12.10029	5.612893E-007	0.0081379	8
	8	15	158578.1	3780.784	-743.408	1	3853.178	-11.12404	9.436163E-007	0.0083223	8
	9	16	125953.1	3905.094	-578.5506	1	3947.719	-8.427229	7.868748E-007	0.007243	7
	10	18	100078.1	3979.051	-517.3867	1	4012.547	-7.408472	-3.154885E-008	0.0082782	7
	11	19	79453.13	4029.371	-482.5352	1	4058.161	-6.828905	-1.532318E-008	0.0082243	7
	12	20	63140.62	4077.306	-454.6525	1	4102.576	-6.362658	-8.311054E-008	0.0083972	7
	13	22	50203.12	4122.351	-434.3271	1	4145.168	-6.014441	-1.723595E-008	0.0084294	7
	14	23	39890.62	4162.854	-420.9884	1	4184.087	-5.774675	8.397941E-008	0.0082441	7
	15	24	31640.63	4200.359	-421.2971	1	4221.434	-5.727626	-4.752754E-008	0.0083338	7
	16	26	25171.88	4237.884	-427.3885	1	4259.38	-5.75878	-4.95888E-008	0.0084411	7
	17	27	20015.62	4287.575	-442.8521	1	4310.385	-5.897017	-3.949525E-008	0.008284	7
	18	28	15890.62	4306.83	-473.8279	1	4332.816	-6.278305	-8.145095E-008	0.0083964	7
	19	30	12609.37	4349.261	-514.4612	1	4379.582	-6.746002	-3.960774E-008	0.0082881	7
	20	31	10078.13	4380.755	-569.5245	1	4417.621	-7.407251	-1.162582E-008	0.0083177	7
	21	32	8015.625	4407.69	-643.8385	1	4454.465	-8.310513	-1.759068E-008	0.0084334	7
	22	34	6328.125	4457.352	-741.7753	1	4518.652	-9.448357	4.900902E-008	0.0081108	7
	23	35	5015.625	4500.628	-866.2877	1	4583.242	-10.89513	1.62444E-007	0.0080317	7
	24	37	3984.375	4533.153	-1045.242	1	4652.097	-12.98417	-6.933835E-008	0.0084143	7
	25	39	3170.956	4597.659	-1215.038	1	4755.5	-14.80332	-1.157895E-008	0.0083112	7
	26	40	2527.573	4658.079	-1449.47	1	4878.387	-17.28476	-6.479086E-008	0.0084083	7
	27	41	1976.103	4729.762	-1771.41	1	5050.598	-20.53213	8.877069E-008	0.0081253	7
	28	43	1577.524	4757.933	-2107.391	1	5203.75	-23.88959	-1.212588E-008	0.0083159	7
	29	44	1265.625	4905.164	-2563.386	1	5534.581	-27.59109	9.237586E-008	0.0080793	7
	30	45	998.264	5023.189	-3137.76	1	5922.666	-31.99117	9.071121E-008	0.0081173	7
	31	47	796.875	5153.456	-3806.971	1	6407.116	-36.4541	-1.548575E-007	0.0082978	8
	32	48	627.7902	5340.942	-4684.179	1	7104.027	-41.25181	4.152638E-008	0.0082195	7
	33	50	505.5147	5543.479	-5664.953	1	7926.024	-45.62093	8.500047E-008	0.008115	7
	34	51	397.9953	5820.267	-6986.321	1	9093.084	-50.2025	4.576524E-009	0.008287	7
	35	52	315.5048	6174.455	-8568.478	1	10561.38	-54.22343	2.271314E-010	0.0082225	6
	36	54	252.4038	6601.007	-10425.17	1	12339.26	-57.65883	1.025229E-009	0.0082259	6
	37	55	198.6229	7203.03	-12870.04	1	14748.61	-60.76538	3.667749E-010	0.0082237	6
	38	57	158.3615	7952.465	-15688.39	1	17588.84	-63.11949	1.673778E-009	0.0082288	6
	39	58	125.558	8953.54	-19199.2	1	21184.31	-64.99802	1.255998E-009	0.0082277	6
	40	59	100.4464	10214.05	-23283.03	1	25424.92	-66.31338	-5.531014E-010	0.0082234	6
	41	61	79.00281	12046.92	-28419.95	1	30867.81	-67.02842	4.839948E-010	0.0082243	6
	42	62	63.3446	14865.78	-34354.79	1	37433.18	-66.60121	7.217333E-010	0.0082273	6
	43	63	49.86702	17232.93	-41876.89	1	45284.08	-67.63214	-3.694996E-010	0.0082198	6
	44	65	39.72458	21509.02	-49798.52	1	54245.09	-66.63947	4.532607E-010	0.0082255	6
	45	66	31.6723	26770.08	-58868.52	1	64669.46	-65.54664	3.264582E-010	0.0082236	6
	46	68	24.93351	33700.41	-70119.69	1	77797.74	-64.33047	-2.400678E-010	0.0082253	6
	47	69	19.86229	41853.14	-81967.52	1	92034.56	-62.95085	3.207234E-010	0.0082322	6
	48	70	15.83615	52435.34	-94996.49	1	108507.1	-61.10256	-8.545398E-010	0.0082263	5
	49	72	12.40079	62961.08	-109135.9	1	125995	-60.01913	9.669817E-010	0.0082336	5
	50	73	9.93114	77517.23	-124642.3	1	146780.8	-58.12179	6.160821E-010	0.0082281	5
	51	75	7.944915	92401.65	-141603.3	1	169084.4	-56.87398	2.81757E-010	0.0082263	5
	52	76	6.317385	108784.7	-158720.5	1	192422.3	-55.57383	3.383994E-010	0.0082169	5
	53	79	5.008013	127306.1	-179278.4	1	219880.9	-54.62133	6.375493E-011	0.0082338	5
	54	81	3.945707	147895.4	-203185.4	1	251311.3	-53.94973	-3.314164E-010	0.0082181	5
	55	84	3.158693	168877.2	-229087	1	284605.6	-53.60329	2.757575E-010	0.0082367	5
	56	87	2.504006	192870.6	-260564.8	1	324180.7	-53.49107	-4.920211E-010	0.0082253	5
	57	90	1.998082	218136.9	-295652.5	1	367415.5	-53.57953	-6.803887E-011	0.0081807	5
	58	93	1.584686	246200.1	-338050.8	1	418201.9	-53.93441	-1.373406E-010	0.0082412	5
	59	97	1.266892	277388.6	-387600.5	1	476632.6	-54.41037	-1.465253E-010	0.00819	5
	60	101	0.999041	314480.2	-448823.2	1	548032.9	-54.98195	2.299435E-010	0.0082635	5
