EXPLAIN
TAG	EISPOT
TITLE	LABEL	Potentiostatic EIS	Test &Identifier
DATE	LABEL	10/4/2019	Date
TIME	LABEL	9:52:08	Time
NOTES	NOTES	2	&Notes...
	
	
PSTAT	PSTAT	REF600-11020	Potentiostat
VDC	POTEN	0.00000E+000	T	DC &Voltage (V)
FREQINIT	QUANT	1.00000E+006	Initial Fre&q. (Hz)
FREQFINAL	QUANT	1.00000E+000	Final Fre&q. (Hz)
PTSPERDEC	QUANT	1.00000E+001	Points/&decade
VAC	QUANT	2.50000E+001	AC &Voltage (mV rms)
AREA	QUANT	1.00000E-002	&Area (cm^2)
CONDIT	TWOPARAM	T	5.00000E+000	0.00000E+000	Conditionin&g	Time(s)	E(V)
DELAY	TWOPARAM	T	5.00000E+000	0.00000E+000	Init. De&lay	Time(s)	Stab.(mV/s)
SPEED	SELECTOR	1	&Optimize for:
ZGUESS	QUANT	1.00000E+004	E&stimated Z (ohms)
OCVCURVE	TABLE	19
	Pt	T	Vf	Vm	Ach	Over
	#	s	V vs. Ref.	V	V	bits
	0	0.258333	3.39938E-003	3.39938E-003	5.76832E-004	...........
	1	0.516667	3.39217E-003	3.02190E-003	5.76266E-004	...........
	2	0.775	3.34819E-003	2.68008E-003	5.79499E-004	...........
	3	1.03333	3.22524E-003	2.37512E-003	5.78899E-004	...........
	4	1.29167	3.00951E-003	2.10087E-003	5.76832E-004	...........
	5	1.55	2.73095E-003	1.85125E-003	5.81065E-004	...........
	6	1.80833	2.43411E-003	1.61834E-003	5.82365E-004	...........
	7	2.06667	2.14936E-003	1.40559E-003	5.82732E-004	...........
	8	2.325	1.88794E-003	1.20083E-003	5.85299E-004	...........
	9	2.58333	1.64964E-003	1.01705E-003	5.83299E-004	...........
	10	2.84167	1.43071E-003	8.37768E-004	5.80965E-004	...........
	11	3.1	1.22767E-003	6.74823E-004	5.82065E-004	...........
	12	3.35833	1.03813E-003	5.16326E-004	5.78732E-004	...........
	13	3.61667	8.60386E-004	3.68528E-004	5.80865E-004	...........
	14	3.875	6.93064E-004	2.27211E-004	5.79532E-004	...........
	15	4.13333	5.35061E-004	9.53431E-005	5.78066E-004	...........
	16	4.39167	3.85546E-004	-3.52136E-005	5.73066E-004	...........
	17	4.65	2.43752E-004	-1.54416E-004	5.76366E-004	...........
	18	4.90833	1.08928E-004	-2.72456E-004	5.77466E-004	...........
EOC	QUANT	0.0001089	Open Circuit (V)
PSTATMODEL	IQUANT	4	Pstat Model
PSTATSECTION	LABEL	REF600-11020	Pstat Section
PSTATSERIALNO	LABEL	11020	Pstat Serial Number
CTRLMODE	IQUANT	1	Control Mode
IESTAB	IQUANT	0	I/E Stability
CASPEED	IQUANT	1	Control Amp Speed
CONVENTION	IQUANT	1	Current Convention
ICHRANGE	IQUANT	2	Ich Range
ICHRANGEMODE	TOGGLE	F	Ich Auto Range
ICHOFFSETENABLE	TOGGLE	T	Ich Offset Enable
ICHOFFSET	QUANT	0	Ich Offset (V)
ICHFILTER	IQUANT	3	Ich Filter
VCHRANGE	IQUANT	2	Vch Range
VCHRANGEMODE	TOGGLE	F	Vch Auto Range
VCHOFFSETENABLE	TOGGLE	T	Vch Offset Enable
VCHOFFSET	QUANT	0	Vch Offset (V)
VCHFILTER	IQUANT	3	Vch Filter
ACHRANGE	IQUANT	2	Ach Range
ACHOFFSETENABLE	TOGGLE	F	Ach Offset Enable
ACHOFFSET	QUANT	0	Ach Offset (V)
ACHFILTER	IQUANT	3	Ach Filter
IERANGELOWERLIMIT	IQUANT	1	I/E Range Lower Limit
IERANGEMODE	TOGGLE	F	I/E AutoRange
IERANGE	IQUANT	4	I/E Range
POSFEEDENABLE	TOGGLE	F	Positive Feedback IR Comp
POSFEEDRESISTANCE	QUANT	0	Positive Feedback Resistance (ohm)
ACHSELECT	IQUANT	0	Ach Select
CABLEID	IQUANT	14	Cable ID
DCCALDATE	LABEL	8/19/2019	DC Calibration Date
ACCALDATE	LABEL	8/19/2019	AC Calibration Date
THERMOSELECT	IQUANT	1	Thermo Select
FRAMEWORKVERSION	QUANT	6.33	Framework Version
INSTRUMENTVERSION	LABEL	3.50	Instrument Version
ZCURVE	TABLE
	Pt	Time	Freq	Zreal	Zimag	Zsig	Zmod	Zphz	Idc	Vdc	IERange
	#	s	Hz	ohm	ohm	V	ohm	°	A	V	#
	0	2	1000078	2340.654	-1498.678	1	2779.334	-32.6307	-3.960145E-007	0.0017462	8
	1	3	794390.6	2618.25	-1402.057	1	2970.016	-28.16877	4.221459E-006	0.0011921	8
	2	5	630984.4	2870.336	-1302.489	1	3152.032	-24.4074	-9.858996E-007	0.0018941	8
	3	6	501234.4	3069.388	-1168.924	1	3284.437	-20.84848	-2.270933E-006	0.0022378	8
	4	7	398109.4	3231.538	-1043.687	1	3395.897	-17.89886	1.385881E-006	0.0012571	8
	5	9	316265.6	3362.801	-924.9529	1	3487.688	-15.37915	3.502827E-006	0.0010038	8
	6	10	251203.1	3463.486	-824.5999	1	3560.295	-13.39188	-6.105165E-007	0.0016483	8
	7	11	199546.9	3544.534	-727.2968	1	3618.381	-11.59548	8.346396E-007	0.0015667	8
	8	13	158578.1	3605.962	-679.8747	1	3669.495	-10.67731	-1.644299E-006	0.0019327	8
	9	14	125953.1	3692.376	-582.6907	1	3738.07	-8.967843	6.299067E-007	0.0002711	7
	10	15	100078.1	3742.196	-556.9961	1	3783.421	-8.465869	-3.331001E-008	0.001637	7
	11	17	79453.13	3793.822	-549.9506	1	3833.475	-8.248116	6.88445E-008	0.0015201	7
	12	18	63140.62	3847.165	-553.8987	1	3886.835	-8.192904	6.104731E-009	0.0015079	7
	13	19	50203.12	3901.783	-567.4189	1	3942.826	-8.274264	-3.899364E-008	0.001581	7
	14	21	39890.62	3959.697	-591.6401	1	4003.653	-8.498012	-3.226143E-008	0.0016163	7
	15	22	31640.63	4021.372	-627.1339	1	4069.979	-8.863892	-3.140664E-008	0.0015841	7
	16	23	25171.88	4086.592	-673.4873	1	4141.716	-9.358461	-1.000373E-008	0.0016612	7
	17	25	20015.62	4157.418	-730.4663	1	4221.103	-9.96526	-4.976474E-009	0.0015826	7
	18	26	15890.62	4233.019	-801.5309	1	4308.236	-10.72213	6.173475E-009	0.0015026	7
	19	27	12609.37	4316.156	-888.3249	1	4406.623	-11.62987	-1.388706E-008	0.0015957	7
	20	29	10078.13	4403.355	-985.955	1	4512.388	-12.62092	-2.995799E-008	0.0015795	7
	21	30	8015.625	4500.526	-1108.224	1	4634.965	-13.83347	-8.944215E-009	0.0016605	7
	22	32	6328.125	4608.074	-1256.762	1	4776.379	-15.25529	-3.374702E-009	0.0015827	7
	23	33	5015.625	4722.53	-1431.531	1	4934.731	-16.86353	3.835288E-008	0.0014327	7
	24	34	3984.375	4846.074	-1639.691	1	5115.957	-18.69348	-2.198036E-008	0.0015476	7
	25	36	3170.956	4979.639	-1885.905	1	5324.794	-20.74284	-7.951884E-009	0.0016629	7
	26	37	2527.573	5122.445	-2180.967	1	5567.41	-23.06269	1.124145E-007	0.0013835	7
	27	38	1976.103	5292.992	-2571.084	1	5884.406	-25.90828	-2.279765E-008	0.0015511	7
	28	40	1577.524	5463.438	-3011.09	1	6238.255	-28.86068	-2.782433E-009	0.0015803	7
	29	41	1265.625	5646.556	-3528.253	1	6658.241	-31.99922	-1.077056E-009	0.0015539	7
	30	42	998.264	5872.619	-4212.664	1	7227.323	-35.65339	-3.454398E-009	0.0015103	7
	31	44	796.875	6116.958	-5008.973	1	7906.136	-39.31291	3.689657E-008	0.0014292	7
	32	45	627.7902	6412.937	-6047.589	1	8814.709	-43.32055	-2.935063E-008	0.0016143	7
	33	46	505.5147	6737.013	-7177.856	1	9844.24	-46.81461	-1.896724E-009	0.00157	6
	34	48	397.9953	7157.869	-8714.656	1	11277.43	-50.60169	6.532833E-010	0.0015134	6
	35	49	315.5048	7639.752	-10539.72	1	13017.36	-54.0634	7.838051E-010	0.0015105	6
	36	50	252.4038	8193.386	-12672.11	1	15090.19	-57.11456	1.04323E-009	0.0015065	6
	37	52	198.6229	8906.957	-15467.88	1	17849.06	-60.06512	1.025836E-009	0.0015086	6
	38	53	158.3615	9724.43	-18699.8	1	21077.17	-62.52428	9.546973E-010	0.0015067	6
	39	54	125.558	10744	-22732.67	1	25143.74	-64.70346	9.453558E-010	0.0015122	6
	40	56	100.4464	11926.97	-27464.47	1	29942.44	-66.52618	1.183489E-009	0.0015022	6
	41	57	79.00281	13574.39	-33673.7	1	36306.78	-68.04488	3.519455E-010	0.0015011	6
	42	58	63.3446	15479.6	-40480	1	43338.77	-69.07308	4.370083E-010	0.0015011	6
	43	60	49.86702	18001.73	-50056.45	1	53195.02	-70.21996	3.270723E-010	0.0015033	6
	44	61	39.72458	21118.61	-60584.43	1	64159.71	-70.78239	9.203135E-010	0.0015035	6
	45	63	31.6723	25290.39	-73524.51	1	77752.54	-71.0182	3.438497E-010	0.0015022	6
	46	64	24.93351	31098.86	-89774.8	1	95008.7	-70.89342	9.411143E-010	0.0015049	6
	47	65	19.86229	38493.48	-108204.1	1	114847.1	-70.41704	8.417332E-010	0.0015136	5
	48	67	15.83615	47949.46	-129692.9	1	138272.9	-69.70987	7.680923E-010	0.0015084	5
	49	68	12.40079	61847.15	-156670.3	1	168435.9	-68.45789	1.031174E-009	0.001512	5
	50	70	9.93114	77966.09	-186133.8	1	201803.2	-67.2726	6.32462E-010	0.0015143	5
	51	71	7.944915	97994.1	-218275.5	1	239263.5	-65.82246	5.520684E-010	0.0015225	5
	52	73	6.317385	123621	-254850.8	1	283250.9	-64.12327	2.265487E-010	0.0015293	5
	53	75	5.008013	154960.4	-295346.9	1	333530.4	-62.31524	5.051313E-010	0.0015174	5
	54	77	3.945707	192731.4	-340968.4	1	391669.3	-60.52282	1.652333E-010	0.0015079	5
	55	80	3.158693	232508.1	-386829.3	1	451328	-58.99155	4.095921E-010	0.0015289	5
	56	83	2.504006	279325.6	-440025.6	1	521196	-57.59287	-5.720573E-011	0.0015096	5
	57	86	1.998082	328886.3	-495638.3	1	594830.7	-56.43329	1.464983E-010	0.0014701	5
	58	89	1.584686	382292.3	-559574.9	1	677695.7	-55.65976	1.242094E-010	0.001527	5
	59	93	1.266892	439678.1	-632292.3	1	770136.6	-55.18635	1.678896E-010	0.0014677	5
	60	97	0.999041	504681.7	-721563.9	1	880544.3	-55.03	2.326855E-010	0.0015476	5
