EXPLAIN
TAG	EISPOT
TITLE	LABEL	Potentiostatic IDE	Test &Identifier
DATE	LABEL	9/6/2019	Date
TIME	LABEL	6:51:31	Time
NOTES	NOTES	1	&Notes...
	
PSTAT	PSTAT	REF600-11020	Potentiostat
VDC	POTEN	0.00000E+000	T	DC &Voltage (V)
FREQINIT	QUANT	1.00000E+006	Initial Fre&q. (Hz)
FREQFINAL	QUANT	1.00000E+000	Final Fre&q. (Hz)
PTSPERDEC	QUANT	1.00000E+001	Points/&decade
VAC	QUANT	2.50000E+001	AC &Voltage (mV rms)
AREA	QUANT	1.00000E-002	&Area (cm^2)
CONDIT	TWOPARAM	T	5.00000E+000	0.00000E+000	Conditionin&g	Time(s)	E(V)
DELAY	TWOPARAM	T	5.00000E+000	0.00000E+000	Init. De&lay	Time(s)	Stab.(mV/s)
SPEED	SELECTOR	1	&Optimize for:
ZGUESS	QUANT	1.00000E+007	E&stimated Z (ohms)
OCVCURVE	TABLE	19
	Pt	T	Vf	Vm	Ach	Over
	#	s	V vs. Ref.	V	V	bits
	0	0.258333	1.93710E-002	1.93710E-002	5.69532E-004	...........
	1	0.516667	1.93799E-002	1.98360E-002	5.66499E-004	...........
	2	0.775	1.94340E-002	2.02515E-002	5.71666E-004	...........
	3	1.03333	1.95861E-002	2.06910E-002	5.74466E-004	...........
	4	1.29167	1.98593E-002	2.11535E-002	5.72032E-004	...........
	5	1.55	2.02294E-002	2.15675E-002	5.68599E-004	...........
	6	1.80833	2.06518E-002	2.19734E-002	5.68332E-004	...........
	7	2.06667	2.10891E-002	2.23909E-002	5.68132E-004	...........
	8	2.325	2.15205E-002	2.27830E-002	5.72299E-004	...........
	9	2.58333	2.19398E-002	2.31558E-002	5.70832E-004	...........
	10	2.84167	2.23461E-002	2.35140E-002	5.65899E-004	...........
	11	3.1	2.27384E-002	2.38776E-002	5.70999E-004	...........
	12	3.35833	2.31171E-002	2.42238E-002	5.70132E-004	...........
	13	3.61667	2.34842E-002	2.45627E-002	5.70732E-004	...........
	14	3.875	2.38416E-002	2.48883E-002	5.72332E-004	...........
	15	4.13333	2.41897E-002	2.52148E-002	5.71366E-004	...........
	16	4.39167	2.45288E-002	2.55245E-002	5.71199E-004	...........
	17	4.65	2.48593E-002	2.58343E-002	5.71732E-004	...........
	18	4.90833	2.51817E-002	2.61270E-002	5.72932E-004	...........
EOC	QUANT	0.0251817	Open Circuit (V)
PSTATMODEL	IQUANT	4	Pstat Model
PSTATSECTION	LABEL	REF600-11020	Pstat Section
PSTATSERIALNO	LABEL	11020	Pstat Serial Number
CTRLMODE	IQUANT	1	Control Mode
IESTAB	IQUANT	0	I/E Stability
CASPEED	IQUANT	1	Control Amp Speed
CONVENTION	IQUANT	1	Current Convention
ICHRANGE	IQUANT	2	Ich Range
ICHRANGEMODE	TOGGLE	F	Ich Auto Range
ICHOFFSETENABLE	TOGGLE	T	Ich Offset Enable
ICHOFFSET	QUANT	0	Ich Offset (V)
ICHFILTER	IQUANT	3	Ich Filter
VCHRANGE	IQUANT	2	Vch Range
VCHRANGEMODE	TOGGLE	F	Vch Auto Range
VCHOFFSETENABLE	TOGGLE	T	Vch Offset Enable
VCHOFFSET	QUANT	0	Vch Offset (V)
VCHFILTER	IQUANT	3	Vch Filter
ACHRANGE	IQUANT	2	Ach Range
ACHOFFSETENABLE	TOGGLE	F	Ach Offset Enable
ACHOFFSET	QUANT	0	Ach Offset (V)
ACHFILTER	IQUANT	3	Ach Filter
IERANGELOWERLIMIT	IQUANT	1	I/E Range Lower Limit
IERANGEMODE	TOGGLE	F	I/E AutoRange
IERANGE	IQUANT	3	I/E Range
POSFEEDENABLE	TOGGLE	F	Positive Feedback IR Comp
POSFEEDRESISTANCE	QUANT	0	Positive Feedback Resistance (ohm)
ACHSELECT	IQUANT	0	Ach Select
CABLEID	IQUANT	14	Cable ID
DCCALDATE	LABEL	8/19/2019	DC Calibration Date
ACCALDATE	LABEL	8/19/2019	AC Calibration Date
THERMOSELECT	IQUANT	1	Thermo Select
FRAMEWORKVERSION	QUANT	6.33	Framework Version
INSTRUMENTVERSION	LABEL	3.50	Instrument Version
ZCURVE	TABLE
	Pt	Time	Freq	Zreal	Zimag	Zsig	Zmod	Zphz	Idc	Vdc	IERange
	#	s	Hz	ohm	ohm	V	ohm	°	A	V	#
	0	2	1000078	1857.37	-1895.564	1	2653.863	-45.58309	-3.442948E-006	0.0283897	8
	1	3	794390.6	2025.128	-2095.528	1	2914.169	-45.97878	3.044518E-006	0.0269407	8
	2	5	630984.4	2175.848	-2359.167	1	3209.359	-47.31481	-1.56215E-006	0.0274885	8
	3	6	501234.4	2357.431	-2696.791	1	3581.922	-48.84129	-1.959775E-006	0.0275585	8
	4	7	398109.4	2550.534	-3130.134	1	4037.693	-50.82574	1.662282E-006	0.0266691	8
	5	9	316265.6	2770.152	-3682.68	1	4608.24	-53.04911	-8.198141E-007	0.0271825	8
	6	10	251203.1	3042.119	-4352.158	1	5309.968	-55.0468	-5.440406E-007	0.0271332	8
	7	11	199546.9	3367.084	-5203.125	1	6197.561	-57.092	-7.004488E-007	0.0271974	8
	8	13	158578.1	3792.925	-6175.692	1	7247.444	-58.443	1.11849E-006	0.0267636	8
	9	14	125953.1	4460.71	-7333.072	1	8583.232	-58.68784	-8.931276E-008	0.0267083	7
	10	16	100078.1	5232.142	-8750.012	1	10195	-59.12234	5.195691E-008	0.026839	7
	11	17	79453.13	6241.348	-10382.07	1	12113.7	-58.98714	-6.12789E-009	0.0269736	7
	12	18	63140.62	7617.882	-12219.34	1	14399.46	-58.05941	5.362823E-008	0.0268303	7
	13	20	50203.12	9367.332	-14225.75	1	17032.87	-56.636	-1.264877E-008	0.0269993	7
	14	21	39890.62	11679.43	-16333.88	1	20079.96	-54.43359	5.305331E-008	0.0268362	7
	15	22	31640.63	14484.51	-18327.88	1	23360.49	-51.68071	-3.809534E-008	0.0269896	7
	16	24	25171.88	17824.08	-20169.38	1	26916.57	-48.53232	-3.214484E-008	0.027003	7
	17	25	20015.62	21633.39	-21577.88	1	30555.01	-44.92639	-1.807997E-008	0.0269373	7
	18	26	15890.62	25801.56	-22636.45	1	34323.89	-41.26141	-3.124021E-009	0.0270013	7
	19	28	12609.37	30131.33	-22841.73	1	37810.61	-37.16477	-8.944258E-010	0.0268425	6
	20	29	10078.13	34062.18	-22801.38	1	40989.45	-33.79854	9.585654E-009	0.0267525	6
	21	31	8015.625	37843.79	-22455.4	1	44004.51	-30.68365	-5.390728E-010	0.0269436	6
	22	32	6328.125	41391	-21897.39	1	46826.39	-27.88052	-9.309991E-010	0.0268048	6
	23	33	5015.625	44563.27	-21337.55	1	49408.26	-25.58579	3.197963E-009	0.026742	6
	24	35	3984.375	47428.59	-20912.48	1	51834.37	-23.79391	-2.867968E-009	0.0268786	6
	25	36	3170.956	50066.67	-20663.51	1	54163.2	-22.42691	2.508179E-009	0.0268705	6
	26	37	2527.573	52497.5	-20610.24	1	56398.31	-21.43471	-4.937927E-009	0.0269308	6
	27	39	1976.103	55100.21	-20908.74	1	58933.94	-20.78012	-1.039306E-009	0.0268396	6
	28	40	1577.524	57431.7	-21445.88	1	61305.19	-20.4764	-1.231047E-009	0.026803	6
	29	41	1265.625	59819.39	-22277.43	1	63832.94	-20.42591	-1.550842E-009	0.0268736	6
	30	43	998.264	62442.97	-23527.6	1	66728.35	-20.64568	2.650729E-009	0.0268739	6
	31	44	796.875	64973.8	-24925.24	1	69590.67	-20.9878	9.57237E-009	0.0267492	6
	32	45	627.7902	67641.38	-26804.34	1	72758.7	-21.617	-2.375171E-009	0.0269079	6
	33	47	505.5147	70185.76	-29375.41	1	76085.19	-22.71117	2.594014E-009	0.0269035	6
	34	48	397.9953	72653.04	-31863.21	1	79333.02	-23.68066	5.696958E-010	0.0268759	6
	35	49	315.5048	75125.59	-35630.81	1	83146.91	-25.3742	2.827805E-010	0.0268761	6
	36	51	252.4038	77514.52	-40342.73	1	87384.41	-27.4949	4.271816E-010	0.0268748	6
	37	52	198.6229	80286.34	-46651.98	1	92856.36	-30.15959	-1.726783E-010	0.0268778	5
	38	53	158.3615	83154.94	-54464.01	1	99403.6	-33.22361	-1.861443E-010	0.0268734	5
	39	55	125.558	86533.62	-64584.98	1	107978.2	-36.73608	-1.962524E-010	0.0268729	5
	40	56	100.4464	90633.22	-76547.64	1	118633.6	-40.184	-1.205853E-010	0.0268734	5
	41	57	79.00281	95564.6	-92266.55	1	132837.2	-43.99406	-1.013923E-010	0.0268722	5
	42	59	63.3446	102822.5	-111272.3	1	151505.8	-47.26016	6.672974E-012	0.026867	5
	43	60	49.86702	109552.6	-133401.9	1	172620.5	-50.60639	-1.428012E-010	0.026863	5
	44	61	39.72458	120979.4	-159775.5	1	200410.1	-52.8676	1.40959E-010	0.0268717	5
	45	63	31.6723	133710.3	-191474.7	1	233540.2	-55.0727	6.410353E-011	0.0268685	5
	46	64	24.93351	151018.5	-229554.2	1	274775.7	-56.65999	5.10186E-011	0.0268641	5
	47	66	19.86229	171474.1	-272982.4	1	322370.5	-57.86498	-2.479613E-010	0.0268672	5
	48	67	15.83615	195082.2	-322931.8	1	377282.4	-58.86394	-2.517915E-011	0.0268685	5
	49	68	12.40079	230987.7	-382609.6	1	446928.9	-58.87993	3.307593E-010	0.0268626	5
	50	70	9.93114	266287.7	-450342.4	1	523180.1	-59.40416	1.495393E-011	0.026871	5
	51	71	7.944915	312383.8	-525847.2	1	611636.3	-59.28722	-1.170017E-011	0.0268674	5
	52	73	6.317385	362827.5	-614307.6	1	713454.7	-59.4327	5.499813E-011	0.0268544	5
	53	75	5.008013	427500.6	-717940.7	1	835581	-59.22815	-9.480629E-011	0.0268687	5
	54	78	3.945707	503868.3	-840382.1	1	979860	-59.05434	-1.612878E-010	0.0268656	5
	55	80	3.158693	590480.2	-972508	1	1137734	-58.73503	-9.627305E-011	0.0268667	4
	56	84	2.504006	694141.9	-1130627	1	1326707	-58.4524	-1.551196E-010	0.0268802	4
	57	86	1.998082	809182.3	-1303618	1	1534339	-58.17128	-1.487909E-011	0.0268551	4
	58	89	1.584686	954789	-1510691	1	1787124	-57.70624	-1.059117E-010	0.0268236	4
	59	93	1.266892	1109948	-1737401	1	2061685	-57.42732	-2.201947E-011	0.0268671	4
	60	97	0.999041	1312976	-2016702	1	2406448	-56.9338	-1.60435E-010	0.0268438	4
