EXPLAIN
TAG	EISPOT
TITLE	LABEL	Potentiostatic EIS	Test &Identifier
DATE	LABEL	10/10/2019	Date
TIME	LABEL	9:18:18	Time
NOTES	NOTES	1	&Notes...
	
PSTAT	PSTAT	REF600-11020	Potentiostat
VDC	POTEN	0.00000E+000	T	DC &Voltage (V)
FREQINIT	QUANT	1.00000E+006	Initial Fre&q. (Hz)
FREQFINAL	QUANT	1.00000E+000	Final Fre&q. (Hz)
PTSPERDEC	QUANT	1.00000E+001	Points/&decade
VAC	QUANT	2.50000E+001	AC &Voltage (mV rms)
AREA	QUANT	1.00000E-002	&Area (cm^2)
CONDIT	TWOPARAM	T	5.00000E+000	0.00000E+000	Conditionin&g	Time(s)	E(V)
DELAY	TWOPARAM	T	5.00000E+000	0.00000E+000	Init. De&lay	Time(s)	Stab.(mV/s)
SPEED	SELECTOR	1	&Optimize for:
ZGUESS	QUANT	1.00000E+004	E&stimated Z (ohms)
OCVCURVE	TABLE	19
	Pt	T	Vf	Vm	Ach	Over
	#	s	V vs. Ref.	V	V	bits
	0	0.258333	4.67593E-003	4.67593E-003	5.31633E-004	...........
	1	0.516667	4.67411E-003	4.58058E-003	5.35299E-004	...........
	2	0.775	4.66320E-003	4.50461E-003	5.29566E-004	...........
	3	1.03333	4.63356E-003	4.44791E-003	5.26466E-004	...........
	4	1.29167	4.58374E-003	4.39768E-003	5.32666E-004	...........
	5	1.55	4.52318E-003	4.36352E-003	5.27000E-004	...........
	6	1.80833	4.46360E-003	4.32397E-003	5.24866E-004	...........
	7	2.06667	4.41163E-003	4.30046E-003	5.22200E-004	...........
	8	2.325	4.37044E-003	4.37305E-003	5.27433E-004	...........
	9	2.58333	4.34048E-003	4.12491E-003	5.30266E-004	...........
	10	2.84167	4.31079E-003	4.13636E-003	5.23133E-004	...........
	11	3.1	4.26698E-003	4.16973E-003	5.26533E-004	...........
	12	3.35833	4.21614E-003	4.17688E-003	5.30400E-004	...........
	13	3.61667	4.18016E-003	4.18212E-003	5.23266E-004	...........
	14	3.875	4.16715E-003	4.17214E-003	5.25700E-004	...........
	15	4.13333	4.16831E-003	4.18165E-003	5.34333E-004	...........
	16	4.39167	4.17293E-003	4.17571E-003	5.27066E-004	...........
	17	4.65	4.17624E-003	4.18065E-003	5.23600E-004	...........
	18	4.90833	4.17791E-003	4.18184E-003	5.24900E-004	...........
EOC	QUANT	0.0041779	Open Circuit (V)
PSTATMODEL	IQUANT	4	Pstat Model
PSTATSECTION	LABEL	REF600-11020	Pstat Section
PSTATSERIALNO	LABEL	11020	Pstat Serial Number
CTRLMODE	IQUANT	1	Control Mode
IESTAB	IQUANT	0	I/E Stability
CASPEED	IQUANT	1	Control Amp Speed
CONVENTION	IQUANT	1	Current Convention
ICHRANGE	IQUANT	2	Ich Range
ICHRANGEMODE	TOGGLE	F	Ich Auto Range
ICHOFFSETENABLE	TOGGLE	T	Ich Offset Enable
ICHOFFSET	QUANT	0	Ich Offset (V)
ICHFILTER	IQUANT	3	Ich Filter
VCHRANGE	IQUANT	2	Vch Range
VCHRANGEMODE	TOGGLE	F	Vch Auto Range
VCHOFFSETENABLE	TOGGLE	T	Vch Offset Enable
VCHOFFSET	QUANT	0	Vch Offset (V)
VCHFILTER	IQUANT	3	Vch Filter
ACHRANGE	IQUANT	2	Ach Range
ACHOFFSETENABLE	TOGGLE	F	Ach Offset Enable
ACHOFFSET	QUANT	0	Ach Offset (V)
ACHFILTER	IQUANT	3	Ach Filter
IERANGELOWERLIMIT	IQUANT	1	I/E Range Lower Limit
IERANGEMODE	TOGGLE	F	I/E AutoRange
IERANGE	IQUANT	5	I/E Range
POSFEEDENABLE	TOGGLE	F	Positive Feedback IR Comp
POSFEEDRESISTANCE	QUANT	0	Positive Feedback Resistance (ohm)
ACHSELECT	IQUANT	0	Ach Select
CABLEID	IQUANT	14	Cable ID
DCCALDATE	LABEL	8/19/2019	DC Calibration Date
ACCALDATE	LABEL	8/19/2019	AC Calibration Date
THERMOSELECT	IQUANT	1	Thermo Select
FRAMEWORKVERSION	QUANT	6.33	Framework Version
INSTRUMENTVERSION	LABEL	3.50	Instrument Version
ZCURVE	TABLE
	Pt	Time	Freq	Zreal	Zimag	Zsig	Zmod	Zphz	Idc	Vdc	IERange
	#	s	Hz	ohm	ohm	V	ohm	°	A	V	#
	0	1	1000078	2916.102	-1609.023	1	3330.556	-28.88869	6.836356E-006	0.0055672	8
	1	3	794390.6	3192.632	-1444.461	1	3504.192	-24.34371	-2.82497E-006	0.0062338	8
	2	4	630984.4	3410.362	-1284.081	1	3644.095	-20.63253	-3.092031E-006	0.0068578	8
	3	6	501234.4	3596.131	-1109.367	1	3763.357	-17.14442	-1.82111E-007	0.0060423	8
	4	7	398109.4	3735.502	-958.547	1	3856.525	-14.39184	2.033942E-006	0.0054303	8
	5	8	316265.6	3836.469	-829.8285	1	3925.189	-12.20506	4.154566E-006	0.0049315	8
	6	10	251203.1	3923.201	-695.8672	1	3984.437	-10.05808	-1.735604E-006	0.0061246	8
	7	11	199546.9	3960.792	-612.6647	1	4007.896	-8.792959	-5.308105E-007	0.0057422	8
	8	12	158578.1	3996.92	-536.5801	1	4032.777	-7.646151	-3.086931E-006	0.0064771	8
	9	14	125953.1	4064.795	-419.9719	1	4086.433	-5.89883	4.320886E-007	0.0050526	7
	10	15	100078.1	4091.837	-393.0947	1	4110.676	-5.487452	-1.745316E-008	0.0057811	7
	11	16	79453.13	4121.826	-376.0539	1	4138.945	-5.212936	1.204616E-008	0.0059056	7
	12	18	63140.62	4153.278	-367.438	1	4169.5	-5.05576	6.568853E-009	0.0059166	7
	13	19	50203.12	4185.032	-367.7028	1	4201.154	-5.021194	8.888789E-008	0.0056182	7
	14	20	39890.62	4219.486	-377.516	1	4236.34	-5.112621	-1.868616E-008	0.0058388	7
	15	22	31640.63	4251.789	-395.1884	1	4270.115	-5.310179	-1.118668E-008	0.0058566	7
	16	23	25171.88	4290.268	-419.889	1	4310.767	-5.589742	-5.684762E-008	0.0058761	7
	17	24	20015.62	4332.141	-460.1486	1	4356.51	-6.063074	-4.736976E-008	0.0059115	7
	18	26	15890.62	4377.187	-498.7775	1	4405.513	-6.500776	-3.003927E-008	0.0057955	7
	19	27	12609.37	4424.796	-553.5557	1	4459.288	-7.130832	4.918559E-008	0.005749	7
	20	28	10078.13	4476.866	-616.5802	1	4519.126	-7.841776	-6.425017E-008	0.0059135	7
	21	30	8015.625	4531.523	-695.1938	1	4584.539	-8.721907	1.174769E-008	0.0057142	7
	22	31	6328.125	4597.771	-786.7878	1	4664.604	-9.71061	-6.664112E-008	0.0059178	7
	23	32	5015.625	4663.821	-899.5319	1	4749.777	-10.91684	1.421677E-008	0.0057146	7
	24	34	3984.375	4727.334	-1024.357	1	4837.044	-12.22629	-3.734127E-009	0.0058003	7
	25	35	3170.956	4811.016	-1200.616	1	4958.564	-14.01227	-7.614241E-008	0.0058938	7
	26	36	2527.573	4896.982	-1398.453	1	5092.75	-15.93799	-3.300059E-008	0.0057976	7
	27	38	1976.103	4992.585	-1664.035	1	5262.596	-18.43329	1.548883E-008	0.0057038	7
	28	39	1577.524	5087.462	-1957.497	1	5451.061	-21.04517	1.046713E-007	0.0057111	7
	29	40	1265.625	5190.535	-2313.724	1	5682.866	-24.02532	-2.236165E-008	0.0058406	7
	30	42	998.264	5318.242	-2783.375	1	6002.572	-27.62593	5.143676E-008	0.0056409	7
	31	43	796.875	5450.131	-3334.24	1	6389.138	-31.45715	-7.981528E-008	0.005895	7
	32	44	627.7902	5604.872	-4047.438	1	6913.49	-35.83412	-4.675213E-008	0.0059095	7
	33	46	505.5147	5778.513	-4863.814	1	7553.006	-40.08755	6.766465E-008	0.0056905	7
	34	47	397.9953	6002.375	-5959.917	1	8458.671	-44.79665	5.850114E-009	0.0058074	7
	35	48	315.5048	6267.512	-7286.617	1	9611.27	-49.29985	6.918374E-009	0.0058092	7
	36	50	252.4038	6587.078	-8856.348	1	11037.41	-53.35927	1.199054E-009	0.0057476	6
	37	51	198.6229	7018.801	-10933.06	1	12992.13	-57.30037	8.765874E-010	0.0057469	6
	38	52	158.3615	7545.771	-13358.59	1	15342.44	-60.53951	1.555899E-009	0.0057484	6
	39	54	125.558	8249.07	-16396.13	1	18354.29	-63.29253	5.835312E-010	0.0057458	6
	40	55	100.4464	9159.192	-19970.98	1	21971.13	-65.36262	2.246903E-010	0.0057464	6
	41	56	79.00281	10417.53	-24571.83	1	26688.94	-67.02488	9.345773E-010	0.0057488	6
	42	58	63.3446	12097.17	-30103.38	1	32443.11	-68.10706	1.1271E-009	0.0057448	6
	43	59	49.86702	14015.67	-36594.19	1	39186.4	-69.04304	-2.894102E-010	0.0057449	6
	44	60	39.72458	17162.12	-44302.86	1	47510.86	-68.82454	6.294554E-010	0.0057512	6
	45	62	31.6723	20906.66	-53459.67	1	57402.3	-68.64085	4.09783E-012	0.0057492	6
	46	63	24.93351	26126.03	-64581.91	1	69666.29	-67.97466	1.50722E-010	0.0057441	6
	47	65	19.86229	32487.85	-76853.73	1	83438.34	-67.0851	-3.123267E-010	0.0057435	6
	48	66	15.83615	40481.56	-91142.09	1	99727.8	-66.05118	-6.331097E-010	0.0057434	6
	49	67	12.40079	52567.54	-107578.5	1	119735.1	-63.95786	1.609325E-009	0.0057525	5
	50	69	9.93114	63667.02	-124729.7	1	140039.2	-62.95842	1.054992E-009	0.0057502	5
	51	70	7.944915	78652.73	-143430	1	163580	-61.26096	9.100288E-010	0.0057463	5
	52	72	6.317385	95833.1	-164545.5	1	190418.6	-59.78301	7.15401E-010	0.0057361	5
	53	74	5.008013	115869.3	-187756.7	1	220631.6	-58.32024	3.798693E-010	0.0057568	5
	54	76	3.945707	138525.1	-213644.9	1	254623.9	-57.04105	-1.975134E-010	0.0057427	5
	55	79	3.158693	161378.4	-240325.7	1	289481.3	-56.11869	3.186788E-010	0.0057653	5
	56	82	2.504006	186885.8	-272624.1	1	330530.2	-55.56909	-5.734052E-011	0.0057405	5
	57	85	1.998082	212748.7	-308745.1	1	374947.4	-55.43023	-1.480439E-010	0.0057451	5
	58	88	1.584686	242084.2	-352782	1	427855	-55.54151	1.735786E-010	0.0057956	5
	59	92	1.266892	270534.9	-403608.3	1	485889.7	-56.16642	-5.65374E-011	0.0057639	5
	60	96	0.999041	305030.2	-469961.8	1	560274.5	-57.01429	3.088017E-010	0.0057482	5
