EXPLAIN
TAG	EISPOT
TITLE	LABEL	Potentiostatic IDE	Test &Identifier
DATE	LABEL	9/14/2019	Date
TIME	LABEL	9:34:40	Time
NOTES	NOTES	1	&Notes...
	
PSTAT	PSTAT	REF600-11020	Potentiostat
VDC	POTEN	0.00000E+000	T	DC &Voltage (V)
FREQINIT	QUANT	1.00000E+006	Initial Fre&q. (Hz)
FREQFINAL	QUANT	1.00000E+000	Final Fre&q. (Hz)
PTSPERDEC	QUANT	1.00000E+001	Points/&decade
VAC	QUANT	2.50000E+001	AC &Voltage (mV rms)
AREA	QUANT	1.00000E-002	&Area (cm^2)
CONDIT	TWOPARAM	T	5.00000E+000	0.00000E+000	Conditionin&g	Time(s)	E(V)
DELAY	TWOPARAM	T	5.00000E+000	0.00000E+000	Init. De&lay	Time(s)	Stab.(mV/s)
SPEED	SELECTOR	1	&Optimize for:
ZGUESS	QUANT	1.00000E+007	E&stimated Z (ohms)
OCVCURVE	TABLE	19
	Pt	T	Vf	Vm	Ach	Over
	#	s	V vs. Ref.	V	V	bits
	0	0.258333	-2.11367E-003	-2.11367E-003	5.60799E-004	...........
	1	0.516667	-2.12541E-003	-2.72852E-003	5.59532E-004	...........
	2	0.775	-2.19759E-003	-3.31390E-003	5.59599E-004	...........
	3	1.03333	-2.40246E-003	-3.90353E-003	5.57366E-004	...........
	4	1.29167	-2.77209E-003	-4.49238E-003	5.57732E-004	...........
	5	1.55	-3.27188E-003	-5.08358E-003	5.59466E-004	...........
	6	1.80833	-3.84035E-003	-5.62585E-003	5.58099E-004	...........
	7	2.06667	-4.42601E-003	-6.03684E-003	5.60099E-004	...........
	8	2.325	-4.99122E-003	-6.44576E-003	5.56133E-004	...........
	9	2.58333	-5.51138E-003	-6.86225E-003	5.56899E-004	...........
	10	2.84167	-5.98117E-003	-7.23145E-003	5.58466E-004	...........
	11	3.1	-6.40895E-003	-7.49652E-003	5.63599E-004	...........
	12	3.35833	-6.79916E-003	-7.76292E-003	5.60099E-004	...........
	13	3.61667	-7.14972E-003	-8.07718E-003	5.60666E-004	...........
	14	3.875	-7.47141E-003	-8.66745E-003	5.57833E-004	...........
	15	4.13333	-7.79882E-003	-9.01033E-003	5.51699E-004	...........
	16	4.39167	-8.15951E-003	-9.21611E-003	5.55766E-004	...........
	17	4.65	-8.53433E-003	-9.38256E-003	5.58899E-004	...........
	18	4.90833	-8.87663E-003	-9.71191E-003	5.59599E-004	...........
EOC	QUANT	-0.0088766	Open Circuit (V)
PSTATMODEL	IQUANT	4	Pstat Model
PSTATSECTION	LABEL	REF600-11020	Pstat Section
PSTATSERIALNO	LABEL	11020	Pstat Serial Number
CTRLMODE	IQUANT	1	Control Mode
IESTAB	IQUANT	0	I/E Stability
CASPEED	IQUANT	1	Control Amp Speed
CONVENTION	IQUANT	1	Current Convention
ICHRANGE	IQUANT	2	Ich Range
ICHRANGEMODE	TOGGLE	F	Ich Auto Range
ICHOFFSETENABLE	TOGGLE	T	Ich Offset Enable
ICHOFFSET	QUANT	0	Ich Offset (V)
ICHFILTER	IQUANT	3	Ich Filter
VCHRANGE	IQUANT	2	Vch Range
VCHRANGEMODE	TOGGLE	F	Vch Auto Range
VCHOFFSETENABLE	TOGGLE	T	Vch Offset Enable
VCHOFFSET	QUANT	0	Vch Offset (V)
VCHFILTER	IQUANT	3	Vch Filter
ACHRANGE	IQUANT	2	Ach Range
ACHOFFSETENABLE	TOGGLE	F	Ach Offset Enable
ACHOFFSET	QUANT	0	Ach Offset (V)
ACHFILTER	IQUANT	3	Ach Filter
IERANGELOWERLIMIT	IQUANT	1	I/E Range Lower Limit
IERANGEMODE	TOGGLE	F	I/E AutoRange
IERANGE	IQUANT	3	I/E Range
POSFEEDENABLE	TOGGLE	F	Positive Feedback IR Comp
POSFEEDRESISTANCE	QUANT	0	Positive Feedback Resistance (ohm)
ACHSELECT	IQUANT	0	Ach Select
CABLEID	IQUANT	14	Cable ID
DCCALDATE	LABEL	8/19/2019	DC Calibration Date
ACCALDATE	LABEL	8/19/2019	AC Calibration Date
THERMOSELECT	IQUANT	1	Thermo Select
FRAMEWORKVERSION	QUANT	6.33	Framework Version
INSTRUMENTVERSION	LABEL	3.50	Instrument Version
ZCURVE	TABLE
	Pt	Time	Freq	Zreal	Zimag	Zsig	Zmod	Zphz	Idc	Vdc	IERange
	#	s	Hz	ohm	ohm	V	ohm	°	A	V	#
	0	2	1000078	2293.327	-1667.104	1	2835.24	-36.01478	2.505596E-007	-0.0063285	8
	1	3	794390.6	2635.332	-1588.712	1	3077.171	-31.0837	6.00397E-006	-0.008465	8
	2	4	630984.4	2922.454	-1487.088	1	3279.05	-26.96922	-7.034515E-007	-0.0074724	8
	3	6	501234.4	3174.505	-1331.236	1	3442.335	-22.75086	-4.212539E-006	-0.0065051	8
	4	7	398109.4	3364.185	-1180.943	1	3565.44	-19.3428	9.872672E-007	-0.0075663	8
	5	8	316265.6	3535.631	-1033.441	1	3683.57	-16.29329	4.195632E-006	-0.0081774	8
	6	10	251203.1	3647.416	-880.5857	1	3752.209	-13.57303	-9.333368E-007	-0.0070917	8
	7	11	199546.9	3726.432	-770.5044	1	3805.256	-11.68227	1.557248E-007	-0.0072741	8
	8	13	158578.1	3808.526	-671.9693	1	3867.352	-10.00618	-6.140797E-007	-0.0073305	8
	9	14	125953.1	3893.576	-537.0191	1	3930.435	-7.852941	-2.711291E-007	-0.0072112	7
	10	15	100078.1	3926.434	-479.0699	1	3955.552	-6.956358	-1.985193E-008	-0.0073942	7
	11	16	79453.13	3962.807	-440.3645	1	3987.199	-6.340944	1.77563E-008	-0.007513	7
	12	18	63140.62	3998.564	-415.0938	1	4020.052	-5.926687	9.037558E-008	-0.0075112	7
	13	19	50203.12	4033.113	-398.5447	1	4052.756	-5.643541	1.786101E-008	-0.0075224	7
	14	21	39890.62	4069.592	-388.2354	1	4088.069	-5.449473	-8.217545E-009	-0.0074573	7
	15	22	31640.63	4102.012	-395.1182	1	4120.998	-5.501928	-7.653421E-009	-0.0074579	7
	16	23	25171.88	4137.228	-406.6677	1	4157.166	-5.61384	-2.120211E-008	-0.0074621	7
	17	25	20015.62	4175.829	-428.8896	1	4197.796	-5.864153	1.855485E-008	-0.007529	7
	18	26	15890.62	4214.808	-462.2635	1	4240.082	-6.25896	-6.950557E-008	-0.0072401	7
	19	27	12609.37	4256.417	-499.6987	1	4285.648	-6.695812	1.109722E-007	-0.0076017	7
	20	29	10078.13	4299.97	-550.1675	1	4335.023	-7.291199	4.387705E-008	-0.0075792	7
	21	30	8015.625	4348.262	-613.2809	1	4391.297	-8.02807	-3.224701E-009	-0.0075011	7
	22	31	6328.125	4399.834	-695.2922	1	4454.433	-8.980016	-5.222354E-008	-0.0073866	7
	23	33	5015.625	4455.409	-794.6368	1	4525.717	-10.11256	-5.247668E-008	-0.0073844	7
	24	34	3984.375	4515.427	-917.8908	1	4607.776	-11.49046	7.561191E-009	-0.0074671	7
	25	35	3170.956	4578.108	-1064.225	1	4700.175	-13.08653	1.166799E-008	-0.0073637	7
	26	37	2527.573	4648.055	-1244.844	1	4811.865	-14.99311	-6.701722E-009	-0.0075135	7
	27	38	1976.103	4732.792	-1487.793	1	4961.134	-17.45098	-3.420014E-009	-0.0075066	7
	28	39	1577.524	4817.51	-1759.033	1	5128.605	-20.05882	1.2229E-008	-0.0073681	7
	29	41	1265.625	4919.064	-2081.465	1	5341.319	-22.93529	-5.882848E-009	-0.0074619	7
	30	42	998.264	5035.221	-2505.721	1	5624.242	-26.45672	9.161413E-008	-0.0075327	7
	31	43	796.875	5164.859	-2998.378	1	5972.105	-30.13664	-5.075772E-008	-0.007387	7
	32	45	627.7902	5322.192	-3637.178	1	6446.301	-34.34864	-3.49552E-008	-0.0073655	7
	33	46	505.5147	5487.712	-4349.182	1	7002.169	-38.39792	-6.613247E-008	-0.0072338	7
	34	47	397.9953	5696.086	-5299.498	1	7780.107	-42.93435	6.396217E-009	-0.0074353	7
	35	49	315.5048	5929.092	-6447.172	1	8759.005	-47.39705	5.54085E-009	-0.0074377	7
	36	50	252.4038	6192.582	-7802.473	1	9961.26	-51.56206	2.162454E-009	-0.0074983	6
	37	51	198.6229	6523.552	-9605.95	1	11611.67	-55.81895	1.228364E-009	-0.0074937	6
	38	53	158.3615	6906.122	-11717.28	1	13601.07	-59.48505	2.18857E-009	-0.0075026	6
	39	54	125.558	7388.54	-14390.65	1	16176.57	-62.82284	1.598073E-009	-0.0074929	6
	40	55	100.4464	7973.899	-17541.66	1	19268.96	-65.55492	5.997488E-010	-0.007499	6
	41	57	79.00281	8785.019	-21726.27	1	23435.18	-67.98405	1.99228E-009	-0.007498	6
	42	58	63.3446	9918.28	-26417.92	1	28218.41	-69.42197	1.135537E-009	-0.0074989	6
	43	59	49.86702	10916.93	-32881.61	1	34646.49	-71.63346	1.880394E-009	-0.0075025	6
	44	61	39.72458	12774.86	-40125.25	1	42109.77	-72.33985	1.236561E-009	-0.0074941	6
	45	62	31.6723	15003.48	-49148.07	1	51387.13	-73.02409	7.84106E-010	-0.0075052	6
	46	64	24.93351	18034.48	-60481.31	1	63112.84	-73.39633	1.145223E-009	-0.0075042	6
	47	65	19.86229	21799.95	-73606.46	1	76766.84	-73.50235	7.4867E-010	-0.0075034	6
	48	66	15.83615	26400.26	-89856.66	1	93654.65	-73.62699	-4.803463E-011	-0.0074978	6
	49	68	12.40079	34164.16	-108905.8	1	114138.8	-72.58316	-6.327371E-010	-0.0074941	5
	50	69	9.93114	42760.72	-131628	1	138399.4	-72.00307	1.096022E-009	-0.0074944	5
	51	71	7.944915	53607.87	-157852	1	166706.5	-71.24208	5.604221E-010	-0.0074972	5
	52	72	6.317385	67555.75	-188762.3	1	200486.9	-70.30833	3.111268E-010	-0.0074959	5
	53	74	5.008013	86240.64	-225879.3	1	241782.8	-69.10316	4.703434E-010	-0.0075092	5
	54	77	3.945707	110051.8	-269134.1	1	290765.5	-67.75983	8.865527E-010	-0.0075001	5
	55	79	3.158693	138505.9	-315626.8	1	344679.8	-66.30679	3.030163E-010	-0.0074935	5
	56	83	2.504006	174197.1	-370181.6	1	409119.8	-64.79964	5.772703E-010	-0.0075053	5
	57	85	1.998082	213940.6	-430049.2	1	480325.8	-63.5506	-8.701009E-011	-0.0074912	5
	58	89	1.584686	266216.5	-496331.4	1	563219.4	-61.79229	2.076243E-010	-0.0074507	5
	59	92	1.266892	322231	-567974.9	1	653014.8	-60.43232	1.958608E-010	-0.0074838	5
	60	96	0.999041	390827.2	-650866.6	1	759192.4	-59.01636	6.980791E-010	-0.0074887	5
