EXPLAIN
TAG	EISPOT
TITLE	LABEL	Potentiostatic EIS	Test &Identifier
DATE	LABEL	11/27/2019	Date
TIME	LABEL	12:36:40	Time
NOTES	NOTES	3	&Notes...
	
	
	
PSTAT	PSTAT	REF600-11020	Potentiostat
VDC	POTEN	0.00000E+000	T	DC &Voltage (V)
FREQINIT	QUANT	1.00000E+006	Initial Fre&q. (Hz)
FREQFINAL	QUANT	1.00000E+000	Final Fre&q. (Hz)
PTSPERDEC	QUANT	1.00000E+001	Points/&decade
VAC	QUANT	2.50000E+001	AC &Voltage (mV rms)
AREA	QUANT	1.00000E-002	&Area (cm^2)
CONDIT	TWOPARAM	T	5.00000E+000	0.00000E+000	Conditionin&g	Time(s)	E(V)
DELAY	TWOPARAM	T	5.00000E+000	0.00000E+000	Init. De&lay	Time(s)	Stab.(mV/s)
SPEED	SELECTOR	0	&Optimize for:
ZGUESS	QUANT	1.00000E+005	E&stimated Z (ohms)
OCVCURVE	TABLE	19
	Pt	T	Vf	Vm	Ach	Over
	#	s	V vs. Ref.	V	V	bits
	0	0.258333	5.11031E-003	5.11031E-003	5.69199E-004	...........
	1	0.516667	5.11034E-003	5.11206E-003	5.70699E-004	...........
	2	0.775	5.10973E-003	5.07074E-003	5.73299E-004	...........
	3	1.03333	5.10450E-003	4.99122E-003	5.74765E-004	...........
	4	1.29167	5.08846E-003	5.01586E-003	5.68332E-004	...........
	5	1.55	5.06329E-003	5.06883E-003	5.70332E-004	...........
	6	1.80833	5.04307E-003	5.07995E-003	5.70999E-004	...........
	7	2.06667	5.03995E-003	5.07936E-003	5.69332E-004	...........
	8	2.325	5.05010E-003	5.02811E-003	5.74132E-004	...........
	9	2.58333	5.05834E-003	4.98903E-003	5.68632E-004	...........
	10	2.84167	5.05368E-003	5.03893E-003	5.72032E-004	...........
	11	3.1	5.03787E-003	4.92627E-003	5.72832E-004	...........
	12	3.35833	5.01784E-003	4.99989E-003	5.74165E-004	...........
	13	3.61667	4.99584E-003	4.83058E-003	5.71732E-004	...........
	14	3.875	4.96752E-003	4.81475E-003	5.69132E-004	...........
	15	4.13333	4.92384E-003	4.60849E-003	5.68132E-004	...........
	16	4.39167	4.86011E-003	4.73488E-003	5.65866E-004	...........
	17	4.65	4.78715E-003	4.60262E-003	5.66999E-004	...........
	18	4.90833	4.71646E-003	4.25997E-003	5.66399E-004	...........
EOC	QUANT	0.0047165	Open Circuit (V)
PSTATMODEL	IQUANT	4	Pstat Model
PSTATSECTION	LABEL	REF600-11020	Pstat Section
PSTATSERIALNO	LABEL	11020	Pstat Serial Number
CTRLMODE	IQUANT	1	Control Mode
IESTAB	IQUANT	0	I/E Stability
CASPEED	IQUANT	1	Control Amp Speed
CONVENTION	IQUANT	1	Current Convention
ICHRANGE	IQUANT	2	Ich Range
ICHRANGEMODE	TOGGLE	F	Ich Auto Range
ICHOFFSETENABLE	TOGGLE	T	Ich Offset Enable
ICHOFFSET	QUANT	0	Ich Offset (V)
ICHFILTER	IQUANT	3	Ich Filter
VCHRANGE	IQUANT	2	Vch Range
VCHRANGEMODE	TOGGLE	F	Vch Auto Range
VCHOFFSETENABLE	TOGGLE	T	Vch Offset Enable
VCHOFFSET	QUANT	0	Vch Offset (V)
VCHFILTER	IQUANT	3	Vch Filter
ACHRANGE	IQUANT	2	Ach Range
ACHOFFSETENABLE	TOGGLE	F	Ach Offset Enable
ACHOFFSET	QUANT	0	Ach Offset (V)
ACHFILTER	IQUANT	3	Ach Filter
IERANGELOWERLIMIT	IQUANT	1	I/E Range Lower Limit
IERANGEMODE	TOGGLE	F	I/E AutoRange
IERANGE	IQUANT	4	I/E Range
POSFEEDENABLE	TOGGLE	F	Positive Feedback IR Comp
POSFEEDRESISTANCE	QUANT	0	Positive Feedback Resistance (ohm)
ACHSELECT	IQUANT	0	Ach Select
CABLEID	IQUANT	14	Cable ID
DCCALDATE	LABEL	8/19/2019	DC Calibration Date
ACCALDATE	LABEL	8/19/2019	AC Calibration Date
THERMOSELECT	IQUANT	1	Thermo Select
FRAMEWORKVERSION	QUANT	6.33	Framework Version
INSTRUMENTVERSION	LABEL	3.50	Instrument Version
ZCURVE	TABLE
	Pt	Time	Freq	Zreal	Zimag	Zsig	Zmod	Zphz	Idc	Vdc	IERange
	#	s	Hz	ohm	ohm	V	ohm	°	A	V	#
	0	1	1000078	2188.579	-1268.765	1	2529.751	-30.10176	3.554509E-006	0.0054004	8
	1	2	794390.6	2421.331	-1198.666	1	2701.785	-26.33744	5.566666E-006	0.0057765	8
	2	2	630984.4	2632.864	-1083.65	1	2847.151	-22.37138	5.045413E-006	0.0052788	8
	3	2	501234.4	2784.499	-978.015	1	2951.262	-19.35308	-1.36493E-006	0.0061022	8
	4	3	398109.4	2934.699	-867.4685	1	3060.222	-16.46717	5.649161E-006	0.0056592	8
	5	3	316265.6	3037.026	-772.4455	1	3133.719	-14.27019	-5.782794E-006	0.0071308	8
	6	3	251203.1	3115.125	-672.7662	1	3186.945	-12.18686	2.142316E-006	0.0058504	8
	7	4	199546.9	3196.405	-591.0624	1	3250.593	-10.4765	-3.938877E-007	0.0067345	8
	8	4	158578.1	3248.189	-530.7659	1	3291.268	-9.280323	3.536248E-006	0.0062627	8
	9	4	125953.1	3306.68	-441.5365	1	3336.028	-7.605639	-1.069952E-006	0.0052606	7
	10	5	100078.1	3340.022	-397.1554	1	3363.552	-6.781087	8.54136E-007	0.0047973	7
	11	5	79453.13	3375.002	-379.0759	1	3396.224	-6.408528	-2.701688E-007	0.0055125	7
	12	5	63140.62	3408.434	-364.9597	1	3427.917	-6.111686	6.100756E-008	0.0071071	7
	13	5	50203.12	3441.909	-366.0767	1	3461.322	-6.071076	5.291495E-007	0.0064502	7
	14	6	39890.62	3474.533	-369.1662	1	3494.09	-6.064874	8.579973E-007	0.0047946	7
	15	6	31640.63	3506.247	-383.2327	1	3527.128	-6.237667	-9.671747E-007	0.0076913	7
	16	6	25171.88	3543.477	-410.0088	1	3567.118	-6.600232	-1.071483E-006	0.0072114	7
	17	7	20015.62	3583.419	-441.2637	1	3610.485	-7.020085	8.829367E-007	0.0056499	7
	18	7	15890.62	3620.615	-485.734	1	3653.052	-7.641057	9.644369E-007	0.0052786	7
	19	7	12609.37	3668.072	-533.3668	1	3706.647	-8.273279	1.116425E-007	0.0050581	7
	20	8	10078.13	3714.124	-591.2324	1	3760.887	-9.044735	9.605488E-007	0.0052791	7
	21	8	8015.625	3770.429	-670.1014	1	3829.513	-10.07769	7.295205E-007	0.0060754	7
	22	8	6328.125	3822.213	-768.6649	1	3898.738	-11.37078	4.264776E-007	0.0047938	7
	23	9	5015.625	3883.872	-881.9981	1	3982.761	-12.79444	8.558049E-007	0.0047894	7
	24	9	3984.375	3947.344	-1014.676	1	4075.671	-14.41593	-5.523761E-007	0.0076642	7
	25	9	3170.956	4021.224	-1186.305	1	4192.56	-16.43664	7.23815E-007	0.0060746	7
	26	10	2527.573	4095.913	-1394.129	1	4326.673	-18.79708	-9.150552E-007	0.0066996	7
	27	10	1976.103	4182.741	-1665.353	1	4502.08	-21.70991	1.086578E-007	0.0050497	7
	28	10	1577.524	4275.096	-1967.035	1	4705.919	-24.70786	1.091953E-007	0.005038	7
	29	11	1265.625	4372.277	-2346.15	1	4961.979	-28.21786	8.921958E-007	0.0056321	7
	30	11	998.264	4485.909	-2834.401	1	5306.336	-32.28656	-5.46103E-007	0.0076539	7
	31	11	796.875	4618.34	-3414.184	1	5743.319	-36.47427	6.778494E-007	0.0046999	7
	32	12	627.7902	4779.571	-4172.894	1	6344.867	-41.12319	9.64167E-007	0.0052702	7
	33	12	505.5147	4952.79	-5030.626	1	7059.556	-45.4467	9.435369E-007	0.0049833	7
	34	12	397.9953	5188.246	-6166.456	1	8058.727	-49.92389	2.157453E-009	0.0062815	7
	35	12	315.5048	5476.895	-7553.986	1	9330.546	-54.05662	1.81987E-009	0.0062803	7
	36	13	252.4038	5828.049	-9189.445	1	10881.73	-57.61667	1.047857E-009	0.0062182	6
	37	13	198.6229	6314.855	-11351.87	1	12990.08	-60.91353	5.904178E-010	0.006224	6
	38	13	158.3615	6919.474	-13849.44	1	15481.8	-63.45231	3.499473E-010	0.0062198	6
	39	14	125.558	7739.388	-16983.14	1	18663.47	-65.50077	3.708259E-010	0.0062193	6
	40	14	100.4464	8798.789	-20629.84	1	22427.86	-66.90137	-6.767655E-010	0.0062195	6
	41	14	79.00281	10341.31	-25394.36	1	27419.26	-67.84244	4.238314E-010	0.0062081	6
	42	15	63.3446	11784.7	-30720.05	1	32902.89	-69.0124	3.341838E-010	0.0062179	6
	43	15	49.86702	14536.45	-37429.52	1	40153.18	-68.77539	3.790323E-010	0.0062171	6
	44	16	39.72458	18103.56	-44954.22	1	48462.57	-68.0648	7.606507E-011	0.0062239	6
	45	16	31.6723	22610.86	-53621.5	1	58193.78	-67.13605	-7.19878E-010	0.0062097	6
	46	16	24.93351	28261.3	-64077.37	1	70032.92	-66.20014	1.391819E-009	0.0062104	6
	47	16	19.86229	35087.21	-75433.77	1	83194.74	-65.05501	2.456777E-009	0.0062167	6
	48	17	15.83615	44379.75	-88920.19	1	99379.9	-63.47638	-2.291015E-009	0.0062144	6
	49	17	12.40079	54909.87	-103279.8	1	116969.2	-62.00214	-1.209458E-010	0.0062097	5
	50	17	9.93114	66991.12	-118223.9	1	135884.9	-60.46211	-5.694172E-010	0.0062249	5
	51	18	7.944915	80430.93	-134350.8	1	156586.3	-59.09257	8.715796E-010	0.0062069	5
	52	19	6.317385	96270.4	-152589.7	1	180420.6	-57.75175	4.97869E-010	0.0062122	5
	53	19	5.008013	113902.5	-172863.8	1	207016.1	-56.61854	4.779189E-011	0.0062107	5
	54	20	3.945707	132906.1	-196890.9	1	237550.1	-55.9797	3.462013E-010	0.0062158	5
	55	22	3.158693	152002.1	-222248.9	1	269256.8	-55.63071	-1.459318E-010	0.0062169	5
	56	24	2.504006	172676.5	-253717.5	1	306903.5	-55.76136	-1.226232E-010	0.0062121	5
	57	25	1.998082	194292.9	-290304	1	349322.4	-56.20664	1.676633E-010	0.0062616	5
	58	26	1.584686	217875.6	-336322.9	1	400727.9	-57.06415	9.108612E-011	0.00624	5
	59	28	1.266892	244128.3	-389605.4	1	459772.7	-57.92858	6.492191E-012	0.0061943	5
	60	31	0.999041	277244	-459410.3	1	536583.7	-58.88995	-4.233242E-011	0.0061734	5
