EXPLAIN
TAG	EISPOT
TITLE	LABEL	Potentiostatic IDE	Test &Identifier
DATE	LABEL	9/12/2019	Date
TIME	LABEL	8:30:38	Time
NOTES	NOTES	1	&Notes...
	
PSTAT	PSTAT	REF600-11020	Potentiostat
VDC	POTEN	0.00000E+000	T	DC &Voltage (V)
FREQINIT	QUANT	1.00000E+006	Initial Fre&q. (Hz)
FREQFINAL	QUANT	1.00000E+000	Final Fre&q. (Hz)
PTSPERDEC	QUANT	1.00000E+001	Points/&decade
VAC	QUANT	2.50000E+001	AC &Voltage (mV rms)
AREA	QUANT	1.00000E-002	&Area (cm^2)
CONDIT	TWOPARAM	T	5.00000E+000	0.00000E+000	Conditionin&g	Time(s)	E(V)
DELAY	TWOPARAM	T	5.00000E+000	0.00000E+000	Init. De&lay	Time(s)	Stab.(mV/s)
SPEED	SELECTOR	1	&Optimize for:
ZGUESS	QUANT	1.00000E+007	E&stimated Z (ohms)
OCVCURVE	TABLE	18
	Pt	T	Vf	Vm	Ach	Over
	#	s	V vs. Ref.	V	V	bits
	0	0.258333	4.56509E-003	4.56509E-003	5.64866E-004	...........
	1	0.516667	4.56237E-003	4.42308E-003	5.60932E-004	...........
	2	0.775	4.54582E-003	4.29411E-003	5.57599E-004	...........
	3	1.03333	4.49971E-003	4.18839E-003	5.58066E-004	...........
	4	1.29167	4.41941E-003	4.08786E-003	5.55899E-004	...........
	5	1.55	4.31681E-003	3.99688E-003	5.59866E-004	...........
	6	1.80833	4.20860E-003	3.91802E-003	5.60866E-004	...........
	7	2.06667	4.10576E-003	3.84143E-003	5.58799E-004	...........
	8	2.325	4.01249E-003	3.78114E-003	5.66599E-004	...........
	9	2.58333	3.93090E-003	3.80824E-003	5.61966E-004	...........
	10	2.84167	3.86423E-003	3.68897E-003	5.60166E-004	...........
	11	3.1	3.81015E-003	3.60831E-003	5.61932E-004	...........
	12	3.35833	3.75667E-003	3.54482E-003	5.62199E-004	...........
	13	3.61667	3.69450E-003	3.49068E-003	5.60866E-004	...........
	14	3.875	3.62625E-003	3.43474E-003	5.67332E-004	...........
	15	4.13333	3.55946E-003	3.38958E-003	5.67332E-004	...........
	16	4.39167	3.49848E-003	3.34325E-003	5.62599E-004	...........
	17	4.65	3.44369E-003	3.29366E-003	5.62699E-004	...........
EOC	QUANT	0.0033934	Open Circuit (V)
PSTATMODEL	IQUANT	4	Pstat Model
PSTATSECTION	LABEL	REF600-11020	Pstat Section
PSTATSERIALNO	LABEL	11020	Pstat Serial Number
CTRLMODE	IQUANT	1	Control Mode
IESTAB	IQUANT	0	I/E Stability
CASPEED	IQUANT	1	Control Amp Speed
CONVENTION	IQUANT	1	Current Convention
ICHRANGE	IQUANT	2	Ich Range
ICHRANGEMODE	TOGGLE	F	Ich Auto Range
ICHOFFSETENABLE	TOGGLE	T	Ich Offset Enable
ICHOFFSET	QUANT	0	Ich Offset (V)
ICHFILTER	IQUANT	3	Ich Filter
VCHRANGE	IQUANT	2	Vch Range
VCHRANGEMODE	TOGGLE	F	Vch Auto Range
VCHOFFSETENABLE	TOGGLE	T	Vch Offset Enable
VCHOFFSET	QUANT	0	Vch Offset (V)
VCHFILTER	IQUANT	3	Vch Filter
ACHRANGE	IQUANT	2	Ach Range
ACHOFFSETENABLE	TOGGLE	F	Ach Offset Enable
ACHOFFSET	QUANT	0	Ach Offset (V)
ACHFILTER	IQUANT	3	Ach Filter
IERANGELOWERLIMIT	IQUANT	1	I/E Range Lower Limit
IERANGEMODE	TOGGLE	F	I/E AutoRange
IERANGE	IQUANT	2	I/E Range
POSFEEDENABLE	TOGGLE	F	Positive Feedback IR Comp
POSFEEDRESISTANCE	QUANT	0	Positive Feedback Resistance (ohm)
ACHSELECT	IQUANT	0	Ach Select
CABLEID	IQUANT	14	Cable ID
DCCALDATE	LABEL	8/19/2019	DC Calibration Date
ACCALDATE	LABEL	8/19/2019	AC Calibration Date
THERMOSELECT	IQUANT	1	Thermo Select
FRAMEWORKVERSION	QUANT	6.33	Framework Version
INSTRUMENTVERSION	LABEL	3.50	Instrument Version
ZCURVE	TABLE
	Pt	Time	Freq	Zreal	Zimag	Zsig	Zmod	Zphz	Idc	Vdc	IERange
	#	s	Hz	ohm	ohm	V	ohm	°	A	V	#
	0	2	1000078	1996.886	-736.4411	1	2128.356	-20.24371	-6.88123E-006	0.0072178	8
	1	3	794390.6	2089.93	-649.5797	1	2188.552	-17.26598	-2.755047E-008	0.0061028	8
	2	4	630984.4	2174.754	-561.2267	1	2246.004	-14.47029	-2.224856E-006	0.0058618	8
	3	6	501234.4	2233.305	-478.8964	1	2284.074	-12.10288	-3.418192E-006	0.0060941	8
	4	7	398109.4	2279.083	-420.83	1	2317.61	-10.46176	-1.674909E-006	0.0055978	8
	5	8	316265.6	2314.551	-364.5604	1	2343.085	-8.95101	6.695649E-008	0.0050997	8
	6	10	251203.1	2338.828	-324.1989	1	2361.19	-7.891823	-5.359071E-010	0.0050773	8
	7	11	199546.9	2364.79	-304.276	1	2384.285	-7.331927	3.068617E-008	0.0050618	8
	8	12	158578.1	2398.321	-282.3945	1	2414.889	-6.715471	-2.413771E-006	0.0054817	8
	9	14	125953.1	2428.377	-237.0717	1	2439.922	-5.575863	-3.433118E-007	0.0059948	7
	10	15	100078.1	2445.191	-234.8323	1	2456.441	-5.485771	-3.973771E-008	0.0052515	7
	11	16	79453.13	2467.456	-247.6245	1	2479.851	-5.730798	2.682134E-008	0.0051053	7
	12	18	63140.62	2492.57	-265.2746	1	2506.646	-6.074901	7.778147E-008	0.0049696	7
	13	19	50203.12	2521.003	-287.1001	1	2537.298	-6.497041	-4.170041E-008	0.0051782	7
	14	21	39890.62	2549.19	-315.318	1	2568.617	-7.051295	7.343559E-008	0.0050007	7
	15	22	31640.63	2586.174	-345.8178	1	2609.193	-7.616292	-1.482167E-008	0.0051798	7
	16	23	25171.88	2624.19	-384.1816	1	2652.163	-8.328938	-2.57716E-008	0.0051331	7
	17	25	20015.62	2665.207	-428.9404	1	2699.503	-9.142825	4.41255E-008	0.0049914	7
	18	26	15890.62	2713.485	-482.5464	1	2756.058	-10.08365	2.731075E-008	0.0051027	7
	19	27	12609.37	2760.579	-544.9003	1	2813.843	-11.16586	1.881267E-008	0.0050497	7
	20	29	10078.13	2810.858	-616.5021	1	2877.672	-12.37073	-1.480279E-008	0.005176	7
	21	30	8015.625	2868.484	-703.1984	1	2953.42	-13.77421	1.278588E-007	0.0049313	7
	22	31	6328.125	2931.275	-811.2839	1	3041.472	-15.4704	-3.804503E-008	0.0052454	7
	23	33	5015.625	2997.83	-939.1821	1	3141.504	-17.39511	-4.605393E-008	0.0052186	7
	24	34	3984.375	3068.182	-1092.574	1	3256.909	-19.60073	7.79989E-008	0.0049636	7
	25	35	3170.956	3145.634	-1279.529	1	3395.911	-22.13469	-2.00926E-008	0.0051	7
	26	36	2527.573	3228.084	-1504.676	1	3561.542	-24.99119	-4.406459E-008	0.0051744	7
	27	38	1976.103	3327.38	-1805.188	1	3785.519	-28.48095	-1.355886E-008	0.0051792	7
	28	39	1577.524	3428.922	-2144.369	1	4044.234	-32.02091	-4.247846E-008	0.005173	7
	29	40	1265.625	3538.804	-2547.218	1	4360.212	-35.74619	-4.14158E-008	0.0051451	7
	30	42	998.264	3678.664	-3080.136	1	4797.896	-39.93935	1.305743E-007	0.0049349	7
	31	43	796.875	3825.195	-3697.621	1	5320.199	-44.02846	5.414666E-010	0.0050677	7
	32	44	627.7902	4003.225	-4507.002	1	6028.173	-48.38777	7.743164E-008	0.0049835	7
	33	46	505.5147	4185.576	-5418.418	1	6846.773	-52.31492	5.700887E-011	0.0051436	7
	34	47	397.9953	4429.407	-6645.972	1	7986.776	-56.31734	5.814202E-009	0.0051247	7
	35	48	315.5048	4711.423	-8134.355	1	9400.278	-59.92055	5.659918E-009	0.0051267	7
	36	50	252.4038	5048.27	-9897.52	1	11110.62	-62.97597	6.706661E-010	0.0050648	6
	37	51	198.6229	5497.434	-12241.95	1	13419.66	-65.81681	1.415934E-009	0.0050689	6
	38	52	158.3615	6047.012	-14974.59	1	16149.45	-68.01025	1.497638E-009	0.0050654	6
	39	54	125.558	6776.936	-18417.29	1	19624.56	-69.7981	1.339867E-009	0.005066	6
	40	55	100.4464	7660.388	-22462.28	1	23732.58	-71.16891	1.241332E-009	0.005064	6
	41	56	79.00281	9028.057	-27735.19	1	29167.56	-71.96946	1.32108E-009	0.0050646	6
	42	58	63.3446	10273.71	-33831.98	1	35357.48	-73.10811	1.314308E-009	0.0050638	6
	43	59	49.86702	12968.42	-41345.74	1	43331.86	-72.58555	1.083811E-009	0.0050625	6
	44	61	39.72458	15583.05	-50468.92	1	52819.91	-72.84113	1.04181E-009	0.0050657	6
	45	62	31.6723	19308.35	-60920.95	1	63907.55	-72.41445	1.410972E-009	0.0050662	6
	46	63	24.93351	24308.56	-74388.23	1	78259.28	-71.90366	5.640982E-010	0.0050655	6
	47	65	19.86229	30505.24	-89560	1	94612.7	-71.19053	1.639955E-009	0.0050655	6
	48	66	15.83615	37429.41	-107467.4	1	113799	-70.79749	-2.958483E-010	0.0050695	5
	49	67	12.40079	49502.98	-130079.3	1	139180.4	-69.16518	1.524996E-009	0.0050707	5
	50	69	9.93114	61464.17	-152503.4	1	164423.7	-68.04886	6.647543E-010	0.0050642	5
	51	70	7.944915	75747.24	-178947.5	1	194318.9	-67.05739	-3.60258E-010	0.0050699	5
	52	72	6.317385	95745.8	-210903.1	1	231619.1	-65.58289	3.555376E-011	0.0050771	5
	53	74	5.008013	119551.4	-246674.2	1	274118	-64.1427	5.876687E-010	0.0050765	5
	54	76	3.945707	148763	-289042.8	1	325078.7	-62.76627	4.031742E-010	0.0050719	5
	55	79	3.158693	181166.5	-332573.7	1	378717.1	-61.42106	4.263949E-010	0.005085	5
	56	82	2.504006	221124.3	-384707.8	1	443729.7	-60.11035	-6.311809E-011	0.0050694	5
	57	85	1.998082	265708.4	-439813.5	1	513845.2	-58.86219	-2.531837E-011	0.0050548	5
	58	88	1.584686	319120.8	-500813.8	1	593845.6	-57.49453	1.656273E-010	0.0051169	5
	59	92	1.266892	377226.4	-569253	1	682897.3	-56.46879	2.255562E-011	0.0050416	5
	60	96	0.999041	444902.7	-647608.9	1	785707.2	-55.51121	2.978469E-010	0.0051132	5
