EXPLAIN
TAG	EISPOT
TITLE	LABEL	Potentiostatic EIS	Test &Identifier
DATE	LABEL	11/13/2019	Date
TIME	LABEL	0:44:29	Time
NOTES	NOTES	3	&Notes...
	
	
	
PSTAT	PSTAT	REF600-11020	Potentiostat
VDC	POTEN	0.00000E+000	T	DC &Voltage (V)
FREQINIT	QUANT	1.00000E+006	Initial Fre&q. (Hz)
FREQFINAL	QUANT	1.00000E+000	Final Fre&q. (Hz)
PTSPERDEC	QUANT	1.00000E+001	Points/&decade
VAC	QUANT	2.50000E+001	AC &Voltage (mV rms)
AREA	QUANT	1.00000E-002	&Area (cm^2)
CONDIT	TWOPARAM	T	5.00000E+000	0.00000E+000	Conditionin&g	Time(s)	E(V)
DELAY	TWOPARAM	T	5.00000E+000	0.00000E+000	Init. De&lay	Time(s)	Stab.(mV/s)
SPEED	SELECTOR	1	&Optimize for:
ZGUESS	QUANT	1.00000E+005	E&stimated Z (ohms)
OCVCURVE	TABLE	19
	Pt	T	Vf	Vm	Ach	Over
	#	s	V vs. Ref.	V	V	bits
	0	0.258333	5.49044E-003	5.49044E-003	5.41966E-004	...........
	1	0.516667	5.48830E-003	5.37810E-003	5.45333E-004	...........
	2	0.775	5.47605E-003	5.32039E-003	5.47466E-004	...........
	3	1.03333	5.44530E-003	5.30671E-003	5.46099E-004	...........
	4	1.29167	5.39946E-003	5.27826E-003	5.47899E-004	...........
	5	1.55	5.35271E-003	5.29056E-003	5.48366E-004	...........
	6	1.80833	5.31576E-003	5.21206E-003	5.45166E-004	...........
	7	2.06667	5.28668E-003	5.15508E-003	5.50433E-004	...........
	8	2.325	5.25556E-003	5.13639E-003	5.53666E-004	...........
	9	2.58333	5.21860E-003	5.15725E-003	5.44233E-004	...........
	10	2.84167	5.18430E-003	5.16736E-003	5.46433E-004	...........
	11	3.1	5.16329E-003	5.16501E-003	5.46333E-004	...........
	12	3.35833	5.15698E-003	5.16439E-003	5.44233E-004	...........
	13	3.61667	5.15985E-003	5.22122E-003	5.48533E-004	...........
	14	3.875	5.16741E-003	5.15256E-003	5.52399E-004	...........
	15	4.13333	5.17514E-003	5.15642E-003	5.45466E-004	...........
	16	4.39167	5.17711E-003	5.17193E-003	5.44333E-004	...........
	17	4.65	5.17307E-003	5.16723E-003	5.46766E-004	...........
	18	4.90833	5.16873E-003	5.17559E-003	5.48166E-004	...........
EOC	QUANT	0.0051687	Open Circuit (V)
PSTATMODEL	IQUANT	4	Pstat Model
PSTATSECTION	LABEL	REF600-11020	Pstat Section
PSTATSERIALNO	LABEL	11020	Pstat Serial Number
CTRLMODE	IQUANT	1	Control Mode
IESTAB	IQUANT	0	I/E Stability
CASPEED	IQUANT	1	Control Amp Speed
CONVENTION	IQUANT	1	Current Convention
ICHRANGE	IQUANT	2	Ich Range
ICHRANGEMODE	TOGGLE	F	Ich Auto Range
ICHOFFSETENABLE	TOGGLE	T	Ich Offset Enable
ICHOFFSET	QUANT	0	Ich Offset (V)
ICHFILTER	IQUANT	3	Ich Filter
VCHRANGE	IQUANT	2	Vch Range
VCHRANGEMODE	TOGGLE	F	Vch Auto Range
VCHOFFSETENABLE	TOGGLE	T	Vch Offset Enable
VCHOFFSET	QUANT	0	Vch Offset (V)
VCHFILTER	IQUANT	3	Vch Filter
ACHRANGE	IQUANT	2	Ach Range
ACHOFFSETENABLE	TOGGLE	F	Ach Offset Enable
ACHOFFSET	QUANT	0	Ach Offset (V)
ACHFILTER	IQUANT	3	Ach Filter
IERANGELOWERLIMIT	IQUANT	1	I/E Range Lower Limit
IERANGEMODE	TOGGLE	F	I/E AutoRange
IERANGE	IQUANT	4	I/E Range
POSFEEDENABLE	TOGGLE	F	Positive Feedback IR Comp
POSFEEDRESISTANCE	QUANT	0	Positive Feedback Resistance (ohm)
ACHSELECT	IQUANT	0	Ach Select
CABLEID	IQUANT	14	Cable ID
DCCALDATE	LABEL	8/19/2019	DC Calibration Date
ACCALDATE	LABEL	8/19/2019	AC Calibration Date
THERMOSELECT	IQUANT	1	Thermo Select
FRAMEWORKVERSION	QUANT	6.33	Framework Version
INSTRUMENTVERSION	LABEL	3.50	Instrument Version
ZCURVE	TABLE
	Pt	Time	Freq	Zreal	Zimag	Zsig	Zmod	Zphz	Idc	Vdc	IERange
	#	s	Hz	ohm	ohm	V	ohm	°	A	V	#
	0	2	1000078	2205.657	-1429.704	1	2628.493	-32.95125	1.103068E-005	0.0059357	8
	1	3	794390.6	2481.032	-1356.866	1	2827.827	-28.67406	4.622681E-006	0.0062392	8
	2	4	630984.4	2718.422	-1245.622	1	2990.216	-24.61797	-1.943811E-006	0.0074867	8
	3	6	501234.4	2918.175	-1118.747	1	3125.274	-20.97544	-5.610684E-007	0.0073523	8
	4	7	398109.4	3073.24	-981.227	1	3226.083	-17.70728	8.496668E-007	0.0072054	8
	5	8	316265.6	3192.646	-866.5396	1	3308.154	-15.18524	-4.31259E-007	0.0072729	8
	6	10	251203.1	3286.525	-758.0803	1	3372.823	-12.98885	-4.014914E-008	0.0065172	8
	7	11	199546.9	3364.442	-676.1791	1	3431.718	-11.36381	-4.329798E-006	0.00716	8
	8	13	158578.1	3443.157	-593.3056	1	3493.9	-9.77688	-2.21599E-006	0.0067217	8
	9	14	125953.1	3477.776	-506.3629	1	3514.446	-8.284032	-1.556067E-006	0.0098644	7
	10	15	100078.1	3526.681	-460.2057	1	3556.581	-7.434664	1.074201E-007	0.0054997	7
	11	17	79453.13	3563.784	-440.5299	1	3590.909	-7.046753	-8.323611E-007	0.0083379	7
	12	18	63140.62	3605.572	-435.7285	1	3631.805	-6.890702	1.009651E-006	0.0054041	7
	13	19	50203.12	3642.448	-436.0709	1	3668.458	-6.826912	7.124642E-008	0.0076523	7
	14	21	39890.62	3682.722	-450.2007	1	3710.138	-6.969639	5.734117E-007	0.0069448	7
	15	22	31640.63	3723.945	-470.4945	1	3753.549	-7.200771	-9.806032E-007	0.0072452	7
	16	23	25171.88	3770.781	-504.2212	1	3804.343	-7.616296	7.359988E-008	0.0076473	7
	17	25	20015.62	3819.105	-546.2648	1	3857.974	-8.140076	-8.34999E-007	0.0083219	7
	18	26	15890.62	3873.296	-599.3433	1	3919.392	-8.796032	-1.139891E-006	0.007778	7
	19	27	12609.37	3933.787	-662.5042	1	3989.185	-9.5597	-8.336191E-007	0.0083239	7
	20	29	10078.13	4004.438	-737.3058	1	4071.75	-10.43258	4.527E-007	0.0051972	7
	21	30	8015.625	4069.49	-830.7802	1	4153.426	-11.5383	7.835903E-007	0.0065351	7
	22	31	6328.125	4149.986	-945.6741	1	4256.37	-12.83702	9.502459E-007	0.0060761	7
	23	33	5015.625	4231.717	-1080.913	1	4367.586	-14.32876	7.25284E-007	0.005107	7
	24	34	3984.375	4314.536	-1238.698	1	4488.83	-16.01871	-1.139359E-006	0.0077813	7
	25	36	3170.956	4408.722	-1432.122	1	4635.494	-17.99578	-9.804376E-007	0.0072414	7
	26	37	2527.573	4510.779	-1664.02	1	4807.919	-20.24894	-2.661058E-007	0.0080119	7
	27	38	1976.103	4627.944	-1977.065	1	5032.559	-23.13225	-1.142285E-006	0.0081082	7
	28	40	1577.524	4748.453	-2322.531	1	5286.015	-26.06386	-5.758761E-007	0.0082386	7
	29	41	1265.625	4884.555	-2743.33	1	5602.208	-29.32003	1.098814E-007	0.0054719	7
	30	42	998.264	5048.79	-3293.284	1	6027.935	-33.11608	7.84146E-007	0.0065291	7
	31	44	796.875	5223.861	-3934.158	1	6539.596	-36.98388	7.824215E-007	0.0065322	7
	32	45	627.7902	5445.837	-4755.707	1	7230.068	-41.12986	-8.310724E-007	0.008317	7
	33	47	505.5147	5678.869	-5677.945	1	8030.48	-44.99534	-1.138601E-006	0.007773	7
	34	48	397.9953	5973.872	-6914.995	1	9138.069	-49.17623	3.045235E-009	0.0067755	7
	35	49	315.5048	6319.425	-8392.139	1	10505.39	-53.01962	5.67023E-010	0.0067055	6
	36	51	252.4038	6707.948	-10127.49	1	12147.53	-56.48147	3.93304E-010	0.0067129	6
	37	52	198.6229	7207.057	-12418.73	1	14358.5	-59.87178	1.016854E-009	0.006706	6
	38	54	158.3615	7777.326	-15083.66	1	16970.67	-62.72379	4.124546E-010	0.0067099	6
	39	55	125.558	8486.962	-18438.48	1	20297.93	-65.28407	7.962253E-010	0.0067058	6
	40	56	100.4464	9321.093	-22397.71	1	24259.85	-67.40474	2.83841E-010	0.0067019	6
	41	58	79.00281	10445.68	-27599.96	1	29510.51	-69.26998	8.457589E-010	0.006708	6
	42	59	63.3446	11795.08	-33722.41	1	35725.69	-70.72171	1.966666E-010	0.0067054	6
	43	60	49.86702	13730.54	-41160.25	1	43390.02	-71.55195	2.852708E-010	0.0067074	6
	44	62	39.72458	16057.59	-50409.84	1	52905.56	-72.3312	7.577903E-010	0.0067083	6
	45	63	31.6723	19122.9	-61200.29	1	64118.34	-72.64784	9.263117E-010	0.0066972	6
	46	64	24.93351	23359.62	-75241.63	1	78784.35	-72.75245	3.912316E-010	0.0067083	6
	47	66	19.86229	28556.8	-91149.29	1	95518	-72.60439	1.2273E-010	0.0067098	6
	48	67	15.83615	35711.77	-109836.1	1	115495.9	-71.98875	-4.535107E-010	0.0067034	5
	49	69	12.40079	45271.1	-135261.3	1	142636.2	-71.49493	1.107532E-009	0.0067178	5
	50	70	9.93114	56378.22	-161166.8	1	170743.2	-70.71951	4.981011E-011	0.0067088	5
	51	72	7.944915	71168.88	-191392.8	1	204196.5	-69.60249	7.137151E-010	0.006717	5
	52	73	6.317385	89772.59	-227949.8	1	244990.3	-68.50419	-1.612452E-010	0.0067132	5
	53	75	5.008013	113908.2	-270723.3	1	293711.1	-67.18083	-5.013268E-011	0.0067111	5
	54	78	3.945707	145475.5	-319668.1	1	351213.3	-65.53053	3.329009E-010	0.0067203	5
	55	80	3.158693	181533	-371642.7	1	413609.1	-63.96629	-5.883333E-011	0.0067035	5
	56	84	2.504006	226465.4	-431298	1	487139.1	-62.29699	1.632506E-010	0.0067192	5
	57	87	1.998082	277568.9	-494094.1	1	566721.8	-60.67388	3.70241E-010	0.006688	5
	58	90	1.584686	340137.7	-566486.8	1	660757.9	-59.01798	-1.779569E-011	0.0066649	5
	59	93	1.266892	406940.4	-639299.4	1	757828.6	-57.52157	2.667062E-010	0.0066791	5
	60	98	0.999041	485576.1	-725998.2	1	873417.1	-56.22384	-2.736326E-010	0.0067252	5
