EXPLAIN
TAG	EISPOT
TITLE	LABEL	Potentiostatic EIS	Test &Identifier
DATE	LABEL	9/26/2019	Date
TIME	LABEL	9:50:05	Time
NOTES	NOTES	2	&Notes...
	
	
PSTAT	PSTAT	REF600-11020	Potentiostat
VDC	POTEN	0.00000E+000	T	DC &Voltage (V)
FREQINIT	QUANT	1.00000E+006	Initial Fre&q. (Hz)
FREQFINAL	QUANT	1.00000E+000	Final Fre&q. (Hz)
PTSPERDEC	QUANT	1.00000E+001	Points/&decade
VAC	QUANT	2.50000E+001	AC &Voltage (mV rms)
AREA	QUANT	1.00000E-002	&Area (cm^2)
CONDIT	TWOPARAM	T	5.00000E+000	0.00000E+000	Conditionin&g	Time(s)	E(V)
DELAY	TWOPARAM	T	5.00000E+000	0.00000E+000	Init. De&lay	Time(s)	Stab.(mV/s)
SPEED	SELECTOR	1	&Optimize for:
ZGUESS	QUANT	1.00000E+004	E&stimated Z (ohms)
OCVCURVE	TABLE	19
	Pt	T	Vf	Vm	Ach	Over
	#	s	V vs. Ref.	V	V	bits
	0	0.258333	1.11228E-001	1.11228E-001	5.68732E-004	...........
	1	0.516667	1.11343E-001	1.17221E-001	5.72799E-004	...........
	2	0.775	1.12043E-001	1.22791E-001	5.71599E-004	...........
	3	1.03333	1.14013E-001	1.27837E-001	5.71299E-004	...........
	4	1.29167	1.17516E-001	1.33531E-001	5.68132E-004	...........
	5	1.55	1.22377E-001	1.49067E-001	5.70466E-004	...........
	6	1.80833	1.28689E-001	1.56262E-001	5.69466E-004	...........
	7	2.06667	1.36570E-001	1.61056E-001	5.73332E-004	...........
	8	2.325	1.45190E-001	1.64903E-001	5.73366E-004	...........
	9	2.58333	1.53073E-001	1.67643E-001	5.73299E-004	...........
	10	2.84167	1.59285E-001	1.69281E-001	5.64999E-004	...........
	11	3.1	1.63630E-001	1.64461E-001	5.69066E-004	...........
	12	3.35833	1.66061E-001	1.64450E-001	5.72299E-004	...........
	13	3.61667	1.66744E-001	1.68113E-001	5.65232E-004	...........
	14	3.875	1.66572E-001	1.69592E-001	5.68066E-004	...........
	15	4.13333	1.66727E-001	1.71187E-001	5.64966E-004	...........
	16	4.39167	1.67624E-001	1.69125E-001	5.66599E-004	...........
	17	4.65	1.68795E-001	1.71252E-001	5.65032E-004	...........
	18	4.90833	1.69750E-001	1.73183E-001	5.75832E-004	...........
EOC	QUANT	0.1697499	Open Circuit (V)
PSTATMODEL	IQUANT	4	Pstat Model
PSTATSECTION	LABEL	REF600-11020	Pstat Section
PSTATSERIALNO	LABEL	11020	Pstat Serial Number
CTRLMODE	IQUANT	1	Control Mode
IESTAB	IQUANT	0	I/E Stability
CASPEED	IQUANT	1	Control Amp Speed
CONVENTION	IQUANT	1	Current Convention
ICHRANGE	IQUANT	2	Ich Range
ICHRANGEMODE	TOGGLE	F	Ich Auto Range
ICHOFFSETENABLE	TOGGLE	T	Ich Offset Enable
ICHOFFSET	QUANT	0	Ich Offset (V)
ICHFILTER	IQUANT	3	Ich Filter
VCHRANGE	IQUANT	2	Vch Range
VCHRANGEMODE	TOGGLE	F	Vch Auto Range
VCHOFFSETENABLE	TOGGLE	T	Vch Offset Enable
VCHOFFSET	QUANT	0	Vch Offset (V)
VCHFILTER	IQUANT	3	Vch Filter
ACHRANGE	IQUANT	2	Ach Range
ACHOFFSETENABLE	TOGGLE	F	Ach Offset Enable
ACHOFFSET	QUANT	0	Ach Offset (V)
ACHFILTER	IQUANT	3	Ach Filter
IERANGELOWERLIMIT	IQUANT	1	I/E Range Lower Limit
IERANGEMODE	TOGGLE	F	I/E AutoRange
IERANGE	IQUANT	7	I/E Range
POSFEEDENABLE	TOGGLE	F	Positive Feedback IR Comp
POSFEEDRESISTANCE	QUANT	0	Positive Feedback Resistance (ohm)
ACHSELECT	IQUANT	0	Ach Select
CABLEID	IQUANT	14	Cable ID
DCCALDATE	LABEL	8/19/2019	DC Calibration Date
ACCALDATE	LABEL	8/19/2019	AC Calibration Date
THERMOSELECT	IQUANT	1	Thermo Select
FRAMEWORKVERSION	QUANT	6.33	Framework Version
INSTRUMENTVERSION	LABEL	3.50	Instrument Version
ZCURVE	TABLE
	Pt	Time	Freq	Zreal	Zimag	Zsig	Zmod	Zphz	Idc	Vdc	IERange
	#	s	Hz	ohm	ohm	V	ohm	°	A	V	#
	0	2	1000078	1872.034	-2217.107	1	2901.737	-49.82363	6.060868E-007	0.1724752	8
	1	4	794390.6	2243.021	-2455.034	1	3325.407	-47.58389	1.000933E-006	0.1716952	8
	2	5	630984.4	2655.575	-2669.269	1	3765.245	-45.14735	-1.230239E-007	0.1716053	8
	3	7	501234.4	3087.095	-2843.653	1	4197.204	-42.64948	-4.261589E-007	0.1714366	8
	4	8	398109.4	3672.414	-3007.062	1	4746.477	-39.31145	-2.622578E-007	0.1713433	8
	5	9	316265.6	4225.7	-3118.716	1	5251.945	-36.42863	9.243021E-008	0.1713847	8
	6	11	251203.1	4835.324	-3104.09	1	5745.932	-32.69889	1.122181E-006	0.171097	8
	7	13	199546.9	5431.254	-3053.548	1	6230.784	-29.34547	-3.102481E-006	0.1719599	8
	8	14	158578.1	5992.298	-2900.154	1	6657.217	-25.82607	-2.232791E-006	0.1717636	8
	9	16	125953.1	6569.852	-2651.467	1	7084.718	-21.97806	-7.710434E-007	0.1721921	7
	10	17	100078.1	7001.314	-2421.455	1	7408.228	-19.07831	-5.505019E-008	0.1713843	7
	11	19	79453.13	7360.828	-2179.503	1	7676.719	-16.49375	-4.326147E-008	0.1713149	7
	12	20	63140.62	7648.98	-1941.704	1	7891.585	-14.24374	-4.645729E-008	0.1712883	7
	13	22	50203.12	7892.207	-1725.108	1	8078.547	-12.33	3.58522E-008	0.1711315	7
	14	24	39890.62	8083.258	-1541.05	1	8228.846	-10.79375	-4.007366E-009	0.1713074	7
	15	25	31640.63	8246.454	-1378.247	1	8360.835	-9.488263	-3.76258E-009	0.1713074	7
	16	27	25171.88	8375.723	-1251.147	1	8468.654	-8.495899	8.05633E-008	0.1710931	7
	17	28	20015.62	8487.105	-1149.621	1	8564.612	-7.71405	-4.461047E-008	0.1712848	7
	18	30	15890.62	8586.462	-1090.782	1	8655.469	-7.239797	-5.578765E-008	0.1714555	7
	19	31	12609.37	8681.484	-1059.674	1	8745.918	-6.959178	-5.692106E-008	0.1714534	7
	20	33	10078.13	8753.705	-1043.045	1	8815.628	-6.795022	6.69213E-009	0.1711988	7
	21	34	8015.625	8850.921	-997.642	1	8906.969	-6.431018	-1.144299E-008	0.171419	6
	22	36	6328.125	8927.797	-1074.52	1	8992.228	-6.86292	4.648297E-010	0.1712362	6
	23	38	5015.625	9001.181	-1182.078	1	9078.467	-7.48154	6.658762E-009	0.1711947	6
	24	39	3984.375	9074.242	-1329.835	1	9171.169	-8.337376	-9.572978E-010	0.1712729	6
	25	41	3170.956	9157.449	-1520.656	1	9282.848	-9.428313	-4.951473E-009	0.1713264	6
	26	42	2527.573	9244.377	-1757.621	1	9409.98	-10.76508	1.513405E-008	0.1708781	6
	27	44	1976.103	9354.378	-2089.73	1	9584.96	-12.59288	5.918042E-010	0.1712365	6
	28	45	1577.524	9461.497	-2466.741	1	9777.77	-14.61251	-1.193128E-008	0.1713581	6
	29	47	1265.625	9600.89	-2924.977	1	10036.56	-16.94372	-1.132487E-009	0.1712715	6
	30	49	998.264	9741.99	-3512.572	1	10355.89	-19.82728	1.27732E-009	0.171227	6
	31	50	796.875	9903.41	-4211.633	1	10761.76	-23.03864	-1.03193E-009	0.1712704	6
	32	51	627.7902	10115.55	-5118.836	1	11336.97	-26.84106	4.515389E-009	0.1710372	6
	33	53	505.5147	10338.53	-6137.123	1	12022.87	-30.69407	-9.992781E-010	0.1713198	6
	34	54	397.9953	10625.49	-7497.975	1	13004.64	-35.20906	-3.321484E-009	0.1712221	6
	35	55	315.5048	10958.74	-9132.936	1	14265.5	-39.80758	-1.998566E-009	0.1712225	6
	36	57	252.4038	11337.99	-11061.59	1	15840.1	-44.29304	-3.435085E-009	0.1712205	6
	37	58	198.6229	11825.71	-13612.31	1	18031.71	-49.01748	-2.58029E-009	0.1712147	6
	38	59	158.3615	12384.19	-16590.22	1	20702.74	-53.25958	-2.566282E-009	0.1712106	6
	39	61	125.558	13109.22	-20350.89	1	24207.65	-57.212	-2.405064E-009	0.1712137	6
	40	62	100.4464	13963.93	-24813.2	1	28472.55	-60.63083	-3.762008E-009	0.1712151	6
	41	64	79.00281	15169.97	-30757.43	1	34295	-63.74688	-3.366495E-009	0.1712154	6
	42	65	63.3446	16733.98	-37804.65	1	41342.69	-66.12374	-2.699017E-009	0.1712147	6
	43	66	49.86702	18252.41	-45917.13	1	49411.87	-68.3218	-2.72644E-009	0.1712169	6
	44	68	39.72458	21073.6	-56329.23	1	60142.15	-69.48843	-2.346706E-009	0.1712219	6
	45	69	31.6723	24071.06	-68725.8	1	72819.31	-70.6973	-2.448825E-009	0.1712152	6
	46	70	24.93351	28799.02	-84773.92	1	89532.13	-71.23657	-2.675314E-009	0.1712126	6
	47	72	19.86229	34575.52	-103272	1	108906.2	-71.48943	-2.711484E-009	0.1712233	5
	48	73	15.83615	42270.55	-124280	1	131271.9	-71.21562	-3.561521E-009	0.1712197	5
	49	75	12.40079	52140.62	-152437.6	1	161108.2	-71.11697	-3.410788E-009	0.1712246	5
	50	76	9.93114	66310.57	-183806.9	1	195402.3	-70.16248	-2.424814E-009	0.1712175	5
	51	78	7.944915	83333.49	-220314.5	1	235548.1	-69.28098	-2.961666E-009	0.1712209	5
	52	79	6.317385	106248.6	-262336.7	1	283035.8	-67.95164	-2.749801E-009	0.1712178	5
	53	81	5.008013	136439.1	-311419.9	1	339997	-66.34084	-3.061248E-009	0.1712205	5
	54	84	3.945707	176607.8	-368412.5	1	408556.1	-64.38811	-2.735219E-009	0.1712271	5
	55	87	3.158693	223460.5	-426374	1	481382.8	-62.34119	-2.821853E-009	0.171209	5
	56	90	2.504006	285524.6	-491748.2	1	568630.4	-59.8592	-2.451826E-009	0.1712351	5
	57	93	1.998082	351620.7	-557520.2	1	659140.3	-57.76091	-2.350997E-009	0.1712084	5
	58	96	1.584686	437954.5	-627422.1	1	765155.3	-55.0841	-2.637489E-009	0.1711741	5
	59	99	1.266892	524101.3	-692747.3	1	868666.2	-52.8905	-2.188762E-009	0.1712091	5
	60	104	0.999041	633410.9	-766850.8	1	994620	-50.44364	-2.862124E-009	0.1712091	5
