EXPLAIN
TAG	EISPOT
TITLE	LABEL	Potentiostatic EIS	Test &Identifier
DATE	LABEL	9/26/2019	Date
TIME	LABEL	10:38:23	Time
NOTES	NOTES	2	&Notes...
	
	
PSTAT	PSTAT	REF600-11020	Potentiostat
VDC	POTEN	0.00000E+000	T	DC &Voltage (V)
FREQINIT	QUANT	1.00000E+006	Initial Fre&q. (Hz)
FREQFINAL	QUANT	1.00000E+000	Final Fre&q. (Hz)
PTSPERDEC	QUANT	1.00000E+001	Points/&decade
VAC	QUANT	2.50000E+001	AC &Voltage (mV rms)
AREA	QUANT	1.00000E-002	&Area (cm^2)
CONDIT	TWOPARAM	T	5.00000E+000	0.00000E+000	Conditionin&g	Time(s)	E(V)
DELAY	TWOPARAM	T	5.00000E+000	0.00000E+000	Init. De&lay	Time(s)	Stab.(mV/s)
SPEED	SELECTOR	1	&Optimize for:
ZGUESS	QUANT	1.00000E+004	E&stimated Z (ohms)
OCVCURVE	TABLE	19
	Pt	T	Vf	Vm	Ach	Over
	#	s	V vs. Ref.	V	V	bits
	0	0.258333	6.03410E-002	6.03410E-002	5.62466E-004	...........
	1	0.516667	6.04215E-002	6.45537E-002	5.60866E-004	...........
	2	0.775	6.09114E-002	6.83220E-002	5.60232E-004	...........
	3	1.03333	6.22792E-002	7.17432E-002	5.56566E-004	...........
	4	1.29167	6.46804E-002	7.49145E-002	5.61466E-004	...........
	5	1.55	6.77932E-002	7.78047E-002	5.61632E-004	...........
	6	1.80833	7.11368E-002	8.04819E-002	5.63132E-004	...........
	7	2.06667	7.43770E-002	8.29907E-002	5.55766E-004	...........
	8	2.325	7.73790E-002	8.52764E-002	5.62232E-004	...........
	9	2.58333	8.01291E-002	8.74371E-002	5.63899E-004	...........
	10	2.84167	8.26566E-002	8.94681E-002	5.63899E-004	...........
	11	3.1	8.49953E-002	9.13135E-002	5.57532E-004	...........
	12	3.35833	8.71708E-002	9.31010E-002	5.63966E-004	...........
	13	3.61667	8.92016E-002	9.48021E-002	5.64932E-004	...........
	14	3.875	9.11045E-002	9.63242E-002	5.63066E-004	...........
	15	4.13333	9.28926E-002	9.78183E-002	5.65966E-004	...........
	16	4.39167	9.45728E-002	9.92028E-002	5.69266E-004	...........
	17	4.65	9.61382E-002	9.98093E-002	5.61899E-004	...........
	18	4.90833	9.75460E-002	1.00623E-001	5.61099E-004	...........
EOC	QUANT	0.097546	Open Circuit (V)
PSTATMODEL	IQUANT	4	Pstat Model
PSTATSECTION	LABEL	REF600-11020	Pstat Section
PSTATSERIALNO	LABEL	11020	Pstat Serial Number
CTRLMODE	IQUANT	1	Control Mode
IESTAB	IQUANT	0	I/E Stability
CASPEED	IQUANT	1	Control Amp Speed
CONVENTION	IQUANT	1	Current Convention
ICHRANGE	IQUANT	2	Ich Range
ICHRANGEMODE	TOGGLE	F	Ich Auto Range
ICHOFFSETENABLE	TOGGLE	T	Ich Offset Enable
ICHOFFSET	QUANT	0	Ich Offset (V)
ICHFILTER	IQUANT	3	Ich Filter
VCHRANGE	IQUANT	2	Vch Range
VCHRANGEMODE	TOGGLE	F	Vch Auto Range
VCHOFFSETENABLE	TOGGLE	T	Vch Offset Enable
VCHOFFSET	QUANT	0	Vch Offset (V)
VCHFILTER	IQUANT	3	Vch Filter
ACHRANGE	IQUANT	2	Ach Range
ACHOFFSETENABLE	TOGGLE	F	Ach Offset Enable
ACHOFFSET	QUANT	0	Ach Offset (V)
ACHFILTER	IQUANT	3	Ach Filter
IERANGELOWERLIMIT	IQUANT	1	I/E Range Lower Limit
IERANGEMODE	TOGGLE	F	I/E AutoRange
IERANGE	IQUANT	7	I/E Range
POSFEEDENABLE	TOGGLE	F	Positive Feedback IR Comp
POSFEEDRESISTANCE	QUANT	0	Positive Feedback Resistance (ohm)
ACHSELECT	IQUANT	0	Ach Select
CABLEID	IQUANT	14	Cable ID
DCCALDATE	LABEL	8/19/2019	DC Calibration Date
ACCALDATE	LABEL	8/19/2019	AC Calibration Date
THERMOSELECT	IQUANT	1	Thermo Select
FRAMEWORKVERSION	QUANT	6.33	Framework Version
INSTRUMENTVERSION	LABEL	3.50	Instrument Version
ZCURVE	TABLE
	Pt	Time	Freq	Zreal	Zimag	Zsig	Zmod	Zphz	Idc	Vdc	IERange
	#	s	Hz	ohm	ohm	V	ohm	°	A	V	#
	0	1	1000078	2190.954	-2312.105	1	3185.296	-46.54113	7.729164E-007	0.0997844	8
	1	3	794390.6	2610.528	-2456.824	1	3584.806	-43.26263	1.040009E-006	0.0991618	8
	2	4	630984.4	3075.011	-2524.201	1	3978.352	-39.38173	1.011644E-006	0.0990342	8
	3	6	501234.4	3571.892	-2583.948	1	4408.537	-35.88242	-1.119735E-006	0.0994058	8
	4	7	398109.4	4030.811	-2530.33	1	4759.203	-32.11843	2.475056E-007	0.099168	8
	5	9	316265.6	4473.083	-2457.073	1	5103.497	-28.78007	-3.305568E-006	0.0998196	8
	6	10	251203.1	4885.646	-2356.88	1	5424.428	-25.75309	1.455603E-007	0.0991887	8
	7	12	199546.9	5261.791	-2224.833	1	5712.821	-22.92001	-6.038235E-007	0.099361	8
	8	13	158578.1	5590.222	-2101.138	1	5972.048	-20.59921	-5.866381E-007	0.0993507	8
	9	15	125953.1	5914.111	-1870.342	1	6202.813	-17.5496	6.672543E-007	0.0976512	7
	10	16	100078.1	6147.741	-1735.313	1	6387.959	-15.7627	-2.869935E-009	0.0991086	7
	11	18	79453.13	6378.237	-1629.547	1	6583.109	-14.33167	4.99063E-008	0.0989912	7
	12	19	63140.62	6585.255	-1535.022	1	6761.795	-13.12134	-1.19191E-009	0.0991839	7
	13	21	50203.12	6768.606	-1451.889	1	6922.572	-12.10668	8.415908E-008	0.0988711	7
	14	22	39890.62	6935.245	-1383.891	1	7071.971	-11.28484	-8.478534E-008	0.099187	7
	15	23	31640.63	7093.894	-1332.765	1	7218.005	-10.64041	-3.818257E-008	0.09906	7
	16	25	25171.88	7240.068	-1307.005	1	7357.095	-10.23304	-4.670407E-008	0.0991373	7
	17	26	20015.62	7371.477	-1302.754	1	7485.709	-10.02234	-6.803777E-009	0.0990625	7
	18	28	15890.62	7511.696	-1326.349	1	7627.895	-10.01357	8.649488E-008	0.0988618	7
	19	29	12609.37	7645.118	-1377.112	1	7768.157	-10.21117	-6.934349E-009	0.099061	7
	20	31	10078.13	7779.792	-1454.43	1	7914.578	-10.58919	-5.964974E-008	0.0990883	7
	21	33	8015.625	7927.713	-1554.683	1	8078.718	-11.09532	8.183749E-009	0.0989666	7
	22	34	6328.125	8097.753	-1704.942	1	8275.29	-11.88969	-3.192767E-008	0.0990291	7
	23	35	5015.625	8274.313	-1876.347	1	8484.394	-12.77675	-4.069496E-008	0.0990753	7
	24	37	3984.375	8472.35	-2082.831	1	8724.614	-13.81162	-2.776553E-008	0.0990286	7
	25	38	3170.956	8695.796	-2329.563	1	9002.429	-14.99712	-2.46887E-008	0.0991299	7
	26	39	2527.573	8949.615	-2581.037	1	9314.363	-16.08737	-8.024521E-009	0.0990639	6
	27	41	1976.103	9234.556	-2942.084	1	9691.9	-17.67162	4.781288E-010	0.0991132	6
	28	42	1577.524	9528.52	-3319.613	1	10090.22	-19.20767	7.158973E-009	0.0988118	6
	29	44	1265.625	9836.86	-3712.741	1	10514.2	-20.67808	-4.003247E-009	0.0991084	6
	30	45	998.264	10181.43	-4287	1	11047.17	-22.83404	-8.847773E-009	0.0990814	6
	31	46	796.875	10533.83	-4900.409	1	11617.9	-24.94816	-5.118542E-009	0.0989547	6
	32	48	627.7902	10915.3	-5678.346	1	12303.96	-27.4843	5.712224E-009	0.0988151	6
	33	49	505.5147	11281.6	-6539.941	1	13040.14	-30.10087	1.829737E-008	0.0986446	6
	34	50	397.9953	11705.32	-7711.064	1	14016.95	-33.37553	-1.29587E-009	0.0990001	6
	35	52	315.5048	12142.95	-9128.2	1	15191.29	-36.93322	-1.448023E-009	0.0989952	6
	36	53	252.4038	12597.02	-10820.07	1	16605.98	-40.66056	-9.474682E-010	0.0989908	6
	37	54	198.6229	13153.38	-13080.78	1	18550.42	-44.84145	-3.745459E-010	0.0989939	6
	38	56	158.3615	13776.12	-15749.44	1	20924.3	-48.82363	-6.910493E-010	0.0989953	6
	39	57	125.558	14520.61	-19128.96	1	24015.94	-52.79822	-2.27185E-010	0.0989994	6
	40	59	100.4464	15401.68	-23152.66	1	27807.51	-56.36724	-1.804169E-009	0.0989936	6
	41	60	79.00281	16697.79	-28376.61	1	32924.89	-59.52596	1.459317E-010	0.098991	6
	42	61	63.3446	18585.05	-34460.84	1	39152.95	-61.6616	-1.099125E-009	0.098993	6
	43	63	49.86702	19787.35	-42270.33	1	46672.48	-64.91502	-2.074014E-009	0.0989918	6
	44	64	39.72458	22660.98	-51457.54	1	56226.31	-66.23217	-3.327766E-010	0.0989982	6
	45	66	31.6723	26174.79	-62682.13	1	67927.68	-67.33557	5.43227E-010	0.098997	6
	46	67	24.93351	30589.76	-76456.9	1	82349.2	-68.19407	-1.290295E-009	0.0989913	6
	47	68	19.86229	36217.82	-92219.71	1	99076.8	-68.55837	-5.095765E-010	0.0989981	6
	48	70	15.83615	43795.39	-111077.5	1	119399.6	-68.48179	-8.095959E-011	0.0989948	5
	49	71	12.40079	52891.21	-136226.8	1	146134.2	-68.78087	1.655174E-010	0.0990012	5
	50	73	9.93114	63996.48	-160720.3	1	172993	-68.28827	-8.882194E-010	0.0990075	5
	51	74	7.944915	76506.7	-190340.3	1	205140.7	-68.10249	-1.45409E-009	0.0990019	5
	52	76	6.317385	95331.1	-226117.9	1	245392.2	-67.13975	-9.320271E-010	0.0989911	5
	53	78	5.008013	116751.6	-268136.8	1	292452.2	-66.47083	-8.907283E-010	0.0990063	5
	54	80	3.945707	143674	-318479.6	1	349387.2	-65.7187	-9.579443E-010	0.0989998	5
	55	83	3.158693	173821.4	-372802.3	1	411333.7	-65.00242	-6.337786E-010	0.0990132	5
	56	86	2.504006	211648.4	-438769.2	1	487148.3	-64.24881	-9.571006E-010	0.0989972	5
	57	89	1.998082	254419.4	-510457.1	1	570346.9	-63.50766	-7.428599E-010	0.0989614	5
	58	92	1.584686	305975.8	-595766.5	1	669745.4	-62.81572	-7.501108E-010	0.0990299	5
	59	96	1.266892	365817.8	-693831.9	1	784363.1	-62.19988	-7.474676E-010	0.0989739	5
	60	100	0.999041	442509.6	-812635.6	1	925306.1	-61.4301	-5.88025E-010	0.0990356	5
