EXPLAIN
TAG	EISPOT
TITLE	LABEL	Potentiostatic EIS	Test &Identifier
DATE	LABEL	10/18/2019	Date
TIME	LABEL	10:24:26	Time
NOTES	NOTES	1	&Notes...
	
PSTAT	PSTAT	REF600-11020	Potentiostat
VDC	POTEN	0.00000E+000	T	DC &Voltage (V)
FREQINIT	QUANT	1.00000E+006	Initial Fre&q. (Hz)
FREQFINAL	QUANT	1.00000E+000	Final Fre&q. (Hz)
PTSPERDEC	QUANT	1.00000E+001	Points/&decade
VAC	QUANT	2.50000E+001	AC &Voltage (mV rms)
AREA	QUANT	1.00000E-002	&Area (cm^2)
CONDIT	TWOPARAM	T	5.00000E+000	0.00000E+000	Conditionin&g	Time(s)	E(V)
DELAY	TWOPARAM	T	5.00000E+000	0.00000E+000	Init. De&lay	Time(s)	Stab.(mV/s)
SPEED	SELECTOR	0	&Optimize for:
ZGUESS	QUANT	1.00000E+005	E&stimated Z (ohms)
OCVCURVE	TABLE	19
	Pt	T	Vf	Vm	Ach	Over
	#	s	V vs. Ref.	V	V	bits
	0	0.258333	1.17402E-002	1.17402E-002	5.57699E-004	...........
	1	0.516667	1.17598E-002	1.27709E-002	5.57499E-004	...........
	2	0.775	1.18648E-002	1.29131E-002	5.56899E-004	...........
	3	1.03333	1.20988E-002	1.25284E-002	5.63299E-004	...........
	4	1.29167	1.23702E-002	1.20993E-002	5.58099E-004	...........
	5	1.55	1.24973E-002	1.12891E-002	5.58699E-004	...........
	6	1.80833	1.23622E-002	1.07284E-002	5.56999E-004	...........
	7	2.06667	1.19841E-002	1.06747E-002	5.62199E-004	...........
	8	2.325	1.15067E-002	1.10463E-002	5.61666E-004	...........
	9	2.58333	1.11334E-002	1.16592E-002	5.60499E-004	...........
	10	2.84167	1.10227E-002	1.22890E-002	5.55366E-004	...........
	11	3.1	1.12137E-002	1.27904E-002	5.59299E-004	...........
	12	3.35833	1.16264E-002	1.29955E-002	5.62166E-004	...........
	13	3.61667	1.21146E-002	1.29559E-002	5.65632E-004	...........
	14	3.875	1.25332E-002	1.29041E-002	5.63266E-004	...........
	15	4.13333	1.27997E-002	1.29319E-002	5.64099E-004	...........
	16	4.39167	1.29199E-002	1.30071E-002	5.64532E-004	...........
	17	4.65	1.29586E-002	1.31008E-002	5.62466E-004	...........
	18	4.90833	1.29830E-002	1.31947E-002	5.57199E-004	...........
EOC	QUANT	0.012983	Open Circuit (V)
PSTATMODEL	IQUANT	4	Pstat Model
PSTATSECTION	LABEL	REF600-11020	Pstat Section
PSTATSERIALNO	LABEL	11020	Pstat Serial Number
CTRLMODE	IQUANT	1	Control Mode
IESTAB	IQUANT	0	I/E Stability
CASPEED	IQUANT	1	Control Amp Speed
CONVENTION	IQUANT	1	Current Convention
ICHRANGE	IQUANT	2	Ich Range
ICHRANGEMODE	TOGGLE	F	Ich Auto Range
ICHOFFSETENABLE	TOGGLE	T	Ich Offset Enable
ICHOFFSET	QUANT	0	Ich Offset (V)
ICHFILTER	IQUANT	3	Ich Filter
VCHRANGE	IQUANT	2	Vch Range
VCHRANGEMODE	TOGGLE	F	Vch Auto Range
VCHOFFSETENABLE	TOGGLE	T	Vch Offset Enable
VCHOFFSET	QUANT	0	Vch Offset (V)
VCHFILTER	IQUANT	3	Vch Filter
ACHRANGE	IQUANT	2	Ach Range
ACHOFFSETENABLE	TOGGLE	F	Ach Offset Enable
ACHOFFSET	QUANT	0	Ach Offset (V)
ACHFILTER	IQUANT	3	Ach Filter
IERANGELOWERLIMIT	IQUANT	1	I/E Range Lower Limit
IERANGEMODE	TOGGLE	F	I/E AutoRange
IERANGE	IQUANT	5	I/E Range
POSFEEDENABLE	TOGGLE	F	Positive Feedback IR Comp
POSFEEDRESISTANCE	QUANT	0	Positive Feedback Resistance (ohm)
ACHSELECT	IQUANT	0	Ach Select
CABLEID	IQUANT	14	Cable ID
DCCALDATE	LABEL	8/19/2019	DC Calibration Date
ACCALDATE	LABEL	8/19/2019	AC Calibration Date
THERMOSELECT	IQUANT	1	Thermo Select
FRAMEWORKVERSION	QUANT	6.33	Framework Version
INSTRUMENTVERSION	LABEL	3.50	Instrument Version
ZCURVE	TABLE
	Pt	Time	Freq	Zreal	Zimag	Zsig	Zmod	Zphz	Idc	Vdc	IERange
	#	s	Hz	ohm	ohm	V	ohm	°	A	V	#
	0	1	1000078	2632.193	-1673.116	1	3118.935	-32.4415	5.613243E-006	0.0145566	8
	1	2	794390.6	2932.305	-1601.554	1	3341.166	-28.64229	3.15224E-006	0.0142241	8
	2	2	630984.4	3234.749	-1474.025	1	3554.765	-24.49801	2.703645E-006	0.0141927	8
	3	2	501234.4	3455.273	-1321.649	1	3699.414	-20.93195	1.13446E-006	0.0144442	8
	4	2	398109.4	3649.988	-1181.773	1	3836.535	-17.94063	-8.25015E-007	0.0149862	8
	5	3	316265.6	3798.912	-1046.08	1	3940.306	-15.39559	-2.325886E-007	0.014801	8
	6	3	251203.1	3919.695	-933.0873	1	4029.226	-13.3901	2.741357E-006	0.0140651	8
	7	3	199546.9	4008.949	-805.8409	1	4089.138	-11.36559	-4.252369E-007	0.0147883	8
	8	4	158578.1	4086.701	-732.6607	1	4151.857	-10.16397	1.347687E-006	0.0143529	8
	9	4	125953.1	4173.909	-588.5498	1	4215.2	-8.026182	1.496933E-006	0.0117627	7
	10	4	100078.1	4230.9	-551.5707	1	4266.702	-7.427603	-1.91659E-008	0.0145693	7
	11	5	79453.13	4280.219	-527.8874	1	4312.648	-7.030891	-8.083156E-009	0.0146067	7
	12	5	63140.62	4328.525	-516.5847	1	4359.242	-6.805733	-1.831266E-008	0.0145564	7
	13	5	50203.12	4379.017	-517.1723	1	4409.451	-6.735568	-7.558068E-009	0.0146057	7
	14	6	39890.62	4428.315	-527.2355	1	4459.591	-6.789678	-5.728163E-009	0.0145999	7
	15	6	31640.63	4481.948	-547.2407	1	4515.233	-6.961292	4.013748E-008	0.0145376	7
	16	6	25171.88	4537.841	-580.53	1	4574.824	-7.2903	-5.601309E-008	0.0147508	7
	17	7	20015.62	4624.554	-630.1096	1	4667.284	-7.758945	-4.651338E-008	0.0146758	7
	18	7	15890.62	4667.645	-672.9761	1	4715.91	-8.204308	8.204788E-008	0.0144088	7
	19	7	12609.37	4744.573	-740.0792	1	4801.946	-8.865802	-1.738599E-008	0.0145521	7
	20	8	10078.13	4822.911	-816.5769	1	4891.551	-9.60973	1.365616E-007	0.0143666	7
	21	8	8015.625	4912.585	-895.7754	1	4993.587	-10.33395	-4.6068E-008	0.0146113	7
	22	8	6328.125	5019.267	-1009.971	1	5119.871	-11.37706	-1.910811E-008	0.0145511	7
	23	8	5015.625	5132.007	-1129.128	1	5254.752	-12.40834	-1.545448E-008	0.0147245	7
	24	9	3984.375	5268.713	-1294.795	1	5425.48	-13.80692	-1.833298E-008	0.0145537	7
	25	9	3170.956	5390.844	-1420.673	1	5574.9	-14.76374	3.610569E-008	0.0144448	7
	26	9	2527.573	5529.831	-1599.02	1	5756.379	-16.12789	-3.596662E-008	0.0146062	7
	27	10	1976.103	5696.42	-1820.857	1	5980.361	-17.72645	-1.654213E-008	0.0145506	7
	28	10	1577.524	5825.949	-2047.29	1	6175.199	-19.36193	-9.657908E-009	0.0146234	7
	29	10	1265.625	6007.094	-2354.085	1	6451.891	-21.39943	1.355635E-007	0.0143691	7
	30	11	998.264	6170.562	-2724.511	1	6745.279	-23.82307	-3.816988E-008	0.0146029	7
	31	11	796.875	6336.976	-3167.126	1	7084.345	-26.5552	-4.689737E-008	0.0146066	7
	32	11	627.7902	6523.039	-3750.191	1	7524.226	-29.89523	-3.416691E-008	0.0146134	7
	33	12	505.5147	6697.509	-4411.384	1	8019.784	-33.37131	3.578516E-008	0.0144445	7
	34	12	397.9953	6916.174	-5330.767	1	8732.155	-37.62389	6.242501E-010	0.0145969	7
	35	12	315.5048	7162.286	-6445.75	1	9635.66	-41.98585	8.278235E-010	0.0145393	6
	36	13	252.4038	7439.581	-7779.031	1	10763.86	-46.27776	-3.966601E-010	0.0145349	6
	37	13	198.6229	7815.684	-9554.51	1	12343.97	-50.71649	5.635303E-011	0.0145326	6
	38	13	158.3615	8265.464	-11629.34	1	14267.42	-54.59698	-8.410468E-010	0.0145269	6
	39	14	125.558	8864.099	-14244.87	1	16777.62	-58.10739	1.806978E-010	0.0145279	6
	40	14	100.4464	9637.42	-17330.52	1	19829.95	-60.92176	7.415052E-010	0.014526	6
	41	14	79.00281	10601.26	-21352.61	1	23839.48	-63.59627	1.682872E-009	0.0145238	6
	42	15	63.3446	12181.87	-25580.71	1	28333.21	-64.5356	-1.833829E-010	0.0145318	6
	43	15	49.86702	13952.71	-31518.16	1	34468.43	-66.12161	-1.137569E-009	0.01453	6
	44	15	39.72458	15974.49	-38350.23	1	41544.25	-67.38621	6.816082E-010	0.0145316	6
	45	16	31.6723	18826.77	-46230.93	1	49917.39	-67.84222	6.709224E-010	0.0145297	6
	46	16	24.93351	22774.29	-56330.29	1	60759.94	-67.98656	-5.490534E-010	0.0145291	6
	47	16	19.86229	27747.56	-67452.68	1	72936.9	-67.63953	-1.286201E-009	0.014528	6
	48	17	15.83615	33427.75	-79619.71	1	86352.26	-67.22526	-1.004565E-009	0.0145291	6
	49	17	12.40079	41538.65	-97374.4	1	105864.2	-66.89754	1.451831E-009	0.0145335	6
	50	17	9.93114	51561.86	-112865.2	1	124085.4	-65.44698	1.174145E-009	0.014531	5
	51	18	7.944915	62723.59	-131290	1	145503.6	-64.46394	6.13838E-010	0.0145364	5
	52	18	6.317385	76279.41	-153447.6	1	171361.3	-63.56784	1.462164E-010	0.01453	5
	53	19	5.008013	91776.84	-178289.5	1	200524.6	-62.76227	1.632257E-010	0.0145397	5
	54	20	3.945707	109543.4	-207857.8	1	234956.7	-62.21027	-2.933395E-010	0.0145277	5
	55	22	3.158693	127375.6	-239259	1	271052.4	-61.97026	-1.158496E-010	0.0145094	5
	56	23	2.504006	147665.7	-278683.1	1	315387.7	-62.08225	8.103863E-011	0.0145178	5
	57	25	1.998082	169042.2	-323688.1	1	365170.2	-62.42472	-2.529622E-011	0.014491	5
	58	26	1.584686	193725.4	-381492	1	427861.7	-63.07809	-1.320608E-010	0.0144724	5
	59	28	1.266892	220127.8	-447362.4	1	498587.4	-63.80018	-2.404426E-010	0.0145065	5
	60	31	0.999041	255717	-533030.9	1	591196.4	-64.37103	1.219231E-010	0.014535	5
