EXPLAIN
TAG	EISPOT
TITLE	LABEL	Potentiostatic EIS	Test &Identifier
DATE	LABEL	11/12/2019	Date
TIME	LABEL	22:37:31	Time
NOTES	NOTES	3	&Notes...
	
	
	
PSTAT	PSTAT	REF600-11020	Potentiostat
VDC	POTEN	0.00000E+000	T	DC &Voltage (V)
FREQINIT	QUANT	1.00000E+006	Initial Fre&q. (Hz)
FREQFINAL	QUANT	1.00000E+000	Final Fre&q. (Hz)
PTSPERDEC	QUANT	1.00000E+001	Points/&decade
VAC	QUANT	2.50000E+001	AC &Voltage (mV rms)
AREA	QUANT	1.00000E-002	&Area (cm^2)
CONDIT	TWOPARAM	T	5.00000E+000	0.00000E+000	Conditionin&g	Time(s)	E(V)
DELAY	TWOPARAM	T	5.00000E+000	0.00000E+000	Init. De&lay	Time(s)	Stab.(mV/s)
SPEED	SELECTOR	1	&Optimize for:
ZGUESS	QUANT	1.00000E+005	E&stimated Z (ohms)
OCVCURVE	TABLE	19
	Pt	T	Vf	Vm	Ach	Over
	#	s	V vs. Ref.	V	V	bits
	0	0.258333	-9.52121E-003	-9.52121E-003	5.71099E-004	...........
	1	0.516667	-9.52319E-003	-9.62499E-003	5.68832E-004	...........
	2	0.775	-9.53528E-003	-9.71911E-003	5.69266E-004	...........
	3	1.03333	-9.56932E-003	-9.81439E-003	5.64632E-004	...........
	4	1.29167	-9.62922E-003	-9.85961E-003	5.65032E-004	...........
	5	1.55	-9.70522E-003	-9.92016E-003	5.68199E-004	...........
	6	1.80833	-9.78185E-003	-9.94566E-003	5.70766E-004	...........
	7	2.06667	-9.84816E-003	-9.97454E-003	5.69366E-004	...........
	8	2.325	-9.90057E-003	-1.00080E-002	5.64732E-004	...........
	9	2.58333	-9.94128E-003	-1.00417E-002	5.65699E-004	...........
	10	2.84167	-9.97506E-003	-1.00581E-002	5.68699E-004	...........
	11	3.1	-1.00053E-002	-1.00847E-002	5.75265E-004	...........
	12	3.35833	-1.00329E-002	-1.01058E-002	5.67466E-004	...........
	13	3.61667	-1.00581E-002	-1.01281E-002	5.71999E-004	...........
	14	3.875	-1.00815E-002	-1.01411E-002	5.68866E-004	...........
	15	4.13333	-1.01029E-002	-1.01488E-002	5.71932E-004	...........
	16	4.39167	-1.01214E-002	-1.01541E-002	5.67666E-004	...........
	17	4.65	-1.01361E-002	-1.01785E-002	5.70299E-004	...........
	18	4.90833	-1.01497E-002	-1.02535E-002	5.70666E-004	...........
EOC	QUANT	-0.0101497	Open Circuit (V)
PSTATMODEL	IQUANT	4	Pstat Model
PSTATSECTION	LABEL	REF600-11020	Pstat Section
PSTATSERIALNO	LABEL	11020	Pstat Serial Number
CTRLMODE	IQUANT	1	Control Mode
IESTAB	IQUANT	0	I/E Stability
CASPEED	IQUANT	1	Control Amp Speed
CONVENTION	IQUANT	1	Current Convention
ICHRANGE	IQUANT	2	Ich Range
ICHRANGEMODE	TOGGLE	F	Ich Auto Range
ICHOFFSETENABLE	TOGGLE	T	Ich Offset Enable
ICHOFFSET	QUANT	0	Ich Offset (V)
ICHFILTER	IQUANT	3	Ich Filter
VCHRANGE	IQUANT	2	Vch Range
VCHRANGEMODE	TOGGLE	F	Vch Auto Range
VCHOFFSETENABLE	TOGGLE	T	Vch Offset Enable
VCHOFFSET	QUANT	0	Vch Offset (V)
VCHFILTER	IQUANT	3	Vch Filter
ACHRANGE	IQUANT	2	Ach Range
ACHOFFSETENABLE	TOGGLE	F	Ach Offset Enable
ACHOFFSET	QUANT	0	Ach Offset (V)
ACHFILTER	IQUANT	3	Ach Filter
IERANGELOWERLIMIT	IQUANT	1	I/E Range Lower Limit
IERANGEMODE	TOGGLE	F	I/E AutoRange
IERANGE	IQUANT	5	I/E Range
POSFEEDENABLE	TOGGLE	F	Positive Feedback IR Comp
POSFEEDRESISTANCE	QUANT	0	Positive Feedback Resistance (ohm)
ACHSELECT	IQUANT	0	Ach Select
CABLEID	IQUANT	14	Cable ID
DCCALDATE	LABEL	8/19/2019	DC Calibration Date
ACCALDATE	LABEL	8/19/2019	AC Calibration Date
THERMOSELECT	IQUANT	1	Thermo Select
FRAMEWORKVERSION	QUANT	6.33	Framework Version
INSTRUMENTVERSION	LABEL	3.50	Instrument Version
ZCURVE	TABLE
	Pt	Time	Freq	Zreal	Zimag	Zsig	Zmod	Zphz	Idc	Vdc	IERange
	#	s	Hz	ohm	ohm	V	ohm	°	A	V	#
	0	1	1000078	1381.588	-2832.763	1	3151.719	-64.0007	-1.232361E-006	-0.0075981	8
	1	3	794390.6	1596.754	-3335.927	1	3698.383	-64.42172	2.666626E-006	-0.0090072	8
	2	4	630984.4	1800.658	-3994.711	1	4381.79	-65.73603	5.814101E-006	-0.0097859	8
	3	6	501234.4	2054.28	-4798.466	1	5219.707	-66.82366	-8.04393E-007	-0.0089874	8
	4	7	398109.4	2362.3	-5752.225	1	6218.404	-67.67323	-3.944617E-007	-0.0082555	8
	5	9	316265.6	2765.782	-6906.101	1	7439.34	-68.1747	4.634073E-007	-0.0083647	8
	6	10	251203.1	3192.169	-8330.388	1	8921.06	-69.03339	-5.025098E-007	-0.008997	8
	7	13	199546.9	3778.604	-10002.81	1	10692.71	-69.30572	5.328905E-006	-0.0093741	8
	8	15	158578.1	4496.174	-12107.05	1	12914.96	-69.62661	-5.029499E-006	-0.0080035	8
	9	17	125953.1	5732.04	-14473.84	1	15567.54	-68.39507	2.552522E-006	-0.0091228	7
	10	18	100078.1	7027.619	-17214.48	1	18593.71	-67.79282	-3.210877E-007	-0.0072077	7
	11	20	79453.13	8491.511	-20978.19	1	22631.62	-67.96297	1.12354E-006	-0.0107464	7
	12	21	63140.62	10822.39	-24556.78	1	26835.79	-66.21648	4.474623E-007	-0.0081324	7
	13	23	50203.12	13447.29	-29183.25	1	32132.41	-65.26031	9.835039E-007	-0.0090627	7
	14	25	39890.62	16755.28	-34923.79	1	38735.13	-64.36984	1.124353E-006	-0.0107513	7
	15	26	31640.63	21211.82	-40573.96	1	45784.14	-62.3997	1.256513E-006	-0.0105002	7
	16	28	25171.88	26975.3	-46114.04	1	53424.45	-59.67368	-1.208243E-006	-0.0081619	7
	17	29	20015.62	33904.17	-51975.8	1	62056.23	-56.88332	4.485835E-007	-0.0081351	7
	18	31	15890.62	40772.05	-61655.81	1	73917.52	-56.52394	5.226204E-007	-0.0106789	7
	19	33	12609.37	51159.67	-65589.48	1	83182.28	-52.04583	-1.988445E-007	-0.0051554	6
	20	34	10078.13	61638.8	-73248.04	1	95732	-49.91912	1.398786E-007	-0.0121256	6
	21	36	8015.625	73766.55	-81652.62	1	110039.3	-47.90474	1.392712E-007	-0.0121203	6
	22	38	6328.125	87888.91	-88520.42	1	124741	-45.2051	2.140403E-007	-0.0105625	6
	23	39	5015.625	103629	-93019.45	1	139253.7	-41.91177	1.5696E-008	-0.0113117	6
	24	41	3984.375	120664.3	-93463.8	1	152628.1	-37.76055	-1.806055E-007	-0.0083313	6
	25	42	3170.956	139036.4	-98684.6	1	170498.6	-35.3662	1.680751E-008	-0.0113086	6
	26	44	2527.573	157667	-101275.7	1	187391.7	-32.71421	2.08593E-007	-0.0117386	6
	27	46	1976.103	176833.8	-99771.8	1	203038.4	-29.43222	2.085502E-007	-0.0117439	6
	28	47	1577.524	189682.8	-87649.73	1	208954.6	-24.80099	1.385106E-007	-0.0121239	6
	29	49	1265.625	204124.4	-88142.48	1	222341.7	-23.35506	2.197699E-008	-0.0114904	5
	30	50	998.264	216560.1	-85109.45	1	232684.1	-21.45513	2.044333E-008	-0.0101379	5
	31	52	796.875	225953	-82085.26	1	240401.3	-19.9653	-2.445021E-008	-0.0057689	5
	32	53	627.7902	238822.4	-81918.69	1	252481.3	-18.93253	1.998631E-008	-0.0119249	5
	33	55	505.5147	247514.7	-80610.06	1	260310.4	-18.03928	5.472345E-009	-0.0116254	5
	34	56	397.9953	257777.1	-80819.86	1	270149.8	-17.40757	-1.122967E-010	-0.0088191	5
	35	57	315.5048	267972.6	-82044.27	1	280250.9	-17.02284	2.433384E-010	-0.0088143	5
	36	59	252.4038	277325.4	-84153.52	1	289812.3	-16.88026	5.778316E-010	-0.0088219	5
	37	60	198.6229	287144.3	-87677.84	1	300232	-16.97975	-1.077123E-012	-0.0088242	5
	38	61	158.3615	298176.3	-92094.73	1	312074.6	-17.16382	-9.781035E-011	-0.0088219	5
	39	63	125.558	308190	-97404	1	323216	-17.53924	-5.133893E-011	-0.00882	5
	40	64	100.4464	319020.2	-104920.5	1	335830.6	-18.20518	9.852489E-011	-0.0088376	5
	41	66	79.00281	332912.5	-115999.4	1	352543.1	-19.21029	2.500527E-010	-0.0088245	5
	42	68	63.3446	337249	-104552.8	1	353083.8	-17.22431	-1.802708E-010	-0.0088228	5
	43	69	49.86702	358266.8	-137156.6	1	383623.6	-20.94853	7.525499E-011	-0.0088237	5
	44	71	39.72458	372044.7	-156609.7	1	403663	-22.82833	8.296985E-011	-0.0088282	5
	45	72	31.6723	387979.9	-172331.9	1	424531.1	-23.94971	2.636209E-010	-0.0088195	5
	46	74	24.93351	414147.3	-194878.2	1	457706.7	-25.19946	1.286788E-010	-0.0088169	5
	47	75	19.86229	440658.9	-216310.9	1	490887.6	-26.14552	1.220555E-011	-0.0088146	5
	48	77	15.83615	484899.3	-241665.2	1	541783.5	-26.49085	-1.05717E-009	-0.0088161	5
	49	78	12.40079	510435.7	-280383.9	1	582374.2	-28.78013	-4.218204E-010	-0.0088294	5
	50	79	9.93114	538562.6	-300473.7	1	616712.3	-29.15793	2.267321E-010	-0.0088214	5
	51	81	7.944915	573880.5	-333642.8	1	663819.5	-30.17287	6.841661E-011	-0.0088269	6
	52	83	6.317385	619037.4	-361986.5	1	717106.4	-30.31727	4.250855E-010	-0.0088259	6
	53	85	5.008013	665844.1	-397739.8	1	775593.6	-30.85184	4.008804E-010	-0.0088187	6
	54	88	3.945707	717076.9	-442035.3	1	842374.2	-31.65136	3.110831E-010	-0.0088204	6
	55	92	3.158693	770002.6	-484415.3	1	909704.4	-32.17435	-1.53755E-010	-0.0088028	6
	56	95	2.504006	829618.5	-538367.5	1	988993	-32.9809	-2.027978E-010	-0.0088264	4
	57	98	1.998082	892842.1	-595692.3	1	1073320	-33.71069	-1.863209E-010	-0.0088204	4
	58	101	1.584686	963781	-661321.4	1	1168854	-34.45691	1.076237E-010	-0.0087746	4
	59	105	1.266892	1035420	-737302.8	1	1271106	-35.45393	-1.330424E-010	-0.0087968	4
	60	109	0.999041	1122149	-829662.6	1	1395549	-36.47744	2.34943E-010	-0.0088455	4
