EXPLAIN
TAG	EISPOT
TITLE	LABEL	Potentiostatic EIS	Test &Identifier
DATE	LABEL	6/20/2000	Date
TIME	LABEL	9:21:56	Time
NOTES	NOTES	2	&Notes...
	
	
PSTAT	PSTAT	REF600-11020	Potentiostat
VDC	POTEN	0.00000E+000	T	DC &Voltage (V)
FREQINIT	QUANT	1.00000E+006	Initial Fre&q. (Hz)
FREQFINAL	QUANT	1.00000E+000	Final Fre&q. (Hz)
PTSPERDEC	QUANT	1.00000E+001	Points/&decade
VAC	QUANT	2.50000E+001	AC &Voltage (mV rms)
AREA	QUANT	1.00000E-002	&Area (cm^2)
CONDIT	TWOPARAM	T	5.00000E+000	0.00000E+000	Conditionin&g	Time(s)	E(V)
DELAY	TWOPARAM	T	5.00000E+000	0.00000E+000	Init. De&lay	Time(s)	Stab.(mV/s)
SPEED	SELECTOR	0	&Optimize for:
ZGUESS	QUANT	1.00000E+005	E&stimated Z (ohms)
OCVCURVE	TABLE	19
	Pt	T	Vf	Vm	Ach	Over
	#	s	V vs. Ref.	V	V	bits
	0	0.258333	7.55158E-003	7.55158E-003	5.71032E-004	...........
	1	0.516667	7.55167E-003	7.55639E-003	5.72399E-004	...........
	2	0.775	7.55241E-003	7.56994E-003	5.71699E-004	...........
	3	1.03333	7.55531E-003	7.59609E-003	5.71566E-004	...........
	4	1.29167	7.56293E-003	7.63238E-003	5.71532E-004	...........
	5	1.55	7.57775E-003	7.66495E-003	5.67966E-004	...........
	6	1.80833	7.60080E-003	7.71389E-003	5.68999E-004	...........
	7	2.06667	7.63150E-003	7.75983E-003	5.74999E-004	...........
	8	2.325	7.66868E-003	7.80497E-003	5.68799E-004	...........
	9	2.58333	7.71071E-003	7.85272E-003	5.71666E-004	...........
	10	2.84167	7.75563E-003	7.89987E-003	5.72466E-004	...........
	11	3.1	7.80192E-003	7.94500E-003	5.69899E-004	...........
	12	3.35833	7.84865E-003	7.99106E-003	5.69266E-004	...........
	13	3.61667	7.89535E-003	8.04239E-003	5.65866E-004	...........
	14	3.875	7.94213E-003	8.08754E-003	5.71999E-004	...........
	15	4.13333	7.98928E-003	8.13375E-003	5.73565E-004	...........
	16	4.39167	8.03648E-003	8.17530E-003	5.77466E-004	...........
	17	4.65	8.08297E-003	8.21920E-003	5.78032E-004	...........
	18	4.90833	8.12826E-003	8.26408E-003	5.76332E-004	...........
EOC	QUANT	0.0081283	Open Circuit (V)
PSTATMODEL	IQUANT	4	Pstat Model
PSTATSECTION	LABEL	REF600-11020	Pstat Section
PSTATSERIALNO	LABEL	11020	Pstat Serial Number
CTRLMODE	IQUANT	1	Control Mode
IESTAB	IQUANT	0	I/E Stability
CASPEED	IQUANT	1	Control Amp Speed
CONVENTION	IQUANT	1	Current Convention
ICHRANGE	IQUANT	2	Ich Range
ICHRANGEMODE	TOGGLE	F	Ich Auto Range
ICHOFFSETENABLE	TOGGLE	T	Ich Offset Enable
ICHOFFSET	QUANT	0	Ich Offset (V)
ICHFILTER	IQUANT	3	Ich Filter
VCHRANGE	IQUANT	2	Vch Range
VCHRANGEMODE	TOGGLE	F	Vch Auto Range
VCHOFFSETENABLE	TOGGLE	T	Vch Offset Enable
VCHOFFSET	QUANT	0	Vch Offset (V)
VCHFILTER	IQUANT	3	Vch Filter
ACHRANGE	IQUANT	2	Ach Range
ACHOFFSETENABLE	TOGGLE	F	Ach Offset Enable
ACHOFFSET	QUANT	0	Ach Offset (V)
ACHFILTER	IQUANT	3	Ach Filter
IERANGELOWERLIMIT	IQUANT	1	I/E Range Lower Limit
IERANGEMODE	TOGGLE	F	I/E AutoRange
IERANGE	IQUANT	5	I/E Range
POSFEEDENABLE	TOGGLE	F	Positive Feedback IR Comp
POSFEEDRESISTANCE	QUANT	0	Positive Feedback Resistance (ohm)
ACHSELECT	IQUANT	0	Ach Select
CABLEID	IQUANT	14	Cable ID
DCCALDATE	LABEL	8/19/2019	DC Calibration Date
ACCALDATE	LABEL	8/19/2019	AC Calibration Date
THERMOSELECT	IQUANT	1	Thermo Select
FRAMEWORKVERSION	QUANT	6.33	Framework Version
INSTRUMENTVERSION	LABEL	3.50	Instrument Version
ZCURVE	TABLE
	Pt	Time	Freq	Zreal	Zimag	Zsig	Zmod	Zphz	Idc	Vdc	IERange
	#	s	Hz	ohm	ohm	V	ohm	°	A	V	#
	0	1	1000078	2213.393	-1059.536	1	2453.92	-25.58011	-4.363108E-006	0.0114485	8
	1	2	794390.6	2390.468	-958.471	1	2575.462	-21.84859	-6.408396E-007	0.0099101	8
	2	2	630984.4	2537.738	-836.9796	1	2672.199	-18.25324	-2.913402E-006	0.0099205	8
	3	2	501234.4	2640.198	-724.5908	1	2737.824	-15.34671	4.883289E-006	0.0098873	8
	4	3	398109.4	2724.174	-628.114	1	2795.648	-12.9838	1.546112E-006	0.0101906	8
	5	3	316265.6	2790.418	-535.2285	1	2841.286	-10.85799	6.263497E-006	0.0086666	8
	6	3	251203.1	2841.463	-480.1853	1	2881.751	-9.59192	-5.016947E-006	0.0101893	8
	7	4	199546.9	2875.647	-422.2916	1	2906.488	-8.354231	7.246947E-006	0.0090503	8
	8	4	158578.1	2909.211	-380.3022	1	2933.963	-7.447672	-6.390987E-006	0.0107265	8
	9	4	125953.1	2953.88	-316.3171	1	2970.768	-6.112244	1.82985E-006	0.0041257	7
	10	5	100078.1	2977.341	-301.3356	1	2992.552	-5.779206	-1.2081E-006	0.0108281	7
	11	5	79453.13	2997.445	-300.6371	1	3012.484	-5.727486	-7.005635E-007	0.009559	7
	12	5	63140.62	3022.943	-309.7037	1	3038.766	-5.849603	8.075764E-007	0.0095739	7
	13	6	50203.12	3052.871	-323.6871	1	3069.983	-6.052295	9.955271E-007	0.0090807	7
	14	6	39890.62	3083.075	-343.4551	1	3102.146	-6.356552	1.425046E-007	0.0083679	7
	15	6	31640.63	3115.21	-370.7921	1	3137.2	-6.787772	-1.211911E-006	0.010816	7
	16	6	25171.88	3152.255	-406.2361	1	3178.323	-7.343324	-7.025918E-007	0.0095489	7
	17	7	20015.62	3192.725	-451.2357	1	3224.454	-8.044474	9.969382E-007	0.0090796	7
	18	7	15890.62	3237.765	-502.8116	1	3276.574	-8.827288	1.07841E-006	0.0083221	7
	19	7	12609.37	3282.975	-567.0447	1	3331.586	-9.7996	-1.232294E-006	0.011193	7
	20	8	10078.13	3336.099	-639.6609	1	3396.87	-10.85411	7.865767E-007	0.0079888	7
	21	8	8015.625	3393.538	-727.7575	1	3470.696	-12.10397	1.430015E-007	0.0083591	7
	22	8	6328.125	3456.173	-838.7347	1	3556.488	-13.64069	3.768693E-007	0.010279	7
	23	9	5015.625	3523.16	-969.728	1	3654.179	-15.38924	5.942787E-007	0.0099697	7
	24	9	3984.375	3598.153	-1126.449	1	3770.357	-17.38341	-6.36636E-007	0.0113463	7
	25	9	3170.956	3676.677	-1317.13	1	3905.482	-19.70951	1.089219E-006	0.0086469	7
	26	10	2527.573	3762.507	-1545.644	1	4067.612	-22.33294	9.805563E-007	0.0080879	7
	27	10	1976.103	3867.1	-1849.953	1	4286.815	-25.56563	1.088321E-006	0.0086464	7
	28	10	1577.524	3971.676	-2194.087	1	4537.425	-28.91773	-1.211596E-006	0.0108008	7
	29	11	1265.625	4094.129	-2594.671	1	4847.083	-32.36465	-6.352748E-007	0.0113459	7
	30	11	998.264	4237.826	-3131.153	1	5269.088	-36.45914	5.033733E-007	0.008078	7
	31	11	796.875	4392.912	-3749.609	1	5775.573	-40.4827	7.886285E-007	0.0079906	7
	32	12	627.7902	4582.562	-4548.998	1	6457.031	-44.78941	-9.097186E-007	0.0114229	7
	33	12	505.5147	4776.325	-5445.204	1	7243.171	-48.744	-1.101135E-006	0.0113469	7
	34	12	397.9953	5018.355	-6677.462	1	8352.987	-53.07381	6.824208E-010	0.0097694	7
	35	13	315.5048	5304.959	-8157.24	1	9730.53	-56.96254	5.757879E-010	0.0097726	7
	36	13	252.4038	5639.821	-9908.2	1	11400.88	-60.35115	1.12014E-009	0.0097005	6
	37	13	198.6229	6088.461	-12235.22	1	13666.38	-63.54424	2.032796E-010	0.0097122	6
	38	14	158.3615	6629.286	-14952.73	1	16356.39	-66.08992	4.446024E-010	0.0097097	6
	39	14	125.558	7343.953	-18377.56	1	19790.61	-68.2176	2.874805E-010	0.009703	6
	40	14	100.4464	8220.063	-22429.7	1	23888.51	-69.87306	-2.481402E-010	0.0097011	6
	41	15	79.00281	9442.004	-27698.44	1	29263.54	-71.17648	-2.637567E-010	0.0096986	6
	42	15	63.3446	11355.67	-33603.74	1	35470.59	-71.32841	5.43585E-010	0.0097014	6
	43	15	49.86702	13446.36	-41437.77	1	43564.82	-72.022	-4.136483E-010	0.0097057	6
	44	16	39.72458	15959.32	-50289.72	1	52761.31	-72.39329	1.532226E-010	0.0097014	6
	45	16	31.6723	19374.08	-60845.36	1	63855.41	-72.33774	5.479165E-010	0.0096984	6
	46	16	24.93351	24378.93	-74352.36	1	78247.08	-71.84653	-2.114688E-010	0.0097083	6
	47	17	19.86229	30398.43	-89460.77	1	94484.35	-71.23244	-3.205302E-010	0.0097013	6
	48	17	15.83615	37472.39	-106837.8	1	113218.8	-70.67214	1.498339E-011	0.0097066	5
	49	17	12.40079	47292.53	-129929.4	1	138268.7	-69.99918	3.352915E-010	0.0097133	5
	50	18	9.93114	59941.09	-152562	1	163915	-68.55031	6.197859E-010	0.0097095	5
	51	18	7.944915	74693.55	-180130.3	1	195002.7	-67.47797	3.043234E-010	0.0097058	5
	52	19	6.317385	92646.51	-212134.7	1	231483.3	-66.40746	2.387633E-010	0.0097093	5
	53	20	5.008013	115018.5	-249733.3	1	274947.2	-65.27084	3.019076E-010	0.0097213	5
	54	21	3.945707	142853.3	-293303.3	1	326242.1	-64.03162	-6.031176E-011	0.0097051	5
	55	22	3.158693	174491	-339619	1	381822.2	-62.8066	-1.671918E-011	0.0096946	5
	56	24	2.504006	212947.5	-394549.2	1	448347.8	-61.64321	1.734472E-010	0.009704	5
	57	25	1.998082	256698.9	-453100.4	1	520763.2	-60.46677	-6.118545E-011	0.0096733	5
	58	26	1.584686	309176.5	-522785.9	1	607367.5	-59.39986	-1.253884E-010	0.0096582	5
	59	28	1.266892	365927.8	-596380	1	699694.4	-58.46749	-9.638732E-011	0.0096853	5
	60	31	0.999041	435485	-683294.1	1	810270.4	-57.48935	-6.632979E-011	0.009714	5
