EXPLAIN
TAG	EISPOT
TITLE	LABEL	Potentiostatic EIS	Test &Identifier
DATE	LABEL	11/7/2019	Date
TIME	LABEL	8:22:31	Time
NOTES	NOTES	2	&Notes...
	
	
PSTAT	PSTAT	REF600-11020	Potentiostat
VDC	POTEN	0.00000E+000	T	DC &Voltage (V)
FREQINIT	QUANT	1.00000E+006	Initial Fre&q. (Hz)
FREQFINAL	QUANT	1.00000E+000	Final Fre&q. (Hz)
PTSPERDEC	QUANT	1.00000E+001	Points/&decade
VAC	QUANT	2.50000E+001	AC &Voltage (mV rms)
AREA	QUANT	1.00000E-002	&Area (cm^2)
CONDIT	TWOPARAM	T	5.00000E+000	0.00000E+000	Conditionin&g	Time(s)	E(V)
DELAY	TWOPARAM	T	5.00000E+000	0.00000E+000	Init. De&lay	Time(s)	Stab.(mV/s)
SPEED	SELECTOR	1	&Optimize for:
ZGUESS	QUANT	1.00000E+005	E&stimated Z (ohms)
OCVCURVE	TABLE	19
	Pt	T	Vf	Vm	Ach	Over
	#	s	V vs. Ref.	V	V	bits
	0	0.258333	-6.96309E-004	-6.96309E-004	5.54366E-004	...........
	1	0.516667	-7.02521E-004	-1.02147E-003	5.55999E-004	...........
	2	0.775	-7.40372E-004	-1.31436E-003	5.62499E-004	...........
	3	1.03333	-8.46341E-004	-1.58834E-003	5.59266E-004	...........
	4	1.29167	-1.03323E-003	-1.83948E-003	5.61866E-004	...........
	5	1.55	-1.27726E-003	-2.08258E-003	5.64266E-004	...........
	6	1.80833	-1.54208E-003	-2.29688E-003	5.57732E-004	...........
	7	2.06667	-1.80224E-003	-2.52530E-003	5.59666E-004	...........
	8	2.325	-2.04795E-003	-2.73215E-003	5.62666E-004	...........
	9	2.58333	-2.27934E-003	-2.93059E-003	5.64299E-004	...........
	10	2.84167	-2.49898E-003	-3.11669E-003	5.53999E-004	...........
	11	3.1	-2.70831E-003	-3.30649E-003	5.55533E-004	...........
	12	3.35833	-2.90840E-003	-3.48553E-003	5.55899E-004	...........
	13	3.61667	-3.10093E-003	-3.66456E-003	5.56199E-004	...........
	14	3.875	-3.28757E-003	-3.83474E-003	5.55033E-004	...........
	15	4.13333	-3.46928E-003	-4.00478E-003	5.58132E-004	...........
	16	4.39167	-3.64651E-003	-4.17100E-003	5.58299E-004	...........
	17	4.65	-3.81980E-003	-4.33887E-003	5.60132E-004	...........
	18	4.90833	-3.98968E-003	-4.48566E-003	5.53399E-004	...........
EOC	QUANT	-0.0039897	Open Circuit (V)
PSTATMODEL	IQUANT	4	Pstat Model
PSTATSECTION	LABEL	REF600-11020	Pstat Section
PSTATSERIALNO	LABEL	11020	Pstat Serial Number
CTRLMODE	IQUANT	1	Control Mode
IESTAB	IQUANT	0	I/E Stability
CASPEED	IQUANT	1	Control Amp Speed
CONVENTION	IQUANT	1	Current Convention
ICHRANGE	IQUANT	2	Ich Range
ICHRANGEMODE	TOGGLE	F	Ich Auto Range
ICHOFFSETENABLE	TOGGLE	T	Ich Offset Enable
ICHOFFSET	QUANT	0	Ich Offset (V)
ICHFILTER	IQUANT	3	Ich Filter
VCHRANGE	IQUANT	2	Vch Range
VCHRANGEMODE	TOGGLE	F	Vch Auto Range
VCHOFFSETENABLE	TOGGLE	T	Vch Offset Enable
VCHOFFSET	QUANT	0	Vch Offset (V)
VCHFILTER	IQUANT	3	Vch Filter
ACHRANGE	IQUANT	2	Ach Range
ACHOFFSETENABLE	TOGGLE	F	Ach Offset Enable
ACHOFFSET	QUANT	0	Ach Offset (V)
ACHFILTER	IQUANT	3	Ach Filter
IERANGELOWERLIMIT	IQUANT	1	I/E Range Lower Limit
IERANGEMODE	TOGGLE	F	I/E AutoRange
IERANGE	IQUANT	4	I/E Range
POSFEEDENABLE	TOGGLE	F	Positive Feedback IR Comp
POSFEEDRESISTANCE	QUANT	0	Positive Feedback Resistance (ohm)
ACHSELECT	IQUANT	0	Ach Select
CABLEID	IQUANT	14	Cable ID
DCCALDATE	LABEL	8/19/2019	DC Calibration Date
ACCALDATE	LABEL	8/19/2019	AC Calibration Date
THERMOSELECT	IQUANT	1	Thermo Select
FRAMEWORKVERSION	QUANT	6.33	Framework Version
INSTRUMENTVERSION	LABEL	3.50	Instrument Version
ZCURVE	TABLE
	Pt	Time	Freq	Zreal	Zimag	Zsig	Zmod	Zphz	Idc	Vdc	IERange
	#	s	Hz	ohm	ohm	V	ohm	°	A	V	#
	0	1	1000078	1193.485	-1620.55	1	2012.608	-53.6295	3.063899E-006	-0.0009727	8
	1	3	794390.6	1297.177	-1898.05	1	2298.97	-55.65028	-2.048769E-006	-0.002579	8
	2	4	630984.4	1420.11	-2271.072	1	2678.521	-57.9821	5.96168E-006	-0.0023564	8
	3	6	501234.4	1561.391	-2717.444	1	3134.078	-60.11916	-5.484626E-006	-0.0016571	8
	4	7	398109.4	1767.85	-3269.415	1	3716.769	-61.59886	-6.052392E-007	-0.0018748	8
	5	9	316265.6	1994.665	-3911.532	1	4390.76	-62.98093	8.566524E-007	-0.0019778	8
	6	10	251203.1	2269.101	-4739.553	1	5254.73	-64.41683	-2.967002E-006	-0.0025554	8
	7	12	199546.9	2719.894	-5727.169	1	6340.212	-64.59645	7.163986E-008	-0.0028398	8
	8	13	158578.1	3273.524	-6825.641	1	7570.029	-64.37798	-4.31788E-007	-0.0019248	8
	9	15	125953.1	4172.782	-8042.162	1	9060.269	-62.57686	-1.808219E-006	0.002945	7
	10	17	100078.1	5088.307	-9738.43	1	10987.63	-62.41304	-6.700723E-008	-0.0041395	7
	11	18	79453.13	6399.904	-11384.55	1	13060.12	-60.65717	-1.129913E-006	-0.0001661	7
	12	20	63140.62	7986.675	-13374.72	1	15577.87	-59.15658	1.267053E-006	-0.0049396	7
	13	22	50203.12	10087.92	-15144.62	1	18196.86	-56.33219	2.546387E-007	-0.0013147	7
	14	23	39890.62	12601.63	-17315.04	1	21415.23	-53.95342	9.250777E-007	-0.0049455	7
	15	25	31640.63	15650.21	-18827.32	1	24482.59	-50.26494	-1.447883E-006	-0.0001983	7
	16	26	25171.88	18947.11	-20372.58	1	27821.49	-47.07626	-1.670793E-006	-0.000374	7
	17	28	20015.62	22259.54	-21262.95	1	30783.12	-43.68826	-1.12843E-006	-0.0001809	7
	18	29	15890.62	26268.97	-22822.9	1	34798.62	-40.98463	1.497847E-006	-0.0037803	7
	19	31	12609.37	30428.51	-22914.71	1	38091.71	-36.9822	-2.483218E-007	0.0010739	6
	20	32	10078.13	34090.58	-23620.67	1	41474.13	-34.7173	-1.31209E-007	-0.0031863	6
	21	34	8015.625	37551.15	-24479.02	1	44825.35	-33.09972	8.216426E-008	-0.005723	6
	22	36	6328.125	41386.03	-24776.38	1	48235.59	-30.90749	2.298926E-007	-0.0051418	6
	23	37	5015.625	44712.99	-25092.83	1	51272.82	-29.30105	-2.583705E-007	0.0003603	6
	24	39	3984.375	47232.89	-25739.16	1	53790.8	-28.5878	-6.533482E-008	0.0004643	6
	25	40	3170.956	51987.32	-26961.13	1	58562.65	-27.41169	2.293636E-007	-0.0045245	6
	26	42	2527.573	55533.7	-27826.08	1	62115.08	-26.61392	-1.303166E-007	-0.0031969	6
	27	43	1976.103	59006.8	-28719.61	1	65624.83	-25.95297	-1.450191E-006	-0.0002049	7
	28	45	1577.524	63034.87	-31756.67	1	70582.44	-26.73875	-2.592102E-007	0.0003554	6
	29	47	1265.625	67525.32	-32068.99	1	74753.52	-25.40389	-1.311669E-007	-0.0031887	6
	30	48	998.264	71347.58	-32684.1	1	78477.55	-24.61236	-7.178347E-007	-0.0003671	7
	31	50	796.875	76741.55	-35892.82	1	84720.48	-25.06598	-6.070173E-008	-0.0042788	6
	32	51	627.7902	81892.02	-37911.06	1	90241.63	-24.84129	-1.92352E-007	-0.0019818	6
	33	53	505.5147	87348.39	-40847.33	1	96427.4	-25.06253	1.914472E-007	-0.0060497	6
	34	54	397.9953	92650.34	-42952.36	1	102122.4	-24.87227	1.158527E-009	-0.0025768	6
	35	56	315.5048	98804.7	-45062.31	1	108595.5	-24.51653	-1.475461E-010	-0.0025761	5
	36	57	252.4038	104377.7	-48177.03	1	114959.7	-24.77636	-6.24318E-010	-0.0025739	5
	37	58	198.6229	110642.5	-52061.73	1	122279.1	-25.19886	-2.488273E-011	-0.002575	5
	38	60	158.3615	116693.3	-56132.23	1	129491.9	-25.68865	3.614613E-010	-0.0025636	5
	39	61	125.558	123518.5	-61471.34	1	137969.4	-26.45811	5.304542E-010	-0.0025701	5
	40	63	100.4464	130191.8	-67680.12	1	146732.8	-27.46763	1.525678E-010	-0.0025694	5
	41	64	79.00281	137631.9	-74518.5	1	156510.5	-28.43259	-1.484524E-010	-0.0025563	5
	42	66	63.3446	138366.5	-81266.45	1	160466.6	-30.42689	-1.679585E-010	-0.0025662	5
	43	67	49.86702	155672.9	-93414.2	1	181549.7	-30.96658	4.870465E-010	-0.0025719	5
	44	69	39.72458	165725.2	-105845.2	1	196642	-32.56552	2.131883E-010	-0.0025686	5
	45	70	31.6723	179203.4	-121080	1	216273.5	-34.0452	-2.17123E-010	-0.0025692	5
	46	72	24.93351	192579	-136352.9	1	235963.5	-35.29988	3.305908E-010	-0.0025709	5
	47	73	19.86229	208330.9	-153682.6	1	258882.4	-36.41565	5.791034E-011	-0.0025657	5
	48	75	15.83615	231547.6	-179154.3	1	292763.6	-37.73003	2.178809E-009	-0.0025733	5
	49	76	12.40079	244809.9	-202064.9	1	317430.5	-39.5361	2.984916E-010	-0.0025759	5
	50	77	9.93114	268604.2	-227031.7	1	351698.2	-40.20542	3.51866E-010	-0.0025701	5
	51	79	7.944915	294419.1	-255460.4	1	389798.2	-40.94739	-2.937939E-011	-0.0025828	5
	52	81	6.317385	325029.4	-290940.2	1	436222.8	-41.83235	5.456011E-010	-0.0025801	5
	53	83	5.008013	361451.6	-331288.8	1	490305.5	-42.50684	2.663584E-010	-0.0025648	5
	54	85	3.945707	402404.9	-377133.1	1	551506.2	-43.14318	1.065322E-010	-0.0025623	5
	55	88	3.158693	448314.2	-425340.5	1	617980.8	-43.49369	1.664211E-010	-0.0025847	5
	56	91	2.504006	501691.1	-481158.1	1	695131	-43.80319	1.874302E-010	-0.0025634	5
	57	94	1.998082	559021.8	-540828.1	1	777817.7	-44.0523	4.969091E-010	-0.002596	5
	58	97	1.584686	627755.3	-609478.2	1	874951.6	-44.15366	1.194865E-010	-0.0026172	5
	59	101	1.266892	698806.3	-684238.4	1	978015	-44.39651	4.443592E-010	-0.0026041	4
	60	105	0.999041	784823.3	-775183.4	1	1103112	-44.64595	-9.982033E-011	-0.002575	4
