EXPLAIN
TAG	EISPOT
TITLE	LABEL	Potentiostatic EIS	Test &Identifier
DATE	LABEL	10/31/2019	Date
TIME	LABEL	23:34:18	Time
NOTES	NOTES	1	&Notes...
	
PSTAT	PSTAT	REF600-11020	Potentiostat
VDC	POTEN	0.00000E+000	T	DC &Voltage (V)
FREQINIT	QUANT	1.00000E+006	Initial Fre&q. (Hz)
FREQFINAL	QUANT	1.00000E+000	Final Fre&q. (Hz)
PTSPERDEC	QUANT	1.00000E+001	Points/&decade
VAC	QUANT	2.50000E+001	AC &Voltage (mV rms)
AREA	QUANT	1.00000E-002	&Area (cm^2)
CONDIT	TWOPARAM	T	5.00000E+000	0.00000E+000	Conditionin&g	Time(s)	E(V)
DELAY	TWOPARAM	T	5.00000E+000	0.00000E+000	Init. De&lay	Time(s)	Stab.(mV/s)
SPEED	SELECTOR	0	&Optimize for:
ZGUESS	QUANT	1.00000E+005	E&stimated Z (ohms)
OCVCURVE	TABLE	19
	Pt	T	Vf	Vm	Ach	Over
	#	s	V vs. Ref.	V	V	bits
	0	0.258333	-7.45849E-004	-7.45849E-004	5.32833E-004	...........
	1	0.516667	-7.40243E-004	-4.52382E-004	5.38233E-004	...........
	2	0.775	-7.90678E-004	-4.61640E-003	5.31200E-004	...........
	3	1.03333	-9.48937E-004	5.33558E-003	5.36533E-004	...........
	4	1.29167	-7.87475E-004	5.89147E-003	5.30200E-004	...........
	5	1.55	3.64609E-004	5.60256E-003	5.36266E-004	...........
	6	1.80833	2.32397E-003	5.35738E-003	5.33066E-004	...........
	7	2.06667	4.12329E-003	5.51043E-003	5.25533E-004	...........
	8	2.325	5.15087E-003	4.96080E-003	5.35433E-004	...........
	9	2.58333	5.47936E-003	5.24565E-003	5.29866E-004	...........
	10	2.84167	5.45500E-003	5.95721E-003	5.33366E-004	...........
	11	3.1	5.40318E-003	6.02637E-003	5.33833E-004	...........
	12	3.35833	5.45819E-003	4.30877E-003	5.37199E-004	...........
	13	3.61667	5.47937E-003	4.14248E-003	5.32366E-004	...........
	14	3.875	5.26765E-003	4.05839E-003	5.33000E-004	...........
	15	4.13333	4.86409E-003	4.43982E-003	5.27900E-004	...........
	16	4.39167	4.51112E-003	5.13801E-003	5.35200E-004	...........
	17	4.65	4.39993E-003	4.95673E-003	5.39499E-004	...........
	18	4.90833	4.52659E-003	5.05021E-003	5.32266E-004	...........
EOC	QUANT	0.0045266	Open Circuit (V)
PSTATMODEL	IQUANT	4	Pstat Model
PSTATSECTION	LABEL	REF600-11020	Pstat Section
PSTATSERIALNO	LABEL	11020	Pstat Serial Number
CTRLMODE	IQUANT	1	Control Mode
IESTAB	IQUANT	0	I/E Stability
CASPEED	IQUANT	1	Control Amp Speed
CONVENTION	IQUANT	1	Current Convention
ICHRANGE	IQUANT	2	Ich Range
ICHRANGEMODE	TOGGLE	F	Ich Auto Range
ICHOFFSETENABLE	TOGGLE	T	Ich Offset Enable
ICHOFFSET	QUANT	0	Ich Offset (V)
ICHFILTER	IQUANT	3	Ich Filter
VCHRANGE	IQUANT	2	Vch Range
VCHRANGEMODE	TOGGLE	F	Vch Auto Range
VCHOFFSETENABLE	TOGGLE	T	Vch Offset Enable
VCHOFFSET	QUANT	0	Vch Offset (V)
VCHFILTER	IQUANT	3	Vch Filter
ACHRANGE	IQUANT	2	Ach Range
ACHOFFSETENABLE	TOGGLE	F	Ach Offset Enable
ACHOFFSET	QUANT	0	Ach Offset (V)
ACHFILTER	IQUANT	3	Ach Filter
IERANGELOWERLIMIT	IQUANT	1	I/E Range Lower Limit
IERANGEMODE	TOGGLE	F	I/E AutoRange
IERANGE	IQUANT	4	I/E Range
POSFEEDENABLE	TOGGLE	F	Positive Feedback IR Comp
POSFEEDRESISTANCE	QUANT	0	Positive Feedback Resistance (ohm)
ACHSELECT	IQUANT	0	Ach Select
CABLEID	IQUANT	14	Cable ID
DCCALDATE	LABEL	8/19/2019	DC Calibration Date
ACCALDATE	LABEL	8/19/2019	AC Calibration Date
THERMOSELECT	IQUANT	1	Thermo Select
FRAMEWORKVERSION	QUANT	6.33	Framework Version
INSTRUMENTVERSION	LABEL	3.50	Instrument Version
ZCURVE	TABLE
	Pt	Time	Freq	Zreal	Zimag	Zsig	Zmod	Zphz	Idc	Vdc	IERange
	#	s	Hz	ohm	ohm	V	ohm	°	A	V	#
	0	2	1000078	1444.142	-389.8638	1	1495.841	-15.10756	-9.988368E-007	0.0070406	8
	1	2	794390.6	1490.175	-339.4587	1	1528.35	-12.83287	-2.798932E-006	0.006361	8
	2	2	630984.4	1524.371	-289.2712	1	1551.575	-10.74493	-8.091494E-007	0.0067526	8
	3	3	501234.4	1553.901	-247.7101	1	1573.521	-9.057413	-6.613565E-007	0.0066449	8
	4	3	398109.4	1573.177	-216.8448	1	1588.051	-7.848126	-2.44959E-006	0.0066429	8
	5	3	316265.6	1591.217	-191.5136	1	1602.7	-6.862921	-1.021645E-007	0.0065357	8
	6	3	251203.1	1605.392	-171.4393	1	1614.52	-6.095497	-6.970733E-007	0.0065056	8
	7	4	199546.9	1619.308	-155.6886	1	1626.775	-5.491829	5.474465E-006	0.0050727	8
	8	4	158578.1	1633.692	-149.1334	1	1640.485	-5.215851	-4.141919E-007	0.0058766	8
	9	4	125953.1	1651.149	-119.5117	1	1655.468	-4.139903	-1.853211E-006	0.0089972	7
	10	5	100078.1	1661.82	-114.9777	1	1665.792	-3.957862	-4.336073E-007	0.0072203	7
	11	5	79453.13	1672.706	-121.3758	1	1677.104	-4.150254	8.472438E-008	0.0067184	7
	12	5	63140.62	1684.339	-130.138	1	1689.359	-4.418097	6.1938E-007	0.0058545	7
	13	6	50203.12	1697.92	-140.5213	1	1703.725	-4.731064	-9.08572E-007	0.0068969	7
	14	6	39890.62	1712.078	-153.5094	1	1718.947	-5.123589	3.286389E-007	0.0048769	7
	15	6	31640.63	1726.964	-168.4415	1	1735.159	-5.570791	-9.096673E-007	0.007166	7
	16	7	25171.88	1742.348	-186.9247	1	1752.346	-6.123454	-9.101205E-007	0.0071641	7
	17	7	20015.62	1760.471	-211.0937	1	1773.082	-6.83755	-2.405324E-007	0.0054622	7
	18	7	15890.62	1775.514	-238.0426	1	1791.4	-7.636093	-7.85852E-007	0.0064727	7
	19	8	12609.37	1793.635	-273.2745	1	1814.334	-8.662844	-9.114707E-007	0.0068958	7
	20	8	10078.13	1811.759	-315.937	1	1839.1	-9.89185	6.898194E-007	0.0048445	7
	21	8	8015.625	1831.504	-368.5959	1	1868.226	-11.37896	4.716725E-007	0.0061395	7
	22	9	6328.125	1853.821	-436.4761	1	1904.511	-13.24881	4.742681E-007	0.0061382	7
	23	9	5015.625	1877.562	-518.8873	1	1947.943	-15.44879	-4.350057E-007	0.0072042	7
	24	9	3984.375	1903.527	-622.4765	1	2002.722	-18.10837	7.968198E-007	0.0051988	7
	25	10	3170.956	1931.823	-745.5435	1	2070.694	-21.10298	-9.078545E-007	0.0071504	7
	26	10	2527.573	1963.488	-899.9521	1	2159.907	-24.62405	6.888833E-007	0.0048307	7
	27	10	1976.103	2004.066	-1107.794	1	2289.866	-28.93264	-4.353432E-007	0.007199	7
	28	10	1577.524	2037.878	-1353.981	1	2446.673	-33.60035	3.219476E-007	0.0063594	7
	29	11	1265.625	2100.025	-1631.142	1	2659.085	-37.83738	-7.969235E-007	0.0072507	7
	30	11	998.264	2169.229	-2009.877	1	2957.222	-42.81633	-9.065028E-007	0.00715	7
	31	11	796.875	2250.836	-2457.235	1	3332.306	-47.51021	5.402775E-007	0.0047854	7
	32	12	627.7902	2363.601	-3038.882	1	3849.859	-52.12471	7.993877E-007	0.0051942	7
	33	12	505.5147	2494.949	-3680.119	1	4446.127	-55.86455	-4.347647E-007	0.007202	7
	34	12	397.9953	2676.704	-4556.374	1	5284.438	-59.56731	1.655921E-009	0.00607	7
	35	13	315.5048	2908.887	-5597.874	1	6308.551	-62.54174	1.077561E-009	0.0060737	7
	36	13	252.4038	3197.413	-6815.396	1	7528.152	-64.86658	5.258142E-010	0.0060704	7
	37	13	198.6229	3601.723	-8406.956	1	9146	-66.80865	2.170156E-009	0.0060654	7
	38	14	158.3615	4104.873	-10232.59	1	11025.24	-68.14148	2.355907E-010	0.0060083	6
	39	14	125.558	4765.909	-12490.9	1	13369.24	-69.11562	-2.158842E-010	0.0060102	6
	40	14	100.4464	5594.398	-15075.67	1	16080.21	-69.64072	4.454897E-010	0.0060102	6
	41	15	79.00281	6761.69	-18418.83	1	19620.75	-69.84144	-8.361955E-010	0.0060067	6
	42	15	63.3446	7976.732	-22236.19	1	23623.64	-70.26569	1.304313E-010	0.006004	6
	43	15	49.86702	9829.09	-26887.21	1	28627.49	-69.91924	-1.3372E-009	0.0059973	6
	44	16	39.72458	12163.38	-32079.39	1	34307.95	-69.23503	-7.049222E-013	0.0060103	6
	45	16	31.6723	14942.96	-38162.01	1	40983.3	-68.61635	2.110433E-010	0.0060022	6
	46	16	24.93351	18472.95	-45767.61	1	49355.09	-68.01977	-5.484279E-010	0.0059975	6
	47	17	19.86229	22552.36	-54172.92	1	58679.76	-67.39788	-4.312291E-010	0.0059968	6
	48	17	15.83615	27754.63	-64160.8	1	69906.56	-66.6077	8.462798E-010	0.0060032	6
	49	17	12.40079	34244.37	-76574.16	1	83882.53	-65.90556	-2.542478E-010	0.0060073	6
	50	18	9.93114	41359	-88998.84	1	98139.5	-65.07505	-5.074923E-011	0.0060047	6
	51	18	7.944915	49970.05	-103691.5	1	115104	-64.27008	1.213176E-009	0.0060016	5
	52	19	6.317385	60398.66	-121341.6	1	135542.5	-63.53784	1.239584E-009	0.0059846	5
	53	20	5.008013	73190.13	-141903.3	1	159666.4	-62.71647	4.791356E-010	0.0060054	5
	54	21	3.945707	89055.95	-165977.5	1	188360	-61.78402	-1.346485E-010	0.0060076	5
	55	22	3.158693	105509.1	-191523.9	1	218663.1	-61.14996	-1.521129E-010	0.0059827	5
	56	24	2.504006	125756.4	-221741.6	1	254919.6	-60.4411	2.132272E-010	0.0059886	5
	57	25	1.998082	147359.2	-255172.8	1	294665.8	-59.99409	9.438944E-011	0.006	5
	58	27	1.584686	173745.1	-294654	1	342064.8	-59.47393	-1.04854E-010	0.005952	5
	59	29	1.266892	201841.8	-340060.3	1	395450.6	-59.30888	-1.106665E-010	0.0059531	5
	60	31	0.999041	234925.3	-395505.1	1	460015.3	-59.2902	-1.001313E-010	0.0059701	5
