EXPLAIN
TAG	EISPOT
TITLE	LABEL	Potentiostatic EIS	Test &Identifier
DATE	LABEL	10/6/2019	Date
TIME	LABEL	9:37:17	Time
NOTES	NOTES	2	&Notes...
	
	
PSTAT	PSTAT	REF600-11020	Potentiostat
VDC	POTEN	0.00000E+000	T	DC &Voltage (V)
FREQINIT	QUANT	1.00000E+006	Initial Fre&q. (Hz)
FREQFINAL	QUANT	1.00000E+000	Final Fre&q. (Hz)
PTSPERDEC	QUANT	1.00000E+001	Points/&decade
VAC	QUANT	2.50000E+001	AC &Voltage (mV rms)
AREA	QUANT	1.00000E-002	&Area (cm^2)
CONDIT	TWOPARAM	T	5.00000E+000	0.00000E+000	Conditionin&g	Time(s)	E(V)
DELAY	TWOPARAM	T	5.00000E+000	0.00000E+000	Init. De&lay	Time(s)	Stab.(mV/s)
SPEED	SELECTOR	1	&Optimize for:
ZGUESS	QUANT	1.00000E+004	E&stimated Z (ohms)
OCVCURVE	TABLE	19
	Pt	T	Vf	Vm	Ach	Over
	#	s	V vs. Ref.	V	V	bits
	0	0.258333	5.93407E-003	5.93407E-003	5.44199E-004	...........
	1	0.516667	5.93256E-003	5.85522E-003	5.49133E-004	...........
	2	0.775	5.92366E-003	5.79857E-003	5.40133E-004	...........
	3	1.03333	5.89971E-003	5.74915E-003	5.42766E-004	...........
	4	1.29167	5.85987E-003	5.72091E-003	5.51399E-004	...........
	5	1.55	5.81221E-003	5.68951E-003	5.53032E-004	...........
	6	1.80833	5.76654E-003	5.67244E-003	5.50466E-004	...........
	7	2.06667	5.72833E-003	5.65476E-003	5.47366E-004	...........
	8	2.325	5.69859E-003	5.64363E-003	5.52033E-004	...........
	9	2.58333	5.67607E-003	5.63428E-003	5.53032E-004	...........
	10	2.84167	5.65911E-003	5.62808E-003	5.43999E-004	...........
	11	3.1	5.64635E-003	5.62442E-003	5.42599E-004	...........
	12	3.35833	5.63698E-003	5.62463E-003	5.44066E-004	...........
	13	3.61667	5.63051E-003	5.62209E-003	5.40666E-004	...........
	14	3.875	5.62651E-003	5.62361E-003	5.38899E-004	...........
	15	4.13333	5.62438E-003	5.62542E-003	5.43633E-004	...........
	16	4.39167	5.62374E-003	5.63102E-003	5.47433E-004	...........
	17	4.65	5.62456E-003	5.63327E-003	5.45233E-004	...........
	18	4.90833	5.62680E-003	5.64181E-003	5.44266E-004	...........
EOC	QUANT	0.0056268	Open Circuit (V)
PSTATMODEL	IQUANT	4	Pstat Model
PSTATSECTION	LABEL	REF600-11020	Pstat Section
PSTATSERIALNO	LABEL	11020	Pstat Serial Number
CTRLMODE	IQUANT	1	Control Mode
IESTAB	IQUANT	0	I/E Stability
CASPEED	IQUANT	1	Control Amp Speed
CONVENTION	IQUANT	1	Current Convention
ICHRANGE	IQUANT	2	Ich Range
ICHRANGEMODE	TOGGLE	F	Ich Auto Range
ICHOFFSETENABLE	TOGGLE	T	Ich Offset Enable
ICHOFFSET	QUANT	0	Ich Offset (V)
ICHFILTER	IQUANT	3	Ich Filter
VCHRANGE	IQUANT	2	Vch Range
VCHRANGEMODE	TOGGLE	F	Vch Auto Range
VCHOFFSETENABLE	TOGGLE	T	Vch Offset Enable
VCHOFFSET	QUANT	0	Vch Offset (V)
VCHFILTER	IQUANT	3	Vch Filter
ACHRANGE	IQUANT	2	Ach Range
ACHOFFSETENABLE	TOGGLE	F	Ach Offset Enable
ACHOFFSET	QUANT	0	Ach Offset (V)
ACHFILTER	IQUANT	3	Ach Filter
IERANGELOWERLIMIT	IQUANT	1	I/E Range Lower Limit
IERANGEMODE	TOGGLE	F	I/E AutoRange
IERANGE	IQUANT	6	I/E Range
POSFEEDENABLE	TOGGLE	F	Positive Feedback IR Comp
POSFEEDRESISTANCE	QUANT	0	Positive Feedback Resistance (ohm)
ACHSELECT	IQUANT	0	Ach Select
CABLEID	IQUANT	14	Cable ID
DCCALDATE	LABEL	8/19/2019	DC Calibration Date
ACCALDATE	LABEL	8/19/2019	AC Calibration Date
THERMOSELECT	IQUANT	1	Thermo Select
FRAMEWORKVERSION	QUANT	6.33	Framework Version
INSTRUMENTVERSION	LABEL	3.50	Instrument Version
ZCURVE	TABLE
	Pt	Time	Freq	Zreal	Zimag	Zsig	Zmod	Zphz	Idc	Vdc	IERange
	#	s	Hz	ohm	ohm	V	ohm	°	A	V	#
	0	1	1000078	2324.144	-1554.882	1	2796.302	-33.78303	-3.322047E-006	0.0088545	8
	1	3	794390.6	2632.489	-1484.526	1	3022.22	-29.41974	2.090107E-006	0.0074198	8
	2	4	630984.4	2892.54	-1356.991	1	3195.029	-25.13291	-3.375128E-006	0.008172	8
	3	5	501234.4	3121.722	-1199.803	1	3344.35	-21.02377	-2.185705E-006	0.0081705	8
	4	7	398109.4	3296.655	-1046.669	1	3458.822	-17.61434	9.472302E-007	0.0071228	8
	5	8	316265.6	3432.265	-899.4819	1	3548.17	-14.68507	3.721765E-006	0.0066966	8
	6	9	251203.1	3517.418	-764.8625	1	3599.617	-12.26799	2.923117E-007	0.0073797	8
	7	11	199546.9	3595.823	-657.9891	1	3655.529	-10.36966	2.484365E-006	0.0068459	8
	8	12	158578.1	3650.996	-559.5663	1	3693.627	-8.713578	2.26739E-006	0.0068112	8
	9	13	125953.1	3716.18	-460.4553	1	3744.598	-7.063265	-4.506236E-007	0.007774	7
	10	15	100078.1	3740.555	-400.1223	1	3761.895	-6.105639	6.465682E-009	0.007281	7
	11	16	79453.13	3768.901	-368.8014	1	3786.902	-5.588819	-6.168106E-008	0.0073698	7
	12	17	63140.62	3796.229	-347.9833	1	3812.145	-5.23741	-8.873164E-008	0.007414	7
	13	19	50203.12	3823.758	-336.1632	1	3838.506	-5.024205	-4.479283E-008	0.0072978	7
	14	20	39890.62	3848.823	-332.8741	1	3863.19	-4.943054	-5.222197E-008	0.0074054	7
	15	22	31640.63	3876.596	-339.3868	1	3891.424	-5.003354	1.341822E-008	0.007211	7
	16	23	25171.88	3903.808	-353.8836	1	3919.815	-5.179755	-8.731893E-008	0.0074122	7
	17	24	20015.62	3933.523	-377.4262	1	3951.588	-5.480819	-1.080223E-008	0.0073142	7
	18	26	15890.62	3963.572	-410.4907	1	3984.772	-5.912806	-6.040118E-008	0.0073642	7
	19	27	12609.37	3996.7	-454.1004	1	4022.414	-6.482083	5.668736E-009	0.0072662	7
	20	28	10078.13	4029.872	-508.6726	1	4061.849	-7.194141	-8.758203E-009	0.0073156	7
	21	30	8015.625	4068.273	-578.3988	1	4109.184	-8.091687	1.869707E-008	0.0073814	7
	22	31	6328.125	4107.897	-669.1672	1	4162.043	-9.252088	-9.9959E-009	0.0073134	7
	23	32	5015.625	4152.086	-780.7753	1	4224.858	-10.64977	4.786664E-008	0.0072345	7
	24	34	3984.375	4198.799	-918.188	1	4298.021	-12.33519	-1.028969E-008	0.0072699	7
	25	35	3170.956	4251.321	-1086.043	1	4387.849	-14.3303	8.22535E-009	0.0072604	7
	26	37	2527.573	4310.998	-1290.658	1	4500.055	-16.66704	-6.08372E-008	0.0073585	7
	27	38	1976.103	4385.969	-1567.597	1	4657.691	-19.66749	6.831387E-009	0.0072575	7
	28	39	1577.524	4465.34	-1879.719	1	4844.854	-22.82904	-9.08641E-009	0.0072661	7
	29	41	1265.625	4558.809	-2247.386	1	5082.665	-26.24221	1.909712E-008	0.0073809	7
	30	42	998.264	4672.563	-2732.096	1	5412.688	-30.31527	1.014468E-008	0.0072663	7
	31	43	796.875	4797.516	-3296.313	1	5820.811	-34.49247	9.017643E-009	0.0072592	7
	32	45	627.7902	4954.231	-4031.421	1	6387.234	-39.13638	1.805721E-008	0.0073768	7
	33	46	505.5147	5107.315	-4845.458	1	7040.109	-43.4929	-5.156753E-008	0.0073937	7
	34	47	397.9953	5341.597	-5953.697	1	7998.698	-48.10186	4.453248E-009	0.0073016	7
	35	49	315.5048	5597.352	-7285.091	1	9187.105	-52.46386	6.219063E-009	0.007305	7
	36	50	252.4038	5898.59	-8857.505	1	10641.84	-56.33866	1.198266E-009	0.007242	6
	37	52	198.6229	6298.6	-10943.36	1	12626.54	-60.07683	1.317264E-009	0.007247	6
	38	53	158.3615	6775.524	-13374.45	1	14992.79	-63.13314	1.350306E-009	0.0072394	6
	39	54	125.558	7396.219	-16438.66	1	18025.92	-65.77567	1.213643E-009	0.007246	6
	40	56	100.4464	8173.836	-20058.89	1	21660.35	-67.8295	1.112083E-009	0.0072457	6
	41	57	79.00281	9292.724	-24800.16	1	26484.01	-69.45882	1.287493E-009	0.0072456	6
	42	58	63.3446	10479.55	-29941.44	1	31722.41	-70.70988	7.286053E-010	0.0072378	6
	43	60	49.86702	12592.4	-37198.4	1	39272	-71.29802	8.908159E-010	0.0072399	6
	44	61	39.72458	14753.93	-45314.88	1	47656.23	-71.96542	7.839667E-010	0.0072405	6
	45	62	31.6723	17772.18	-54980.34	1	57781.39	-72.08678	2.539065E-010	0.0072411	6
	46	64	24.93351	22151.93	-67283.21	1	70836	-71.77669	5.201423E-010	0.0072337	6
	47	65	19.86229	27575.74	-81292.16	1	85841.93	-71.26215	2.523552E-010	0.0072411	6
	48	67	15.83615	34468.11	-97187.3	1	103118.5	-70.47263	6.732686E-010	0.007245	6
	49	68	12.40079	44552.92	-118497.5	1	126596.3	-69.39465	7.071546E-010	0.0072461	5
	50	69	9.93114	56236.72	-139724.2	1	150616.8	-68.07602	8.558041E-010	0.0072477	5
	51	71	7.944915	70870.08	-164235.8	1	178874.1	-66.65911	6.220494E-010	0.0072513	5
	52	73	6.317385	89162.61	-192901.6	1	212511.2	-65.19276	-3.212776E-011	0.0072648	5
	53	75	5.008013	111841.3	-224623.7	1	250926.9	-63.53104	4.779477E-010	0.0072536	5
	54	77	3.945707	139414.3	-260895	1	295808.3	-61.88131	4.162872E-011	0.0072436	5
	55	80	3.158693	169004.4	-297600.3	1	342240.3	-60.40817	3.180279E-010	0.0072692	5
	56	83	2.504006	203915.7	-340819.2	1	397164.1	-59.10748	-2.250428E-010	0.0072425	5
	57	86	1.998082	241331.5	-386471.2	1	455632.4	-58.01733	-5.836164E-011	0.0072116	5
	58	89	1.584686	282658.5	-438438.8	1	521655.4	-57.1904	3.14947E-012	0.0072673	5
	59	93	1.266892	326865.5	-498211.7	1	595865.8	-56.73203	2.180753E-012	0.0072052	5
	60	97	0.999041	376785.6	-570919.2	1	684043.9	-56.57666	1.052802E-010	0.0072895	5
