EXPLAIN
TAG	EISPOT
TITLE	LABEL	Potentiostatic EIS	Test &Identifier
DATE	LABEL	11/20/2019	Date
TIME	LABEL	11:46:06	Time
NOTES	NOTES	4	&Notes...
	
	
	
	
PSTAT	PSTAT	REF600-11020	Potentiostat
VDC	POTEN	0.00000E+000	T	DC &Voltage (V)
FREQINIT	QUANT	1.00000E+006	Initial Fre&q. (Hz)
FREQFINAL	QUANT	1.00000E+000	Final Fre&q. (Hz)
PTSPERDEC	QUANT	1.00000E+001	Points/&decade
VAC	QUANT	2.50000E+001	AC &Voltage (mV rms)
AREA	QUANT	1.00000E-002	&Area (cm^2)
CONDIT	TWOPARAM	T	5.00000E+000	0.00000E+000	Conditionin&g	Time(s)	E(V)
DELAY	TWOPARAM	T	5.00000E+000	0.00000E+000	Init. De&lay	Time(s)	Stab.(mV/s)
SPEED	SELECTOR	1	&Optimize for:
ZGUESS	QUANT	1.00000E+005	E&stimated Z (ohms)
OCVCURVE	TABLE	19
	Pt	T	Vf	Vm	Ach	Over
	#	s	V vs. Ref.	V	V	bits
	0	0.258333	4.58314E-003	4.58314E-003	5.70232E-004	...........
	1	0.516667	4.58099E-003	4.47067E-003	5.61666E-004	...........
	2	0.775	4.56811E-003	4.38057E-003	5.62932E-004	...........
	3	1.03333	4.53288E-003	4.30225E-003	5.69066E-004	...........
	4	1.29167	4.47276E-003	4.23709E-003	5.70132E-004	...........
	5	1.55	4.39789E-003	4.18655E-003	5.63799E-004	...........
	6	1.80833	4.32200E-003	4.14010E-003	5.60732E-004	...........
	7	2.06667	4.25399E-003	4.10104E-003	5.67332E-004	...........
	8	2.325	4.19633E-003	4.06033E-003	5.65999E-004	...........
	9	2.58333	4.14758E-003	4.03342E-003	5.59132E-004	...........
	10	2.84167	4.10565E-003	4.00729E-003	5.58699E-004	...........
	11	3.1	4.06942E-003	3.98590E-003	5.69266E-004	...........
	12	3.35833	4.03820E-003	3.95500E-003	5.69199E-004	...........
	13	3.61667	4.01060E-003	3.93678E-003	5.67566E-004	...........
	14	3.875	3.98510E-003	3.91433E-003	5.65832E-004	...........
	15	4.13333	3.96116E-003	3.90141E-003	5.70032E-004	...........
	16	4.39167	3.93909E-003	3.87854E-003	5.67532E-004	...........
	17	4.65	3.91905E-003	3.86964E-003	5.68999E-004	...........
	18	4.90833	3.90087E-003	3.85462E-003	5.70132E-004	...........
EOC	QUANT	0.0039009	Open Circuit (V)
PSTATMODEL	IQUANT	4	Pstat Model
PSTATSECTION	LABEL	REF600-11020	Pstat Section
PSTATSERIALNO	LABEL	11020	Pstat Serial Number
CTRLMODE	IQUANT	1	Control Mode
IESTAB	IQUANT	0	I/E Stability
CASPEED	IQUANT	1	Control Amp Speed
CONVENTION	IQUANT	1	Current Convention
ICHRANGE	IQUANT	2	Ich Range
ICHRANGEMODE	TOGGLE	F	Ich Auto Range
ICHOFFSETENABLE	TOGGLE	T	Ich Offset Enable
ICHOFFSET	QUANT	0	Ich Offset (V)
ICHFILTER	IQUANT	3	Ich Filter
VCHRANGE	IQUANT	2	Vch Range
VCHRANGEMODE	TOGGLE	F	Vch Auto Range
VCHOFFSETENABLE	TOGGLE	T	Vch Offset Enable
VCHOFFSET	QUANT	0	Vch Offset (V)
VCHFILTER	IQUANT	3	Vch Filter
ACHRANGE	IQUANT	2	Ach Range
ACHOFFSETENABLE	TOGGLE	F	Ach Offset Enable
ACHOFFSET	QUANT	0	Ach Offset (V)
ACHFILTER	IQUANT	3	Ach Filter
IERANGELOWERLIMIT	IQUANT	1	I/E Range Lower Limit
IERANGEMODE	TOGGLE	F	I/E AutoRange
IERANGE	IQUANT	4	I/E Range
POSFEEDENABLE	TOGGLE	F	Positive Feedback IR Comp
POSFEEDRESISTANCE	QUANT	0	Positive Feedback Resistance (ohm)
ACHSELECT	IQUANT	0	Ach Select
CABLEID	IQUANT	14	Cable ID
DCCALDATE	LABEL	8/19/2019	DC Calibration Date
ACCALDATE	LABEL	8/19/2019	AC Calibration Date
THERMOSELECT	IQUANT	1	Thermo Select
FRAMEWORKVERSION	QUANT	6.33	Framework Version
INSTRUMENTVERSION	LABEL	3.50	Instrument Version
ZCURVE	TABLE
	Pt	Time	Freq	Zreal	Zimag	Zsig	Zmod	Zphz	Idc	Vdc	IERange
	#	s	Hz	ohm	ohm	V	ohm	°	A	V	#
	0	2	1000078	2227.145	-1398.389	1	2629.766	-32.12406	7.442124E-006	0.0046356	8
	1	3	794390.6	2483.374	-1304.131	1	2804.979	-27.70599	-3.651628E-006	0.006383	8
	2	4	630984.4	2708.712	-1210.787	1	2967.006	-24.08451	8.247843E-006	0.0048939	8
	3	6	501234.4	2897.689	-1107.063	1	3101.966	-20.90936	2.805796E-006	0.0055677	8
	4	7	398109.4	3056.644	-996.591	1	3215.006	-18.05809	5.310309E-006	0.0048871	8
	5	8	316265.6	3183.518	-898.7676	1	3307.956	-15.76538	-5.98056E-007	0.0059497	8
	6	10	251203.1	3291.265	-812.3851	1	3390.043	-13.86521	-1.164053E-006	0.0058924	8
	7	11	199546.9	3375.104	-733.7808	1	3453.949	-12.26579	-4.089526E-006	0.0058608	8
	8	13	158578.1	3461.615	-694.7599	1	3530.647	-11.34871	-5.529761E-007	0.0052798	8
	9	14	125953.1	3544.411	-593.5064	1	3593.759	-9.5059	5.139252E-007	0.0074977	7
	10	15	100078.1	3609.566	-549.4896	1	3651.151	-8.655766	-8.022757E-007	0.0070055	7
	11	17	79453.13	3658.762	-533.8029	1	3697.498	-8.300723	-2.58647E-007	0.0066982	7
	12	18	63140.62	3716.811	-527.1558	1	3754.009	-8.072427	-1.088187E-006	0.0064706	7
	13	19	50203.12	3778.611	-522.8777	1	3814.617	-7.878459	-1.093139E-006	0.0067937	7
	14	21	39890.62	3836.659	-530.8728	1	3873.213	-7.87791	-2.757071E-007	0.0047363	7
	15	22	31640.63	3900.536	-540.9172	1	3937.864	-7.895289	3.511611E-007	0.0059491	7
	16	23	25171.88	3961.404	-557.2171	1	4000.402	-8.00678	-9.770058E-007	0.0069402	7
	17	25	20015.62	4026.654	-584.6484	1	4068.877	-8.261306	-2.532947E-007	0.0067018	7
	18	26	15890.62	4094.537	-615.0541	1	4140.474	-8.54272	-1.091276E-006	0.0064664	7
	19	27	12609.37	4162.779	-659.2498	1	4214.658	-8.999064	9.807891E-007	0.0044714	7
	20	29	10078.13	4229.246	-707.6158	1	4288.034	-9.498456	7.072759E-008	0.0063407	7
	21	30	8015.625	4296.506	-769.8434	1	4364.931	-10.1584	5.533153E-007	0.0056692	7
	22	32	6328.125	4375.737	-847.8738	1	4457.125	-10.96614	6.889634E-007	0.0039131	7
	23	33	5015.625	4451.068	-942.4398	1	4549.748	-11.95487	3.535146E-007	0.0059514	7
	24	34	3984.375	4530.228	-1059.439	1	4652.459	-13.16263	9.665903E-007	0.0041864	7
	25	36	3170.956	4605.236	-1205.497	1	4760.402	-14.66899	5.513728E-007	0.0056681	7
	26	37	2527.573	4681.252	-1381.313	1	4880.794	-16.43992	-7.933949E-007	0.0069859	7
	27	38	1976.103	4767.016	-1631.582	1	5038.502	-18.89427	-1.092156E-006	0.0064689	7
	28	40	1577.524	4847.105	-1923.399	1	5214.776	-21.64387	-5.525652E-007	0.0069114	7
	29	41	1265.625	4935.352	-2270.098	1	5432.407	-24.70086	8.717618E-007	0.0039861	7
	30	43	998.264	5041.485	-2738.968	1	5737.466	-28.51461	3.554904E-007	0.0059518	7
	31	44	796.875	5163.088	-3301.034	1	6128.157	-32.59292	8.691364E-007	0.0039842	7
	32	45	627.7902	5307.219	-4038.466	1	6669.016	-37.26889	9.122642E-007	0.0048416	7
	33	47	505.5147	5470.997	-4860.141	1	7317.976	-41.61617	6.894235E-007	0.003908	7
	34	48	397.9953	5703.81	-5973.238	1	8259.117	-46.32177	4.675017E-009	0.0055014	7
	35	50	315.5048	5980.433	-7314.138	1	9447.867	-50.72872	4.58728E-009	0.0055135	7
	36	51	252.4038	6314.646	-8893.131	1	10906.99	-54.62301	1.430594E-010	0.0054509	6
	37	52	198.6229	6770.787	-10974.63	1	12895.19	-58.32753	2.460315E-010	0.0054487	6
	38	54	158.3615	7324.897	-13387.54	1	15260.42	-61.31504	7.645194E-010	0.0054459	6
	39	55	125.558	8064.353	-16406.67	1	18281.49	-63.82455	8.333867E-010	0.0054546	6
	40	56	100.4464	8984.375	-19913.85	1	21846.75	-65.71691	5.432622E-010	0.0054493	6
	41	58	79.00281	10241.66	-24605.16	1	26651.56	-67.40096	-3.309461E-010	0.0054384	6
	42	59	63.3446	11514.97	-29732.39	1	31884.32	-68.82926	1.063651E-009	0.005438	6
	43	61	49.86702	14230.17	-36197.36	1	38894.04	-68.53886	1.20531E-009	0.0054471	6
	44	62	39.72458	16923.11	-43987.67	1	47130.74	-68.95707	7.894359E-010	0.0054532	6
	45	63	31.6723	20752.04	-53209.17	1	57112.72	-68.69378	9.935077E-010	0.0054534	6
	46	65	24.93351	25740.81	-64180.59	1	69150.11	-68.14584	9.677024E-010	0.0054397	6
	47	66	19.86229	32063.64	-76577.36	1	83019.09	-67.28049	7.674677E-012	0.0054414	6
	48	68	15.83615	40593.82	-91409.43	1	100017.7	-66.05457	3.072987E-009	0.0054546	6
	49	69	12.40079	50942.05	-106219.5	1	117803.5	-64.37798	-3.393396E-010	0.0054547	5
	50	70	9.93114	63772.22	-123870.9	1	139323	-62.75932	-5.81684E-010	0.005461	5
	51	72	7.944915	77400.63	-143086.8	1	162679.7	-61.5895	-3.41E-011	0.0054553	5
	52	74	6.317385	94521.16	-163083	1	188494.9	-59.90388	-3.374122E-010	0.0054608	5
	53	76	5.008013	113631	-185982	1	217947.9	-58.57597	-5.726035E-011	0.0054427	5
	54	78	3.945707	134922.2	-212129.9	1	251402.2	-57.54217	4.119778E-010	0.0054559	5
	55	81	3.158693	156306.3	-240423	1	286766.3	-56.97089	-1.193998E-010	0.0054297	5
	56	84	2.504006	180301.1	-274353.6	1	328296.2	-56.68768	4.751098E-010	0.0054476	5
	57	87	1.998082	205399.3	-313213.1	1	374554.8	-56.74388	3.879004E-010	0.0054543	5
	58	90	1.584686	234959.5	-360504.8	1	430313.4	-56.90565	6.87128E-011	0.0053947	5
	59	94	1.266892	264932.5	-415311.8	1	492618.7	-57.4657	2.900185E-010	0.0054395	5
	60	98	0.999041	302649.2	-485938.3	1	572479.3	-58.08477	-1.618747E-010	0.0054338	5
