EXPLAIN
TAG	EISPOT
TITLE	LABEL	Potentiostatic EIS	Test &Identifier
DATE	LABEL	9/20/2019	Date
TIME	LABEL	11:02:06	Time
NOTES	NOTES	1	&Notes...
	
PSTAT	PSTAT	REF600-11020	Potentiostat
VDC	POTEN	0.00000E+000	T	DC &Voltage (V)
FREQINIT	QUANT	1.00000E+006	Initial Fre&q. (Hz)
FREQFINAL	QUANT	1.00000E+000	Final Fre&q. (Hz)
PTSPERDEC	QUANT	1.00000E+001	Points/&decade
VAC	QUANT	2.50000E+001	AC &Voltage (mV rms)
AREA	QUANT	1.00000E-002	&Area (cm^2)
CONDIT	TWOPARAM	T	5.00000E+000	0.00000E+000	Conditionin&g	Time(s)	E(V)
DELAY	TWOPARAM	T	5.00000E+000	0.00000E+000	Init. De&lay	Time(s)	Stab.(mV/s)
SPEED	SELECTOR	1	&Optimize for:
ZGUESS	QUANT	1.00000E+004	E&stimated Z (ohms)
OCVCURVE	TABLE	19
	Pt	T	Vf	Vm	Ach	Over
	#	s	V vs. Ref.	V	V	bits
	0	0.258333	1.12582E-003	1.12582E-003	5.75465E-004	...........
	1	0.516667	1.11776E-003	7.04016E-004	5.85032E-004	...........
	2	0.775	1.06869E-003	3.25423E-004	5.84499E-004	...........
	3	1.03333	9.34750E-004	1.47665E-004	5.84599E-004	...........
	4	1.29167	7.09340E-004	-2.24770E-004	5.77199E-004	...........
	5	1.55	4.26805E-004	-5.86675E-004	5.79232E-004	...........
	6	1.80833	1.17778E-004	-8.78493E-004	5.81565E-004	...........
	7	2.06667	-2.02199E-004	-1.05783E-003	5.81765E-004	...........
	8	2.325	-5.11288E-004	-1.18284E-003	5.79199E-004	...........
	9	2.58333	-7.84273E-004	-1.47554E-003	5.82732E-004	...........
	10	2.84167	-1.01955E-003	-1.77998E-003	5.78432E-004	...........
	11	3.1	-1.24242E-003	-1.94313E-003	5.78865E-004	...........
	12	3.35833	-1.46811E-003	-1.94084E-003	5.72466E-004	...........
	13	3.61667	-1.68003E-003	-2.21974E-003	5.74266E-004	...........
	14	3.875	-1.86215E-003	-2.38808E-003	5.80599E-004	...........
	15	4.13333	-2.02698E-003	-2.55855E-003	5.76132E-004	...........
	16	4.39167	-2.19351E-003	-2.70373E-003	5.80399E-004	...........
	17	4.65	-2.36352E-003	-2.84390E-003	5.76532E-004	...........
	18	4.90833	-2.52886E-003	-2.98096E-003	5.77366E-004	...........
EOC	QUANT	-0.0025289	Open Circuit (V)
PSTATMODEL	IQUANT	4	Pstat Model
PSTATSECTION	LABEL	REF600-11020	Pstat Section
PSTATSERIALNO	LABEL	11020	Pstat Serial Number
CTRLMODE	IQUANT	1	Control Mode
IESTAB	IQUANT	0	I/E Stability
CASPEED	IQUANT	1	Control Amp Speed
CONVENTION	IQUANT	1	Current Convention
ICHRANGE	IQUANT	2	Ich Range
ICHRANGEMODE	TOGGLE	F	Ich Auto Range
ICHOFFSETENABLE	TOGGLE	T	Ich Offset Enable
ICHOFFSET	QUANT	0	Ich Offset (V)
ICHFILTER	IQUANT	3	Ich Filter
VCHRANGE	IQUANT	2	Vch Range
VCHRANGEMODE	TOGGLE	F	Vch Auto Range
VCHOFFSETENABLE	TOGGLE	T	Vch Offset Enable
VCHOFFSET	QUANT	0	Vch Offset (V)
VCHFILTER	IQUANT	3	Vch Filter
ACHRANGE	IQUANT	2	Ach Range
ACHOFFSETENABLE	TOGGLE	F	Ach Offset Enable
ACHOFFSET	QUANT	0	Ach Offset (V)
ACHFILTER	IQUANT	3	Ach Filter
IERANGELOWERLIMIT	IQUANT	1	I/E Range Lower Limit
IERANGEMODE	TOGGLE	F	I/E AutoRange
IERANGE	IQUANT	5	I/E Range
POSFEEDENABLE	TOGGLE	F	Positive Feedback IR Comp
POSFEEDRESISTANCE	QUANT	0	Positive Feedback Resistance (ohm)
ACHSELECT	IQUANT	0	Ach Select
CABLEID	IQUANT	14	Cable ID
DCCALDATE	LABEL	8/19/2019	DC Calibration Date
ACCALDATE	LABEL	8/19/2019	AC Calibration Date
THERMOSELECT	IQUANT	1	Thermo Select
FRAMEWORKVERSION	QUANT	6.33	Framework Version
INSTRUMENTVERSION	LABEL	3.50	Instrument Version
ZCURVE	TABLE
	Pt	Time	Freq	Zreal	Zimag	Zsig	Zmod	Zphz	Idc	Vdc	IERange
	#	s	Hz	ohm	ohm	V	ohm	°	A	V	#
	0	2	1000078	2290.677	-1739.65	1	2876.384	-37.21479	5.754945E-006	-0.0016196	8
	1	3	794390.6	2634.051	-1713.542	1	3142.364	-33.04541	-2.33906E-006	-0.0004367	8
	2	5	630984.4	2976.098	-1627.405	1	3391.991	-28.67094	4.018167E-006	-0.0014529	8
	3	6	501234.4	3276.342	-1512.019	1	3608.409	-24.77315	1.025153E-006	-0.00128	8
	4	7	398109.4	3515.012	-1349.245	1	3765.072	-20.9994	-3.51139E-006	-0.0001756	8
	5	9	316265.6	3696.471	-1178.104	1	3879.668	-17.67762	3.758803E-006	-0.0015847	8
	6	10	251203.1	3860.743	-1022.711	1	3993.904	-14.83687	4.526045E-006	-0.0018254	8
	7	12	199546.9	3974.85	-900.1873	1	4075.509	-12.76056	-1.229993E-006	-0.0006828	8
	8	13	158578.1	4051.756	-767.8018	1	4123.863	-10.73024	-1.082678E-006	-0.0006843	8
	9	15	125953.1	4145.138	-623.4294	1	4191.757	-8.553187	-3.936605E-007	-0.0003765	7
	10	16	100078.1	4192.503	-551.6929	1	4228.646	-7.496499	-4.007813E-008	-0.0009412	7
	11	17	79453.13	4235.271	-500.2277	1	4264.709	-6.735997	3.893887E-008	-0.0010994	7
	12	19	63140.62	4274.889	-462.6878	1	4299.855	-6.177298	-9.162974E-009	-0.000924	7
	13	20	50203.12	4310.668	-437.0638	1	4332.769	-5.789502	-1.463874E-008	-0.0009299	7
	14	21	39890.62	4342.838	-424.6581	1	4363.551	-5.584829	-7.440466E-008	-0.0008525	7
	15	23	31640.63	4376.769	-424.8102	1	4397.337	-5.543776	6.855388E-008	-0.0010886	7
	16	24	25171.88	4413.03	-434.886	1	4434.407	-5.628092	4.217842E-008	-0.0011019	7
	17	25	20015.62	4447.097	-455.8772	1	4470.402	-5.853014	-1.893461E-008	-0.0009928	7
	18	27	15890.62	4484.753	-491.0663	1	4511.559	-6.248813	3.581347E-008	-0.0010154	7
	19	28	12609.37	4527.189	-535.1528	1	4558.709	-6.741571	-3.792785E-008	-0.0009332	7
	20	29	10078.13	4566.769	-592.3734	1	4605.028	-7.390791	-4.688372E-008	-0.000878	7
	21	31	8015.625	4612.957	-665.4215	1	4660.704	-8.208325	-1.028813E-008	-0.0010231	7
	22	32	6328.125	4664.375	-762.1611	1	4726.234	-9.280144	1.487311E-008	-0.0010509	7
	23	33	5015.625	4717.844	-880.595	1	4799.323	-10.57271	-4.978415E-008	-0.0008216	7
	24	35	3984.375	4777.888	-1025.403	1	4886.683	-12.11276	-3.444454E-008	-0.0009588	7
	25	36	3170.956	4841.71	-1201.711	1	4988.613	-13.93912	-3.45594E-009	-0.0009637	7
	26	37	2527.573	4912.722	-1417.209	1	5113.054	-16.09166	8.187288E-008	-0.001143	7
	27	39	1976.103	5001.637	-1706.353	1	5284.696	-18.83754	-7.200435E-008	-0.0008554	7
	28	40	1577.524	5098.176	-2032.85	1	5488.522	-21.73917	-3.364913E-008	-0.0009623	7
	29	42	1265.625	5181.879	-2430.617	1	5723.615	-25.12944	-3.254429E-008	-0.000961	7
	30	43	998.264	5340.909	-2926.392	1	6090.08	-28.71922	1.317463E-007	-0.0011756	7
	31	44	796.875	5489.874	-3513.012	1	6517.666	-32.61549	3.842082E-008	-0.0010277	7
	32	46	627.7902	5675.087	-4267.344	1	7100.481	-36.94109	4.174604E-008	-0.0011166	7
	33	47	505.5147	5873.773	-5106.672	1	7783.271	-41.00377	-4.52398E-008	-0.0008852	7
	34	48	397.9953	6124.431	-6237.671	1	8741.693	-45.52483	4.83593E-009	-0.0009609	7
	35	50	315.5048	6412.259	-7589.534	1	9935.7	-49.80614	1.747936E-009	-0.0010244	6
	36	51	252.4038	6732.652	-9186.726	1	11389.67	-53.76353	6.51717E-010	-0.0010265	6
	37	52	198.6229	7145.125	-11304.02	1	13372.87	-57.70354	8.908519E-010	-0.0010181	6
	38	54	158.3615	7616.866	-13775.35	1	15740.93	-61.06029	5.12461E-010	-0.0010189	6
	39	55	125.558	8214.668	-16902.19	1	18792.68	-64.07969	1.431028E-009	-0.0010201	6
	40	56	100.4464	8927.967	-20605.43	1	22456.46	-66.57378	4.262831E-010	-0.0010181	6
	41	58	79.00281	9923.72	-25528.47	1	27389.47	-68.75732	6.629285E-010	-0.0010192	6
	42	59	63.3446	11381.26	-30946.41	1	32972.92	-69.80783	1.071464E-009	-0.0010216	6
	43	60	49.86702	12699.83	-38499.04	1	40539.63	-71.74361	3.899732E-010	-0.0010247	6
	44	62	39.72458	14882.79	-46782.51	1	49092.78	-72.35271	8.925743E-010	-0.001015	6
	45	63	31.6723	17546.91	-57070.36	1	59706.95	-72.90938	6.63109E-010	-0.001017	6
	46	65	24.93351	21466.96	-70146.33	1	73357.6	-72.98426	1.267688E-009	-0.0010189	6
	47	66	19.86229	26210.84	-85256.92	1	89195.02	-72.91081	1.451844E-009	-0.0010138	6
	48	67	15.83615	31984.73	-102908.1	1	107764.1	-72.73431	1.386833E-009	-0.0010147	5
	49	69	12.40079	41678.18	-125626.8	1	132360	-71.64612	1.86876E-009	-0.0010217	5
	50	70	9.93114	51365.55	-150537.3	1	159059.4	-71.1596	1.20881E-009	-0.0010181	5
	51	72	7.944915	63766.59	-180331.6	1	191273.8	-70.52603	1.996384E-010	-0.0010169	5
	52	73	6.317385	81379.93	-214921	1	229812.4	-69.26081	2.354264E-010	-0.0010019	5
	53	75	5.008013	103244.5	-255597.9	1	275662.3	-68.00456	6.467795E-010	-0.0010123	5
	54	78	3.945707	131661	-304136.7	1	331411.8	-66.59217	4.252654E-010	-0.0010197	5
	55	80	3.158693	164416.5	-354992.4	1	391219.1	-65.14854	5.333537E-010	-0.0009985	5
	56	84	2.504006	206347.1	-415294.4	1	463733.3	-63.57862	2.069877E-010	-0.0010219	5
	57	86	1.998082	254991	-479405	1	543000.5	-61.99191	1.990316E-010	-0.0010415	5
	58	90	1.584686	315076.7	-549766.8	1	633653.5	-60.18256	2.662849E-010	-0.0009819	5
	59	93	1.266892	380991.8	-626662.4	1	733389.7	-58.70166	1.718415E-010	-0.001045	5
	60	97	0.999041	460346.9	-712996.6	1	848695.1	-57.15166	4.995027E-010	-0.0009808	5
