EXPLAIN
TAG	EISPOT
TITLE	LABEL	Potentiostatic EIS	Test &Identifier
DATE	LABEL	10/20/2019	Date
TIME	LABEL	9:59:14	Time
NOTES	NOTES	1	&Notes...
	
PSTAT	PSTAT	REF600-11020	Potentiostat
VDC	POTEN	0.00000E+000	T	DC &Voltage (V)
FREQINIT	QUANT	1.00000E+006	Initial Fre&q. (Hz)
FREQFINAL	QUANT	1.00000E+000	Final Fre&q. (Hz)
PTSPERDEC	QUANT	1.00000E+001	Points/&decade
VAC	QUANT	2.50000E+001	AC &Voltage (mV rms)
AREA	QUANT	1.00000E-002	&Area (cm^2)
CONDIT	TWOPARAM	T	5.00000E+000	0.00000E+000	Conditionin&g	Time(s)	E(V)
DELAY	TWOPARAM	T	5.00000E+000	0.00000E+000	Init. De&lay	Time(s)	Stab.(mV/s)
SPEED	SELECTOR	1	&Optimize for:
ZGUESS	QUANT	1.00000E+005	E&stimated Z (ohms)
OCVCURVE	TABLE	19
	Pt	T	Vf	Vm	Ach	Over
	#	s	V vs. Ref.	V	V	bits
	0	0.258333	4.69650E-003	4.69650E-003	5.64232E-004	...........
	1	0.516667	4.69397E-003	4.56388E-003	5.67466E-004	...........
	2	0.775	4.67585E-003	4.30383E-003	5.68366E-004	...........
	3	1.03333	4.61798E-003	4.15545E-003	5.70466E-004	...........
	4	1.29167	4.50875E-003	4.13799E-003	5.66699E-004	...........
	5	1.55	4.36892E-003	3.95555E-003	5.66566E-004	...........
	6	1.80833	4.22972E-003	3.86536E-003	5.66632E-004	...........
	7	2.06667	4.10269E-003	3.74333E-003	5.65266E-004	...........
	8	2.325	3.98448E-003	3.67175E-003	5.63899E-004	...........
	9	2.58333	3.87370E-003	3.59964E-003	5.63666E-004	...........
	10	2.84167	3.77352E-003	3.54218E-003	5.65099E-004	...........
	11	3.1	3.68655E-003	3.47475E-003	5.63999E-004	...........
	12	3.35833	3.61103E-003	3.39098E-003	5.65332E-004	...........
	13	3.61667	3.54133E-003	3.32494E-003	5.62499E-004	...........
	14	3.875	3.47173E-003	3.23547E-003	5.60266E-004	...........
	15	4.13333	3.40043E-003	3.22087E-003	5.60832E-004	...........
	16	4.39167	3.33427E-003	3.33076E-003	5.63466E-004	...........
	17	4.65	3.28662E-003	3.16453E-003	5.58466E-004	...........
	18	4.90833	3.25720E-003	3.07138E-003	5.61132E-004	...........
EOC	QUANT	0.0032572	Open Circuit (V)
PSTATMODEL	IQUANT	4	Pstat Model
PSTATSECTION	LABEL	REF600-11020	Pstat Section
PSTATSERIALNO	LABEL	11020	Pstat Serial Number
CTRLMODE	IQUANT	1	Control Mode
IESTAB	IQUANT	0	I/E Stability
CASPEED	IQUANT	1	Control Amp Speed
CONVENTION	IQUANT	1	Current Convention
ICHRANGE	IQUANT	2	Ich Range
ICHRANGEMODE	TOGGLE	F	Ich Auto Range
ICHOFFSETENABLE	TOGGLE	T	Ich Offset Enable
ICHOFFSET	QUANT	0	Ich Offset (V)
ICHFILTER	IQUANT	3	Ich Filter
VCHRANGE	IQUANT	2	Vch Range
VCHRANGEMODE	TOGGLE	F	Vch Auto Range
VCHOFFSETENABLE	TOGGLE	T	Vch Offset Enable
VCHOFFSET	QUANT	0	Vch Offset (V)
VCHFILTER	IQUANT	3	Vch Filter
ACHRANGE	IQUANT	2	Ach Range
ACHOFFSETENABLE	TOGGLE	F	Ach Offset Enable
ACHOFFSET	QUANT	0	Ach Offset (V)
ACHFILTER	IQUANT	3	Ach Filter
IERANGELOWERLIMIT	IQUANT	1	I/E Range Lower Limit
IERANGEMODE	TOGGLE	F	I/E AutoRange
IERANGE	IQUANT	4	I/E Range
POSFEEDENABLE	TOGGLE	F	Positive Feedback IR Comp
POSFEEDRESISTANCE	QUANT	0	Positive Feedback Resistance (ohm)
ACHSELECT	IQUANT	0	Ach Select
CABLEID	IQUANT	14	Cable ID
DCCALDATE	LABEL	8/19/2019	DC Calibration Date
ACCALDATE	LABEL	8/19/2019	AC Calibration Date
THERMOSELECT	IQUANT	1	Thermo Select
FRAMEWORKVERSION	QUANT	6.33	Framework Version
INSTRUMENTVERSION	LABEL	3.50	Instrument Version
ZCURVE	TABLE
	Pt	Time	Freq	Zreal	Zimag	Zsig	Zmod	Zphz	Idc	Vdc	IERange
	#	s	Hz	ohm	ohm	V	ohm	°	A	V	#
	0	1	1000078	2754.397	-1643.557	1	3207.489	-30.82466	-3.805751E-006	0.0063131	8
	1	3	794390.6	3059.911	-1525.173	1	3418.949	-26.49336	5.550087E-006	0.0042508	8
	2	4	630984.4	3323.877	-1374.347	1	3596.803	-22.46397	2.345852E-006	0.0042871	8
	3	5	501234.4	3522.211	-1198.279	1	3720.462	-18.78864	-2.03792E-006	0.0051978	8
	4	7	398109.4	3689.392	-1049.76	1	3835.833	-15.88289	3.452865E-006	0.004196	8
	5	8	316265.6	3828.606	-905.0397	1	3934.123	-13.29994	-1.906201E-006	0.0052747	8
	6	10	251203.1	3906.34	-762.0334	1	3979.973	-11.03841	-2.029398E-007	0.0047684	8
	7	11	199546.9	3981.844	-653.051	1	4035.042	-9.313999	-1.812917E-006	0.0053902	8
	8	12	158578.1	4025.155	-572.7907	1	4065.706	-8.098972	-2.470643E-006	0.0052876	8
	9	14	125953.1	4090.102	-442.5566	1	4113.975	-6.175484	5.305299E-007	0.0046045	7
	10	15	100078.1	4124.798	-393.3935	1	4143.515	-5.44798	1.419697E-009	0.0047251	7
	11	17	79453.13	4154.85	-368.4439	1	4171.154	-5.067621	1.002247E-008	0.0047905	7
	12	18	63140.62	4182.204	-350.0029	1	4196.824	-4.783858	-3.708866E-008	0.0048011	7
	13	19	50203.12	4211.635	-340.6227	1	4225.387	-4.623823	-9.923306E-008	0.0049425	7
	14	21	39890.62	4239.338	-339.5951	1	4252.918	-4.579938	1.26354E-007	0.0046033	7
	15	22	31640.63	4268.257	-347.05	1	4282.343	-4.648466	9.705463E-008	0.004603	7
	16	23	25171.88	4297.94	-361.8694	1	4313.147	-4.812725	-7.753165E-008	0.0049184	7
	17	25	20015.62	4330.083	-388.6534	1	4347.49	-5.128929	-3.93796E-008	0.0047955	7
	18	26	15890.62	4359.451	-419.6273	1	4379.601	-5.498176	8.628522E-009	0.0047587	7
	19	28	12609.37	4387.429	-465.6476	1	4412.07	-6.058249	5.97183E-008	0.0046214	7
	20	29	10078.13	4420.492	-522.6553	1	4451.283	-6.743041	-9.769378E-008	0.0050754	7
	21	30	8015.625	4464.922	-596.5471	1	4504.597	-7.610077	-9.881739E-008	0.005076	7
	22	32	6328.125	4492.615	-696.4298	1	4546.273	-8.811661	-1.604516E-008	0.0048676	7
	23	33	5015.625	4535.619	-816.8534	1	4608.588	-10.20938	5.138956E-009	0.0047842	7
	24	34	3984.375	4588.671	-962.562	1	4688.542	-11.84712	-6.350104E-009	0.0047815	7
	25	36	3170.956	4630.745	-1151.364	1	4771.733	-13.9626	3.644323E-008	0.0046649	7
	26	37	2527.573	4688.98	-1376.504	1	4886.85	-16.3602	9.686554E-008	0.0045957	7
	27	38	1976.103	4765.715	-1681.099	1	5053.527	-19.43022	-1.012677E-007	0.0049405	7
	28	40	1577.524	4864.21	-2008.447	1	5262.547	-22.43588	1.208485E-007	0.0046712	7
	29	41	1265.625	4947.203	-2428.153	1	5510.965	-26.14242	1.269978E-007	0.0046043	7
	30	43	998.264	5069.238	-2965.64	1	5873.006	-30.32878	4.811167E-008	0.0047412	7
	31	44	796.875	5215.986	-3582.827	1	6327.967	-34.48492	-6.418298E-008	0.004919	7
	32	45	627.7902	5385.119	-4384.916	1	6944.566	-39.15473	-3.873194E-008	0.0047924	7
	33	47	505.5147	5570.045	-5264.491	1	7664.22	-43.38458	5.841761E-008	0.0046155	7
	34	48	397.9953	5810.168	-6469.815	1	8695.778	-48.07482	6.044763E-009	0.0048062	7
	35	49	315.5048	6088.477	-7912.377	1	9983.75	-52.42216	5.7004E-009	0.0048046	7
	36	51	252.4038	6415.683	-9615.7	1	11559.53	-56.28842	1.794838E-009	0.0047433	6
	37	52	198.6229	6847.377	-11877.76	1	13710.14	-60.03711	1.276262E-009	0.0047456	6
	38	53	158.3615	7354.729	-14521.96	1	16278.19	-63.1398	1.057157E-010	0.0047414	6
	39	55	125.558	8029.262	-17840.13	1	19563.73	-65.76904	8.125497E-010	0.0047413	6
	40	56	100.4464	8878.979	-21779.2	1	23519.56	-67.82018	-7.825878E-010	0.0047439	6
	41	58	79.00281	9934.87	-26901.83	1	28677.7	-69.73077	1.58693E-010	0.0047389	6
	42	59	63.3446	11440.29	-32215.52	1	34186.54	-70.44917	9.920776E-010	0.0047424	6
	43	60	49.86702	13645.68	-40711.93	1	42937.93	-71.47006	1.566294E-009	0.004741	6
	44	62	39.72458	15874.59	-49174.65	1	51673.48	-72.10886	1.184603E-009	0.0047433	6
	45	63	31.6723	19134.9	-59751.39	1	62740.52	-72.24275	4.539294E-010	0.0047442	6
	46	65	24.93351	23724.97	-72933.7	1	76695.49	-71.98055	3.063167E-010	0.0047396	6
	47	66	19.86229	29059.84	-88087.36	1	92756.98	-71.74239	-5.489019E-012	0.0047396	6
	48	67	15.83615	36860.4	-105997.5	1	112223.7	-70.825	5.790275E-010	0.0047437	5
	49	69	12.40079	47277.12	-129487.4	1	137848.2	-69.94237	-1.191067E-009	0.0047474	5
	50	70	9.93114	58167.85	-152493.1	1	163210.5	-69.12086	1.045408E-009	0.0047393	5
	51	72	7.944915	72024.39	-180910	1	194720.2	-68.29137	3.941036E-010	0.0047346	5
	52	74	6.317385	90566.51	-213485.9	1	231902	-67.01203	6.492653E-010	0.0047507	5
	53	76	5.008013	114293	-251784.5	1	276511	-65.58519	3.298499E-010	0.0047529	5
	54	78	3.945707	142776.8	-296495.1	1	329081.4	-64.28693	3.20788E-010	0.0047456	5
	55	81	3.158693	175605	-343096.4	1	385424.8	-62.89555	3.164079E-011	0.0047457	5
	56	84	2.504006	216161.5	-396836.5	1	451890.4	-61.42236	5.254601E-010	0.0047415	5
	57	87	1.998082	262349.3	-454926.5	1	525152.6	-60.02859	9.544944E-011	0.0047879	5
	58	90	1.584686	314850.3	-519726.9	1	607656.8	-58.79254	2.466791E-010	0.0047335	5
	59	94	1.266892	374828.9	-590522.8	1	699438.3	-57.59504	1.77494E-010	0.0047779	5
	60	98	0.999041	444650.2	-672740.8	1	806408	-56.53716	-2.210873E-011	0.0047029	5
