EXPLAIN
TAG	EISPOT
TITLE	LABEL	Potentiostatic EIS	Test &Identifier
DATE	LABEL	10/4/2019	Date
TIME	LABEL	10:48:47	Time
NOTES	NOTES	2	&Notes...
	
	
PSTAT	PSTAT	REF600-11020	Potentiostat
VDC	POTEN	0.00000E+000	T	DC &Voltage (V)
FREQINIT	QUANT	1.00000E+006	Initial Fre&q. (Hz)
FREQFINAL	QUANT	1.00000E+000	Final Fre&q. (Hz)
PTSPERDEC	QUANT	1.00000E+001	Points/&decade
VAC	QUANT	2.50000E+001	AC &Voltage (mV rms)
AREA	QUANT	1.00000E-002	&Area (cm^2)
CONDIT	TWOPARAM	T	5.00000E+000	0.00000E+000	Conditionin&g	Time(s)	E(V)
DELAY	TWOPARAM	T	5.00000E+000	0.00000E+000	Init. De&lay	Time(s)	Stab.(mV/s)
SPEED	SELECTOR	1	&Optimize for:
ZGUESS	QUANT	1.00000E+004	E&stimated Z (ohms)
OCVCURVE	TABLE	19
	Pt	T	Vf	Vm	Ach	Over
	#	s	V vs. Ref.	V	V	bits
	0	0.258333	5.68042E-003	5.68042E-003	5.55966E-004	...........
	1	0.516667	5.68043E-003	5.68051E-003	5.61966E-004	...........
	2	0.775	5.68051E-003	5.68427E-003	5.63332E-004	...........
	3	1.03333	5.68122E-003	5.70084E-003	5.63199E-004	...........
	4	1.29167	5.68402E-003	5.71694E-003	5.60366E-004	...........
	5	1.55	5.68858E-003	5.62521E-003	5.63199E-004	...........
	6	1.80833	5.68921E-003	5.66328E-003	5.58266E-004	...........
	7	2.06667	5.68308E-003	5.75071E-003	5.60766E-004	...........
	8	2.325	5.67953E-003	5.70328E-003	5.59799E-004	...........
	9	2.58333	5.68545E-003	5.62850E-003	5.60966E-004	...........
	10	2.84167	5.69398E-003	5.83755E-003	5.56699E-004	...........
	11	3.1	5.70698E-003	5.92923E-003	5.66899E-004	...........
	12	3.35833	5.74153E-003	5.88382E-003	5.65099E-004	...........
	13	3.61667	5.79580E-003	5.81053E-003	5.70766E-004	...........
	14	3.875	5.84454E-003	6.03537E-003	5.65332E-004	...........
	15	4.13333	5.88093E-003	6.07850E-003	5.60299E-004	...........
	16	4.39167	5.92036E-003	5.89188E-003	5.68366E-004	...........
	17	4.65	5.96017E-003	6.02979E-003	5.59566E-004	...........
	18	4.90833	5.98818E-003	6.24980E-003	5.62866E-004	...........
EOC	QUANT	0.0059882	Open Circuit (V)
PSTATMODEL	IQUANT	4	Pstat Model
PSTATSECTION	LABEL	REF600-11020	Pstat Section
PSTATSERIALNO	LABEL	11020	Pstat Serial Number
CTRLMODE	IQUANT	1	Control Mode
IESTAB	IQUANT	0	I/E Stability
CASPEED	IQUANT	1	Control Amp Speed
CONVENTION	IQUANT	1	Current Convention
ICHRANGE	IQUANT	2	Ich Range
ICHRANGEMODE	TOGGLE	F	Ich Auto Range
ICHOFFSETENABLE	TOGGLE	T	Ich Offset Enable
ICHOFFSET	QUANT	0	Ich Offset (V)
ICHFILTER	IQUANT	3	Ich Filter
VCHRANGE	IQUANT	2	Vch Range
VCHRANGEMODE	TOGGLE	F	Vch Auto Range
VCHOFFSETENABLE	TOGGLE	T	Vch Offset Enable
VCHOFFSET	QUANT	0	Vch Offset (V)
VCHFILTER	IQUANT	3	Vch Filter
ACHRANGE	IQUANT	2	Ach Range
ACHOFFSETENABLE	TOGGLE	F	Ach Offset Enable
ACHOFFSET	QUANT	0	Ach Offset (V)
ACHFILTER	IQUANT	3	Ach Filter
IERANGELOWERLIMIT	IQUANT	1	I/E Range Lower Limit
IERANGEMODE	TOGGLE	F	I/E AutoRange
IERANGE	IQUANT	6	I/E Range
POSFEEDENABLE	TOGGLE	F	Positive Feedback IR Comp
POSFEEDRESISTANCE	QUANT	0	Positive Feedback Resistance (ohm)
ACHSELECT	IQUANT	0	Ach Select
CABLEID	IQUANT	14	Cable ID
DCCALDATE	LABEL	8/19/2019	DC Calibration Date
ACCALDATE	LABEL	8/19/2019	AC Calibration Date
THERMOSELECT	IQUANT	1	Thermo Select
FRAMEWORKVERSION	QUANT	6.33	Framework Version
INSTRUMENTVERSION	LABEL	3.50	Instrument Version
ZCURVE	TABLE
	Pt	Time	Freq	Zreal	Zimag	Zsig	Zmod	Zphz	Idc	Vdc	IERange
	#	s	Hz	ohm	ohm	V	ohm	°	A	V	#
	0	1	1000078	2469.942	-1581.177	1	2932.701	-32.62607	9.591182E-007	0.0082468	8
	1	3	794390.6	2779.327	-1499.122	1	3157.851	-28.34168	3.64157E-006	0.0072179	8
	2	4	630984.4	3049.208	-1373.945	1	3344.457	-24.25588	-1.762782E-006	0.0080265	8
	3	5	501234.4	3270.175	-1229.805	1	3493.775	-20.60963	4.937941E-007	0.0077162	8
	4	7	398109.4	3442.933	-1083.677	1	3609.452	-17.47161	5.563924E-007	0.0074681	8
	5	8	316265.6	3583.063	-939.2563	1	3704.125	-14.68889	2.034369E-007	0.0076244	8
	6	10	251203.1	3692.536	-801.2978	1	3778.478	-12.24362	3.04402E-006	0.0070328	8
	7	11	199546.9	3773.275	-685.4679	1	3835.032	-10.29629	3.535024E-007	0.0075637	8
	8	12	158578.1	3838.661	-592.3077	1	3884.089	-8.771597	2.940633E-006	0.0071207	8
	9	14	125953.1	3898.071	-490.2585	1	3928.78	-7.168424	2.114027E-007	0.0069009	7
	10	15	100078.1	3924.521	-430.18	1	3948.027	-6.255411	-1.371044E-008	0.0075421	7
	11	16	79453.13	3957.668	-393.1491	1	3977.147	-5.67307	-4.039379E-008	0.0076042	7
	12	18	63140.62	3987.355	-366.7954	1	4004.19	-5.255828	7.461566E-008	0.0074928	7
	13	19	50203.12	4016.125	-349.4213	1	4031.297	-4.972474	-3.677924E-008	0.0076396	7
	14	20	39890.62	4044.253	-341.9672	1	4058.685	-4.833224	8.337874E-009	0.0076215	7
	15	22	31640.63	4072.976	-342.47	1	4087.349	-4.806322	-1.370422E-008	0.0075233	7
	16	23	25171.88	4101.086	-351.8642	1	4116.153	-4.903843	4.561166E-008	0.0074824	7
	17	24	20015.62	4130.851	-370.1624	1	4147.402	-5.120555	-1.215399E-008	0.0075312	7
	18	26	15890.62	4162.094	-396.5335	1	4180.94	-5.442292	-4.613834E-008	0.0076303	7
	19	27	12609.37	4193.828	-433.541	1	4216.177	-5.902041	7.490161E-008	0.0074838	7
	20	29	10078.13	4225.479	-479.0319	1	4252.546	-6.467863	9.301031E-008	0.0074179	7
	21	30	8015.625	4261.839	-540.5055	1	4295.977	-7.227919	-3.600098E-008	0.0076355	7
	22	31	6328.125	4299.309	-618.9717	1	4343.637	-8.192582	-1.264784E-008	0.0075692	7
	23	33	5015.625	4338.169	-717.2249	1	4397.059	-9.387731	-5.479576E-008	0.0077188	7
	24	34	3984.375	4377.908	-837.5789	1	4457.31	-10.83091	3.566657E-008	0.0075082	7
	25	35	3170.956	4421.736	-988.904	1	4530.969	-12.60653	9.365731E-008	0.007405	7
	26	37	2527.573	4468.749	-1175.318	1	4620.724	-14.73554	-5.035879E-009	0.0075487	7
	27	38	1976.103	4524.553	-1428.275	1	4744.634	-17.51946	-3.821538E-008	0.0075974	7
	28	39	1577.524	4585.665	-1718.442	1	4897.077	-20.5431	1.332759E-008	0.0074756	7
	29	41	1265.625	4651.33	-2069.594	1	5090.981	-23.98652	1.263217E-008	0.0074741	7
	30	42	998.264	4737.796	-2537.922	1	5374.733	-28.17687	-1.141555E-008	0.0075162	7
	31	43	796.875	4836.31	-3086.871	1	5737.479	-32.54887	6.821317E-008	0.0074043	7
	32	45	627.7902	4963.008	-3805.877	1	6254.291	-37.48275	-2.58967E-008	0.0075484	7
	33	46	505.5147	5106.354	-4608.115	1	6878.196	-42.06396	-1.301884E-008	0.0075147	7
	34	48	397.9953	5302.523	-5701.218	1	7785.925	-47.07507	3.612854E-009	0.0075694	7
	35	49	315.5048	5543.28	-7012.125	1	8938.56	-51.67265	4.426483E-009	0.0075622	7
	36	50	252.4038	5837.333	-8557.344	1	10358.7	-55.70042	7.058225E-010	0.0074989	6
	37	52	198.6229	6240.508	-10598.8	1	12299.54	-59.51069	8.968886E-010	0.007502	6
	38	53	158.3615	6733.011	-12970.62	1	14614.05	-62.56631	1.088221E-009	0.0074994	6
	39	54	125.558	7387.639	-15945.52	1	17573.76	-65.14148	1.007021E-009	0.0075005	6
	40	56	100.4464	8199.768	-19429.29	1	21088.71	-67.11874	9.183106E-010	0.0074997	6
	41	57	79.00281	9378.15	-23989.26	1	25757.22	-68.64792	4.71766E-010	0.0075005	6
	42	58	63.3446	10738.44	-28998.28	1	30922.72	-69.67976	3.779396E-010	0.0075006	6
	43	60	49.86702	12811.95	-35775.96	1	38000.86	-70.29673	4.845151E-010	0.0074988	6
	44	61	39.72458	15222.65	-43381.48	1	45974.79	-70.66392	5.165503E-010	0.0075054	6
	45	62	31.6723	18419.12	-52482.41	1	55620.74	-70.66106	2.798596E-011	0.0074996	6
	46	64	24.93351	22900.71	-63776.45	1	67763.4	-70.24791	9.317587E-010	0.007496	6
	47	65	19.86229	28309.3	-76582.73	1	81647.61	-69.71284	3.397098E-010	0.0074998	6
	48	67	15.83615	35549.65	-91308.48	1	97984.8	-68.72726	1.046519E-009	0.0075022	6
	49	68	12.40079	44880.77	-110315.7	1	119095.9	-67.86157	6.056934E-011	0.0075008	5
	50	69	9.93114	55701.59	-129636.8	1	141097	-66.74805	7.270869E-010	0.0075066	5
	51	71	7.944915	69482.07	-152103.2	1	167221.8	-65.44866	1.012648E-009	0.0075074	5
	52	73	6.317385	86564.37	-178224.6	1	198134.8	-64.09398	2.803985E-010	0.0075209	5
	53	74	5.008013	107966	-207650.8	1	234041.7	-62.52827	-4.298632E-011	0.0075085	5
	54	77	3.945707	134503.8	-240901.3	1	275907	-60.82382	4.736977E-011	0.0075038	5
	55	79	3.158693	163437.2	-274512.7	1	319482.3	-59.23162	-2.099388E-011	0.0074944	5
	56	83	2.504006	197742.2	-312540	1	369842.2	-57.67871	3.28988E-010	0.0075149	5
	57	85	1.998082	235050.2	-352512.2	1	423690.3	-56.3052	4.707502E-010	0.0075162	5
	58	88	1.584686	277854.6	-395837.3	1	483622.1	-54.9334	1.108431E-010	0.0074607	5
	59	92	1.266892	320469.7	-444080.6	1	547638.9	-54.18399	3.035137E-010	0.0075154	5
	60	96	0.999041	370167.7	-501631.4	1	623424.6	-53.57536	-2.558337E-010	0.0074735	5
