EXPLAIN
TAG	EISPOT
TITLE	LABEL	Potentiostatic EIS	Test &Identifier
DATE	LABEL	10/14/2019	Date
TIME	LABEL	10:06:45	Time
NOTES	NOTES	1	&Notes...
	
PSTAT	PSTAT	REF600-11020	Potentiostat
VDC	POTEN	0.00000E+000	T	DC &Voltage (V)
FREQINIT	QUANT	1.00000E+006	Initial Fre&q. (Hz)
FREQFINAL	QUANT	1.00000E+000	Final Fre&q. (Hz)
PTSPERDEC	QUANT	1.00000E+001	Points/&decade
VAC	QUANT	2.50000E+001	AC &Voltage (mV rms)
AREA	QUANT	1.00000E-002	&Area (cm^2)
CONDIT	TWOPARAM	T	5.00000E+000	0.00000E+000	Conditionin&g	Time(s)	E(V)
DELAY	TWOPARAM	T	5.00000E+000	0.00000E+000	Init. De&lay	Time(s)	Stab.(mV/s)
SPEED	SELECTOR	1	&Optimize for:
ZGUESS	QUANT	1.00000E+004	E&stimated Z (ohms)
OCVCURVE	TABLE	19
	Pt	T	Vf	Vm	Ach	Over
	#	s	V vs. Ref.	V	V	bits
	0	0.258333	6.07116E-003	6.07116E-003	5.46499E-004	...........
	1	0.516667	6.06845E-003	5.92935E-003	5.50699E-004	...........
	2	0.775	6.05362E-003	5.88926E-003	5.51766E-004	...........
	3	1.03333	6.01989E-003	5.96837E-003	5.46233E-004	...........
	4	1.29167	5.98066E-003	6.02924E-003	5.54299E-004	...........
	5	1.55	5.95915E-003	5.91680E-003	5.57266E-004	...........
	6	1.80833	5.95859E-003	5.99279E-003	5.57199E-004	...........
	7	2.06667	5.96744E-003	6.12799E-003	5.51033E-004	...........
	8	2.325	5.98803E-003	6.18177E-003	5.49733E-004	...........
	9	2.58333	6.03068E-003	6.19353E-003	5.53999E-004	...........
	10	2.84167	6.08885E-003	6.21123E-003	5.51166E-004	...........
	11	3.1	6.14413E-003	6.26034E-003	5.48766E-004	...........
	12	3.35833	6.18828E-003	6.33448E-003	5.49933E-004	...........
	13	3.61667	6.22759E-003	6.36325E-003	5.50066E-004	...........
	14	3.875	6.26979E-003	6.40730E-003	5.48733E-004	...........
	15	4.13333	6.31508E-003	6.44882E-003	5.50933E-004	...........
	16	4.39167	6.35901E-003	6.43071E-003	5.45899E-004	...........
	17	4.65	6.39565E-003	6.42812E-003	5.48899E-004	...........
	18	4.90833	6.42111E-003	6.51301E-003	5.44733E-004	...........
EOC	QUANT	0.0064211	Open Circuit (V)
PSTATMODEL	IQUANT	4	Pstat Model
PSTATSECTION	LABEL	REF600-11020	Pstat Section
PSTATSERIALNO	LABEL	11020	Pstat Serial Number
CTRLMODE	IQUANT	1	Control Mode
IESTAB	IQUANT	0	I/E Stability
CASPEED	IQUANT	1	Control Amp Speed
CONVENTION	IQUANT	1	Current Convention
ICHRANGE	IQUANT	2	Ich Range
ICHRANGEMODE	TOGGLE	F	Ich Auto Range
ICHOFFSETENABLE	TOGGLE	T	Ich Offset Enable
ICHOFFSET	QUANT	0	Ich Offset (V)
ICHFILTER	IQUANT	3	Ich Filter
VCHRANGE	IQUANT	2	Vch Range
VCHRANGEMODE	TOGGLE	F	Vch Auto Range
VCHOFFSETENABLE	TOGGLE	T	Vch Offset Enable
VCHOFFSET	QUANT	0	Vch Offset (V)
VCHFILTER	IQUANT	3	Vch Filter
ACHRANGE	IQUANT	2	Ach Range
ACHOFFSETENABLE	TOGGLE	F	Ach Offset Enable
ACHOFFSET	QUANT	0	Ach Offset (V)
ACHFILTER	IQUANT	3	Ach Filter
IERANGELOWERLIMIT	IQUANT	1	I/E Range Lower Limit
IERANGEMODE	TOGGLE	F	I/E AutoRange
IERANGE	IQUANT	6	I/E Range
POSFEEDENABLE	TOGGLE	F	Positive Feedback IR Comp
POSFEEDRESISTANCE	QUANT	0	Positive Feedback Resistance (ohm)
ACHSELECT	IQUANT	0	Ach Select
CABLEID	IQUANT	14	Cable ID
DCCALDATE	LABEL	8/19/2019	DC Calibration Date
ACCALDATE	LABEL	8/19/2019	AC Calibration Date
THERMOSELECT	IQUANT	1	Thermo Select
FRAMEWORKVERSION	QUANT	6.33	Framework Version
INSTRUMENTVERSION	LABEL	3.50	Instrument Version
ZCURVE	TABLE
	Pt	Time	Freq	Zreal	Zimag	Zsig	Zmod	Zphz	Idc	Vdc	IERange
	#	s	Hz	ohm	ohm	V	ohm	°	A	V	#
	0	1	1000078	1399.762	-2675.818	1	3019.823	-62.38523	-8.93787E-007	0.0089033	8
	1	3	794390.6	1561.015	-3181.746	1	3544.048	-63.86671	2.649917E-009	0.0085837	8
	2	4	630984.4	1747.222	-3794.492	1	4177.434	-65.27569	-3.643274E-006	0.009197	8
	3	6	501234.4	1965.329	-4538.737	1	4945.973	-66.58679	7.315693E-007	0.0082203	8
	4	7	398109.4	2237.755	-5446.299	1	5888.1	-67.66341	-2.779605E-006	0.0087051	8
	5	9	316265.6	2549.595	-6578.838	1	7055.604	-68.81642	-6.231603E-008	0.0081884	8
	6	10	251203.1	3031.656	-7942.877	1	8501.778	-69.10902	2.490204E-006	0.0075874	8
	7	12	199546.9	3607.35	-9675.41	1	10326.01	-69.55269	2.47095E-006	0.0075712	8
	8	14	158578.1	4232.132	-11574.3	1	12323.78	-69.91512	1.264444E-006	0.0077887	8
	9	16	125953.1	5175.67	-14031.03	1	14955.18	-69.75233	-7.340547E-007	0.0096384	7
	10	18	100078.1	6500.068	-16884.91	1	18092.85	-68.94513	-3.370048E-008	0.0081859	7
	11	19	79453.13	8114.106	-20256.51	1	21821.21	-68.17056	-6.334668E-008	0.0081415	7
	12	21	63140.62	10219.38	-24213.06	1	26281.33	-67.11731	-3.763528E-008	0.0080975	7
	13	22	50203.12	12918.28	-28680.62	1	31455.68	-65.75231	-7.851543E-009	0.0080111	7
	14	24	39890.62	16372.91	-33907.12	1	37653.22	-64.22525	9.491121E-008	0.0079988	7
	15	26	31640.63	20888.67	-39495.09	1	44678.84	-62.12596	-4.016414E-008	0.0080764	7
	16	27	25171.88	26454.99	-45720.57	1	52822.7	-59.94532	-4.340302E-008	0.0081512	7
	17	29	20015.62	35039	-53386.11	1	63857.72	-56.72184	9.507124E-008	0.0079994	7
	18	30	15890.62	42271.8	-59040.09	1	72612.93	-54.39792	3.763708E-008	0.0079368	7
	19	32	12609.37	53277.14	-64953.12	1	84008.1	-50.64003	-8.411338E-009	0.0081277	6
	20	34	10078.13	64962.32	-70162.74	1	95618.6	-47.20399	-5.335E-009	0.0080171	6
	21	35	8015.625	78551.96	-73432.8	1	107530.4	-43.07089	6.840596E-009	0.0078299	6
	22	37	6328.125	92411.19	-76945.14	1	120251.3	-39.78208	2.31999E-010	0.0080955	6
	23	38	5015.625	106725.8	-77665.67	1	131993.8	-36.04384	2.562506E-009	0.0078325	6
	24	40	3984.375	119079.5	-77134.3	1	141879	-32.93333	-4.53056E-009	0.0079369	6
	25	41	3170.956	132716.1	-75185.12	1	152533.2	-29.53202	-6.958383E-009	0.0081265	6
	26	43	2527.573	144196.6	-72738.57	1	161504.1	-26.76821	-1.212383E-008	0.0081075	6
	27	44	1976.103	155905.3	-70453.48	1	171085.2	-24.31818	-9.963375E-009	0.0081088	6
	28	46	1577.524	166071.5	-67953.21	1	179436.3	-22.25342	-9.93763E-009	0.0081083	6
	29	48	1265.625	174836.5	-64017.29	1	186188.1	-20.11046	-1.382004E-009	0.0081291	5
	30	49	998.264	182993	-63106.67	1	193568.8	-19.02718	-1.011031E-009	0.0081271	5
	31	51	796.875	190571.1	-63618.94	1	200909.7	-18.46072	5.70021E-011	0.0078978	5
	32	52	627.7902	198609.7	-64373.92	1	208781.7	-17.95869	2.357795E-012	0.008076	5
	33	53	505.5147	206683.3	-65396.71	1	216782.7	-17.5579	-7.985451E-010	0.0081524	5
	34	55	397.9953	214675.5	-67831.16	1	225137	-17.535	-1.919873E-010	0.0080147	5
	35	56	315.5048	223071.6	-70218.64	1	233862.4	-17.473	2.738547E-010	0.0080141	5
	36	57	252.4038	231871.1	-74188.18	1	243450.4	-17.7423	6.585374E-010	0.0080077	5
	37	59	198.6229	241069.5	-78608.63	1	253562.3	-18.06026	-2.556966E-010	0.0080063	5
	38	60	158.3615	250560	-83703.41	1	264171.4	-18.47269	-3.172384E-010	0.0080014	5
	39	62	125.558	260120.9	-90933.78	1	275557.3	-19.26875	3.013996E-010	0.0080081	5
	40	63	100.4464	270629.1	-98197.7	1	287893.9	-19.94329	4.409215E-011	0.0080071	5
	41	64	79.00281	284880.6	-108751	1	304932.4	-20.89398	5.707617E-011	0.0080052	5
	42	66	63.3446	312286.5	-113822.6	1	332383	-20.02586	-2.77056E-010	0.0080045	5
	43	68	49.86702	309975.5	-133094.4	1	337340.9	-23.23727	-2.912243E-010	0.0080012	5
	44	69	39.72458	324235.3	-149115.2	1	356880.8	-24.69762	-9.039665E-011	0.0080062	5
	45	71	31.6723	342154.5	-163747.7	1	379319.1	-25.57476	4.399108E-010	0.0080066	5
	46	72	24.93351	360755.8	-188996	1	407264.3	-27.64956	2.145566E-010	0.008009	5
	47	74	19.86229	382544	-210595.7	1	436681.2	-28.83339	1.276003E-010	0.0080153	5
	48	75	15.83615	417258.8	-243217.8	1	482969.8	-30.23767	-6.409435E-010	0.0080096	5
	49	76	12.40079	442554	-267845.7	1	517296.2	-31.18347	3.874023E-010	0.0080079	5
	50	78	9.93114	480486.6	-294234.3	1	563419.3	-31.48194	4.461025E-010	0.0080069	5
	51	79	7.944915	515128	-323095.1	1	608068.5	-32.09648	-5.035737E-010	0.0080046	5
	52	81	6.317385	560793.8	-359961.4	1	666379.7	-32.69553	4.657994E-010	0.0080148	6
	53	83	5.008013	606624.6	-398676.4	1	725903.8	-33.3131	6.911979E-010	0.0080124	6
	54	86	3.945707	658065.4	-439587.5	1	791383.1	-33.74291	3.110648E-010	0.0080109	6
	55	89	3.158693	708257.3	-483317.9	1	857452.4	-34.3098	2.361757E-010	0.0079959	6
	56	93	2.504006	764174.1	-535859.8	1	933331.5	-35.03919	-5.659451E-011	0.0080125	5
	57	96	1.998082	822361.3	-596286.2	1	1015793	-35.9455	2.008636E-010	0.0079737	4
	58	99	1.584686	887114.4	-668512.1	1	1110802	-37.00097	-1.155525E-010	0.0079662	4
	59	103	1.266892	951317	-749976.1	1	1211391	-38.25068	1.251836E-010	0.0079669	4
	60	107	0.999041	1029461	-854487	1	1337886	-39.6938	-1.225186E-010	0.0080314	4
