EXPLAIN
TAG	EISPOT
TITLE	LABEL	Potentiostatic EIS	Test &Identifier
DATE	LABEL	8/14/2018	Date
TIME	LABEL	5:11:32	Time
NOTES	NOTES	1	&Notes...
	
PSTAT	PSTAT	REF600-11020	Potentiostat
VDC	POTEN	0.00000E+000	T	DC &Voltage (V)
FREQINIT	QUANT	1.00000E+006	Initial Fre&q. (Hz)
FREQFINAL	QUANT	1.00000E+000	Final Fre&q. (Hz)
PTSPERDEC	QUANT	1.00000E+001	Points/&decade
VAC	QUANT	2.50000E+001	AC &Voltage (mV rms)
AREA	QUANT	1.00000E-002	&Area (cm^2)
CONDIT	TWOPARAM	T	5.00000E+000	0.00000E+000	Conditionin&g	Time(s)	E(V)
DELAY	TWOPARAM	T	5.00000E+000	0.00000E+000	Init. De&lay	Time(s)	Stab.(mV/s)
SPEED	SELECTOR	0	&Optimize for:
ZGUESS	QUANT	1.00000E+005	E&stimated Z (ohms)
OCVCURVE	TABLE	19
	Pt	T	Vf	Vm	Ach	Over
	#	s	V vs. Ref.	V	V	bits
	0	0.258333	2.65126E-003	2.65126E-003	5.61299E-004	...........
	1	0.516667	2.64890E-003	2.52816E-003	5.63399E-004	...........
	2	0.775	2.63472E-003	2.42492E-003	5.58533E-004	...........
	3	1.03333	2.59549E-003	2.32796E-003	5.58332E-004	...........
	4	1.29167	2.52721E-003	2.23883E-003	5.59199E-004	...........
	5	1.55	2.43925E-003	2.15854E-003	5.61366E-004	...........
	6	1.80833	2.34523E-003	2.08647E-003	5.66999E-004	...........
	7	2.06667	2.25467E-003	2.01821E-003	5.61899E-004	...........
	8	2.325	2.17153E-003	1.95687E-003	5.60399E-004	...........
	9	2.58333	2.09612E-003	1.89616E-003	5.66466E-004	...........
	10	2.84167	2.02726E-003	1.84367E-003	5.64032E-004	...........
	11	3.1	1.96369E-003	1.78969E-003	5.72299E-004	...........
	12	3.35833	1.90447E-003	1.74196E-003	5.63066E-004	...........
	13	3.61667	1.84891E-003	1.69335E-003	5.66099E-004	...........
	14	3.875	1.79644E-003	1.64916E-003	5.68632E-004	...........
	15	4.13333	1.74659E-003	1.60421E-003	5.60499E-004	...........
	16	4.39167	1.69901E-003	1.56553E-003	5.65032E-004	...........
	17	4.65	1.65357E-003	1.52402E-003	5.66966E-004	...........
	18	4.90833	1.61016E-003	1.48553E-003	5.63632E-004	...........
EOC	QUANT	0.0016102	Open Circuit (V)
PSTATMODEL	IQUANT	4	Pstat Model
PSTATSECTION	LABEL	REF600-11020	Pstat Section
PSTATSERIALNO	LABEL	11020	Pstat Serial Number
CTRLMODE	IQUANT	1	Control Mode
IESTAB	IQUANT	0	I/E Stability
CASPEED	IQUANT	1	Control Amp Speed
CONVENTION	IQUANT	1	Current Convention
ICHRANGE	IQUANT	2	Ich Range
ICHRANGEMODE	TOGGLE	F	Ich Auto Range
ICHOFFSETENABLE	TOGGLE	T	Ich Offset Enable
ICHOFFSET	QUANT	0	Ich Offset (V)
ICHFILTER	IQUANT	3	Ich Filter
VCHRANGE	IQUANT	2	Vch Range
VCHRANGEMODE	TOGGLE	F	Vch Auto Range
VCHOFFSETENABLE	TOGGLE	T	Vch Offset Enable
VCHOFFSET	QUANT	0	Vch Offset (V)
VCHFILTER	IQUANT	3	Vch Filter
ACHRANGE	IQUANT	2	Ach Range
ACHOFFSETENABLE	TOGGLE	F	Ach Offset Enable
ACHOFFSET	QUANT	0	Ach Offset (V)
ACHFILTER	IQUANT	3	Ach Filter
IERANGELOWERLIMIT	IQUANT	1	I/E Range Lower Limit
IERANGEMODE	TOGGLE	F	I/E AutoRange
IERANGE	IQUANT	4	I/E Range
POSFEEDENABLE	TOGGLE	F	Positive Feedback IR Comp
POSFEEDRESISTANCE	QUANT	0	Positive Feedback Resistance (ohm)
ACHSELECT	IQUANT	0	Ach Select
CABLEID	IQUANT	14	Cable ID
DCCALDATE	LABEL	8/19/2019	DC Calibration Date
ACCALDATE	LABEL	8/19/2019	AC Calibration Date
THERMOSELECT	IQUANT	1	Thermo Select
FRAMEWORKVERSION	QUANT	6.33	Framework Version
INSTRUMENTVERSION	LABEL	3.50	Instrument Version
ZCURVE	TABLE
	Pt	Time	Freq	Zreal	Zimag	Zsig	Zmod	Zphz	Idc	Vdc	IERange
	#	s	Hz	ohm	ohm	V	ohm	°	A	V	#
	0	1	1000078	2010.216	-855.0906	1	2184.525	-23.04357	-7.819491E-006	0.004596	8
	1	1	794390.6	2142.462	-824.2603	1	2295.55	-21.04302	3.027485E-006	0.0031959	8
	2	2	630984.4	2260.56	-799.177	1	2397.668	-19.47006	-1.42224E-006	0.0034365	8
	3	2	501234.4	2366.393	-769.7367	1	2488.436	-18.01859	4.460672E-007	0.0030076	8
	4	2	398109.4	2502.758	-745.6763	1	2611.48	-16.591	-7.771714E-007	0.0033034	8
	5	3	316265.6	2591.563	-720.712	1	2689.911	-15.54122	3.880509E-007	0.0030028	8
	6	3	251203.1	2712.964	-691.1366	1	2799.615	-14.29228	1.968047E-006	0.0026715	8
	7	3	199546.9	2815.811	-645.8192	1	2888.922	-12.91764	-8.128486E-007	0.0032892	8
	8	4	158578.1	2932.521	-589.2528	1	2991.137	-11.36156	-4.870687E-007	0.003172	8
	9	4	125953.1	3024.825	-521.9684	1	3069.531	-9.79062	3.975182E-007	0.0020781	7
	10	4	100078.1	3110.434	-456.5838	1	3143.767	-8.350866	-5.812277E-008	0.0031422	7
	11	5	79453.13	3165.734	-422.6749	1	3193.826	-7.604905	-1.963626E-008	0.0030926	7
	12	5	63140.62	3218.334	-384.0754	1	3241.17	-6.805483	6.614886E-008	0.0028985	7
	13	5	50203.12	3260.594	-349.8092	1	3279.305	-6.123491	3.760744E-008	0.0029116	7
	14	6	39890.62	3295.198	-320.7339	1	3310.77	-5.5593	-5.910884E-008	0.003125	7
	15	6	31640.63	3324.253	-298.4786	1	3337.626	-5.130725	2.220379E-008	0.0030159	7
	16	6	25171.88	3347.889	-287.2147	1	3360.187	-4.903387	6.013244E-008	0.0030229	7
	17	6	20015.62	3370.093	-279.5335	1	3381.666	-4.741565	-5.714077E-009	0.0029874	7
	18	7	15890.62	3385.281	-287.1009	1	3397.433	-4.847575	1.183779E-007	0.0028646	7
	19	7	12609.37	3403.179	-306.2693	1	3416.933	-5.142483	7.347016E-008	0.0028995	7
	20	7	10078.13	3421.971	-328.7015	1	3437.721	-5.486781	2.332581E-008	0.0030127	7
	21	8	8015.625	3432.834	-367.1535	1	3452.413	-6.104774	6.06012E-008	0.0030182	7
	22	8	6328.125	3455.777	-421.473	1	3481.384	-6.953557	-4.145176E-008	0.0030607	7
	23	8	5015.625	3476.84	-490.6159	1	3511.285	-8.031961	-4.617894E-008	0.0030759	7
	24	9	3984.375	3501.512	-581.1744	1	3549.416	-9.423932	6.835226E-008	0.0028864	7
	25	9	3170.956	3525.651	-689.5449	1	3592.449	-11.06619	6.919613E-008	0.0028821	7
	26	9	2527.573	3555.609	-826.1365	1	3650.323	-13.08044	-4.946375E-008	0.0030969	7
	27	10	1976.103	3593.818	-1009.977	1	3733.039	-15.69705	-1.269003E-008	0.0030737	7
	28	10	1577.524	3641.504	-1212.651	1	3838.108	-18.41819	-4.251127E-008	0.0030537	7
	29	10	1265.625	3680.861	-1474.431	1	3965.184	-21.82941	-1.633896E-008	0.0030777	7
	30	11	998.264	3742.737	-1812.116	1	4158.346	-25.83481	-5.075769E-008	0.0030921	7
	31	11	796.875	3812.491	-2208.548	1	4405.992	-30.0834	1.198734E-007	0.0028502	7
	32	11	627.7902	3904.552	-2724.835	1	4761.329	-34.90969	-4.26368E-008	0.0030481	7
	33	12	505.5147	4005.594	-3301.075	1	5190.557	-39.49249	-5.166721E-008	0.003128	7
	34	12	397.9953	4143.79	-4089.358	1	5821.842	-44.62121	8.155567E-010	0.0030457	7
	35	12	315.5048	4316.767	-5033.848	1	6631.297	-49.38532	2.101143E-009	0.0030455	7
	36	12	252.4038	4527.61	-6146.221	1	7633.825	-53.6228	2.305134E-009	0.0030422	7
	37	13	198.6229	4820.147	-7616.486	1	9013.583	-57.67204	1.874412E-009	0.0030425	7
	38	13	158.3615	5181.164	-9323.433	1	10666.34	-60.93845	7.168991E-010	0.0029811	6
	39	13	125.558	5666.24	-11466.58	1	12790.18	-63.7036	7.644294E-010	0.002981	6
	40	14	100.4464	6263.838	-13963.09	1	15303.71	-65.839	-5.479329E-010	0.0029834	6
	41	14	79.00281	7148.774	-17230.4	1	18654.54	-67.46677	-5.395304E-010	0.0029805	6
	42	14	63.3446	8172.476	-21069.24	1	22598.73	-68.7994	8.836551E-010	0.0029751	6
	43	15	49.86702	9638.38	-25811.83	1	27552.66	-69.5239	8.404214E-010	0.0029725	6
	44	15	39.72458	11600.16	-31162.67	1	33251.7	-69.58246	1.430337E-009	0.0029774	6
	45	16	31.6723	14157.09	-37601.26	1	40178.08	-69.36836	9.14704E-010	0.002978	6
	46	16	24.93351	17552.05	-45596.54	1	48858.15	-68.94616	-7.25949E-010	0.0029754	6
	47	16	19.86229	21751.85	-54531.19	1	58709.4	-68.25352	-2.233018E-009	0.0029773	6
	48	16	15.83615	27421.26	-64986.72	1	70535.09	-67.1226	2.876225E-009	0.0029743	6
	49	17	12.40079	34110.45	-77464.69	1	84642.2	-66.23441	-2.226014E-010	0.0029741	6
	50	17	9.93114	43038.53	-90385.4	1	100109.1	-64.53776	-1.22039E-009	0.0029756	6
	51	18	7.944915	53130.28	-104899.5	1	117587.2	-63.13837	-1.513623E-011	0.0029771	5
	52	18	6.317385	65393.59	-121155	1	137676.7	-61.64199	-8.307629E-011	0.0029822	5
	53	19	5.008013	80058.02	-139525.3	1	160862	-60.15329	-4.908991E-010	0.0029711	5
	54	20	3.945707	97446.5	-160080.5	1	187407.5	-58.66969	4.315027E-010	0.002978	5
	55	21	3.158693	115838.4	-181194.5	1	215058	-57.40905	-6.527334E-011	0.0029927	5
	56	23	2.504006	136995	-205780.9	1	247211.3	-56.34701	-3.717414E-010	0.0029756	5
	57	24	1.998082	159087	-231483.5	1	280879.5	-55.5012	1.577338E-010	0.0030099	5
	58	26	1.584686	183358.9	-262886.6	1	320515	-55.10488	2.105296E-010	0.0030198	5
	59	28	1.266892	207623.8	-297124.9	1	362478.8	-55.05507	7.023274E-011	0.0029873	5
	60	30	0.999041	235616.4	-339912.8	1	413588.9	-55.27157	-5.389559E-012	0.0029541	5
