EXPLAIN
TAG	EISPOT
TITLE	LABEL	Potentiostatic EIS	Test &Identifier
DATE	LABEL	11/20/2019	Date
TIME	LABEL	10:36:45	Time
NOTES	NOTES	4	&Notes...
	
	
	
	
PSTAT	PSTAT	REF600-11020	Potentiostat
VDC	POTEN	0.00000E+000	T	DC &Voltage (V)
FREQINIT	QUANT	1.00000E+006	Initial Fre&q. (Hz)
FREQFINAL	QUANT	1.00000E+000	Final Fre&q. (Hz)
PTSPERDEC	QUANT	1.00000E+001	Points/&decade
VAC	QUANT	2.50000E+001	AC &Voltage (mV rms)
AREA	QUANT	1.00000E-002	&Area (cm^2)
CONDIT	TWOPARAM	T	5.00000E+000	0.00000E+000	Conditionin&g	Time(s)	E(V)
DELAY	TWOPARAM	T	5.00000E+000	0.00000E+000	Init. De&lay	Time(s)	Stab.(mV/s)
SPEED	SELECTOR	1	&Optimize for:
ZGUESS	QUANT	1.00000E+005	E&stimated Z (ohms)
OCVCURVE	TABLE	19
	Pt	T	Vf	Vm	Ach	Over
	#	s	V vs. Ref.	V	V	bits
	0	0.258333	2.49174E-003	2.49174E-003	5.69366E-004	...........
	1	0.516667	2.48698E-003	2.24260E-003	5.59932E-004	...........
	2	0.775	2.45780E-003	2.00853E-003	5.63066E-004	...........
	3	1.03333	2.37547E-003	1.78970E-003	5.66732E-004	...........
	4	1.29167	2.22948E-003	1.60839E-003	5.71032E-004	...........
	5	1.55	2.03940E-003	1.44548E-003	5.58299E-004	...........
	6	1.80833	1.83696E-003	1.29850E-003	5.69066E-004	...........
	7	2.06667	1.64526E-003	1.16857E-003	5.74332E-004	...........
	8	2.325	1.47334E-003	1.04185E-003	5.70232E-004	...........
	9	2.58333	1.32063E-003	9.20188E-004	5.66932E-004	...........
	10	2.84167	1.18223E-003	7.86540E-004	5.66432E-004	...........
	11	3.1	1.05206E-003	6.64827E-004	5.78599E-004	...........
	12	3.35833	9.25544E-004	5.55228E-004	5.70166E-004	...........
	13	3.61667	8.01726E-004	4.51879E-004	5.66466E-004	...........
	14	3.875	6.82349E-004	3.44703E-004	5.70266E-004	...........
	15	4.13333	5.68685E-004	2.44485E-004	5.74832E-004	...........
	16	4.39167	4.60154E-004	1.45481E-004	5.64166E-004	...........
	17	4.65	3.55656E-004	5.69867E-005	5.66466E-004	...........
	18	4.90833	2.54889E-004	-3.36886E-005	5.64132E-004	...........
EOC	QUANT	0.0002549	Open Circuit (V)
PSTATMODEL	IQUANT	4	Pstat Model
PSTATSECTION	LABEL	REF600-11020	Pstat Section
PSTATSERIALNO	LABEL	11020	Pstat Serial Number
CTRLMODE	IQUANT	1	Control Mode
IESTAB	IQUANT	0	I/E Stability
CASPEED	IQUANT	1	Control Amp Speed
CONVENTION	IQUANT	1	Current Convention
ICHRANGE	IQUANT	2	Ich Range
ICHRANGEMODE	TOGGLE	F	Ich Auto Range
ICHOFFSETENABLE	TOGGLE	T	Ich Offset Enable
ICHOFFSET	QUANT	0	Ich Offset (V)
ICHFILTER	IQUANT	3	Ich Filter
VCHRANGE	IQUANT	2	Vch Range
VCHRANGEMODE	TOGGLE	F	Vch Auto Range
VCHOFFSETENABLE	TOGGLE	T	Vch Offset Enable
VCHOFFSET	QUANT	0	Vch Offset (V)
VCHFILTER	IQUANT	3	Vch Filter
ACHRANGE	IQUANT	2	Ach Range
ACHOFFSETENABLE	TOGGLE	F	Ach Offset Enable
ACHOFFSET	QUANT	0	Ach Offset (V)
ACHFILTER	IQUANT	3	Ach Filter
IERANGELOWERLIMIT	IQUANT	1	I/E Range Lower Limit
IERANGEMODE	TOGGLE	F	I/E AutoRange
IERANGE	IQUANT	3	I/E Range
POSFEEDENABLE	TOGGLE	F	Positive Feedback IR Comp
POSFEEDRESISTANCE	QUANT	0	Positive Feedback Resistance (ohm)
ACHSELECT	IQUANT	0	Ach Select
CABLEID	IQUANT	14	Cable ID
DCCALDATE	LABEL	8/19/2019	DC Calibration Date
ACCALDATE	LABEL	8/19/2019	AC Calibration Date
THERMOSELECT	IQUANT	1	Thermo Select
FRAMEWORKVERSION	QUANT	6.33	Framework Version
INSTRUMENTVERSION	LABEL	3.50	Instrument Version
ZCURVE	TABLE
	Pt	Time	Freq	Zreal	Zimag	Zsig	Zmod	Zphz	Idc	Vdc	IERange
	#	s	Hz	ohm	ohm	V	ohm	°	A	V	#
	0	1	1000078	2369.318	-1583.854	1	2849.958	-33.76213	-8.832099E-006	0.0030867	8
	1	3	794390.6	2677.794	-1504.735	1	3071.613	-29.33297	9.999444E-006	0.0012524	8
	2	4	630984.4	2950.836	-1375.721	1	3255.771	-24.9956	-2.31784E-006	0.0016392	8
	3	6	501234.4	3171.732	-1234.074	1	3403.355	-21.26027	-3.283697E-006	0.0024361	8
	4	7	398109.4	3346.436	-1079.839	1	3516.345	-17.88402	-1.994127E-006	0.0017283	8
	5	8	316265.6	3476.475	-938.4244	1	3600.906	-15.10614	-6.508726E-007	0.0021907	8
	6	10	251203.1	3582.265	-814.6041	1	3673.718	-12.81115	-3.253588E-007	0.0022074	8
	7	11	199546.9	3659.612	-709.3853	1	3727.732	-10.97026	-4.035663E-008	0.0015331	8
	8	12	158578.1	3727.036	-628.8286	1	3779.712	-9.5768	3.497699E-006	0.0017485	8
	9	14	125953.1	3780.373	-512.1625	1	3814.908	-7.71542	-3.127178E-008	0.0041666	7
	10	15	100078.1	3823.521	-460.6693	1	3851.173	-6.870052	-9.995589E-007	0.0032314	7
	11	17	79453.13	3856.446	-440.4625	1	3881.518	-6.515781	8.952087E-007	0.0002319	7
	12	18	63140.62	3892.048	-428.7067	1	3915.587	-6.285756	5.444875E-007	0.0019634	7
	13	19	50203.12	3927.988	-424.6931	1	3950.88	-6.170836	1.208688E-007	0.0004925	7
	14	21	39890.62	3964.277	-434.2034	1	3987.985	-6.250635	-2.639305E-007	0.0009646	7
	15	22	31640.63	4003.295	-452.8578	1	4028.827	-6.453936	-9.421854E-007	0.0022022	7
	16	23	25171.88	4045.01	-483.8747	1	4073.849	-6.821456	9.886027E-007	0.0004341	7
	17	25	20015.62	4093.35	-524.3433	1	4126.796	-7.29963	4.548206E-007	0.0002315	7
	18	26	15890.62	4141.367	-578.288	1	4181.547	-7.94921	7.188112E-007	0.0001453	7
	19	27	12609.37	4195.839	-643.1546	1	4244.846	-8.714689	-9.417385E-007	0.0021997	7
	20	29	10078.13	4259.672	-719.988	1	4320.092	-9.5937	1.237958E-007	0.0004953	7
	21	30	8015.625	4327.602	-815.1132	1	4403.697	-10.66682	-6.500222E-007	0.0015826	7
	22	31	6328.125	4413.174	-926.6756	1	4509.416	-11.85865	9.98304E-007	0.0007407	7
	23	33	5015.625	4502.901	-1057.979	1	4625.52	-13.22211	-9.388834E-007	0.0021987	7
	24	34	3984.375	4598.448	-1211.635	1	4755.396	-14.76124	-9.38974E-007	0.0022036	7
	25	36	3170.956	4715.347	-1390.686	1	4916.147	-16.43224	8.957056E-007	0.0002381	7
	26	37	2527.573	4837.238	-1597.166	1	5094.095	-18.27226	5.442109E-007	0.0019531	7
	27	38	1976.103	4981.284	-1867.075	1	5319.696	-20.54691	-6.476297E-007	0.0015819	7
	28	40	1577.524	5136.822	-2159.479	1	5572.278	-22.80149	8.957838E-007	0.0002212	7
	29	41	1265.625	5282.041	-2500.871	1	5844.169	-25.336	-9.976274E-007	0.0032083	7
	30	42	998.264	5457.497	-2947.009	1	6202.35	-28.36873	1.244276E-007	0.0004924	7
	31	44	796.875	5646.51	-3460.48	1	6622.537	-31.50217	1.242443E-007	0.0004908	7
	32	45	627.7902	5852.889	-4124.691	1	7160.265	-35.1734	7.516953E-007	0.0015633	7
	33	47	505.5147	6061.126	-4866.121	1	7772.797	-38.75893	-2.626741E-007	0.0009581	7
	34	48	397.9953	6318.326	-5879.616	1	8630.824	-42.94019	4.8085E-009	0.0017712	7
	35	49	315.5048	6601.026	-7100.032	1	9694.54	-47.08585	5.538178E-009	0.0017632	7
	36	51	252.4038	6919.352	-8549.419	1	10998.64	-51.01551	6.911908E-010	0.0016984	6
	37	52	198.6229	7328.125	-10478.63	1	12786.84	-55.03337	7.122981E-010	0.0017077	6
	38	53	158.3615	7804.367	-12740.33	1	14940.69	-58.50954	1.69342E-010	0.0017059	6
	39	55	125.558	8416.752	-15590.4	1	17717.29	-61.63683	6.741676E-010	0.0017097	6
	40	56	100.4464	9178.007	-18949.62	1	21055.26	-64.15736	4.421308E-010	0.0017096	6
	41	57	79.00281	10230.27	-23362.12	1	25503.86	-66.35139	3.162838E-010	0.0017096	6
	42	59	63.3446	11436.79	-28189.53	1	30421.2	-67.91708	6.895415E-010	0.0016992	6
	43	60	49.86702	13412.29	-34986.31	1	37469.08	-69.02526	5.22016E-010	0.0017039	6
	44	62	39.72458	15565.42	-42575.89	1	45331.98	-69.91798	3.848937E-010	0.0017133	6
	45	63	31.6723	18595.39	-51510.19	1	54763.93	-70.15021	7.053019E-010	0.0016989	6
	46	64	24.93351	22708.99	-63076.62	1	67039.98	-70.2	-1.902592E-010	0.0017119	6
	47	66	19.86229	27863.6	-76068.94	1	81011.5	-69.88251	2.023882E-010	0.0017	6
	48	67	15.83615	35125.91	-90743.38	1	97304.6	-68.83904	9.618584E-010	0.0017035	6
	49	68	12.40079	44676.07	-110561.7	1	119247	-67.99722	-1.031712E-009	0.0017186	5
	50	70	9.93114	55465.52	-130037.5	1	141372.5	-66.90007	2.740504E-010	0.0017043	5
	51	72	7.944915	68780.38	-152374.4	1	167178.6	-65.70602	-1.259885E-010	0.001715	5
	52	73	6.317385	86299.45	-177997	1	197814.4	-64.1342	-2.464327E-010	0.0017267	5
	53	75	5.008013	107500.7	-207097.2	1	233335.9	-62.56692	8.254011E-011	0.0017097	5
	54	78	3.945707	132749	-239715.4	1	274017.8	-61.0233	5.205215E-010	0.001725	5
	55	80	3.158693	160340.2	-273401.6	1	316950.2	-59.60991	-1.393398E-011	0.0017107	5
	56	84	2.504006	192448.9	-312067.1	1	366636.7	-58.33825	5.123078E-010	0.001709	5
	57	86	1.998082	226478.8	-353184.2	1	419561.3	-57.33005	-2.407132E-011	0.0017554	5
	58	90	1.584686	264585.2	-402522.3	1	481694.4	-56.68236	2.975261E-010	0.0017441	5
	59	93	1.266892	305433.2	-455340.1	1	548291.9	-56.14707	-9.288999E-012	0.0017563	5
	60	97	0.999041	351492.4	-521995.1	1	629305.8	-56.04512	2.863773E-010	0.0016954	5
