EXPLAIN
TAG	EISPOT
TITLE	LABEL	Potentiostatic IDE	Test &Identifier
DATE	LABEL	9/4/2019	Date
TIME	LABEL	11:21:45	Time
NOTES	NOTES	1	&Notes...
	
PSTAT	PSTAT	REF600-11020	Potentiostat
VDC	POTEN	0.00000E+000	T	DC &Voltage (V)
FREQINIT	QUANT	1.00000E+006	Initial Fre&q. (Hz)
FREQFINAL	QUANT	1.00000E+000	Final Fre&q. (Hz)
PTSPERDEC	QUANT	1.00000E+001	Points/&decade
VAC	QUANT	2.50000E+001	AC &Voltage (mV rms)
AREA	QUANT	1.00000E-002	&Area (cm^2)
CONDIT	TWOPARAM	T	5.00000E+000	0.00000E+000	Conditionin&g	Time(s)	E(V)
DELAY	TWOPARAM	T	5.00000E+000	0.00000E+000	Init. De&lay	Time(s)	Stab.(mV/s)
SPEED	SELECTOR	1	&Optimize for:
ZGUESS	QUANT	1.00000E+007	E&stimated Z (ohms)
OCVCURVE	TABLE	19
	Pt	T	Vf	Vm	Ach	Over
	#	s	V vs. Ref.	V	V	bits
	0	0.258333	1.50742E-001	1.50742E-001	5.67199E-004	...........
	1	0.516667	1.50928E-001	1.60470E-001	5.63966E-004	...........
	2	0.775	1.52058E-001	1.69125E-001	5.64832E-004	...........
	3	1.03333	1.55210E-001	1.76908E-001	5.66366E-004	...........
	4	1.29167	1.60728E-001	1.83961E-001	5.63299E-004	...........
	5	1.55	1.67845E-001	1.90387E-001	5.61332E-004	...........
	6	1.80833	1.75434E-001	1.96281E-001	5.56933E-004	...........
	7	2.06667	1.82719E-001	2.01693E-001	5.56266E-004	...........
	8	2.325	1.89398E-001	2.06702E-001	5.59199E-004	...........
	9	2.58333	1.95458E-001	2.11345E-001	5.58166E-004	...........
	10	2.84167	2.00981E-001	2.15672E-001	5.58099E-004	...........
	11	3.1	2.06058E-001	2.19710E-001	5.58533E-004	...........
	12	3.35833	2.10758E-001	2.23493E-001	5.58699E-004	...........
	13	3.61667	2.15130E-001	2.27046E-001	5.54466E-004	...........
	14	3.875	2.19211E-001	2.30397E-001	5.60232E-004	...........
	15	4.13333	2.23033E-001	2.33554E-001	5.56866E-004	...........
	16	4.39167	2.26621E-001	2.36541E-001	5.58699E-004	...........
	17	4.65	2.29998E-001	2.39368E-001	5.58366E-004	...........
	18	4.90833	2.33183E-001	2.42057E-001	5.56499E-004	...........
EOC	QUANT	0.233183	Open Circuit (V)
PSTATMODEL	IQUANT	4	Pstat Model
PSTATSECTION	LABEL	REF600-11020	Pstat Section
PSTATSERIALNO	LABEL	11020	Pstat Serial Number
CTRLMODE	IQUANT	1	Control Mode
IESTAB	IQUANT	0	I/E Stability
CASPEED	IQUANT	1	Control Amp Speed
CONVENTION	IQUANT	1	Current Convention
ICHRANGE	IQUANT	2	Ich Range
ICHRANGEMODE	TOGGLE	F	Ich Auto Range
ICHOFFSETENABLE	TOGGLE	T	Ich Offset Enable
ICHOFFSET	QUANT	0	Ich Offset (V)
ICHFILTER	IQUANT	3	Ich Filter
VCHRANGE	IQUANT	2	Vch Range
VCHRANGEMODE	TOGGLE	F	Vch Auto Range
VCHOFFSETENABLE	TOGGLE	T	Vch Offset Enable
VCHOFFSET	QUANT	0	Vch Offset (V)
VCHFILTER	IQUANT	3	Vch Filter
ACHRANGE	IQUANT	2	Ach Range
ACHOFFSETENABLE	TOGGLE	F	Ach Offset Enable
ACHOFFSET	QUANT	0	Ach Offset (V)
ACHFILTER	IQUANT	3	Ach Filter
IERANGELOWERLIMIT	IQUANT	1	I/E Range Lower Limit
IERANGEMODE	TOGGLE	F	I/E AutoRange
IERANGE	IQUANT	4	I/E Range
POSFEEDENABLE	TOGGLE	F	Positive Feedback IR Comp
POSFEEDRESISTANCE	QUANT	0	Positive Feedback Resistance (ohm)
ACHSELECT	IQUANT	0	Ach Select
CABLEID	IQUANT	14	Cable ID
DCCALDATE	LABEL	8/19/2019	DC Calibration Date
ACCALDATE	LABEL	8/19/2019	AC Calibration Date
THERMOSELECT	IQUANT	1	Thermo Select
FRAMEWORKVERSION	QUANT	6.33	Framework Version
INSTRUMENTVERSION	LABEL	3.50	Instrument Version
ZCURVE	TABLE
	Pt	Time	Freq	Zreal	Zimag	Zsig	Zmod	Zphz	Idc	Vdc	IERange
	#	s	Hz	ohm	ohm	V	ohm	°	A	V	#
	0	2	1000078	2088.857	-1024.86	1	2326.728	-26.13404	1.081074E-005	0.2342832	8
	1	4	794390.6	2242.783	-916.8765	1	2422.961	-22.23533	8.594605E-006	0.2342352	8
	2	5	630984.4	2369.712	-812.5921	1	2505.163	-18.92723	9.235323E-006	0.2343553	8
	3	7	501234.4	2468.664	-714.4229	1	2569.961	-16.14026	8.077607E-006	0.2344424	8
	4	8	398109.4	2557.491	-632.7574	1	2634.605	-13.89667	9.584136E-006	0.2342198	8
	5	10	316265.6	2614.105	-557.0716	1	2672.802	-12.02991	9.692249E-006	0.2333545	8
	6	11	251203.1	2691.135	-507.5282	1	2738.575	-10.68012	9.494687E-006	0.2341968	8
	7	13	199546.9	2705.064	-455.0007	1	2743.063	-9.54796	9.238061E-006	0.2341307	8
	8	15	158578.1	2745.221	-426.0872	1	2778.091	-8.822513	1.121713E-005	0.2338355	8
	9	16	125953.1	2784.677	-393.1559	1	2812.294	-8.036217	4.192793E-008	0.2359078	7
	10	18	100078.1	2821.857	-371.1734	1	2846.163	-7.493391	8.367132E-007	0.2344329	7
	11	19	79453.13	2855.83	-374.2216	1	2880.245	-7.465376	7.910631E-007	0.2345701	7
	12	20	63140.62	2890.258	-383.1478	1	2915.543	-7.551401	7.726888E-007	0.2345628	7
	13	22	50203.12	2927.399	-397.912	1	2954.319	-7.740594	8.481788E-007	0.2344588	7
	14	23	39890.62	2968.712	-424.8274	1	2998.955	-8.143826	8.196016E-007	0.2345091	7
	15	24	31640.63	3013.771	-456.7917	1	3048.192	-8.618616	7.782959E-007	0.2346053	7
	16	26	25171.88	3062.139	-495.6478	1	3101.993	-9.194338	8.082156E-007	0.2344705	7
	17	27	20015.62	3113.909	-546.6711	1	3161.531	-9.95725	8.488117E-007	0.2344511	7
	18	28	15890.62	3169.42	-608.3063	1	3227.268	-10.86465	8.218987E-007	0.2344659	7
	19	30	12609.37	3232.874	-678.4476	1	3303.296	-11.85204	8.382197E-007	0.2344186	7
	20	31	10078.13	3300.179	-761.1817	1	3386.824	-12.98805	8.071576E-007	0.2344649	7
	21	32	8015.625	3374.475	-859.798	1	3482.288	-14.2945	8.257711E-007	0.2344621	7
	22	34	6328.125	3462.118	-981.9	1	3598.665	-15.834	8.102659E-007	0.2344716	7
	23	35	5015.625	3557.664	-1125.461	1	3731.439	-17.55468	8.201594E-007	0.2344964	7
	24	36	3984.375	3663.125	-1290.329	1	3883.74	-19.40472	8.055543E-007	0.2345025	7
	25	38	3170.956	3778.993	-1487.745	1	4061.302	-21.48898	8.245491E-007	0.2344675	7
	26	39	2527.573	3911.925	-1718.535	1	4272.765	-23.71621	8.054449E-007	0.2344886	7
	27	40	1976.103	4074.884	-2017.394	1	4546.928	-26.3391	8.215393E-007	0.2344508	7
	28	42	1577.524	4250.13	-2345.498	1	4854.376	-28.89277	8.504542E-007	0.2344516	7
	29	43	1265.625	4441.377	-2720.402	1	5208.303	-31.48802	7.956873E-007	0.23454	7
	30	44	998.264	4681.13	-3192.911	1	5666.362	-34.29716	8.042008E-007	0.234487	7
	31	46	796.875	4943.709	-3735.154	1	6196.098	-37.07239	7.785975E-007	0.2346017	7
	32	47	627.7902	5265.548	-4415.012	1	6871.56	-39.97887	8.021818E-007	0.2345569	7
	33	48	505.5147	5600.237	-5134.996	1	7598.081	-42.51848	8.626452E-007	0.2344428	7
	34	50	397.9953	6027.068	-6086.899	1	8565.973	-45.28299	8.202271E-007	0.2341616	7
	35	51	315.5048	6503.267	-7188.332	1	9693.53	-47.86443	8.200603E-007	0.2341636	7
	36	52	252.4038	7025.252	-8445.824	1	10985.72	-50.24625	8.206617E-007	0.2341648	7
	37	54	198.6229	7666.753	-10057.93	1	12646.78	-52.68319	7.889295E-008	0.2341117	6
	38	55	158.3615	8359.733	-11897.51	1	14540.84	-54.90638	7.960579E-008	0.2341075	6
	39	56	125.558	9164.89	-14163.12	1	16869.77	-57.09328	7.954462E-008	0.234113	6
	40	58	100.4464	10046.43	-16799.07	1	19573.95	-59.11911	7.947139E-008	0.2341041	6
	41	59	79.00281	11136.08	-20211.95	1	23076.73	-61.14677	7.97042E-008	0.2340993	6
	42	60	63.3446	12227.63	-24067.08	1	26995.18	-63.06649	7.975305E-008	0.2341089	6
	43	62	49.86702	13849.77	-29089.9	1	32218.61	-64.54077	7.945667E-008	0.2340957	6
	44	63	39.72458	15489	-35047.79	1	38317.84	-66.15746	7.96147E-008	0.2341049	6
	45	64	31.6723	17564.46	-42160.08	1	45672.55	-67.38273	8.006964E-008	0.2341028	6
	46	66	24.93351	20153.75	-51349.28	1	55162.69	-68.5708	7.980304E-008	0.234108	6
	47	67	19.86229	23238.06	-61986.48	1	66199.17	-69.44952	8.012238E-008	0.2341171	6
	48	68	15.83615	27118.95	-74803.87	1	79567.93	-70.0727	7.967265E-008	0.2341105	6
	49	70	12.40079	32174.93	-91562.38	1	97051	-70.63857	7.979751E-008	0.2341102	6
	50	71	9.93114	38227.54	-110009.2	1	116461.9	-70.83797	7.980747E-008	0.2341071	6
	51	73	7.944915	45840.96	-131854.1	1	139595.5	-70.82927	8.201291E-009	0.2341181	5
	52	74	6.317385	55494.49	-159009.3	1	168415	-70.76094	8.072265E-009	0.2341089	5
	53	76	5.008013	68092.55	-192019.8	1	203735.6	-70.47487	7.773314E-009	0.2341201	5
	54	79	3.945707	84567.45	-232023.2	1	246954.3	-69.97429	7.632275E-009	0.2341085	5
	55	82	3.158693	103708.4	-276214.5	1	295042.2	-69.42068	7.432404E-009	0.2340952	5
	56	85	2.504006	129459.9	-330006.5	1	354491.4	-68.58017	7.770226E-009	0.2343912	5
	57	88	1.998082	160331.5	-390480.5	1	422115.1	-67.67693	7.404513E-009	0.2344248	5
	58	91	1.584686	198538	-462772.3	1	503562.8	-66.77976	7.601439E-009	0.2344174	5
	59	94	1.266892	246367.2	-542604.8	1	595916.8	-65.5798	7.375944E-009	0.2344226	5
	60	99	0.999041	306056.3	-637853.8	1	707479.9	-64.36728	7.700169E-009	0.2343771	5
