EXPLAIN
TAG	EISPOT
TITLE	LABEL	Potentiostatic EIS	Test &Identifier
DATE	LABEL	10/8/2019	Date
TIME	LABEL	10:11:29	Time
NOTES	NOTES	2	&Notes...
	
	
PSTAT	PSTAT	REF600-11020	Potentiostat
VDC	POTEN	0.00000E+000	T	DC &Voltage (V)
FREQINIT	QUANT	1.00000E+006	Initial Fre&q. (Hz)
FREQFINAL	QUANT	1.00000E+000	Final Fre&q. (Hz)
PTSPERDEC	QUANT	1.00000E+001	Points/&decade
VAC	QUANT	2.50000E+001	AC &Voltage (mV rms)
AREA	QUANT	1.00000E-002	&Area (cm^2)
CONDIT	TWOPARAM	T	5.00000E+000	0.00000E+000	Conditionin&g	Time(s)	E(V)
DELAY	TWOPARAM	T	5.00000E+000	0.00000E+000	Init. De&lay	Time(s)	Stab.(mV/s)
SPEED	SELECTOR	1	&Optimize for:
ZGUESS	QUANT	1.00000E+004	E&stimated Z (ohms)
OCVCURVE	TABLE	19
	Pt	T	Vf	Vm	Ach	Over
	#	s	V vs. Ref.	V	V	bits
	0	0.258333	4.48003E-003	4.48003E-003	5.54599E-004	...........
	1	0.516667	4.47942E-003	4.44808E-003	5.58766E-004	...........
	2	0.775	4.46837E-003	4.03542E-003	5.50933E-004	...........
	3	1.03333	4.41671E-003	3.84260E-003	5.51299E-004	...........
	4	1.29167	4.29417E-003	3.65614E-003	5.50099E-004	...........
	5	1.55	4.10791E-003	3.47549E-003	5.51666E-004	...........
	6	1.80833	3.89560E-003	3.28867E-003	5.56466E-004	...........
	7	2.06667	3.68763E-003	3.13213E-003	5.57532E-004	...........
	8	2.325	3.49456E-003	2.98903E-003	5.53333E-004	...........
	9	2.58333	3.31774E-003	2.86727E-003	5.50633E-004	...........
	10	2.84167	3.15680E-003	2.72055E-003	5.54666E-004	...........
	11	3.1	3.00986E-003	2.62536E-003	5.55966E-004	...........
	12	3.35833	2.87480E-003	2.53265E-003	5.52832E-004	...........
	13	3.61667	2.75441E-003	2.57636E-003	5.54933E-004	...........
	14	3.875	2.65734E-003	2.47687E-003	5.53133E-004	...........
	15	4.13333	2.58630E-003	2.38599E-003	5.50999E-004	...........
	16	4.39167	2.52808E-003	2.29210E-003	5.52566E-004	...........
	17	4.65	2.46432E-003	2.19696E-003	5.54999E-004	...........
	18	4.90833	2.38707E-003	2.09534E-003	5.49033E-004	...........
EOC	QUANT	0.0023871	Open Circuit (V)
PSTATMODEL	IQUANT	4	Pstat Model
PSTATSECTION	LABEL	REF600-11020	Pstat Section
PSTATSERIALNO	LABEL	11020	Pstat Serial Number
CTRLMODE	IQUANT	1	Control Mode
IESTAB	IQUANT	0	I/E Stability
CASPEED	IQUANT	1	Control Amp Speed
CONVENTION	IQUANT	1	Current Convention
ICHRANGE	IQUANT	2	Ich Range
ICHRANGEMODE	TOGGLE	F	Ich Auto Range
ICHOFFSETENABLE	TOGGLE	T	Ich Offset Enable
ICHOFFSET	QUANT	0	Ich Offset (V)
ICHFILTER	IQUANT	3	Ich Filter
VCHRANGE	IQUANT	2	Vch Range
VCHRANGEMODE	TOGGLE	F	Vch Auto Range
VCHOFFSETENABLE	TOGGLE	T	Vch Offset Enable
VCHOFFSET	QUANT	0	Vch Offset (V)
VCHFILTER	IQUANT	3	Vch Filter
ACHRANGE	IQUANT	2	Ach Range
ACHOFFSETENABLE	TOGGLE	F	Ach Offset Enable
ACHOFFSET	QUANT	0	Ach Offset (V)
ACHFILTER	IQUANT	3	Ach Filter
IERANGELOWERLIMIT	IQUANT	1	I/E Range Lower Limit
IERANGEMODE	TOGGLE	F	I/E AutoRange
IERANGE	IQUANT	5	I/E Range
POSFEEDENABLE	TOGGLE	F	Positive Feedback IR Comp
POSFEEDRESISTANCE	QUANT	0	Positive Feedback Resistance (ohm)
ACHSELECT	IQUANT	0	Ach Select
CABLEID	IQUANT	14	Cable ID
DCCALDATE	LABEL	8/19/2019	DC Calibration Date
ACCALDATE	LABEL	8/19/2019	AC Calibration Date
THERMOSELECT	IQUANT	1	Thermo Select
FRAMEWORKVERSION	QUANT	6.33	Framework Version
INSTRUMENTVERSION	LABEL	3.50	Instrument Version
ZCURVE	TABLE
	Pt	Time	Freq	Zreal	Zimag	Zsig	Zmod	Zphz	Idc	Vdc	IERange
	#	s	Hz	ohm	ohm	V	ohm	°	A	V	#
	0	1	1000078	2559.136	-1939.352	1	3210.959	-37.1554	-1.6241E-006	0.0050096	8
	1	3	794390.6	2973.388	-1893.328	1	3525.014	-32.48726	1.880999E-006	0.0041759	8
	2	5	630984.4	3321.337	-1807.561	1	3781.343	-28.55622	-4.398675E-006	0.004883	8
	3	6	501234.4	3646.434	-1683.098	1	4016.13	-24.77681	-2.036677E-006	0.0047345	8
	4	7	398109.4	3918.924	-1484.35	1	4190.616	-20.74492	-1.086119E-006	0.0044091	8
	5	9	316265.6	4154.238	-1336.916	1	4364.063	-17.8392	4.342032E-006	0.0033067	8
	6	10	251203.1	4317.384	-1157.469	1	4469.848	-15.00779	1.207052E-006	0.0039853	8
	7	12	199546.9	4440.572	-1009.259	1	4553.821	-12.80474	1.360964E-006	0.0039723	8
	8	14	158578.1	4538.453	-871.3491	1	4621.342	-10.86811	1.319394E-006	0.0039698	8
	9	15	125953.1	4649.972	-716.4625	1	4704.844	-8.759188	1.343033E-006	0.0010778	7
	10	16	100078.1	4701.936	-622.4869	1	4742.962	-7.541503	-6.703023E-008	0.004259	7
	11	18	79453.13	4755.019	-567.6611	1	4788.783	-6.807835	8.91051E-008	0.0038643	7
	12	19	63140.62	4796.791	-525.2637	1	4825.464	-6.249169	-6.746155E-008	0.0042447	7
	13	20	50203.12	4837.616	-499.7868	1	4863.364	-5.898451	-5.715639E-009	0.0040894	7
	14	22	39890.62	4879.034	-488.2101	1	4903.399	-5.714159	-4.26191E-008	0.0040658	7
	15	23	31640.63	4916.065	-489.7356	1	4940.399	-5.689003	1.053347E-008	0.0039664	7
	16	25	25171.88	4955.309	-503.1768	1	4980.79	-5.798111	-8.750454E-009	0.004188	7
	17	26	20015.62	4997.312	-529.056	1	5025.239	-6.043286	-6.701714E-009	0.0040587	7
	18	27	15890.62	5039.471	-574.9325	1	5072.161	-6.508499	-1.151799E-008	0.0039906	7
	19	29	12609.37	5083.062	-631.5721	1	5122.148	-7.08272	-3.515339E-009	0.004057	7
	20	30	10078.13	5130.031	-703.6236	1	5178.06	-7.809831	8.564442E-009	0.0039646	7
	21	31	8015.625	5167.216	-818.3786	1	5231.622	-8.999697	9.306733E-009	0.0039689	7
	22	33	6328.125	5238.569	-919.5947	1	5318.671	-9.95644	-3.359047E-009	0.0040536	7
	23	34	5015.625	5298.784	-1068.926	1	5405.526	-11.40523	-8.995367E-008	0.0041863	7
	24	35	3984.375	5381.189	-1257.771	1	5526.227	-13.15583	-1.041785E-008	0.0041872	7
	25	37	3170.956	5443.709	-1480.581	1	5641.462	-15.21527	-6.277496E-008	0.0042335	7
	26	38	2527.573	5527.487	-1757.193	1	5800.073	-17.63551	-9.841185E-009	0.0041917	7
	27	39	1976.103	5635.791	-2122.613	1	6022.261	-20.63792	-2.107321E-009	0.0040808	7
	28	41	1577.524	5745.181	-2533.182	1	6278.862	-23.79378	7.243889E-008	0.0039235	7
	29	42	1265.625	5887.458	-3029.406	1	6621.138	-27.22819	9.508669E-008	0.003847	7
	30	43	998.264	6054.965	-3674.438	1	7082.661	-31.25135	-5.649424E-008	0.0040846	7
	31	45	796.875	6243.583	-4416.4	1	7647.674	-35.27369	-1.281349E-008	0.0040004	7
	32	46	627.7902	6486.381	-5372.221	1	8422.227	-39.63261	9.2774E-008	0.003853	7
	33	48	505.5147	6722.278	-6446.138	1	9313.523	-43.79869	-3.451834E-008	0.0040464	7
	34	49	397.9953	7058.105	-7870.04	1	10571.39	-48.11322	5.497998E-010	0.0039963	6
	35	50	315.5048	7429.203	-9589.23	1	12130.39	-52.23346	3.56227E-010	0.0039918	6
	36	52	252.4038	7855.661	-11617.33	1	14024.04	-55.93336	3.226275E-010	0.0039951	6
	37	53	198.6229	8418.899	-14299.77	1	16594.01	-59.51282	1.021347E-009	0.0039927	6
	38	54	158.3615	9090.718	-17425.43	1	19654.18	-62.44928	2.517072E-010	0.0039873	6
	39	56	125.558	9953.38	-21358.21	1	23563.59	-65.01347	8.15309E-010	0.0039926	6
	40	57	100.4464	11046.26	-25959.52	1	28211.99	-66.94933	1.452717E-009	0.0039885	6
	41	58	79.00281	12461.97	-32058.29	1	34395.27	-68.75747	5.480644E-010	0.0039852	6
	42	60	63.3446	14526.86	-39033.34	1	41648.9	-69.58647	8.683138E-010	0.0039864	6
	43	61	49.86702	16557.07	-47617.54	1	50413.95	-70.82696	1.301737E-010	0.003986	6
	44	62	39.72458	19953.53	-58030.19	1	61364.86	-71.0246	6.491829E-010	0.0039927	6
	45	64	31.6723	24037.71	-70397.87	1	74388.65	-71.14726	1.244502E-009	0.003991	6
	46	65	24.93351	29595.89	-85694.49	1	90661.25	-70.94688	1.000872E-009	0.0039893	6
	47	67	19.86229	36501.81	-103327	1	109584.9	-70.54347	5.869724E-011	0.0039973	5
	48	68	15.83615	46261.71	-124733.7	1	133036.2	-69.65099	1.814773E-009	0.0039958	5
	49	69	12.40079	59272.45	-149511.4	1	160831.8	-68.37459	-6.70894E-010	0.0039999	5
	50	71	9.93114	73089.99	-177153.2	1	191638.7	-67.5799	-2.022308E-010	0.0039999	5
	51	72	7.944915	90793.43	-208594.5	1	227497.5	-66.4783	7.843061E-010	0.0039937	5
	52	74	6.317385	115180.5	-244135.8	1	269942.3	-64.74261	6.435289E-010	0.0039846	5
	53	76	5.008013	144750.4	-284709.6	1	319393.5	-63.05058	7.522202E-011	0.0039945	5
	54	78	3.945707	180712	-329817.9	1	376080.7	-61.28103	2.160789E-010	0.0039939	5
	55	81	3.158693	219126.7	-376440.9	1	435573.5	-59.79626	-1.135825E-010	0.003976	5
	56	84	2.504006	265337	-429199.9	1	504595.2	-58.2751	4.729584E-010	0.0039879	5
	57	87	1.998082	314800.1	-484575.7	1	577851.8	-56.99061	5.699056E-011	0.0040322	5
	58	90	1.584686	369342.7	-549412.9	1	662018.6	-56.08904	1.862889E-010	0.0040316	5
	59	94	1.266892	427404	-618663	1	751942.9	-55.3613	-1.10484E-010	0.0040054	5
	60	98	0.999041	492913.7	-705062.7	1	860277.4	-55.04237	3.054083E-010	0.004013	5
