EXPLAIN
TAG	EISPOT
TITLE	LABEL	Potentiostatic EIS	Test &Identifier
DATE	LABEL	10/16/2019	Date
TIME	LABEL	9:31:26	Time
NOTES	NOTES	1	&Notes...
	
PSTAT	PSTAT	REF600-11020	Potentiostat
VDC	POTEN	0.00000E+000	T	DC &Voltage (V)
FREQINIT	QUANT	1.00000E+006	Initial Fre&q. (Hz)
FREQFINAL	QUANT	1.00000E+000	Final Fre&q. (Hz)
PTSPERDEC	QUANT	1.00000E+001	Points/&decade
VAC	QUANT	2.50000E+001	AC &Voltage (mV rms)
AREA	QUANT	1.00000E-002	&Area (cm^2)
CONDIT	TWOPARAM	T	5.00000E+000	0.00000E+000	Conditionin&g	Time(s)	E(V)
DELAY	TWOPARAM	T	5.00000E+000	0.00000E+000	Init. De&lay	Time(s)	Stab.(mV/s)
SPEED	SELECTOR	0	&Optimize for:
ZGUESS	QUANT	1.00000E+005	E&stimated Z (ohms)
OCVCURVE	TABLE	19
	Pt	T	Vf	Vm	Ach	Over
	#	s	V vs. Ref.	V	V	bits
	0	0.258333	6.50429E-003	6.50429E-003	5.73399E-004	...........
	1	0.516667	6.50364E-003	6.47007E-003	5.76866E-004	...........
	2	0.775	6.50004E-003	6.45918E-003	5.72799E-004	...........
	3	1.03333	6.49149E-003	6.46297E-003	5.71866E-004	...........
	4	1.29167	6.48038E-003	6.48561E-003	5.74832E-004	...........
	5	1.55	6.47287E-003	6.48990E-003	5.69632E-004	...........
	6	1.80833	6.47322E-003	6.51523E-003	5.67966E-004	...........
	7	2.06667	6.48160E-003	6.54745E-003	5.73066E-004	...........
	8	2.325	6.49707E-003	6.58142E-003	5.73565E-004	...........
	9	2.58333	6.51936E-003	6.62362E-003	5.69199E-004	...........
	10	2.84167	6.54818E-003	6.66465E-003	5.69666E-004	...........
	11	3.1	6.58239E-003	6.70006E-003	5.78632E-004	...........
	12	3.35833	6.61985E-003	6.73168E-003	5.70532E-004	...........
	13	3.61667	6.65796E-003	6.77079E-003	5.71699E-004	...........
	14	3.875	6.69526E-003	6.81312E-003	5.68132E-004	...........
	15	4.13333	6.73202E-003	6.83807E-003	5.75099E-004	...........
	16	4.39167	6.76852E-003	6.87772E-003	5.70532E-004	...........
	17	4.65	6.80448E-003	6.92004E-003	5.70332E-004	...........
	18	4.90833	6.84042E-003	6.95746E-003	5.71366E-004	...........
EOC	QUANT	0.0068404	Open Circuit (V)
PSTATMODEL	IQUANT	4	Pstat Model
PSTATSECTION	LABEL	REF600-11020	Pstat Section
PSTATSERIALNO	LABEL	11020	Pstat Serial Number
CTRLMODE	IQUANT	1	Control Mode
IESTAB	IQUANT	0	I/E Stability
CASPEED	IQUANT	1	Control Amp Speed
CONVENTION	IQUANT	1	Current Convention
ICHRANGE	IQUANT	2	Ich Range
ICHRANGEMODE	TOGGLE	F	Ich Auto Range
ICHOFFSETENABLE	TOGGLE	T	Ich Offset Enable
ICHOFFSET	QUANT	0	Ich Offset (V)
ICHFILTER	IQUANT	3	Ich Filter
VCHRANGE	IQUANT	2	Vch Range
VCHRANGEMODE	TOGGLE	F	Vch Auto Range
VCHOFFSETENABLE	TOGGLE	T	Vch Offset Enable
VCHOFFSET	QUANT	0	Vch Offset (V)
VCHFILTER	IQUANT	3	Vch Filter
ACHRANGE	IQUANT	2	Ach Range
ACHOFFSETENABLE	TOGGLE	F	Ach Offset Enable
ACHOFFSET	QUANT	0	Ach Offset (V)
ACHFILTER	IQUANT	3	Ach Filter
IERANGELOWERLIMIT	IQUANT	1	I/E Range Lower Limit
IERANGEMODE	TOGGLE	F	I/E AutoRange
IERANGE	IQUANT	5	I/E Range
POSFEEDENABLE	TOGGLE	F	Positive Feedback IR Comp
POSFEEDRESISTANCE	QUANT	0	Positive Feedback Resistance (ohm)
ACHSELECT	IQUANT	0	Ach Select
CABLEID	IQUANT	14	Cable ID
DCCALDATE	LABEL	8/19/2019	DC Calibration Date
ACCALDATE	LABEL	8/19/2019	AC Calibration Date
THERMOSELECT	IQUANT	1	Thermo Select
FRAMEWORKVERSION	QUANT	6.33	Framework Version
INSTRUMENTVERSION	LABEL	3.50	Instrument Version
ZCURVE	TABLE
	Pt	Time	Freq	Zreal	Zimag	Zsig	Zmod	Zphz	Idc	Vdc	IERange
	#	s	Hz	ohm	ohm	V	ohm	°	A	V	#
	0	2	1000078	2358.314	-1353.522	1	2719.13	-29.85307	-2.323697E-006	0.0093128	8
	1	2	794390.6	2612.109	-1239.741	1	2891.378	-25.38963	4.096737E-006	0.0080852	8
	2	2	630984.4	2809.101	-1097.179	1	3015.767	-21.33463	-2.989394E-006	0.0090917	8
	3	3	501234.4	2980.004	-971.71	1	3134.429	-18.05994	1.034434E-006	0.0082488	8
	4	3	398109.4	3100.396	-851.0846	1	3215.089	-15.35006	3.45188E-006	0.0078029	8
	5	3	316265.6	3197.319	-717.1469	1	3276.759	-12.642	1.421031E-007	0.008357	8
	6	4	251203.1	3264.138	-618.3188	1	3322.185	-10.72633	2.773277E-007	0.0083563	8
	7	4	199546.9	3321.484	-520.1736	1	3361.969	-8.900726	-1.515843E-006	0.0086534	8
	8	4	158578.1	3346.579	-460.6047	1	3378.128	-7.83664	-4.620283E-007	0.0083848	8
	9	5	125953.1	3407.332	-361.6682	1	3426.473	-6.058922	7.579607E-007	0.0066047	7
	10	5	100078.1	3428.805	-325.8398	1	3444.253	-5.428523	3.309435E-008	0.0082116	7
	11	5	79453.13	3451.873	-309.8427	1	3465.751	-5.129167	-3.279742E-008	0.008326	7
	12	6	63140.62	3473.685	-300.7708	1	3486.682	-4.948642	-6.126384E-008	0.00849	7
	13	6	50203.12	3497.458	-300.109	1	3510.31	-4.904408	3.113313E-008	0.0082029	7
	14	6	39890.62	3522.099	-308.6577	1	3535.598	-5.008297	-6.28109E-008	0.0084958	7
	15	6	31640.63	3547.681	-322.4091	1	3562.301	-5.19271	-9.464587E-009	0.0082999	7
	16	7	25171.88	3574.35	-345.3709	1	3590.997	-5.519061	9.589666E-008	0.0081654	7
	17	7	20015.62	3611.965	-366.4632	1	3630.508	-5.793297	-8.967657E-009	0.0082737	7
	18	7	15890.62	3636.617	-417.3914	1	3660.491	-6.547452	9.633309E-009	0.0083786	7
	19	8	12609.37	3671.867	-468.776	1	3701.669	-7.27542	3.513055E-008	0.0082637	7
	20	8	10078.13	3708.404	-527.7263	1	3745.765	-8.099124	-4.722127E-008	0.008363	7
	21	8	8015.625	3736.452	-605.1315	1	3785.136	-9.199379	8.645698E-009	0.0082426	7
	22	9	6328.125	3793.583	-700.1256	1	3857.648	-10.45658	-7.959724E-009	0.0082919	7
	23	9	5015.625	3840.46	-817.6064	1	3926.527	-12.01843	7.861303E-008	0.0082322	7
	24	9	3984.375	3878.235	-970.841	1	3997.905	-14.05407	-5.372687E-008	0.0083951	7
	25	10	3170.956	3946.496	-1137.31	1	4107.104	-16.07604	-5.427538E-008	0.0083971	7
	26	10	2527.573	4006.519	-1352.724	1	4228.718	-18.65627	-2.3554E-008	0.0082881	7
	27	10	1976.103	4086.138	-1639.344	1	4402.723	-21.86049	9.593728E-008	0.0081527	7
	28	11	1577.524	4176.921	-1962.372	1	4614.929	-25.16475	-6.967363E-009	0.0082689	7
	29	11	1265.625	4261.245	-2353.512	1	4867.98	-28.91214	-6.400111E-009	0.0083351	7
	30	11	998.264	4376.814	-2869.738	1	5233.727	-33.25158	-9.03328E-009	0.0083364	7
	31	12	796.875	4510.246	-3461.717	1	5685.578	-37.50706	-6.026838E-008	0.0084731	7
	32	12	627.7902	4680.727	-4233.562	1	6311.28	-42.1283	-7.180595E-009	0.0083353	7
	33	12	505.5147	4853.806	-5094.811	1	7036.798	-46.38772	9.662686E-009	0.0083707	7
	34	13	397.9953	5087.185	-6253.564	1	8061.422	-50.87214	2.133318E-009	0.008317	7
	35	13	315.5048	5355.287	-7650.408	1	9338.514	-55.00798	2.772335E-009	0.0083143	7
	36	13	252.4038	5668.289	-9299.379	1	10890.73	-58.63627	6.005325E-010	0.0082516	6
	37	14	198.6229	6081.883	-11484.84	1	12995.8	-62.09621	3.310076E-010	0.0082522	6
	38	14	158.3615	6573.634	-14040.34	1	15503.03	-64.91119	2.628822E-010	0.0082536	6
	39	14	125.558	7206.651	-17260.08	1	18704.17	-67.33785	1.822562E-010	0.008251	6
	40	14	100.4464	7964.959	-21037.37	1	22494.7	-69.26283	6.660364E-010	0.0082482	6
	41	15	79.00281	9086.345	-26010.32	1	27551.74	-70.74385	8.681597E-010	0.0082498	6
	42	15	63.3446	10591.56	-31970.22	1	33679.02	-71.67024	-2.858949E-010	0.0082515	6
	43	15	49.86702	12422.19	-39390.64	1	41302.95	-72.49686	-1.107483E-009	0.008247	6
	44	16	39.72458	14753.04	-47710.86	1	49939.75	-72.81747	1.332964E-010	0.0082518	6
	45	16	31.6723	17751.96	-57904.4	1	60564.44	-72.95585	-2.419157E-010	0.0082496	6
	46	17	24.93351	22254.99	-71246.7	1	74641.65	-72.65302	-3.9318E-010	0.0082474	6
	47	17	19.86229	27802.61	-86102.53	1	90480	-72.10467	-9.005264E-010	0.0082485	6
	48	17	15.83615	34307.52	-104229.6	1	109730.7	-71.78088	-9.898975E-010	0.0082522	5
	49	17	12.40079	46750.33	-125881.8	1	134282.6	-69.62587	-1.897238E-009	0.0082613	5
	50	18	9.93114	58406.18	-149298.9	1	160316.7	-68.63441	2.366065E-010	0.0082628	5
	51	18	7.944915	73952.81	-175788.9	1	190711.2	-67.18394	4.37345E-010	0.0082566	5
	52	19	6.317385	93707.56	-206633.4	1	226888.7	-65.60587	5.886212E-010	0.0082478	5
	53	20	5.008013	118982.8	-241385.4	1	269116.8	-63.76056	7.259274E-011	0.0082528	5
	54	21	3.945707	149780.1	-280079.9	1	317614.3	-61.86319	1.334201E-010	0.0082619	5
	55	22	3.158693	183846.7	-319451.5	1	368576.8	-60.07925	-2.492556E-010	0.0082502	5
	56	24	2.504006	223859.2	-362950.2	1	426433.8	-58.33468	-4.044973E-011	0.0082453	5
	57	25	1.998082	266543.2	-409369.4	1	488496.2	-56.93158	1.330469E-010	0.0082828	5
	58	27	1.584686	313624.6	-460328.3	1	557012.1	-55.73315	-3.374984E-011	0.008241	5
	59	29	1.266892	364129.3	-516788.4	1	632187	-54.83147	-1.050354E-010	0.0082072	5
	60	31	0.999041	420196.3	-586916.8	1	721828.4	-54.39967	-1.611804E-010	0.0082081	5
