EXPLAIN
TAG	EISPOT
TITLE	LABEL	Potentiostatic EIS	Test &Identifier
DATE	LABEL	11/5/2019	Date
TIME	LABEL	9:04:12	Time
NOTES	NOTES	2	&Notes...
	
	
PSTAT	PSTAT	REF600-11020	Potentiostat
VDC	POTEN	0.00000E+000	T	DC &Voltage (V)
FREQINIT	QUANT	1.00000E+006	Initial Fre&q. (Hz)
FREQFINAL	QUANT	1.00000E+000	Final Fre&q. (Hz)
PTSPERDEC	QUANT	1.00000E+001	Points/&decade
VAC	QUANT	2.50000E+001	AC &Voltage (mV rms)
AREA	QUANT	1.00000E-002	&Area (cm^2)
CONDIT	TWOPARAM	T	5.00000E+000	0.00000E+000	Conditionin&g	Time(s)	E(V)
DELAY	TWOPARAM	T	5.00000E+000	0.00000E+000	Init. De&lay	Time(s)	Stab.(mV/s)
SPEED	SELECTOR	1	&Optimize for:
ZGUESS	QUANT	1.00000E+005	E&stimated Z (ohms)
OCVCURVE	TABLE	19
	Pt	T	Vf	Vm	Ach	Over
	#	s	V vs. Ref.	V	V	bits
	0	0.258333	5.49526E-003	5.49526E-003	5.40966E-004	...........
	1	0.516667	5.49506E-003	5.48446E-003	5.41066E-004	...........
	2	0.775	5.49445E-003	5.50900E-003	5.36966E-004	...........
	3	1.03333	5.49483E-003	5.52620E-003	5.34733E-004	...........
	4	1.29167	5.49889E-003	5.52312E-003	5.43266E-004	...........
	5	1.55	5.50734E-003	5.55224E-003	5.37799E-004	...........
	6	1.80833	5.51873E-003	5.56447E-003	5.40866E-004	...........
	7	2.06667	5.53252E-003	5.59832E-003	5.34300E-004	...........
	8	2.325	5.54929E-003	5.60916E-003	5.37166E-004	...........
	9	2.58333	5.56870E-003	5.62983E-003	5.36733E-004	...........
	10	2.84167	5.58963E-003	5.67682E-003	5.33000E-004	...........
	11	3.1	5.61266E-003	5.71121E-003	5.37033E-004	...........
	12	3.35833	5.63678E-003	5.57824E-003	5.37433E-004	...........
	13	3.61667	5.65442E-003	5.72857E-003	5.40866E-004	...........
	14	3.875	5.66144E-003	5.64229E-003	5.36999E-004	...........
	15	4.13333	5.66399E-003	5.68408E-003	5.38866E-004	...........
	16	4.39167	5.66782E-003	5.71228E-003	5.41366E-004	...........
	17	4.65	5.67490E-003	5.71677E-003	5.37766E-004	...........
	18	4.90833	5.68737E-003	5.77532E-003	5.48399E-004	...........
EOC	QUANT	0.0056874	Open Circuit (V)
PSTATMODEL	IQUANT	4	Pstat Model
PSTATSECTION	LABEL	REF600-11020	Pstat Section
PSTATSERIALNO	LABEL	11020	Pstat Serial Number
CTRLMODE	IQUANT	1	Control Mode
IESTAB	IQUANT	0	I/E Stability
CASPEED	IQUANT	1	Control Amp Speed
CONVENTION	IQUANT	1	Current Convention
ICHRANGE	IQUANT	2	Ich Range
ICHRANGEMODE	TOGGLE	F	Ich Auto Range
ICHOFFSETENABLE	TOGGLE	T	Ich Offset Enable
ICHOFFSET	QUANT	0	Ich Offset (V)
ICHFILTER	IQUANT	3	Ich Filter
VCHRANGE	IQUANT	2	Vch Range
VCHRANGEMODE	TOGGLE	F	Vch Auto Range
VCHOFFSETENABLE	TOGGLE	T	Vch Offset Enable
VCHOFFSET	QUANT	0	Vch Offset (V)
VCHFILTER	IQUANT	3	Vch Filter
ACHRANGE	IQUANT	2	Ach Range
ACHOFFSETENABLE	TOGGLE	F	Ach Offset Enable
ACHOFFSET	QUANT	0	Ach Offset (V)
ACHFILTER	IQUANT	3	Ach Filter
IERANGELOWERLIMIT	IQUANT	1	I/E Range Lower Limit
IERANGEMODE	TOGGLE	F	I/E AutoRange
IERANGE	IQUANT	5	I/E Range
POSFEEDENABLE	TOGGLE	F	Positive Feedback IR Comp
POSFEEDRESISTANCE	QUANT	0	Positive Feedback Resistance (ohm)
ACHSELECT	IQUANT	0	Ach Select
CABLEID	IQUANT	14	Cable ID
DCCALDATE	LABEL	8/19/2019	DC Calibration Date
ACCALDATE	LABEL	8/19/2019	AC Calibration Date
THERMOSELECT	IQUANT	1	Thermo Select
FRAMEWORKVERSION	QUANT	6.33	Framework Version
INSTRUMENTVERSION	LABEL	3.50	Instrument Version
ZCURVE	TABLE
	Pt	Time	Freq	Zreal	Zimag	Zsig	Zmod	Zphz	Idc	Vdc	IERange
	#	s	Hz	ohm	ohm	V	ohm	°	A	V	#
	0	2	1000078	1324.715	-2926.64	1	3212.49	-65.64659	-1.070041E-005	0.0089071	8
	1	3	794390.6	1511.001	-3497.67	1	3810.094	-66.63555	3.637398E-007	0.0075565	8
	2	5	630984.4	1727.246	-4206.671	1	4547.468	-67.67709	-2.633129E-006	0.0076842	8
	3	6	501234.4	1986.084	-5036.012	1	5413.497	-68.47689	-1.972765E-007	0.0079598	8
	4	8	398109.4	2305.393	-6082.439	1	6504.683	-69.24207	-6.452326E-006	0.008281	8
	5	9	316265.6	2706.697	-7322.706	1	7806.935	-69.71414	-4.512489E-006	0.0076738	8
	6	11	251203.1	3239.059	-8844.527	1	9418.979	-69.88617	-6.067671E-006	0.0081941	8
	7	13	199546.9	3936.463	-10689.49	1	11391.27	-69.7835	7.308068E-007	0.0077084	8
	8	15	158578.1	4890.655	-12701.39	1	13610.43	-68.94086	-7.448289E-008	0.006971	8
	9	17	125953.1	6132.505	-15309.14	1	16491.74	-68.17004	1.832897E-006	0.0090146	7
	10	18	100078.1	7451.143	-18372	1	19825.49	-67.92397	8.195394E-008	0.0085843	7
	11	20	79453.13	9377.107	-21838.88	1	23766.92	-66.76244	-8.254277E-007	0.0093877	7
	12	21	63140.62	11794.06	-25903.77	1	28462.35	-65.52009	-3.86955E-007	0.0090634	7
	13	23	50203.12	14624.77	-30782.1	1	34079.64	-64.58731	1.131025E-006	0.006943	7
	14	24	39890.62	18752.68	-35735.89	1	40357.36	-62.31142	8.543771E-008	0.0085621	7
	15	26	31640.63	23672.35	-41263.75	1	47571.81	-60.15781	-8.234952E-007	0.009375	7
	16	27	25171.88	29178.62	-48871.43	1	56919.31	-59.16075	1.143139E-007	0.0054483	7
	17	29	20015.62	36915.59	-53902.13	1	65331.47	-55.59419	-1.455285E-006	0.0093976	7
	18	31	15890.62	45305.13	-61564.5	1	76437.84	-53.65076	1.377321E-006	0.0062727	7
	19	32	12609.37	56560.03	-67721.51	1	88234	-50.13186	1.649695E-007	0.0033432	6
	20	34	10078.13	68560.05	-73475.56	1	100494.5	-46.98208	2.148452E-007	0.0034113	6
	21	36	8015.625	80552.63	-79655.74	1	113286.2	-44.67924	2.43185E-007	0.0038439	6
	22	37	6328.125	95739.1	-84044.32	1	127394.8	-41.27818	1.649035E-007	0.0033531	6
	23	39	5015.625	110928.7	-86542.76	1	140694.1	-37.96013	1.584936E-007	0.0074802	6
	24	41	3984.375	126761.2	-88351.63	1	154513.4	-34.87622	1.63961E-007	0.0033553	6
	25	42	3170.956	141670.1	-87321.88	1	166419.7	-31.64864	2.094837E-008	0.0042764	6
	26	44	2527.573	156528	-86489.26	1	178833.5	-28.92276	1.642889E-007	0.0033525	6
	27	45	1976.103	170043.6	-86240.05	1	190662.5	-26.8925	2.474172E-007	0.0052195	6
	28	47	1577.524	181494.1	-80621.24	1	198594.8	-23.95121	5.283168E-009	0.0097408	6
	29	49	1265.625	193263.7	-74454.06	1	207109.3	-21.06898	-1.701979E-008	0.0069487	5
	30	50	998.264	203540.3	-73457.73	1	216390.1	-19.84452	5.654201E-009	0.0039171	5
	31	51	796.875	212442.5	-72669.45	1	224527.6	-18.88409	-4.735083E-009	0.0103132	5
	32	53	627.7902	221860.8	-73742.02	1	233795	-18.38576	1.204237E-008	0.0081642	5
	33	54	505.5147	230799.5	-74756.18	1	242604.4	-17.94719	1.869393E-008	0.0069274	5
	34	55	397.9953	240249.9	-76773.29	1	252218.5	-17.72159	3.038821E-010	0.0072	5
	35	57	315.5048	250450.5	-78759.6	1	262542.4	-17.45689	-2.530239E-010	0.0072016	5
	36	58	252.4038	259490.3	-82841.75	1	272393.1	-17.70558	-7.339167E-010	0.0072091	5
	37	59	198.6229	270824.6	-87317.44	1	284552.8	-17.87001	-1.256713E-010	0.0072155	5
	38	61	158.3615	280393.3	-93122.66	1	295452.6	-18.37207	-5.730666E-011	0.0072008	5
	39	62	125.558	291950.2	-97674.4	1	307855.8	-18.4981	-1.142237E-010	0.0072131	5
	40	64	100.4464	303228.9	-105657.5	1	321109.5	-19.21046	-5.335575E-011	0.0071996	5
	41	65	79.00281	313221.3	-118922.4	1	335037.5	-20.79053	3.666977E-010	0.0072042	5
	42	67	63.3446	349500.5	-113123.5	1	367352.1	-17.93531	3.920631E-010	0.0072034	5
	43	68	49.86702	345424	-139529.7	1	372540.3	-21.99563	-9.283774E-011	0.0071983	5
	44	70	39.72458	360018.4	-159754.9	1	393871.6	-23.92882	1.795749E-010	0.0072124	5
	45	71	31.6723	382278.2	-178028.4	1	421699.8	-24.97157	-4.408696E-010	0.0072109	5
	46	73	24.93351	397794.1	-198004.1	1	444348.7	-26.46206	-3.65621E-010	0.0072088	5
	47	74	19.86229	421681.8	-220565.6	1	475883.1	-27.61235	5.364044E-010	0.0071928	5
	48	75	15.83615	456707.1	-270132.6	1	530615.7	-30.60342	8.07118E-010	0.0072098	5
	49	77	12.40079	495301.4	-277970.6	1	567971.1	-29.30179	-2.124384E-010	0.0072114	5
	50	78	9.93114	525470.8	-316333.3	1	613340.3	-31.04793	8.98392E-011	0.0072177	5
	51	80	7.944915	560413.3	-342668.4	1	656874.9	-31.44398	6.300505E-010	0.0072037	6
	52	82	6.317385	607470.7	-378630.5	1	715808.4	-31.93488	2.452189E-010	0.0072102	6
	53	84	5.008013	655749.1	-417276.3	1	777255.7	-32.47004	5.965646E-010	0.0072027	6
	54	87	3.945707	705383.3	-465113.3	1	844923.6	-33.39993	3.555939E-010	0.0071944	6
	55	90	3.158693	762553.7	-512282.2	1	918651.8	-33.89313	5.313935E-010	0.0072034	6
	56	94	2.504006	824152.6	-569564.4	1	1001814	-34.648	1.567887E-010	0.0071958	4
	57	96	1.998082	887494.3	-635918.3	1	1091805	-35.62282	-2.178823E-010	0.0072215	4
	58	100	1.584686	962440	-710260.8	1	1196144	-36.42657	7.917473E-011	0.0072543	4
	59	103	1.266892	1038538	-797234.6	1	1309253	-37.51167	-1.955753E-010	0.0072129	4
	60	107	0.999041	1128428	-895378.6	1	1440504	-38.43111	1.432678E-010	0.0072274	4
