EXPLAIN
TAG	EISPOT
TITLE	LABEL	Potentiostatic EIS	Test &Identifier
DATE	LABEL	8/16/2017	Date
TIME	LABEL	17:07:47	Time
NOTES	NOTES	1	&Notes...
	
PSTAT	PSTAT	REF600-11020	Potentiostat
VDC	POTEN	0.00000E+000	T	DC &Voltage (V)
FREQINIT	QUANT	1.00000E+006	Initial Fre&q. (Hz)
FREQFINAL	QUANT	1.00000E+000	Final Fre&q. (Hz)
PTSPERDEC	QUANT	1.00000E+001	Points/&decade
VAC	QUANT	2.50000E+001	AC &Voltage (mV rms)
AREA	QUANT	1.00000E-002	&Area (cm^2)
CONDIT	TWOPARAM	T	5.00000E+000	0.00000E+000	Conditionin&g	Time(s)	E(V)
DELAY	TWOPARAM	T	5.00000E+000	0.00000E+000	Init. De&lay	Time(s)	Stab.(mV/s)
SPEED	SELECTOR	0	&Optimize for:
ZGUESS	QUANT	1.00000E+005	E&stimated Z (ohms)
OCVCURVE	TABLE	19
	Pt	T	Vf	Vm	Ach	Over
	#	s	V vs. Ref.	V	V	bits
	0	0.258333	1.32781E-002	1.32781E-002	5.42066E-004	...........
	1	0.516667	1.32861E-002	1.36994E-002	5.32666E-004	...........
	2	0.775	1.33354E-002	1.40911E-002	5.37766E-004	...........
	3	1.03333	1.34744E-002	1.44696E-002	5.38633E-004	...........
	4	1.29167	1.37222E-002	1.48291E-002	5.45533E-004	...........
	5	1.55	1.40510E-002	1.51780E-002	5.42533E-004	...........
	6	1.80833	1.44151E-002	1.54990E-002	5.43299E-004	...........
	7	2.06667	1.47806E-002	1.58188E-002	5.53299E-004	...........
	8	2.325	1.51320E-002	1.61202E-002	5.41799E-004	...........
	9	2.58333	1.54660E-002	1.64169E-002	5.41833E-004	...........
	10	2.84167	1.57848E-002	1.67045E-002	5.42466E-004	...........
	11	3.1	1.60917E-002	1.69968E-002	5.41933E-004	...........
	12	3.35833	1.63899E-002	1.72815E-002	5.41399E-004	...........
	13	3.61667	1.66826E-002	1.75654E-002	5.37466E-004	...........
	14	3.875	1.69714E-002	1.78327E-002	5.43566E-004	...........
	15	4.13333	1.72559E-002	1.80946E-002	5.44866E-004	...........
	16	4.39167	1.75342E-002	1.83351E-002	5.48133E-004	...........
	17	4.65	1.78036E-002	1.85673E-002	5.49866E-004	...........
	18	4.90833	1.80617E-002	1.87882E-002	5.47999E-004	...........
EOC	QUANT	0.0180617	Open Circuit (V)
PSTATMODEL	IQUANT	4	Pstat Model
PSTATSECTION	LABEL	REF600-11020	Pstat Section
PSTATSERIALNO	LABEL	11020	Pstat Serial Number
CTRLMODE	IQUANT	1	Control Mode
IESTAB	IQUANT	0	I/E Stability
CASPEED	IQUANT	1	Control Amp Speed
CONVENTION	IQUANT	1	Current Convention
ICHRANGE	IQUANT	2	Ich Range
ICHRANGEMODE	TOGGLE	F	Ich Auto Range
ICHOFFSETENABLE	TOGGLE	T	Ich Offset Enable
ICHOFFSET	QUANT	0	Ich Offset (V)
ICHFILTER	IQUANT	3	Ich Filter
VCHRANGE	IQUANT	2	Vch Range
VCHRANGEMODE	TOGGLE	F	Vch Auto Range
VCHOFFSETENABLE	TOGGLE	T	Vch Offset Enable
VCHOFFSET	QUANT	0	Vch Offset (V)
VCHFILTER	IQUANT	3	Vch Filter
ACHRANGE	IQUANT	2	Ach Range
ACHOFFSETENABLE	TOGGLE	F	Ach Offset Enable
ACHOFFSET	QUANT	0	Ach Offset (V)
ACHFILTER	IQUANT	3	Ach Filter
IERANGELOWERLIMIT	IQUANT	1	I/E Range Lower Limit
IERANGEMODE	TOGGLE	F	I/E AutoRange
IERANGE	IQUANT	5	I/E Range
POSFEEDENABLE	TOGGLE	F	Positive Feedback IR Comp
POSFEEDRESISTANCE	QUANT	0	Positive Feedback Resistance (ohm)
ACHSELECT	IQUANT	0	Ach Select
CABLEID	IQUANT	14	Cable ID
DCCALDATE	LABEL	8/19/2019	DC Calibration Date
ACCALDATE	LABEL	8/19/2019	AC Calibration Date
THERMOSELECT	IQUANT	1	Thermo Select
FRAMEWORKVERSION	QUANT	6.33	Framework Version
INSTRUMENTVERSION	LABEL	3.50	Instrument Version
ZCURVE	TABLE
	Pt	Time	Freq	Zreal	Zimag	Zsig	Zmod	Zphz	Idc	Vdc	IERange
	#	s	Hz	ohm	ohm	V	ohm	°	A	V	#
	0	2	1000078	2123.54	-1345.487	1	2513.913	-32.35857	-1.17917E-005	0.0194348	8
	1	2	794390.6	2395.03	-1247.198	1	2700.31	-27.50799	1.945772E-005	0.0181293	8
	2	2	630984.4	2613.329	-1165.418	1	2861.413	-24.03456	-8.921369E-006	0.0201488	8
	3	3	501234.4	2800.401	-1036.554	1	2986.083	-20.31178	-6.766491E-008	0.0204368	8
	4	3	398109.4	2941.464	-929.1349	1	3084.721	-17.53002	7.245722E-006	0.0194329	8
	5	3	316265.6	3048.116	-824.8043	1	3157.739	-15.14133	9.243152E-006	0.0183408	8
	6	4	251203.1	3152.616	-735.1787	1	3237.201	-13.12658	2.95202E-006	0.0200217	8
	7	4	199546.9	3231.838	-657.6756	1	3298.077	-11.50257	9.501626E-006	0.0177121	8
	8	4	158578.1	3265.638	-603.7464	1	3320.979	-10.47449	-7.917233E-006	0.0202373	8
	9	5	125953.1	3390.048	-459.8024	1	3421.088	-7.724063	6.100654E-006	0.0118986	7
	10	5	100078.1	3413.458	-440.0175	1	3441.701	-7.345302	1.169312E-006	0.0167112	7
	11	5	79453.13	3451.014	-424.0314	1	3476.967	-7.00491	-9.156584E-007	0.0220616	7
	12	5	63140.62	3493.726	-430.487	1	3520.148	-7.024416	1.713695E-006	0.0171074	7
	13	6	50203.12	3533.241	-436.803	1	3560.139	-7.047532	-1.720549E-006	0.022179	7
	14	6	39890.62	3578.034	-456.6121	1	3607.052	-7.272512	-6.001169E-007	0.0183158	7
	15	6	31640.63	3626.336	-482.9578	1	3658.355	-7.586048	-6.02011E-007	0.018315	7
	16	7	25171.88	3679.786	-521.1932	1	3716.513	-8.06157	1.76338E-006	0.0176003	7
	17	7	20015.62	3736.496	-564.4009	1	3778.882	-8.589642	-6.018453E-007	0.018312	7
	18	7	15890.62	3793.806	-617.3347	1	3843.704	-9.242265	-1.979761E-006	0.0213864	7
	19	8	12609.37	3870.965	-685.4865	1	3931.191	-10.04207	1.763918E-006	0.017601	7
	20	8	10078.13	3940.193	-756.4609	1	4012.15	-10.86774	1.045765E-006	0.0197283	7
	21	8	8015.625	4020.353	-844.7508	1	4108.144	-11.86628	-1.738153E-006	0.0205049	7
	22	9	6328.125	4120.454	-952.213	1	4229.048	-13.01229	-1.259349E-006	0.0194274	7
	23	9	5015.625	4228.748	-1072.308	1	4362.585	-14.2289	1.720018E-006	0.0170958	7
	24	9	3984.375	4336.749	-1204.091	1	4500.802	-15.51722	-1.961202E-006	0.0219317	7
	25	10	3170.956	4464.196	-1360.035	1	4666.77	-16.94356	1.721839E-006	0.0170943	7
	26	10	2527.573	4588.769	-1534.05	1	4838.399	-18.48506	-9.214248E-007	0.0220564	7
	27	10	1976.103	4739.43	-1763.654	1	5056.942	-20.41142	1.403953E-006	0.0190102	7
	28	11	1577.524	4873.592	-2014.42	1	5273.499	-22.45696	1.779451E-006	0.017575	7
	29	11	1265.625	5016.372	-2303.109	1	5519.81	-24.66073	1.049306E-006	0.0197301	7
	30	11	998.264	5172.65	-2694.877	1	5832.553	-27.51888	1.773666E-006	0.0175861	7
	31	11	796.875	5322.148	-3151.305	1	6185.142	-30.63027	1.772788E-006	0.0175924	7
	32	12	627.7902	5488.003	-3764.351	1	6654.962	-34.44715	1.774073E-006	0.0175828	7
	33	12	505.5147	5656.276	-4451.836	1	7198.077	-38.20491	1.772152E-006	0.0175849	7
	34	13	397.9953	5870.783	-5390.38	1	7970.087	-42.55724	-1.229856E-009	0.0195438	7
	35	13	315.5048	6112.019	-6544.419	1	8954.675	-46.95672	2.708899E-009	0.0195378	7
	36	13	252.4038	6401.858	-7917.059	1	10181.53	-51.04045	-3.480202E-010	0.0194659	6
	37	14	198.6229	6787.752	-9749.91	1	11879.99	-55.15489	-8.744322E-010	0.01948	6
	38	14	158.3615	7261.438	-11887.12	1	13929.54	-58.58067	-8.716352E-010	0.0194805	6
	39	14	125.558	7895.333	-14572.04	1	16573.49	-61.55054	-4.324022E-010	0.0194824	6
	40	15	100.4464	8685.454	-17721.16	1	19735.16	-63.88971	6.247442E-010	0.0194813	6
	41	15	79.00281	9791.54	-21814.09	1	23910.85	-65.82645	6.0591E-010	0.0194723	6
	42	15	63.3446	11387.34	-26333.23	1	28689.91	-66.61478	-8.711851E-011	0.0194768	6
	43	16	49.86702	13276.39	-32352.71	1	34970.85	-67.68851	1.336898E-010	0.0194553	6
	44	16	39.72458	15578.97	-39035.23	1	42029.2	-68.24304	3.538323E-010	0.0194637	6
	45	16	31.6723	18621.72	-46982.96	1	50538.77	-68.37907	1.927353E-010	0.0194597	6
	46	17	24.93351	22958.31	-56912.83	1	61369	-68.03114	-5.999987E-010	0.0194595	6
	47	17	19.86229	28064.92	-67962.37	1	73529.06	-67.56192	-2.081693E-009	0.0194577	6
	48	17	15.83615	34159.19	-81110.42	1	88009.95	-67.16189	-1.070937E-009	0.019479	6
	49	18	12.40079	43351.77	-95875.6	1	105221.3	-65.6691	7.238506E-010	0.0194799	5
	50	18	9.93114	52900.96	-111670	1	123566.6	-64.65187	-1.314756E-009	0.0194849	5
	51	19	7.944915	64147.4	-129579.3	1	144588	-63.66259	-8.798587E-010	0.0194855	5
	52	19	6.317385	77104.48	-150333.5	1	168953.4	-62.84718	-6.827777E-010	0.019496	5
	53	20	5.008013	91736.76	-174373.3	1	197032.2	-62.25142	-6.794753E-010	0.0194787	5
	54	21	3.945707	107973.2	-202641.8	1	229612.5	-61.95007	-3.387285E-010	0.0194781	5
	55	22	3.158693	124327.7	-234055.5	1	265027.1	-62.02326	-1.745882E-010	0.0194908	5
	56	24	2.504006	143005.2	-273397.8	1	308539.8	-62.38744	-4.549586E-010	0.0194842	5
	57	25	1.998082	162149	-319373.4	1	358178.3	-63.08265	-2.555929E-010	0.0194737	5
	58	27	1.584686	186044.6	-377285	1	420662.1	-63.75143	-2.124034E-010	0.0195231	5
	59	29	1.266892	211335.9	-446301.9	1	493809.9	-64.66119	-2.338586E-010	0.0195159	5
	60	31	0.999041	243225.3	-534437.6	1	587181.4	-65.52947	-2.57466E-010	0.0194952	5
