EXPLAIN
TAG	EISPOT
TITLE	LABEL	Potentiostatic EIS	Test &Identifier
DATE	LABEL	11/7/2019	Date
TIME	LABEL	10:19:58	Time
NOTES	NOTES	2	&Notes...
	
	
PSTAT	PSTAT	REF600-11020	Potentiostat
VDC	POTEN	0.00000E+000	T	DC &Voltage (V)
FREQINIT	QUANT	1.00000E+006	Initial Fre&q. (Hz)
FREQFINAL	QUANT	1.00000E+000	Final Fre&q. (Hz)
PTSPERDEC	QUANT	1.00000E+001	Points/&decade
VAC	QUANT	2.50000E+001	AC &Voltage (mV rms)
AREA	QUANT	1.00000E-002	&Area (cm^2)
CONDIT	TWOPARAM	T	5.00000E+000	0.00000E+000	Conditionin&g	Time(s)	E(V)
DELAY	TWOPARAM	T	5.00000E+000	0.00000E+000	Init. De&lay	Time(s)	Stab.(mV/s)
SPEED	SELECTOR	1	&Optimize for:
ZGUESS	QUANT	1.00000E+005	E&stimated Z (ohms)
OCVCURVE	TABLE	19
	Pt	T	Vf	Vm	Ach	Over
	#	s	V vs. Ref.	V	V	bits
	0	0.258333	4.28872E-003	4.28872E-003	5.71766E-004	...........
	1	0.516667	4.28640E-003	4.16736E-003	5.75199E-004	...........
	2	0.775	4.27225E-003	4.05679E-003	5.75199E-004	...........
	3	1.03333	4.23275E-003	3.96363E-003	5.74532E-004	...........
	4	1.29167	4.16393E-003	3.88605E-003	5.76499E-004	...........
	5	1.55	4.07655E-003	3.81798E-003	5.76499E-004	...........
	6	1.80833	3.98634E-003	3.76834E-003	5.72832E-004	...........
	7	2.06667	3.90425E-003	3.71606E-003	5.75732E-004	...........
	8	2.325	3.83410E-003	3.67240E-003	5.75165E-004	...........
	9	2.58333	3.77472E-003	3.62581E-003	5.70066E-004	...........
	10	2.84167	3.72265E-003	3.57252E-003	5.75699E-004	...........
	11	3.1	3.67387E-003	3.51480E-003	5.78432E-004	...........
	12	3.35833	3.62473E-003	3.45694E-003	5.77332E-004	...........
	13	3.61667	3.57302E-003	3.40135E-003	5.77466E-004	...........
	14	3.875	3.51897E-003	3.36595E-003	5.73366E-004	...........
	15	4.13333	3.46568E-003	3.34508E-003	5.76799E-004	...........
	16	4.39167	3.41784E-003	3.31847E-003	5.74232E-004	...........
	17	4.65	3.37870E-003	3.30372E-003	5.68932E-004	...........
	18	4.90833	3.34790E-003	3.26819E-003	5.73066E-004	...........
EOC	QUANT	0.0033479	Open Circuit (V)
PSTATMODEL	IQUANT	4	Pstat Model
PSTATSECTION	LABEL	REF600-11020	Pstat Section
PSTATSERIALNO	LABEL	11020	Pstat Serial Number
CTRLMODE	IQUANT	1	Control Mode
IESTAB	IQUANT	0	I/E Stability
CASPEED	IQUANT	1	Control Amp Speed
CONVENTION	IQUANT	1	Current Convention
ICHRANGE	IQUANT	2	Ich Range
ICHRANGEMODE	TOGGLE	F	Ich Auto Range
ICHOFFSETENABLE	TOGGLE	T	Ich Offset Enable
ICHOFFSET	QUANT	0	Ich Offset (V)
ICHFILTER	IQUANT	3	Ich Filter
VCHRANGE	IQUANT	2	Vch Range
VCHRANGEMODE	TOGGLE	F	Vch Auto Range
VCHOFFSETENABLE	TOGGLE	T	Vch Offset Enable
VCHOFFSET	QUANT	0	Vch Offset (V)
VCHFILTER	IQUANT	3	Vch Filter
ACHRANGE	IQUANT	2	Ach Range
ACHOFFSETENABLE	TOGGLE	F	Ach Offset Enable
ACHOFFSET	QUANT	0	Ach Offset (V)
ACHFILTER	IQUANT	3	Ach Filter
IERANGELOWERLIMIT	IQUANT	1	I/E Range Lower Limit
IERANGEMODE	TOGGLE	F	I/E AutoRange
IERANGE	IQUANT	4	I/E Range
POSFEEDENABLE	TOGGLE	F	Positive Feedback IR Comp
POSFEEDRESISTANCE	QUANT	0	Positive Feedback Resistance (ohm)
ACHSELECT	IQUANT	0	Ach Select
CABLEID	IQUANT	14	Cable ID
DCCALDATE	LABEL	8/19/2019	DC Calibration Date
ACCALDATE	LABEL	8/19/2019	AC Calibration Date
THERMOSELECT	IQUANT	1	Thermo Select
FRAMEWORKVERSION	QUANT	6.33	Framework Version
INSTRUMENTVERSION	LABEL	3.50	Instrument Version
ZCURVE	TABLE
	Pt	Time	Freq	Zreal	Zimag	Zsig	Zmod	Zphz	Idc	Vdc	IERange
	#	s	Hz	ohm	ohm	V	ohm	°	A	V	#
	0	2	1000078	2015.533	-1189.26	1	2340.238	-30.54262	8.083302E-007	0.0064632	8
	1	3	794390.6	2221.651	-1159.405	1	2505.984	-27.55855	-3.045318E-006	0.0053224	8
	2	5	630984.4	2389.251	-1145.36	1	2649.598	-25.61215	4.461906E-006	0.0041521	8
	3	6	501234.4	2579.105	-1109.336	1	2807.563	-23.27373	-1.064973E-006	0.0054812	8
	4	8	398109.4	2742.048	-1075.078	1	2945.271	-21.4087	-3.323628E-006	0.0055256	8
	5	9	316265.6	2893.342	-1048.222	1	3077.369	-19.91482	-1.940935E-006	0.0049469	8
	6	11	251203.1	3054.354	-1014.992	1	3218.584	-18.38215	-3.185307E-006	0.0054568	8
	7	12	199546.9	3190.687	-966.941	1	3333.985	-16.85949	-4.949218E-006	0.0051969	8
	8	14	158578.1	3315.322	-935.611	1	3444.812	-15.7595	6.56889E-006	0.0036285	8
	9	15	125953.1	3479.691	-877.2434	1	3588.566	-14.14964	1.377711E-006	0.0062354	7
	10	17	100078.1	3588.766	-867.4542	1	3692.115	-13.58854	1.200727E-006	0.0031271	7
	11	18	79453.13	3698.487	-862.9025	1	3797.816	-13.13288	1.201763E-006	0.003129	7
	12	19	63140.62	3805.706	-876.0801	1	3905.242	-12.96374	-2.956832E-007	0.006261	7
	13	21	50203.12	3918.362	-891.9888	1	4018.607	-12.82445	-6.661775E-007	0.0065387	7
	14	22	39890.62	4027.824	-913.968	1	4130.219	-12.7847	-1.36093E-006	0.0060025	7
	15	23	31640.63	4159.672	-951.838	1	4267.185	-12.88882	1.140689E-006	0.0039361	7
	16	25	25171.88	4276.237	-988.54	1	4389.011	-13.01644	-2.95527E-007	0.0062524	7
	17	26	20015.62	4397.316	-1035.977	1	4517.702	-13.25674	-9.78345E-007	0.0066415	7
	18	27	15890.62	4528.525	-1089.458	1	4657.731	-13.52698	-1.369178E-006	0.0064165	7
	19	29	12609.37	4693.238	-1160.792	1	4834.659	-13.89232	1.141856E-006	0.0039277	7
	20	30	10078.13	4812.36	-1227.136	1	4966.354	-14.30538	1.14173E-006	0.0039315	7
	21	31	8015.625	4988.903	-1317.574	1	5159.957	-14.79408	9.447608E-007	0.0044747	7
	22	33	6328.125	5156.807	-1411.409	1	5346.469	-15.30689	4.695601E-007	0.0053031	7
	23	34	5015.625	5320.761	-1513.181	1	5531.747	-15.87532	-6.648164E-007	0.0065295	7
	24	36	3984.375	5496.465	-1640.762	1	5736.134	-16.62101	1.078816E-006	0.0028655	7
	25	37	3170.956	5663.074	-1774.915	1	5934.705	-17.40198	9.489379E-007	0.004465	7
	26	38	2527.573	5817.034	-1951.417	1	6135.626	-18.54485	1.143402E-006	0.0039246	7
	27	40	1976.103	5968.512	-2187.243	1	6356.664	-20.12605	-1.360044E-006	0.0059858	7
	28	41	1577.524	6140.301	-2466.066	1	6617.006	-21.88137	1.118738E-007	0.0057995	7
	29	43	1265.625	6267.323	-2839.839	1	6880.699	-24.37616	-2.943018E-007	0.0062425	7
	30	44	998.264	6450.215	-3347.542	1	7267.139	-27.42847	4.689277E-007	0.0053019	7
	31	46	796.875	6632.739	-3933.371	1	7711.331	-30.66894	-2.8863E-007	0.0062479	7
	32	47	627.7902	6850.285	-4703.826	1	8309.776	-34.47588	-1.365906E-006	0.0064019	7
	33	48	505.5147	7104.044	-5608.351	1	9051.024	-38.28964	-9.745125E-007	0.006626	7
	34	50	397.9953	7470.987	-6810.179	1	10109.11	-42.35074	4.462077E-009	0.0047769	7
	35	51	315.5048	7916.717	-8238.817	1	11425.96	-46.14218	9.816108E-010	0.0047089	6
	36	52	252.4038	8466.146	-9906.45	1	13031.25	-49.48248	2.16093E-009	0.0047035	6
	37	54	198.6229	9228.947	-12062.64	1	15188.18	-52.58094	1.092844E-009	0.0047185	6
	38	55	158.3615	10171.45	-14504.52	1	17715.52	-54.95955	7.553473E-010	0.0047147	6
	39	56	125.558	11423.89	-17481.19	1	20882.94	-56.83555	5.256977E-010	0.0047188	6
	40	58	100.4464	12965.25	-20843.06	1	24546.5	-58.11666	1.63714E-009	0.0047201	6
	41	59	79.00281	15165.34	-25062.5	1	29293.63	-58.82182	1.990434E-009	0.0047071	6
	42	61	63.3446	17974.25	-29641.93	1	34665.8	-58.76825	1.035294E-010	0.0047074	6
	43	62	49.86702	20798.28	-34726.97	1	40478.77	-59.08225	1.012631E-010	0.0046992	6
	44	63	39.72458	24943.39	-40336.46	1	47425.76	-58.26805	4.716213E-010	0.0047173	6
	45	65	31.6723	29391.83	-46557.46	1	55058.85	-57.73569	-2.314222E-010	0.0047081	6
	46	66	24.93351	34987.27	-53592.05	1	64001.7	-56.86171	4.57324E-010	0.0047065	6
	47	67	19.86229	40752.61	-61063.12	1	73413.08	-56.28145	9.781906E-010	0.004719	6
	48	69	15.83615	46002.59	-69629.36	1	83453.49	-56.54813	2.304101E-009	0.0047092	6
	49	70	12.40079	53700.51	-79663.32	1	96072.8	-56.01635	-3.090974E-010	0.0047115	6
	50	72	9.93114	60428.12	-91706.81	1	109825.8	-56.61802	-3.429223E-010	0.0047163	5
	51	73	7.944915	67455.27	-105595.6	1	125302.2	-57.42924	1.079945E-009	0.0047225	5
	52	75	6.317385	75874.34	-123394.9	1	144855.8	-58.41303	3.982473E-010	0.0047244	5
	53	77	5.008013	85288.34	-145126.9	1	168332.7	-59.55805	4.502127E-010	0.0047258	5
	54	79	3.945707	96872.4	-172381	1	197735.9	-60.66545	1.100217E-010	0.0047164	5
	55	82	3.158693	109635.7	-202934.2	1	230656.2	-61.61975	2.568649E-010	0.0047385	5
	56	85	2.504006	125889	-241384.4	1	272239.7	-62.45665	-1.629767E-011	0.0047076	5
	57	88	1.998082	144743	-285506	1	320100.3	-63.11636	-9.363543E-011	0.0047165	5
	58	91	1.584686	169565.9	-339113.4	1	379144.4	-63.43371	1.6634E-010	0.004769	5
	59	95	1.266892	196767.7	-400373.9	1	446113	-63.82773	-6.648301E-011	0.0047181	5
	60	99	0.999041	232808.5	-476982.3	1	530765.4	-63.98364	3.729357E-010	0.0047371	5
