EXPLAIN
TAG	EISPOT
TITLE	LABEL	Potentiostatic EIS	Test &Identifier
DATE	LABEL	9/26/2019	Date
TIME	LABEL	9:43:20	Time
NOTES	NOTES	2	&Notes...
	
	
PSTAT	PSTAT	REF600-11020	Potentiostat
VDC	POTEN	0.00000E+000	T	DC &Voltage (V)
FREQINIT	QUANT	1.00000E+006	Initial Fre&q. (Hz)
FREQFINAL	QUANT	1.00000E+000	Final Fre&q. (Hz)
PTSPERDEC	QUANT	1.00000E+001	Points/&decade
VAC	QUANT	2.50000E+001	AC &Voltage (mV rms)
AREA	QUANT	1.00000E-002	&Area (cm^2)
CONDIT	TWOPARAM	T	5.00000E+000	0.00000E+000	Conditionin&g	Time(s)	E(V)
DELAY	TWOPARAM	T	5.00000E+000	0.00000E+000	Init. De&lay	Time(s)	Stab.(mV/s)
SPEED	SELECTOR	1	&Optimize for:
ZGUESS	QUANT	1.00000E+004	E&stimated Z (ohms)
OCVCURVE	TABLE	19
	Pt	T	Vf	Vm	Ach	Over
	#	s	V vs. Ref.	V	V	bits
	0	0.258333	4.70386E-001	4.70386E-001	6.14712E-004	...........
	1	0.516667	4.71317E-001	5.19094E-001	6.17512E-004	...........
	2	0.775	4.76987E-001	5.62990E-001	6.13312E-004	...........
	3	1.03333	4.92636E-001	5.92171E-001	6.13712E-004	...........
	4	1.29167	5.19499E-001	6.31813E-001	6.09479E-004	...........
	5	1.55	5.53475E-001	6.59294E-001	6.10079E-004	...........
	6	1.80833	5.89026E-001	6.71185E-001	6.08679E-004	...........
	7	2.06667	6.21793E-001	6.97875E-001	6.09812E-004	...........
	8	2.325	6.50081E-001	7.37163E-001	6.13212E-004	...........
	9	2.58333	6.75029E-001	7.14970E-001	6.11412E-004	...........
	10	2.84167	6.97239E-001	7.59039E-001	6.09045E-004	...........
	11	3.1	7.16491E-001	7.82015E-001	6.16445E-004	...........
	12	3.35833	7.34166E-001	7.59449E-001	6.11645E-004	...........
	13	3.61667	7.50158E-001	7.72671E-001	6.07112E-004	...........
	14	3.875	7.61978E-001	7.91190E-001	6.11879E-004	...........
	15	4.13333	7.70011E-001	7.92955E-001	6.13112E-004	...........
	16	4.39167	7.77397E-001	8.05797E-001	6.13878E-004	...........
	17	4.65	7.85795E-001	8.18661E-001	6.10745E-004	...........
	18	4.90833	7.95667E-001	8.48783E-001	6.08545E-004	...........
EOC	QUANT	0.7956674	Open Circuit (V)
PSTATMODEL	IQUANT	4	Pstat Model
PSTATSECTION	LABEL	REF600-11020	Pstat Section
PSTATSERIALNO	LABEL	11020	Pstat Serial Number
CTRLMODE	IQUANT	1	Control Mode
IESTAB	IQUANT	0	I/E Stability
CASPEED	IQUANT	1	Control Amp Speed
CONVENTION	IQUANT	1	Current Convention
ICHRANGE	IQUANT	2	Ich Range
ICHRANGEMODE	TOGGLE	F	Ich Auto Range
ICHOFFSETENABLE	TOGGLE	T	Ich Offset Enable
ICHOFFSET	QUANT	0	Ich Offset (V)
ICHFILTER	IQUANT	3	Ich Filter
VCHRANGE	IQUANT	2	Vch Range
VCHRANGEMODE	TOGGLE	F	Vch Auto Range
VCHOFFSETENABLE	TOGGLE	T	Vch Offset Enable
VCHOFFSET	QUANT	0	Vch Offset (V)
VCHFILTER	IQUANT	3	Vch Filter
ACHRANGE	IQUANT	2	Ach Range
ACHOFFSETENABLE	TOGGLE	F	Ach Offset Enable
ACHOFFSET	QUANT	0	Ach Offset (V)
ACHFILTER	IQUANT	1	Ach Filter
IERANGELOWERLIMIT	IQUANT	1	I/E Range Lower Limit
IERANGEMODE	TOGGLE	F	I/E AutoRange
IERANGE	IQUANT	8	I/E Range
POSFEEDENABLE	TOGGLE	F	Positive Feedback IR Comp
POSFEEDRESISTANCE	QUANT	0	Positive Feedback Resistance (ohm)
ACHSELECT	IQUANT	0	Ach Select
CABLEID	IQUANT	14	Cable ID
DCCALDATE	LABEL	8/19/2019	DC Calibration Date
ACCALDATE	LABEL	8/19/2019	AC Calibration Date
THERMOSELECT	IQUANT	1	Thermo Select
FRAMEWORKVERSION	QUANT	6.33	Framework Version
INSTRUMENTVERSION	LABEL	3.50	Instrument Version
ZCURVE	TABLE
	Pt	Time	Freq	Zreal	Zimag	Zsig	Zmod	Zphz	Idc	Vdc	IERange
	#	s	Hz	ohm	ohm	V	ohm	°	A	V	#
	0	1	1000078	1919.445	-2027.367	1	2791.861	-46.56631	-5.828513E-006	0.799079	8
	1	3	794390.6	2283.175	-2154.075	1	3138.938	-43.33348	6.866186E-006	0.7967632	8
	2	4	630984.4	2677.716	-2236.202	1	3488.662	-39.86578	-1.572551E-006	0.7975724	8
	3	5	501234.4	3083.096	-2275.986	1	3832.179	-36.43527	-3.270507E-006	0.797921	8
	4	7	398109.4	3458.277	-2281.36	1	4142.98	-33.41208	1.576266E-006	0.7968768	8
	5	8	316265.6	3884.545	-2204.994	1	4466.731	-29.58066	-3.484623E-006	0.7980163	8
	6	10	251203.1	4184.792	-2115.176	1	4688.972	-26.81402	-3.056725E-006	0.7977582	8
	7	12	199546.9	4534.405	-1983.571	1	4949.281	-23.62693	1.32989E-006	0.796841	8
	8	13	158578.1	4836.908	-1832.095	1	5172.257	-20.74538	-2.243091E-007	0.7974156	8
	9	15	125953.1	5109.43	-1617.083	1	5359.219	-17.56205	-4.686918E-007	0.7979224	7
	10	16	100078.1	5314.686	-1497.166	1	5521.539	-15.73272	-3.958744E-008	0.7972195	7
	11	17	79453.13	5424.638	-1384.438	1	5598.514	-14.31701	1.15018E-007	0.7970458	7
	12	19	63140.62	5605.219	-1302.854	1	5754.642	-13.08524	-4.72416E-008	0.7972709	7
	13	20	50203.12	5668.088	-1221.622	1	5798.239	-12.1627	-2.712638E-008	0.7972654	7
	14	22	39890.62	5768.934	-1171.453	1	5886.672	-11.47855	5.160154E-008	0.7971252	7
	15	23	31640.63	5876.157	-1134.123	1	5984.602	-10.92401	-3.023618E-008	0.7972078	7
	16	24	25171.88	6030.188	-1129.401	1	6135.04	-10.60809	-1.198245E-007	0.7972941	7
	17	26	20015.62	6156.521	-1140.967	1	6261.354	-10.49931	-1.032477E-007	0.797258	7
	18	27	15890.62	6223.876	-1137.972	1	6327.054	-10.3615	-5.457527E-008	0.7972798	7
	19	28	12609.37	6406.467	-1184.563	1	6515.06	-10.47574	6.943773E-008	0.7970644	7
	20	30	10078.13	6541.582	-1233.95	1	6656.946	-10.68228	-1.043033E-007	0.7972523	7
	21	31	8015.625	6607.802	-1259.832	1	6726.829	-10.79436	-1.348203E-008	0.7974154	7
	22	32	6328.125	6756.743	-1326.762	1	6885.773	-11.10933	-8.147583E-008	0.797416	7
	23	34	5015.625	6923.976	-1414.819	1	7067.047	-11.54862	8.492061E-009	0.7970567	7
	24	35	3984.375	7020.547	-1478.356	1	7174.512	-11.89137	1.708674E-007	0.7970278	7
	25	37	3170.956	7229.305	-1616.219	1	7407.768	-12.6021	-1.077456E-007	0.7972837	7
	26	38	2527.573	7442.054	-1755.578	1	7646.321	-13.27339	6.186605E-008	0.7970564	7
	27	40	1976.103	7662.673	-1926.674	1	7901.179	-14.11367	-5.459871E-008	0.7972509	7
	28	41	1577.524	7864.386	-2107.763	1	8141.942	-15.00345	-5.942102E-008	0.7972565	7
	29	43	1265.625	8055.842	-2319.308	1	8383.064	-16.06131	-3.392708E-008	0.7973004	7
	30	45	998.264	8257.437	-2578.65	1	8650.705	-17.34265	-5.615758E-008	0.7973325	7
	31	46	796.875	8452.277	-2890.91	1	8932.992	-18.88209	8.941795E-008	0.7971711	7
	32	47	627.7902	8671.995	-3288.489	1	9274.57	-20.76712	-5.920304E-009	0.7972506	6
	33	49	505.5147	8879.771	-3751.841	1	9639.85	-22.90482	-1.55636E-008	0.7973825	6
	34	50	397.9953	9131.609	-4394.091	1	10133.82	-25.69666	-5.714894E-009	0.7972045	6
	35	51	315.5048	9415.477	-5168.159	1	10740.63	-28.7624	-3.461158E-009	0.7972018	6
	36	53	252.4038	9751.46	-6086.244	1	11494.93	-31.9698	-3.778335E-009	0.7972007	6
	37	54	198.6229	10192.89	-7286.76	1	12529.64	-35.56046	-2.128304E-009	0.7971963	6
	38	55	158.3615	10546.36	-8416.511	1	13493.09	-38.59158	6.928303E-008	0.7971953	6
	39	57	125.558	11245.89	-10133.83	1	15138.18	-42.02248	8.198597E-008	0.7971948	6
	40	58	100.4464	11731.75	-11817.62	1	16652.03	-45.20893	1.765794E-008	0.7971957	6
	41	60	79.00281	13232.3	-14775.9	1	19834.84	-48.15453	-3.862616E-009	0.7971971	6
	42	61	63.3446	14521.27	-17321.74	1	22603.32	-50.02602	4.401445E-008	0.7971985	6
	43	62	49.86702	16346.74	-21010.84	1	26620.88	-52.11656	-1.624885E-008	0.7971999	6
	44	64	39.72458	18605.45	-24475.27	1	30744.13	-52.75886	-2.759061E-009	0.7971977	6
	45	65	31.6723	20552.93	-27566.33	1	34384.96	-53.29249	2.172092E-008	0.7971949	6
	46	67	24.93351	24688.39	-33244.33	1	41408.96	-53.40114	1.724259E-008	0.7971911	6
	47	68	19.86229	28035.61	-38639.76	1	47739.15	-54.03673	1.764647E-008	0.7972021	6
	48	69	15.83615	31860.97	-42826.95	1	53378.54	-53.35272	2.175363E-008	0.7971963	6
	49	71	12.40079	39596.2	-51133.16	1	64671.93	-52.24673	-1.507762E-008	0.7971984	6
	50	72	9.93114	44900.23	-57354.59	1	72839.41	-51.94427	-2.862727E-009	0.7972	6
	51	74	7.944915	48812.77	-62633.39	1	79407.99	-52.06925	2.159357E-008	0.797195	6
	52	75	6.317385	55489.48	-71472.38	1	90484.16	-52.17507	1.718262E-008	0.7971914	6
	53	77	5.008013	63092.5	-82299.38	1	103700.8	-52.52544	1.472173E-008	0.7972018	6
	54	80	3.945707	71126.8	-94157.72	1	118003	-52.93258	1.034298E-008	0.7971971	5
	55	82	3.158693	80808.51	-111887	1	138017	-54.16192	1.271425E-008	0.7971984	5
	56	86	2.504006	94961.93	-131221.5	1	161977.9	-54.10762	-5.114008E-010	0.7972077	5
	57	88	1.998082	90251.02	-150488.2	1	175476.3	-59.04797	1.020667E-008	0.7971718	5
	58	92	1.584686	119470.8	-173678	1	210801.7	-55.47643	3.978924E-009	0.7971566	5
	59	95	1.266892	135245.8	-200355.7	1	241730.9	-55.97954	7.8518E-009	0.7971706	5
	60	100	0.999041	155954.3	-236419.5	1	283224.1	-56.58912	8.619991E-009	0.7971964	5
