EXPLAIN
TAG	EISPOT
TITLE	LABEL	Potentiostatic EIS	Test &Identifier
DATE	LABEL	10/6/2019	Date
TIME	LABEL	10:23:25	Time
NOTES	NOTES	2	&Notes...
	
	
PSTAT	PSTAT	REF600-11020	Potentiostat
VDC	POTEN	0.00000E+000	T	DC &Voltage (V)
FREQINIT	QUANT	1.00000E+006	Initial Fre&q. (Hz)
FREQFINAL	QUANT	1.00000E+000	Final Fre&q. (Hz)
PTSPERDEC	QUANT	1.00000E+001	Points/&decade
VAC	QUANT	2.50000E+001	AC &Voltage (mV rms)
AREA	QUANT	1.00000E-002	&Area (cm^2)
CONDIT	TWOPARAM	T	5.00000E+000	0.00000E+000	Conditionin&g	Time(s)	E(V)
DELAY	TWOPARAM	T	5.00000E+000	0.00000E+000	Init. De&lay	Time(s)	Stab.(mV/s)
SPEED	SELECTOR	1	&Optimize for:
ZGUESS	QUANT	1.00000E+004	E&stimated Z (ohms)
OCVCURVE	TABLE	19
	Pt	T	Vf	Vm	Ach	Over
	#	s	V vs. Ref.	V	V	bits
	0	0.258333	2.10914E-002	2.10914E-002	5.39766E-004	...........
	1	0.516667	2.11070E-002	2.19040E-002	5.40733E-004	...........
	2	0.775	2.12024E-002	2.26819E-002	5.44499E-004	...........
	3	1.03333	2.14730E-002	2.34276E-002	5.41266E-004	...........
	4	1.29167	2.19594E-002	2.42220E-002	5.31633E-004	...........
	5	1.55	2.26144E-002	2.49572E-002	5.40399E-004	...........
	6	1.80833	2.33544E-002	2.55736E-002	5.44899E-004	...........
	7	2.06667	2.41114E-002	2.64121E-002	5.45033E-004	...........
	8	2.325	2.48608E-002	2.73835E-002	5.41466E-004	...........
	9	2.58333	2.56185E-002	2.79392E-002	5.38199E-004	...........
	10	2.84167	2.63890E-002	2.84029E-002	5.43433E-004	...........
	11	3.1	2.71277E-002	2.89048E-002	5.40366E-004	...........
	12	3.35833	2.77829E-002	2.92874E-002	5.39366E-004	...........
	13	3.61667	2.83407E-002	2.96237E-002	5.38799E-004	...........
	14	3.875	2.88164E-002	3.00406E-002	5.45633E-004	...........
	15	4.13333	2.92368E-002	3.04818E-002	5.38633E-004	...........
	16	4.39167	2.96342E-002	3.08954E-002	5.40266E-004	...........
	17	4.65	3.00337E-002	3.13094E-002	5.42699E-004	...........
	18	4.90833	3.04425E-002	3.16849E-002	5.48633E-004	...........
EOC	QUANT	0.0304425	Open Circuit (V)
PSTATMODEL	IQUANT	4	Pstat Model
PSTATSECTION	LABEL	REF600-11020	Pstat Section
PSTATSERIALNO	LABEL	11020	Pstat Serial Number
CTRLMODE	IQUANT	1	Control Mode
IESTAB	IQUANT	0	I/E Stability
CASPEED	IQUANT	1	Control Amp Speed
CONVENTION	IQUANT	1	Current Convention
ICHRANGE	IQUANT	2	Ich Range
ICHRANGEMODE	TOGGLE	F	Ich Auto Range
ICHOFFSETENABLE	TOGGLE	T	Ich Offset Enable
ICHOFFSET	QUANT	0	Ich Offset (V)
ICHFILTER	IQUANT	3	Ich Filter
VCHRANGE	IQUANT	2	Vch Range
VCHRANGEMODE	TOGGLE	F	Vch Auto Range
VCHOFFSETENABLE	TOGGLE	T	Vch Offset Enable
VCHOFFSET	QUANT	0	Vch Offset (V)
VCHFILTER	IQUANT	3	Vch Filter
ACHRANGE	IQUANT	2	Ach Range
ACHOFFSETENABLE	TOGGLE	F	Ach Offset Enable
ACHOFFSET	QUANT	0	Ach Offset (V)
ACHFILTER	IQUANT	3	Ach Filter
IERANGELOWERLIMIT	IQUANT	1	I/E Range Lower Limit
IERANGEMODE	TOGGLE	F	I/E AutoRange
IERANGE	IQUANT	6	I/E Range
POSFEEDENABLE	TOGGLE	F	Positive Feedback IR Comp
POSFEEDRESISTANCE	QUANT	0	Positive Feedback Resistance (ohm)
ACHSELECT	IQUANT	0	Ach Select
CABLEID	IQUANT	14	Cable ID
DCCALDATE	LABEL	8/19/2019	DC Calibration Date
ACCALDATE	LABEL	8/19/2019	AC Calibration Date
THERMOSELECT	IQUANT	1	Thermo Select
FRAMEWORKVERSION	QUANT	6.33	Framework Version
INSTRUMENTVERSION	LABEL	3.50	Instrument Version
ZCURVE	TABLE
	Pt	Time	Freq	Zreal	Zimag	Zsig	Zmod	Zphz	Idc	Vdc	IERange
	#	s	Hz	ohm	ohm	V	ohm	°	A	V	#
	0	2	1000078	2525.632	-1924.424	1	3175.252	-37.30587	-1.359694E-006	0.0327408	8
	1	3	794390.6	2921.028	-1875.559	1	3471.33	-32.70406	5.332931E-006	0.0315487	8
	2	5	630984.4	3263.536	-1776.066	1	3715.519	-28.55571	-2.742901E-006	0.0327831	8
	3	6	501234.4	3559.992	-1630.164	1	3915.479	-24.60363	-2.228348E-006	0.0326996	8
	4	7	398109.4	3818.787	-1464.851	1	4090.1	-20.98635	-2.680968E-007	0.0321109	8
	5	9	316265.6	4017.455	-1307.598	1	4224.897	-18.02898	-4.65502E-006	0.032899	8
	6	10	251203.1	4159.425	-1154.427	1	4316.656	-15.51173	5.792007E-007	0.032078	8
	7	12	199546.9	4309.092	-1031.352	1	4430.797	-13.46014	3.654888E-006	0.0313952	8
	8	13	158578.1	4402.467	-937.9425	1	4501.272	-12.02701	-1.292919E-006	0.0324803	8
	9	14	125953.1	4511.294	-797.5556	1	4581.252	-10.02577	1.166715E-006	0.0293471	7
	10	16	100078.1	4569.324	-749.5811	1	4630.398	-9.316187	-9.100849E-008	0.0321317	7
	11	17	79453.13	4638.122	-727.0482	1	4694.76	-8.908895	4.792138E-008	0.0318469	7
	12	19	63140.62	4704.98	-721.6387	1	4760	-8.719936	1.404644E-008	0.0319224	7
	13	20	50203.12	4772.342	-733.6265	1	4828.401	-8.73936	4.81886E-008	0.0319444	7
	14	21	39890.62	4844.096	-761.5119	1	4903.587	-8.934016	1.14593E-007	0.0318856	7
	15	23	31640.63	4919.942	-802.7692	1	4985.005	-9.267081	1.296059E-007	0.0318053	7
	16	24	25171.88	5000.44	-861.7772	1	5074.157	-9.77831	-9.688056E-009	0.0320503	7
	17	25	20015.62	5085.967	-936.0709	1	5171.392	-10.42856	1.377766E-008	0.0319149	7
	18	27	15890.62	5189.925	-1032.413	1	5291.616	-11.25077	1.355652E-009	0.0319778	7
	19	28	12609.37	5300.521	-1146.163	1	5423.025	-12.20154	-4.588049E-008	0.0320066	7
	20	29	10078.13	5421.034	-1274.194	1	5568.768	-13.22706	8.95739E-008	0.031814	7
	21	31	8015.625	5552.046	-1424.101	1	5731.778	-14.38623	9.045683E-008	0.0318159	7
	22	32	6328.125	5714.025	-1618.674	1	5938.871	-15.81641	-6.115686E-009	0.0319745	7
	23	34	5015.625	5889.314	-1836.344	1	6168.969	-17.31797	1.152848E-007	0.0318881	7
	24	35	3984.375	6089.362	-2086.126	1	6436.789	-18.91071	-5.675104E-008	0.0320599	7
	25	36	3170.956	6304.082	-2372.757	1	6735.831	-20.62555	-6.654455E-008	0.0321153	7
	26	38	2527.573	6555.491	-2694.589	1	7087.685	-22.34478	-5.641755E-008	0.0320621	7
	27	39	1976.103	6853.812	-3110.477	1	7526.606	-24.41005	-4.71649E-008	0.0320016	7
	28	40	1577.524	7164.849	-3551.672	1	7996.839	-26.36798	-5.403474E-008	0.032108	7
	29	42	1265.625	7504.08	-4028.081	1	8516.846	-28.22626	-6.937543E-008	0.0321135	7
	30	43	998.264	7912.099	-4631.977	1	9168.234	-30.34597	1.149477E-007	0.0318891	7
	31	44	796.875	8326.67	-5283.805	1	9861.64	-32.39774	-7.005331E-009	0.0319558	6
	32	46	627.7902	8783.948	-6109.585	1	10699.76	-34.82015	-2.654609E-009	0.0320829	6
	33	47	505.5147	9219.438	-7009.417	1	11581.45	-37.24525	-3.173147E-009	0.0320784	6
	34	49	397.9953	9708.45	-8200.07	1	12708.07	-40.18553	-1.988988E-010	0.0319529	6
	35	50	315.5048	10192.01	-9641.02	1	14029.48	-43.40865	6.097406E-010	0.0319522	6
	36	51	252.4038	10676.18	-11363.55	1	15592.03	-46.78634	7.703369E-010	0.0319517	6
	37	53	198.6229	11235.17	-13680.74	1	17702.87	-50.6058	3.341524E-010	0.0319469	6
	38	54	158.3615	11822.5	-16435.11	1	20245.6	-54.27087	-1.974543E-010	0.0319465	6
	39	55	125.558	12532.93	-19951.32	1	23561.18	-57.86397	1.555061E-010	0.0319474	6
	40	57	100.4464	13342.2	-24162.45	1	27601.42	-61.09307	1.060037E-009	0.0319441	6
	41	58	79.00281	14455.12	-29808.75	1	33128.71	-64.12992	6.07188E-010	0.0319473	6
	42	59	63.3446	15469.21	-36142.44	1	39313.77	-66.82874	-1.04309E-010	0.0319494	6
	43	61	49.86702	17745.22	-44500.27	1	47907.9	-68.25954	-4.355218E-010	0.0319465	6
	44	62	39.72458	19806.57	-54501.03	1	57988.47	-70.02802	9.657523E-011	0.0319477	6
	45	64	31.6723	22793.04	-66510.48	1	70307.66	-71.08349	-7.805671E-011	0.0319493	6
	46	65	24.93351	26661.81	-82066.84	1	86289.16	-72.0021	3.846062E-010	0.0319475	6
	47	66	19.86229	31623.32	-99976.2	1	104858.3	-72.44739	2.998216E-011	0.0319476	6
	48	68	15.83615	38000.66	-121351.4	1	127162.1	-72.61227	4.564038E-010	0.031951	5
	49	69	12.40079	47685.19	-148778.6	1	156233.6	-72.22877	-5.752913E-010	0.0319534	5
	50	71	9.93114	58753.94	-179737.3	1	189096.6	-71.89806	1.22755E-010	0.0319594	5
	51	72	7.944915	74639.65	-216002.7	1	228535	-70.93743	1.474171E-010	0.0319601	5
	52	74	6.317385	93228.08	-258976.6	1	275246	-70.20181	-1.555029E-010	0.0319431	5
	53	76	5.008013	118691.4	-310143	1	332078.8	-69.0582	-1.088548E-010	0.0319561	5
	54	78	3.945707	151780.1	-370533.9	1	400415.5	-67.72475	-2.058567E-010	0.0319551	5
	55	81	3.158693	190962.6	-434522.8	1	474633.2	-66.27563	-2.45221E-011	0.0319509	5
	56	84	2.504006	240443.5	-509164.3	1	563082	-64.72183	-1.445924E-010	0.0319591	5
	57	87	1.998082	297967.9	-589035.4	1	660111.8	-63.1671	4.593557E-011	0.0319127	5
	58	90	1.584686	365570	-680124.5	1	772146.8	-61.74177	-2.049518E-010	0.031941	5
	59	94	1.266892	444049	-776811.5	1	894771.3	-60.2464	-8.668224E-011	0.0319082	5
	60	98	0.999041	535520.8	-891007.2	1	1039556	-58.99293	-1.409464E-010	0.0319891	4
