EXPLAIN
TAG	EISPOT
TITLE	LABEL	Potentiostatic EIS	Test &Identifier
DATE	LABEL	11/5/2019	Date
TIME	LABEL	10:17:23	Time
NOTES	NOTES	2	&Notes...
	
	
PSTAT	PSTAT	REF600-11020	Potentiostat
VDC	POTEN	0.00000E+000	T	DC &Voltage (V)
FREQINIT	QUANT	1.00000E+006	Initial Fre&q. (Hz)
FREQFINAL	QUANT	1.00000E+000	Final Fre&q. (Hz)
PTSPERDEC	QUANT	1.00000E+001	Points/&decade
VAC	QUANT	2.50000E+001	AC &Voltage (mV rms)
AREA	QUANT	1.00000E-002	&Area (cm^2)
CONDIT	TWOPARAM	T	5.00000E+000	0.00000E+000	Conditionin&g	Time(s)	E(V)
DELAY	TWOPARAM	T	5.00000E+000	0.00000E+000	Init. De&lay	Time(s)	Stab.(mV/s)
SPEED	SELECTOR	1	&Optimize for:
ZGUESS	QUANT	1.00000E+005	E&stimated Z (ohms)
OCVCURVE	TABLE	19
	Pt	T	Vf	Vm	Ach	Over
	#	s	V vs. Ref.	V	V	bits
	0	0.258333	4.63519E-003	4.63519E-003	5.64032E-004	...........
	1	0.516667	4.63088E-003	4.40959E-003	5.59532E-004	...........
	2	0.775	4.60491E-003	4.22190E-003	5.59866E-004	...........
	3	1.03333	4.53335E-003	4.05407E-003	5.63299E-004	...........
	4	1.29167	4.40970E-003	3.89967E-003	5.61899E-004	...........
	5	1.55	4.25225E-003	3.76637E-003	5.61132E-004	...........
	6	1.80833	4.08648E-003	3.63956E-003	5.56033E-004	...........
	7	2.06667	3.92931E-003	3.53288E-003	5.63466E-004	...........
	8	2.325	3.78715E-003	3.42605E-003	5.67499E-004	...........
	9	2.58333	3.65993E-003	3.32973E-003	5.67999E-004	...........
	10	2.84167	3.54481E-003	3.22953E-003	5.59799E-004	...........
	11	3.1	3.43831E-003	3.14083E-003	5.62932E-004	...........
	12	3.35833	3.33795E-003	3.06213E-003	5.62866E-004	...........
	13	3.61667	3.24319E-003	2.98999E-003	5.60132E-004	...........
	14	3.875	3.15476E-003	2.91467E-003	5.61266E-004	...........
	15	4.13333	3.07282E-003	2.85034E-003	5.62766E-004	...........
	16	4.39167	2.99640E-003	2.78096E-003	5.64632E-004	...........
	17	4.65	2.92426E-003	2.72018E-003	5.62432E-004	...........
	18	4.90833	2.85544E-003	2.65787E-003	5.61132E-004	...........
EOC	QUANT	0.0028554	Open Circuit (V)
PSTATMODEL	IQUANT	4	Pstat Model
PSTATSECTION	LABEL	REF600-11020	Pstat Section
PSTATSERIALNO	LABEL	11020	Pstat Serial Number
CTRLMODE	IQUANT	1	Control Mode
IESTAB	IQUANT	0	I/E Stability
CASPEED	IQUANT	1	Control Amp Speed
CONVENTION	IQUANT	1	Current Convention
ICHRANGE	IQUANT	2	Ich Range
ICHRANGEMODE	TOGGLE	F	Ich Auto Range
ICHOFFSETENABLE	TOGGLE	T	Ich Offset Enable
ICHOFFSET	QUANT	0	Ich Offset (V)
ICHFILTER	IQUANT	3	Ich Filter
VCHRANGE	IQUANT	2	Vch Range
VCHRANGEMODE	TOGGLE	F	Vch Auto Range
VCHOFFSETENABLE	TOGGLE	T	Vch Offset Enable
VCHOFFSET	QUANT	0	Vch Offset (V)
VCHFILTER	IQUANT	3	Vch Filter
ACHRANGE	IQUANT	2	Ach Range
ACHOFFSETENABLE	TOGGLE	F	Ach Offset Enable
ACHOFFSET	QUANT	0	Ach Offset (V)
ACHFILTER	IQUANT	3	Ach Filter
IERANGELOWERLIMIT	IQUANT	1	I/E Range Lower Limit
IERANGEMODE	TOGGLE	F	I/E AutoRange
IERANGE	IQUANT	4	I/E Range
POSFEEDENABLE	TOGGLE	F	Positive Feedback IR Comp
POSFEEDRESISTANCE	QUANT	0	Positive Feedback Resistance (ohm)
ACHSELECT	IQUANT	0	Ach Select
CABLEID	IQUANT	14	Cable ID
DCCALDATE	LABEL	8/19/2019	DC Calibration Date
ACCALDATE	LABEL	8/19/2019	AC Calibration Date
THERMOSELECT	IQUANT	1	Thermo Select
FRAMEWORKVERSION	QUANT	6.33	Framework Version
INSTRUMENTVERSION	LABEL	3.50	Instrument Version
ZCURVE	TABLE
	Pt	Time	Freq	Zreal	Zimag	Zsig	Zmod	Zphz	Idc	Vdc	IERange
	#	s	Hz	ohm	ohm	V	ohm	°	A	V	#
	0	2	1000078	2515.451	-1768.104	1	3074.684	-35.10329	-3.364384E-006	0.0053936	8
	1	4	794390.6	2901.972	-1686.988	1	3356.691	-30.1705	2.428936E-007	0.004187	8
	2	5	630984.4	3221.105	-1543.832	1	3571.966	-25.60777	-3.594974E-007	0.0040898	8
	3	7	501234.4	3476.288	-1373.586	1	3737.823	-21.56046	-2.273626E-006	0.0045024	8
	4	8	398109.4	3670.664	-1207.804	1	3864.268	-18.2134	-3.148208E-006	0.0049799	8
	5	10	316265.6	3827.244	-1041.388	1	3966.394	-15.22159	4.536611E-006	0.0042749	8
	6	11	251203.1	3930.007	-879.179	1	4027.146	-12.60997	-6.580669E-007	0.0048055	8
	7	12	199546.9	4023.11	-756.6422	1	4093.644	-10.65142	-1.714365E-006	0.0040475	8
	8	14	158578.1	4070.042	-663.8537	1	4123.826	-9.263785	-1.681087E-006	0.0040442	8
	9	15	125953.1	4153.788	-506.0008	1	4184.494	-6.945364	-1.896695E-006	0.0078383	7
	10	16	100078.1	4189.922	-451.1761	1	4214.144	-6.145999	9.248581E-007	0.0040642	7
	11	18	79453.13	4220.614	-412.8919	1	4240.762	-5.587321	-1.177803E-006	0.0047877	7
	12	19	63140.62	4252.96	-394.4203	1	4271.21	-5.298465	-3.092226E-007	0.0032111	7
	13	21	50203.12	4281.342	-381.2894	1	4298.287	-5.089243	-3.107291E-007	0.0032054	7
	14	22	39890.62	4309.699	-374.8672	1	4325.972	-4.971202	-1.179952E-006	0.0047845	7
	15	23	31640.63	4343.823	-385.1074	1	4360.86	-5.066388	1.258388E-006	0.0025909	7
	16	25	25171.88	4369.531	-401.6494	1	4387.952	-5.251898	-1.050022E-006	0.0061711	7
	17	26	20015.62	4407.207	-430.5331	1	4428.186	-5.579431	1.145513E-006	0.0023178	7
	18	27	15890.62	4439.17	-466.7219	1	4463.637	-6.001868	6.732207E-007	0.0045325	7
	19	29	12609.37	4472.922	-522.5571	1	4503.343	-6.663476	-1.412795E-006	0.0058855	7
	20	30	10078.13	4509.34	-587.4362	1	4547.442	-7.42218	-1.411381E-006	0.0058901	7
	21	31	8015.625	4555.775	-668.285	1	4604.529	-8.345181	9.292821E-007	0.0040543	7
	22	33	6328.125	4602.434	-775.774	1	4667.357	-9.56769	1.148338E-006	0.002319	7
	23	34	5015.625	4652.887	-907.0078	1	4740.466	-11.03059	1.256991E-006	0.002595	7
	24	35	3984.375	4704.545	-1068.523	1	4824.364	-12.79625	-3.08596E-007	0.0031985	7
	25	37	3170.956	4766.336	-1263.569	1	4930.98	-14.84773	4.766039E-008	0.0053778	7
	26	38	2527.573	4837.928	-1505.427	1	5066.741	-17.28467	1.263618E-006	0.0029763	7
	27	40	1976.103	4924.592	-1830.814	1	5253.902	-20.3936	1.147257E-006	0.0023121	7
	28	41	1577.524	5021.14	-2192.208	1	5478.834	-23.58588	1.149601E-006	0.0034731	7
	29	42	1265.625	5122.186	-2620.407	1	5753.549	-27.09337	-1.411953E-006	0.0058802	7
	30	44	998.264	5263.713	-3186.326	1	6152.995	-31.18812	-7.414646E-007	0.0060802	7
	31	45	796.875	5415.918	-3850.861	1	6645.396	-35.41383	-7.9928E-007	0.0039913	7
	32	46	627.7902	5608.498	-4700.628	1	7317.865	-39.96725	-8.061553E-007	0.0039876	7
	33	48	505.5147	5822.512	-5657.475	1	8118.416	-44.17637	1.782313E-007	0.0026238	7
	34	49	397.9953	6094.619	-6941.765	1	9237.558	-48.71803	3.357419E-009	0.0042698	7
	35	51	315.5048	6424.163	-8478.416	1	10637.36	-52.8485	3.091738E-010	0.004207	6
	36	52	252.4038	6808.818	-10297.03	1	12344.58	-56.52568	1.118785E-009	0.0041963	6
	37	53	198.6229	7326.326	-12697.34	1	14659.38	-60.01518	1.086396E-009	0.0042006	6
	38	55	158.3615	7949.045	-15484.79	1	17405.92	-62.82652	6.72981E-010	0.0041954	6
	39	56	125.558	8778.889	-18991.15	1	20922.06	-65.19069	8.293847E-010	0.0041995	6
	40	57	100.4464	9830.49	-23133.87	1	25135.92	-66.97746	1.967736E-010	0.0041982	6
	41	59	79.00281	11247.64	-28492.87	1	30632.55	-68.45824	1.646809E-010	0.0042009	6
	42	60	63.3446	13530.04	-34467.23	1	37027.72	-68.56762	1.467142E-009	0.004199	6
	43	62	49.86702	15606.47	-42509.18	1	45283.47	-69.84021	1.497927E-009	0.0041886	6
	44	63	39.72458	18971.42	-51022.28	1	54435.17	-69.60355	8.919879E-010	0.0041903	6
	45	64	31.6723	23180.25	-61356.35	1	65589.07	-69.30358	1.010028E-009	0.0041889	6
	46	66	24.93351	29082.31	-74040.41	1	79547.23	-68.55561	1.592792E-009	0.0041939	6
	47	67	19.86229	36193.36	-88049.09	1	95197.7	-67.65445	-1.802404E-010	0.0042031	6
	48	69	15.83615	44883.06	-104994.9	1	114185.9	-66.85434	2.330148E-009	0.0041933	5
	49	70	12.40079	54995.96	-124016.1	1	135663.4	-66.08472	-1.816808E-010	0.0042056	5
	50	71	9.93114	68650.91	-143822.1	1	159366.7	-64.48335	8.066988E-010	0.0042021	5
	51	73	7.944915	82849.38	-167120.7	1	186529.8	-63.63028	-2.521392E-011	0.0041966	5
	52	75	6.317385	100101	-194103.1	1	218394.7	-62.71936	4.801457E-010	0.0041948	5
	53	77	5.008013	120278.3	-225519.3	1	255589.1	-61.92725	3.614158E-010	0.0042137	5
	54	79	3.945707	144226.2	-262971.5	1	299925.3	-61.25753	-1.032689E-011	0.0041958	5
	55	82	3.158693	169842.2	-302856.2	1	347229.3	-60.71623	4.732565E-010	0.0042104	5
	56	85	2.504006	200899	-351029.4	1	404452.8	-60.2169	-7.775477E-011	0.0041953	5
	57	88	1.998082	234347.7	-405266.2	1	468144.8	-59.96109	1.354757E-010	0.0041762	5
	58	91	1.584686	275532.4	-468743.8	1	543726.8	-59.55255	1.32862E-010	0.0042472	5
	59	95	1.266892	319072.8	-541760.1	1	628738	-59.5038	-9.092423E-014	0.0041977	5
	60	99	0.999041	373521.9	-631642.8	1	733819.6	-59.40205	3.868161E-010	0.0042251	5
