EXPLAIN
TAG	EISPOT
TITLE	LABEL	Potentiostatic EIS	Test &Identifier
DATE	LABEL	11/7/2019	Date
TIME	LABEL	8:45:24	Time
NOTES	NOTES	2	&Notes...
	
	
PSTAT	PSTAT	REF600-11020	Potentiostat
VDC	POTEN	0.00000E+000	T	DC &Voltage (V)
FREQINIT	QUANT	1.00000E+006	Initial Fre&q. (Hz)
FREQFINAL	QUANT	1.00000E+000	Final Fre&q. (Hz)
PTSPERDEC	QUANT	1.00000E+001	Points/&decade
VAC	QUANT	2.50000E+001	AC &Voltage (mV rms)
AREA	QUANT	1.00000E-002	&Area (cm^2)
CONDIT	TWOPARAM	T	5.00000E+000	0.00000E+000	Conditionin&g	Time(s)	E(V)
DELAY	TWOPARAM	T	5.00000E+000	0.00000E+000	Init. De&lay	Time(s)	Stab.(mV/s)
SPEED	SELECTOR	1	&Optimize for:
ZGUESS	QUANT	1.00000E+005	E&stimated Z (ohms)
OCVCURVE	TABLE	19
	Pt	T	Vf	Vm	Ach	Over
	#	s	V vs. Ref.	V	V	bits
	0	0.258333	-3.22649E-003	-3.22649E-003	5.74466E-004	...........
	1	0.516667	-3.23892E-003	-3.87670E-003	5.74765E-004	...........
	2	0.775	-3.31457E-003	-4.46038E-003	5.70799E-004	...........
	3	1.03333	-3.52631E-003	-5.01022E-003	5.82132E-004	...........
	4	1.29167	-3.90000E-003	-5.52396E-003	5.75465E-004	...........
	5	1.55	-4.38906E-003	-6.01370E-003	5.75699E-004	...........
	6	1.80833	-4.92258E-003	-6.49284E-003	5.75232E-004	...........
	7	2.06667	-5.45197E-003	-6.94533E-003	5.64399E-004	...........
	8	2.325	-5.95829E-003	-7.38563E-003	5.68232E-004	...........
	9	2.58333	-6.43960E-003	-7.81202E-003	5.68999E-004	...........
	10	2.84167	-6.89950E-003	-8.22477E-003	5.69432E-004	...........
	11	3.1	-7.34171E-003	-8.61558E-003	5.71032E-004	...........
	12	3.35833	-7.76823E-003	-9.00039E-003	5.70132E-004	...........
	13	3.61667	-8.17981E-003	-9.37124E-003	5.77132E-004	...........
	14	3.875	-8.57725E-003	-9.73083E-003	5.73299E-004	...........
	15	4.13333	-8.96178E-003	-1.00856E-002	5.72066E-004	...........
	16	4.39167	-9.33478E-003	-1.04285E-002	5.78066E-004	...........
	17	4.65	-9.69751E-003	-1.07615E-002	5.72166E-004	...........
	18	4.90833	-1.00507E-002	-1.10878E-002	5.69066E-004	...........
EOC	QUANT	-0.0100507	Open Circuit (V)
PSTATMODEL	IQUANT	4	Pstat Model
PSTATSECTION	LABEL	REF600-11020	Pstat Section
PSTATSERIALNO	LABEL	11020	Pstat Serial Number
CTRLMODE	IQUANT	1	Control Mode
IESTAB	IQUANT	0	I/E Stability
CASPEED	IQUANT	1	Control Amp Speed
CONVENTION	IQUANT	1	Current Convention
ICHRANGE	IQUANT	2	Ich Range
ICHRANGEMODE	TOGGLE	F	Ich Auto Range
ICHOFFSETENABLE	TOGGLE	T	Ich Offset Enable
ICHOFFSET	QUANT	0	Ich Offset (V)
ICHFILTER	IQUANT	3	Ich Filter
VCHRANGE	IQUANT	2	Vch Range
VCHRANGEMODE	TOGGLE	F	Vch Auto Range
VCHOFFSETENABLE	TOGGLE	T	Vch Offset Enable
VCHOFFSET	QUANT	0	Vch Offset (V)
VCHFILTER	IQUANT	3	Vch Filter
ACHRANGE	IQUANT	2	Ach Range
ACHOFFSETENABLE	TOGGLE	F	Ach Offset Enable
ACHOFFSET	QUANT	0	Ach Offset (V)
ACHFILTER	IQUANT	3	Ach Filter
IERANGELOWERLIMIT	IQUANT	1	I/E Range Lower Limit
IERANGEMODE	TOGGLE	F	I/E AutoRange
IERANGE	IQUANT	5	I/E Range
POSFEEDENABLE	TOGGLE	F	Positive Feedback IR Comp
POSFEEDRESISTANCE	QUANT	0	Positive Feedback Resistance (ohm)
ACHSELECT	IQUANT	0	Ach Select
CABLEID	IQUANT	14	Cable ID
DCCALDATE	LABEL	8/19/2019	DC Calibration Date
ACCALDATE	LABEL	8/19/2019	AC Calibration Date
THERMOSELECT	IQUANT	1	Thermo Select
FRAMEWORKVERSION	QUANT	6.33	Framework Version
INSTRUMENTVERSION	LABEL	3.50	Instrument Version
ZCURVE	TABLE
	Pt	Time	Freq	Zreal	Zimag	Zsig	Zmod	Zphz	Idc	Vdc	IERange
	#	s	Hz	ohm	ohm	V	ohm	°	A	V	#
	0	1	1000078	2065.56	-1185.8	1	2381.735	-29.85935	1.223247E-005	-0.0090699	8
	1	3	794390.6	2299.465	-1114.588	1	2555.356	-25.86022	-7.16133E-006	-0.0079526	8
	2	4	630984.4	2494.185	-1007.417	1	2689.953	-21.99409	-1.602408E-007	-0.0077583	8
	3	5	501234.4	2639.063	-897.9985	1	2787.662	-18.79198	-1.624724E-006	-0.0078877	8
	4	7	398109.4	2759.9	-779.8984	1	2867.977	-15.77934	-6.37718E-007	-0.0087681	8
	5	8	316265.6	2847.721	-700.4303	1	2932.595	-13.81827	-2.795253E-006	-0.0085605	8
	6	9	251203.1	2920.769	-608.6187	1	2983.506	-11.77064	-2.935406E-006	-0.007873	8
	7	11	199546.9	2982.934	-543.4645	1	3032.037	-10.32554	6.643953E-006	-0.009266	8
	8	12	158578.1	3026.323	-491.2929	1	3065.941	-9.22095	-3.937155E-007	-0.0087628	8
	9	13	125953.1	3100.704	-390.9337	1	3125.251	-7.185881	1.744199E-006	-0.0142827	7
	10	15	100078.1	3125.155	-360.2913	1	3145.855	-6.576454	1.137576E-006	-0.0100514	7
	11	16	79453.13	3154.222	-352.093	1	3173.812	-6.369328	-7.604263E-007	-0.0086848	7
	12	17	63140.62	3186.146	-350.5038	1	3205.368	-6.277791	-3.18116E-007	-0.0094165	7
	13	19	50203.12	3219.967	-358.0063	1	3239.808	-6.344274	4.230818E-007	-0.0079893	7
	14	20	39890.62	3252.24	-368.9321	1	3273.098	-6.471932	-1.290791E-006	-0.006981	7
	15	22	31640.63	3288.793	-390.4455	1	3311.889	-6.770464	-1.289519E-006	-0.0069792	7
	16	23	25171.88	3329.346	-419.1607	1	3355.628	-7.175716	-6.435119E-007	-0.0068468	7
	17	24	20015.62	3369.823	-451.3191	1	3399.911	-7.628208	-1.102714E-006	-0.0079765	7
	18	26	15890.62	3421.301	-501.6474	1	3457.883	-8.34154	-2.952113E-007	-0.0071076	7
	19	27	12609.37	3473.672	-559.2219	1	3518.399	-9.145501	8.816866E-007	-0.0087694	7
	20	28	10078.13	3533.568	-614.0545	1	3586.526	-9.85827	-7.641736E-007	-0.0086973	7
	21	30	8015.625	3594.728	-698.0931	1	3661.885	-10.99	5.098515E-007	-0.0102791	7
	22	31	6328.125	3666.4	-790.1328	1	3750.573	-12.16161	8.817475E-007	-0.008765	7
	23	32	5015.625	3742.994	-896.4926	1	3848.857	-13.4693	5.095421E-007	-0.0102799	7
	24	34	3984.375	3824.049	-1023.105	1	3958.547	-14.97838	-3.175831E-007	-0.0094279	7
	25	35	3170.956	3910.742	-1170.2	1	4082.067	-16.65861	5.116908E-007	-0.010279	7
	26	36	2527.573	3998.337	-1343.897	1	4218.146	-18.57822	-7.630235E-007	-0.0087026	7
	27	38	1976.103	4102.881	-1579.543	1	4396.429	-21.0559	1.161492E-006	-0.0097371	7
	28	39	1577.524	4197.529	-1857.068	1	4589.984	-23.86553	-1.292899E-006	-0.0069979	7
	29	41	1265.625	4309.763	-2156.529	1	4819.198	-26.58257	1.144022E-006	-0.0100756	7
	30	42	998.264	4433.006	-2566.939	1	5122.57	-30.07305	-1.292371E-006	-0.0069971	7
	31	43	796.875	4558.974	-3053.317	1	5486.983	-33.81171	-1.099505E-006	-0.0079888	7
	32	45	627.7902	4709.464	-3695.675	1	5986.407	-38.12247	-1.291566E-006	-0.0069933	7
	33	46	505.5147	4862.678	-4429.356	1	6577.601	-42.33002	-3.183895E-007	-0.0094364	7
	34	47	397.9953	5064.193	-5410.782	1	7410.979	-46.89507	7.726761E-009	-0.0085087	7
	35	49	315.5048	5299.255	-6603.421	1	8466.834	-51.25291	4.139412E-009	-0.0085082	7
	36	50	252.4038	5577.596	-8018.187	1	9767.34	-55.17683	6.119313E-009	-0.0085118	7
	37	52	198.6229	5952.324	-9894.43	1	11546.86	-58.96959	1.170147E-009	-0.0085764	6
	38	53	158.3615	6402.595	-12082.26	1	13673.85	-62.08013	3.912415E-010	-0.0085681	6
	39	54	125.558	6996.948	-14837.69	1	16404.7	-64.75303	9.573647E-010	-0.0085663	6
	40	56	100.4464	7726.312	-18081.87	1	19663.41	-66.86317	5.847888E-010	-0.0085827	6
	41	57	79.00281	8823.244	-22324.77	1	24005.11	-68.43497	6.790911E-010	-0.0085736	6
	42	58	63.3446	10201.78	-26885.06	1	28755.57	-69.22031	1.769057E-009	-0.008578	6
	43	60	49.86702	11909.03	-33480.41	1	35535.37	-70.41946	1.488156E-009	-0.0085881	6
	44	61	39.72458	14061.08	-40521.48	1	42891.78	-70.86307	9.781326E-010	-0.0085742	6
	45	63	31.6723	17016.02	-48956.4	1	51829.28	-70.83382	1.339984E-009	-0.0085743	6
	46	64	24.93351	21046	-59752.2	1	63350.29	-70.59665	1.852816E-009	-0.0085848	6
	47	65	19.86229	25977.37	-71843.78	1	76396.02	-70.12096	1.962962E-009	-0.0085693	6
	48	67	15.83615	31893.74	-85649.34	1	91394.86	-69.57589	2.238622E-009	-0.0085749	6
	49	68	12.40079	41379.21	-103429.9	1	111400.1	-68.19513	4.823555E-010	-0.0085681	5
	50	70	9.93114	51406.98	-122237.8	1	132607.5	-67.19086	1.854417E-010	-0.0085731	5
	51	71	7.944915	64174.39	-143452.4	1	157152.6	-65.89832	1.005627E-009	-0.0085709	5
	52	73	6.317385	79517.83	-167873.7	1	185754.3	-64.65418	1.163173E-009	-0.0085731	5
	53	75	5.008013	98676.1	-195891.5	1	219341	-63.26432	8.832838E-010	-0.0085657	5
	54	77	3.945707	122094.1	-228067.9	1	258692.7	-61.83804	3.092072E-010	-0.0085757	5
	55	80	3.158693	147308.7	-261746.6	1	300351.7	-60.62957	8.527756E-010	-0.0085618	5
	56	83	2.504006	177784.5	-300822	1	349429.8	-59.41709	6.301383E-011	-0.0085737	5
	57	86	1.998082	211123.7	-342561.2	1	402394.5	-58.35408	4.794893E-010	-0.0086133	5
	58	89	1.584686	248524.7	-390640.2	1	462994.9	-57.53554	3.84842E-010	-0.0085549	5
	59	93	1.266892	290224.1	-444707.1	1	531031.5	-56.87078	4.66902E-010	-0.0086154	5
	60	97	0.999041	338507.4	-509576.4	1	611764.2	-56.40424	5.968099E-010	-0.0085321	5
