EXPLAIN
TAG	EISPOT
TITLE	LABEL	Potentiostatic EIS	Test &Identifier
DATE	LABEL	11/22/2019	Date
TIME	LABEL	10:54:57	Time
NOTES	NOTES	4	&Notes...
	
	
	
	
PSTAT	PSTAT	REF600-11020	Potentiostat
VDC	POTEN	0.00000E+000	T	DC &Voltage (V)
FREQINIT	QUANT	1.00000E+006	Initial Fre&q. (Hz)
FREQFINAL	QUANT	1.00000E+000	Final Fre&q. (Hz)
PTSPERDEC	QUANT	1.00000E+001	Points/&decade
VAC	QUANT	2.50000E+001	AC &Voltage (mV rms)
AREA	QUANT	1.00000E-002	&Area (cm^2)
CONDIT	TWOPARAM	T	5.00000E+000	0.00000E+000	Conditionin&g	Time(s)	E(V)
DELAY	TWOPARAM	T	5.00000E+000	0.00000E+000	Init. De&lay	Time(s)	Stab.(mV/s)
SPEED	SELECTOR	0	&Optimize for:
ZGUESS	QUANT	1.00000E+005	E&stimated Z (ohms)
OCVCURVE	TABLE	19
	Pt	T	Vf	Vm	Ach	Over
	#	s	V vs. Ref.	V	V	bits
	0	0.258333	3.06296E-002	3.06296E-002	6.02998E-004	...........
	1	0.516667	3.06683E-002	3.26543E-002	6.06332E-004	...........
	2	0.775	3.09048E-002	3.45236E-002	5.93532E-004	...........
	3	1.03333	3.15694E-002	3.62397E-002	5.98232E-004	...........
	4	1.29167	3.27515E-002	3.81893E-002	6.12165E-004	...........
	5	1.55	3.43126E-002	3.90970E-002	5.98632E-004	...........
	6	1.80833	3.60077E-002	4.08594E-002	5.94332E-004	...........
	7	2.06667	3.76506E-002	4.22335E-002	6.01999E-004	...........
	8	2.325	3.91921E-002	4.35675E-002	6.04098E-004	...........
	9	2.58333	4.06583E-002	4.48201E-002	5.90999E-004	...........
	10	2.84167	4.20636E-002	4.60125E-002	5.85632E-004	...........
	11	3.1	4.34029E-002	4.71458E-002	5.97132E-004	...........
	12	3.35833	4.46735E-002	4.82519E-002	6.04532E-004	...........
	13	3.61667	4.58798E-002	4.93041E-002	5.91699E-004	...........
	14	3.875	4.70309E-002	5.03299E-002	5.94232E-004	...........
	15	4.13333	4.81350E-002	5.13126E-002	6.07765E-004	...........
	16	4.39167	4.91976E-002	5.22584E-002	6.07965E-004	...........
	17	4.65	5.02218E-002	5.31789E-002	6.01798E-004	...........
	18	4.90833	5.12099E-002	5.40764E-002	6.04265E-004	...........
EOC	QUANT	0.0512099	Open Circuit (V)
PSTATMODEL	IQUANT	4	Pstat Model
PSTATSECTION	LABEL	REF600-11020	Pstat Section
PSTATSERIALNO	LABEL	11020	Pstat Serial Number
CTRLMODE	IQUANT	1	Control Mode
IESTAB	IQUANT	0	I/E Stability
CASPEED	IQUANT	1	Control Amp Speed
CONVENTION	IQUANT	1	Current Convention
ICHRANGE	IQUANT	2	Ich Range
ICHRANGEMODE	TOGGLE	F	Ich Auto Range
ICHOFFSETENABLE	TOGGLE	T	Ich Offset Enable
ICHOFFSET	QUANT	0	Ich Offset (V)
ICHFILTER	IQUANT	3	Ich Filter
VCHRANGE	IQUANT	2	Vch Range
VCHRANGEMODE	TOGGLE	F	Vch Auto Range
VCHOFFSETENABLE	TOGGLE	T	Vch Offset Enable
VCHOFFSET	QUANT	0	Vch Offset (V)
VCHFILTER	IQUANT	3	Vch Filter
ACHRANGE	IQUANT	2	Ach Range
ACHOFFSETENABLE	TOGGLE	F	Ach Offset Enable
ACHOFFSET	QUANT	0	Ach Offset (V)
ACHFILTER	IQUANT	3	Ach Filter
IERANGELOWERLIMIT	IQUANT	1	I/E Range Lower Limit
IERANGEMODE	TOGGLE	F	I/E AutoRange
IERANGE	IQUANT	5	I/E Range
POSFEEDENABLE	TOGGLE	F	Positive Feedback IR Comp
POSFEEDRESISTANCE	QUANT	0	Positive Feedback Resistance (ohm)
ACHSELECT	IQUANT	0	Ach Select
CABLEID	IQUANT	14	Cable ID
DCCALDATE	LABEL	8/19/2019	DC Calibration Date
ACCALDATE	LABEL	8/19/2019	AC Calibration Date
THERMOSELECT	IQUANT	1	Thermo Select
FRAMEWORKVERSION	QUANT	6.33	Framework Version
INSTRUMENTVERSION	LABEL	3.50	Instrument Version
ZCURVE	TABLE
	Pt	Time	Freq	Zreal	Zimag	Zsig	Zmod	Zphz	Idc	Vdc	IERange
	#	s	Hz	ohm	ohm	V	ohm	°	A	V	#
	0	1	1000078	1919.344	-1741.89	1	2591.923	-42.22512	1.381123E-007	0.0533908	8
	1	1	794390.6	2194.839	-1874.594	1	2886.42	-40.50035	2.864677E-006	0.052484	8
	2	1	630984.4	2514.687	-1978.816	1	3199.901	-38.19932	-1.034744E-006	0.0526865	8
	3	2	501234.4	2851.943	-2075.713	1	3527.345	-36.04804	7.96743E-006	0.0520528	8
	4	2	398109.4	3218.161	-2146.754	1	3868.477	-33.70625	1.245126E-006	0.0531707	8
	5	2	316265.6	3602.103	-2198.922	1	4220.237	-31.40219	-1.386639E-007	0.0525133	8
	6	3	251203.1	3999.522	-2212.324	1	4570.619	-28.94905	-2.12012E-006	0.0529692	8
	7	3	199546.9	4388.966	-2171.254	1	4896.669	-26.32194	1.893335E-006	0.0531196	8
	8	3	158578.1	4781.484	-2130.537	1	5234.671	-24.01683	-7.986745E-008	0.0525068	8
	9	4	125953.1	5170.931	-1889.806	1	5505.442	-20.0757	-3.371716E-006	0.0570717	7
	10	4	100078.1	5517.406	-1781.792	1	5797.979	-17.89735	7.066508E-008	0.0513474	7
	11	4	79453.13	5761.929	-1652.653	1	5994.255	-16.0041	-1.341545E-006	0.0544043	7
	12	5	63140.62	6020.897	-1531.477	1	6212.619	-14.27113	-6.562793E-007	0.0545217	7
	13	5	50203.12	6248.223	-1378.264	1	6398.429	-12.43938	4.82715E-007	0.0509803	7
	14	5	39890.62	6392.922	-1243.937	1	6512.82	-11.01104	-3.89357E-007	0.0519156	7
	15	6	31640.63	6559.127	-1154.097	1	6659.886	-9.97921	-2.865686E-007	0.0542393	7
	16	6	25171.88	6671.392	-1058.178	1	6754.792	-9.012847	-6.512463E-007	0.0545163	7
	17	6	20015.62	6765.384	-987.467	1	6837.069	-8.304185	-1.189873E-006	0.0545709	7
	18	7	15890.62	6929.264	-943.3651	1	6993.185	-7.752708	1.212932E-006	0.0514717	7
	19	7	12609.37	6992.41	-922.5569	1	7053.007	-7.516017	4.582659E-007	0.0533201	7
	20	8	10078.13	7057.126	-892.7262	1	7113.367	-7.20962	6.337001E-008	0.0513307	7
	21	8	8015.625	7169.166	-914.1439	1	7227.212	-7.2666	1.119004E-007	0.0537991	7
	22	8	6328.125	7286.885	-950.972	1	7348.676	-7.43534	7.051261E-007	0.0529428	7
	23	9	5015.625	7367.866	-994.019	1	7434.617	-7.683535	1.062918E-007	0.0537972	7
	24	9	3984.375	7432.54	-1059.125	1	7507.623	-8.109961	-6.554855E-007	0.0545123	7
	25	9	3170.956	7509.33	-1143.858	1	7595.949	-8.661	-8.473995E-007	0.0526628	7
	26	10	2527.573	7600.891	-1260.102	1	7704.635	-9.413079	-8.41478E-007	0.0526595	7
	27	10	1976.103	7699.886	-1416.664	1	7829.124	-10.42498	-1.343672E-006	0.0543879	7
	28	10	1577.524	7751.358	-1592.751	1	7913.306	-11.61153	-1.178635E-006	0.0533885	7
	29	11	1265.625	7922.04	-1870.034	1	8139.763	-13.2818	4.832682E-007	0.0509698	7
	30	11	998.264	8054.098	-2215.831	1	8353.347	-15.38256	1.182512E-006	0.0511165	7
	31	11	796.875	8142.262	-2615.009	1	8551.883	-17.8052	4.579696E-007	0.0533174	7
	32	12	627.7902	8227.215	-3143.362	1	8807.258	-20.9103	-6.520144E-007	0.0545099	7
	33	12	505.5147	8351.401	-3751.178	1	9155.176	-24.18807	-6.511578E-007	0.0545072	7
	34	12	397.9953	8527.081	-4594.697	1	9686.19	-28.31738	-2.544088E-009	0.0527888	7
	35	13	315.5048	8722.379	-5607.45	1	10369.35	-32.73619	-2.924369E-009	0.0527336	6
	36	13	252.4038	8949.239	-6813.971	1	11248.07	-37.28572	-3.062218E-009	0.0527251	6
	37	13	198.6229	9255.106	-8413.687	1	12507.88	-42.27353	-2.062085E-009	0.0527172	6
	38	14	158.3615	9620.9	-10277.77	1	14078.15	-46.89067	-2.088308E-009	0.0527172	6
	39	14	125.558	10107.17	-12619.22	1	16167.86	-51.30757	-2.006901E-009	0.0527275	6
	40	14	100.4464	10718.88	-15363.91	1	18733.51	-55.09782	-1.938521E-009	0.0527213	6
	41	15	79.00281	11557	-18965.46	1	22209.3	-58.64308	-2.327015E-009	0.0527174	6
	42	15	63.3446	12319.39	-23032.84	1	26120.47	-61.85938	-2.368647E-009	0.0527179	6
	43	15	49.86702	13693.47	-28243.04	1	31387.58	-64.13384	-2.463121E-009	0.0527211	6
	44	16	39.72458	15366.8	-34425.28	1	37699.32	-65.94491	-2.376981E-009	0.0527209	6
	45	16	31.6723	17437.3	-41815.42	1	45305.5	-67.36356	-3.262391E-009	0.0527223	6
	46	16	24.93351	20027.85	-51138.16	1	54920.18	-68.61261	-1.988302E-009	0.052717	6
	47	17	19.86229	23171.87	-61972.98	1	66163.33	-69.49909	-2.157228E-009	0.0527299	6
	48	17	15.83615	27041.7	-74793.67	1	79532.05	-70.12251	-2.034029E-009	0.0527137	6
	49	17	12.40079	32406.29	-91761.45	1	97315.6	-70.54892	-2.212933E-009	0.0527255	6
	50	17	9.93114	39174.55	-110249.3	1	117002.4	-70.4385	-2.832351E-009	0.0527175	5
	51	18	7.944915	47245.57	-132531.4	1	140700.8	-70.37957	-2.003856E-009	0.0527261	5
	52	19	6.317385	57870.62	-159159.2	1	169353.7	-70.01863	-2.15541E-009	0.0527294	5
	53	19	5.008013	71576.06	-191370.1	1	204317.5	-69.49324	-2.169731E-009	0.0527103	5
	54	20	3.945707	89444.56	-230030.1	1	246808	-68.752	-1.915645E-009	0.0527282	5
	55	22	3.158693	110537.6	-272251.7	1	293835.9	-67.90223	-2.141701E-009	0.0527322	5
	56	23	2.504006	137245.8	-323373.8	1	351293.3	-67.00274	-2.154431E-009	0.052729	5
	57	25	1.998082	169498.6	-379615.5	1	415737.6	-65.9392	-1.969043E-009	0.0527676	5
	58	26	1.584686	208353.1	-447341.7	1	493483.1	-65.02586	-1.699438E-009	0.0527661	5
	59	28	1.266892	254565.8	-519580	1	578590.6	-63.89767	-1.835298E-009	0.0527201	5
	60	31	0.999041	314145.3	-607683.9	1	684081.1	-62.66307	-1.76011E-009	0.0526993	5
