EXPLAIN
TAG	EISPOT
TITLE	LABEL	Potentiostatic EIS	Test &Identifier
DATE	LABEL	9/20/2019	Date
TIME	LABEL	12:36:17	Time
NOTES	NOTES	1	&Notes...
	
PSTAT	PSTAT	REF600-11020	Potentiostat
VDC	POTEN	0.00000E+000	T	DC &Voltage (V)
FREQINIT	QUANT	1.00000E+006	Initial Fre&q. (Hz)
FREQFINAL	QUANT	1.00000E+000	Final Fre&q. (Hz)
PTSPERDEC	QUANT	1.00000E+001	Points/&decade
VAC	QUANT	2.50000E+001	AC &Voltage (mV rms)
AREA	QUANT	1.00000E-002	&Area (cm^2)
CONDIT	TWOPARAM	T	5.00000E+000	0.00000E+000	Conditionin&g	Time(s)	E(V)
DELAY	TWOPARAM	T	5.00000E+000	0.00000E+000	Init. De&lay	Time(s)	Stab.(mV/s)
SPEED	SELECTOR	1	&Optimize for:
ZGUESS	QUANT	1.00000E+004	E&stimated Z (ohms)
OCVCURVE	TABLE	19
	Pt	T	Vf	Vm	Ach	Over
	#	s	V vs. Ref.	V	V	bits
	0	0.258333	4.21090E-003	4.21090E-003	5.60632E-004	...........
	1	0.516667	4.20548E-003	3.92720E-003	5.62832E-004	...........
	2	0.775	4.17370E-003	3.73716E-003	5.62499E-004	...........
	3	1.03333	4.13529E-003	5.98661E-003	5.62632E-004	...........
	4	1.29167	4.23475E-003	5.83154E-003	5.62999E-004	...........
	5	1.55	4.59943E-003	5.85287E-003	5.64999E-004	...........
	6	1.80833	5.11200E-003	5.67910E-003	5.66166E-004	...........
	7	2.06667	5.51224E-003	5.08094E-003	5.66899E-004	...........
	8	2.325	5.64394E-003	4.75976E-003	5.66432E-004	...........
	9	2.58333	5.50952E-003	4.40150E-003	5.67166E-004	...........
	10	2.84167	5.20294E-003	4.05106E-003	5.67399E-004	...........
	11	3.1	4.82988E-003	3.73412E-003	5.64399E-004	...........
	12	3.35833	4.45662E-003	3.52134E-003	5.66799E-004	...........
	13	3.61667	4.11209E-003	3.22942E-003	5.68132E-004	...........
	14	3.875	3.80468E-003	3.04959E-003	5.64332E-004	...........
	15	4.13333	3.53218E-003	2.86263E-003	5.65632E-004	...........
	16	4.39167	3.29075E-003	2.69486E-003	5.60532E-004	...........
	17	4.65	3.07775E-003	2.55486E-003	5.65166E-004	...........
	18	4.90833	2.88948E-003	2.40671E-003	5.64732E-004	...........
EOC	QUANT	0.0028895	Open Circuit (V)
PSTATMODEL	IQUANT	4	Pstat Model
PSTATSECTION	LABEL	REF600-11020	Pstat Section
PSTATSERIALNO	LABEL	11020	Pstat Serial Number
CTRLMODE	IQUANT	1	Control Mode
IESTAB	IQUANT	0	I/E Stability
CASPEED	IQUANT	1	Control Amp Speed
CONVENTION	IQUANT	1	Current Convention
ICHRANGE	IQUANT	2	Ich Range
ICHRANGEMODE	TOGGLE	F	Ich Auto Range
ICHOFFSETENABLE	TOGGLE	T	Ich Offset Enable
ICHOFFSET	QUANT	0	Ich Offset (V)
ICHFILTER	IQUANT	3	Ich Filter
VCHRANGE	IQUANT	2	Vch Range
VCHRANGEMODE	TOGGLE	F	Vch Auto Range
VCHOFFSETENABLE	TOGGLE	T	Vch Offset Enable
VCHOFFSET	QUANT	0	Vch Offset (V)
VCHFILTER	IQUANT	3	Vch Filter
ACHRANGE	IQUANT	2	Ach Range
ACHOFFSETENABLE	TOGGLE	F	Ach Offset Enable
ACHOFFSET	QUANT	0	Ach Offset (V)
ACHFILTER	IQUANT	3	Ach Filter
IERANGELOWERLIMIT	IQUANT	1	I/E Range Lower Limit
IERANGEMODE	TOGGLE	F	I/E AutoRange
IERANGE	IQUANT	5	I/E Range
POSFEEDENABLE	TOGGLE	F	Positive Feedback IR Comp
POSFEEDRESISTANCE	QUANT	0	Positive Feedback Resistance (ohm)
ACHSELECT	IQUANT	0	Ach Select
CABLEID	IQUANT	14	Cable ID
DCCALDATE	LABEL	8/19/2019	DC Calibration Date
ACCALDATE	LABEL	8/19/2019	AC Calibration Date
THERMOSELECT	IQUANT	1	Thermo Select
FRAMEWORKVERSION	QUANT	6.33	Framework Version
INSTRUMENTVERSION	LABEL	3.50	Instrument Version
ZCURVE	TABLE
	Pt	Time	Freq	Zreal	Zimag	Zsig	Zmod	Zphz	Idc	Vdc	IERange
	#	s	Hz	ohm	ohm	V	ohm	°	A	V	#
	0	2	1000078	2490.248	-1706.472	1	3018.838	-34.42134	-1.704515E-006	0.0058846	8
	1	3	794390.6	2841.811	-1614.188	1	3268.255	-29.59717	2.556169E-006	0.0045405	8
	2	4	630984.4	3143.865	-1501.725	1	3484.116	-25.53234	-1.599551E-006	0.0051165	8
	3	6	501234.4	3381.03	-1338.732	1	3636.423	-21.60129	-3.332438E-006	0.0055153	8
	4	7	398109.4	3582.577	-1167.525	1	3768.02	-18.05025	1.170458E-006	0.0045419	8
	5	8	316265.6	3716.786	-997.623	1	3848.343	-15.02463	-3.148148E-006	0.0053239	8
	6	10	251203.1	3849.917	-874.975	1	3948.094	-12.80418	9.570159E-007	0.0044966	8
	7	11	199546.9	3913.992	-736.1699	1	3982.623	-10.65212	-1.896109E-006	0.0050107	8
	8	12	158578.1	3967.276	-636.6918	1	4018.041	-9.117418	-2.343447E-006	0.0049713	8
	9	14	125953.1	4051.859	-513.133	1	4084.222	-7.217594	-7.765857E-007	0.0061966	7
	10	15	100078.1	4080.429	-459.9347	1	4106.268	-6.431078	7.978975E-008	0.0045555	7
	11	17	79453.13	4111.939	-425.5712	1	4133.903	-5.908873	7.952251E-008	0.0045491	7
	12	18	63140.62	4143.371	-403.3726	1	4162.959	-5.560435	-3.221143E-008	0.0045996	7
	13	19	50203.12	4173.411	-390.9287	1	4191.681	-5.351354	7.915215E-008	0.004542	7
	14	21	39890.62	4201.579	-394.4382	1	4220.053	-5.363127	1.438398E-008	0.0045128	7
	15	22	31640.63	4235.661	-401.6252	1	4254.66	-5.416589	4.23487E-008	0.0044566	7
	16	23	25171.88	4269.161	-421.1731	1	4289.886	-5.634271	-4.92179E-009	0.0045996	7
	17	25	20015.62	4304.859	-451.7913	1	4328.501	-5.991211	-9.588029E-009	0.0045347	7
	18	26	15890.62	4344.716	-493.2333	1	4372.624	-6.476767	-6.331346E-009	0.0046279	7
	19	28	12609.37	4385.989	-546.1698	1	4419.864	-7.098277	4.235811E-008	0.0044505	7
	20	29	10078.13	4429.995	-610.1401	1	4471.815	-7.841969	-4.190649E-008	0.0046071	7
	21	30	8015.625	4478.573	-694.2889	1	4532.07	-8.812108	4.248469E-008	0.004447	7
	22	32	6328.125	4530.962	-798.3573	1	4600.76	-9.99297	1.309827E-007	0.0043875	7
	23	33	5015.625	4589.558	-926.4133	1	4682.124	-11.41195	-1.818453E-008	0.0045546	7
	24	34	3984.375	4651.447	-1081.591	1	4775.542	-13.09025	3.79919E-008	0.0045293	7
	25	36	3170.956	4720.78	-1270.929	1	4888.867	-15.06792	3.961398E-008	0.0045356	7
	26	37	2527.573	4798.893	-1500.903	1	5028.129	-17.36761	-7.519019E-009	0.0046122	7
	27	38	1976.103	4895.482	-1807.122	1	5218.375	-20.26116	-3.236302E-008	0.0045862	7
	28	40	1577.524	4996.842	-2153.376	1	5441.09	-23.3135	8.015232E-008	0.0044086	7
	29	41	1265.625	5134.69	-2555.439	1	5735.443	-26.45867	-6.562629E-009	0.0046279	7
	30	43	998.264	5253.737	-3100.304	1	6100.299	-30.54545	-4.899531E-008	0.0047336	7
	31	44	796.875	5413.353	-3722.371	1	6569.66	-34.51349	-7.952528E-009	0.0046235	7
	32	45	627.7902	5610.248	-4523.861	1	7206.955	-38.8812	8.123806E-008	0.0044104	7
	33	47	505.5147	5818.461	-5421.475	1	7952.791	-42.9772	-3.222912E-008	0.0045904	7
	34	48	397.9953	6087.305	-6629.625	1	9000.4	-47.44193	5.595761E-009	0.0046006	7
	35	49	315.5048	6401.21	-8075.37	1	10304.71	-51.59673	9.69725E-010	0.0045396	6
	36	51	252.4038	6761.694	-9780.65	1	11890.4	-55.34259	8.456956E-010	0.0045408	6
	37	52	198.6229	7235.551	-12038.54	1	14045.62	-58.99277	1.451295E-009	0.0045403	6
	38	53	158.3615	7796.3	-14670.99	1	16613.86	-62.01341	1.722889E-009	0.0045377	6
	39	55	125.558	8523.435	-17976.9	1	19895.18	-64.63285	1.495268E-009	0.0045443	6
	40	56	100.4464	9413.26	-21841.59	1	23783.71	-66.68499	7.341238E-010	0.00454	6
	41	58	79.00281	10665.92	-27030.35	1	29058.59	-68.46629	9.481167E-010	0.0045352	6
	42	59	63.3446	12226.9	-32970.27	1	35164.41	-69.65289	8.136179E-010	0.0045336	6
	43	60	49.86702	14251.71	-40008.69	1	42471.24	-70.39331	4.247427E-010	0.0045375	6
	44	62	39.72458	17038.74	-48728.61	1	51621.66	-70.727	1.432878E-009	0.0045388	6
	45	63	31.6723	20379.33	-59041.43	1	62459.65	-70.95686	4.762923E-011	0.0045348	6
	46	65	24.93351	25205.78	-71897.52	1	76187.83	-70.6804	1.977086E-010	0.0045388	6
	47	66	19.86229	30966.85	-86376.65	1	91759.85	-70.27676	1.341166E-009	0.0045424	6
	48	67	15.83615	38423.34	-104245	1	111100.7	-69.76677	-6.453548E-010	0.0045369	5
	49	69	12.40079	48700.52	-125279.8	1	134412.7	-68.7572	1.494139E-011	0.0045416	5
	50	70	9.93114	59783.18	-147706.2	1	159346	-67.96466	7.446662E-010	0.0045407	5
	51	72	7.944915	74169.61	-174009	1	189156.7	-66.91435	6.814377E-010	0.0045459	5
	52	74	6.317385	90979.81	-204783.7	1	224084.1	-66.04572	1.813182E-010	0.0045349	5
	53	76	5.008013	112684.8	-240939.8	1	265988.5	-64.93504	1.66745E-010	0.0045301	5
	54	78	3.945707	139258.2	-283084.2	1	315483	-63.80595	3.989547E-010	0.0045378	5
	55	81	3.158693	168649.2	-328070.2	1	368880.3	-62.79392	1.159427E-010	0.0045201	5
	56	84	2.504006	205002.4	-380690.4	1	432378.5	-61.69747	6.101563E-010	0.0045425	5
	57	87	1.998082	246000.5	-438266	1	502586.7	-60.69433	5.386793E-010	0.0045507	5
	58	90	1.584686	297502.7	-504541.7	1	585721.9	-59.4743	1.823739E-010	0.0044869	5
	59	94	1.266892	348540.6	-576558.4	1	673721.1	-58.84624	4.18079E-010	0.004544	5
	60	98	0.999041	414456.3	-666383.3	1	784755.2	-58.1205	-3.811477E-011	0.0045059	5
