EXPLAIN
TAG	EISPOT
TITLE	LABEL	Potentiostatic IDE	Test &Identifier
DATE	LABEL	9/10/2019	Date
TIME	LABEL	9:11:05	Time
NOTES	NOTES	1	&Notes...
	
PSTAT	PSTAT	REF600-11020	Potentiostat
VDC	POTEN	0.00000E+000	T	DC &Voltage (V)
FREQINIT	QUANT	1.00000E+006	Initial Fre&q. (Hz)
FREQFINAL	QUANT	1.00000E+000	Final Fre&q. (Hz)
PTSPERDEC	QUANT	1.00000E+001	Points/&decade
VAC	QUANT	2.50000E+001	AC &Voltage (mV rms)
AREA	QUANT	1.00000E-002	&Area (cm^2)
CONDIT	TWOPARAM	T	5.00000E+000	0.00000E+000	Conditionin&g	Time(s)	E(V)
DELAY	TWOPARAM	T	5.00000E+000	0.00000E+000	Init. De&lay	Time(s)	Stab.(mV/s)
SPEED	SELECTOR	1	&Optimize for:
ZGUESS	QUANT	1.00000E+007	E&stimated Z (ohms)
OCVCURVE	TABLE	19
	Pt	T	Vf	Vm	Ach	Over
	#	s	V vs. Ref.	V	V	bits
	0	0.258333	1.06858E-002	1.06858E-002	5.68899E-004	...........
	1	0.516667	1.06898E-002	1.08975E-002	5.80965E-004	...........
	2	0.775	1.07150E-002	1.11179E-002	5.75099E-004	...........
	3	1.03333	1.07877E-002	1.13330E-002	5.76699E-004	...........
	4	1.29167	1.09207E-002	1.15538E-002	5.77999E-004	...........
	5	1.55	1.11027E-002	1.17728E-002	5.77966E-004	...........
	6	1.80833	1.13120E-002	1.19850E-002	5.78566E-004	...........
	7	2.06667	1.15309E-002	1.21913E-002	5.75232E-004	...........
	8	2.325	1.17495E-002	1.24057E-002	5.79632E-004	...........
	9	2.58333	1.19647E-002	1.26095E-002	5.77866E-004	...........
	10	2.84167	1.21765E-002	1.28092E-002	5.79932E-004	...........
	11	3.1	1.23851E-002	1.30095E-002	5.76532E-004	...........
	12	3.35833	1.25904E-002	1.32074E-002	5.74865E-004	...........
	13	3.61667	1.27926E-002	1.33910E-002	5.76466E-004	...........
	14	3.875	1.29911E-002	1.35765E-002	5.76166E-004	...........
	15	4.13333	1.31851E-002	1.37478E-002	5.75766E-004	...........
	16	4.39167	1.33736E-002	1.39283E-002	5.72832E-004	...........
	17	4.65	1.35567E-002	1.40993E-002	5.72199E-004	...........
	18	4.90833	1.37355E-002	1.42646E-002	5.73232E-004	...........
EOC	QUANT	0.0137355	Open Circuit (V)
PSTATMODEL	IQUANT	4	Pstat Model
PSTATSECTION	LABEL	REF600-11020	Pstat Section
PSTATSERIALNO	LABEL	11020	Pstat Serial Number
CTRLMODE	IQUANT	1	Control Mode
IESTAB	IQUANT	0	I/E Stability
CASPEED	IQUANT	1	Control Amp Speed
CONVENTION	IQUANT	1	Current Convention
ICHRANGE	IQUANT	2	Ich Range
ICHRANGEMODE	TOGGLE	F	Ich Auto Range
ICHOFFSETENABLE	TOGGLE	T	Ich Offset Enable
ICHOFFSET	QUANT	0	Ich Offset (V)
ICHFILTER	IQUANT	3	Ich Filter
VCHRANGE	IQUANT	2	Vch Range
VCHRANGEMODE	TOGGLE	F	Vch Auto Range
VCHOFFSETENABLE	TOGGLE	T	Vch Offset Enable
VCHOFFSET	QUANT	0	Vch Offset (V)
VCHFILTER	IQUANT	3	Vch Filter
ACHRANGE	IQUANT	2	Ach Range
ACHOFFSETENABLE	TOGGLE	F	Ach Offset Enable
ACHOFFSET	QUANT	0	Ach Offset (V)
ACHFILTER	IQUANT	3	Ach Filter
IERANGELOWERLIMIT	IQUANT	1	I/E Range Lower Limit
IERANGEMODE	TOGGLE	F	I/E AutoRange
IERANGE	IQUANT	3	I/E Range
POSFEEDENABLE	TOGGLE	F	Positive Feedback IR Comp
POSFEEDRESISTANCE	QUANT	0	Positive Feedback Resistance (ohm)
ACHSELECT	IQUANT	0	Ach Select
CABLEID	IQUANT	14	Cable ID
DCCALDATE	LABEL	8/19/2019	DC Calibration Date
ACCALDATE	LABEL	8/19/2019	AC Calibration Date
THERMOSELECT	IQUANT	1	Thermo Select
FRAMEWORKVERSION	QUANT	6.33	Framework Version
INSTRUMENTVERSION	LABEL	3.50	Instrument Version
ZCURVE	TABLE
	Pt	Time	Freq	Zreal	Zimag	Zsig	Zmod	Zphz	Idc	Vdc	IERange
	#	s	Hz	ohm	ohm	V	ohm	°	A	V	#
	0	2	1000078	2680.118	-2017.839	1	3354.804	-36.97579	2.467862E-006	0.0160011	8
	1	3	794390.6	3094.812	-1962.114	1	3664.389	-32.37474	-2.404214E-006	0.0160836	8
	2	5	630984.4	3473.395	-1853.557	1	3937.022	-28.08635	-1.159575E-007	0.0157023	8
	3	6	501234.4	3794.931	-1671.466	1	4146.721	-23.77095	3.985547E-006	0.0146657	8
	4	7	398109.4	4051.775	-1488.899	1	4316.677	-20.17678	2.237677E-006	0.0149904	8
	5	9	316265.6	4242.349	-1292.693	1	4434.927	-16.94659	-6.877308E-007	0.0156446	8
	6	10	251203.1	4400.356	-1119.21	1	4540.459	-14.27032	3.556671E-008	0.0153157	8
	7	11	199546.9	4541.19	-987.826	1	4647.388	-12.27213	-1.277944E-006	0.0157418	8
	8	13	158578.1	4602.549	-864.2573	1	4682.991	-10.63504	3.571673E-006	0.0146245	8
	9	14	125953.1	4689.512	-717.397	1	4744.068	-8.697621	3.664039E-007	0.0143261	7
	10	16	100078.1	4743.796	-643.1037	1	4787.189	-7.720369	8.981458E-008	0.0152298	7
	11	17	79453.13	4797.691	-597.0385	1	4834.697	-7.093585	5.007477E-008	0.0152665	7
	12	18	63140.62	4844.67	-567.6509	1	4877.813	-6.682886	-6.07028E-008	0.0155211	7
	13	20	50203.12	4886.568	-550.0179	1	4917.425	-6.422017	4.965755E-008	0.0152569	7
	14	21	39890.62	4928.999	-545.4396	1	4959.085	-6.31462	3.543062E-008	0.0153025	7
	15	22	31640.63	4978.183	-561.729	1	5009.774	-6.43792	-5.825873E-008	0.0154171	7
	16	23	25171.88	5021.772	-590.3602	1	5056.355	-6.704924	3.499461E-008	0.0153001	7
	17	25	20015.62	5067.849	-632.4961	1	5107.166	-7.114051	-2.932354E-008	0.0153413	7
	18	26	15890.62	5120.153	-691.4198	1	5166.626	-7.690637	-3.385853E-008	0.0154161	7
	19	27	12609.37	5174.899	-769.6717	1	5231.823	-8.459685	-3.384133E-008	0.0154195	7
	20	29	10078.13	5231.016	-867.2642	1	5302.421	-9.413593	-8.345689E-009	0.0153873	7
	21	30	8015.625	5297.652	-992.923	1	5389.899	-10.61561	-2.138965E-008	0.0153269	7
	22	31	6328.125	5369.881	-1153.438	1	5492.362	-12.1228	-4.266913E-008	0.0153902	7
	23	33	5015.625	5451.906	-1347.305	1	5615.916	-13.88113	-4.545163E-009	0.0153204	7
	24	34	3984.375	5543.735	-1581.535	1	5764.916	-15.92256	-9.242674E-009	0.0153783	7
	25	35	3170.956	5645.76	-1871.289	1	5947.8	-18.3378	1.072878E-008	0.0154042	7
	26	37	2527.573	5768.305	-2202.857	1	6174.619	-20.90135	-5.866921E-009	0.0152883	7
	27	38	1976.103	5920.914	-2669.762	1	6494.986	-24.27079	1.979079E-008	0.0152744	7
	28	39	1577.524	6085.607	-3170.49	1	6861.969	-27.51869	-6.03392E-008	0.015518	7
	29	41	1265.625	6270.758	-3769.791	1	7316.675	-31.01302	-4.785016E-008	0.0154202	7
	30	42	998.264	6511.418	-4548.668	1	7942.855	-34.93691	-2.79138E-008	0.0153306	7
	31	43	796.875	6777.206	-5440.205	1	8690.59	-38.75474	3.555436E-008	0.0152252	7
	32	45	627.7902	7103.144	-6600.404	1	9696.39	-42.89894	-4.698494E-011	0.0153235	7
	33	46	505.5147	7461.257	-7857.379	1	10835.53	-46.48127	-5.585318E-009	0.015404	6
	34	47	397.9953	7925.836	-9551.93	1	12412.02	-50.31538	4.40772E-010	0.0152943	6
	35	49	315.5048	8461.938	-11565.83	1	14330.83	-53.80959	8.736796E-010	0.0152965	6
	36	50	252.4038	9081.133	-13916.37	1	16617.23	-56.87352	1.016271E-009	0.015287	6
	37	51	198.6229	9889.41	-16994.18	1	19662.21	-59.80363	6.550818E-010	0.0152896	6
	38	53	158.3615	10821.53	-20541.13	1	23217.31	-62.21873	7.62701E-010	0.0152992	6
	39	54	125.558	11992.77	-24954.37	1	27686.59	-64.33161	5.353927E-010	0.0152937	6
	40	55	100.4464	13404.85	-30096.04	1	32946.34	-65.9917	9.917219E-010	0.0152879	6
	41	57	79.00281	15228.11	-36802.18	1	39828.33	-67.52106	9.020185E-010	0.0152879	6
	42	58	63.3446	17597.13	-44173.35	1	47549.38	-68.27938	6.129696E-010	0.0152828	6
	43	59	49.86702	20092.23	-54316.24	1	57913.31	-69.69996	6.946963E-010	0.0152799	6
	44	61	39.72458	23723.68	-65565.27	1	69725.3	-70.1082	6.800489E-010	0.0152876	6
	45	62	31.6723	28081.46	-79159.33	1	83992.66	-70.46806	6.280401E-010	0.015287	6
	46	64	24.93351	34169.36	-96635.8	1	102498.8	-70.52695	4.640842E-010	0.0152845	6
	47	65	19.86229	41470.58	-116660.7	1	123812.5	-70.4307	-1.706502E-010	0.0152875	5
	48	66	15.83615	51404.27	-141054.5	1	150129.2	-69.97683	1.381318E-009	0.0152923	5
	49	68	12.40079	63889.08	-170165.5	1	181763.9	-69.42122	2.041127E-010	0.0152964	5
	50	69	9.93114	81180.64	-202525.9	1	218190.4	-68.15707	1.151767E-010	0.0152954	5
	51	71	7.944915	102094	-239394.7	1	260255.7	-66.90334	5.464936E-012	0.0152935	5
	52	72	6.317385	128408.1	-281864.9	1	309736.1	-65.50759	-1.448847E-010	0.0153079	5
	53	75	5.008013	162631.7	-330179.3	1	368059	-63.77718	-1.679233E-010	0.01529	5
	54	77	3.945707	205538.7	-384015	1	435561.4	-61.8427	2.309153E-010	0.015296	5
	55	80	3.158693	253073.4	-439346.3	1	507022	-60.05709	-1.888378E-010	0.0152774	5
	56	83	2.504006	311172.5	-500246.6	1	589130.7	-58.11681	3.40382E-010	0.0152916	5
	57	86	1.998082	374141.8	-563000.1	1	675981.7	-56.39397	-1.605962E-011	0.0153423	5
	58	89	1.584686	443775.9	-633453.6	1	773434.3	-54.98623	1.618521E-010	0.0153183	5
	59	92	1.266892	519338.3	-706474.1	1	876822.6	-53.67991	-1.426404E-010	0.0153329	5
	60	97	0.999041	603729.9	-795020.3	1	998272	-52.78735	1.54006E-010	0.0152835	4
