EXPLAIN
TAG	EISPOT
TITLE	LABEL	Potentiostatic EIS	Test &Identifier
DATE	LABEL	11/21/2019	Date
TIME	LABEL	23:31:45	Time
NOTES	NOTES	4	&Notes...
	
	
	
	
PSTAT	PSTAT	REF600-11020	Potentiostat
VDC	POTEN	0.00000E+000	T	DC &Voltage (V)
FREQINIT	QUANT	1.00000E+006	Initial Fre&q. (Hz)
FREQFINAL	QUANT	1.00000E+000	Final Fre&q. (Hz)
PTSPERDEC	QUANT	1.00000E+001	Points/&decade
VAC	QUANT	2.50000E+001	AC &Voltage (mV rms)
AREA	QUANT	1.00000E-002	&Area (cm^2)
CONDIT	TWOPARAM	T	5.00000E+000	0.00000E+000	Conditionin&g	Time(s)	E(V)
DELAY	TWOPARAM	T	5.00000E+000	0.00000E+000	Init. De&lay	Time(s)	Stab.(mV/s)
SPEED	SELECTOR	1	&Optimize for:
ZGUESS	QUANT	1.00000E+005	E&stimated Z (ohms)
OCVCURVE	TABLE	19
	Pt	T	Vf	Vm	Ach	Over
	#	s	V vs. Ref.	V	V	bits
	0	0.258333	1.48472E-003	1.48472E-003	5.56299E-004	...........
	1	0.516667	1.47463E-003	9.56262E-004	5.56899E-004	...........
	2	0.775	1.41263E-003	4.55060E-004	5.53366E-004	...........
	3	1.03333	1.23816E-003	2.30706E-005	5.56199E-004	...........
	4	1.29167	9.30226E-004	-3.82955E-004	5.55966E-004	...........
	5	1.55	5.30297E-004	-7.50459E-004	5.55866E-004	...........
	6	1.80833	1.01441E-004	-1.08495E-003	5.56133E-004	...........
	7	2.06667	-3.12683E-004	-1.41612E-003	5.61966E-004	...........
	8	2.325	-6.95952E-004	-1.73215E-003	5.60166E-004	...........
	9	2.58333	-1.04991E-003	-2.02448E-003	5.52499E-004	...........
	10	2.84167	-1.38106E-003	-2.30010E-003	5.53233E-004	...........
	11	3.1	-1.69345E-003	-2.55646E-003	5.56566E-004	...........
	12	3.35833	-1.98842E-003	-2.81604E-003	5.52266E-004	...........
	13	3.61667	-2.26720E-003	-3.04470E-003	5.55366E-004	...........
	14	3.875	-2.53145E-003	-3.27401E-003	5.54433E-004	...........
	15	4.13333	-2.78238E-003	-3.48833E-003	5.58432E-004	...........
	16	4.39167	-3.02084E-003	-3.69079E-003	5.59332E-004	...........
	17	4.65	-3.24815E-003	-3.91466E-003	5.57333E-004	...........
	18	4.90833	-3.46705E-003	-4.11927E-003	5.52099E-004	...........
EOC	QUANT	-0.0034671	Open Circuit (V)
PSTATMODEL	IQUANT	4	Pstat Model
PSTATSECTION	LABEL	REF600-11020	Pstat Section
PSTATSERIALNO	LABEL	11020	Pstat Serial Number
CTRLMODE	IQUANT	1	Control Mode
IESTAB	IQUANT	0	I/E Stability
CASPEED	IQUANT	1	Control Amp Speed
CONVENTION	IQUANT	1	Current Convention
ICHRANGE	IQUANT	2	Ich Range
ICHRANGEMODE	TOGGLE	F	Ich Auto Range
ICHOFFSETENABLE	TOGGLE	T	Ich Offset Enable
ICHOFFSET	QUANT	0	Ich Offset (V)
ICHFILTER	IQUANT	3	Ich Filter
VCHRANGE	IQUANT	2	Vch Range
VCHRANGEMODE	TOGGLE	F	Vch Auto Range
VCHOFFSETENABLE	TOGGLE	T	Vch Offset Enable
VCHOFFSET	QUANT	0	Vch Offset (V)
VCHFILTER	IQUANT	3	Vch Filter
ACHRANGE	IQUANT	2	Ach Range
ACHOFFSETENABLE	TOGGLE	F	Ach Offset Enable
ACHOFFSET	QUANT	0	Ach Offset (V)
ACHFILTER	IQUANT	3	Ach Filter
IERANGELOWERLIMIT	IQUANT	1	I/E Range Lower Limit
IERANGEMODE	TOGGLE	F	I/E AutoRange
IERANGE	IQUANT	4	I/E Range
POSFEEDENABLE	TOGGLE	F	Positive Feedback IR Comp
POSFEEDRESISTANCE	QUANT	0	Positive Feedback Resistance (ohm)
ACHSELECT	IQUANT	0	Ach Select
CABLEID	IQUANT	14	Cable ID
DCCALDATE	LABEL	8/19/2019	DC Calibration Date
ACCALDATE	LABEL	8/19/2019	AC Calibration Date
THERMOSELECT	IQUANT	1	Thermo Select
FRAMEWORKVERSION	QUANT	6.33	Framework Version
INSTRUMENTVERSION	LABEL	3.50	Instrument Version
ZCURVE	TABLE
	Pt	Time	Freq	Zreal	Zimag	Zsig	Zmod	Zphz	Idc	Vdc	IERange
	#	s	Hz	ohm	ohm	V	ohm	°	A	V	#
	0	2	1000078	2248.681	-1537.651	1	2724.139	-34.36437	9.642842E-006	-0.002343	8
	1	3	794390.6	2544.165	-1480.441	1	2943.549	-30.19499	-3.707023E-006	-0.0019894	8
	2	5	630984.4	2826.774	-1373.987	1	3143.006	-25.92262	7.829986E-007	-0.0021336	8
	3	6	501234.4	3050.873	-1231.3	1	3289.973	-21.97848	-5.15102E-007	-0.0013838	8
	4	7	398109.4	3231.686	-1088.234	1	3409.992	-18.61037	-2.190166E-006	-0.0017734	8
	5	9	316265.6	3376.484	-949.7919	1	3507.527	-15.71109	2.079995E-006	-0.0016911	8
	6	10	251203.1	3468.565	-815.3051	1	3563.098	-13.22756	5.756427E-006	-0.0026844	8
	7	11	199546.9	3563.243	-726.3904	1	3636.529	-11.52224	-1.445634E-007	-0.0022877	8
	8	13	158578.1	3654.09	-616.1797	1	3705.678	-9.57159	-3.467708E-007	-0.0015488	8
	9	14	125953.1	3702.281	-514.8303	1	3737.905	-7.916645	-2.366349E-006	0.0013988	7
	10	15	100078.1	3743.046	-470.7491	1	3772.532	-7.168244	9.811673E-007	-0.0037116	7
	11	17	79453.13	3776.584	-442.8618	1	3802.461	-6.688255	-7.242433E-007	-0.0021991	7
	12	18	63140.62	3815.317	-429.2865	1	3839.392	-6.419725	7.827402E-007	-0.0038109	7
	13	20	50203.12	3848.42	-424.8949	1	3871.805	-6.300374	3.881115E-007	-0.001508	7
	14	21	39890.62	3886.886	-430.099	1	3910.61	-6.314312	1.088073E-006	-0.0034929	7
	15	22	31640.63	3924.446	-445.8688	1	3949.693	-6.481761	1.015516E-006	-0.0027461	7
	16	24	25171.88	3959.196	-471.673	1	3987.193	-6.793828	6.956808E-008	-0.0010733	7
	17	25	20015.62	3998.393	-510.1087	1	4030.802	-7.27043	3.882115E-007	-0.0015091	7
	18	26	15890.62	4045.723	-558.1829	1	4084.048	-7.855427	7.117299E-008	-0.0010775	7
	19	28	12609.37	4093.805	-619.9373	1	4140.479	-8.611048	3.883725E-007	-0.0015115	7
	20	29	10078.13	4142.247	-699.2701	1	4200.856	-9.582	-7.24723E-007	-0.0021997	7
	21	30	8015.625	4199.954	-798.1385	1	4275.119	-10.7599	4.923709E-007	-0.0036979	7
	22	32	6328.125	4264.14	-915.4421	1	4361.298	-12.11657	7.190119E-008	-0.0010708	7
	23	33	5015.625	4333.474	-1062.463	1	4461.819	-13.7758	-2.997166E-007	-0.0028891	7
	24	35	3984.375	4406.076	-1237.667	1	4576.606	-15.69005	-1.043831E-006	-0.0015285	7
	25	36	3170.956	4492.285	-1452.506	1	4721.271	-17.91776	7.859048E-007	-0.003804	7
	26	37	2527.573	4575.937	-1708.543	1	4884.498	-20.4744	-1.217995E-006	-0.0009565	7
	27	39	1976.103	4686.812	-2055.025	1	5117.552	-23.67599	-1.226271E-006	-0.0005914	7
	28	40	1577.524	4794.91	-2443.454	1	5381.601	-27.00308	-1.044457E-006	-0.0015261	7
	29	41	1265.625	4937.674	-2912.672	1	5732.737	-30.53582	1.091117E-006	-0.0035027	7
	30	43	998.264	5097.752	-3516.489	1	6192.962	-34.59837	3.92511E-007	-0.0015064	7
	31	44	796.875	5281.336	-4219.633	1	6760.016	-38.62383	-1.046067E-006	-0.0015271	7
	32	46	627.7902	5510.589	-5129.829	1	7528.727	-42.95058	-1.225858E-006	-0.0005927	7
	33	47	505.5147	5752.357	-6139.817	1	8413.499	-46.8661	-1.0964E-006	-0.0004218	7
	34	48	397.9953	6054.373	-7502.133	1	9640.41	-51.09577	3.146456E-009	-0.0020136	7
	35	50	315.5048	6408.715	-9126.157	1	11151.61	-54.92209	8.444045E-010	-0.0020768	6
	36	51	252.4038	6805.974	-11039.26	1	12968.67	-58.34515	1.666727E-009	-0.002071	6
	37	53	198.6229	7315.016	-13571.98	1	15417.78	-61.67625	1.148311E-009	-0.002071	6
	38	54	158.3615	7897.321	-16527.65	1	18317.51	-64.46038	1.141782E-009	-0.002073	6
	39	55	125.558	8641.115	-20258.37	1	22024.31	-66.89954	2.110966E-009	-0.0020822	6
	40	57	100.4464	9548.14	-24631.34	1	26417.23	-68.81158	1.139294E-009	-0.0020848	6
	41	58	79.00281	10776.91	-30522.2	1	32368.91	-70.55267	1.649504E-009	-0.0020785	6
	42	60	63.3446	11887	-37130.23	1	38986.6	-72.24787	1.023022E-009	-0.0020829	6
	43	61	49.86702	14272.18	-45532.54	1	47716.95	-72.5964	1.233438E-009	-0.0020772	6
	44	62	39.72458	16740.02	-55809.73	1	58266.24	-73.30348	1.735387E-010	-0.0020673	6
	45	64	31.6723	20204.81	-68174.12	1	71105.16	-73.49172	2.606036E-010	-0.0020718	6
	46	65	24.93351	24755.84	-83681.25	1	87266.28	-73.51994	4.807124E-010	-0.0020698	6
	47	67	19.86229	30449.63	-101525.5	1	105993.4	-73.3049	1.083872E-010	-0.0020666	5
	48	68	15.83615	37676.02	-123506.3	1	129125.1	-73.03549	1.706215E-009	-0.0020698	5
	49	69	12.40079	49119.68	-150390.5	1	158208.8	-71.91222	6.806413E-010	-0.0020649	5
	50	71	9.93114	61303.15	-179626.3	1	189799.1	-71.15617	4.477028E-010	-0.0020689	5
	51	72	7.944915	76977.45	-213733.5	1	227172.9	-70.1932	1.830001E-012	-0.0020655	5
	52	74	6.317385	99384.1	-253845.7	1	272607.5	-68.61898	1.50175E-011	-0.0020659	5
	53	76	5.008013	126763	-300643.4	1	326274.9	-67.13781	8.102131E-011	-0.0020841	5
	54	79	3.945707	161328.7	-354723.2	1	389686.4	-65.54388	3.92413E-010	-0.0020716	5
	55	81	3.158693	200345	-411524.3	1	457701.1	-64.0415	8.416919E-011	-0.0020845	5
	56	85	2.504006	248348.3	-477351.4	1	538090.4	-62.51371	3.992585E-010	-0.0020659	5
	57	87	1.998082	302270.3	-547046.6	1	625001.8	-61.07718	4.585684E-010	-0.0020756	5
	58	90	1.584686	368001.8	-627531.1	1	727475.4	-59.61145	2.005197E-010	-0.0021265	5
	59	94	1.266892	436510.8	-712883.2	1	835909.1	-58.52014	3.7242E-010	-0.0020879	5
	60	98	0.999041	519991.2	-816979.1	1	968424	-57.52405	2.759138E-013	-0.0020826	5
