EXPLAIN
TAG	EISPOT
TITLE	LABEL	Potentiostatic EIS	Test &Identifier
DATE	LABEL	11/15/2019	Date
TIME	LABEL	12:27:43	Time
NOTES	NOTES	4	&Notes...
	
	
	
	
PSTAT	PSTAT	REF600-11020	Potentiostat
VDC	POTEN	0.00000E+000	T	DC &Voltage (V)
FREQINIT	QUANT	1.00000E+006	Initial Fre&q. (Hz)
FREQFINAL	QUANT	1.00000E+000	Final Fre&q. (Hz)
PTSPERDEC	QUANT	1.00000E+001	Points/&decade
VAC	QUANT	2.50000E+001	AC &Voltage (mV rms)
AREA	QUANT	1.00000E-002	&Area (cm^2)
CONDIT	TWOPARAM	T	5.00000E+000	0.00000E+000	Conditionin&g	Time(s)	E(V)
DELAY	TWOPARAM	T	5.00000E+000	0.00000E+000	Init. De&lay	Time(s)	Stab.(mV/s)
SPEED	SELECTOR	0	&Optimize for:
ZGUESS	QUANT	1.00000E+005	E&stimated Z (ohms)
OCVCURVE	TABLE	19
	Pt	T	Vf	Vm	Ach	Over
	#	s	V vs. Ref.	V	V	bits
	0	0.258333	4.31314E-003	4.31314E-003	5.49566E-004	...........
	1	0.516667	4.31230E-003	4.26938E-003	5.49533E-004	...........
	2	0.775	4.30738E-003	4.23888E-003	5.46266E-004	...........
	3	1.03333	4.29422E-003	4.21356E-003	5.50366E-004	...........
	4	1.29167	4.27269E-003	4.20613E-003	5.48533E-004	...........
	5	1.55	4.24778E-003	4.18888E-003	5.50633E-004	...........
	6	1.80833	4.22514E-003	4.18337E-003	5.49899E-004	...........
	7	2.06667	4.20746E-003	4.18467E-003	5.44966E-004	...........
	8	2.325	4.19532E-003	4.18924E-003	5.50933E-004	...........
	9	2.58333	4.18884E-003	4.19767E-003	5.51366E-004	...........
	10	2.84167	4.18783E-003	4.21113E-003	5.50299E-004	...........
	11	3.1	4.19163E-003	4.21948E-003	5.45566E-004	...........
	12	3.35833	4.19914E-003	4.23517E-003	5.54099E-004	...........
	13	3.61667	4.20916E-003	4.24663E-003	5.49233E-004	...........
	14	3.875	4.22081E-003	4.26535E-003	5.50833E-004	...........
	15	4.13333	4.23386E-003	4.28348E-003	5.49966E-004	...........
	16	4.39167	4.24852E-003	4.30459E-003	5.50666E-004	...........
	17	4.65	4.26505E-003	4.32450E-003	5.48866E-004	...........
	18	4.90833	4.28336E-003	4.34735E-003	5.45999E-004	...........
EOC	QUANT	0.0042834	Open Circuit (V)
PSTATMODEL	IQUANT	4	Pstat Model
PSTATSECTION	LABEL	REF600-11020	Pstat Section
PSTATSERIALNO	LABEL	11020	Pstat Serial Number
CTRLMODE	IQUANT	1	Control Mode
IESTAB	IQUANT	0	I/E Stability
CASPEED	IQUANT	1	Control Amp Speed
CONVENTION	IQUANT	1	Current Convention
ICHRANGE	IQUANT	2	Ich Range
ICHRANGEMODE	TOGGLE	F	Ich Auto Range
ICHOFFSETENABLE	TOGGLE	T	Ich Offset Enable
ICHOFFSET	QUANT	0	Ich Offset (V)
ICHFILTER	IQUANT	3	Ich Filter
VCHRANGE	IQUANT	2	Vch Range
VCHRANGEMODE	TOGGLE	F	Vch Auto Range
VCHOFFSETENABLE	TOGGLE	T	Vch Offset Enable
VCHOFFSET	QUANT	0	Vch Offset (V)
VCHFILTER	IQUANT	3	Vch Filter
ACHRANGE	IQUANT	2	Ach Range
ACHOFFSETENABLE	TOGGLE	F	Ach Offset Enable
ACHOFFSET	QUANT	0	Ach Offset (V)
ACHFILTER	IQUANT	3	Ach Filter
IERANGELOWERLIMIT	IQUANT	1	I/E Range Lower Limit
IERANGEMODE	TOGGLE	F	I/E AutoRange
IERANGE	IQUANT	4	I/E Range
POSFEEDENABLE	TOGGLE	F	Positive Feedback IR Comp
POSFEEDRESISTANCE	QUANT	0	Positive Feedback Resistance (ohm)
ACHSELECT	IQUANT	0	Ach Select
CABLEID	IQUANT	14	Cable ID
DCCALDATE	LABEL	8/19/2019	DC Calibration Date
ACCALDATE	LABEL	8/19/2019	AC Calibration Date
THERMOSELECT	IQUANT	1	Thermo Select
FRAMEWORKVERSION	QUANT	6.33	Framework Version
INSTRUMENTVERSION	LABEL	3.50	Instrument Version
ZCURVE	TABLE
	Pt	Time	Freq	Zreal	Zimag	Zsig	Zmod	Zphz	Idc	Vdc	IERange
	#	s	Hz	ohm	ohm	V	ohm	°	A	V	#
	0	1	1000078	1768.584	-881.8512	1	1976.247	-26.50175	1.467217E-006	0.0058955	8
	1	1	794390.6	1908.539	-849.4767	1	2089.05	-23.9935	2.191123E-006	0.0064235	8
	2	1	630984.4	2038.803	-807.9998	1	2193.076	-21.61896	6.732314E-006	0.0046166	8
	3	2	501234.4	2153.945	-773.1456	1	2288.5	-19.7453	-5.984542E-006	0.006257	8
	4	2	398109.4	2265.129	-734.8119	1	2381.335	-17.97315	-2.540132E-007	0.005541	8
	5	2	316265.6	2364.324	-703.3223	1	2466.717	-16.56631	-7.633148E-007	0.0055205	8
	6	3	251203.1	2462.797	-666.6349	1	2551.426	-15.14599	-8.460806E-007	0.0062601	8
	7	3	199546.9	2558.493	-641.9819	1	2637.807	-14.08594	-5.061481E-008	0.0054988	8
	8	3	158578.1	2627.483	-618.6373	1	2699.33	-13.24891	-7.827126E-008	0.0055106	8
	9	4	125953.1	2739.659	-564.2788	1	2797.167	-11.63828	1.235318E-006	0.0069252	7
	10	4	100078.1	2806.015	-542.2994	1	2857.938	-10.93831	1.091188E-007	0.0066333	7
	11	4	79453.13	2875.063	-532.3073	1	2923.925	-10.48932	-7.145826E-007	0.0057045	7
	12	4	63140.62	2944.921	-529.7174	1	2992.183	-10.19703	-5.472019E-007	0.0072555	7
	13	5	50203.12	3012.331	-527.2297	1	3058.122	-9.92757	-1.013161E-006	0.0073278	7
	14	5	39890.62	3085.063	-529.386	1	3130.154	-9.73693	9.97057E-007	0.0043853	7
	15	5	31640.63	3149.164	-532.9109	1	3193.936	-9.60477	5.952605E-008	0.0045525	7
	16	6	25171.88	3214.743	-543.3699	1	3260.341	-9.59371	-2.32109E-007	0.0070049	7
	17	6	20015.62	3281.716	-556.4252	1	3328.553	-9.62316	1.085843E-007	0.0066239	7
	18	6	15890.62	3347.533	-580.8303	1	3397.549	-9.84339	6.891087E-007	0.0041375	7
	19	7	12609.37	3409.825	-609.3019	1	3463.836	-10.13126	-1.154344E-006	0.0071836	7
	20	7	10078.13	3486.496	-649.4679	1	3546.471	-10.55217	9.647823E-007	0.005039	7
	21	7	8015.625	3553.356	-694.628	1	3620.615	-11.06098	-5.504008E-007	0.0072452	7
	22	8	6328.125	3634.665	-754.8742	1	3712.227	-11.73281	6.082337E-007	0.0058899	7
	23	8	5015.625	3712.912	-824.646	1	3803.387	-12.52226	4.103957E-007	0.0061884	7
	24	8	3984.375	3793.703	-907.6666	1	3900.774	-13.45543	4.097301E-007	0.0061874	7
	25	9	3170.956	3871.56	-1009.354	1	4000.972	-14.6123	8.051715E-007	0.0054889	7
	26	9	2527.573	3950.258	-1132.824	1	4109.48	-16.00142	8.86967E-007	0.0041825	7
	27	9	1976.103	4033.278	-1302.164	1	4238.273	-17.89293	4.117506E-007	0.006188	7
	28	10	1577.524	4109.928	-1496.513	1	4373.906	-20.00765	-1.154263E-006	0.0071743	7
	29	10	1265.625	4183.429	-1743.905	1	4532.36	-22.62932	-3.292191E-007	0.005035	7
	30	10	998.264	4277.692	-2079.529	1	4756.374	-25.92593	4.091036E-007	0.0042506	7
	31	10	796.875	4370.44	-2470.566	1	5020.403	-29.47904	-7.17622E-007	0.0056759	7
	32	11	627.7902	4489.843	-2996.714	1	5398.054	-33.72085	-1.007041E-006	0.0063092	7
	33	11	505.5147	4620.068	-3585.151	1	5847.935	-37.81129	-1.152187E-006	0.0071731	7
	34	11	397.9953	4798.751	-4404.612	1	6513.726	-42.54778	3.428754E-009	0.0057854	7
	35	12	315.5048	5014.244	-5378.077	1	7352.982	-47.00509	4.388991E-010	0.0057886	7
	36	12	252.4038	5276.226	-6527.904	1	8393.574	-51.05287	7.250389E-010	0.0057921	7
	37	12	198.6229	5644.348	-8040.288	1	9823.69	-54.93083	2.666497E-009	0.0057845	7
	38	13	158.3615	6103.301	-9792.72	1	11538.96	-58.06682	2.782382E-010	0.0057273	6
	39	13	125.558	6712.456	-11970.69	1	13724.23	-60.71887	7.622002E-010	0.0057218	6
	40	13	100.4464	7495.531	-14493.74	1	16317.21	-62.65396	2.693572E-010	0.0057269	6
	41	14	79.00281	8604.121	-17782.3	1	19754.52	-64.17957	-5.038558E-010	0.0057166	6
	42	14	63.3446	9747.12	-21343.36	1	23463.71	-65.4547	3.329561E-010	0.0057174	6
	43	14	49.86702	11672.48	-25911.24	1	28418.99	-65.74943	-3.902106E-010	0.005723	6
	44	15	39.72458	14065.33	-31094.03	1	34127.29	-65.66046	-2.564024E-010	0.0057288	6
	45	15	31.6723	16965.62	-37079.68	1	40776.65	-65.41377	-1.152971E-011	0.0057164	6
	46	15	24.93351	20893.55	-44191.07	1	48881.4	-64.69521	5.523355E-010	0.0057096	6
	47	16	19.86229	25553.11	-52068.93	1	58001.16	-63.86026	2.32381E-009	0.0057161	6
	48	16	15.83615	31091.79	-60651.19	1	68156.19	-62.85884	-5.343673E-010	0.0057177	6
	49	16	12.40079	38426.32	-71657.09	1	81310.03	-61.79744	-4.319254E-010	0.0057157	6
	50	17	9.93114	46158.97	-82486.17	1	94523.12	-60.76878	2.041243E-010	0.005719	6
	51	17	7.944915	55177.88	-94373.71	1	109320.6	-59.68627	-8.651355E-010	0.0057294	5
	52	18	6.317385	65790.81	-108138.6	1	126579.6	-58.68394	-9.88855E-010	0.0057298	5
	53	18	5.008013	77896.47	-123462.3	1	145982.2	-57.7508	-1.967563E-010	0.0057274	5
	54	20	3.945707	91225.04	-140810.2	1	167778.2	-57.06248	-7.111284E-011	0.0057164	5
	55	21	3.158693	104567.7	-160058.7	1	191188.9	-56.84307	4.634123E-011	0.0057111	5
	56	22	2.504006	118815.1	-183217	1	218370.1	-57.03683	9.706985E-011	0.0057155	5
	57	24	1.998082	133357.3	-209795.7	1	248592.8	-57.55779	-2.901921E-010	0.0056754	5
	58	25	1.584686	148051.3	-243700.9	1	285147.9	-58.7208	-1.792724E-010	0.0056781	5
	59	27	1.266892	163277.6	-283291.2	1	326976.3	-60.04259	-6.870795E-011	0.0057145	5
	60	30	0.999041	181595.5	-336017.4	1	381948.5	-61.61168	-2.211263E-011	0.0057467	5
