EXPLAIN
TAG	EISPOT
TITLE	LABEL	Potentiostatic EIS	Test &Identifier
DATE	LABEL	11/22/2019	Date
TIME	LABEL	10:46:44	Time
NOTES	NOTES	4	&Notes...
	
	
	
	
PSTAT	PSTAT	REF600-11020	Potentiostat
VDC	POTEN	0.00000E+000	T	DC &Voltage (V)
FREQINIT	QUANT	1.00000E+006	Initial Fre&q. (Hz)
FREQFINAL	QUANT	1.00000E+000	Final Fre&q. (Hz)
PTSPERDEC	QUANT	1.00000E+001	Points/&decade
VAC	QUANT	2.50000E+001	AC &Voltage (mV rms)
AREA	QUANT	1.00000E-002	&Area (cm^2)
CONDIT	TWOPARAM	T	5.00000E+000	0.00000E+000	Conditionin&g	Time(s)	E(V)
DELAY	TWOPARAM	T	5.00000E+000	0.00000E+000	Init. De&lay	Time(s)	Stab.(mV/s)
SPEED	SELECTOR	0	&Optimize for:
ZGUESS	QUANT	1.00000E+005	E&stimated Z (ohms)
OCVCURVE	TABLE	19
	Pt	T	Vf	Vm	Ach	Over
	#	s	V vs. Ref.	V	V	bits
	0	0.258333	3.37279E-002	3.37279E-002	5.54466E-004	...........
	1	0.516667	3.37701E-002	3.59364E-002	5.58399E-004	...........
	2	0.775	3.40283E-002	3.79844E-002	5.50299E-004	...........
	3	1.03333	3.47549E-002	3.99004E-002	5.50199E-004	...........
	4	1.29167	3.60443E-002	4.16930E-002	5.49566E-004	...........
	5	1.55	3.77395E-002	4.33765E-002	5.52666E-004	...........
	6	1.80833	3.95915E-002	4.49666E-002	5.52866E-004	...........
	7	2.06667	4.14216E-002	4.64634E-002	5.52866E-004	...........
	8	2.325	4.31527E-002	4.78869E-002	5.52932E-004	...........
	9	2.58333	4.47722E-002	4.92398E-002	5.51533E-004	...........
	10	2.84167	4.62918E-002	5.05268E-002	5.48833E-004	...........
	11	3.1	4.77265E-002	5.17505E-002	5.48466E-004	...........
	12	3.35833	4.90875E-002	5.29272E-002	5.48499E-004	...........
	13	3.61667	5.03825E-002	5.40431E-002	5.51599E-004	...........
	14	3.875	5.16171E-002	5.51204E-002	5.47899E-004	...........
	15	4.13333	5.27960E-002	5.61472E-002	5.44666E-004	...........
	16	4.39167	5.39234E-002	5.71360E-002	5.49866E-004	...........
	17	4.65	5.50027E-002	5.80804E-002	5.54833E-004	...........
	18	4.90833	5.60369E-002	5.89870E-002	5.49433E-004	...........
EOC	QUANT	0.0560369	Open Circuit (V)
PSTATMODEL	IQUANT	4	Pstat Model
PSTATSECTION	LABEL	REF600-11020	Pstat Section
PSTATSERIALNO	LABEL	11020	Pstat Serial Number
CTRLMODE	IQUANT	1	Control Mode
IESTAB	IQUANT	0	I/E Stability
CASPEED	IQUANT	1	Control Amp Speed
CONVENTION	IQUANT	1	Current Convention
ICHRANGE	IQUANT	2	Ich Range
ICHRANGEMODE	TOGGLE	F	Ich Auto Range
ICHOFFSETENABLE	TOGGLE	T	Ich Offset Enable
ICHOFFSET	QUANT	0	Ich Offset (V)
ICHFILTER	IQUANT	3	Ich Filter
VCHRANGE	IQUANT	2	Vch Range
VCHRANGEMODE	TOGGLE	F	Vch Auto Range
VCHOFFSETENABLE	TOGGLE	T	Vch Offset Enable
VCHOFFSET	QUANT	0	Vch Offset (V)
VCHFILTER	IQUANT	3	Vch Filter
ACHRANGE	IQUANT	2	Ach Range
ACHOFFSETENABLE	TOGGLE	F	Ach Offset Enable
ACHOFFSET	QUANT	0	Ach Offset (V)
ACHFILTER	IQUANT	3	Ach Filter
IERANGELOWERLIMIT	IQUANT	1	I/E Range Lower Limit
IERANGEMODE	TOGGLE	F	I/E AutoRange
IERANGE	IQUANT	6	I/E Range
POSFEEDENABLE	TOGGLE	F	Positive Feedback IR Comp
POSFEEDRESISTANCE	QUANT	0	Positive Feedback Resistance (ohm)
ACHSELECT	IQUANT	0	Ach Select
CABLEID	IQUANT	14	Cable ID
DCCALDATE	LABEL	8/19/2019	DC Calibration Date
ACCALDATE	LABEL	8/19/2019	AC Calibration Date
THERMOSELECT	IQUANT	1	Thermo Select
FRAMEWORKVERSION	QUANT	6.33	Framework Version
INSTRUMENTVERSION	LABEL	3.50	Instrument Version
ZCURVE	TABLE
	Pt	Time	Freq	Zreal	Zimag	Zsig	Zmod	Zphz	Idc	Vdc	IERange
	#	s	Hz	ohm	ohm	V	ohm	°	A	V	#
	0	2	1000078	2030.37	-1934.744	1	2804.574	-43.61848	9.884273E-008	0.0577131	8
	1	2	794390.6	2381.644	-2057.597	1	3147.369	-40.82504	-7.969908E-006	0.0589888	8
	2	2	630984.4	2736.097	-2148.663	1	3478.934	-38.14263	1.430304E-006	0.0573513	8
	3	3	501234.4	3081.642	-2211.572	1	3793.094	-35.6655	-2.591055E-006	0.0577714	8
	4	3	398109.4	3461.737	-2270.558	1	4139.934	-33.26092	-9.192116E-008	0.0572549	8
	5	3	316265.6	3841.268	-2314.288	1	4484.559	-31.06814	-2.212406E-006	0.0576828	8
	6	3	251203.1	4235.187	-2328.883	1	4833.271	-28.80591	7.174116E-006	0.0567309	8
	7	4	199546.9	4648.855	-2356.43	1	5211.969	-26.87972	-4.716644E-007	0.0572462	8
	8	4	158578.1	5077.869	-2254.634	1	5555.909	-23.94179	5.894403E-006	0.0567931	8
	9	4	125953.1	5521.777	-2122.912	1	5915.808	-21.02984	-1.410161E-006	0.0562332	7
	10	5	100078.1	5909.533	-2058.258	1	6257.716	-19.20295	8.285402E-007	0.0555234	7
	11	5	79453.13	6213.044	-1891.727	1	6494.656	-16.93427	-9.761791E-007	0.0593484	7
	12	6	63140.62	6541.923	-1749.157	1	6771.729	-14.96938	9.421276E-007	0.0571856	7
	13	6	50203.12	6773.633	-1564.06	1	6951.862	-13.00195	4.968779E-007	0.0556531	7
	14	6	39890.62	6987.343	-1411.385	1	7128.462	-11.41961	8.275373E-007	0.0555076	7
	15	7	31640.63	7160.722	-1272.387	1	7272.889	-10.07571	6.998977E-007	0.0576623	7
	16	7	25171.88	7272.578	-1140.214	1	7361.418	-8.910451	8.175721E-008	0.0560056	7
	17	8	20015.62	7376.336	-1049.197	1	7450.58	-8.095346	-6.638994E-007	0.0592363	7
	18	8	15890.62	7456.179	-974.54	1	7519.597	-7.446478	-9.724139E-007	0.0593378	7
	19	8	12609.37	7537.008	-928.2432	1	7593.953	-7.02108	-3.947295E-007	0.0565896	7
	20	9	10078.13	7598.9	-909.0038	1	7653.076	-6.821483	-3.935946E-007	0.0565871	7
	21	9	8015.625	7651.101	-954.678	1	7710.432	-7.11241	-8.491783E-007	0.0573482	7
	22	9	6328.125	7772.411	-997.689	1	7836.183	-7.31465	1.224094E-006	0.0561704	7
	23	10	5015.625	7830.639	-1085.262	1	7905.485	-7.890458	9.442013E-007	0.0571809	7
	24	10	3984.375	7871.822	-1203.865	1	7963.346	-8.695067	1.047969E-007	0.0585135	7
	25	10	3170.956	7958.644	-1386.85	1	8078.575	-9.88494	7.030572E-007	0.0576614	7
	26	11	2527.573	7983.269	-1599.088	1	8141.846	-11.32673	-3.928289E-007	0.0565824	7
	27	11	1976.103	8087.497	-1906.016	1	8309.062	-13.26117	-2.947771E-007	0.0589515	7
	28	11	1577.524	8200.127	-2383.048	1	8539.379	-16.20445	-1.358855E-006	0.0586963	7
	29	12	1265.625	8319.74	-2707.319	1	8749.151	-18.02536	1.068184E-006	0.0555733	7
	30	12	998.264	8458.995	-3276.367	1	9071.339	-21.17255	1.196687E-006	0.0558017	7
	31	12	796.875	8612.306	-3956.947	1	9477.829	-24.67654	1.138578E-006	0.0566227	7
	32	13	627.7902	8757.944	-4797.383	1	9985.81	-28.71283	8.476598E-008	0.0559892	7
	33	13	505.5147	8954.115	-5767.726	1	10650.96	-32.7873	5.469532E-008	0.0547462	6
	34	13	397.9953	9219.98	-7098.64	1	11636.1	-37.59336	-1.06342E-009	0.0574236	6
	35	14	315.5048	9522.35	-8693.112	1	12893.62	-42.39346	-1.886074E-009	0.0574237	6
	36	14	252.4038	9880.19	-10577.06	1	14473.85	-46.95102	-1.59206E-009	0.057415	6
	37	14	198.6229	10362.21	-13074.3	1	16682.71	-51.60096	-1.04864E-009	0.0574179	6
	38	15	158.3615	10945.28	-15981.08	1	19369.93	-55.59317	-1.055597E-009	0.0574133	6
	39	15	125.558	11714.1	-19639.84	1	22867.96	-59.18622	-1.500085E-009	0.0574153	6
	40	15	100.4464	12666.2	-23908.62	1	27056.51	-62.08646	-4.749771E-010	0.0574098	6
	41	16	79.00281	14065.16	-29585.09	1	32758.3	-64.57294	-7.784049E-010	0.0574147	6
	42	16	63.3446	15262.4	-36032.09	1	39131.22	-67.04356	-2.114878E-009	0.0574227	6
	43	16	49.86702	17629.3	-44300.43	1	47679.34	-68.29998	-1.620441E-009	0.0574167	6
	44	17	39.72458	20678.44	-53851.89	1	57685.56	-68.99385	-1.500112E-009	0.0574258	6
	45	17	31.6723	24366.42	-65497.48	1	69883.05	-69.59376	-1.291381E-009	0.057421	6
	46	17	24.93351	29641.75	-79825.23	1	85151.05	-69.62837	-1.214879E-009	0.0574089	6
	47	18	19.86229	36059.79	-96121	1	102662.3	-69.43642	-9.269374E-010	0.0574299	6
	48	18	15.83615	45119.28	-116485.1	1	124918.1	-68.82664	-3.49976E-009	0.0574185	5
	49	18	12.40079	56780.68	-138983	1	150134.4	-67.77782	-5.721664E-010	0.0574242	5
	50	19	9.93114	69816.29	-165950	1	180038.1	-67.18317	-2.236552E-009	0.0574229	5
	51	19	7.944915	87176.48	-195106.2	1	213696.5	-65.92417	-2.56883E-009	0.0574247	5
	52	20	6.317385	109965.6	-229203.3	1	254217.6	-64.36954	-2.16627E-009	0.0574298	5
	53	21	5.008013	138352.5	-267682	1	301322.2	-62.66764	-1.915857E-009	0.0574241	5
	54	22	3.945707	172452	-310135.2	1	354857.1	-60.92357	-1.598799E-009	0.057418	5
	55	23	3.158693	210868.1	-353247.1	1	411398.7	-59.16523	-1.260038E-009	0.0574386	5
	56	25	2.504006	256497.1	-401613.6	1	476533.5	-57.435	-1.435649E-009	0.057429	5
	57	26	1.998082	305118.2	-452934.7	1	546119.9	-56.03393	-1.397899E-009	0.0574048	5
	58	27	1.584686	360655.6	-508380.4	1	623316.3	-54.64732	-1.198209E-009	0.0574488	5
	59	29	1.266892	420842.4	-570153.1	1	708648.6	-53.56816	-1.070112E-009	0.0574622	5
	60	32	0.999041	488443.1	-644227.9	1	808459.3	-52.83119	-9.909658E-010	0.0574504	5
