EXPLAIN
TAG	EISPOT
TITLE	LABEL	Potentiostatic IDE	Test &Identifier
DATE	LABEL	9/16/2019	Date
TIME	LABEL	8:32:05	Time
NOTES	NOTES	1	&Notes...
	
PSTAT	PSTAT	REF600-11020	Potentiostat
VDC	POTEN	0.00000E+000	T	DC &Voltage (V)
FREQINIT	QUANT	1.00000E+006	Initial Fre&q. (Hz)
FREQFINAL	QUANT	1.00000E+000	Final Fre&q. (Hz)
PTSPERDEC	QUANT	1.00000E+001	Points/&decade
VAC	QUANT	2.50000E+001	AC &Voltage (mV rms)
AREA	QUANT	1.00000E-002	&Area (cm^2)
CONDIT	TWOPARAM	T	5.00000E+000	0.00000E+000	Conditionin&g	Time(s)	E(V)
DELAY	TWOPARAM	T	5.00000E+000	0.00000E+000	Init. De&lay	Time(s)	Stab.(mV/s)
SPEED	SELECTOR	1	&Optimize for:
ZGUESS	QUANT	1.00000E+007	E&stimated Z (ohms)
OCVCURVE	TABLE	19
	Pt	T	Vf	Vm	Ach	Over
	#	s	V vs. Ref.	V	V	bits
	0	0.258333	7.58134E-003	7.58134E-003	5.66932E-004	...........
	1	0.516667	7.58272E-003	7.65352E-003	5.70166E-004	...........
	2	0.775	7.59155E-003	7.74078E-003	5.75932E-004	...........
	3	1.03333	7.61791E-003	7.83493E-003	5.74266E-004	...........
	4	1.29167	7.66830E-003	7.92702E-003	5.67332E-004	...........
	5	1.55	7.74013E-003	8.00864E-003	5.67866E-004	...........
	6	1.80833	7.82485E-003	8.10562E-003	5.68666E-004	...........
	7	2.06667	7.91457E-003	8.19351E-003	5.68766E-004	...........
	8	2.325	8.00525E-003	8.27656E-003	5.69499E-004	...........
	9	2.58333	8.09487E-003	8.34360E-003	5.67299E-004	...........
	10	2.84167	8.18120E-003	8.42027E-003	5.67332E-004	...........
	11	3.1	8.26282E-003	8.50141E-003	5.67232E-004	...........
	12	3.35833	8.34061E-003	8.56880E-003	5.67232E-004	...........
	13	3.61667	8.41635E-003	8.64127E-003	5.69966E-004	...........
	14	3.875	8.49081E-003	8.71884E-003	5.67599E-004	...........
	15	4.13333	8.56411E-003	8.77417E-003	5.70166E-004	...........
	16	4.39167	8.63553E-003	8.82697E-003	5.66532E-004	...........
	17	4.65	8.70313E-003	8.88522E-003	5.64299E-004	...........
	18	4.90833	8.76576E-003	8.94313E-003	5.69399E-004	...........
EOC	QUANT	0.0087658	Open Circuit (V)
PSTATMODEL	IQUANT	4	Pstat Model
PSTATSECTION	LABEL	REF600-11020	Pstat Section
PSTATSERIALNO	LABEL	11020	Pstat Serial Number
CTRLMODE	IQUANT	1	Control Mode
IESTAB	IQUANT	0	I/E Stability
CASPEED	IQUANT	1	Control Amp Speed
CONVENTION	IQUANT	1	Current Convention
ICHRANGE	IQUANT	2	Ich Range
ICHRANGEMODE	TOGGLE	F	Ich Auto Range
ICHOFFSETENABLE	TOGGLE	T	Ich Offset Enable
ICHOFFSET	QUANT	0	Ich Offset (V)
ICHFILTER	IQUANT	3	Ich Filter
VCHRANGE	IQUANT	2	Vch Range
VCHRANGEMODE	TOGGLE	F	Vch Auto Range
VCHOFFSETENABLE	TOGGLE	T	Vch Offset Enable
VCHOFFSET	QUANT	0	Vch Offset (V)
VCHFILTER	IQUANT	3	Vch Filter
ACHRANGE	IQUANT	2	Ach Range
ACHOFFSETENABLE	TOGGLE	F	Ach Offset Enable
ACHOFFSET	QUANT	0	Ach Offset (V)
ACHFILTER	IQUANT	3	Ach Filter
IERANGELOWERLIMIT	IQUANT	1	I/E Range Lower Limit
IERANGEMODE	TOGGLE	F	I/E AutoRange
IERANGE	IQUANT	3	I/E Range
POSFEEDENABLE	TOGGLE	F	Positive Feedback IR Comp
POSFEEDRESISTANCE	QUANT	0	Positive Feedback Resistance (ohm)
ACHSELECT	IQUANT	0	Ach Select
CABLEID	IQUANT	14	Cable ID
DCCALDATE	LABEL	8/19/2019	DC Calibration Date
ACCALDATE	LABEL	8/19/2019	AC Calibration Date
THERMOSELECT	IQUANT	1	Thermo Select
FRAMEWORKVERSION	QUANT	6.33	Framework Version
INSTRUMENTVERSION	LABEL	3.50	Instrument Version
ZCURVE	TABLE
	Pt	Time	Freq	Zreal	Zimag	Zsig	Zmod	Zphz	Idc	Vdc	IERange
	#	s	Hz	ohm	ohm	V	ohm	°	A	V	#
	0	2	1000078	2575.968	-1456.366	1	2959.157	-29.48236	6.442766E-007	0.010477	8
	1	4	794390.6	2841.229	-1317.247	1	3131.729	-24.87332	-6.580138E-008	0.0109819	8
	2	5	630984.4	3040.809	-1175.077	1	3259.958	-21.12831	-1.070133E-006	0.0108964	8
	3	7	501234.4	3209.994	-1031.856	1	3371.763	-17.82006	-1.084624E-006	0.0107157	8
	4	8	398109.4	3340.914	-894.712	1	3458.644	-14.99227	1.075205E-006	0.0102152	8
	5	9	316265.6	3440.22	-768.746	1	3525.065	-12.59628	-1.193339E-006	0.0106076	8
	6	11	251203.1	3524.366	-668.7454	1	3587.252	-10.74409	9.848695E-007	0.0101933	8
	7	12	199546.9	3570.417	-594.2386	1	3619.53	-9.449349	4.140162E-007	0.0102089	8
	8	14	158578.1	3630.395	-516.5546	1	3666.96	-8.098034	-9.162434E-007	0.0106492	8
	9	15	125953.1	3672.772	-422.8218	1	3697.03	-6.567171	2.906308E-007	0.0098206	7
	10	16	100078.1	3698.317	-393.0977	1	3719.15	-6.067243	-4.564452E-008	0.0103679	7
	11	18	79453.13	3729.755	-381.3014	1	3749.195	-5.8372	-4.879805E-008	0.010475	7
	12	19	63140.62	3763.387	-378.2475	1	3782.348	-5.739363	-7.126206E-008	0.0104347	7
	13	20	50203.12	3797.362	-382.4613	1	3816.574	-5.7513	8.433415E-008	0.0101489	7
	14	22	39890.62	3836.423	-400.4995	1	3857.271	-5.959748	2.055826E-008	0.0102384	7
	15	23	31640.63	3871.605	-416.3459	1	3893.928	-6.137903	1.339393E-007	0.0101217	7
	16	24	25171.88	3911.573	-446.0134	1	3936.919	-6.505002	7.159023E-008	0.0101883	7
	17	26	20015.62	3956.871	-484.6444	1	3986.44	-6.982906	-8.306589E-009	0.0103492	7
	18	27	15890.62	4009.864	-531.0508	1	4044.876	-7.544129	-4.721503E-008	0.0104642	7
	19	28	12609.37	4059.248	-590.2649	1	4101.94	-8.273526	-4.450995E-008	0.0103527	7
	20	30	10078.13	4117.393	-658.4765	1	4169.714	-9.086121	-4.285728E-009	0.0102679	7
	21	31	8015.625	4179.995	-740.5323	1	4245.085	-10.04634	-5.632822E-009	0.0103504	7
	22	32	6328.125	4251.828	-841.1436	1	4334.232	-11.19039	-3.813821E-009	0.0103398	7
	23	33	5015.625	4328.436	-959.711	1	4433.554	-12.50152	1.340753E-007	0.0101183	7
	24	35	3984.375	4410.446	-1100.408	1	4545.649	-14.00929	7.371862E-008	0.0101886	7
	25	36	3170.956	4499.386	-1268.672	1	4674.826	-15.74663	-1.304943E-008	0.0103029	7
	26	37	2527.573	4596.664	-1469.891	1	4825.961	-17.7329	-3.184039E-009	0.0103524	7
	27	39	1976.103	4708.845	-1732.109	1	5017.312	-20.19563	-4.047819E-008	0.0103473	7
	28	40	1577.524	4823.425	-2026.31	1	5231.764	-22.78716	3.601816E-008	0.0102921	7
	29	42	1265.625	4949.616	-2379.022	1	5491.67	-25.67116	-2.007852E-008	0.0104623	7
	30	43	998.264	5090.537	-2826.913	1	5822.8	-29.0446	-3.635298E-008	0.0103679	7
	31	44	796.875	5237.958	-3357.798	1	6221.818	-32.66194	7.532977E-008	0.0101894	7
	32	46	627.7902	5408.872	-4050.979	1	6757.687	-36.83141	-4.755641E-008	0.0104178	7
	33	47	505.5147	5581.736	-4829.779	1	7381.229	-40.86906	-4.721005E-008	0.0104559	7
	34	48	397.9953	5796.754	-5889.458	1	8263.66	-45.45451	6.073438E-009	0.0103377	7
	35	50	315.5048	6041.955	-7177.295	1	9381.832	-49.90882	6.209682E-009	0.0103365	7
	36	51	252.4038	6328.554	-8706.141	1	10763.25	-53.98634	1.201782E-009	0.0102709	6
	37	52	198.6229	6703.418	-10744.61	1	12664.22	-58.0405	1.062348E-009	0.0102748	6
	38	54	158.3615	7149.812	-13128.71	1	14949.34	-61.42757	7.41061E-010	0.0102742	6
	39	55	125.558	7739.795	-16137.76	1	17897.82	-64.37727	9.834067E-010	0.0102794	6
	40	56	100.4464	8478.331	-19678.66	1	21427.36	-66.69174	1.33612E-010	0.0102783	6
	41	58	79.00281	9466.104	-24348.46	1	26123.83	-68.7551	2.496028E-010	0.0102756	6
	42	59	63.3446	10853.97	-29822.59	1	31736.34	-70.00096	1.190855E-009	0.0102752	6
	43	60	49.86702	12496.23	-36423.45	1	38507.44	-71.06383	1.031848E-009	0.0102699	6
	44	62	39.72458	14767.07	-44655.36	1	47033.69	-71.70148	2.147229E-009	0.0102795	6
	45	63	31.6723	17727.22	-54274.89	1	57096.57	-71.91196	2.195239E-010	0.01028	6
	46	64	24.93351	21723.42	-66497.59	1	69955.97	-71.90883	5.060808E-010	0.0102759	6
	47	66	19.86229	26747.17	-80380.73	1	84714.06	-71.59483	6.088066E-010	0.0102784	6
	48	67	15.83615	32657.31	-97037.8	1	102385.8	-71.39975	1.789189E-009	0.0102771	6
	49	68	12.40079	42066.3	-116975.8	1	124309.7	-70.22063	1.350461E-009	0.0102813	5
	50	70	9.93114	53610.82	-139399	1	149352.6	-68.96399	-1.546524E-011	0.0102873	5
	51	71	7.944915	67213.83	-165367.7	1	178505.4	-67.88068	4.429178E-010	0.010277	5
	52	73	6.317385	84228.09	-194358.1	1	211824.1	-66.56976	-4.477423E-011	0.01029	5
	53	75	5.008013	105871.4	-228530	1	251862.5	-65.14306	3.767059E-010	0.0102766	5
	54	77	3.945707	132668.7	-268176.8	1	299198.6	-63.67812	3.142532E-010	0.0102753	5
	55	80	3.158693	162442.5	-309516.5	1	349554.1	-62.30832	3.533597E-010	0.0102942	5
	56	83	2.504006	199214.7	-358477	1	410112.5	-60.93797	-8.216058E-013	0.0102784	5
	57	86	1.998082	240818.9	-410718.3	1	476112.7	-59.61537	-7.471445E-012	0.0102711	5
	58	89	1.584686	291292.3	-468612.2	1	551768.6	-58.13465	1.638098E-010	0.0103181	5
	59	93	1.266892	346673.3	-532863.1	1	635708.7	-56.95253	7.411099E-011	0.0102483	5
	60	97	0.999041	413575.7	-605070	1	732908.3	-55.64672	4.044779E-010	0.0103224	5
