EXPLAIN
TAG	EISPOT
TITLE	LABEL	Potentiostatic EIS	Test &Identifier
DATE	LABEL	10/16/2019	Date
TIME	LABEL	9:27:30	Time
NOTES	NOTES	1	&Notes...
	
PSTAT	PSTAT	REF600-11020	Potentiostat
VDC	POTEN	0.00000E+000	T	DC &Voltage (V)
FREQINIT	QUANT	1.00000E+006	Initial Fre&q. (Hz)
FREQFINAL	QUANT	1.00000E+000	Final Fre&q. (Hz)
PTSPERDEC	QUANT	1.00000E+001	Points/&decade
VAC	QUANT	2.50000E+001	AC &Voltage (mV rms)
AREA	QUANT	1.00000E-002	&Area (cm^2)
CONDIT	TWOPARAM	T	5.00000E+000	0.00000E+000	Conditionin&g	Time(s)	E(V)
DELAY	TWOPARAM	T	5.00000E+000	0.00000E+000	Init. De&lay	Time(s)	Stab.(mV/s)
SPEED	SELECTOR	0	&Optimize for:
ZGUESS	QUANT	1.00000E+005	E&stimated Z (ohms)
OCVCURVE	TABLE	19
	Pt	T	Vf	Vm	Ach	Over
	#	s	V vs. Ref.	V	V	bits
	0	0.258333	7.34350E-003	7.34350E-003	5.63899E-004	...........
	1	0.516667	7.34466E-003	7.40416E-003	5.64566E-004	...........
	2	0.775	7.35208E-003	7.47732E-003	5.62866E-004	...........
	3	1.03333	7.37403E-003	7.54672E-003	5.64099E-004	...........
	4	1.29167	7.41538E-003	7.62410E-003	5.59266E-004	...........
	5	1.55	7.47381E-003	7.70645E-003	5.62366E-004	...........
	6	1.80833	7.54357E-003	7.78465E-003	5.61966E-004	...........
	7	2.06667	7.61947E-003	7.85849E-003	5.64266E-004	...........
	8	2.325	7.69783E-003	7.94178E-003	5.63632E-004	...........
	9	2.58333	7.77654E-003	8.01544E-003	5.65666E-004	...........
	10	2.84167	7.85480E-003	8.08705E-003	5.64932E-004	...........
	11	3.1	7.93204E-003	8.16226E-003	5.55499E-004	...........
	12	3.35833	8.00801E-003	8.24522E-003	5.69599E-004	...........
	13	3.61667	8.08327E-003	8.30659E-003	5.69766E-004	...........
	14	3.875	8.15801E-003	8.37639E-003	5.67099E-004	...........
	15	4.13333	8.23114E-003	8.44321E-003	5.65332E-004	...........
	16	4.39167	8.30187E-003	8.51157E-003	5.61666E-004	...........
	17	4.65	8.37051E-003	8.56892E-003	5.63332E-004	...........
	18	4.90833	8.43741E-003	8.63609E-003	5.62966E-004	...........
EOC	QUANT	0.0084374	Open Circuit (V)
PSTATMODEL	IQUANT	4	Pstat Model
PSTATSECTION	LABEL	REF600-11020	Pstat Section
PSTATSERIALNO	LABEL	11020	Pstat Serial Number
CTRLMODE	IQUANT	1	Control Mode
IESTAB	IQUANT	0	I/E Stability
CASPEED	IQUANT	1	Control Amp Speed
CONVENTION	IQUANT	1	Current Convention
ICHRANGE	IQUANT	2	Ich Range
ICHRANGEMODE	TOGGLE	F	Ich Auto Range
ICHOFFSETENABLE	TOGGLE	T	Ich Offset Enable
ICHOFFSET	QUANT	0	Ich Offset (V)
ICHFILTER	IQUANT	3	Ich Filter
VCHRANGE	IQUANT	2	Vch Range
VCHRANGEMODE	TOGGLE	F	Vch Auto Range
VCHOFFSETENABLE	TOGGLE	T	Vch Offset Enable
VCHOFFSET	QUANT	0	Vch Offset (V)
VCHFILTER	IQUANT	3	Vch Filter
ACHRANGE	IQUANT	2	Ach Range
ACHOFFSETENABLE	TOGGLE	F	Ach Offset Enable
ACHOFFSET	QUANT	0	Ach Offset (V)
ACHFILTER	IQUANT	3	Ach Filter
IERANGELOWERLIMIT	IQUANT	1	I/E Range Lower Limit
IERANGEMODE	TOGGLE	F	I/E AutoRange
IERANGE	IQUANT	5	I/E Range
POSFEEDENABLE	TOGGLE	F	Positive Feedback IR Comp
POSFEEDRESISTANCE	QUANT	0	Positive Feedback Resistance (ohm)
ACHSELECT	IQUANT	0	Ach Select
CABLEID	IQUANT	14	Cable ID
DCCALDATE	LABEL	8/19/2019	DC Calibration Date
ACCALDATE	LABEL	8/19/2019	AC Calibration Date
THERMOSELECT	IQUANT	1	Thermo Select
FRAMEWORKVERSION	QUANT	6.33	Framework Version
INSTRUMENTVERSION	LABEL	3.50	Instrument Version
ZCURVE	TABLE
	Pt	Time	Freq	Zreal	Zimag	Zsig	Zmod	Zphz	Idc	Vdc	IERange
	#	s	Hz	ohm	ohm	V	ohm	°	A	V	#
	0	1	1000078	2310.993	-1489.354	1	2749.339	-32.80037	3.24637E-006	0.0098847	8
	1	1	794390.6	2582.969	-1467.92	1	2970.946	-29.60988	3.147152E-006	0.0096558	8
	2	2	630984.4	2845.776	-1413.915	1	3177.671	-26.42035	-2.43805E-006	0.0106066	8
	3	2	501234.4	3082.911	-1312.79	1	3350.785	-23.06567	2.687684E-006	0.0097367	8
	4	2	398109.4	3313.047	-1217.105	1	3529.536	-20.17168	-7.579249E-007	0.0102915	8
	5	3	316265.6	3491.282	-1097.309	1	3659.663	-17.44792	2.194751E-006	0.0096844	8
	6	3	251203.1	3653.761	-984.955	1	3784.191	-15.08677	5.176844E-007	0.0099474	8
	7	3	199546.9	3771.917	-863.1813	1	3869.424	-12.88985	2.065787E-006	0.0096862	8
	8	4	158578.1	3883.344	-757.2996	1	3956.496	-11.03488	-1.118006E-007	0.0100425	8
	9	4	125953.1	4018.775	-619.8753	1	4066.3	-8.768476	5.471762E-007	0.0089261	7
	10	4	100078.1	4037.787	-530.6064	1	4072.501	-7.486354	-1.341982E-008	0.0100963	7
	11	5	79453.13	4085.009	-474.4568	1	4112.47	-6.624982	1.068653E-007	0.0098867	7
	12	5	63140.62	4123.839	-430.1564	1	4146.213	-5.954969	-4.286602E-008	0.0101321	7
	13	5	50203.12	4159.232	-396.4778	1	4178.087	-5.445252	-4.648055E-008	0.0101348	7
	14	6	39890.62	4189.13	-374.4883	1	4205.836	-5.108391	-7.787797E-009	0.0100778	7
	15	6	31640.63	4217.975	-362.3794	1	4233.513	-4.910402	-3.571191E-008	0.0100778	7
	16	6	25171.88	4245.792	-361.7455	1	4261.175	-4.869893	2.749046E-008	0.0100052	7
	17	7	20015.62	4266.044	-373.683	1	4282.379	-5.00603	6.408761E-008	0.0099041	7
	18	7	15890.62	4299.617	-390.505	1	4317.314	-5.189549	2.775766E-008	0.0100045	7
	19	7	12609.37	4324.499	-423.2086	1	4345.158	-5.58934	-4.23019E-008	0.0101245	7
	20	8	10078.13	4351.735	-466.3975	1	4376.657	-6.117328	5.503325E-008	0.0099409	7
	21	8	8015.625	4369.041	-537.8239	1	4402.02	-7.017738	-3.520872E-008	0.0100675	7
	22	8	6328.125	4413.451	-608.1573	1	4455.155	-7.84574	6.273902E-008	0.009902	7
	23	8	5015.625	4448.712	-708.3344	1	4504.75	-9.046827	6.343442E-008	0.0099021	7
	24	9	3984.375	4498.627	-814.9127	1	4571.841	-10.26762	-1.029908E-008	0.0100758	7
	25	9	3170.956	4530.346	-991.492	1	4637.574	-12.34487	6.176543E-008	0.0100027	7
	26	9	2527.573	4580.759	-1184.075	1	4731.32	-14.49308	-1.325415E-008	0.0101548	7
	27	10	1976.103	4641.226	-1438.557	1	4859.056	-17.22093	-9.770892E-009	0.0100632	7
	28	10	1577.524	4750.85	-1751.96	1	5063.589	-20.24234	2.727794E-008	0.0100018	7
	29	10	1265.625	4780.021	-2080.813	1	5213.289	-23.5242	2.468226E-008	0.0100057	7
	30	11	998.264	4871.704	-2542.475	1	5495.241	-27.55943	3.379723E-008	0.0099203	7
	31	11	796.875	4974.112	-3085.005	1	5853.123	-31.80769	-3.694646E-008	0.0100546	7
	32	11	627.7902	5106.668	-3795.578	1	6362.741	-36.62191	-7.126776E-009	0.0100709	7
	33	12	505.5147	5248.792	-4587.469	1	6970.989	-41.15362	6.34369E-008	0.010001	7
	34	12	397.9953	5431.985	-5664.998	1	7848.481	-46.20292	1.325047E-009	0.0100543	7
	35	12	315.5048	5656.834	-6964.271	1	8972.226	-50.91425	1.303402E-009	0.010053	7
	36	13	252.4038	5930.437	-8499.983	1	10364.35	-55.09653	9.874965E-010	0.009991	6
	37	13	198.6229	6299.878	-10536.45	1	12276.21	-59.12426	3.235571E-010	0.0099932	6
	38	13	158.3615	6749.789	-12916.02	1	14573.37	-62.40886	7.252152E-010	0.0099918	6
	39	14	125.558	7340.546	-15901.42	1	17513.96	-65.22061	4.8699E-010	0.009996	6
	40	14	100.4464	8105.157	-19429.02	1	21051.85	-67.35568	-2.934521E-010	0.0099912	6
	41	14	79.00281	9180.876	-24057.51	1	25749.8	-69.11205	9.924038E-010	0.0099896	6
	42	15	63.3446	10146.98	-29333.52	1	31038.95	-70.9186	-5.853106E-010	0.0099895	6
	43	15	49.86702	12004.5	-36096.69	1	38040.5	-71.60468	7.095439E-010	0.0099865	6
	44	15	39.72458	14560.44	-44074	1	46416.86	-71.71833	3.331279E-010	0.0099894	6
	45	16	31.6723	17772.42	-53486.76	1	56362.15	-71.61954	5.941281E-010	0.0099865	6
	46	16	24.93351	21928.86	-65496.23	1	69069.76	-71.48888	-6.356269E-010	0.0099865	6
	47	16	19.86229	27292.55	-79028.13	1	83608.19	-70.94753	-1.396918E-009	0.0099847	6
	48	17	15.83615	34231.44	-95201.1	1	101168.4	-70.22295	2.114137E-010	0.0099831	6
	49	17	12.40079	45632.25	-114786.8	1	123524.5	-68.32024	-1.872812E-009	0.0099924	5
	50	17	9.93114	56383.2	-135167.4	1	146455.8	-67.35722	9.156751E-010	0.0099913	5
	51	18	7.944915	71344.3	-158257.2	1	173595.3	-65.73356	4.623151E-010	0.0099904	5
	52	18	6.317385	90205.41	-185205.4	1	206005	-64.03133	6.059893E-011	0.0099892	5
	53	19	5.008013	113346.4	-214432	1	242545.8	-62.13957	2.062054E-010	0.0099978	5
	54	20	3.945707	141426.1	-247880.7	1	285387.8	-60.29347	-4.451352E-010	0.0099848	5
	55	22	3.158693	171141	-279887.8	1	328064.7	-58.55576	-2.792495E-011	0.0099755	5
	56	23	2.504006	205364.9	-317076	1	377772.3	-57.06954	1.512275E-010	0.0099839	5
	57	25	1.998082	241632.9	-355677.4	1	429991.7	-55.80939	-1.93338E-010	0.009944	5
	58	26	1.584686	281148.3	-401897.2	1	490475	-55.02518	-2.509977E-010	0.0099361	5
	59	28	1.266892	320640.4	-451599.9	1	553852.6	-54.62487	-1.527374E-010	0.0099697	5
	60	31	0.999041	366107.5	-513440.3	1	630599.4	-54.50931	-1.008874E-010	0.0099997	5
