EXPLAIN
TAG	EISPOT
TITLE	LABEL	Potentiostatic EIS	Test &Identifier
DATE	LABEL	11/7/2019	Date
TIME	LABEL	11:01:22	Time
NOTES	NOTES	2	&Notes...
	
	
PSTAT	PSTAT	REF600-11020	Potentiostat
VDC	POTEN	0.00000E+000	T	DC &Voltage (V)
FREQINIT	QUANT	1.00000E+006	Initial Fre&q. (Hz)
FREQFINAL	QUANT	1.00000E+000	Final Fre&q. (Hz)
PTSPERDEC	QUANT	1.00000E+001	Points/&decade
VAC	QUANT	2.50000E+001	AC &Voltage (mV rms)
AREA	QUANT	1.00000E-002	&Area (cm^2)
CONDIT	TWOPARAM	T	5.00000E+000	0.00000E+000	Conditionin&g	Time(s)	E(V)
DELAY	TWOPARAM	T	5.00000E+000	0.00000E+000	Init. De&lay	Time(s)	Stab.(mV/s)
SPEED	SELECTOR	1	&Optimize for:
ZGUESS	QUANT	1.00000E+005	E&stimated Z (ohms)
OCVCURVE	TABLE	19
	Pt	T	Vf	Vm	Ach	Over
	#	s	V vs. Ref.	V	V	bits
	0	0.258333	-2.94633E-003	-2.94633E-003	5.85199E-004	...........
	1	0.516667	-3.00086E-003	-5.80044E-003	5.82165E-004	...........
	2	0.775	-3.20398E-003	-1.61269E-003	5.79932E-004	...........
	3	1.03333	-3.38040E-003	3.41296E-004	5.82232E-004	...........
	4	1.29167	-3.01486E-003	2.51787E-003	5.80599E-004	...........
	5	1.55	-1.76446E-003	6.60971E-003	5.80299E-004	...........
	6	1.80833	2.75460E-004	7.81581E-003	5.81965E-004	...........
	7	2.06667	2.74335E-003	8.80478E-003	5.87065E-004	...........
	8	2.325	5.12766E-003	8.41809E-003	5.83665E-004	...........
	9	2.58333	6.94224E-003	8.18964E-003	5.87965E-004	...........
	10	2.84167	7.97003E-003	7.79320E-003	5.83099E-004	...........
	11	3.1	8.30814E-003	7.62922E-003	5.85765E-004	...........
	12	3.35833	8.22303E-003	7.46433E-003	5.85099E-004	...........
	13	3.61667	7.97240E-003	7.23219E-003	5.80065E-004	...........
	14	3.875	7.70592E-003	7.03536E-003	5.78799E-004	...........
	15	4.13333	7.46930E-003	6.89584E-003	5.79632E-004	...........
	16	4.39167	7.26241E-003	6.78313E-003	5.80965E-004	...........
	17	4.65	7.08267E-003	6.68813E-003	5.83032E-004	...........
	18	4.90833	6.92947E-003	6.51208E-003	5.79332E-004	...........
EOC	QUANT	0.0069295	Open Circuit (V)
PSTATMODEL	IQUANT	4	Pstat Model
PSTATSECTION	LABEL	REF600-11020	Pstat Section
PSTATSERIALNO	LABEL	11020	Pstat Serial Number
CTRLMODE	IQUANT	1	Control Mode
IESTAB	IQUANT	0	I/E Stability
CASPEED	IQUANT	1	Control Amp Speed
CONVENTION	IQUANT	1	Current Convention
ICHRANGE	IQUANT	2	Ich Range
ICHRANGEMODE	TOGGLE	F	Ich Auto Range
ICHOFFSETENABLE	TOGGLE	T	Ich Offset Enable
ICHOFFSET	QUANT	0	Ich Offset (V)
ICHFILTER	IQUANT	3	Ich Filter
VCHRANGE	IQUANT	2	Vch Range
VCHRANGEMODE	TOGGLE	F	Vch Auto Range
VCHOFFSETENABLE	TOGGLE	T	Vch Offset Enable
VCHOFFSET	QUANT	0	Vch Offset (V)
VCHFILTER	IQUANT	3	Vch Filter
ACHRANGE	IQUANT	2	Ach Range
ACHOFFSETENABLE	TOGGLE	F	Ach Offset Enable
ACHOFFSET	QUANT	0	Ach Offset (V)
ACHFILTER	IQUANT	3	Ach Filter
IERANGELOWERLIMIT	IQUANT	1	I/E Range Lower Limit
IERANGEMODE	TOGGLE	F	I/E AutoRange
IERANGE	IQUANT	5	I/E Range
POSFEEDENABLE	TOGGLE	F	Positive Feedback IR Comp
POSFEEDRESISTANCE	QUANT	0	Positive Feedback Resistance (ohm)
ACHSELECT	IQUANT	0	Ach Select
CABLEID	IQUANT	14	Cable ID
DCCALDATE	LABEL	8/19/2019	DC Calibration Date
ACCALDATE	LABEL	8/19/2019	AC Calibration Date
THERMOSELECT	IQUANT	1	Thermo Select
FRAMEWORKVERSION	QUANT	6.33	Framework Version
INSTRUMENTVERSION	LABEL	3.50	Instrument Version
ZCURVE	TABLE
	Pt	Time	Freq	Zreal	Zimag	Zsig	Zmod	Zphz	Idc	Vdc	IERange
	#	s	Hz	ohm	ohm	V	ohm	°	A	V	#
	0	1	1000078	1858.989	-858.6479	1	2047.71	-24.79173	-4.492429E-006	0.0102544	8
	1	3	794390.6	1984.448	-830.2997	1	2151.147	-22.7046	-8.158365E-007	0.0086256	8
	2	4	630984.4	2107.248	-777.7044	1	2246.179	-20.25717	-1.995191E-006	0.0084775	8
	3	5	501234.4	2233.071	-728.2613	1	2348.823	-18.06247	-1.743037E-006	0.0083963	8
	4	7	398109.4	2333.422	-679.4773	1	2430.339	-16.23522	1.052621E-006	0.009054	8
	5	8	316265.6	2420.232	-634.5233	1	2502.027	-14.69086	-1.853308E-007	0.0082164	8
	6	9	251203.1	2504.467	-592.6055	1	2573.623	-13.31245	-4.486304E-007	0.0082814	8
	7	11	199546.9	2576.415	-550.6854	1	2634.61	-12.06491	4.365613E-006	0.008497	8
	8	12	158578.1	2687.708	-501.9158	1	2734.171	-10.57786	6.350217E-006	0.0073741	8
	9	14	125953.1	2732.808	-451.0129	1	2769.774	-9.371419	1.267125E-006	0.009864	7
	10	15	100078.1	2779.397	-432.5285	1	2812.85	-8.845394	1.136818E-006	0.0073001	7
	11	16	79453.13	2822.603	-423.7931	1	2854.24	-8.538759	-3.352528E-007	0.0076502	7
	12	18	63140.62	2874.273	-427.0555	1	2905.825	-8.451102	7.810603E-007	0.0066778	7
	13	19	50203.12	2925.189	-434.4835	1	2957.28	-8.448476	1.039821E-007	0.0094628	7
	14	20	39890.62	2976.906	-444.2123	1	3009.867	-8.487021	1.032758E-007	0.0094652	7
	15	22	31640.63	3028.69	-457.1036	1	3062.99	-8.582566	-9.123501E-007	0.0102487	7
	16	23	25171.88	3083.891	-476.1833	1	3120.438	-8.777714	-9.129768E-007	0.0102473	7
	17	24	20015.62	3141.515	-500.6164	1	3181.153	-9.054243	-7.712528E-007	0.0083628	7
	18	26	15890.62	3203.723	-533.4868	1	3247.838	-9.454194	4.729824E-007	0.0067974	7
	19	27	12609.37	3266.539	-571.826	1	3316.212	-9.92934	9.598885E-008	0.0071044	7
	20	29	10078.13	3331.644	-615.3592	1	3387.996	-10.46467	-1.100352E-006	0.0090668	7
	21	30	8015.625	3406.086	-671.2103	1	3471.591	-11.14798	6.659618E-007	0.0086389	7
	22	31	6328.125	3473.894	-733.2717	1	3550.44	-11.91907	-1.270274E-006	0.0096486	7
	23	33	5015.625	3552.63	-804.8292	1	3642.654	-12.76459	-1.273251E-006	0.009645	7
	24	34	3984.375	3635.242	-892.9105	1	3743.297	-13.80014	9.658893E-008	0.007106	7
	25	35	3170.956	3719.78	-993.536	1	3850.179	-14.95434	6.679746E-007	0.0086412	7
	26	37	2527.573	3799.223	-1120.402	1	3960.984	-16.43094	8.7993E-007	0.0082202	7
	27	38	1976.103	3878.924	-1283.096	1	4085.631	-18.30352	-9.139347E-007	0.0102381	7
	28	39	1577.524	3952.697	-1500.602	1	4227.957	-20.78876	1.11845E-006	0.0069506	7
	29	41	1265.625	4031.832	-1728.547	1	4386.746	-23.20602	-2.721113E-007	0.0098672	7
	30	42	998.264	4123.236	-2065.585	1	4611.693	-26.60914	9.98255E-007	0.006734	7
	31	43	796.875	4211.608	-2451.33	1	4873.055	-30.20118	-1.129425E-006	0.0101788	7
	32	45	627.7902	4328.894	-2977.455	1	5254.004	-34.52057	-3.359233E-007	0.0076322	7
	33	46	505.5147	4459.605	-3578.539	1	5717.869	-38.74474	6.666135E-007	0.0086324	7
	34	48	397.9953	4629.934	-4378.029	1	6372.082	-43.39816	4.548711E-009	0.0085091	7
	35	49	315.5048	4841.828	-5349.903	1	7215.591	-47.85393	5.667584E-009	0.008511	7
	36	50	252.4038	5102.205	-6495.767	1	8259.992	-51.85157	5.39971E-009	0.0085099	7
	37	52	198.6229	5465.764	-8007.037	1	9694.7	-55.68177	5.112336E-009	0.0085089	7
	38	53	158.3615	5921.623	-9752.8	1	11409.77	-58.73507	1.52326E-009	0.0084465	6
	39	54	125.558	6528.851	-11924.25	1	13594.62	-61.2981	8.91387E-010	0.0084439	6
	40	56	100.4464	7283.868	-14436.28	1	16169.75	-63.22663	6.332396E-010	0.0084477	6
	41	57	79.00281	8370.995	-17738.47	1	19614.46	-64.73682	1.248672E-010	0.008453	6
	42	58	63.3446	9632.09	-21451.58	1	23514.83	-65.81918	-6.284159E-010	0.0084419	6
	43	60	49.86702	11479.58	-25741.29	1	28185.01	-65.96505	-1.189917E-009	0.0084503	6
	44	61	39.72458	13876.38	-30937.85	1	33907.29	-65.8426	7.400162E-010	0.0084455	6
	45	63	31.6723	16754.51	-36797.95	1	40432.69	-65.51971	7.544169E-010	0.0084471	6
	46	64	24.93351	20676.89	-44052.89	1	48664.07	-64.85628	1.60622E-009	0.0084445	6
	47	65	19.86229	25226.76	-51885.58	1	57693.18	-64.07099	1.746395E-009	0.0084501	6
	48	67	15.83615	30934.29	-60755.75	1	68177.65	-63.01671	-8.621419E-010	0.0084381	6
	49	68	12.40079	37652.71	-71681.2	1	80968.64	-62.28794	3.42801E-011	0.0084527	6
	50	70	9.93114	45737.39	-82335.12	1	94185.88	-60.94771	2.241236E-010	0.0084546	6
	51	71	7.944915	54957.66	-94134.38	1	109002.9	-59.72271	9.139932E-010	0.0084628	5
	52	73	6.317385	65629.08	-107799.3	1	126205.6	-58.6666	1.728156E-010	0.008466	5
	53	75	5.008013	77571.05	-123048.1	1	145458.3	-57.77217	5.158693E-010	0.0084502	5
	54	77	3.945707	91064.82	-140788.1	1	167672.6	-57.10433	1.333307E-010	0.0084479	5
	55	80	3.158693	104243	-159432.5	1	190487.1	-56.82183	1.948724E-010	0.0084671	5
	56	83	2.504006	118545.8	-182439	1	217570.9	-56.98486	-7.459008E-011	0.0084475	5
	57	86	1.998082	132611.9	-208952.2	1	247481.2	-57.59868	-1.75797E-010	0.0084592	5
	58	89	1.584686	148255.2	-242226.9	1	283995.6	-58.53124	1.103717E-010	0.0085002	5
	59	93	1.266892	162972	-282014.7	1	325718	-59.97703	-1.063586E-010	0.0084494	5
	60	97	0.999041	180697.6	-334975.1	1	380604.7	-61.65598	2.28985E-010	0.0084714	5
