EXPLAIN
TAG	EISPOT
TITLE	LABEL	Potentiostatic EIS	Test &Identifier
DATE	LABEL	10/10/2019	Date
TIME	LABEL	10:01:09	Time
NOTES	NOTES	1	&Notes...
	
PSTAT	PSTAT	REF600-11020	Potentiostat
VDC	POTEN	0.00000E+000	T	DC &Voltage (V)
FREQINIT	QUANT	1.00000E+006	Initial Fre&q. (Hz)
FREQFINAL	QUANT	1.00000E+000	Final Fre&q. (Hz)
PTSPERDEC	QUANT	1.00000E+001	Points/&decade
VAC	QUANT	2.50000E+001	AC &Voltage (mV rms)
AREA	QUANT	1.00000E-002	&Area (cm^2)
CONDIT	TWOPARAM	T	5.00000E+000	0.00000E+000	Conditionin&g	Time(s)	E(V)
DELAY	TWOPARAM	T	5.00000E+000	0.00000E+000	Init. De&lay	Time(s)	Stab.(mV/s)
SPEED	SELECTOR	1	&Optimize for:
ZGUESS	QUANT	1.00000E+004	E&stimated Z (ohms)
OCVCURVE	TABLE	19
	Pt	T	Vf	Vm	Ach	Over
	#	s	V vs. Ref.	V	V	bits
	0	0.258333	3.65665E-003	3.65665E-003	5.60266E-004	...........
	1	0.516667	3.65291E-003	3.46093E-003	5.63799E-004	...........
	2	0.775	3.63079E-003	3.31937E-003	5.64566E-004	...........
	3	1.03333	3.57014E-003	3.13817E-003	5.64666E-004	...........
	4	1.29167	3.46442E-003	3.02506E-003	5.62632E-004	...........
	5	1.55	3.32877E-003	2.95190E-003	5.62866E-004	...........
	6	1.80833	3.18950E-003	2.88791E-003	5.61532E-004	...........
	7	2.06667	3.06770E-003	2.80559E-003	5.65066E-004	...........
	8	2.325	2.96789E-003	2.67680E-003	5.58966E-004	...........
	9	2.58333	2.87977E-003	2.60272E-003	5.61199E-004	...........
	10	2.84167	2.79158E-003	2.50521E-003	5.58732E-004	...........
	11	3.1	2.70038E-003	2.44018E-003	5.54766E-004	...........
	12	3.35833	2.61054E-003	2.38682E-003	5.57066E-004	...........
	13	3.61667	2.52808E-003	2.34378E-003	5.47099E-004	...........
	14	3.875	2.45715E-003	2.29920E-003	5.56233E-004	...........
	15	4.13333	2.39804E-003	2.25653E-003	5.55799E-004	...........
	16	4.39167	2.34774E-003	2.21223E-003	5.52066E-004	...........
	17	4.65	2.30200E-003	2.15435E-003	5.57166E-004	...........
	18	4.90833	2.25687E-003	2.10509E-003	5.51666E-004	...........
EOC	QUANT	0.0022569	Open Circuit (V)
PSTATMODEL	IQUANT	4	Pstat Model
PSTATSECTION	LABEL	REF600-11020	Pstat Section
PSTATSERIALNO	LABEL	11020	Pstat Serial Number
CTRLMODE	IQUANT	1	Control Mode
IESTAB	IQUANT	0	I/E Stability
CASPEED	IQUANT	1	Control Amp Speed
CONVENTION	IQUANT	1	Current Convention
ICHRANGE	IQUANT	2	Ich Range
ICHRANGEMODE	TOGGLE	F	Ich Auto Range
ICHOFFSETENABLE	TOGGLE	T	Ich Offset Enable
ICHOFFSET	QUANT	0	Ich Offset (V)
ICHFILTER	IQUANT	3	Ich Filter
VCHRANGE	IQUANT	2	Vch Range
VCHRANGEMODE	TOGGLE	F	Vch Auto Range
VCHOFFSETENABLE	TOGGLE	T	Vch Offset Enable
VCHOFFSET	QUANT	0	Vch Offset (V)
VCHFILTER	IQUANT	3	Vch Filter
ACHRANGE	IQUANT	2	Ach Range
ACHOFFSETENABLE	TOGGLE	F	Ach Offset Enable
ACHOFFSET	QUANT	0	Ach Offset (V)
ACHFILTER	IQUANT	3	Ach Filter
IERANGELOWERLIMIT	IQUANT	1	I/E Range Lower Limit
IERANGEMODE	TOGGLE	F	I/E AutoRange
IERANGE	IQUANT	5	I/E Range
POSFEEDENABLE	TOGGLE	F	Positive Feedback IR Comp
POSFEEDRESISTANCE	QUANT	0	Positive Feedback Resistance (ohm)
ACHSELECT	IQUANT	0	Ach Select
CABLEID	IQUANT	14	Cable ID
DCCALDATE	LABEL	8/19/2019	DC Calibration Date
ACCALDATE	LABEL	8/19/2019	AC Calibration Date
THERMOSELECT	IQUANT	1	Thermo Select
FRAMEWORKVERSION	QUANT	6.33	Framework Version
INSTRUMENTVERSION	LABEL	3.50	Instrument Version
ZCURVE	TABLE
	Pt	Time	Freq	Zreal	Zimag	Zsig	Zmod	Zphz	Idc	Vdc	IERange
	#	s	Hz	ohm	ohm	V	ohm	°	A	V	#
	0	1	1000078	2769.643	-2075.022	1	3460.728	-36.84062	2.529648E-006	0.0042966	8
	1	3	794390.6	3192.181	-1986.951	1	3760.052	-31.89992	3.066853E-006	0.0033508	8
	2	4	630984.4	3587.326	-1845.89	1	4034.379	-27.22848	-4.123304E-006	0.0047153	8
	3	6	501234.4	3899.513	-1657.203	1	4237.042	-23.02437	2.820251E-007	0.0040983	8
	4	7	398109.4	4158.223	-1450.297	1	4403.882	-19.22765	-3.260086E-006	0.0043611	8
	5	9	316265.6	4325.856	-1277.663	1	4510.594	-16.45476	-1.411382E-007	0.0040162	8
	6	10	251203.1	4468.689	-1096.753	1	4601.31	-13.78957	-2.382217E-007	0.0039848	8
	7	12	199546.9	4575.49	-944.468	1	4671.952	-11.66313	2.733917E-006	0.0032803	8
	8	13	158578.1	4658.537	-812.2425	1	4728.816	-9.89042	-2.904796E-006	0.0044253	8
	9	15	125953.1	4750.22	-646.214	1	4793.974	-7.74689	6.813002E-007	0.0023872	7
	10	16	100078.1	4790.804	-602.9845	1	4828.601	-7.173692	4.624302E-008	0.003679	7
	11	17	79453.13	4836.508	-561.1586	1	4868.953	-6.618184	-6.445802E-008	0.0040135	7
	12	19	63140.62	4881.377	-536.3477	1	4910.755	-6.270295	-4.3763E-008	0.0038354	7
	13	20	50203.12	4923.888	-527.1011	1	4952.021	-6.110231	4.878085E-008	0.0036683	7
	14	21	39890.62	4969.186	-529.8309	1	4997.353	-6.08607	-1.466997E-008	0.003968	7
	15	23	31640.63	5016.904	-546.5662	1	5046.589	-6.217563	-4.687904E-008	0.0038388	7
	16	24	25171.88	5066.501	-575.5657	1	5099.089	-6.481141	-1.485438E-008	0.003772	7
	17	25	20015.62	5135.458	-613.9127	1	5172.023	-6.817009	-5.122184E-008	0.003841	7
	18	27	15890.62	5180.611	-672.027	1	5224.017	-7.391114	-5.711951E-008	0.0039924	7
	19	28	12609.37	5247.271	-743.6415	1	5299.703	-8.066223	-1.95644E-008	0.0038707	7
	20	30	10078.13	5314.374	-822.7104	1	5377.678	-8.80002	-5.516456E-008	0.0039918	7
	21	31	8015.625	5383.663	-915.2704	1	5460.911	-9.64854	7.151207E-008	0.0036941	7
	22	32	6328.125	5479.408	-1049.066	1	5578.93	-10.83847	-1.537633E-008	0.0037763	7
	23	34	5015.625	5569.736	-1195.443	1	5696.582	-12.11372	-6.241555E-008	0.004006	7
	24	35	3984.375	5667.597	-1375.124	1	5832.034	-13.63808	-3.170512E-008	0.0038374	7
	25	36	3170.956	5775.965	-1586.408	1	5989.863	-15.35797	-1.376359E-008	0.0037778	7
	26	38	2527.573	5894.125	-1840.537	1	6174.81	-17.34183	-4.348277E-009	0.0038538	7
	27	39	1976.103	6030.306	-2181.203	1	6412.662	-19.88541	9.051653E-008	0.0036227	7
	28	40	1577.524	6169.243	-2549.011	1	6675.104	-22.44946	1.433738E-008	0.0037257	7
	29	42	1265.625	6321.292	-3013.083	1	7002.671	-25.48509	1.602122E-008	0.0037207	7
	30	43	998.264	6510.091	-3605.494	1	7441.833	-28.97907	-8.383096E-008	0.0039462	7
	31	44	796.875	6711.383	-4291.167	1	7965.976	-32.5943	4.673292E-008	0.0036624	7
	32	46	627.7902	6944.535	-5183.421	1	8665.704	-36.73777	-1.699444E-008	0.0037715	7
	33	47	505.5147	7201.939	-6158.202	1	9475.831	-40.53294	1.483716E-007	0.0035843	7
	34	49	397.9953	7529.498	-7492.502	1	10622.19	-44.85889	8.34563E-010	0.0037609	6
	35	50	315.5048	7890.819	-9087.052	1	12034.93	-49.0303	1.754682E-009	0.003757	6
	36	51	252.4038	8297.563	-10965.22	1	13750.84	-52.88461	8.287601E-010	0.0037514	6
	37	53	198.6229	8818.455	-13458.64	1	16090.37	-56.76613	1.31572E-009	0.0037567	6
	38	54	158.3615	9424.475	-16371.59	1	18890.46	-60.07267	1.511472E-009	0.0037528	6
	39	55	125.558	10184.28	-20039.09	1	22478.54	-63.05939	1.292111E-009	0.003753	6
	40	57	100.4464	11126.14	-24343.16	1	26765.28	-65.43703	1.379273E-009	0.0037553	6
	41	58	79.00281	12334.05	-30051.53	1	32484.2	-67.68527	1.41458E-009	0.0037473	6
	42	59	63.3446	13515.51	-36549.66	1	38968.53	-69.70638	4.41382E-010	0.0037533	6
	43	61	49.86702	16269.37	-44809.6	1	47671.72	-70.04516	4.587314E-010	0.0037509	6
	44	62	39.72458	18938.1	-54924.77	1	58098.04	-70.97577	5.679234E-010	0.0037541	6
	45	64	31.6723	22343.53	-66912.75	1	70544.66	-71.53478	1.83026E-010	0.0037532	6
	46	65	24.93351	27346.71	-81799.93	1	86250.05	-71.51459	8.937648E-010	0.003752	6
	47	67	19.86229	33612.39	-98707.3	1	104273.3	-71.19496	6.481867E-010	0.003757	6
	48	68	15.83615	41333.46	-120329.7	1	127230.9	-71.04232	2.278385E-009	0.0037503	5
	49	69	12.40079	52522.84	-144804.4	1	154035.6	-70.06349	5.86705E-010	0.0037573	5
	50	71	9.93114	65984.02	-171987.7	1	184210.9	-69.01041	2.442047E-010	0.0037563	5
	51	72	7.944915	83233.45	-204747.2	1	221018.6	-67.87737	4.45898E-010	0.00375	5
	52	74	6.317385	105121.1	-240667	1	262623.4	-66.40475	1.912068E-010	0.0037387	5
	53	76	5.008013	132766.2	-283202.7	1	312778.9	-64.88269	-1.06023E-010	0.0037549	5
	54	78	3.945707	168591.7	-331601.7	1	371998.5	-63.05048	2.427886E-010	0.0037593	5
	55	81	3.158693	207166.8	-381891.1	1	434463.9	-61.52123	-3.43736E-011	0.0037409	5
	56	85	2.504006	255769.5	-438669.9	1	507788.6	-59.75539	5.363379E-010	0.0037575	5
	57	87	1.998082	310757.3	-497886.3	1	586907.9	-58.02952	2.867709E-010	0.0037903	5
	58	90	1.584686	373396.3	-563166.3	1	675707.8	-56.45441	2.136858E-010	0.0037354	5
	59	94	1.266892	443548.3	-632802.8	1	772770.6	-54.97237	1.857236E-010	0.0037964	5
	60	98	0.999041	520189.5	-711085.3	1	881044.4	-53.81292	5.645839E-011	0.0037161	5
