EXPLAIN
TAG	EISPOT
TITLE	LABEL	Potentiostatic EIS	Test &Identifier
DATE	LABEL	11/15/2019	Date
TIME	LABEL	12:20:21	Time
NOTES	NOTES	4	&Notes...
	
	
	
	
PSTAT	PSTAT	REF600-11020	Potentiostat
VDC	POTEN	0.00000E+000	T	DC &Voltage (V)
FREQINIT	QUANT	1.00000E+006	Initial Fre&q. (Hz)
FREQFINAL	QUANT	1.00000E+000	Final Fre&q. (Hz)
PTSPERDEC	QUANT	1.00000E+001	Points/&decade
VAC	QUANT	2.50000E+001	AC &Voltage (mV rms)
AREA	QUANT	1.00000E-002	&Area (cm^2)
CONDIT	TWOPARAM	T	5.00000E+000	0.00000E+000	Conditionin&g	Time(s)	E(V)
DELAY	TWOPARAM	T	5.00000E+000	0.00000E+000	Init. De&lay	Time(s)	Stab.(mV/s)
SPEED	SELECTOR	0	&Optimize for:
ZGUESS	QUANT	1.00000E+005	E&stimated Z (ohms)
OCVCURVE	TABLE	19
	Pt	T	Vf	Vm	Ach	Over
	#	s	V vs. Ref.	V	V	bits
	0	0.258333	5.69519E-003	5.69519E-003	5.55066E-004	...........
	1	0.516667	5.69581E-003	5.72810E-003	5.52066E-004	...........
	2	0.775	5.69989E-003	5.77054E-003	5.57466E-004	...........
	3	1.03333	5.71225E-003	5.81718E-003	5.56299E-004	...........
	4	1.29167	5.73642E-003	5.87193E-003	5.53099E-004	...........
	5	1.55	5.77236E-003	5.92798E-003	5.52499E-004	...........
	6	1.80833	5.81746E-003	5.98089E-003	5.64866E-004	...........
	7	2.06667	5.86840E-003	6.03790E-003	5.56432E-004	...........
	8	2.325	5.92237E-003	6.09545E-003	5.57833E-004	...........
	9	2.58333	5.97780E-003	6.15321E-003	5.56933E-004	...........
	10	2.84167	6.03417E-003	6.21193E-003	5.59099E-004	...........
	11	3.1	6.09135E-003	6.27177E-003	5.52766E-004	...........
	12	3.35833	6.14926E-003	6.32914E-003	5.49266E-004	...........
	13	3.61667	6.20769E-003	6.38797E-003	5.49233E-004	...........
	14	3.875	6.26621E-003	6.44191E-003	5.47633E-004	...........
	15	4.13333	6.32429E-003	6.49779E-003	5.55333E-004	...........
	16	4.39167	6.38146E-003	6.55108E-003	5.55066E-004	...........
	17	4.65	6.43763E-003	6.61081E-003	5.56299E-004	...........
	18	4.90833	6.49330E-003	6.66612E-003	5.57233E-004	...........
EOC	QUANT	0.0064933	Open Circuit (V)
PSTATMODEL	IQUANT	4	Pstat Model
PSTATSECTION	LABEL	REF600-11020	Pstat Section
PSTATSERIALNO	LABEL	11020	Pstat Serial Number
CTRLMODE	IQUANT	1	Control Mode
IESTAB	IQUANT	0	I/E Stability
CASPEED	IQUANT	1	Control Amp Speed
CONVENTION	IQUANT	1	Current Convention
ICHRANGE	IQUANT	2	Ich Range
ICHRANGEMODE	TOGGLE	F	Ich Auto Range
ICHOFFSETENABLE	TOGGLE	T	Ich Offset Enable
ICHOFFSET	QUANT	0	Ich Offset (V)
ICHFILTER	IQUANT	3	Ich Filter
VCHRANGE	IQUANT	2	Vch Range
VCHRANGEMODE	TOGGLE	F	Vch Auto Range
VCHOFFSETENABLE	TOGGLE	T	Vch Offset Enable
VCHOFFSET	QUANT	0	Vch Offset (V)
VCHFILTER	IQUANT	3	Vch Filter
ACHRANGE	IQUANT	2	Ach Range
ACHOFFSETENABLE	TOGGLE	F	Ach Offset Enable
ACHOFFSET	QUANT	0	Ach Offset (V)
ACHFILTER	IQUANT	3	Ach Filter
IERANGELOWERLIMIT	IQUANT	1	I/E Range Lower Limit
IERANGEMODE	TOGGLE	F	I/E AutoRange
IERANGE	IQUANT	5	I/E Range
POSFEEDENABLE	TOGGLE	F	Positive Feedback IR Comp
POSFEEDRESISTANCE	QUANT	0	Positive Feedback Resistance (ohm)
ACHSELECT	IQUANT	0	Ach Select
CABLEID	IQUANT	14	Cable ID
DCCALDATE	LABEL	8/19/2019	DC Calibration Date
ACCALDATE	LABEL	8/19/2019	AC Calibration Date
THERMOSELECT	IQUANT	1	Thermo Select
FRAMEWORKVERSION	QUANT	6.33	Framework Version
INSTRUMENTVERSION	LABEL	3.50	Instrument Version
ZCURVE	TABLE
	Pt	Time	Freq	Zreal	Zimag	Zsig	Zmod	Zphz	Idc	Vdc	IERange
	#	s	Hz	ohm	ohm	V	ohm	°	A	V	#
	0	1	1000078	2250.518	-1587.109	1	2753.86	-35.19222	-4.218977E-006	0.0094334	8
	1	1	794390.6	2542.151	-1544.776	1	2974.705	-31.28558	1.466781E-006	0.0080531	8
	2	2	630984.4	2819.292	-1480.387	1	3184.329	-27.70359	-3.602829E-007	0.0079294	8
	3	2	501234.4	3050.698	-1402.427	1	3357.613	-24.68856	7.985422E-006	0.0073163	8
	4	2	398109.4	3270.229	-1313.255	1	3524.066	-21.87935	-7.603271E-007	0.0078075	8
	5	2	316265.6	3464.614	-1224.187	1	3674.531	-19.46035	-6.527976E-006	0.0090831	8
	6	3	251203.1	3646.98	-1139.43	1	3820.833	-17.35043	6.423723E-006	0.0069756	8
	7	3	199546.9	3797.323	-1063.423	1	3943.416	-15.64466	-2.792898E-006	0.0080349	8
	8	3	158578.1	3940.527	-975.273	1	4059.422	-13.90124	-4.443913E-006	0.0084257	8
	9	4	125953.1	4095.007	-854.8721	1	4183.287	-11.79169	1.336441E-006	0.0096018	7
	10	4	100078.1	4192.77	-772.0043	1	4263.251	-10.43288	6.744904E-008	0.0090882	7
	11	4	79453.13	4287.566	-713.6868	1	4346.559	-9.450521	-3.118605E-007	0.0094944	7
	12	5	63140.62	4369.728	-659.8713	1	4419.27	-8.587337	-3.199725E-007	0.0071545	7
	13	5	50203.12	4440.281	-612.6572	1	4482.348	-7.855906	-3.196381E-007	0.0071523	7
	14	5	39890.62	4508.62	-583.9936	1	4546.285	-7.38033	6.401365E-007	0.0082797	7
	15	6	31640.63	4563.749	-561.4299	1	4598.152	-7.013258	6.833664E-008	0.0090704	7
	16	6	25171.88	4616.163	-551.126	1	4648.946	-6.808345	1.147879E-006	0.0065111	7
	17	6	20015.62	4657.397	-552.4662	1	4690.05	-6.764885	-1.163431E-006	0.0097629	7
	18	7	15890.62	4705.992	-570.7402	1	4740.475	-6.91503	-6.608877E-007	0.0097323	7
	19	7	12609.37	4747.738	-599.8694	1	4785.484	-7.201077	-9.51607E-007	0.0098195	7
	20	7	10078.13	4789.595	-648.2127	1	4833.26	-7.707448	-1.103764E-006	0.0085812	7
	21	8	8015.625	4836.704	-724.3724	1	4890.646	-8.517637	6.910862E-008	0.0090693	7
	22	8	6328.125	4881.395	-815.1107	1	4948.982	-9.479964	5.176869E-007	0.0062872	7
	23	8	5015.625	4926.968	-936.5411	1	5015.189	-10.76265	-9.511788E-007	0.0098196	7
	24	8	3984.375	4989.663	-1095.331	1	5108.472	-12.38119	6.90633E-008	0.00907	7
	25	9	3170.956	5034.188	-1288.234	1	5196.401	-14.3538	-7.624875E-007	0.0078639	7
	26	9	2527.573	5108.394	-1529.148	1	5332.352	-16.66456	4.056045E-007	0.0086048	7
	27	9	1976.103	5187.378	-1856.119	1	5509.453	-19.68795	8.729838E-007	0.0078271	7
	28	10	1577.524	5279.831	-2222.642	1	5728.59	-22.82956	6.397223E-007	0.0082714	7
	29	10	1265.625	5372.994	-2666.2	1	5998.14	-26.39163	5.196278E-007	0.0062859	7
	30	10	998.264	5497.19	-3249.421	1	6385.753	-30.58758	-1.297686E-006	0.0095809	7
	31	11	796.875	5641.436	-3935.804	1	6878.688	-34.90194	-1.159685E-006	0.009759	7
	32	11	627.7902	5833.791	-4835.326	1	7577.169	-39.65357	-6.606551E-007	0.0097311	7
	33	12	505.5147	6040.766	-5845.286	1	8405.845	-44.05779	8.749E-007	0.0078258	7
	34	12	397.9953	6328.672	-7195.785	1	9582.87	-48.66846	-3.325037E-010	0.0080726	7
	35	12	315.5048	6691.034	-8820.114	1	11070.88	-52.81565	1.815054E-010	0.008017	6
	36	12	252.4038	7132.71	-10729.59	1	12884.09	-56.38523	-3.701577E-011	0.0080026	6
	37	13	198.6229	7745.859	-13235.5	1	15335.48	-59.66241	4.607292E-010	0.008003	6
	38	13	158.3615	8512.414	-16144.1	1	18250.84	-62.19835	-5.521795E-010	0.0080112	6
	39	13	125.558	9549.03	-19744.04	1	21931.96	-64.18969	3.081369E-010	0.0080062	6
	40	14	100.4464	10840.37	-23916.71	1	26258.76	-65.61736	1.431743E-009	0.0080048	6
	41	14	79.00281	12692.28	-29308.66	1	31938.87	-66.58471	-4.385175E-010	0.0080085	6
	42	14	63.3446	15400.64	-35018.18	1	38255.1	-66.2606	2.785525E-010	0.0079977	6
	43	15	49.86702	18627.62	-42649.82	1	46540.26	-66.40635	2.954298E-010	0.007998	6
	44	15	39.72458	22494.52	-51108.67	1	55839.95	-66.24421	1.184527E-010	0.0080082	6
	45	15	31.6723	27922.04	-60589.38	1	66713.66	-65.25784	-8.631811E-011	0.0080058	6
	46	16	24.93351	34856.82	-72037.57	1	80027.55	-64.17905	1.051973E-009	0.0079998	6
	47	16	19.86229	43263.17	-84083.48	1	94560.74	-62.77298	8.774348E-010	0.0080115	6
	48	16	15.83615	53136.93	-96252	1	109945.3	-61.09864	1.301477E-009	0.0080021	5
	49	17	12.40079	65566.66	-111910.7	1	129703.4	-59.63465	-2.463354E-009	0.0080172	5
	50	17	9.93114	79421.79	-127995.1	1	150633.9	-58.18014	1.883442E-010	0.0080143	5
	51	18	7.944915	94276.97	-144872.9	1	172847.7	-56.94568	9.946318E-010	0.0080013	5
	52	18	6.317385	111064.7	-164209.2	1	198242.3	-55.92712	6.868837E-010	0.0079946	5
	53	19	5.008013	130269	-186333.8	1	227355	-55.04197	5.013676E-010	0.0080076	5
	54	20	3.945707	151806.3	-211521.3	1	260358.3	-54.33345	-6.847646E-011	0.0080047	5
	55	21	3.158693	173529.6	-238956.1	1	295317.7	-54.01291	-2.680702E-010	0.0079901	5
	56	23	2.504006	198978	-271719.8	1	336784.7	-53.78501	1.18796E-010	0.0079959	5
	57	24	1.998082	225293.6	-308992.3	1	382404.8	-53.90333	5.366833E-011	0.0080105	5
	58	26	1.584686	256990	-353115.2	1	436731.3	-53.95364	-1.862488E-010	0.0079633	5
	59	28	1.266892	290797.4	-404505.3	1	498184.3	-54.28777	-2.173312E-010	0.0079601	5
	60	30	0.999041	330315.8	-467800	1	572665.2	-54.7739	-2.174713E-010	0.0079767	5
