EXPLAIN
TAG	EISPOT
TITLE	LABEL	Potentiostatic EIS	Test &Identifier
DATE	LABEL	10/12/2019	Date
TIME	LABEL	8:56:43	Time
NOTES	NOTES	1	&Notes...
	
PSTAT	PSTAT	REF600-11020	Potentiostat
VDC	POTEN	0.00000E+000	T	DC &Voltage (V)
FREQINIT	QUANT	1.00000E+006	Initial Fre&q. (Hz)
FREQFINAL	QUANT	1.00000E+000	Final Fre&q. (Hz)
PTSPERDEC	QUANT	1.00000E+001	Points/&decade
VAC	QUANT	2.50000E+001	AC &Voltage (mV rms)
AREA	QUANT	1.00000E-002	&Area (cm^2)
CONDIT	TWOPARAM	T	5.00000E+000	0.00000E+000	Conditionin&g	Time(s)	E(V)
DELAY	TWOPARAM	T	5.00000E+000	0.00000E+000	Init. De&lay	Time(s)	Stab.(mV/s)
SPEED	SELECTOR	1	&Optimize for:
ZGUESS	QUANT	1.00000E+004	E&stimated Z (ohms)
OCVCURVE	TABLE	19
	Pt	T	Vf	Vm	Ach	Over
	#	s	V vs. Ref.	V	V	bits
	0	0.258333	7.91529E-003	7.91529E-003	5.34766E-004	...........
	1	0.516667	7.91804E-003	8.05948E-003	5.41933E-004	...........
	2	0.775	7.93511E-003	8.20435E-003	5.32566E-004	...........
	3	1.03333	7.98404E-003	8.34948E-003	5.35533E-004	...........
	4	1.29167	8.07324E-003	8.49577E-003	5.45699E-004	...........
	5	1.55	8.19501E-003	8.64145E-003	5.39033E-004	...........
	6	1.80833	8.33469E-003	8.78181E-003	5.35033E-004	...........
	7	2.06667	8.48042E-003	8.91981E-003	5.41599E-004	...........
	8	2.325	8.62578E-003	9.05879E-003	5.35666E-004	...........
	9	2.58333	8.76843E-003	9.18928E-003	5.40333E-004	...........
	10	2.84167	8.90793E-003	9.32006E-003	5.39433E-004	...........
	11	3.1	9.04436E-003	9.45125E-003	5.41466E-004	...........
	12	3.35833	9.17803E-003	9.57742E-003	5.34800E-004	...........
	13	3.61667	9.30936E-003	9.69847E-003	5.40033E-004	...........
	14	3.875	9.43847E-003	9.82884E-003	5.40066E-004	...........
	15	4.13333	9.56542E-003	9.94000E-003	5.33566E-004	...........
	16	4.39167	9.69004E-003	1.00531E-002	5.31966E-004	...........
	17	4.65	9.81153E-003	1.01672E-002	5.35933E-004	...........
	18	4.90833	9.92936E-003	1.02745E-002	5.31433E-004	...........
EOC	QUANT	0.0099294	Open Circuit (V)
PSTATMODEL	IQUANT	4	Pstat Model
PSTATSECTION	LABEL	REF600-11020	Pstat Section
PSTATSERIALNO	LABEL	11020	Pstat Serial Number
CTRLMODE	IQUANT	1	Control Mode
IESTAB	IQUANT	0	I/E Stability
CASPEED	IQUANT	1	Control Amp Speed
CONVENTION	IQUANT	1	Current Convention
ICHRANGE	IQUANT	2	Ich Range
ICHRANGEMODE	TOGGLE	F	Ich Auto Range
ICHOFFSETENABLE	TOGGLE	T	Ich Offset Enable
ICHOFFSET	QUANT	0	Ich Offset (V)
ICHFILTER	IQUANT	3	Ich Filter
VCHRANGE	IQUANT	2	Vch Range
VCHRANGEMODE	TOGGLE	F	Vch Auto Range
VCHOFFSETENABLE	TOGGLE	T	Vch Offset Enable
VCHOFFSET	QUANT	0	Vch Offset (V)
VCHFILTER	IQUANT	3	Vch Filter
ACHRANGE	IQUANT	2	Ach Range
ACHOFFSETENABLE	TOGGLE	F	Ach Offset Enable
ACHOFFSET	QUANT	0	Ach Offset (V)
ACHFILTER	IQUANT	3	Ach Filter
IERANGELOWERLIMIT	IQUANT	1	I/E Range Lower Limit
IERANGEMODE	TOGGLE	F	I/E AutoRange
IERANGE	IQUANT	6	I/E Range
POSFEEDENABLE	TOGGLE	F	Positive Feedback IR Comp
POSFEEDRESISTANCE	QUANT	0	Positive Feedback Resistance (ohm)
ACHSELECT	IQUANT	0	Ach Select
CABLEID	IQUANT	14	Cable ID
DCCALDATE	LABEL	8/19/2019	DC Calibration Date
ACCALDATE	LABEL	8/19/2019	AC Calibration Date
THERMOSELECT	IQUANT	1	Thermo Select
FRAMEWORKVERSION	QUANT	6.33	Framework Version
INSTRUMENTVERSION	LABEL	3.50	Instrument Version
ZCURVE	TABLE
	Pt	Time	Freq	Zreal	Zimag	Zsig	Zmod	Zphz	Idc	Vdc	IERange
	#	s	Hz	ohm	ohm	V	ohm	°	A	V	#
	0	1	1000078	2231.464	-1017.323	1	2452.423	-24.50821	-4.67021E-006	0.0126341	8
	1	2	794390.6	2406.485	-921.9727	1	2577.053	-20.96284	2.415776E-006	0.0116769	8
	2	4	630984.4	2541.618	-808.0416	1	2666.974	-17.63671	1.638598E-007	0.011847	8
	3	5	501234.4	2643.472	-696.9828	1	2733.812	-14.77057	-2.308332E-007	0.0116045	8
	4	6	398109.4	2709.956	-603.5989	1	2776.363	-12.55674	5.484825E-006	0.0104359	8
	5	8	316265.6	2779.807	-512.663	1	2826.685	-10.4493	-1.870033E-006	0.0119126	8
	6	9	251203.1	2825.208	-440.9328	1	2859.409	-8.870645	-8.162688E-007	0.0118352	8
	7	10	199546.9	2849.876	-388.9452	1	2876.295	-7.771595	3.981574E-006	0.0109334	8
	8	12	158578.1	2884.571	-335.9922	1	2904.073	-6.643821	2.137701E-006	0.0111491	8
	9	13	125953.1	2925.912	-278.0734	1	2939.096	-5.428981	9.336468E-008	0.0108969	7
	10	14	100078.1	2946.449	-252.8344	1	2957.277	-4.904529	-7.264507E-008	0.0116515	7
	11	16	79453.13	2967.57	-246.3521	1	2977.778	-4.745514	1.23852E-007	0.011367	7
	12	17	63140.62	2989.675	-244.7671	1	2999.678	-4.680413	-2.195375E-008	0.01153	7
	13	18	50203.12	3013.072	-247.2354	1	3023.198	-4.690855	1.416677E-008	0.0115112	7
	14	20	39890.62	3038.296	-254.4435	1	3048.931	-4.787093	1.496996E-008	0.0114772	7
	15	21	31640.63	3063.279	-266.9662	1	3074.89	-4.98077	-2.016604E-008	0.0115258	7
	16	22	25171.88	3089.14	-282.9756	1	3102.074	-5.233879	-1.485438E-008	0.0115497	7
	17	24	20015.62	3115.891	-298.0609	1	3130.114	-5.464191	-7.471723E-008	0.0116409	7
	18	25	15890.62	3144.994	-334.8191	1	3162.767	-6.076875	-1.08585E-008	0.0115715	7
	19	26	12609.37	3174.491	-372.086	1	3196.223	-6.685206	3.961088E-008	0.0114928	7
	20	28	10078.13	3203.93	-416.6492	1	3230.907	-7.409344	6.008708E-008	0.0114377	7
	21	29	8015.625	3231.177	-483.4491	1	3267.144	-8.509478	4.089073E-008	0.011495	7
	22	30	6328.125	3269.558	-550.0997	1	3315.512	-9.55051	1.071247E-009	0.0114826	7
	23	32	5015.625	3306.175	-640.7948	1	3367.701	-10.96893	4.881994E-008	0.0114026	7
	24	33	3984.375	3344.565	-743.4851	1	3426.206	-12.53286	7.758634E-008	0.0113815	7
	25	35	3170.956	3389.95	-890.2297	1	3504.892	-14.71412	-1.125547E-008	0.0115966	7
	26	36	2527.573	3438.526	-1056.712	1	3597.235	-17.08299	-1.437463E-008	0.0115333	7
	27	37	1976.103	3497.319	-1280.381	1	3724.328	-20.10786	1.652175E-008	0.0114621	7
	28	39	1577.524	3559.348	-1560.876	1	3886.552	-23.67883	1.531065E-008	0.0114636	7
	29	40	1265.625	3623.155	-1840.433	1	4063.797	-26.92894	6.179202E-008	0.0114282	7
	30	41	998.264	3705.008	-2246.78	1	4333.024	-31.23333	-1.56175E-008	0.0115284	7
	31	43	796.875	3793.078	-2723.654	1	4669.66	-35.68058	-6.487369E-008	0.0116579	7
	32	44	627.7902	3905.831	-3348.883	1	5144.952	-40.60999	9.871752E-008	0.0114456	7
	33	45	505.5147	4030.698	-4050.122	1	5714.019	-45.13772	-1.311351E-008	0.0115808	7
	34	47	397.9953	4194.069	-5006.66	1	6531.222	-50.04716	6.97438E-009	0.0115395	7
	35	48	315.5048	4394.403	-6158.405	1	7565.497	-54.48979	7.808207E-009	0.0115423	7
	36	49	252.4038	4637.877	-7520.107	1	8835.266	-58.33661	7.686537E-009	0.0115461	7
	37	51	198.6229	4974.179	-9322.705	1	10566.71	-61.91761	7.599316E-010	0.0114848	6
	38	52	158.3615	5385.179	-11424.24	1	12629.86	-64.76167	5.017253E-010	0.0114815	6
	39	53	125.558	5923.764	-14062.43	1	15259.19	-67.15687	1.364018E-009	0.0114856	6
	40	55	100.4464	6610.479	-17175.59	1	18403.79	-68.94946	1.355649E-009	0.0114791	6
	41	56	79.00281	7563.611	-21193.16	1	22502.41	-70.35906	8.426618E-010	0.0114777	6
	42	58	63.3446	8522.476	-25708.94	1	27084.72	-71.65971	7.411116E-010	0.0114812	6
	43	59	49.86702	10504.42	-31712.34	1	33406.82	-71.67303	9.896537E-010	0.0114719	6
	44	60	39.72458	12431.42	-38673.52	1	40622.42	-72.18024	1.532225E-010	0.0114762	6
	45	62	31.6723	15186.84	-46840.66	1	49241.12	-72.03609	1.378824E-009	0.0114758	6
	46	63	24.93351	18697.08	-57197.61	1	60175.97	-71.89817	7.451731E-010	0.0114771	6
	47	64	19.86229	23157.58	-68884.13	1	72672.53	-71.4183	1.51451E-009	0.0114877	6
	48	66	15.83615	28698.6	-83023.73	1	87843.89	-70.9314	2.202876E-009	0.0114759	6
	49	67	12.40079	37464.58	-99787.2	1	106588.4	-69.42162	2.451363E-009	0.0114744	5
	50	69	9.93114	45683.86	-118687.8	1	127176.3	-68.94789	5.113539E-010	0.0114854	5
	51	70	7.944915	56427.07	-139507.7	1	150487.2	-67.978	1.022826E-009	0.0114801	5
	52	72	6.317385	70483.76	-165244.2	1	179648.5	-66.89967	3.977828E-010	0.0114953	5
	53	74	5.008013	87539.77	-194866.3	1	213626	-65.80896	2.366063E-010	0.0114783	5
	54	76	3.945707	109133.3	-229972.5	1	254553.4	-64.61334	2.959424E-010	0.0114812	5
	55	79	3.158693	133706.3	-267090.2	1	298688	-63.4073	-1.306689E-010	0.0114866	5
	56	82	2.504006	163715.3	-310555.9	1	351066.5	-62.20321	3.351188E-010	0.0114794	5
	57	85	1.998082	198018.2	-357676.7	1	408832.3	-61.03006	-1.441008E-010	0.0115234	5
	58	88	1.584686	237783.1	-410979.1	1	474810.1	-59.94732	1.238732E-010	0.0114743	5
	59	92	1.266892	283215.4	-469887.2	1	548639.1	-58.92134	1.301609E-011	0.0115164	5
	60	96	0.999041	336396.2	-539656.3	1	635917.8	-58.06254	-1.675645E-010	0.011435	5
