EXPLAIN
TAG	EISPOT
TITLE	LABEL	Potentiostatic IDE	Test &Identifier
DATE	LABEL	9/16/2019	Date
TIME	LABEL	8:53:58	Time
NOTES	NOTES	1	&Notes...
	
PSTAT	PSTAT	REF600-11020	Potentiostat
VDC	POTEN	0.00000E+000	T	DC &Voltage (V)
FREQINIT	QUANT	1.00000E+006	Initial Fre&q. (Hz)
FREQFINAL	QUANT	1.00000E+000	Final Fre&q. (Hz)
PTSPERDEC	QUANT	1.00000E+001	Points/&decade
VAC	QUANT	2.50000E+001	AC &Voltage (mV rms)
AREA	QUANT	1.00000E-002	&Area (cm^2)
CONDIT	TWOPARAM	T	5.00000E+000	0.00000E+000	Conditionin&g	Time(s)	E(V)
DELAY	TWOPARAM	T	5.00000E+000	0.00000E+000	Init. De&lay	Time(s)	Stab.(mV/s)
SPEED	SELECTOR	1	&Optimize for:
ZGUESS	QUANT	1.00000E+007	E&stimated Z (ohms)
OCVCURVE	TABLE	19
	Pt	T	Vf	Vm	Ach	Over
	#	s	V vs. Ref.	V	V	bits
	0	0.258333	-2.00170E-003	-2.00170E-003	5.63366E-004	...........
	1	0.516667	-2.00918E-003	-2.39331E-003	5.66432E-004	...........
	2	0.775	-2.06721E-003	-3.39778E-003	5.70132E-004	...........
	3	1.03333	-2.36406E-003	-9.20178E-003	5.67966E-004	...........
	4	1.29167	-3.40738E-003	-1.63897E-002	5.69199E-004	...........
	5	1.55	-5.80713E-003	-1.85151E-002	5.69499E-004	...........
	6	1.80833	-9.43235E-003	-1.56286E-002	5.66899E-004	...........
	7	2.06667	-1.29818E-002	-1.21182E-002	5.69966E-004	...........
	8	2.325	-1.49841E-002	-1.39800E-002	5.68066E-004	...........
	9	2.58333	-1.51777E-002	-1.26902E-002	5.64232E-004	...........
	10	2.84167	-1.44301E-002	-1.21026E-002	5.66966E-004	...........
	11	3.1	-1.35687E-002	-1.19465E-002	5.65832E-004	...........
	12	3.35833	-1.28765E-002	-1.18796E-002	5.67499E-004	...........
	13	3.61667	-1.23871E-002	-1.20142E-002	5.68732E-004	...........
	14	3.875	-1.21001E-002	-1.20766E-002	5.63766E-004	...........
	15	4.13333	-1.19886E-002	-1.22173E-002	5.65699E-004	...........
	16	4.39167	-1.20000E-002	-1.22856E-002	5.69732E-004	...........
	17	4.65	-1.20782E-002	-1.24584E-002	5.68266E-004	...........
	18	4.90833	-1.21862E-002	-1.25930E-002	5.68799E-004	...........
EOC	QUANT	-0.0121862	Open Circuit (V)
PSTATMODEL	IQUANT	4	Pstat Model
PSTATSECTION	LABEL	REF600-11020	Pstat Section
PSTATSERIALNO	LABEL	11020	Pstat Serial Number
CTRLMODE	IQUANT	1	Control Mode
IESTAB	IQUANT	0	I/E Stability
CASPEED	IQUANT	1	Control Amp Speed
CONVENTION	IQUANT	1	Current Convention
ICHRANGE	IQUANT	2	Ich Range
ICHRANGEMODE	TOGGLE	F	Ich Auto Range
ICHOFFSETENABLE	TOGGLE	T	Ich Offset Enable
ICHOFFSET	QUANT	0	Ich Offset (V)
ICHFILTER	IQUANT	3	Ich Filter
VCHRANGE	IQUANT	2	Vch Range
VCHRANGEMODE	TOGGLE	F	Vch Auto Range
VCHOFFSETENABLE	TOGGLE	T	Vch Offset Enable
VCHOFFSET	QUANT	0	Vch Offset (V)
VCHFILTER	IQUANT	3	Vch Filter
ACHRANGE	IQUANT	2	Ach Range
ACHOFFSETENABLE	TOGGLE	F	Ach Offset Enable
ACHOFFSET	QUANT	0	Ach Offset (V)
ACHFILTER	IQUANT	3	Ach Filter
IERANGELOWERLIMIT	IQUANT	1	I/E Range Lower Limit
IERANGEMODE	TOGGLE	F	I/E AutoRange
IERANGE	IQUANT	3	I/E Range
POSFEEDENABLE	TOGGLE	F	Positive Feedback IR Comp
POSFEEDRESISTANCE	QUANT	0	Positive Feedback Resistance (ohm)
ACHSELECT	IQUANT	0	Ach Select
CABLEID	IQUANT	14	Cable ID
DCCALDATE	LABEL	8/19/2019	DC Calibration Date
ACCALDATE	LABEL	8/19/2019	AC Calibration Date
THERMOSELECT	IQUANT	1	Thermo Select
FRAMEWORKVERSION	QUANT	6.33	Framework Version
INSTRUMENTVERSION	LABEL	3.50	Instrument Version
ZCURVE	TABLE
	Pt	Time	Freq	Zreal	Zimag	Zsig	Zmod	Zphz	Idc	Vdc	IERange
	#	s	Hz	ohm	ohm	V	ohm	°	A	V	#
	0	2	1000078	2405.528	-1721.646	1	2958.146	-35.59145	6.44752E-007	-0.0096897	8
	1	4	794390.6	2745.367	-1635.04	1	3195.371	-30.77648	3.965304E-007	-0.0106014	8
	2	5	630984.4	3055.028	-1524.976	1	3414.49	-26.52696	9.970868E-007	-0.0107159	8
	3	7	501234.4	3317.554	-1386.38	1	3595.583	-22.67967	-1.405447E-007	-0.0107148	8
	4	8	398109.4	3526.178	-1244.448	1	3739.329	-19.43881	1.261299E-006	-0.0109781	8
	5	10	316265.6	3685.082	-1058.042	1	3833.964	-16.01957	-2.541077E-006	-0.0103272	8
	6	11	251203.1	3822.18	-903.5291	1	3927.522	-13.30006	-8.254692E-007	-0.0103695	8
	7	12	199546.9	3895.122	-786.3058	1	3973.695	-11.41288	-3.48008E-006	-0.0099138	8
	8	14	158578.1	3965.761	-685.3101	1	4024.539	-9.80427	9.254904E-007	-0.010814	8
	9	15	125953.1	4046.09	-553.7056	1	4083.802	-7.792497	4.837681E-007	-0.0119319	7
	10	17	100078.1	4083.958	-492.2569	1	4113.519	-6.872948	1.315703E-007	-0.0108857	7
	11	18	79453.13	4120.791	-451.8918	1	4145.494	-6.258131	1.322016E-007	-0.0108899	7
	12	19	63140.62	4154.833	-425.8417	1	4176.599	-5.851989	1.330611E-007	-0.0108953	7
	13	21	50203.12	4187.392	-411.8873	1	4207.6	-5.617754	-1.757975E-008	-0.0107217	7
	14	22	39890.62	4223.263	-405.5768	1	4242.692	-5.48552	-1.267127E-008	-0.0106488	7
	15	23	31640.63	4252.565	-411.3863	1	4272.417	-5.525508	3.658386E-008	-0.0107337	7
	16	25	25171.88	4286.76	-427.2238	1	4307.997	-5.691374	7.567827E-008	-0.010736	7
	17	26	20015.62	4323.317	-455.7859	1	4347.276	-6.01818	8.567807E-008	-0.0108762	7
	18	27	15890.62	4367.167	-494.4408	1	4395.067	-6.459394	4.46428E-008	-0.0108458	7
	19	29	12609.37	4405.264	-544.5483	1	4438.793	-7.046762	-6.61266E-009	-0.010682	7
	20	30	10078.13	4447.571	-607.1505	1	4488.821	-7.773558	4.547415E-008	-0.0108464	7
	21	31	8015.625	4495.591	-686.4388	1	4547.696	-8.681526	-6.843044E-008	-0.0105946	7
	22	33	6328.125	4549.798	-787.6595	1	4617.475	-9.82168	-3.568378E-008	-0.0106652	7
	23	34	5015.625	4609.009	-911.9021	1	4698.354	-11.19155	-6.897424E-008	-0.0105974	7
	24	35	3984.375	4670.084	-1062.24	1	4789.367	-12.81427	-6.780535E-008	-0.010594	7
	25	37	3170.956	4739.566	-1244.757	1	4900.297	-14.71532	-1.374799E-008	-0.0106593	7
	26	38	2527.573	4817.155	-1465.721	1	5035.208	-16.92349	-1.701559E-008	-0.0107338	7
	27	39	1976.103	4909.444	-1763.254	1	5216.484	-19.75603	7.751132E-008	-0.0107329	7
	28	41	1577.524	5010.497	-2093.963	1	5430.447	-22.68079	-1.168365E-008	-0.0106583	7
	29	42	1265.625	5125.733	-2492.327	1	5699.547	-25.93079	-3.580411E-008	-0.0106671	7
	30	43	998.264	5266.415	-3009.032	1	6065.426	-29.74203	-1.207553E-009	-0.0107526	7
	31	45	796.875	5421.693	-3613.406	1	6515.478	-33.68234	-5.049628E-009	-0.0106884	7
	32	46	627.7902	5617.618	-4386.673	1	7127.449	-37.98549	-3.338758E-009	-0.0107625	7
	33	47	505.5147	5818.715	-5245.898	1	7834.34	-42.03643	1.336102E-007	-0.0109069	7
	34	49	397.9953	6085.496	-6402.963	1	8833.526	-46.4562	5.774254E-009	-0.0106823	7
	35	50	315.5048	6385.711	-7784.094	1	10068.24	-50.63613	6.679589E-010	-0.0107454	6
	36	51	252.4038	6718.679	-9412.399	1	11564.34	-54.48032	1.743265E-009	-0.0107538	6
	37	53	198.6229	7142.927	-11567.2	1	13594.91	-58.30402	1.507933E-009	-0.0107488	6
	38	54	158.3615	7621.798	-14085.51	1	16015.41	-61.58178	1.705472E-009	-0.0107486	6
	39	55	125.558	8224.494	-17259.92	1	19119.29	-64.52181	1.381371E-009	-0.0107471	6
	40	57	100.4464	8958.442	-21027.95	1	22856.7	-66.92477	1.442031E-009	-0.0107536	6
	41	58	79.00281	9951.51	-26048.9	1	27885.08	-69.09154	8.741501E-010	-0.0107483	6
	42	59	63.3446	10841.69	-31535.77	1	33347.37	-71.02753	1.426823E-009	-0.0107451	6
	43	61	49.86702	12785.02	-38988.85	1	41031.54	-71.84492	1.435416E-009	-0.0107431	6
	44	62	39.72458	14692.61	-47952.16	1	50152.59	-72.96487	1.59989E-009	-0.0107399	6
	45	63	31.6723	17552.42	-58441.3	1	61020.27	-73.28274	1.896749E-009	-0.0107409	6
	46	65	24.93351	21147.95	-72097.9	1	75135.5	-73.65239	7.408395E-010	-0.0107438	6
	47	66	19.86229	25978.74	-87768.92	1	91532.94	-73.51176	1.176534E-009	-0.0107515	6
	48	67	15.83615	32643.97	-105698.6	1	110624.7	-72.83721	-5.056214E-010	-0.0107422	5
	49	69	12.40079	39729.63	-130243.9	1	136168.7	-73.03619	1.059594E-010	-0.0107409	5
	50	70	9.93114	51097.99	-156144.2	1	164292.5	-71.87938	1.256196E-009	-0.0107463	5
	51	72	7.944915	64690.46	-187466.6	1	198314.4	-70.96161	7.278975E-010	-0.0107434	5
	52	73	6.317385	81608.26	-223681.9	1	238104	-69.95597	8.415211E-010	-0.0107467	5
	53	75	5.008013	104102.4	-267470.4	1	287015.2	-68.73346	5.602634E-010	-0.0107441	5
	54	78	3.945707	131456.2	-316560.5	1	342770	-67.44864	1.060153E-009	-0.0107469	5
	55	81	3.158693	167384.6	-372523.8	1	408401.3	-65.80438	-2.442585E-010	-0.0107674	5
	56	84	2.504006	210293.7	-436410.1	1	484434.9	-64.2719	9.018978E-010	-0.0107536	5
	57	87	1.998082	264362.9	-505080.6	1	570082.6	-62.37211	3.680445E-010	-0.0107086	5
	58	90	1.584686	322515.7	-581296.5	1	664772.1	-60.97755	5.926907E-010	-0.0107153	5
	59	93	1.266892	394950	-661546.9	1	770473.8	-59.16238	1.38015E-010	-0.0107101	5
	60	98	0.999041	478108.3	-752103.3	1	891205.3	-57.55608	4.820653E-010	-0.010756	5
