EXPLAIN
TAG	EISPOT
TITLE	LABEL	Potentiostatic EIS	Test &Identifier
DATE	LABEL	9/22/2019	Date
TIME	LABEL	9:07:01	Time
NOTES	NOTES	1	&Notes...
	
PSTAT	PSTAT	REF600-11020	Potentiostat
VDC	POTEN	0.00000E+000	T	DC &Voltage (V)
FREQINIT	QUANT	1.00000E+006	Initial Fre&q. (Hz)
FREQFINAL	QUANT	1.00000E+000	Final Fre&q. (Hz)
PTSPERDEC	QUANT	1.00000E+001	Points/&decade
VAC	QUANT	2.50000E+001	AC &Voltage (mV rms)
AREA	QUANT	1.00000E-002	&Area (cm^2)
CONDIT	TWOPARAM	T	5.00000E+000	0.00000E+000	Conditionin&g	Time(s)	E(V)
DELAY	TWOPARAM	T	5.00000E+000	0.00000E+000	Init. De&lay	Time(s)	Stab.(mV/s)
SPEED	SELECTOR	1	&Optimize for:
ZGUESS	QUANT	1.00000E+004	E&stimated Z (ohms)
OCVCURVE	TABLE	19
	Pt	T	Vf	Vm	Ach	Over
	#	s	V vs. Ref.	V	V	bits
	0	0.258333	1.69963E-002	1.69963E-002	4.88900E-004	...........
	1	0.516667	1.70094E-002	1.76801E-002	4.97067E-004	...........
	2	0.775	1.70897E-002	1.83332E-002	4.84667E-004	...........
	3	1.03333	1.73146E-002	1.88233E-002	4.92967E-004	...........
	4	1.29167	1.77095E-002	1.94670E-002	5.00433E-004	...........
	5	1.55	1.82253E-002	1.99672E-002	4.94633E-004	...........
	6	1.80833	1.87921E-002	2.04786E-002	4.98333E-004	...........
	7	2.06667	1.93599E-002	2.09437E-002	4.92567E-004	...........
	8	2.325	1.99027E-002	2.13924E-002	4.91133E-004	...........
	9	2.58333	2.04125E-002	2.18256E-002	4.96200E-004	...........
	10	2.84167	2.08916E-002	2.22311E-002	4.91267E-004	...........
	11	3.1	2.13448E-002	2.26205E-002	4.94467E-004	...........
	12	3.35833	2.17756E-002	2.29907E-002	4.91833E-004	...........
	13	3.61667	2.21859E-002	2.33499E-002	4.91234E-004	...........
	14	3.875	2.25774E-002	2.36900E-002	4.86767E-004	...........
	15	4.13333	2.29518E-002	2.40207E-002	4.99367E-004	...........
	16	4.39167	2.33104E-002	2.43350E-002	4.91634E-004	...........
	17	4.65	2.36544E-002	2.46358E-002	4.97467E-004	...........
	18	4.90833	2.39841E-002	2.49199E-002	4.89667E-004	...........
EOC	QUANT	0.0239841	Open Circuit (V)
PSTATMODEL	IQUANT	4	Pstat Model
PSTATSECTION	LABEL	REF600-11020	Pstat Section
PSTATSERIALNO	LABEL	11020	Pstat Serial Number
CTRLMODE	IQUANT	1	Control Mode
IESTAB	IQUANT	0	I/E Stability
CASPEED	IQUANT	1	Control Amp Speed
CONVENTION	IQUANT	1	Current Convention
ICHRANGE	IQUANT	2	Ich Range
ICHRANGEMODE	TOGGLE	F	Ich Auto Range
ICHOFFSETENABLE	TOGGLE	T	Ich Offset Enable
ICHOFFSET	QUANT	0	Ich Offset (V)
ICHFILTER	IQUANT	3	Ich Filter
VCHRANGE	IQUANT	2	Vch Range
VCHRANGEMODE	TOGGLE	F	Vch Auto Range
VCHOFFSETENABLE	TOGGLE	T	Vch Offset Enable
VCHOFFSET	QUANT	0	Vch Offset (V)
VCHFILTER	IQUANT	3	Vch Filter
ACHRANGE	IQUANT	2	Ach Range
ACHOFFSETENABLE	TOGGLE	F	Ach Offset Enable
ACHOFFSET	QUANT	0	Ach Offset (V)
ACHFILTER	IQUANT	3	Ach Filter
IERANGELOWERLIMIT	IQUANT	1	I/E Range Lower Limit
IERANGEMODE	TOGGLE	F	I/E AutoRange
IERANGE	IQUANT	6	I/E Range
POSFEEDENABLE	TOGGLE	F	Positive Feedback IR Comp
POSFEEDRESISTANCE	QUANT	0	Positive Feedback Resistance (ohm)
ACHSELECT	IQUANT	0	Ach Select
CABLEID	IQUANT	14	Cable ID
DCCALDATE	LABEL	8/19/2019	DC Calibration Date
ACCALDATE	LABEL	8/19/2019	AC Calibration Date
THERMOSELECT	IQUANT	1	Thermo Select
FRAMEWORKVERSION	QUANT	6.33	Framework Version
INSTRUMENTVERSION	LABEL	3.50	Instrument Version
ZCURVE	TABLE
	Pt	Time	Freq	Zreal	Zimag	Zsig	Zmod	Zphz	Idc	Vdc	IERange
	#	s	Hz	ohm	ohm	V	ohm	°	A	V	#
	0	1	1000078	2000.307	-1144.212	1	2304.441	-29.77035	1.915087E-006	0.0259561	8
	1	2	794390.6	2221.157	-1075.122	1	2467.676	-25.82869	-4.762555E-007	0.0259539	8
	2	4	630984.4	2402.658	-970.44	1	2591.24	-21.99392	-1.652607E-006	0.0261416	8
	3	5	501234.4	2552.093	-858.6655	1	2692.673	-18.59579	7.717834E-007	0.0253929	8
	4	6	398109.4	2666.036	-749.166	1	2769.296	-15.69556	-3.5026E-006	0.0263375	8
	5	8	316265.6	2749.744	-650.7935	1	2825.708	-13.31542	2.954915E-006	0.0250031	8
	6	9	251203.1	2826.417	-559.9727	1	2881.354	-11.20638	-9.386978E-007	0.0259314	8
	7	11	199546.9	2878.452	-501.528	1	2921.817	-9.88373	-2.185523E-006	0.0259069	8
	8	12	158578.1	2908.728	-440.9399	1	2941.959	-8.619953	4.48074E-007	0.0257089	8
	9	13	125953.1	2964.106	-357.5836	1	2985.598	-6.878801	-5.606657E-007	0.0261367	7
	10	15	100078.1	2993.36	-324.4688	1	3010.895	-6.18649	-2.219911E-008	0.0256116	7
	11	16	79453.13	3020.676	-309.1292	1	3036.452	-5.843181	-4.861366E-008	0.0256077	7
	12	17	63140.62	3047.67	-302.7683	1	3062.673	-5.673388	-4.683057E-008	0.0255836	7
	13	19	50203.12	3075.491	-301.7399	1	3090.258	-5.603421	6.499402E-008	0.0254252	7
	14	20	39890.62	3106.502	-306.8903	1	3121.624	-5.641925	-3.082216E-008	0.0255451	7
	15	21	31640.63	3135.868	-318.9244	1	3152.044	-5.807136	2.903598E-008	0.0255046	7
	16	23	25171.88	3168.096	-337.0799	1	3185.978	-6.073322	-3.853261E-008	0.0255531	7
	17	24	20015.62	3202.932	-362.2387	1	3223.351	-6.452503	2.969076E-008	0.0255043	7
	18	26	15890.62	3240.805	-394.7499	1	3264.758	-6.944767	-3.959059E-008	0.0256144	7
	19	27	12609.37	3283.061	-433.4691	1	3311.553	-7.521373	7.082289E-008	0.0255108	7
	20	28	10078.13	3327.152	-479.9009	1	3361.583	-8.207609	-3.092686E-008	0.0255477	7
	21	30	8015.625	3375.957	-535.8552	1	3418.22	-9.01914	-1.916121E-008	0.0255953	7
	22	31	6328.125	3430.738	-604.5096	1	3483.589	-9.99317	-3.104252E-008	0.0255504	7
	23	32	5015.625	3488.531	-685.1744	1	3555.181	-11.11189	-1.942842E-008	0.0255883	7
	24	34	3984.375	3551.036	-781.4183	1	3635.996	-12.41035	-1.977067E-008	0.0255912	7
	25	35	3170.956	3617.925	-894.4336	1	3726.848	-13.88638	7.02166E-008	0.0254974	7
	26	36	2527.573	3688.989	-1030.449	1	3830.205	-15.6067	-8.07221E-009	0.0255588	7
	27	38	1976.103	3773.475	-1207.277	1	3961.897	-17.74144	4.013748E-008	0.0254068	7
	28	39	1577.524	3856.651	-1407.368	1	4105.417	-20.04802	-3.804191E-008	0.0256174	7
	29	41	1265.625	3942.778	-1641.255	1	4270.74	-22.60044	3.090969E-008	0.0255013	7
	30	42	998.264	4043.813	-1951.142	1	4489.919	-25.75733	-4.473951E-008	0.0256848	7
	31	43	796.875	4147.576	-2310.731	1	4747.828	-29.12341	-4.399428E-008	0.0255944	7
	32	45	627.7902	4263.743	-2784.661	1	5092.528	-33.14865	7.340157E-008	0.0253832	7
	33	46	505.5147	4380.998	-3319.633	1	5496.645	-37.15247	-6.400325E-008	0.0256453	7
	34	47	397.9953	4528.497	-4047.552	1	6073.71	-41.79021	3.024188E-009	0.025561	7
	35	49	315.5048	4693.898	-4931.021	1	6807.911	-46.41127	3.011929E-009	0.0255599	7
	36	50	252.4038	4884.637	-5982.632	1	7723.442	-50.76941	2.745637E-009	0.025555	7
	37	51	198.6229	5134.606	-7382.94	1	8992.885	-55.18258	3.07594E-009	0.0255569	7
	38	53	158.3615	5432.211	-9023.041	1	10532.06	-58.95047	-3.803406E-010	0.0254946	6
	39	54	125.558	5814.472	-11095.92	1	12527.08	-62.34462	-3.607148E-010	0.025497	6
	40	56	100.4464	6284.106	-13536.18	1	14923.75	-65.09715	1.613153E-010	0.0254952	6
	41	57	79.00281	6924.812	-16795.39	1	18166.95	-67.59343	1.214848E-010	0.0254935	6
	42	58	63.3446	7679.955	-20515.38	1	21905.77	-69.47656	-8.09061E-010	0.025489	6
	43	60	49.86702	8804.177	-25186.21	1	26680.68	-70.73225	-1.146932E-009	0.02549	6
	44	61	39.72458	10159.33	-30859.37	1	32488.65	-71.77773	-3.917689E-010	0.025494	6
	45	63	31.6723	11925.87	-37679.95	1	39522.2	-72.43719	-2.510685E-010	0.025493	6
	46	64	24.93351	14362.54	-46333.84	1	48508.84	-72.77763	-7.618348E-011	0.0254916	6
	47	65	19.86229	17392.49	-56281.24	1	58907.36	-72.82738	-5.245955E-010	0.0254889	6
	48	67	15.83615	21315.07	-67853.71	1	71122.84	-72.56078	-9.223054E-010	0.0254921	6
	49	68	12.40079	26675.51	-83698.27	1	87846.36	-72.32237	-1.118852E-010	0.025504	6
	50	70	9.93114	33157.99	-100210.5	1	105553.8	-71.69147	-7.468287E-010	0.02551	5
	51	71	7.944915	41419.55	-119921.9	1	126873.3	-70.94571	-6.656307E-010	0.025511	5
	52	73	6.317385	52293.41	-143444.4	1	152679.1	-69.97041	-9.248451E-010	0.0254974	5
	53	75	5.008013	66249.63	-171475.5	1	183828.3	-68.87594	-9.246538E-010	0.0254997	5
	54	77	3.945707	84187.39	-204705.5	1	221341	-67.64455	-7.594681E-010	0.0254997	5
	55	80	3.158693	105108.1	-240217.8	1	262206.6	-66.36806	-7.317688E-010	0.0254927	5
	56	83	2.504006	131745.9	-282440.3	1	311656.1	-64.99303	-8.952536E-010	0.0255	5
	57	86	1.998082	163046	-327967.3	1	366260.2	-63.56615	-4.865072E-010	0.0254563	5
	58	89	1.584686	201253.4	-381885.2	1	431670.3	-62.21078	-8.782995E-010	0.0254684	5
	59	93	1.266892	246457.2	-438422.1	1	502946.4	-60.65766	-6.537149E-010	0.0254515	5
	60	97	0.999041	301995.3	-504586.8	1	588055.3	-59.09947	-8.20308E-010	0.0255337	5
