EXPLAIN
TAG	EISPOT
TITLE	LABEL	Potentiostatic EIS	Test &Identifier
DATE	LABEL	11/22/2019	Date
TIME	LABEL	10:01:49	Time
NOTES	NOTES	4	&Notes...
	
	
	
	
PSTAT	PSTAT	REF600-11020	Potentiostat
VDC	POTEN	0.00000E+000	T	DC &Voltage (V)
FREQINIT	QUANT	1.00000E+006	Initial Fre&q. (Hz)
FREQFINAL	QUANT	1.00000E+000	Final Fre&q. (Hz)
PTSPERDEC	QUANT	1.00000E+001	Points/&decade
VAC	QUANT	2.50000E+001	AC &Voltage (mV rms)
AREA	QUANT	1.00000E-002	&Area (cm^2)
CONDIT	TWOPARAM	T	5.00000E+000	0.00000E+000	Conditionin&g	Time(s)	E(V)
DELAY	TWOPARAM	T	5.00000E+000	0.00000E+000	Init. De&lay	Time(s)	Stab.(mV/s)
SPEED	SELECTOR	0	&Optimize for:
ZGUESS	QUANT	1.00000E+005	E&stimated Z (ohms)
OCVCURVE	TABLE	19
	Pt	T	Vf	Vm	Ach	Over
	#	s	V vs. Ref.	V	V	bits
	0	0.258333	4.64866E-003	4.64866E-003	6.22198E-004	...........
	1	0.516667	4.64661E-003	4.54148E-003	6.20131E-004	...........
	2	0.775	4.63442E-003	4.46022E-003	6.12465E-004	...........
	3	1.03333	4.60078E-003	4.35785E-003	6.16598E-004	...........
	4	1.29167	4.54139E-003	4.27710E-003	6.16565E-004	...........
	5	1.55	4.46328E-003	4.22478E-003	6.16932E-004	...........
	6	1.80833	4.37999E-003	4.19247E-003	6.13265E-004	...........
	7	2.06667	4.30505E-003	4.17723E-003	6.14598E-004	...........
	8	2.325	4.24682E-003	4.16026E-003	6.10565E-004	...........
	9	2.58333	4.20594E-003	4.11528E-003	6.06932E-004	...........
	10	2.84167	4.17532E-003	4.04749E-003	6.13598E-004	...........
	11	3.1	4.14663E-003	4.13696E-003	6.14998E-004	...........
	12	3.35833	4.12114E-003	4.10396E-003	6.04965E-004	...........
	13	3.61667	4.10519E-003	4.02721E-003	6.06532E-004	...........
	14	3.875	4.09461E-003	4.04303E-003	6.09132E-004	...........
	15	4.13333	4.08057E-003	4.06661E-003	6.09232E-004	...........
	16	4.39167	4.06499E-003	4.03451E-003	6.15565E-004	...........
	17	4.65	4.05462E-003	4.06435E-003	6.13232E-004	...........
	18	4.90833	4.05064E-003	4.05177E-003	6.15698E-004	...........
EOC	QUANT	0.0040506	Open Circuit (V)
PSTATMODEL	IQUANT	4	Pstat Model
PSTATSECTION	LABEL	REF600-11020	Pstat Section
PSTATSERIALNO	LABEL	11020	Pstat Serial Number
CTRLMODE	IQUANT	1	Control Mode
IESTAB	IQUANT	0	I/E Stability
CASPEED	IQUANT	1	Control Amp Speed
CONVENTION	IQUANT	1	Current Convention
ICHRANGE	IQUANT	2	Ich Range
ICHRANGEMODE	TOGGLE	F	Ich Auto Range
ICHOFFSETENABLE	TOGGLE	T	Ich Offset Enable
ICHOFFSET	QUANT	0	Ich Offset (V)
ICHFILTER	IQUANT	3	Ich Filter
VCHRANGE	IQUANT	2	Vch Range
VCHRANGEMODE	TOGGLE	F	Vch Auto Range
VCHOFFSETENABLE	TOGGLE	T	Vch Offset Enable
VCHOFFSET	QUANT	0	Vch Offset (V)
VCHFILTER	IQUANT	3	Vch Filter
ACHRANGE	IQUANT	2	Ach Range
ACHOFFSETENABLE	TOGGLE	F	Ach Offset Enable
ACHOFFSET	QUANT	0	Ach Offset (V)
ACHFILTER	IQUANT	3	Ach Filter
IERANGELOWERLIMIT	IQUANT	1	I/E Range Lower Limit
IERANGEMODE	TOGGLE	F	I/E AutoRange
IERANGE	IQUANT	4	I/E Range
POSFEEDENABLE	TOGGLE	F	Positive Feedback IR Comp
POSFEEDRESISTANCE	QUANT	0	Positive Feedback Resistance (ohm)
ACHSELECT	IQUANT	0	Ach Select
CABLEID	IQUANT	14	Cable ID
DCCALDATE	LABEL	8/19/2019	DC Calibration Date
ACCALDATE	LABEL	8/19/2019	AC Calibration Date
THERMOSELECT	IQUANT	1	Thermo Select
FRAMEWORKVERSION	QUANT	6.33	Framework Version
INSTRUMENTVERSION	LABEL	3.50	Instrument Version
ZCURVE	TABLE
	Pt	Time	Freq	Zreal	Zimag	Zsig	Zmod	Zphz	Idc	Vdc	IERange
	#	s	Hz	ohm	ohm	V	ohm	°	A	V	#
	0	1	1000078	2307.856	-1739.924	1	2890.248	-37.01313	-1.840147E-006	0.0057261	8
	1	2	794390.6	2660.789	-1671.495	1	3142.244	-32.13685	8.559026E-006	0.0043792	8
	2	2	630984.4	2974.56	-1561.077	1	3359.31	-27.69091	-4.365849E-006	0.0058839	8
	3	2	501234.4	3262.262	-1414.57	1	3555.75	-23.44235	3.078925E-006	0.0050656	8
	4	3	398109.4	3476.276	-1293.708	1	3709.202	-20.41291	-6.634421E-006	0.0064972	8
	5	3	316265.6	3635.948	-1122.802	1	3805.365	-17.16098	-4.348084E-006	0.0059295	8
	6	3	251203.1	3790.405	-976.265	1	3914.11	-14.44331	-2.490101E-007	0.006014	8
	7	4	199546.9	3891.762	-855.3705	1	3984.654	-12.39594	3.928626E-006	0.0054889	8
	8	4	158578.1	3994.464	-715.8395	1	4058.099	-10.16001	3.83308E-006	0.0054927	8
	9	4	125953.1	4075.247	-584.1129	1	4116.895	-8.156758	3.815215E-006	0.0008771	7
	10	5	100078.1	4127.703	-515.8302	1	4159.81	-7.123203	-3.09804E-007	0.0069082	7
	11	5	79453.13	4159.387	-475.4368	1	4186.471	-6.520867	-1.251206E-006	0.0066087	7
	12	5	63140.62	4200.037	-444.5056	1	4223.493	-6.041338	1.038799E-006	0.004776	7
	13	5	50203.12	4235.275	-419.9502	1	4256.044	-5.662673	-1.072953E-006	0.0060177	7
	14	6	39890.62	4270.266	-408.0275	1	4289.715	-5.458089	-3.112463E-007	0.0046158	7
	15	6	31640.63	4304.536	-404.3696	1	4323.488	-5.366635	-1.26251E-006	0.0069838	7
	16	6	25171.88	4337.403	-413.1287	1	4357.034	-5.440891	-3.093367E-007	0.0068963	7
	17	7	20015.62	4375.297	-433.4456	1	4396.714	-5.657636	1.039286E-006	0.0047741	7
	18	7	15890.62	4404.854	-462.3322	1	4429.05	-5.99181	1.118983E-006	0.0039949	7
	19	7	12609.37	4433.441	-505.4857	1	4462.165	-6.50458	-9.295884E-007	0.0072194	7
	20	8	10078.13	4475.262	-556.9249	1	4509.782	-7.093716	1.130613E-006	0.0043347	7
	21	8	8015.625	4501.622	-640.6939	1	4546.987	-8.100227	8.072577E-007	0.0036638	7
	22	8	6328.125	4539.404	-746.3467	1	4600.351	-9.33676	1.270196E-007	0.004071	7
	23	9	5015.625	4579.304	-876.2221	1	4662.38	-10.83227	8.464974E-007	0.0052804	7
	24	9	3984.375	4622.304	-1041.358	1	4738.155	-12.69618	1.1177E-006	0.0039889	7
	25	9	3170.956	4672.904	-1241.141	1	4834.921	-14.87455	3.91351E-007	0.0060416	7
	26	10	2527.573	4731.212	-1487.77	1	4959.62	-17.4562	8.473459E-007	0.0052738	7
	27	10	1976.103	4808.227	-1821.2	1	5141.577	-20.74506	1.273681E-007	0.0040704	7
	28	10	1577.524	4908.476	-2165.047	1	5364.752	-23.80148	8.051417E-007	0.003659	7
	29	10	1265.625	4975.178	-2648.756	1	5636.338	-28.03058	-1.128117E-006	0.007135	7
	30	11	998.264	5091.545	-3252.113	1	6041.529	-32.56752	1.287355E-007	0.004065	7
	31	11	796.875	5230.609	-3950.102	1	6554.584	-37.05973	-6.445121E-007	0.0071235	7
	32	12	627.7902	5404.544	-4884.021	1	7284.418	-42.10374	8.066421E-007	0.0036613	7
	33	12	505.5147	5604.461	-5902.661	1	8139.496	-46.48446	8.069184E-007	0.0036626	7
	34	12	397.9953	5877.273	-7277.369	1	9354.273	-51.07533	-2.630373E-010	0.0055116	7
	35	13	315.5048	6217.672	-8935.706	1	10886.06	-55.1689	-2.54079E-011	0.0054518	6
	36	13	252.4038	6629.293	-10889.74	1	12748.88	-58.66842	-7.042243E-011	0.0054489	6
	37	13	198.6229	7198.134	-13463.98	1	15267.35	-61.87009	7.43779E-010	0.0054513	6
	38	14	158.3615	7901.427	-16455.37	1	18254.09	-64.35093	3.615487E-010	0.0054399	6
	39	14	125.558	8849.098	-20180.34	1	22035.26	-66.32251	1.577688E-010	0.0054456	6
	40	14	100.4464	10023.81	-24543.68	1	26511.68	-67.78456	-5.524426E-010	0.0054457	6
	41	15	79.00281	11699.7	-30173.98	1	32362.82	-68.80662	-4.254988E-010	0.0054472	6
	42	15	63.3446	14188.57	-36245.68	1	38923.83	-68.62187	1.047778E-010	0.005431	6
	43	15	49.86702	17203.67	-44467.97	1	47679.84	-68.84966	-9.719208E-010	0.0054348	6
	44	16	39.72458	20743.08	-53615.05	1	57487.82	-68.84908	9.735655E-011	0.0054429	6
	45	16	31.6723	25598.07	-64189.92	1	69105.77	-68.25855	-2.515165E-010	0.0054444	6
	46	16	24.93351	32450.61	-77041.13	1	83596.52	-67.15862	1.492641E-010	0.0054315	6
	47	17	19.86229	40749.46	-90975.23	1	99684.6	-65.87153	1.738278E-010	0.0054403	6
	48	17	15.83615	50553.3	-105075.7	1	116604.2	-64.30717	1.518166E-009	0.0054431	5
	49	17	12.40079	63121.44	-124342.7	1	139446.9	-63.08579	-1.611058E-009	0.0054473	5
	50	18	9.93114	76980.43	-143764	1	163076.9	-61.83257	2.418417E-010	0.0054423	5
	51	18	7.944915	92180.27	-164840.2	1	188863.7	-60.78565	1.110074E-009	0.0054329	5
	52	19	6.317385	110665.1	-189228.4	1	219212.5	-59.67993	6.02014E-010	0.0054329	5
	53	20	5.008013	132066.4	-217505.1	1	254460.2	-58.7344	2.012053E-010	0.0054372	5
	54	21	3.945707	156261.7	-250610.5	1	295336	-58.05547	1.529414E-010	0.0054525	5
	55	22	3.158693	182486.7	-286620.1	1	339782.9	-57.51571	-1.478153E-010	0.005444	5
	56	24	2.504006	213405.8	-329230	1	392344.8	-57.04882	-8.933655E-011	0.0054331	5
	57	25	1.998082	247842.9	-376580.7	1	450820.6	-56.64948	1.832281E-010	0.0054783	5
	58	27	1.584686	286906.8	-432052	1	518637.1	-56.41361	6.870497E-011	0.0054468	5
	59	29	1.266892	331418.9	-493177.1	1	594190.3	-56.09858	-1.154802E-011	0.0054128	5
	60	31	0.999041	385049.2	-568770.3	1	686849.6	-55.90257	-3.596648E-011	0.0053926	5
