EXPLAIN
TAG	EISPOT
TITLE	LABEL	Potentiostatic EIS	Test &Identifier
DATE	LABEL	11/3/2019	Date
TIME	LABEL	11:32:25	Time
NOTES	NOTES	1	&Notes...
	
PSTAT	PSTAT	REF600-11020	Potentiostat
VDC	POTEN	0.00000E+000	T	DC &Voltage (V)
FREQINIT	QUANT	1.00000E+006	Initial Fre&q. (Hz)
FREQFINAL	QUANT	1.00000E+000	Final Fre&q. (Hz)
PTSPERDEC	QUANT	1.00000E+001	Points/&decade
VAC	QUANT	2.50000E+001	AC &Voltage (mV rms)
AREA	QUANT	1.00000E-002	&Area (cm^2)
CONDIT	TWOPARAM	T	5.00000E+000	0.00000E+000	Conditionin&g	Time(s)	E(V)
DELAY	TWOPARAM	T	5.00000E+000	0.00000E+000	Init. De&lay	Time(s)	Stab.(mV/s)
SPEED	SELECTOR	1	&Optimize for:
ZGUESS	QUANT	1.00000E+005	E&stimated Z (ohms)
OCVCURVE	TABLE	19
	Pt	T	Vf	Vm	Ach	Over
	#	s	V vs. Ref.	V	V	bits
	0	0.258333	9.05249E-003	9.05249E-003	5.75899E-004	...........
	1	0.516667	9.05123E-003	8.98660E-003	5.69399E-004	...........
	2	0.775	9.04401E-003	8.95094E-003	5.75265E-004	...........
	3	1.03333	9.02534E-003	8.91874E-003	5.72932E-004	...........
	4	1.29167	8.99571E-003	8.90513E-003	5.74399E-004	...........
	5	1.55	8.96234E-003	8.88990E-003	5.73166E-004	...........
	6	1.80833	8.93285E-003	8.88858E-003	5.78165E-004	...........
	7	2.06667	8.91112E-003	8.88710E-003	5.74032E-004	...........
	8	2.325	8.89777E-003	8.89973E-003	5.76532E-004	...........
	9	2.58333	8.89198E-003	8.90113E-003	5.72066E-004	...........
	10	2.84167	8.89230E-003	8.91599E-003	5.76399E-004	...........
	11	3.1	8.89698E-003	8.92495E-003	5.71132E-004	...........
	12	3.35833	8.90461E-003	8.93882E-003	5.72999E-004	...........
	13	3.61667	8.91428E-003	8.94833E-003	5.76066E-004	...........
	14	3.875	8.92518E-003	8.96126E-003	5.74366E-004	...........
	15	4.13333	8.93670E-003	8.97659E-003	5.70666E-004	...........
	16	4.39167	8.94881E-003	8.99163E-003	5.72732E-004	...........
	17	4.65	8.96180E-003	9.00694E-003	5.69899E-004	...........
	18	4.90833	8.97585E-003	9.02564E-003	5.73266E-004	...........
EOC	QUANT	0.0089759	Open Circuit (V)
PSTATMODEL	IQUANT	4	Pstat Model
PSTATSECTION	LABEL	REF600-11020	Pstat Section
PSTATSERIALNO	LABEL	11020	Pstat Serial Number
CTRLMODE	IQUANT	1	Control Mode
IESTAB	IQUANT	0	I/E Stability
CASPEED	IQUANT	1	Control Amp Speed
CONVENTION	IQUANT	1	Current Convention
ICHRANGE	IQUANT	2	Ich Range
ICHRANGEMODE	TOGGLE	F	Ich Auto Range
ICHOFFSETENABLE	TOGGLE	T	Ich Offset Enable
ICHOFFSET	QUANT	0	Ich Offset (V)
ICHFILTER	IQUANT	3	Ich Filter
VCHRANGE	IQUANT	2	Vch Range
VCHRANGEMODE	TOGGLE	F	Vch Auto Range
VCHOFFSETENABLE	TOGGLE	T	Vch Offset Enable
VCHOFFSET	QUANT	0	Vch Offset (V)
VCHFILTER	IQUANT	3	Vch Filter
ACHRANGE	IQUANT	2	Ach Range
ACHOFFSETENABLE	TOGGLE	F	Ach Offset Enable
ACHOFFSET	QUANT	0	Ach Offset (V)
ACHFILTER	IQUANT	3	Ach Filter
IERANGELOWERLIMIT	IQUANT	1	I/E Range Lower Limit
IERANGEMODE	TOGGLE	F	I/E AutoRange
IERANGE	IQUANT	5	I/E Range
POSFEEDENABLE	TOGGLE	F	Positive Feedback IR Comp
POSFEEDRESISTANCE	QUANT	0	Positive Feedback Resistance (ohm)
ACHSELECT	IQUANT	0	Ach Select
CABLEID	IQUANT	14	Cable ID
DCCALDATE	LABEL	8/19/2019	DC Calibration Date
ACCALDATE	LABEL	8/19/2019	AC Calibration Date
THERMOSELECT	IQUANT	1	Thermo Select
FRAMEWORKVERSION	QUANT	6.33	Framework Version
INSTRUMENTVERSION	LABEL	3.50	Instrument Version
ZCURVE	TABLE
	Pt	Time	Freq	Zreal	Zimag	Zsig	Zmod	Zphz	Idc	Vdc	IERange
	#	s	Hz	ohm	ohm	V	ohm	°	A	V	#
	0	1	1000078	2137.098	-1780.713	1	2781.749	-39.80236	1.436322E-006	0.0108415	8
	1	3	794390.6	2490.818	-1795.855	1	3070.711	-35.79123	3.640946E-007	0.011458	8
	2	4	630984.4	2844.875	-1760.781	1	3345.693	-31.75465	-3.949512E-007	0.0104295	8
	3	5	501234.4	3166.322	-1673.311	1	3581.28	-27.85517	7.82844E-006	0.0098053	8
	4	7	398109.4	3442.635	-1567.758	1	3782.804	-24.48427	-7.272913E-006	0.0115424	8
	5	8	316265.6	3692.928	-1442.733	1	3964.744	-21.33932	4.434911E-006	0.0105143	8
	6	9	251203.1	3903.57	-1315.195	1	4119.174	-18.61975	5.860612E-006	0.0094328	8
	7	11	199546.9	4055.998	-1184.965	1	4225.548	-16.28579	-1.025527E-006	0.0109536	8
	8	12	158578.1	4195.837	-1105.918	1	4339.136	-14.76591	-1.847221E-006	0.0106241	8
	9	14	125953.1	4367.185	-954.172	1	4470.207	-12.32469	3.952847E-006	0.0057906	7
	10	15	100078.1	4423.515	-894.7421	1	4513.097	-11.43491	-6.697733E-007	0.0121904	7
	11	16	79453.13	4507.649	-857.0464	1	4588.402	-10.76524	-1.170992E-006	0.0121995	7
	12	18	63140.62	4603.621	-849.0158	1	4681.255	-10.44928	8.374899E-007	0.0085906	7
	13	19	50203.12	4686.148	-858.2856	1	4764.099	-10.3789	1.074294E-006	0.0097359	7
	14	20	39890.62	4762.366	-884.1483	1	4843.743	-10.5174	6.435947E-007	0.0107116	7
	15	22	31640.63	4841.573	-925.3997	1	4929.219	-10.82078	-9.594971E-007	0.0122673	7
	16	23	25171.88	4934.483	-988.207	1	5032.462	-11.32456	-3.135482E-007	0.0095531	7
	17	24	20015.62	5035.062	-1072.312	1	5147.98	-12.0226	-1.290277E-006	0.0116073	7
	18	26	15890.62	5159.438	-1179.225	1	5292.482	-12.87421	6.430431E-007	0.0107112	7
	19	27	12609.37	5283.377	-1304.798	1	5442.111	-13.87235	-3.149562E-007	0.0095558	7
	20	29	10078.13	5429.224	-1452.126	1	5620.066	-14.9741	1.051871E-006	0.0086827	7
	21	30	8015.625	5576.701	-1636.522	1	5811.867	-16.35469	1.075807E-006	0.0097376	7
	22	31	6328.125	5754.03	-1844.189	1	6042.342	-17.77086	8.754325E-007	0.0102651	7
	23	33	5015.625	5953.598	-2092.824	1	6310.725	-19.36773	1.162132E-006	0.008918	7
	24	34	3984.375	6177.414	-2371.802	1	6617.09	-21.00417	1.161184E-006	0.0089219	7
	25	35	3170.956	6416.711	-2698.34	1	6960.978	-22.80761	8.767843E-007	0.0102559	7
	26	37	2527.573	6702.013	-3071.844	1	7372.462	-24.62419	8.793065E-007	0.0102564	7
	27	38	1976.103	7041.009	-3545.69	1	7883.383	-26.72878	8.357698E-007	0.0085798	7
	28	40	1577.524	7388.985	-4039.061	1	8420.874	-28.66246	8.343609E-007	0.0085809	7
	29	41	1265.625	7762.814	-4572.315	1	9009.292	-30.49818	-3.126083E-007	0.0119222	7
	30	43	998.264	8243.111	-5285.163	1	9791.93	-32.66642	1.077158E-006	0.009731	7
	31	44	796.875	8721.252	-6045.902	1	10611.94	-34.73117	1.172511E-006	0.0092738	7
	32	45	627.7902	9252.579	-6982.017	1	11591.32	-37.03828	1.048768E-006	0.0086823	7
	33	47	505.5147	9768.91	-7978.28	1	12612.87	-39.23855	-6.634692E-007	0.0121738	7
	34	48	397.9953	10362.11	-9327.278	1	13941.71	-41.99143	9.429623E-010	0.0104292	6
	35	49	315.5048	10952.09	-10934.16	1	15475.92	-44.95307	3.876749E-010	0.010437	6
	36	51	252.4038	11544.6	-12845.07	1	17270.6	-48.05216	-3.991466E-010	0.0104317	6
	37	52	198.6229	12219.31	-15411.11	1	19667.58	-51.58947	3.650016E-010	0.0104393	6
	38	53	158.3615	12936.97	-18457.61	1	22539.94	-54.97332	2.854137E-010	0.0104401	6
	39	55	125.558	13780.03	-22337.17	1	26245.73	-58.32913	-1.197189E-010	0.0104454	6
	40	56	100.4464	14771.49	-26962.94	1	30744.05	-61.28413	1.213846E-009	0.0104298	6
	41	57	79.00281	16154.82	-33148.79	1	36875.75	-64.01806	3.08714E-010	0.0104257	6
	42	59	63.3446	17758.81	-39797.73	1	43580.21	-65.95229	4.698254E-010	0.0104411	6
	43	60	49.86702	20090.64	-50075.54	1	53955.48	-68.13902	6.575834E-010	0.0104318	6
	44	62	39.72458	22756.4	-60756.26	1	64878.17	-69.46645	1.733696E-009	0.0104318	6
	45	63	31.6723	26881.62	-73875.29	1	78614.12	-70.00465	-2.603462E-010	0.0104334	6
	46	65	24.93351	32281.75	-90934.84	1	96494.9	-70.45521	3.877937E-010	0.0104327	6
	47	66	19.86229	39617.04	-110477.4	1	117365.9	-70.27224	4.803115E-010	0.0104361	5
	48	67	15.83615	50979.9	-133147.9	1	142573.9	-69.04907	2.008882E-009	0.0104446	5
	49	69	12.40079	63019.16	-163326.3	1	175062.5	-68.90098	-4.336454E-010	0.0104436	5
	50	70	9.93114	80163.13	-191903.2	1	207973.5	-67.32839	5.896475E-010	0.0104423	5
	51	72	7.944915	102537.3	-226601.9	1	248721.3	-65.65325	1.488656E-010	0.0104451	5
	52	73	6.317385	129206.5	-263219.5	1	293221.4	-63.85498	1.792424E-010	0.0104315	5
	53	75	5.008013	163396.6	-304126.4	1	345240.9	-61.7524	7.714976E-011	0.0104381	5
	54	78	3.945707	203476.8	-349013.6	1	403996.7	-59.75758	1.788709E-010	0.0104538	5
	55	81	3.158693	245470.6	-392977.1	1	463343.1	-58.0093	2.253347E-011	0.0104242	5
	56	84	2.504006	292294.1	-442631.6	1	530432.4	-56.56101	2.570888E-010	0.0104481	5
	57	87	1.998082	339352.6	-495715.5	1	600744.6	-55.60558	3.098851E-010	0.0104288	5
	58	90	1.584686	391041.8	-558523.3	1	681807.9	-55.00278	7.599E-011	0.0103866	5
	59	93	1.266892	439565.8	-630941.3	1	768963.6	-55.13574	2.321047E-010	0.0104248	5
	60	98	0.999041	495951.4	-726927.4	1	879995.1	-55.69596	-6.553242E-011	0.0104221	5
