EXPLAIN
TAG	EISPOT
TITLE	LABEL	Potentiostatic IDE	Test &Identifier
DATE	LABEL	9/12/2019	Date
TIME	LABEL	9:26:47	Time
NOTES	NOTES	1	&Notes...
	
PSTAT	PSTAT	REF600-11020	Potentiostat
VDC	POTEN	0.00000E+000	T	DC &Voltage (V)
FREQINIT	QUANT	1.00000E+006	Initial Fre&q. (Hz)
FREQFINAL	QUANT	1.00000E+000	Final Fre&q. (Hz)
PTSPERDEC	QUANT	1.00000E+001	Points/&decade
VAC	QUANT	2.50000E+001	AC &Voltage (mV rms)
AREA	QUANT	1.00000E-002	&Area (cm^2)
CONDIT	TWOPARAM	T	5.00000E+000	0.00000E+000	Conditionin&g	Time(s)	E(V)
DELAY	TWOPARAM	T	5.00000E+000	0.00000E+000	Init. De&lay	Time(s)	Stab.(mV/s)
SPEED	SELECTOR	1	&Optimize for:
ZGUESS	QUANT	1.00000E+007	E&stimated Z (ohms)
OCVCURVE	TABLE	19
	Pt	T	Vf	Vm	Ach	Over
	#	s	V vs. Ref.	V	V	bits
	0	0.258333	-4.01709E-003	-4.01709E-003	6.20098E-004	...........
	1	0.516667	-4.02613E-003	-4.49022E-003	6.22032E-004	...........
	2	0.775	-4.08175E-003	-4.94459E-003	6.23065E-004	...........
	3	1.03333	-4.23936E-003	-5.37585E-003	6.17265E-004	...........
	4	1.29167	-4.52087E-003	-5.74785E-003	6.13798E-004	...........
	5	1.55	-4.89160E-003	-6.10056E-003	6.18898E-004	...........
	6	1.80833	-5.29407E-003	-6.43512E-003	6.15032E-004	...........
	7	2.06667	-5.68686E-003	-6.74879E-003	6.18032E-004	...........
	8	2.325	-6.05369E-003	-7.03719E-003	6.18798E-004	...........
	9	2.58333	-6.39328E-003	-7.31508E-003	6.26431E-004	...........
	10	2.84167	-6.70909E-003	-7.58290E-003	6.21698E-004	...........
	11	3.1	-7.00527E-003	-7.83110E-003	6.14698E-004	...........
	12	3.35833	-7.28519E-003	-8.06936E-003	6.22598E-004	...........
	13	3.61667	-7.55064E-003	-8.29059E-003	6.21932E-004	...........
	14	3.875	-7.80227E-003	-8.50773E-003	6.19431E-004	...........
	15	4.13333	-8.04086E-003	-8.71523E-003	6.22065E-004	...........
	16	4.39167	-8.26786E-003	-8.91442E-003	6.21365E-004	...........
	17	4.65	-8.48492E-003	-9.10698E-003	6.24332E-004	...........
	18	4.90833	-8.69317E-003	-9.28565E-003	6.22265E-004	...........
EOC	QUANT	-0.0086932	Open Circuit (V)
PSTATMODEL	IQUANT	4	Pstat Model
PSTATSECTION	LABEL	REF600-11020	Pstat Section
PSTATSERIALNO	LABEL	11020	Pstat Serial Number
CTRLMODE	IQUANT	1	Control Mode
IESTAB	IQUANT	0	I/E Stability
CASPEED	IQUANT	1	Control Amp Speed
CONVENTION	IQUANT	1	Current Convention
ICHRANGE	IQUANT	2	Ich Range
ICHRANGEMODE	TOGGLE	F	Ich Auto Range
ICHOFFSETENABLE	TOGGLE	T	Ich Offset Enable
ICHOFFSET	QUANT	0	Ich Offset (V)
ICHFILTER	IQUANT	3	Ich Filter
VCHRANGE	IQUANT	2	Vch Range
VCHRANGEMODE	TOGGLE	F	Vch Auto Range
VCHOFFSETENABLE	TOGGLE	T	Vch Offset Enable
VCHOFFSET	QUANT	0	Vch Offset (V)
VCHFILTER	IQUANT	3	Vch Filter
ACHRANGE	IQUANT	2	Ach Range
ACHOFFSETENABLE	TOGGLE	F	Ach Offset Enable
ACHOFFSET	QUANT	0	Ach Offset (V)
ACHFILTER	IQUANT	3	Ach Filter
IERANGELOWERLIMIT	IQUANT	1	I/E Range Lower Limit
IERANGEMODE	TOGGLE	F	I/E AutoRange
IERANGE	IQUANT	3	I/E Range
POSFEEDENABLE	TOGGLE	F	Positive Feedback IR Comp
POSFEEDRESISTANCE	QUANT	0	Positive Feedback Resistance (ohm)
ACHSELECT	IQUANT	0	Ach Select
CABLEID	IQUANT	14	Cable ID
DCCALDATE	LABEL	8/19/2019	DC Calibration Date
ACCALDATE	LABEL	8/19/2019	AC Calibration Date
THERMOSELECT	IQUANT	1	Thermo Select
FRAMEWORKVERSION	QUANT	6.33	Framework Version
INSTRUMENTVERSION	LABEL	3.50	Instrument Version
ZCURVE	TABLE
	Pt	Time	Freq	Zreal	Zimag	Zsig	Zmod	Zphz	Idc	Vdc	IERange
	#	s	Hz	ohm	ohm	V	ohm	°	A	V	#
	0	2	1000078	1649.154	-2467.688	1	2968.028	-56.24523	6.315586E-006	-0.007044	8
	1	4	794390.6	1803.118	-2841.98	1	3365.722	-57.60658	-3.53232E-006	-0.006398	8
	2	5	630984.4	2010.19	-3315.003	1	3876.868	-58.76773	2.910413E-006	-0.0074671	8
	3	7	501234.4	2208.161	-3934.234	1	4511.56	-60.69588	1.9393E-006	-0.0074921	8
	4	8	398109.4	2374.037	-4697.364	1	5263.201	-63.18807	-1.326915E-006	-0.006691	8
	5	10	316265.6	2690.038	-5573.837	1	6189.02	-64.23717	2.232963E-006	-0.0075571	8
	6	11	251203.1	3043.849	-6697.012	1	7356.289	-65.5578	-1.105428E-006	-0.0068461	8
	7	13	199546.9	3348.01	-8011.187	1	8682.643	-67.31912	-2.171006E-006	-0.0068799	8
	8	15	158578.1	3730.838	-9676.77	1	10371.07	-68.91607	-9.054502E-007	-0.0069102	8
	9	17	125953.1	4591.924	-11812.65	1	12673.77	-68.75742	-8.821092E-007	-0.0054105	7
	10	18	100078.1	5344.286	-14356.8	1	15319.24	-69.58233	-3.402981E-008	-0.0070218	7
	11	20	79453.13	6369.868	-17473.98	1	18598.8	-69.97147	8.840829E-008	-0.0073278	7
	12	21	63140.62	7816.856	-21212.85	1	22607.26	-69.77134	-4.500207E-008	-0.0071331	7
	13	22	50203.12	9742.46	-25628.77	1	27418.04	-69.18632	-5.305473E-008	-0.0071491	7
	14	24	39890.62	12202.02	-30905.55	1	33227.13	-68.45508	-1.803808E-008	-0.0071211	7
	15	25	31640.63	16022.14	-37161.86	1	40468.66	-66.67697	9.578688E-008	-0.0073855	7
	16	27	25171.88	20804.02	-44045.46	1	48711.5	-64.7172	4.757539E-008	-0.007246	7
	17	28	20015.62	27396.76	-51688.04	1	58499.88	-62.0746	9.099615E-008	-0.0073386	7
	18	30	15890.62	36503.73	-59387.32	1	69709.23	-58.42212	-4.309425E-008	-0.0071454	7
	19	31	12609.37	47692.8	-66358.25	1	81719.16	-54.29456	-2.773254E-009	-0.00725	6
	20	33	10078.13	60499.18	-72227.25	1	94217.44	-50.0497	6.565539E-009	-0.007223	6
	21	34	8015.625	74262.88	-77116.15	1	107060.1	-46.07981	7.777755E-009	-0.0072474	6
	22	36	6328.125	89866.76	-79432.1	1	119939.5	-41.47306	7.945457E-009	-0.0072459	6
	23	37	5015.625	105089.1	-79778.93	1	131940.9	-37.20413	1.096522E-008	-0.0072755	6
	24	39	3984.375	119375.9	-78235.47	1	142728.4	-33.23966	-6.140015E-009	-0.0071442	6
	25	40	3170.956	132444.2	-75824.73	1	152613.4	-29.79128	5.85063E-009	-0.0071996	6
	26	42	2527.573	143658.1	-72365.73	1	160855.4	-26.73603	-9.379933E-009	-0.0071061	6
	27	43	1976.103	155094.1	-68585.32	1	169582.2	-23.85585	-5.835764E-009	-0.0071471	6
	28	45	1577.524	163891.3	-66779.87	1	176974.3	-22.16915	1.607996E-009	-0.0073585	6
	29	46	1265.625	173690	-61249.16	1	184173	-19.42443	4.826433E-010	-0.0072161	5
	30	48	998.264	181600.1	-60073.86	1	191278.5	-18.30437	1.244973E-009	-0.007247	5
	31	49	796.875	189122.1	-59667.47	1	198311.3	-17.51033	1.514584E-010	-0.0071284	5
	32	50	627.7902	196717.3	-59505.5	1	205520.3	-16.83017	1.779334E-009	-0.007503	5
	33	52	505.5147	203586.8	-60442.26	1	212369.6	-16.53547	-4.441257E-010	-0.0071179	5
	34	53	397.9953	211552.7	-61196.78	1	220226.2	-16.1338	-2.262418E-010	-0.0072411	5
	35	54	315.5048	218288.9	-63031.5	1	227207	-16.10621	-2.664152E-010	-0.007243	5
	36	56	252.4038	225875.4	-65048.48	1	235055.3	-16.06555	6.334581E-010	-0.0072521	5
	37	57	198.6229	234214.8	-68677.6	1	244076.2	-16.34245	2.630336E-010	-0.0072405	5
	38	58	158.3615	241643.5	-73209.31	1	252490	-16.85492	5.89068E-010	-0.007247	5
	39	60	125.558	249425.9	-78293.36	1	261425.2	-17.42677	-3.361348E-011	-0.0072509	5
	40	61	100.4464	257169.3	-84556.11	1	270713.4	-18.20063	-5.976179E-011	-0.0072446	5
	41	63	79.00281	266764.7	-90846.7	1	281809.4	-18.80627	-3.36975E-010	-0.0072498	5
	42	64	63.3446	259469.2	-109011.6	1	281438.8	-22.7889	-1.049721E-010	-0.0072512	5
	43	66	49.86702	282414.5	-115550.9	1	305139.2	-22.2521	2.558456E-011	-0.0072526	5
	44	68	39.72458	296859.4	-131204.6	1	324561.5	-23.84425	7.591843E-011	-0.0072429	5
	45	69	31.6723	309842.9	-155643.9	1	346738.6	-26.67182	5.259299E-010	-0.0072494	5
	46	71	24.93351	322363.9	-178254.7	1	368365.6	-28.94089	-1.485507E-010	-0.0072506	5
	47	72	19.86229	340181.8	-208105.1	1	398787.4	-31.45607	5.915241E-010	-0.007244	5
	48	73	15.83615	361512.5	-243832.7	1	436056.9	-33.99885	3.438581E-010	-0.0072487	5
	49	75	12.40079	386894.3	-277695.4	1	476237.2	-35.66909	8.458824E-010	-0.0072476	5
	50	76	9.93114	426307.4	-320191	1	533160.7	-36.90948	5.446732E-010	-0.0072493	5
	51	78	7.944915	472575.6	-370455.6	1	600470.6	-38.09317	-5.11043E-010	-0.0072368	5
	52	79	6.317385	517408.6	-413801.1	1	662527.8	-38.65131	6.983513E-010	-0.0072472	6
	53	82	5.008013	574211.3	-464460.3	1	738540.4	-38.96824	7.494576E-010	-0.0072566	6
	54	84	3.945707	640587.3	-521826.6	1	826229.4	-39.16648	6.434169E-010	-0.0072579	6
	55	88	3.158693	704240.1	-576449.9	1	910081.7	-39.30176	5.501182E-010	-0.007242	6
	56	91	2.504006	779626.5	-639104.3	1	1008103	-39.34343	-1.138719E-010	-0.0072426	4
	57	94	1.998082	852847.8	-705643.3	1	1106925	-39.60424	2.633392E-010	-0.0072876	4
	58	97	1.584686	938964.5	-785034	1	1223901	-39.89777	4.678504E-011	-0.0072951	4
	59	101	1.266892	1023344	-873844.9	1	1345674	-40.49438	3.248048E-010	-0.0072608	4
	60	105	0.999041	1127469	-983485	1	1496138	-41.09803	-6.687765E-011	-0.0072579	4
