EXPLAIN
TAG	EISPOT
TITLE	LABEL	Potentiostatic EIS	Test &Identifier
DATE	LABEL	8/14/2018	Date
TIME	LABEL	5:07:14	Time
NOTES	NOTES	1	&Notes...
	
PSTAT	PSTAT	REF600-11020	Potentiostat
VDC	POTEN	0.00000E+000	T	DC &Voltage (V)
FREQINIT	QUANT	1.00000E+006	Initial Fre&q. (Hz)
FREQFINAL	QUANT	1.00000E+000	Final Fre&q. (Hz)
PTSPERDEC	QUANT	1.00000E+001	Points/&decade
VAC	QUANT	2.50000E+001	AC &Voltage (mV rms)
AREA	QUANT	1.00000E-002	&Area (cm^2)
CONDIT	TWOPARAM	T	5.00000E+000	0.00000E+000	Conditionin&g	Time(s)	E(V)
DELAY	TWOPARAM	T	5.00000E+000	0.00000E+000	Init. De&lay	Time(s)	Stab.(mV/s)
SPEED	SELECTOR	0	&Optimize for:
ZGUESS	QUANT	1.00000E+005	E&stimated Z (ohms)
OCVCURVE	TABLE	19
	Pt	T	Vf	Vm	Ach	Over
	#	s	V vs. Ref.	V	V	bits
	0	0.258333	6.14566E-003	6.14566E-003	5.61066E-004	...........
	1	0.516667	6.14640E-003	6.18435E-003	5.64199E-004	...........
	2	0.775	6.15122E-003	6.23531E-003	5.63032E-004	...........
	3	1.03333	6.16572E-003	6.28376E-003	5.67599E-004	...........
	4	1.29167	6.19359E-003	6.34043E-003	5.59932E-004	...........
	5	1.55	6.23373E-003	6.39403E-003	5.64166E-004	...........
	6	1.80833	6.28202E-003	6.44183E-003	5.67199E-004	...........
	7	2.06667	6.33429E-003	6.50643E-003	5.68566E-004	...........
	8	2.325	6.38838E-003	6.56973E-003	5.67899E-004	...........
	9	2.58333	6.44461E-003	6.63735E-003	5.64166E-004	...........
	10	2.84167	6.50395E-003	6.69784E-003	5.62599E-004	...........
	11	3.1	6.56605E-003	6.76025E-003	5.66199E-004	...........
	12	3.35833	6.62928E-003	6.81746E-003	5.65999E-004	...........
	13	3.61667	6.69201E-003	6.87967E-003	5.64366E-004	...........
	14	3.875	6.75360E-003	6.93993E-003	5.62899E-004	...........
	15	4.13333	6.81436E-003	7.00166E-003	5.62199E-004	...........
	16	4.39167	6.87492E-003	7.06106E-003	5.64666E-004	...........
	17	4.65	6.93547E-003	7.11800E-003	5.65299E-004	...........
	18	4.90833	6.99553E-003	7.17001E-003	5.57333E-004	...........
EOC	QUANT	0.0069955	Open Circuit (V)
PSTATMODEL	IQUANT	4	Pstat Model
PSTATSECTION	LABEL	REF600-11020	Pstat Section
PSTATSERIALNO	LABEL	11020	Pstat Serial Number
CTRLMODE	IQUANT	1	Control Mode
IESTAB	IQUANT	0	I/E Stability
CASPEED	IQUANT	1	Control Amp Speed
CONVENTION	IQUANT	1	Current Convention
ICHRANGE	IQUANT	2	Ich Range
ICHRANGEMODE	TOGGLE	F	Ich Auto Range
ICHOFFSETENABLE	TOGGLE	T	Ich Offset Enable
ICHOFFSET	QUANT	0	Ich Offset (V)
ICHFILTER	IQUANT	3	Ich Filter
VCHRANGE	IQUANT	2	Vch Range
VCHRANGEMODE	TOGGLE	F	Vch Auto Range
VCHOFFSETENABLE	TOGGLE	T	Vch Offset Enable
VCHOFFSET	QUANT	0	Vch Offset (V)
VCHFILTER	IQUANT	3	Vch Filter
ACHRANGE	IQUANT	2	Ach Range
ACHOFFSETENABLE	TOGGLE	F	Ach Offset Enable
ACHOFFSET	QUANT	0	Ach Offset (V)
ACHFILTER	IQUANT	3	Ach Filter
IERANGELOWERLIMIT	IQUANT	1	I/E Range Lower Limit
IERANGEMODE	TOGGLE	F	I/E AutoRange
IERANGE	IQUANT	5	I/E Range
POSFEEDENABLE	TOGGLE	F	Positive Feedback IR Comp
POSFEEDRESISTANCE	QUANT	0	Positive Feedback Resistance (ohm)
ACHSELECT	IQUANT	0	Ach Select
CABLEID	IQUANT	14	Cable ID
DCCALDATE	LABEL	8/19/2019	DC Calibration Date
ACCALDATE	LABEL	8/19/2019	AC Calibration Date
THERMOSELECT	IQUANT	1	Thermo Select
FRAMEWORKVERSION	QUANT	6.33	Framework Version
INSTRUMENTVERSION	LABEL	3.50	Instrument Version
ZCURVE	TABLE
	Pt	Time	Freq	Zreal	Zimag	Zsig	Zmod	Zphz	Idc	Vdc	IERange
	#	s	Hz	ohm	ohm	V	ohm	°	A	V	#
	0	1	1000078	2024.695	-987.637	1	2252.735	-26.00292	-1.381331E-006	0.009317	8
	1	2	794390.6	2200.381	-887.0231	1	2372.443	-21.95547	-4.462774E-006	0.010131	8
	2	2	630984.4	2336.252	-791.3633	1	2466.643	-18.71289	-2.501451E-006	0.0095134	8
	3	2	501234.4	2445.392	-690.1721	1	2540.921	-15.76085	4.818453E-007	0.0085782	8
	4	3	398109.4	2536.111	-601.0371	1	2606.359	-13.33264	2.455469E-006	0.0081024	8
	5	3	316265.6	2597.721	-518.8344	1	2649.027	-11.29488	-1.345443E-006	0.0089994	8
	6	3	251203.1	2642.742	-442.6888	1	2679.563	-9.5094	-6.526643E-008	0.0085673	8
	7	4	199546.9	2688.146	-389.5938	1	2716.231	-8.246477	-7.08992E-008	0.0085804	8
	8	4	158578.1	2730.436	-345.674	1	2752.23	-7.215277	-2.976252E-006	0.0091772	8
	9	4	125953.1	2761.196	-268.1332	1	2774.184	-5.546467	-1.142159E-007	0.0088721	7
	10	5	100078.1	2782.919	-236.3999	1	2792.942	-4.855433	-4.878869E-008	0.008607	7
	11	5	79453.13	2797.199	-233.8045	1	2806.954	-4.777974	3.839341E-008	0.0084119	7
	12	5	63140.62	2817.246	-232.616	1	2826.833	-4.720124	1.128927E-007	0.0083748	7
	13	5	50203.12	2836.847	-234.845	1	2846.551	-4.732373	-1.153986E-008	0.0086564	7
	14	6	39890.62	2858.698	-241.7949	1	2868.906	-4.834694	6.514403E-008	0.0085116	7
	15	6	31640.63	2880.224	-254.9825	1	2891.488	-5.059134	-9.100477E-009	0.0085758	7
	16	6	25171.88	2903.024	-273.347	1	2915.865	-5.379075	6.822417E-008	0.0083896	7
	17	7	20015.62	2927.392	-298.3477	1	2942.556	-5.819256	3.937333E-008	0.0084061	7
	18	7	15890.62	2952.35	-330.0254	1	2970.738	-6.378272	1.146149E-007	0.0083752	7
	19	7	12609.37	2979.206	-371.4087	1	3002.268	-7.106229	1.174027E-007	0.0083689	7
	20	8	10078.13	3005.789	-420.5221	1	3035.063	-7.964219	-9.439604E-009	0.0085779	7
	21	8	8015.625	3038.018	-481.9518	1	3076.009	-9.014295	-3.992345E-008	0.0085511	7
	22	8	6328.125	3070.804	-559.3291	1	3121.327	-10.32293	1.154759E-007	0.0083698	7
	23	9	5015.625	3107.104	-657.5099	1	3175.912	-11.94838	-4.243782E-008	0.008564	7
	24	9	3984.375	3146.464	-775.0419	1	3240.513	-13.83771	-1.937534E-008	0.0085782	7
	25	9	3170.956	3190.984	-921.4644	1	3321.367	-16.10719	-3.694955E-008	0.0085494	7
	26	10	2527.573	3240.856	-1097.588	1	3421.673	-18.70981	-4.220655E-008	0.0085462	7
	27	10	1976.103	3302.887	-1333.114	1	3561.777	-21.98003	-1.061845E-009	0.008467	7
	28	10	1577.524	3371.926	-1598.128	1	3731.474	-25.35866	-1.119608E-008	0.0085636	7
	29	11	1265.625	3441.437	-1914.495	1	3938.119	-29.08749	2.285544E-008	0.0085022	7
	30	11	998.264	3530.115	-2334.657	1	4232.296	-33.47884	-1.835919E-008	0.0085716	7
	31	11	796.875	3628.546	-2822.753	1	4597.203	-37.8804	-3.6362E-008	0.0086518	7
	32	11	627.7902	3750.342	-3463.546	1	5105.019	-42.72335	-3.649537E-008	0.0086506	7
	33	12	505.5147	3879.879	-4182.876	1	5705.253	-47.15215	1.166261E-007	0.0083614	7
	34	12	397.9953	4053.332	-5157.802	1	6559.91	-51.83746	1.405903E-009	0.0085495	7
	35	12	315.5048	4261.047	-6335.553	1	7635.166	-56.07675	9.261147E-011	0.0085502	7
	36	13	252.4038	4511.915	-7731.3	1	8951.558	-59.73256	1.950692E-010	0.0085508	7
	37	13	198.6229	4856.168	-9581.17	1	10741.56	-63.12204	6.161678E-010	0.0084952	6
	38	13	158.3615	5275.606	-11738.7	1	12869.7	-65.7999	6.979579E-010	0.0084869	6
	39	14	125.558	5832.89	-14456.51	1	15588.88	-68.02698	5.974196E-010	0.0084842	6
	40	14	100.4464	6521.397	-17655.92	1	18821.8	-69.72777	-1.081269E-009	0.0084824	6
	41	14	79.00281	7487.213	-21843.62	1	23091.17	-71.08012	-2.337798E-010	0.0084805	6
	42	15	63.3446	9016.273	-26543.7	1	28033.22	-71.23858	6.008494E-011	0.0084829	6
	43	15	49.86702	10744.42	-32757.22	1	34474.31	-71.84042	5.083446E-010	0.0084802	6
	44	15	39.72458	12826.21	-39825.86	1	41840.3	-72.14847	-3.165626E-010	0.0084822	6
	45	16	31.6723	15695.48	-48238.06	1	50727.3	-71.97639	-3.321069E-010	0.0084762	6
	46	16	24.93351	20010.79	-58952.82	1	62256.46	-71.25087	-6.70632E-010	0.0084709	6
	47	16	19.86229	25223.08	-70729.53	1	75092.41	-70.3731	-1.536543E-009	0.0084714	6
	48	17	15.83615	31533.73	-84991.91	1	90653.19	-69.64412	-1.248578E-009	0.0084729	6
	49	17	12.40079	41366.3	-100885.4	1	109036.9	-67.70477	-1.694597E-009	0.0084773	5
	50	17	9.93114	52413.8	-118324.7	1	129413.8	-66.10829	1.482267E-010	0.008485	5
	51	18	7.944915	64723.66	-137760.1	1	152207	-64.8345	1.294378E-009	0.0084745	5
	52	19	6.317385	80855.83	-159660.2	1	178966.6	-63.14123	5.830062E-010	0.008467	5
	53	19	5.008013	99545	-184354.6	1	209513.3	-61.63251	5.93116E-011	0.0084778	5
	54	20	3.945707	121454.4	-212072.9	1	244389.2	-60.20018	-1.428582E-010	0.0084833	5
	55	22	3.158693	143587.8	-241895.7	1	281302.4	-59.30689	-3.630408E-010	0.0084729	5
	56	23	2.504006	169266.3	-276356	1	324073.6	-58.5128	-9.251836E-011	0.0084711	5
	57	25	1.998082	195969.1	-315475.1	1	371387.1	-58.15197	1.23213E-011	0.0085021	5
	58	26	1.584686	226308.2	-361455.7	1	426457	-57.94923	-1.786978E-010	0.0084581	5
	59	28	1.266892	259769.6	-415648.4	1	490146.8	-57.99567	-2.337976E-010	0.0084326	5
	60	31	0.999041	298386.2	-484092.1	1	568664.6	-58.35102	-2.447481E-010	0.0084396	5
