EXPLAIN
TAG	EISPOT
TITLE	LABEL	Potentiostatic EIS	Test &Identifier
DATE	LABEL	10/12/2019	Date
TIME	LABEL	11:18:11	Time
NOTES	NOTES	1	&Notes...
	
PSTAT	PSTAT	REF600-11020	Potentiostat
VDC	POTEN	0.00000E+000	T	DC &Voltage (V)
FREQINIT	QUANT	1.00000E+006	Initial Fre&q. (Hz)
FREQFINAL	QUANT	1.00000E+000	Final Fre&q. (Hz)
PTSPERDEC	QUANT	1.00000E+001	Points/&decade
VAC	QUANT	2.50000E+001	AC &Voltage (mV rms)
AREA	QUANT	1.00000E-002	&Area (cm^2)
CONDIT	TWOPARAM	T	5.00000E+000	0.00000E+000	Conditionin&g	Time(s)	E(V)
DELAY	TWOPARAM	T	5.00000E+000	0.00000E+000	Init. De&lay	Time(s)	Stab.(mV/s)
SPEED	SELECTOR	1	&Optimize for:
ZGUESS	QUANT	1.00000E+004	E&stimated Z (ohms)
OCVCURVE	TABLE	19
	Pt	T	Vf	Vm	Ach	Over
	#	s	V vs. Ref.	V	V	bits
	0	0.258333	6.96829E-003	6.96829E-003	6.03632E-004	...........
	1	0.516667	6.96708E-003	6.90491E-003	6.04998E-004	...........
	2	0.775	6.96018E-003	6.87296E-003	5.92365E-004	...........
	3	1.03333	6.94254E-003	6.84675E-003	5.89465E-004	...........
	4	1.29167	6.91497E-003	6.83045E-003	5.99399E-004	...........
	5	1.55	6.88444E-003	6.82543E-003	6.01332E-004	...........
	6	1.80833	6.85821E-003	6.82597E-003	5.89332E-004	...........
	7	2.06667	6.84010E-003	6.82604E-003	5.86232E-004	...........
	8	2.325	6.83042E-003	6.83675E-003	5.98399E-004	...........
	9	2.58333	6.82760E-003	6.84222E-003	5.96299E-004	...........
	10	2.84167	6.82996E-003	6.86151E-003	5.92199E-004	...........
	11	3.1	6.83641E-003	6.87120E-003	5.90099E-004	...........
	12	3.35833	6.84624E-003	6.89212E-003	5.99399E-004	...........
	13	3.61667	6.85869E-003	6.90092E-003	6.01698E-004	...........
	14	3.875	6.87287E-003	6.92605E-003	5.93799E-004	...........
	15	4.13333	6.88819E-003	6.93895E-003	5.98765E-004	...........
	16	4.39167	6.90456E-003	6.96137E-003	6.03498E-004	...........
	17	4.65	6.92184E-003	6.97451E-003	5.96665E-004	...........
	18	4.90833	6.93965E-003	6.99843E-003	5.93165E-004	...........
EOC	QUANT	0.0069397	Open Circuit (V)
PSTATMODEL	IQUANT	4	Pstat Model
PSTATSECTION	LABEL	REF600-11020	Pstat Section
PSTATSERIALNO	LABEL	11020	Pstat Serial Number
CTRLMODE	IQUANT	1	Control Mode
IESTAB	IQUANT	0	I/E Stability
CASPEED	IQUANT	1	Control Amp Speed
CONVENTION	IQUANT	1	Current Convention
ICHRANGE	IQUANT	2	Ich Range
ICHRANGEMODE	TOGGLE	F	Ich Auto Range
ICHOFFSETENABLE	TOGGLE	T	Ich Offset Enable
ICHOFFSET	QUANT	0	Ich Offset (V)
ICHFILTER	IQUANT	3	Ich Filter
VCHRANGE	IQUANT	2	Vch Range
VCHRANGEMODE	TOGGLE	F	Vch Auto Range
VCHOFFSETENABLE	TOGGLE	T	Vch Offset Enable
VCHOFFSET	QUANT	0	Vch Offset (V)
VCHFILTER	IQUANT	3	Vch Filter
ACHRANGE	IQUANT	2	Ach Range
ACHOFFSETENABLE	TOGGLE	F	Ach Offset Enable
ACHOFFSET	QUANT	0	Ach Offset (V)
ACHFILTER	IQUANT	3	Ach Filter
IERANGELOWERLIMIT	IQUANT	1	I/E Range Lower Limit
IERANGEMODE	TOGGLE	F	I/E AutoRange
IERANGE	IQUANT	6	I/E Range
POSFEEDENABLE	TOGGLE	F	Positive Feedback IR Comp
POSFEEDRESISTANCE	QUANT	0	Positive Feedback Resistance (ohm)
ACHSELECT	IQUANT	0	Ach Select
CABLEID	IQUANT	14	Cable ID
DCCALDATE	LABEL	8/19/2019	DC Calibration Date
ACCALDATE	LABEL	8/19/2019	AC Calibration Date
THERMOSELECT	IQUANT	1	Thermo Select
FRAMEWORKVERSION	QUANT	6.33	Framework Version
INSTRUMENTVERSION	LABEL	3.50	Instrument Version
ZCURVE	TABLE
	Pt	Time	Freq	Zreal	Zimag	Zsig	Zmod	Zphz	Idc	Vdc	IERange
	#	s	Hz	ohm	ohm	V	ohm	°	A	V	#
	0	2	1000078	2541.976	-2013.628	1	3242.89	-38.38453	-1.963587E-006	0.0103004	8
	1	3	794390.6	3002.176	-2001.42	1	3608.15	-33.68966	-3.637809E-007	0.0093203	8
	2	5	630984.4	3382.355	-1877.07	1	3868.297	-29.0285	-1.352415E-007	0.0087606	8
	3	6	501234.4	3732.459	-1731.423	1	4114.496	-24.88576	-2.039758E-006	0.0091495	8
	4	8	398109.4	4014.583	-1558.313	1	4306.415	-21.21438	2.072283E-006	0.0082459	8
	5	9	316265.6	4242.466	-1369.11	1	4457.912	-17.88569	-3.165519E-007	0.0085514	8
	6	11	251203.1	4426.852	-1175.959	1	4580.382	-14.87661	5.176006E-007	0.0084378	8
	7	12	199546.9	4549.737	-1012.57	1	4661.052	-12.54701	3.847313E-006	0.0079837	8
	8	14	158578.1	4651.6	-877.5609	1	4733.655	-10.68373	-8.090203E-007	0.0089021	8
	9	15	125953.1	4746.159	-698.7445	1	4797.319	-8.375102	1.339405E-006	0.0059528	7
	10	17	100078.1	4810.21	-618.8846	1	4849.86	-7.331434	-4.336453E-008	0.0086311	7
	11	18	79453.13	4849.022	-554.559	1	4880.63	-6.524293	-1.636709E-008	0.0085573	7
	12	20	63140.62	4881.104	-504.1772	1	4907.074	-5.89726	-3.437208E-009	0.0084989	7
	13	21	50203.12	4931.865	-464.8741	1	4953.726	-5.384749	5.045921E-008	0.0084193	7
	14	22	39890.62	4966.64	-447.0167	1	4986.716	-5.142983	-1.769697E-008	0.0085375	7
	15	24	31640.63	4995.123	-445.4604	1	5014.946	-5.096103	-2.861875E-008	0.0085425	7
	16	25	25171.88	5037.101	-440.25	1	5056.304	-4.995042	-8.153536E-008	0.0087947	7
	17	27	20015.62	5048.922	-431.5814	1	5067.334	-4.885761	8.748924E-008	0.0083902	7
	18	28	15890.62	5098.774	-486.684	1	5121.949	-5.452431	-5.098744E-008	0.0086276	7
	19	29	12609.37	5123.242	-513.5543	1	5148.917	-5.724214	-4.529758E-008	0.0086561	7
	20	31	10078.13	5161.127	-565.5713	1	5192.023	-6.253685	-2.15303E-008	0.0085305	7
	21	32	8015.625	5213.061	-643.9578	1	5252.684	-7.041946	3.762934E-008	0.0084142	7
	22	33	6328.125	5247.017	-729.1007	1	5297.431	-7.910894	-2.06114E-008	0.0085358	7
	23	35	5015.625	5281.12	-848.7423	1	5348.887	-9.13008	-8.519523E-008	0.0086594	7
	24	36	3984.375	5326.448	-994.224	1	5418.444	-10.57304	-3.357507E-009	0.0085762	7
	25	37	3170.956	5386.713	-1192.397	1	5517.108	-12.48167	-7.305606E-008	0.008663	7
	26	39	2527.573	5467.182	-1392.123	1	5641.639	-14.28579	-4.135799E-008	0.008646	7
	27	40	1976.103	5532.042	-1724.534	1	5794.611	-17.31411	-6.997597E-008	0.0086706	7
	28	42	1577.524	5624.264	-2076.286	1	5995.274	-20.26242	-7.488131E-008	0.0087701	7
	29	43	1265.625	5697.273	-2440.357	1	6197.924	-23.18727	-6.300938E-008	0.0086377	7
	30	44	998.264	5817.121	-3008.252	1	6548.929	-27.34519	-1.359814E-008	0.0085767	7
	31	46	796.875	5950.322	-3604.949	1	6957.154	-31.2092	-3.040115E-009	0.0084784	7
	32	47	627.7902	6095.03	-4449.283	1	7546.225	-36.1289	7.680829E-008	0.008379	7
	33	49	505.5147	6244.862	-5413.371	1	8264.556	-40.92044	-1.074088E-009	0.0085944	7
	34	50	397.9953	6453.287	-6659.693	1	9273.426	-45.90179	5.631173E-009	0.0085555	7
	35	52	315.5048	6711.201	-8188.275	1	10587.17	-50.66158	2.277542E-009	0.0084942	6
	36	53	252.4038	7018.539	-9996.58	1	12214.4	-54.92754	-1.651193E-011	0.0084949	6
	37	54	198.6229	7430.878	-12404.36	1	14459.81	-59.07612	1.364363E-009	0.0085002	6
	38	56	158.3615	7955.382	-15206.05	1	17161.35	-62.38269	1.371954E-010	0.0084975	6
	39	57	125.558	8629.938	-18758.31	1	20648.24	-65.29475	1.700674E-009	0.0084964	6
	40	58	100.4464	9518.68	-22971.17	1	24865.24	-67.4921	5.15791E-010	0.0084941	6
	41	60	79.00281	10801.48	-28503.33	1	30481.34	-69.24554	-3.892945E-010	0.0084916	6
	42	61	63.3446	11652.55	-35009.46	1	36897.75	-71.5905	-1.455656E-010	0.0084966	6
	43	63	49.86702	14580.55	-42323.43	1	44764.55	-70.99101	-5.910138E-010	0.008489	6
	44	64	39.72458	17292.43	-52132.26	1	54925.41	-71.64916	1.685254E-009	0.0084984	6
	45	65	31.6723	21100.65	-63515.46	1	66928.7	-71.62285	5.911117E-010	0.0084982	6
	46	67	24.93351	26258.71	-77672.57	1	81991.15	-71.32118	3.31725E-010	0.0085006	6
	47	68	19.86229	32643.13	-93338.28	1	98881.8	-70.72377	1.950891E-009	0.0084995	6
	48	70	15.83615	42426.54	-112514.5	1	120247.8	-69.33974	1.900481E-009	0.0085017	5
	49	71	12.40079	53339.45	-137241.5	1	147242.4	-68.76119	2.349168E-009	0.008507	5
	50	73	9.93114	68318.39	-158278.3	1	172393.3	-66.65331	-5.470218E-010	0.0085088	5
	51	74	7.944915	84773.75	-183331	1	201982.3	-65.18379	1.638172E-009	0.0085058	5
	52	76	6.317385	105799.4	-215959.3	1	240482.7	-63.89956	-6.524312E-011	0.0085128	5
	53	78	5.008013	130808.6	-250503	1	282599.8	-62.42716	-7.520865E-011	0.0084938	5
	54	80	3.945707	160410.2	-289331.1	1	330823	-60.99525	4.802908E-010	0.0085076	5
	55	83	3.158693	192368.8	-330006.7	1	381981.9	-59.76106	-7.86871E-011	0.0084822	5
	56	87	2.504006	229311.7	-377767.1	1	441918.4	-58.74147	5.074034E-010	0.0085019	5
	57	89	1.998082	269494.2	-430370.6	1	507785.3	-57.94557	3.112771E-010	0.0085217	5
	58	93	1.584686	315784.2	-490790.2	1	583604.9	-57.24196	1.483438E-010	0.0084557	5
	59	96	1.266892	364389.1	-560220.6	1	668301.3	-56.95847	2.589486E-010	0.0085041	5
	60	100	0.999041	424157.7	-645657.3	1	772517.3	-56.69751	-1.432823E-010	0.0084703	5
