EXPLAIN
TAG	EISPOT
TITLE	LABEL	Potentiostatic IDE	Test &Identifier
DATE	LABEL	9/10/2019	Date
TIME	LABEL	9:41:57	Time
NOTES	NOTES	1	&Notes...
	
PSTAT	PSTAT	REF600-11020	Potentiostat
VDC	POTEN	0.00000E+000	T	DC &Voltage (V)
FREQINIT	QUANT	1.00000E+006	Initial Fre&q. (Hz)
FREQFINAL	QUANT	1.00000E+000	Final Fre&q. (Hz)
PTSPERDEC	QUANT	1.00000E+001	Points/&decade
VAC	QUANT	2.50000E+001	AC &Voltage (mV rms)
AREA	QUANT	1.00000E-002	&Area (cm^2)
CONDIT	TWOPARAM	T	5.00000E+000	0.00000E+000	Conditionin&g	Time(s)	E(V)
DELAY	TWOPARAM	T	5.00000E+000	0.00000E+000	Init. De&lay	Time(s)	Stab.(mV/s)
SPEED	SELECTOR	1	&Optimize for:
ZGUESS	QUANT	1.00000E+007	E&stimated Z (ohms)
OCVCURVE	TABLE	19
	Pt	T	Vf	Vm	Ach	Over
	#	s	V vs. Ref.	V	V	bits
	0	0.258333	4.16907E-003	4.16907E-003	5.71466E-004	...........
	1	0.516667	4.16646E-003	4.03255E-003	5.70766E-004	...........
	2	0.775	4.15052E-003	3.90705E-003	5.70399E-004	...........
	3	1.03333	4.10599E-003	3.80315E-003	5.72332E-004	...........
	4	1.29167	4.02839E-003	3.71450E-003	5.67732E-004	...........
	5	1.55	3.92981E-003	3.63615E-003	5.71399E-004	...........
	6	1.80833	3.82741E-003	3.55681E-003	5.74132E-004	...........
	7	2.06667	3.73175E-003	3.48432E-003	5.66066E-004	...........
	8	2.325	3.64508E-003	3.40968E-003	5.69199E-004	...........
	9	2.58333	3.56556E-003	3.35146E-003	5.68532E-004	...........
	10	2.84167	3.49107E-003	3.27150E-003	5.67432E-004	...........
	11	3.1	3.41999E-003	3.21440E-003	5.69499E-004	...........
	12	3.35833	3.35141E-003	3.16791E-003	5.67766E-004	...........
	13	3.61667	3.28600E-003	3.09951E-003	5.66899E-004	...........
	14	3.875	3.22454E-003	3.05460E-003	5.63666E-004	...........
	15	4.13333	3.16669E-003	3.01315E-003	5.64099E-004	...........
	16	4.39167	3.11228E-003	2.95695E-003	5.66466E-004	...........
	17	4.65	3.06107E-003	2.91108E-003	5.66199E-004	...........
	18	4.90833	3.01184E-003	2.86654E-003	5.68066E-004	...........
EOC	QUANT	0.0030118	Open Circuit (V)
PSTATMODEL	IQUANT	4	Pstat Model
PSTATSECTION	LABEL	REF600-11020	Pstat Section
PSTATSERIALNO	LABEL	11020	Pstat Serial Number
CTRLMODE	IQUANT	1	Control Mode
IESTAB	IQUANT	0	I/E Stability
CASPEED	IQUANT	1	Control Amp Speed
CONVENTION	IQUANT	1	Current Convention
ICHRANGE	IQUANT	2	Ich Range
ICHRANGEMODE	TOGGLE	F	Ich Auto Range
ICHOFFSETENABLE	TOGGLE	T	Ich Offset Enable
ICHOFFSET	QUANT	0	Ich Offset (V)
ICHFILTER	IQUANT	3	Ich Filter
VCHRANGE	IQUANT	2	Vch Range
VCHRANGEMODE	TOGGLE	F	Vch Auto Range
VCHOFFSETENABLE	TOGGLE	T	Vch Offset Enable
VCHOFFSET	QUANT	0	Vch Offset (V)
VCHFILTER	IQUANT	3	Vch Filter
ACHRANGE	IQUANT	2	Ach Range
ACHOFFSETENABLE	TOGGLE	F	Ach Offset Enable
ACHOFFSET	QUANT	0	Ach Offset (V)
ACHFILTER	IQUANT	3	Ach Filter
IERANGELOWERLIMIT	IQUANT	1	I/E Range Lower Limit
IERANGEMODE	TOGGLE	F	I/E AutoRange
IERANGE	IQUANT	2	I/E Range
POSFEEDENABLE	TOGGLE	F	Positive Feedback IR Comp
POSFEEDRESISTANCE	QUANT	0	Positive Feedback Resistance (ohm)
ACHSELECT	IQUANT	0	Ach Select
CABLEID	IQUANT	14	Cable ID
DCCALDATE	LABEL	8/19/2019	DC Calibration Date
ACCALDATE	LABEL	8/19/2019	AC Calibration Date
THERMOSELECT	IQUANT	1	Thermo Select
FRAMEWORKVERSION	QUANT	6.33	Framework Version
INSTRUMENTVERSION	LABEL	3.50	Instrument Version
ZCURVE	TABLE
	Pt	Time	Freq	Zreal	Zimag	Zsig	Zmod	Zphz	Idc	Vdc	IERange
	#	s	Hz	ohm	ohm	V	ohm	°	A	V	#
	0	2	1000078	2305.211	-1213.09	1	2604.915	-27.75506	-4.433907E-007	0.005498	8
	1	3	794390.6	2525.293	-1099.61	1	2754.314	-23.53017	-3.148871E-006	0.0056472	8
	2	5	630984.4	2696.373	-973.073	1	2866.583	-19.8436	4.627008E-008	0.0050861	8
	3	6	501234.4	2837.899	-847.425	1	2961.723	-16.62615	-3.653256E-006	0.0054141	8
	4	8	398109.4	2938.366	-720.4235	1	3025.394	-13.77593	-8.704947E-007	0.0050255	8
	5	9	316265.6	3005.574	-609.4592	1	3066.744	-11.4628	-2.552528E-006	0.005205	8
	6	10	251203.1	3069.776	-519.8725	1	3113.485	-9.61195	2.552686E-007	0.0046971	8
	7	12	199546.9	3113.264	-433.1985	1	3143.258	-7.921619	-1.016952E-006	0.0048599	8
	8	13	158578.1	3147.66	-378.2969	1	3170.311	-6.853139	-2.576449E-009	0.0047042	8
	9	14	125953.1	3180.981	-303.0516	1	3195.385	-5.442134	4.119383E-007	0.0032585	7
	10	15	100078.1	3195.347	-266.3649	1	3206.43	-4.765173	3.288335E-008	0.0045146	7
	11	17	79453.13	3214.515	-244.7243	1	3223.817	-4.353588	5.02576E-008	0.0045273	7
	12	18	63140.62	3232.579	-229.4935	1	3240.715	-4.06084	-1.286976E-008	0.0046523	7
	13	20	50203.12	3250.323	-220.6766	1	3257.806	-3.884064	3.20489E-008	0.0045022	7
	14	21	39890.62	3266.41	-218.2086	1	3273.691	-3.821896	-1.24431E-008	0.0046505	7
	15	22	31640.63	3283.533	-219.2787	1	3290.847	-3.820614	6.004647E-008	0.0044826	7
	16	24	25171.88	3300.522	-227.9775	1	3308.386	-3.951324	1.461527E-008	0.0045398	7
	17	25	20015.62	3316.988	-242.2171	1	3325.82	-4.176509	-1.177585E-008	0.0046543	7
	18	26	15890.62	3336.458	-263.5888	1	3346.854	-4.517132	-4.671812E-008	0.0046918	7
	19	28	12609.37	3354.931	-292.3636	1	3367.646	-4.980427	4.901527E-008	0.0045169	7
	20	29	10078.13	3376.85	-329.0334	1	3392.843	-5.565215	-4.809951E-008	0.0046885	7
	21	30	8015.625	3397.252	-377.5482	1	3418.167	-6.341455	4.912464E-008	0.0045139	7
	22	32	6328.125	3421.667	-438.239	1	3449.617	-7.298572	5.4609E-009	0.004675	7
	23	33	5015.625	3450.184	-513.9636	1	3488.256	-8.472873	-1.39324E-008	0.0046288	7
	24	34	3984.375	3480.54	-607.3463	1	3533.133	-9.89832	-2.699194E-008	0.004594	7
	25	36	3170.956	3515.22	-720.9229	1	3588.384	-11.58986	6.258746E-008	0.0044784	7
	26	37	2527.573	3556.031	-859.5374	1	3658.437	-13.58848	-4.86121E-008	0.0046779	7
	27	38	1976.103	3606.282	-1043.32	1	3754.17	-16.13549	-2.372121E-008	0.0046025	7
	28	40	1577.524	3661.729	-1249.609	1	3869.081	-18.84282	-9.697447E-009	0.0046423	7
	29	41	1265.625	3724.65	-1494.903	1	4013.447	-21.86825	-5.474576E-008	0.0046637	7
	30	42	998.264	3802.403	-1815.474	1	4213.575	-25.52235	5.956116E-008	0.0045076	7
	31	44	796.875	3888.945	-2186.302	1	4461.368	-29.344	1.359481E-008	0.0045333	7
	32	45	627.7902	3993	-2670.505	1	4803.712	-33.77448	3.575757E-008	0.004492	7
	33	46	505.5147	4097.904	-3205.123	1	5202.464	-38.03028	1.52888E-008	0.004519	7
	34	48	397.9953	4236.612	-3932.945	1	5780.738	-42.87127	4.998398E-009	0.0046205	7
	35	49	315.5048	4390.789	-4808.026	1	6511.232	-47.59703	4.79214E-009	0.0046246	7
	36	50	252.4038	4563.738	-5843.998	1	7414.851	-52.01275	5.487429E-009	0.0046122	7
	37	52	198.6229	4787.184	-7225.14	1	8667.166	-56.47261	5.707358E-009	0.0046213	7
	38	53	158.3615	5045.428	-8845.365	1	10183.16	-60.29941	6.133005E-009	0.0046191	7
	39	54	125.558	5375.531	-10899.3	1	12152.83	-63.74751	1.470411E-009	0.0045545	6
	40	56	100.4464	5779.307	-13333.95	1	14532.53	-66.56674	1.761954E-009	0.0045553	6
	41	57	79.00281	6324.591	-16566.23	1	17732.47	-69.10434	1.585218E-009	0.0045584	6
	42	58	63.3446	7031.404	-20292.04	1	21475.74	-70.88826	9.630452E-010	0.004549	6
	43	60	49.86702	7885.249	-25129.37	1	26337.47	-72.57887	1.110386E-009	0.0045581	6
	44	61	39.72458	9120.074	-30860.96	1	32180.34	-73.53646	1.126199E-009	0.0045555	6
	45	62	31.6723	10656.41	-37815.46	1	39288.27	-74.26215	1.356724E-009	0.0045559	6
	46	64	24.93351	12847.69	-46753.09	1	48486.23	-74.63447	7.642387E-010	0.0045599	6
	47	65	19.86229	15632.45	-57102.43	1	59203.56	-74.68974	9.873153E-010	0.004551	6
	48	66	15.83615	19302.59	-69362.88	1	71998.6	-74.44895	5.647784E-010	0.0045576	6
	49	68	12.40079	24352.76	-85672.55	1	89066.52	-74.13199	1.238913E-009	0.0045638	6
	50	69	9.93114	30536.11	-103301.5	1	107720.3	-73.53223	7.772655E-010	0.0045698	5
	51	71	7.944915	38746.31	-123991.7	1	129904.6	-72.64643	6.624818E-010	0.0045569	5
	52	72	6.317385	49283.77	-149191.2	1	157120.7	-71.71957	4.642911E-010	0.0045592	5
	53	74	5.008013	63076.41	-179248	1	190022.3	-70.6133	3.001701E-010	0.0045581	5
	54	77	3.945707	81062.3	-214732.5	1	229523.7	-69.31829	4.94946E-010	0.0045671	5
	55	79	3.158693	101912.3	-252756.5	1	272528.8	-68.04053	5.527363E-010	0.0045889	5
	56	83	2.504006	128997.1	-298829.2	1	325482.9	-66.65135	-9.373645E-011	0.0045724	5
	57	85	1.998082	160660.8	-347584.9	1	382919.3	-65.19267	3.83346E-010	0.0045215	5
	58	88	1.584686	198744.8	-405704.4	1	451769.3	-63.90088	1.186355E-010	0.0045282	5
	59	92	1.266892	242149	-465671.7	1	524867.9	-62.5256	4.452767E-010	0.0045304	5
	60	96	0.999041	295162.5	-541361.4	1	616598	-61.39978	-5.199291E-011	0.0045626	5
