EXPLAIN
TAG	EISPOT
TITLE	LABEL	Potentiostatic EIS	Test &Identifier
DATE	LABEL	10/18/2019	Date
TIME	LABEL	9:21:08	Time
NOTES	NOTES	1	&Notes...
	
PSTAT	PSTAT	REF600-11020	Potentiostat
VDC	POTEN	0.00000E+000	T	DC &Voltage (V)
FREQINIT	QUANT	1.00000E+006	Initial Fre&q. (Hz)
FREQFINAL	QUANT	1.00000E+000	Final Fre&q. (Hz)
PTSPERDEC	QUANT	1.00000E+001	Points/&decade
VAC	QUANT	2.50000E+001	AC &Voltage (mV rms)
AREA	QUANT	1.00000E-002	&Area (cm^2)
CONDIT	TWOPARAM	T	5.00000E+000	0.00000E+000	Conditionin&g	Time(s)	E(V)
DELAY	TWOPARAM	T	5.00000E+000	0.00000E+000	Init. De&lay	Time(s)	Stab.(mV/s)
SPEED	SELECTOR	0	&Optimize for:
ZGUESS	QUANT	1.00000E+005	E&stimated Z (ohms)
OCVCURVE	TABLE	19
	Pt	T	Vf	Vm	Ach	Over
	#	s	V vs. Ref.	V	V	bits
	0	0.258333	7.06565E-003	7.06565E-003	5.04767E-004	...........
	1	0.516667	7.06828E-003	7.20324E-003	5.05500E-004	...........
	2	0.775	7.08458E-003	7.34201E-003	5.13767E-004	...........
	3	1.03333	7.13134E-003	7.48150E-003	5.07200E-004	...........
	4	1.29167	7.21663E-003	7.61932E-003	5.06033E-004	...........
	5	1.55	7.33296E-003	7.75508E-003	5.07800E-004	...........
	6	1.80833	7.46595E-003	7.89006E-003	5.07300E-004	...........
	7	2.06667	7.60407E-003	8.01520E-003	5.10133E-004	...........
	8	2.325	7.74120E-003	8.14758E-003	5.08533E-004	...........
	9	2.58333	7.87530E-003	8.27528E-003	5.06333E-004	...........
	10	2.84167	8.00650E-003	8.39335E-003	5.12167E-004	...........
	11	3.1	8.13500E-003	8.51049E-003	5.11267E-004	...........
	12	3.35833	8.26034E-003	8.63072E-003	5.06733E-004	...........
	13	3.61667	8.38242E-003	8.74588E-003	5.08267E-004	...........
	14	3.875	8.50187E-003	8.85552E-003	5.16466E-004	...........
	15	4.13333	8.61917E-003	8.97188E-003	5.10967E-004	...........
	16	4.39167	8.73447E-003	9.07881E-003	5.12200E-004	...........
	17	4.65	8.84788E-003	9.18188E-003	5.10500E-004	...........
	18	4.90833	8.95905E-003	9.28676E-003	5.13200E-004	...........
EOC	QUANT	0.008959	Open Circuit (V)
PSTATMODEL	IQUANT	4	Pstat Model
PSTATSECTION	LABEL	REF600-11020	Pstat Section
PSTATSERIALNO	LABEL	11020	Pstat Serial Number
CTRLMODE	IQUANT	1	Control Mode
IESTAB	IQUANT	0	I/E Stability
CASPEED	IQUANT	1	Control Amp Speed
CONVENTION	IQUANT	1	Current Convention
ICHRANGE	IQUANT	2	Ich Range
ICHRANGEMODE	TOGGLE	F	Ich Auto Range
ICHOFFSETENABLE	TOGGLE	T	Ich Offset Enable
ICHOFFSET	QUANT	0	Ich Offset (V)
ICHFILTER	IQUANT	3	Ich Filter
VCHRANGE	IQUANT	2	Vch Range
VCHRANGEMODE	TOGGLE	F	Vch Auto Range
VCHOFFSETENABLE	TOGGLE	T	Vch Offset Enable
VCHOFFSET	QUANT	0	Vch Offset (V)
VCHFILTER	IQUANT	3	Vch Filter
ACHRANGE	IQUANT	2	Ach Range
ACHOFFSETENABLE	TOGGLE	F	Ach Offset Enable
ACHOFFSET	QUANT	0	Ach Offset (V)
ACHFILTER	IQUANT	3	Ach Filter
IERANGELOWERLIMIT	IQUANT	1	I/E Range Lower Limit
IERANGEMODE	TOGGLE	F	I/E AutoRange
IERANGE	IQUANT	5	I/E Range
POSFEEDENABLE	TOGGLE	F	Positive Feedback IR Comp
POSFEEDRESISTANCE	QUANT	0	Positive Feedback Resistance (ohm)
ACHSELECT	IQUANT	0	Ach Select
CABLEID	IQUANT	14	Cable ID
DCCALDATE	LABEL	8/19/2019	DC Calibration Date
ACCALDATE	LABEL	8/19/2019	AC Calibration Date
THERMOSELECT	IQUANT	1	Thermo Select
FRAMEWORKVERSION	QUANT	6.33	Framework Version
INSTRUMENTVERSION	LABEL	3.50	Instrument Version
ZCURVE	TABLE
	Pt	Time	Freq	Zreal	Zimag	Zsig	Zmod	Zphz	Idc	Vdc	IERange
	#	s	Hz	ohm	ohm	V	ohm	°	A	V	#
	0	2	1000078	2091.271	-1027.554	1	2330.082	-26.16738	-1.996807E-006	0.0111832	8
	1	2	794390.6	2267.644	-940.2325	1	2454.842	-22.52035	1.476045E-006	0.0109269	8
	2	2	630984.4	2417.813	-829.0892	1	2556.014	-18.92729	-3.55988E-006	0.0116336	8
	3	3	501234.4	2531.344	-744.7234	1	2638.62	-16.39393	1.155866E-006	0.0106549	8
	4	3	398109.4	2620.344	-647.712	1	2699.21	-13.88439	-2.816745E-006	0.0111947	8
	5	3	316265.6	2696.691	-573.9931	1	2757.102	-12.01613	8.218317E-007	0.0105	8
	6	4	251203.1	2754.839	-500.2406	1	2799.889	-10.29198	-1.156213E-006	0.0108338	8
	7	4	199546.9	2801.781	-444.2776	1	2836.787	-9.010353	-1.122371E-006	0.0107903	8
	8	4	158578.1	2850.36	-407.4459	1	2879.334	-8.135057	-2.722394E-006	0.0111471	8
	9	4	125953.1	2883.912	-325.5149	1	2902.225	-6.439872	-3.910523E-007	0.0121748	7
	10	5	100078.1	2921.231	-296.7991	1	2936.27	-5.801383	4.362282E-009	0.0106426	7
	11	5	79453.13	2947.742	-288.8422	1	2961.86	-5.596411	-6.700123E-009	0.0105869	7
	12	5	63140.62	2975.278	-286.8317	1	2989.072	-5.506583	4.063807E-009	0.0106429	7
	13	6	50203.12	3002.354	-288.9168	1	3016.223	-5.496652	5.83087E-008	0.0104466	7
	14	6	39890.62	3029.74	-295.999	1	3044.165	-5.579964	3.539311E-008	0.0105097	7
	15	6	31640.63	3058.725	-309.382	1	3074.332	-5.775676	3.680265E-008	0.0105059	7
	16	7	25171.88	3087.667	-329.9421	1	3105.246	-6.09937	1.135553E-007	0.0103808	7
	17	7	20015.62	3129.156	-352.7265	1	3148.973	-6.43138	-5.218917E-008	0.0107118	7
	18	7	15890.62	3149.777	-391.3191	1	3173.992	-7.081974	-3.662138E-008	0.0105528	7
	19	8	12609.37	3182.891	-435.9653	1	3212.61	-7.799353	1.123942E-007	0.0103738	7
	20	8	10078.13	3216.889	-488.6708	1	3253.794	-8.637643	5.992145E-008	0.0104442	7
	21	8	8015.625	3260.052	-559.1366	1	3307.654	-9.7322	-2.658254E-008	0.010592	7
	22	9	6328.125	3294.782	-647.0715	1	3357.721	-11.11107	-6.109426E-009	0.010578	7
	23	9	5015.625	3338.119	-756.0911	1	3422.676	-12.76227	6.08919E-008	0.0104387	7
	24	9	3984.375	3372.839	-889.3933	1	3488.132	-14.77222	6.169667E-008	0.0104378	7
	25	10	3170.956	3438.843	-1050.905	1	3595.837	-16.99307	-2.644657E-008	0.0105916	7
	26	10	2527.573	3498.429	-1248.319	1	3714.473	-19.63756	-8.878555E-009	0.0105596	7
	27	10	1976.103	3571.668	-1512.923	1	3878.885	-22.95703	-5.10343E-008	0.0107039	7
	28	10	1577.524	3662.951	-1849.972	1	4103.608	-26.79604	-3.223643E-008	0.0105444	7
	29	11	1265.625	3732.785	-2159.909	1	4312.644	-30.05505	3.798095E-008	0.0104983	7
	30	11	998.264	3837.907	-2628.511	1	4651.731	-34.40652	8.040426E-008	0.0104815	7
	31	11	796.875	3949.859	-3174.008	1	5067.121	-38.78449	1.146383E-007	0.010363	7
	32	12	627.7902	4096.252	-3890.293	1	5649.218	-43.52277	7.18215E-008	0.010379	7
	33	12	505.5147	4250.942	-4696.593	1	6334.706	-47.85138	6.676677E-009	0.0104846	7
	34	12	397.9953	4456.816	-5788.48	1	7305.458	-52.40568	1.87668E-009	0.0105521	7
	35	13	315.5048	4711.851	-7105.282	1	8525.642	-56.44975	1.694252E-009	0.0105529	7
	36	13	252.4038	5024.621	-8661.497	1	10013.41	-59.88155	1.98809E-009	0.0105505	7
	37	13	198.6229	5460.708	-10713.16	1	12024.6	-62.99116	-3.526832E-011	0.0104913	6
	38	14	158.3615	5995.214	-13100.73	1	14407.35	-65.41002	-8.426088E-010	0.0104854	6
	39	14	125.558	6708.672	-16078.62	1	17422.06	-67.35206	-2.721293E-010	0.010488	6
	40	14	100.4464	7616.345	-19531.2	1	20963.69	-68.6963	1.877809E-009	0.0104811	6
	41	15	79.00281	8966.834	-24056.42	1	25673.24	-69.55747	-3.975403E-011	0.0104826	6
	42	15	63.3446	10127.51	-29405.44	1	31100.58	-70.99582	-4.30916E-010	0.0104816	6
	43	15	49.86702	12342.98	-35774.93	1	37844.35	-70.96466	-6.753982E-010	0.0104794	6
	44	16	39.72458	15398.84	-43171.13	1	45835.26	-70.36903	4.617722E-011	0.0104806	6
	45	16	31.6723	19047.27	-51831.96	1	55220.93	-69.82257	-2.28746E-010	0.0104838	6
	46	16	24.93351	23686.89	-62728.59	1	67051.8	-69.313	4.538868E-010	0.0104794	6
	47	17	19.86229	29766.38	-74868.19	1	80568.5	-68.31803	9.833868E-010	0.0104763	6
	48	17	15.83615	36298.57	-87694.41	1	94909.93	-67.51431	-1.351286E-009	0.0104804	6
	49	17	12.40079	46417.06	-105493.4	1	115253.7	-66.25053	1.554844E-009	0.0104856	5
	50	18	9.93114	58848.75	-123584.4	1	136880.5	-64.53702	9.281388E-010	0.0104861	5
	51	18	7.944915	73442.15	-143794.2	1	161463.6	-62.94455	5.542572E-011	0.0104884	5
	52	19	6.317385	90501.72	-165756.8	1	188854.1	-61.36586	4.709935E-010	0.0104809	5
	53	20	5.008013	111295	-190445.7	1	220581.4	-59.6983	3.23627E-010	0.0104926	5
	54	21	3.945707	136827.2	-218390.8	1	257713.5	-57.93186	-4.634496E-010	0.0104889	5
	55	22	3.158693	162117.7	-246029.1	1	294639.5	-56.61763	-2.714497E-010	0.0104685	5
	56	24	2.504006	192305.4	-277896.8	1	337946.7	-55.31665	1.317348E-010	0.0104748	5
	57	25	1.998082	223263.7	-311765.4	1	383463.6	-54.39251	-8.266536E-011	0.0104698	5
	58	27	1.584686	259285.2	-351699.6	1	436945.6	-53.60106	-4.055378E-010	0.0104334	5
	59	29	1.266892	295384.4	-396716.8	1	494607.1	-53.32965	-3.139844E-010	0.0104516	5
	60	31	0.999041	336479.9	-451164.5	1	562821.6	-53.28431	-2.98731E-010	0.0104708	5
