EXPLAIN
TAG	EISPOT
TITLE	LABEL	Potentiostatic EIS	Test &Identifier
DATE	LABEL	10/12/2019	Date
TIME	LABEL	9:08:31	Time
NOTES	NOTES	1	&Notes...
	
PSTAT	PSTAT	REF600-11020	Potentiostat
VDC	POTEN	0.00000E+000	T	DC &Voltage (V)
FREQINIT	QUANT	1.00000E+006	Initial Fre&q. (Hz)
FREQFINAL	QUANT	1.00000E+000	Final Fre&q. (Hz)
PTSPERDEC	QUANT	1.00000E+001	Points/&decade
VAC	QUANT	2.50000E+001	AC &Voltage (mV rms)
AREA	QUANT	1.00000E-002	&Area (cm^2)
CONDIT	TWOPARAM	T	5.00000E+000	0.00000E+000	Conditionin&g	Time(s)	E(V)
DELAY	TWOPARAM	T	5.00000E+000	0.00000E+000	Init. De&lay	Time(s)	Stab.(mV/s)
SPEED	SELECTOR	1	&Optimize for:
ZGUESS	QUANT	1.00000E+004	E&stimated Z (ohms)
OCVCURVE	TABLE	19
	Pt	T	Vf	Vm	Ach	Over
	#	s	V vs. Ref.	V	V	bits
	0	0.258333	1.88621E+000	1.88621E+000	5.56299E-004	.e.........
	1	0.516667	1.86181E+000	6.09353E-001	5.54466E-004	...........
	2	0.775	1.73065E+000	3.73793E-001	5.55866E-004	...........
	3	1.03333	1.42350E+000	2.52886E-001	5.56399E-004	...........
	4	1.29167	1.00362E+000	1.91490E-001	5.55533E-004	...........
	5	1.55	6.17781E-001	7.64113E-002	5.56766E-004	...........
	6	1.80833	3.50974E-001	7.97661E-002	5.54299E-004	...........
	7	2.06667	1.97123E-001	7.07227E-002	5.54533E-004	...........
	8	2.325	1.18089E-001	4.69436E-002	5.57933E-004	...........
	9	2.58333	8.05522E-002	3.57554E-002	5.63199E-004	...........
	10	2.84167	6.13926E-002	1.29638E-002	5.57266E-004	...........
	11	3.1	4.77130E-002	2.73282E-002	5.54799E-004	.........v.
	12	3.35833	3.63234E-002	3.46139E-002	5.55399E-004	...........
	13	3.61667	2.94941E-002	4.16179E-002	5.58832E-004	...........
	14	3.875	2.89989E-002	5.08268E-002	5.54599E-004	...........
	15	4.13333	3.31109E-002	3.09566E-002	5.52099E-004	...........
	16	4.39167	3.74264E-002	2.24492E-002	5.51232E-004	...........
	17	4.65	3.77311E-002	1.58231E-002	5.58366E-004	...........
	18	4.90833	3.32366E-002	1.82199E-002	5.57466E-004	...........
EOC	QUANT	0.0332366	Open Circuit (V)
PSTATMODEL	IQUANT	4	Pstat Model
PSTATSECTION	LABEL	REF600-11020	Pstat Section
PSTATSERIALNO	LABEL	11020	Pstat Serial Number
CTRLMODE	IQUANT	1	Control Mode
IESTAB	IQUANT	0	I/E Stability
CASPEED	IQUANT	1	Control Amp Speed
CONVENTION	IQUANT	1	Current Convention
ICHRANGE	IQUANT	2	Ich Range
ICHRANGEMODE	TOGGLE	F	Ich Auto Range
ICHOFFSETENABLE	TOGGLE	T	Ich Offset Enable
ICHOFFSET	QUANT	0	Ich Offset (V)
ICHFILTER	IQUANT	3	Ich Filter
VCHRANGE	IQUANT	2	Vch Range
VCHRANGEMODE	TOGGLE	F	Vch Auto Range
VCHOFFSETENABLE	TOGGLE	T	Vch Offset Enable
VCHOFFSET	QUANT	0	Vch Offset (V)
VCHFILTER	IQUANT	3	Vch Filter
ACHRANGE	IQUANT	2	Ach Range
ACHOFFSETENABLE	TOGGLE	F	Ach Offset Enable
ACHOFFSET	QUANT	0	Ach Offset (V)
ACHFILTER	IQUANT	3	Ach Filter
IERANGELOWERLIMIT	IQUANT	1	I/E Range Lower Limit
IERANGEMODE	TOGGLE	F	I/E AutoRange
IERANGE	IQUANT	6	I/E Range
POSFEEDENABLE	TOGGLE	F	Positive Feedback IR Comp
POSFEEDRESISTANCE	QUANT	0	Positive Feedback Resistance (ohm)
ACHSELECT	IQUANT	0	Ach Select
CABLEID	IQUANT	14	Cable ID
DCCALDATE	LABEL	8/19/2019	DC Calibration Date
ACCALDATE	LABEL	8/19/2019	AC Calibration Date
THERMOSELECT	IQUANT	1	Thermo Select
FRAMEWORKVERSION	QUANT	6.33	Framework Version
INSTRUMENTVERSION	LABEL	3.50	Instrument Version
ZCURVE	TABLE
	Pt	Time	Freq	Zreal	Zimag	Zsig	Zmod	Zphz	Idc	Vdc	IERange
	#	s	Hz	ohm	ohm	V	ohm	°	A	V	#
	0	2	1000078	1430.985	-8064.771	1	8190.742	-79.93835	-2.619805E-006	0.0351348	8
	1	4	794390.6	1570.554	-9641.81	1	9768.89	-80.74834	-1.987005E-006	0.0356071	8
	2	5	630984.4	1695.019	-12151.75	1	12269.4	-82.05918	-1.818183E-006	0.0354436	8
	3	7	501234.4	1622.935	-15728.84	1	15812.35	-84.10895	-4.338598E-007	0.0347307	8
	4	8	398109.4	2622.458	-18158.25	1	18346.64	-81.78203	-7.368587E-007	0.0349301	8
	5	10	316265.6	2031.556	-23839.36	1	23925.77	-85.1291	-5.786549E-007	0.0346673	8
	6	12	251203.1	3967.081	-28293.95	1	28570.71	-82.01862	-1.913477E-006	0.0351943	8
	7	13	199546.9	4016.841	-36208.95	1	36431.07	-83.66977	-5.097993E-007	0.0346425	8
	8	15	158578.1	4063.309	-41023.71	1	41224.45	-84.34343	4.684458E-007	0.034839	8
	9	17	125953.1	6697.841	-51148.66	1	51585.33	-82.53965	-1.787792E-006	0.0385967	7
	10	18	100078.1	9579.24	-69182.16	1	69842.2	-82.11672	2.798094E-008	0.0346555	7
	11	20	79453.13	11261.09	-76735.63	1	77557.52	-81.65134	1.169373E-007	0.0345564	7
	12	21	63140.62	23754.4	-73633.98	1	77370.76	-72.12024	-1.098672E-007	0.0349025	7
	13	23	50203.12	11288.27	-124162.1	1	124674.2	-84.80521	-5.766454E-008	0.0348411	7
	14	25	39890.62	15569.8	-178322.2	1	179000.6	-85.01	-5.59877E-008	0.034764	7
	15	26	31640.63	17775.88	-193066	1	193882.6	-84.73952	-4.903679E-008	0.0347567	7
	16	28	25171.88	20014.72	-240960.7	1	241790.5	-85.25179	1.276157E-007	0.0346515	7
	17	29	20015.62	29623.08	-313296.5	1	314693.9	-84.59858	1.538637E-007	0.0345369	7
	18	31	15890.62	73606.96	-281820.2	1	291274.1	-75.36225	1.329194E-007	0.0346389	7
	19	32	12609.37	42276.42	-471974.8	1	473864.4	-84.88148	1.319699E-009	0.0346727	6
	20	34	10078.13	61715.14	-616613	1	619693.8	-84.28445	7.019504E-010	0.034869	6
	21	36	8015.625	150225	-523397.5	1	544529.6	-73.98551	1.874647E-008	0.0345773	6
	22	37	6328.125	137305.5	-855113.5	1	866066.9	-80.87788	-4.06228E-009	0.0349194	6
	23	39	5015.625	187381	-181687.8	1	261002.1	-44.11624	4.115264E-008	0.0346448	6
	24	40	3984.375	-23110.66	-1422348	1	1422536	-90.93088	3.169123E-009	0.0348857	6
	25	42	3170.956	198781.2	-1732610	1	1743975	-83.45511	-1.346759E-008	0.0349714	6
	26	44	2527.573	410475.2	-462378.3	1	618290.9	-48.40302	1.109143E-008	0.0347095	6
	27	45	1976.103	231577	-176262.6	1	291026.5	-37.27623	4.446936E-008	0.0346456	6
	28	47	1577.524	487317.1	-747392.4	1	892229.4	-56.89472	-6.209155E-009	0.0349453	6
	29	49	1265.625	713607.9	-3995208	1	4058439	-79.87286	-7.051123E-010	0.0346093	5
	30	51	998.264	1041654	-4979757	1	5087536	-78.18536	-1.299266E-009	0.0348996	5
	31	52	796.875	1433756	-5845682	1	6018941	-76.21924	2.519179E-010	0.0347106	5
	32	53	627.7902	1963789	-7319757	1	7578608	-74.98199	1.451144E-009	0.0345433	5
	33	55	505.5147	1273869	-839870.6	1	1525820	-33.39713	3.157763E-009	0.0346694	6
	34	57	397.9953	1743249	-1016525	1	2017979	-30.24736	6.755991E-010	0.0347105	5
	35	58	315.5048	2292446	-1235327	1	2604100	-28.31883	5.677777E-009	0.0347085	5
	36	59	252.4038	1819568	-927817.1	1	2042467	-27.01753	2.931065E-009	0.0347077	5
	37	61	198.6229	1.074968E+007	-1.537572E+007	1	1.876082E+007	-55.04132	-4.408472E-010	0.0347099	5
	38	62	158.3615	1.458661E+007	-1.376494E+007	1	2.005599E+007	-43.33994	-4.826402E-010	0.034711	5
	39	64	125.558	2.240894E+007	-2.290589E+007	1	3.204435E+007	-45.62831	-9.997381E-012	0.034708	4
	40	66	100.4464	1.962747E+007	-2.108564E+007	1	2.880697E+007	-47.05122	-9.568503E-011	0.0347087	4
	41	67	79.00281	7.48339E+007	2.874752E+007	1	8.016566E+007	21.01433	-4.64691E-010	0.0347111	4
	42	69	63.3446	4662862	1657100	1	4948561	19.56433	2.622109E-010	0.0347036	5
	43	71	49.86702	2.216174E+007	2894609	1	2.234997E+007	7.441443	1.854622E-010	0.034698	4
	44	73	39.72458	8.210894E+007	-1.208656E+007	1	8.299376E+007	-8.373889	3.739831E-010	0.0347039	4
	45	74	31.6723	4980604	-3182242	1	5910421	-32.57561	-4.326985E-010	0.0347083	5
	46	76	24.93351	2701020	-2002953	1	3362637	-36.55894	-4.990163E-009	0.0347101	5
	47	78	19.86229	4028347	-1368871	1	4254573	-18.76826	-2.508932E-009	0.0347169	4
	48	79	15.83615	3169952	-2677582	1	4149462	-40.18697	2.289423E-010	0.0347046	4
	49	80	12.40079	3428934	-2318306	1	4139098	-34.06267	3.929442E-011	0.0347044	4
	50	82	9.93114	3601790	-1561526	1	3925717	-23.43874	-2.00897E-009	0.0347188	4
	51	83	7.944915	7.647832E+007	-5.179612E+007	1	9.236759E+007	-34.10843	3.071111E-010	0.0347043	4
	52	85	6.317385	4.276595E+007	2638252	1	4.284725E+007	3.53013	7.062372E-010	0.0347111	4
	53	88	5.008013	3.767233E+007	-3809526	1	3.786445E+007	-5.774272	6.898164E-010	0.034688	4
	54	91	3.945707	4.262853E+007	-4868542	1	4.290564E+007	-6.515437	6.225408E-010	0.0346941	4
	55	94	3.158693	4.471158E+007	-4479884	1	4.493545E+007	-5.721664	6.216593E-010	0.0347163	4
	56	98	2.504006	1.320556E+008	-1.176922E+007	1	1.32579E+008	-5.092931	2.30578E-010	0.0346826	3
	57	102	1.998082	1.259928E+008	-6939776	1	1.261838E+008	-3.152706	1.909722E-010	0.0346408	3
	58	107	1.584686	1.328915E+008	-998749	1	1.328953E+008	-0.4305996	2.203566E-010	0.0346787	3
	59	112	1.266892	1.32166E+008	-9.903615E+006	1	1.325365E+008	-4.285345	2.112664E-010	0.0346369	3
	60	119	0.999041	1.338606E+008	-1.215676E+007	1	1.344115E+008	-5.189169	1.954803E-010	0.0347136	3
