EXPLAIN
TAG	EISPOT
TITLE	LABEL	Potentiostatic IDE	Test &Identifier
DATE	LABEL	9/10/2019	Date
TIME	LABEL	10:33:30	Time
NOTES	NOTES	1	&Notes...
	
PSTAT	PSTAT	REF600-11020	Potentiostat
VDC	POTEN	0.00000E+000	T	DC &Voltage (V)
FREQINIT	QUANT	1.00000E+006	Initial Fre&q. (Hz)
FREQFINAL	QUANT	1.00000E+000	Final Fre&q. (Hz)
PTSPERDEC	QUANT	1.00000E+001	Points/&decade
VAC	QUANT	2.50000E+001	AC &Voltage (mV rms)
AREA	QUANT	1.00000E-002	&Area (cm^2)
CONDIT	TWOPARAM	T	5.00000E+000	0.00000E+000	Conditionin&g	Time(s)	E(V)
DELAY	TWOPARAM	T	5.00000E+000	0.00000E+000	Init. De&lay	Time(s)	Stab.(mV/s)
SPEED	SELECTOR	1	&Optimize for:
ZGUESS	QUANT	1.00000E+007	E&stimated Z (ohms)
OCVCURVE	TABLE	19
	Pt	T	Vf	Vm	Ach	Over
	#	s	V vs. Ref.	V	V	bits
	0	0.258333	8.95055E-003	8.95055E-003	5.70999E-004	...........
	1	0.516667	8.95300E-003	9.07864E-003	5.70066E-004	...........
	2	0.775	8.96831E-003	9.21508E-003	5.75066E-004	...........
	3	1.03333	9.01265E-003	9.34907E-003	5.68432E-004	...........
	4	1.29167	9.09419E-003	9.48438E-003	5.77466E-004	...........
	5	1.55	9.20619E-003	9.61480E-003	5.76966E-004	...........
	6	1.80833	9.33473E-003	9.74230E-003	5.69999E-004	...........
	7	2.06667	9.46826E-003	9.86508E-003	5.70266E-004	...........
	8	2.325	9.60034E-003	9.98181E-003	5.73565E-004	...........
	9	2.58333	9.72836E-003	1.00982E-002	5.71932E-004	...........
	10	2.84167	9.85179E-003	1.02096E-002	5.75866E-004	...........
	11	3.1	9.97088E-003	1.03121E-002	5.79432E-004	...........
	12	3.35833	1.00857E-002	1.04155E-002	5.75165E-004	...........
	13	3.61667	1.01963E-002	1.05167E-002	5.72199E-004	...........
	14	3.875	1.03027E-002	1.06102E-002	5.73799E-004	...........
	15	4.13333	1.04056E-002	1.07041E-002	5.69499E-004	...........
	16	4.39167	1.05051E-002	1.07897E-002	5.69232E-004	...........
	17	4.65	1.06009E-002	1.08789E-002	5.73466E-004	...........
	18	4.90833	1.06933E-002	1.09614E-002	5.68799E-004	...........
EOC	QUANT	0.0106933	Open Circuit (V)
PSTATMODEL	IQUANT	4	Pstat Model
PSTATSECTION	LABEL	REF600-11020	Pstat Section
PSTATSERIALNO	LABEL	11020	Pstat Serial Number
CTRLMODE	IQUANT	1	Control Mode
IESTAB	IQUANT	0	I/E Stability
CASPEED	IQUANT	1	Control Amp Speed
CONVENTION	IQUANT	1	Current Convention
ICHRANGE	IQUANT	2	Ich Range
ICHRANGEMODE	TOGGLE	F	Ich Auto Range
ICHOFFSETENABLE	TOGGLE	T	Ich Offset Enable
ICHOFFSET	QUANT	0	Ich Offset (V)
ICHFILTER	IQUANT	3	Ich Filter
VCHRANGE	IQUANT	2	Vch Range
VCHRANGEMODE	TOGGLE	F	Vch Auto Range
VCHOFFSETENABLE	TOGGLE	T	Vch Offset Enable
VCHOFFSET	QUANT	0	Vch Offset (V)
VCHFILTER	IQUANT	3	Vch Filter
ACHRANGE	IQUANT	2	Ach Range
ACHOFFSETENABLE	TOGGLE	F	Ach Offset Enable
ACHOFFSET	QUANT	0	Ach Offset (V)
ACHFILTER	IQUANT	3	Ach Filter
IERANGELOWERLIMIT	IQUANT	1	I/E Range Lower Limit
IERANGEMODE	TOGGLE	F	I/E AutoRange
IERANGE	IQUANT	3	I/E Range
POSFEEDENABLE	TOGGLE	F	Positive Feedback IR Comp
POSFEEDRESISTANCE	QUANT	0	Positive Feedback Resistance (ohm)
ACHSELECT	IQUANT	0	Ach Select
CABLEID	IQUANT	14	Cable ID
DCCALDATE	LABEL	8/19/2019	DC Calibration Date
ACCALDATE	LABEL	8/19/2019	AC Calibration Date
THERMOSELECT	IQUANT	1	Thermo Select
FRAMEWORKVERSION	QUANT	6.33	Framework Version
INSTRUMENTVERSION	LABEL	3.50	Instrument Version
ZCURVE	TABLE
	Pt	Time	Freq	Zreal	Zimag	Zsig	Zmod	Zphz	Idc	Vdc	IERange
	#	s	Hz	ohm	ohm	V	ohm	°	A	V	#
	0	2	1000078	1801.088	-2323.694	1	2939.978	-52.22084	-3.041487E-006	0.0131151	8
	1	3	794390.6	2011.82	-2656.666	1	3332.46	-52.86435	7.236134E-007	0.0129393	8
	2	5	630984.4	2259.394	-3072.643	1	3813.922	-53.67199	-2.357916E-006	0.0129639	8
	3	6	501234.4	2501.386	-3556.379	1	4347.961	-54.87929	4.618487E-008	0.0126512	8
	4	7	398109.4	2827.859	-4169.222	1	5037.777	-55.85212	-2.594133E-006	0.0130089	8
	5	9	316265.6	3210.611	-4847.363	1	5814.203	-56.48183	-2.392533E-006	0.0129544	8
	6	10	251203.1	3699.352	-5740.674	1	6829.388	-57.20183	2.079131E-006	0.0120156	8
	7	12	199546.9	4302.441	-6699.055	1	7961.679	-57.28955	-9.074604E-007	0.0127134	8
	8	14	158578.1	5170.178	-7808.551	1	9365.053	-56.49076	1.932113E-006	0.0120161	8
	9	15	125953.1	6249.038	-9090.027	1	11030.82	-55.493	1.040147E-006	0.0100496	7
	10	17	100078.1	7521.266	-10477.14	1	12897.28	-54.32641	8.199359E-009	0.0123282	7
	11	18	79453.13	9179.029	-12011.81	1	15117.48	-52.61413	7.079477E-008	0.0123429	7
	12	20	63140.62	11256.24	-13445.22	1	17535.02	-50.06417	9.637388E-009	0.0123179	7
	13	21	50203.12	13682.38	-14776.38	1	20138.24	-47.20146	-1.765241E-008	0.0124184	7
	14	22	39890.62	16453.48	-15956.69	1	22920.14	-44.12184	-3.562016E-008	0.012409	7
	15	24	31640.63	19630.7	-16612.13	1	25716.29	-40.23897	-3.382976E-008	0.0123807	7
	16	25	25171.88	22808.38	-16895.88	1	28384.73	-36.53013	-3.412824E-008	0.0123795	7
	17	26	20015.62	25967.36	-16735.68	1	30893.15	-32.80134	-1.69981E-008	0.0124348	7
	18	27	15890.62	28966.58	-16248.55	1	33212.63	-29.28986	6.869405E-008	0.0122197	7
	19	29	12609.37	31831.7	-15282.06	1	35310.04	-25.64517	4.307019E-009	0.0123408	6
	20	30	10078.13	34101.36	-14614.71	1	37101.11	-23.19837	1.559482E-009	0.0122207	6
	21	31	8015.625	36117.25	-13599.46	1	38592.77	-20.63319	-4.051548E-009	0.0124444	6
	22	33	6328.125	37952.25	-12835.54	1	40064	-18.68567	-4.766483E-009	0.0123298	6
	23	34	5015.625	39583.77	-12197.11	1	41420.34	-17.12585	-7.11678E-009	0.0123987	6
	24	36	3984.375	41035.23	-11725.23	1	42677.53	-15.94654	6.742011E-009	0.0121347	6
	25	37	3170.956	42408.48	-11375.4	1	43907.62	-15.01522	3.301262E-009	0.0121438	6
	26	38	2527.573	43631.88	-11179.63	1	45041.38	-14.3715	1.775598E-009	0.012216	6
	27	40	1976.103	44978.77	-11182.1	1	46347.91	-13.96117	3.42893E-009	0.0123341	6
	28	41	1577.524	46065.31	-11435.94	1	47463.6	-13.9421	-4.230792E-009	0.0124381	6
	29	42	1265.625	47253.8	-11768.68	1	48697.27	-13.98514	1.403246E-008	0.0121184	6
	30	44	998.264	48478.82	-12360.05	1	50029.66	-14.30328	7.349584E-009	0.012255	6
	31	45	796.875	49656.37	-13138.83	1	51365.2	-14.82055	2.770718E-009	0.0123356	6
	32	46	627.7902	50894.24	-14315.7	1	52869.3	-15.71041	-9.679495E-009	0.0123855	6
	33	48	505.5147	51997.28	-16093.24	1	54430.78	-17.19738	6.593074E-009	0.0121212	6
	34	49	397.9953	53446.98	-17588.99	1	56266.79	-18.21598	4.489193E-010	0.0123201	6
	35	50	315.5048	54857.59	-19970.77	1	58379.68	-20.00391	8.790145E-011	0.0123148	6
	36	51	252.4038	56323.4	-22780.93	1	60756.04	-22.02169	4.480956E-011	0.0123166	6
	37	53	198.6229	58100.07	-26559.34	1	63882.84	-24.5666	2.871264E-010	0.0123166	6
	38	54	158.3615	59975.82	-30998.47	1	67512.99	-27.33216	5.399258E-010	0.0123184	6
	39	55	125.558	62249.62	-36508.56	1	72165.71	-30.39104	2.701443E-010	0.0123205	6
	40	57	100.4464	64744.82	-43069.99	1	77761.91	-33.63292	4.567671E-010	0.0123208	6
	41	58	79.00281	68267.84	-51323.92	1	85408.68	-36.93593	2.779825E-010	0.0123214	6
	42	60	63.3446	71010.41	-59866.57	1	92878.88	-40.13315	3.434446E-010	0.0123158	6
	43	61	49.86702	77194.43	-72790.56	1	106101.1	-43.31816	4.551959E-010	0.0123173	5
	44	62	39.72458	81859.45	-86614.66	1	119176.6	-46.61676	-1.084016E-010	0.0123248	5
	45	64	31.6723	89141.15	-102772.9	1	136045.6	-49.06292	5.338761E-010	0.0123226	5
	46	65	24.93351	97823.6	-123832.6	1	157809.9	-51.69246	-7.704971E-011	0.0123223	5
	47	66	19.86229	108448.6	-147443.7	1	183032.1	-53.66457	3.604979E-010	0.0123294	5
	48	68	15.83615	120673	-173656.8	1	211467.9	-55.20481	3.396382E-010	0.0123219	5
	49	69	12.40079	140586.7	-210229	1	252904.8	-56.22812	3.952136E-010	0.0123238	5
	50	70	9.93114	159315.4	-246273.9	1	293312.5	-57.10104	2.875275E-010	0.0123265	5
	51	72	7.944915	184599.6	-288718.4	1	342688.3	-57.40613	2.337649E-010	0.012325	5
	52	73	6.317385	214998.5	-338119.9	1	400686.2	-57.54916	2.602611E-010	0.0123131	5
	53	76	5.008013	253783.2	-395152.7	1	469629.2	-57.28976	-7.046792E-011	0.0123202	5
	54	78	3.945707	299440.6	-460385.4	1	549198.9	-56.95951	1.887664E-010	0.0123258	5
	55	81	3.158693	353042.1	-530404.3	1	637155.8	-56.35189	-1.27602E-010	0.0123052	5
	56	84	2.504006	417144.5	-611287.2	1	740055.1	-55.69024	2.255168E-010	0.012321	5
	57	87	1.998082	491388.4	-697671.9	1	853351.4	-54.84197	1.387277E-010	0.0123586	5
	58	90	1.584686	577471.8	-795037.6	1	982628	-54.0074	1.054448E-010	0.0122948	5
	59	93	1.266892	678955.1	-903348.1	1	1130052	-53.07153	8.801113E-011	0.0123531	4
	60	98	0.999041	802352.1	-1024298	1	1301136	-51.92772	-8.23514E-011	0.0122745	4
