EXPLAIN
TAG	EISPOT
TITLE	LABEL	Potentiostatic EIS	Test &Identifier
DATE	LABEL	11/15/2019	Date
TIME	LABEL	11:16:59	Time
NOTES	NOTES	4	&Notes...
	
	
	
	
PSTAT	PSTAT	REF600-11020	Potentiostat
VDC	POTEN	0.00000E+000	T	DC &Voltage (V)
FREQINIT	QUANT	1.00000E+006	Initial Fre&q. (Hz)
FREQFINAL	QUANT	1.00000E+000	Final Fre&q. (Hz)
PTSPERDEC	QUANT	1.00000E+001	Points/&decade
VAC	QUANT	2.50000E+001	AC &Voltage (mV rms)
AREA	QUANT	1.00000E-002	&Area (cm^2)
CONDIT	TWOPARAM	T	5.00000E+000	0.00000E+000	Conditionin&g	Time(s)	E(V)
DELAY	TWOPARAM	T	5.00000E+000	0.00000E+000	Init. De&lay	Time(s)	Stab.(mV/s)
SPEED	SELECTOR	0	&Optimize for:
ZGUESS	QUANT	1.00000E+005	E&stimated Z (ohms)
OCVCURVE	TABLE	19
	Pt	T	Vf	Vm	Ach	Over
	#	s	V vs. Ref.	V	V	bits
	0	0.258333	7.20290E-003	7.20290E-003	6.16365E-004	...........
	1	0.516667	7.20312E-003	7.21408E-003	6.08732E-004	...........
	2	0.775	7.20496E-003	7.25255E-003	6.10032E-004	...........
	3	1.03333	7.21203E-003	7.29411E-003	6.11098E-004	...........
	4	1.29167	7.22835E-003	7.32573E-003	6.10132E-004	...........
	5	1.55	7.25475E-003	7.37388E-003	6.04098E-004	...........
	6	1.80833	7.28911E-003	7.43162E-003	6.12132E-004	...........
	7	2.06667	7.32952E-003	7.47394E-003	6.20732E-004	...........
	8	2.325	7.37471E-003	7.52625E-003	6.10565E-004	...........
	9	2.58333	7.42296E-003	7.58244E-003	6.05665E-004	...........
	10	2.84167	7.47317E-003	7.64344E-003	6.15032E-004	...........
	11	3.1	7.52562E-003	7.69960E-003	6.13932E-004	...........
	12	3.35833	7.58066E-003	7.76091E-003	6.04298E-004	...........
	13	3.61667	7.63777E-003	7.81545E-003	6.08332E-004	...........
	14	3.875	7.69586E-003	7.87341E-003	6.05565E-004	...........
	15	4.13333	7.75386E-003	7.92628E-003	6.11265E-004	...........
	16	4.39167	7.81109E-003	7.98294E-003	6.05365E-004	...........
	17	4.65	7.86727E-003	8.03180E-003	6.01965E-004	...........
	18	4.90833	7.92233E-003	8.08795E-003	6.02965E-004	...........
EOC	QUANT	0.0079223	Open Circuit (V)
PSTATMODEL	IQUANT	4	Pstat Model
PSTATSECTION	LABEL	REF600-11020	Pstat Section
PSTATSERIALNO	LABEL	11020	Pstat Serial Number
CTRLMODE	IQUANT	1	Control Mode
IESTAB	IQUANT	0	I/E Stability
CASPEED	IQUANT	1	Control Amp Speed
CONVENTION	IQUANT	1	Current Convention
ICHRANGE	IQUANT	2	Ich Range
ICHRANGEMODE	TOGGLE	F	Ich Auto Range
ICHOFFSETENABLE	TOGGLE	T	Ich Offset Enable
ICHOFFSET	QUANT	0	Ich Offset (V)
ICHFILTER	IQUANT	3	Ich Filter
VCHRANGE	IQUANT	2	Vch Range
VCHRANGEMODE	TOGGLE	F	Vch Auto Range
VCHOFFSETENABLE	TOGGLE	T	Vch Offset Enable
VCHOFFSET	QUANT	0	Vch Offset (V)
VCHFILTER	IQUANT	3	Vch Filter
ACHRANGE	IQUANT	2	Ach Range
ACHOFFSETENABLE	TOGGLE	F	Ach Offset Enable
ACHOFFSET	QUANT	0	Ach Offset (V)
ACHFILTER	IQUANT	3	Ach Filter
IERANGELOWERLIMIT	IQUANT	1	I/E Range Lower Limit
IERANGEMODE	TOGGLE	F	I/E AutoRange
IERANGE	IQUANT	5	I/E Range
POSFEEDENABLE	TOGGLE	F	Positive Feedback IR Comp
POSFEEDRESISTANCE	QUANT	0	Positive Feedback Resistance (ohm)
ACHSELECT	IQUANT	0	Ach Select
CABLEID	IQUANT	14	Cable ID
DCCALDATE	LABEL	8/19/2019	DC Calibration Date
ACCALDATE	LABEL	8/19/2019	AC Calibration Date
THERMOSELECT	IQUANT	1	Thermo Select
FRAMEWORKVERSION	QUANT	6.33	Framework Version
INSTRUMENTVERSION	LABEL	3.50	Instrument Version
ZCURVE	TABLE
	Pt	Time	Freq	Zreal	Zimag	Zsig	Zmod	Zphz	Idc	Vdc	IERange
	#	s	Hz	ohm	ohm	V	ohm	°	A	V	#
	0	1	1000078	2041.389	-1433.526	1	2494.447	-35.07771	-2.562885E-006	0.0110577	8
	1	2	794390.6	2315.176	-1391.152	1	2700.989	-31.00098	6.290031E-007	0.0094985	8
	2	2	630984.4	2566.176	-1317.768	1	2884.748	-27.18115	-1.467808E-007	0.0093533	8
	3	2	501234.4	2778.783	-1218.572	1	3034.231	-23.67876	6.944515E-006	0.0083826	8
	4	3	398109.4	2969.999	-1116.05	1	3172.769	-20.59495	-1.345441E-006	0.0092818	8
	5	3	316265.6	3122.327	-1008.298	1	3281.096	-17.8969	-2.685769E-006	0.0094983	8
	6	3	251203.1	3244.537	-908.4108	1	3369.307	-15.64127	-2.709618E-007	0.0100219	8
	7	4	199546.9	3351.351	-829.1468	1	3452.396	-13.89631	-4.535692E-006	0.0098938	8
	8	4	158578.1	3442.527	-758.5022	1	3525.099	-12.42561	7.604284E-007	0.0099588	8
	9	4	125953.1	3537.565	-664.2199	1	3599.383	-10.63415	-2.489205E-006	0.0131902	7
	10	4	100078.1	3604.533	-632.8311	1	3659.663	-9.95767	8.606306E-007	0.0092856	7
	11	5	79453.13	3668.399	-617.3625	1	3719.985	-9.55291	-6.344591E-007	0.0111613	7
	12	5	63140.62	3732.613	-613.598	1	3782.71	-9.335265	-7.529425E-007	0.009361	7
	13	5	50203.12	3797.309	-618.4492	1	3847.341	-9.250267	-9.198058E-007	0.0112483	7
	14	6	39890.62	3867.692	-636.5112	1	3919.718	-9.345474	1.006771E-006	0.0077743	7
	15	6	31640.63	3932.586	-662.0319	1	3987.922	-9.55587	-7.576134E-007	0.009355	7
	16	6	25171.88	4006.347	-701.5732	1	4067.312	-9.93266	1.138147E-006	0.0083278	7
	17	7	20015.62	4079.739	-751.1677	1	4148.315	-10.43254	6.386925E-007	0.0097091	7
	18	7	15890.62	4157.617	-811.4846	1	4236.07	-11.04416	-1.266495E-006	0.0110168	7
	19	7	12609.37	4245.064	-886.3303	1	4336.606	-11.79341	-3.214618E-007	0.0086376	7
	20	8	10078.13	4332.818	-975.967	1	4441.376	-12.69401	-1.260212E-006	0.0106349	7
	21	8	8015.625	4436.155	-1081.236	1	4566.021	-13.69778	4.95462E-007	0.0077929	7
	22	8	6328.125	4545.38	-1216.684	1	4705.401	-14.98533	8.606493E-007	0.0092725	7
	23	9	5015.625	4654.9	-1370.077	1	4852.34	-16.40074	-1.258399E-006	0.0106325	7
	24	9	3984.375	4776.391	-1556.754	1	5023.684	-18.05218	1.141413E-007	0.0081031	7
	25	9	3170.956	4898.241	-1777.51	1	5210.787	-19.9452	-2.92736E-007	0.0108932	7
	26	10	2527.573	5030.661	-2049.714	1	5432.207	-22.16816	1.007413E-006	0.0077638	7
	27	10	1976.103	5177.843	-2408.33	1	5710.526	-24.94418	4.968997E-007	0.0077894	7
	28	10	1577.524	5316.368	-2835.822	1	6025.417	-28.07606	1.135543E-006	0.008317	7
	29	11	1265.625	5468.104	-3309.212	1	6391.483	-31.18168	8.103994E-008	0.0104791	7
	30	11	998.264	5647.337	-3974.11	1	6905.503	-35.13459	7.955194E-007	0.0076751	7
	31	11	796.875	5840	-4741.431	1	7522.417	-39.07276	-2.873144E-007	0.0108819	7
	32	12	627.7902	6078.975	-5771.963	1	8382.69	-43.51602	1.048267E-006	0.0087589	7
	33	12	505.5147	6341.309	-6904.553	1	9374.702	-47.43488	6.38011E-007	0.0097	7
	34	12	397.9953	6685.208	-8449.499	1	10774.32	-51.64911	3.67706E-009	0.009525	7
	35	13	315.5048	7102.16	-10301.65	1	12512.58	-55.41685	-9.210507E-011	0.0094577	6
	36	13	252.4038	7593.118	-12477.59	1	14606.35	-58.67779	-6.638246E-010	0.0094695	6
	37	13	198.6229	8244.63	-15335.67	1	17411.4	-61.73703	8.769916E-010	0.009458	6
	38	14	158.3615	9020.179	-18659.68	1	20725.52	-64.20065	-3.338554E-010	0.0094615	6
	39	14	125.558	10021.11	-22795.28	1	24900.75	-66.26906	6.803936E-010	0.0094644	6
	40	14	100.4464	11191.39	-27671.72	1	29849.15	-67.9799	-2.604179E-011	0.0094543	6
	41	15	79.00281	12917.5	-33939.21	1	36314.35	-69.16282	-1.634847E-010	0.0094645	6
	42	15	63.3446	14902.99	-41739.72	1	44320.46	-70.3511	-1.165003E-010	0.0094488	6
	43	15	49.86702	17605.9	-51010.25	1	53963.07	-70.95818	1.093186E-009	0.0094522	6
	44	16	39.72458	21403.82	-61459.71	1	65080.11	-70.79893	4.997512E-010	0.0094568	6
	45	16	31.6723	26193.21	-74373.09	1	78850.75	-70.59842	1.33083E-009	0.0094518	6
	46	16	24.93351	32674.19	-90425.93	1	96148.1	-70.13336	-2.651009E-010	0.0094493	6
	47	17	19.86229	40863.74	-108576.7	1	116011.8	-69.37576	-1.335499E-009	0.0094542	5
	48	17	15.83615	53016.81	-128078.6	1	138617.9	-67.5134	-1.905211E-009	0.0094575	5
	49	17	12.40079	65723.16	-154819.9	1	168192.5	-66.99811	1.445122E-009	0.0094658	5
	50	18	9.93114	85012.97	-181247.5	1	200194.5	-64.87138	6.676777E-010	0.0094689	5
	51	18	7.944915	107999.9	-209825.2	1	235988.5	-62.7645	3.412476E-010	0.0094512	5
	52	19	6.317385	134823.6	-242039.6	1	277056.9	-60.88083	6.138675E-010	0.0094525	5
	53	19	5.008013	168400.3	-276194	1	323483.9	-58.62861	3.91464E-011	0.0094598	5
	54	21	3.945707	205965.8	-312920.3	1	374621.2	-56.64688	1.282682E-010	0.0094564	5
	55	22	3.158693	245868.8	-348580.9	1	426567.8	-54.80307	-2.855568E-010	0.0094556	5
	56	24	2.504006	290053.6	-387904.6	1	484356.3	-53.21289	-6.29586E-011	0.0094459	5
	57	25	1.998082	334255.6	-430269.8	1	544847.6	-52.15811	7.992727E-011	0.0094859	5
	58	26	1.584686	381206	-478168.6	1	611525.3	-51.43742	-6.402026E-011	0.0094363	5
	59	28	1.266892	429555.8	-533450	1	684899.3	-51.15756	-1.346853E-010	0.0094124	5
	60	31	0.999041	482532.2	-605960.3	1	774612.9	-51.46934	-1.56204E-010	0.0094074	5
