EXPLAIN
TAG	EISPOT
TITLE	LABEL	Potentiostatic EIS	Test &Identifier
DATE	LABEL	11/12/2019	Date
TIME	LABEL	23:17:37	Time
NOTES	NOTES	3	&Notes...
	
	
	
PSTAT	PSTAT	REF600-11020	Potentiostat
VDC	POTEN	0.00000E+000	T	DC &Voltage (V)
FREQINIT	QUANT	1.00000E+006	Initial Fre&q. (Hz)
FREQFINAL	QUANT	1.00000E+000	Final Fre&q. (Hz)
PTSPERDEC	QUANT	1.00000E+001	Points/&decade
VAC	QUANT	2.50000E+001	AC &Voltage (mV rms)
AREA	QUANT	1.00000E-002	&Area (cm^2)
CONDIT	TWOPARAM	T	5.00000E+000	0.00000E+000	Conditionin&g	Time(s)	E(V)
DELAY	TWOPARAM	T	5.00000E+000	0.00000E+000	Init. De&lay	Time(s)	Stab.(mV/s)
SPEED	SELECTOR	1	&Optimize for:
ZGUESS	QUANT	1.00000E+005	E&stimated Z (ohms)
OCVCURVE	TABLE	19
	Pt	T	Vf	Vm	Ach	Over
	#	s	V vs. Ref.	V	V	bits
	0	0.258333	4.63356E-003	4.63356E-003	5.52466E-004	...........
	1	0.516667	4.64585E-003	5.27674E-003	5.52733E-004	...........
	2	0.775	4.72756E-003	6.21417E-003	5.49799E-004	...........
	3	1.03333	4.96969E-003	6.59905E-003	5.47199E-004	...........
	4	1.29167	5.40776E-003	7.35917E-003	5.46666E-004	...........
	5	1.55	5.96086E-003	6.76239E-003	5.47666E-004	...........
	6	1.80833	6.45968E-003	6.52869E-003	5.47099E-004	...........
	7	2.06667	6.75056E-003	6.84087E-003	5.46299E-004	...........
	8	2.325	6.81302E-003	6.16671E-003	5.44833E-004	...........
	9	2.58333	6.72184E-003	5.80641E-003	5.48266E-004	...........
	10	2.84167	6.54935E-003	6.95101E-003	5.45199E-004	...........
	11	3.1	6.39591E-003	6.29146E-003	5.41633E-004	...........
	12	3.35833	6.34411E-003	6.06229E-003	5.46233E-004	...........
	13	3.61667	6.29570E-003	3.66486E-003	5.48699E-004	...........
	14	3.875	6.04077E-003	5.25605E-003	5.46933E-004	...........
	15	4.13333	5.56878E-003	4.70821E-003	5.50833E-004	...........
	16	4.39167	5.12135E-003	4.88038E-003	5.51066E-004	...........
	17	4.65	4.88225E-003	5.08865E-003	5.49199E-004	...........
	18	4.90833	4.83831E-003	5.23099E-003	5.50399E-004	...........
EOC	QUANT	0.0048383	Open Circuit (V)
PSTATMODEL	IQUANT	4	Pstat Model
PSTATSECTION	LABEL	REF600-11020	Pstat Section
PSTATSERIALNO	LABEL	11020	Pstat Serial Number
CTRLMODE	IQUANT	1	Control Mode
IESTAB	IQUANT	0	I/E Stability
CASPEED	IQUANT	1	Control Amp Speed
CONVENTION	IQUANT	1	Current Convention
ICHRANGE	IQUANT	2	Ich Range
ICHRANGEMODE	TOGGLE	F	Ich Auto Range
ICHOFFSETENABLE	TOGGLE	T	Ich Offset Enable
ICHOFFSET	QUANT	0	Ich Offset (V)
ICHFILTER	IQUANT	3	Ich Filter
VCHRANGE	IQUANT	2	Vch Range
VCHRANGEMODE	TOGGLE	F	Vch Auto Range
VCHOFFSETENABLE	TOGGLE	T	Vch Offset Enable
VCHOFFSET	QUANT	0	Vch Offset (V)
VCHFILTER	IQUANT	3	Vch Filter
ACHRANGE	IQUANT	2	Ach Range
ACHOFFSETENABLE	TOGGLE	F	Ach Offset Enable
ACHOFFSET	QUANT	0	Ach Offset (V)
ACHFILTER	IQUANT	3	Ach Filter
IERANGELOWERLIMIT	IQUANT	1	I/E Range Lower Limit
IERANGEMODE	TOGGLE	F	I/E AutoRange
IERANGE	IQUANT	4	I/E Range
POSFEEDENABLE	TOGGLE	F	Positive Feedback IR Comp
POSFEEDRESISTANCE	QUANT	0	Positive Feedback Resistance (ohm)
ACHSELECT	IQUANT	0	Ach Select
CABLEID	IQUANT	14	Cable ID
DCCALDATE	LABEL	8/19/2019	DC Calibration Date
ACCALDATE	LABEL	8/19/2019	AC Calibration Date
THERMOSELECT	IQUANT	1	Thermo Select
FRAMEWORKVERSION	QUANT	6.33	Framework Version
INSTRUMENTVERSION	LABEL	3.50	Instrument Version
ZCURVE	TABLE
	Pt	Time	Freq	Zreal	Zimag	Zsig	Zmod	Zphz	Idc	Vdc	IERange
	#	s	Hz	ohm	ohm	V	ohm	°	A	V	#
	0	1	1000078	2082.75	-1860.781	1	2792.911	-41.77839	4.654148E-006	0.0068965	8
	1	3	794390.6	2459.283	-1895.184	1	3104.802	-37.61873	-3.485454E-006	0.0063852	8
	2	4	630984.4	2838.441	-1866.937	1	3397.382	-33.33424	5.053508E-006	0.0064514	8
	3	5	501234.4	3181.294	-1807.837	1	3659.085	-29.60831	5.348507E-006	0.0052828	8
	4	7	398109.4	3489.917	-1705.595	1	3884.401	-26.04572	-6.100309E-006	0.0071775	8
	5	8	316265.6	3765.814	-1586.525	1	4086.37	-22.84553	1.707189E-007	0.0060645	8
	6	10	251203.1	4021.623	-1447.838	1	4274.306	-19.79955	6.465546E-006	0.0056052	8
	7	11	199546.9	4215.936	-1305.396	1	4413.408	-17.20429	-7.082912E-007	0.0060401	8
	8	12	158578.1	4391.881	-1179.698	1	4547.561	-15.03526	-1.373057E-006	0.0061121	8
	9	14	125953.1	4556.475	-1011.226	1	4667.337	-12.51294	2.045813E-006	0.006256	7
	10	15	100078.1	4660.352	-893.3533	1	4745.204	-10.85152	1.132943E-007	0.0049509	7
	11	16	79453.13	4756.327	-819.4752	1	4826.405	-9.77561	5.967133E-007	0.0064729	7
	12	18	63140.62	4828.066	-751.7743	1	4886.245	-8.85041	-6.013187E-007	0.0078193	7
	13	19	50203.12	4904.992	-704.447	1	4955.319	-8.172841	1.077123E-006	0.0051548	7
	14	21	39890.62	4954.644	-673.1626	1	5000.165	-7.737114	-7.115447E-007	0.0061153	7
	15	22	31640.63	5013.729	-659.8987	1	5056.969	-7.498077	-7.076613E-007	0.0061081	7
	16	23	25171.88	5068.649	-664.3121	1	5111.998	-7.466794	-8.681879E-007	0.0078971	7
	17	25	20015.62	5133.208	-685.2869	1	5178.749	-7.604066	-2.793498E-007	0.0075801	7
	18	26	15890.62	5188.127	-726.7499	1	5238.781	-7.974075	7.613639E-007	0.0045335	7
	19	27	12609.37	5241.066	-779.6677	1	5298.741	-8.461341	-2.789498E-007	0.0075755	7
	20	29	10078.13	5304.636	-859.958	1	5373.89	-9.208361	7.172773E-008	0.0071934	7
	21	30	8015.625	5365.195	-962.404	1	5450.83	-10.16951	-2.786888E-007	0.0075811	7
	22	32	6328.125	5445.89	-1097.906	1	5555.458	-11.39821	9.594487E-007	0.0046032	7
	23	33	5015.625	5510.805	-1258.942	1	5652.779	-12.86838	-1.182396E-006	0.0073142	7
	24	34	3984.375	5605.804	-1474.593	1	5796.504	-14.73765	1.077696E-006	0.0051413	7
	25	36	3170.956	5700.72	-1724.497	1	5955.846	-16.83084	1.064655E-006	0.00482	7
	26	37	2527.573	5787.204	-2027.232	1	6131.998	-19.30513	-1.018E-006	0.0067578	7
	27	39	1976.103	5918.793	-2449.417	1	6405.604	-22.4816	4.749124E-007	0.00463	7
	28	40	1577.524	6083.172	-2918.035	1	6746.844	-25.62655	1.05449E-006	0.0048388	7
	29	42	1265.625	6203.229	-3471.166	1	7108.378	-29.23024	-1.007694E-006	0.0067605	7
	30	43	998.264	6400.098	-4199.924	1	7655.104	-33.27401	-7.033414E-007	0.0061114	7
	31	45	796.875	6634.843	-5056.243	1	8341.866	-37.31009	3.798322E-007	0.006773	7
	32	46	627.7902	6912.883	-6150.143	1	9252.687	-41.65834	-1.174047E-006	0.0073036	7
	33	48	505.5147	7230.365	-7378.502	1	10330.56	-45.58097	4.65002E-007	0.0046436	7
	34	49	397.9953	7651.336	-9003.064	1	11815.17	-49.64015	9.885801E-010	0.0062165	6
	35	50	315.5048	8146.787	-10947.87	1	13646.47	-53.34547	7.36942E-010	0.0062205	6
	36	52	252.4038	8733.848	-13223.01	1	15847.02	-56.55509	1.119989E-009	0.0062232	6
	37	53	198.6229	9519.15	-16211.38	1	18799.55	-59.57899	1.119402E-009	0.0062191	6
	38	55	158.3615	10461.78	-19675.06	1	22283.55	-61.99918	7.551136E-010	0.0062166	6
	39	56	125.558	11706.97	-23977.44	1	26682.78	-63.97608	1.152484E-009	0.0062178	6
	40	57	100.4464	13229.15	-28984.21	1	31860.55	-65.46681	6.834189E-010	0.0062159	6
	41	59	79.00281	15479.1	-35594.23	1	38814.32	-66.4969	2.377994E-011	0.0062145	6
	42	60	63.3446	17785	-42681.5	1	46238.7	-67.37894	4.838881E-010	0.0062101	6
	43	62	49.86702	22205.26	-51678.83	1	56247.45	-66.74786	3.8958E-010	0.0062144	6
	44	63	39.72458	26852.32	-62173.98	1	67724.82	-66.64097	6.577784E-010	0.0062222	6
	45	64	31.6723	33113.32	-73923.72	1	81001.28	-65.87053	1.591845E-010	0.0062129	6
	46	66	24.93351	41686.8	-88322.85	1	97666.4	-64.73353	-3.944836E-011	0.0062153	6
	47	67	19.86229	51873.28	-103303.5	1	115596.1	-63.33675	1.091234E-009	0.0062093	5
	48	69	15.83615	64758.61	-119154.6	1	135615.2	-61.47663	4.251912E-011	0.0062174	5
	49	70	12.40079	79974.5	-139452.7	1	160757.5	-60.16622	-5.322288E-012	0.006214	5
	50	71	9.93114	97617.2	-159233.1	1	186773.4	-58.48979	6.194134E-010	0.006213	5
	51	73	7.944915	117961.8	-179541.3	1	214825.6	-56.69439	2.881203E-010	0.0062189	5
	52	75	6.317385	140377.9	-202374	1	246295	-55.25267	-3.426467E-011	0.0062235	5
	53	77	5.008013	165857.1	-227376.6	1	281440.4	-53.89157	-1.427237E-011	0.006203	5
	54	79	3.945707	194277.4	-255280.6	1	320798.9	-52.72761	3.886624E-010	0.0062163	5
	55	82	3.158693	222656.8	-284775.8	1	361487.6	-51.97932	-1.022169E-010	0.0062046	5
	56	85	2.504006	254449.9	-319766.6	1	408650.7	-51.48946	8.223679E-011	0.0062233	5
	57	88	1.998082	286827.4	-358804.8	1	459359.2	-51.36126	3.128123E-010	0.0061788	5
	58	91	1.584686	322520.2	-407289.3	1	519522.8	-51.62535	-5.614341E-011	0.0062079	5
	59	95	1.266892	361190.8	-461845.5	1	586310.5	-51.97247	8.466985E-011	0.0061744	5
	60	99	0.999041	405985.8	-531220.9	1	668595.6	-52.61112	1.456994E-010	0.0062634	5
