EXPLAIN
TAG	EISPOT
TITLE	LABEL	Potentiostatic IDE	Test &Identifier
DATE	LABEL	9/10/2019	Date
TIME	LABEL	10:07:06	Time
NOTES	NOTES	1	&Notes...
	
PSTAT	PSTAT	REF600-11020	Potentiostat
VDC	POTEN	0.00000E+000	T	DC &Voltage (V)
FREQINIT	QUANT	1.00000E+006	Initial Fre&q. (Hz)
FREQFINAL	QUANT	1.00000E+000	Final Fre&q. (Hz)
PTSPERDEC	QUANT	1.00000E+001	Points/&decade
VAC	QUANT	2.50000E+001	AC &Voltage (mV rms)
AREA	QUANT	1.00000E-002	&Area (cm^2)
CONDIT	TWOPARAM	T	5.00000E+000	0.00000E+000	Conditionin&g	Time(s)	E(V)
DELAY	TWOPARAM	T	5.00000E+000	0.00000E+000	Init. De&lay	Time(s)	Stab.(mV/s)
SPEED	SELECTOR	1	&Optimize for:
ZGUESS	QUANT	1.00000E+007	E&stimated Z (ohms)
OCVCURVE	TABLE	19
	Pt	T	Vf	Vm	Ach	Over
	#	s	V vs. Ref.	V	V	bits
	0	0.258333	4.50935E-003	4.50935E-003	5.63932E-004	...........
	1	0.516667	4.50634E-003	4.35178E-003	5.60666E-004	...........
	2	0.775	4.48779E-003	4.19865E-003	5.62566E-004	...........
	3	1.03333	4.43478E-003	4.03761E-003	5.58299E-004	...........
	4	1.29167	4.33883E-003	3.90977E-003	5.61799E-004	...........
	5	1.55	4.20999E-003	3.75891E-003	5.62966E-004	...........
	6	1.80833	4.06647E-003	3.64476E-003	5.62199E-004	...........
	7	2.06667	3.92289E-003	3.54404E-003	5.61466E-004	...........
	8	2.325	3.78822E-003	3.45331E-003	5.57566E-004	...........
	9	2.58333	3.66708E-003	3.36475E-003	5.59332E-004	...........
	10	2.84167	3.55971E-003	3.28341E-003	5.64699E-004	...........
	11	3.1	3.46342E-003	3.20619E-003	5.63366E-004	...........
	12	3.35833	3.37509E-003	3.13112E-003	5.61366E-004	...........
	13	3.61667	3.29248E-003	3.06228E-003	5.62366E-004	...........
	14	3.875	3.21432E-003	2.99148E-003	5.57799E-004	...........
	15	4.13333	3.13977E-003	2.92523E-003	5.56266E-004	...........
	16	4.39167	3.06813E-003	2.86017E-003	5.55699E-004	...........
	17	4.65	2.99884E-003	2.79558E-003	5.54599E-004	...........
	18	4.90833	2.93157E-003	2.73477E-003	5.58166E-004	...........
EOC	QUANT	0.0029316	Open Circuit (V)
PSTATMODEL	IQUANT	4	Pstat Model
PSTATSECTION	LABEL	REF600-11020	Pstat Section
PSTATSERIALNO	LABEL	11020	Pstat Serial Number
CTRLMODE	IQUANT	1	Control Mode
IESTAB	IQUANT	0	I/E Stability
CASPEED	IQUANT	1	Control Amp Speed
CONVENTION	IQUANT	1	Current Convention
ICHRANGE	IQUANT	2	Ich Range
ICHRANGEMODE	TOGGLE	F	Ich Auto Range
ICHOFFSETENABLE	TOGGLE	T	Ich Offset Enable
ICHOFFSET	QUANT	0	Ich Offset (V)
ICHFILTER	IQUANT	3	Ich Filter
VCHRANGE	IQUANT	2	Vch Range
VCHRANGEMODE	TOGGLE	F	Vch Auto Range
VCHOFFSETENABLE	TOGGLE	T	Vch Offset Enable
VCHOFFSET	QUANT	0	Vch Offset (V)
VCHFILTER	IQUANT	3	Vch Filter
ACHRANGE	IQUANT	2	Ach Range
ACHOFFSETENABLE	TOGGLE	F	Ach Offset Enable
ACHOFFSET	QUANT	0	Ach Offset (V)
ACHFILTER	IQUANT	3	Ach Filter
IERANGELOWERLIMIT	IQUANT	1	I/E Range Lower Limit
IERANGEMODE	TOGGLE	F	I/E AutoRange
IERANGE	IQUANT	2	I/E Range
POSFEEDENABLE	TOGGLE	F	Positive Feedback IR Comp
POSFEEDRESISTANCE	QUANT	0	Positive Feedback Resistance (ohm)
ACHSELECT	IQUANT	0	Ach Select
CABLEID	IQUANT	14	Cable ID
DCCALDATE	LABEL	8/19/2019	DC Calibration Date
ACCALDATE	LABEL	8/19/2019	AC Calibration Date
THERMOSELECT	IQUANT	1	Thermo Select
FRAMEWORKVERSION	QUANT	6.33	Framework Version
INSTRUMENTVERSION	LABEL	3.50	Instrument Version
ZCURVE	TABLE
	Pt	Time	Freq	Zreal	Zimag	Zsig	Zmod	Zphz	Idc	Vdc	IERange
	#	s	Hz	ohm	ohm	V	ohm	°	A	V	#
	0	2	1000078	2564.281	-1465.313	1	2953.419	-29.74504	-1.192804E-006	0.0056582	8
	1	3	794390.6	2841.282	-1346.364	1	3144.134	-25.3543	5.200035E-007	0.0049702	8
	2	5	630984.4	3066.505	-1200.743	1	3293.211	-21.38369	-2.109036E-006	0.0052996	8
	3	6	501234.4	3249.656	-1037.78	1	3411.342	-17.71092	-2.33724E-006	0.0052532	8
	4	7	398109.4	3369.791	-905.2252	1	3489.259	-15.03636	2.936158E-006	0.0042069	8
	5	9	316265.6	3467.305	-779.5542	1	3553.858	-12.67111	2.499497E-006	0.0041858	8
	6	10	251203.1	3539.55	-666.6072	1	3601.774	-10.66565	-2.618518E-007	0.0045448	8
	7	11	199546.9	3590.743	-566.4238	1	3635.144	-8.964289	2.59525E-007	0.0046366	8
	8	13	158578.1	3634.863	-506.516	1	3669.985	-7.933047	3.48418E-006	0.0040256	8
	9	14	125953.1	3689.284	-408.5232	1	3711.834	-6.318756	-4.347289E-008	0.0047242	7
	10	15	100078.1	3710.734	-375.9288	1	3729.728	-5.784811	-4.568983E-008	0.0047469	7
	11	17	79453.13	3738.257	-355.8206	1	3755.153	-5.437235	-2.43541E-008	0.0046334	7
	12	18	63140.62	3766.437	-346.4769	1	3782.339	-5.255883	-2.178815E-008	0.0046321	7
	13	19	50203.12	3791.877	-346.0812	1	3807.637	-5.214887	3.522274E-008	0.0044874	7
	14	21	39890.62	3820.237	-352.8697	1	3836.5	-5.277353	6.340313E-008	0.0044643	7
	15	22	31640.63	3849.331	-371.5631	1	3867.222	-5.513491	7.192381E-009	0.004663	7
	16	23	25171.88	3879.15	-399.0012	1	3899.617	-5.87267	3.180823E-008	0.0045561	7
	17	25	20015.62	3913.471	-437.0375	1	3937.798	-6.372114	3.495866E-008	0.0044816	7
	18	26	15890.62	3953.447	-488.3774	1	3983.498	-7.042189	-1.877207E-008	0.0046277	7
	19	27	12609.37	3990.412	-549.1891	1	4028.027	-7.836228	-4.115016E-008	0.0046483	7
	20	29	10078.13	4035.719	-619.9899	1	4083.065	-8.733819	-4.187838E-008	0.0046402	7
	21	30	8015.625	4086.622	-715.2324	1	4148.739	-9.92725	-2.802492E-008	0.0045917	7
	22	31	6328.125	4146.49	-832.0825	1	4229.153	-11.34692	-4.10361E-008	0.0046375	7
	23	33	5015.625	4212.851	-969.117	1	4322.881	-12.95485	-4.543044E-008	0.0047283	7
	24	34	3984.375	4288.773	-1134.755	1	4436.354	-14.82013	-7.292383E-009	0.0046031	7
	25	35	3170.956	4377.43	-1330.301	1	4575.105	-16.90402	-2.648252E-008	0.004657	7
	26	37	2527.573	4475.003	-1561.439	1	4739.593	-19.23514	8.924887E-008	0.004467	7
	27	38	1976.103	4600.578	-1865.067	1	4964.251	-22.06755	8.828541E-009	0.0046563	7
	28	39	1577.524	4733.787	-2198.012	1	5219.195	-24.90658	1.562634E-008	0.004508	7
	29	41	1265.625	4880.421	-2588.789	1	5524.522	-27.94344	-2.796086E-008	0.0045833	7
	30	42	998.264	5065.767	-3094.187	1	5935.991	-31.41672	8.935861E-008	0.0044578	7
	31	43	796.875	5269.021	-3667.241	1	6419.598	-34.83794	-4.047524E-008	0.0046384	7
	32	45	627.7902	5511.649	-4402.873	1	7054.329	-38.61892	6.515341E-008	0.0045455	7
	33	46	505.5147	5772.857	-5205.623	1	7773.313	-42.04228	-2.467434E-008	0.0046591	7
	34	47	397.9953	6103.417	-6286.42	1	8761.894	-45.84622	4.500635E-009	0.0046035	7
	35	49	315.5048	6481.76	-7560.179	1	9958.39	-49.39169	9.861296E-010	0.0045411	6
	36	50	252.4038	6905.741	-9047.112	1	11381.54	-52.64518	7.382575E-010	0.0045386	6
	37	51	198.6229	7446.649	-10991.38	1	13276.41	-55.8824	1.102598E-009	0.0045443	6
	38	53	158.3615	8058.839	-13229.42	1	15490.73	-58.65189	1.369055E-009	0.0045401	6
	39	54	125.558	8816.377	-16019.54	1	18285.35	-61.17375	1.007709E-009	0.0045425	6
	40	55	100.4464	9679	-19263.69	1	21558.59	-63.32286	6.301017E-010	0.0045395	6
	41	57	79.00281	10806.32	-23513.13	1	25877.48	-65.31711	1.330991E-009	0.0045396	6
	42	58	63.3446	12098.3	-28411.16	1	30879.82	-66.93429	9.030068E-010	0.0045364	6
	43	60	49.86702	13732.77	-34478.74	1	37112.97	-68.28277	5.020963E-010	0.004538	6
	44	61	39.72458	15762.4	-41852.21	1	44722.04	-69.3626	9.722714E-010	0.0045429	6
	45	62	31.6723	18195.77	-50683.6	1	53850.84	-70.2515	1.14576E-009	0.0045382	6
	46	64	24.93351	21438.72	-61957.37	1	65561.69	-70.91316	5.098295E-010	0.0045374	6
	47	65	19.86229	25420.34	-75072.25	1	79259.3	-71.2933	4.513649E-010	0.0045356	6
	48	66	15.83615	30670.36	-90863.39	1	95900.1	-71.34822	1.734027E-009	0.0045394	6
	49	68	12.40079	37715.79	-110930.5	1	117166.8	-71.22224	1.680733E-010	0.0045452	5
	50	69	9.93114	45987.58	-133063.8	1	140786.4	-70.93456	1.334737E-010	0.0045499	5
	51	71	7.944915	56795.4	-159159.5	1	168989.6	-70.36127	2.408068E-010	0.004542	5
	52	72	6.317385	70780.76	-190893.5	1	203593.3	-69.65589	2.014304E-010	0.0045477	5
	53	74	5.008013	89119.46	-228452.7	1	245220.2	-68.68923	2.890469E-010	0.0045427	5
	54	77	3.945707	112968.9	-272883.7	1	295342.9	-67.51134	2.990254E-010	0.0045434	5
	55	79	3.158693	140328	-320291	1	349683.1	-66.3405	4.842149E-010	0.0045616	5
	56	83	2.504006	176175.2	-376958.6	1	416095.5	-64.95052	-4.64391E-011	0.0045488	5
	57	85	1.998082	217616.6	-436497.8	1	487737	-63.50138	4.455913E-010	0.0045092	5
	58	88	1.584686	268291.9	-507687.8	1	574219	-62.14541	1.167301E-010	0.0045112	5
	59	92	1.266892	324900.4	-580082.3	1	664872.7	-60.74709	4.321601E-010	0.0045225	5
	60	96	0.999041	394605.5	-670047.3	1	777609.8	-59.50524	-6.296019E-011	0.0045403	5
