EXPLAIN
TAG	EISPOT
TITLE	LABEL	Potentiostatic EIS	Test &Identifier
DATE	LABEL	10/10/2019	Date
TIME	LABEL	9:23:10	Time
NOTES	NOTES	1	&Notes...
	
PSTAT	PSTAT	REF600-11020	Potentiostat
VDC	POTEN	0.00000E+000	T	DC &Voltage (V)
FREQINIT	QUANT	1.00000E+006	Initial Fre&q. (Hz)
FREQFINAL	QUANT	1.00000E+000	Final Fre&q. (Hz)
PTSPERDEC	QUANT	1.00000E+001	Points/&decade
VAC	QUANT	2.50000E+001	AC &Voltage (mV rms)
AREA	QUANT	1.00000E-002	&Area (cm^2)
CONDIT	TWOPARAM	T	5.00000E+000	0.00000E+000	Conditionin&g	Time(s)	E(V)
DELAY	TWOPARAM	T	5.00000E+000	0.00000E+000	Init. De&lay	Time(s)	Stab.(mV/s)
SPEED	SELECTOR	1	&Optimize for:
ZGUESS	QUANT	1.00000E+004	E&stimated Z (ohms)
OCVCURVE	TABLE	19
	Pt	T	Vf	Vm	Ach	Over
	#	s	V vs. Ref.	V	V	bits
	0	0.258333	6.46954E-003	6.46954E-003	5.45533E-004	...........
	1	0.516667	6.46791E-003	6.38410E-003	5.43633E-004	...........
	2	0.775	6.45804E-003	6.31128E-003	5.43666E-004	...........
	3	1.03333	6.43129E-003	6.27507E-003	5.44866E-004	...........
	4	1.29167	6.38774E-003	6.26648E-003	5.46633E-004	...........
	5	1.55	6.33861E-003	6.21598E-003	5.41766E-004	...........
	6	1.80833	6.29480E-003	6.20818E-003	5.40766E-004	...........
	7	2.06667	6.25973E-003	6.20454E-003	5.44366E-004	...........
	8	2.325	6.23338E-003	6.19412E-003	5.42466E-004	...........
	9	2.58333	6.21555E-003	6.20080E-003	5.43033E-004	...........
	10	2.84167	6.20555E-003	6.22210E-003	5.48899E-004	...........
	11	3.1	6.20286E-003	6.22032E-003	5.43699E-004	...........
	12	3.35833	6.20671E-003	6.24544E-003	5.43999E-004	...........
	13	3.61667	6.21489E-003	6.23205E-003	5.44566E-004	...........
	14	3.875	6.22426E-003	6.24531E-003	5.49433E-004	...........
	15	4.13333	6.23215E-003	6.24375E-003	5.40966E-004	...........
	16	4.39167	6.23741E-003	6.23002E-003	5.47366E-004	...........
	17	4.65	6.23944E-003	6.22514E-003	5.39933E-004	...........
	18	4.90833	6.23931E-003	6.30422E-003	5.44233E-004	...........
EOC	QUANT	0.0062393	Open Circuit (V)
PSTATMODEL	IQUANT	4	Pstat Model
PSTATSECTION	LABEL	REF600-11020	Pstat Section
PSTATSERIALNO	LABEL	11020	Pstat Serial Number
CTRLMODE	IQUANT	1	Control Mode
IESTAB	IQUANT	0	I/E Stability
CASPEED	IQUANT	1	Control Amp Speed
CONVENTION	IQUANT	1	Current Convention
ICHRANGE	IQUANT	2	Ich Range
ICHRANGEMODE	TOGGLE	F	Ich Auto Range
ICHOFFSETENABLE	TOGGLE	T	Ich Offset Enable
ICHOFFSET	QUANT	0	Ich Offset (V)
ICHFILTER	IQUANT	3	Ich Filter
VCHRANGE	IQUANT	2	Vch Range
VCHRANGEMODE	TOGGLE	F	Vch Auto Range
VCHOFFSETENABLE	TOGGLE	T	Vch Offset Enable
VCHOFFSET	QUANT	0	Vch Offset (V)
VCHFILTER	IQUANT	3	Vch Filter
ACHRANGE	IQUANT	2	Ach Range
ACHOFFSETENABLE	TOGGLE	F	Ach Offset Enable
ACHOFFSET	QUANT	0	Ach Offset (V)
ACHFILTER	IQUANT	3	Ach Filter
IERANGELOWERLIMIT	IQUANT	1	I/E Range Lower Limit
IERANGEMODE	TOGGLE	F	I/E AutoRange
IERANGE	IQUANT	6	I/E Range
POSFEEDENABLE	TOGGLE	F	Positive Feedback IR Comp
POSFEEDRESISTANCE	QUANT	0	Positive Feedback Resistance (ohm)
ACHSELECT	IQUANT	0	Ach Select
CABLEID	IQUANT	14	Cable ID
DCCALDATE	LABEL	8/19/2019	DC Calibration Date
ACCALDATE	LABEL	8/19/2019	AC Calibration Date
THERMOSELECT	IQUANT	1	Thermo Select
FRAMEWORKVERSION	QUANT	6.33	Framework Version
INSTRUMENTVERSION	LABEL	3.50	Instrument Version
ZCURVE	TABLE
	Pt	Time	Freq	Zreal	Zimag	Zsig	Zmod	Zphz	Idc	Vdc	IERange
	#	s	Hz	ohm	ohm	V	ohm	°	A	V	#
	0	1	1000078	2751.101	-1731.964	1	3250.886	-32.1926	2.803857E-006	0.0071157	8
	1	3	794390.6	3087.214	-1624.627	1	3488.596	-27.75531	4.95245E-006	0.0071404	8
	2	5	630984.4	3361.964	-1476.394	1	3671.858	-23.7085	-1.309211E-007	0.0077518	8
	3	6	501234.4	3601.872	-1321.343	1	3836.591	-20.14551	-3.536494E-006	0.0086751	8
	4	7	398109.4	3755.556	-1153.137	1	3928.604	-17.06902	4.47066E-006	0.0069873	8
	5	9	316265.6	3934.714	-1000.427	1	4059.906	-14.26556	4.351176E-006	0.0070689	8
	6	10	251203.1	4025.567	-873.6036	1	4119.268	-12.24412	-4.838247E-007	0.007822	8
	7	12	199546.9	4098.152	-747.384	1	4165.745	-10.3355	3.642589E-006	0.0072048	8
	8	13	158578.1	4171.333	-670.9893	1	4224.955	-9.138164	2.515639E-007	0.0078636	8
	9	14	125953.1	4233.179	-531.0486	1	4266.359	-7.150352	6.783763E-008	0.0079245	7
	10	16	100078.1	4264.469	-487.4824	1	4292.241	-6.521321	8.81581E-008	0.0076568	7
	11	17	79453.13	4303	-461.3359	1	4327.66	-6.119455	-6.259993E-008	0.0079434	7
	12	18	63140.62	4339.797	-450.7593	1	4363.144	-5.929846	-8.035708E-008	0.0079223	7
	13	20	50203.12	4377.869	-450.368	1	4400.973	-5.873573	-3.684017E-008	0.0078333	7
	14	21	39890.62	4417.556	-458.1138	1	4441.246	-5.920581	9.89924E-008	0.0077498	7
	15	23	31640.63	4461.295	-478.9799	1	4486.934	-6.127998	-7.288104E-008	0.0079107	7
	16	24	25171.88	4507.469	-509.6386	1	4536.188	-6.450773	6.930081E-008	0.0077087	7
	17	25	20015.62	4541.27	-549.2486	1	4574.364	-6.896203	4.842143E-008	0.0076612	7
	18	27	15890.62	4616.332	-601.4029	1	4655.341	-7.422532	-1.585452E-008	0.0077894	7
	19	28	12609.37	4677.209	-661.1262	1	4723.704	-8.04549	-2.103959E-008	0.0078031	7
	20	29	10078.13	4741.76	-733.333	1	4798.131	-8.791384	9.080221E-008	0.0076327	7
	21	31	8015.625	4831.29	-825.0374	1	4901.229	-9.6909	-6.816635E-008	0.0080387	7
	22	32	6328.125	4892.177	-926.142	1	4979.069	-10.71985	-6.337603E-009	0.007828	7
	23	33	5015.625	4978.457	-1051.812	1	5088.354	-11.9296	4.403802E-008	0.0076781	7
	24	35	3984.375	5067.021	-1209.948	1	5209.479	-13.4301	-4.409744E-008	0.0079266	7
	25	36	3170.956	5159.134	-1381.628	1	5340.933	-14.99214	-5.604124E-008	0.0078897	7
	26	38	2527.573	5255.542	-1599.655	1	5493.597	-16.92893	8.8866E-008	0.0076294	7
	27	39	1976.103	5374.353	-1887.08	1	5696.028	-19.34755	-7.049009E-008	0.0079033	7
	28	40	1577.524	5495.548	-2212.92	1	5924.362	-21.93342	1.021491E-007	0.0077372	7
	29	42	1265.625	5617.749	-2610.427	1	6194.629	-24.92311	1.340598E-007	0.0076201	7
	30	43	998.264	5770.247	-3122.723	1	6561.033	-28.42122	-4.286453E-009	0.0078655	7
	31	45	796.875	5934.247	-3725.61	1	7006.814	-32.12122	-7.269462E-008	0.0079007	7
	32	46	627.7902	6146.367	-4505.073	1	7620.598	-36.24012	-7.057101E-008	0.0079034	7
	33	47	505.5147	6327.576	-5334.661	1	8276.281	-40.13361	5.051765E-008	0.0077531	7
	34	49	397.9953	6618.021	-6548.234	1	9310.079	-44.69631	5.753236E-009	0.0078273	7
	35	50	315.5048	6927.617	-7952.058	1	10546.43	-48.93851	6.756233E-010	0.0077713	6
	36	51	252.4038	7275.617	-9610.26	1	12053.7	-52.87181	1.519615E-009	0.0077638	6
	37	53	198.6229	7720.003	-11805	1	14105.19	-56.81689	7.275697E-010	0.0077672	6
	38	54	158.3615	8221.817	-14363.83	1	16550.47	-60.2133	1.423745E-009	0.0077642	6
	39	56	125.558	8858.344	-17598.37	1	19702.1	-63.28107	9.467628E-010	0.0077641	6
	40	57	100.4464	9623.39	-21432.42	1	23493.8	-65.8194	-6.240417E-011	0.0077608	6
	41	58	79.00281	10631.73	-26409.83	1	28469.5	-68.07191	8.160712E-010	0.0077632	6
	42	60	63.3446	12170.56	-32009.87	1	34245.5	-69.18256	1.010834E-009	0.0077631	6
	43	61	49.86702	13511.69	-40014.36	1	42234.05	-71.34167	1.451826E-009	0.0077631	6
	44	63	39.72458	15693.48	-48607.75	1	51078.36	-72.10683	8.724557E-010	0.0077693	6
	45	64	31.6723	18629.62	-59100.95	1	61967.61	-72.50426	2.326991E-010	0.0077628	6
	46	65	24.93351	22445.52	-72857.75	1	76236.82	-72.87733	5.088411E-010	0.0077654	6
	47	67	19.86229	27232.55	-88473.37	1	92569.7	-72.89137	1.288814E-009	0.0077711	6
	48	68	15.83615	33507.86	-107654.6	1	112748.8	-72.71107	-6.359783E-010	0.0077687	5
	49	70	12.40079	43369.22	-130139.6	1	137175.8	-71.56927	1.598828E-009	0.0077718	5
	50	71	9.93114	53398.88	-157147.6	1	165972.3	-71.2322	5.194491E-010	0.0077712	5
	51	73	7.944915	67821.73	-187925.2	1	199789.1	-70.15562	5.673727E-011	0.0077683	5
	52	74	6.317385	84698.61	-223686.7	1	239185.3	-69.26091	5.659586E-010	0.0077755	5
	53	76	5.008013	107656.9	-266345.2	1	287279.9	-67.9914	4.521137E-010	0.0077786	5
	54	79	3.945707	136765.6	-316907	1	345159.2	-66.65672	-3.972891E-011	0.0077692	5
	55	82	3.158693	171476.7	-369528.4	1	407376.3	-65.10673	3.267842E-010	0.0077889	5
	56	85	2.504006	215073.4	-431098.7	1	481770.3	-63.48558	-1.547387E-010	0.0077649	5
	57	88	1.998082	265454.5	-498452	1	564730.5	-61.96212	-1.00644E-010	0.0077488	5
	58	91	1.584686	326203.5	-570456.7	1	657137.4	-60.23784	6.272982E-011	0.0078066	5
	59	95	1.266892	392717.5	-649848.3	1	759295.6	-58.85452	-5.436496E-011	0.0077543	5
	60	99	0.999041	473873.5	-741540.9	1	880022.1	-57.41984	3.090125E-010	0.0077977	5
