EXPLAIN
TAG	EISPOT
TITLE	LABEL	Potentiostatic EIS	Test &Identifier
DATE	LABEL	10/26/2019	Date
TIME	LABEL	10:03:33	Time
NOTES	NOTES	1	&Notes...
	
PSTAT	PSTAT	REF600-11020	Potentiostat
VDC	POTEN	0.00000E+000	T	DC &Voltage (V)
FREQINIT	QUANT	1.00000E+006	Initial Fre&q. (Hz)
FREQFINAL	QUANT	1.00000E+000	Final Fre&q. (Hz)
PTSPERDEC	QUANT	1.00000E+001	Points/&decade
VAC	QUANT	2.50000E+001	AC &Voltage (mV rms)
AREA	QUANT	1.00000E-002	&Area (cm^2)
CONDIT	TWOPARAM	T	5.00000E+000	0.00000E+000	Conditionin&g	Time(s)	E(V)
DELAY	TWOPARAM	T	5.00000E+000	0.00000E+000	Init. De&lay	Time(s)	Stab.(mV/s)
SPEED	SELECTOR	0	&Optimize for:
ZGUESS	QUANT	1.00000E+005	E&stimated Z (ohms)
OCVCURVE	TABLE	19
	Pt	T	Vf	Vm	Ach	Over
	#	s	V vs. Ref.	V	V	bits
	0	0.258333	5.89644E-003	5.89644E-003	5.60299E-004	...........
	1	0.516667	5.89398E-003	5.76798E-003	5.52966E-004	...........
	2	0.775	5.87607E-003	5.49736E-003	5.55899E-004	...........
	3	1.03333	5.82121E-003	5.51304E-003	5.58766E-004	...........
	4	1.29167	5.73221E-003	5.76420E-003	5.59466E-004	...........
	5	1.55	5.65438E-003	5.64398E-003	5.57766E-004	...........
	6	1.80833	5.62590E-003	5.63806E-003	5.56099E-004	...........
	7	2.06667	5.63350E-003	5.63840E-003	5.55933E-004	...........
	8	2.325	5.64493E-003	5.67276E-003	5.60232E-004	...........
	9	2.58333	5.65042E-003	5.68508E-003	5.55133E-004	...........
	10	2.84167	5.65655E-003	5.70034E-003	5.60666E-004	...........
	11	3.1	5.66797E-003	5.73287E-003	5.60166E-004	...........
	12	3.35833	5.68465E-003	5.75978E-003	5.59799E-004	...........
	13	3.61667	5.70572E-003	5.78526E-003	5.58299E-004	...........
	14	3.875	5.73013E-003	5.81080E-003	5.50966E-004	...........
	15	4.13333	5.75624E-003	5.83732E-003	5.60732E-004	...........
	16	4.39167	5.78278E-003	5.86765E-003	5.56666E-004	...........
	17	4.65	5.80963E-003	5.89875E-003	5.59432E-004	...........
	18	4.90833	5.83714E-003	5.91840E-003	5.61066E-004	...........
EOC	QUANT	0.0058371	Open Circuit (V)
PSTATMODEL	IQUANT	4	Pstat Model
PSTATSECTION	LABEL	REF600-11020	Pstat Section
PSTATSERIALNO	LABEL	11020	Pstat Serial Number
CTRLMODE	IQUANT	1	Control Mode
IESTAB	IQUANT	0	I/E Stability
CASPEED	IQUANT	1	Control Amp Speed
CONVENTION	IQUANT	1	Current Convention
ICHRANGE	IQUANT	2	Ich Range
ICHRANGEMODE	TOGGLE	F	Ich Auto Range
ICHOFFSETENABLE	TOGGLE	T	Ich Offset Enable
ICHOFFSET	QUANT	0	Ich Offset (V)
ICHFILTER	IQUANT	3	Ich Filter
VCHRANGE	IQUANT	2	Vch Range
VCHRANGEMODE	TOGGLE	F	Vch Auto Range
VCHOFFSETENABLE	TOGGLE	T	Vch Offset Enable
VCHOFFSET	QUANT	0	Vch Offset (V)
VCHFILTER	IQUANT	3	Vch Filter
ACHRANGE	IQUANT	2	Ach Range
ACHOFFSETENABLE	TOGGLE	F	Ach Offset Enable
ACHOFFSET	QUANT	0	Ach Offset (V)
ACHFILTER	IQUANT	3	Ach Filter
IERANGELOWERLIMIT	IQUANT	1	I/E Range Lower Limit
IERANGEMODE	TOGGLE	F	I/E AutoRange
IERANGE	IQUANT	5	I/E Range
POSFEEDENABLE	TOGGLE	F	Positive Feedback IR Comp
POSFEEDRESISTANCE	QUANT	0	Positive Feedback Resistance (ohm)
ACHSELECT	IQUANT	0	Ach Select
CABLEID	IQUANT	14	Cable ID
DCCALDATE	LABEL	8/19/2019	DC Calibration Date
ACCALDATE	LABEL	8/19/2019	AC Calibration Date
THERMOSELECT	IQUANT	1	Thermo Select
FRAMEWORKVERSION	QUANT	6.33	Framework Version
INSTRUMENTVERSION	LABEL	3.50	Instrument Version
ZCURVE	TABLE
	Pt	Time	Freq	Zreal	Zimag	Zsig	Zmod	Zphz	Idc	Vdc	IERange
	#	s	Hz	ohm	ohm	V	ohm	°	A	V	#
	0	2	1000078	2295.316	-1437.017	1	2708.042	-32.04924	-1.293055E-006	0.0075546	8
	1	2	794390.6	2568.294	-1336.355	1	2895.165	-27.48921	-2.709803E-006	0.0082257	8
	2	2	630984.4	2796.299	-1201.88	1	3043.65	-23.25856	-4.634782E-007	0.0078578	8
	3	3	501234.4	2983.99	-1056.932	1	3165.644	-19.50418	8.297865E-007	0.007182	8
	4	3	398109.4	3116.364	-919.0583	1	3249.06	-16.43151	-3.060311E-007	0.0073467	8
	5	3	316265.6	3222.169	-775.7682	1	3314.241	-13.53688	-9.377993E-007	0.0076794	8
	6	4	251203.1	3303.961	-675.6974	1	3372.347	-11.55825	-1.201402E-006	0.0076151	8
	7	4	199546.9	3362.219	-577.5886	1	3411.47	-9.74758	-1.437433E-006	0.007614	8
	8	4	158578.1	3413.083	-495.1493	1	3448.812	-8.254536	3.339071E-006	0.0066503	8
	9	5	125953.1	3471.867	-395.8131	1	3494.357	-6.503972	-2.567616E-007	0.0075111	7
	10	5	100078.1	3488.351	-355.6874	1	3506.438	-5.822006	6.33912E-009	0.0074024	7
	11	5	79453.13	3515.74	-331.4036	1	3531.324	-5.384951	-6.806447E-009	0.0072819	7
	12	6	63140.62	3540.211	-315.2998	1	3554.224	-5.089473	-6.204207E-008	0.0074941	7
	13	6	50203.12	3565.612	-307.2684	1	3578.827	-4.925324	-3.790127E-008	0.0073885	7
	14	6	39890.62	3590.747	-306.0898	1	3603.769	-4.872345	3.673079E-008	0.0071978	7
	15	7	31640.63	3614.586	-312.7024	1	3628.087	-4.944418	7.806143E-008	0.0072421	7
	16	7	25171.88	3638.614	-327.4394	1	3653.317	-5.142205	4.837141E-008	0.0072305	7
	17	7	20015.62	3663.216	-353.5347	1	3680.236	-5.512508	6.433297E-008	0.0071755	7
	18	8	15890.62	3688.809	-385.5756	1	3708.906	-5.967216	-3.01971E-008	0.0073068	7
	19	8	12609.37	3714.167	-431.6891	1	3739.17	-6.629611	-9.63651E-009	0.0073504	7
	20	8	10078.13	3740.951	-489.9519	1	3772.899	-7.461551	3.709644E-008	0.0071929	7
	21	9	8015.625	3768.91	-558.5644	1	3810.076	-8.430054	-5.985896E-008	0.0074841	7
	22	9	6328.125	3802.115	-665.5099	1	3859.92	-9.92829	-6.218273E-008	0.0073846	7
	23	9	5015.625	3836.965	-788.7162	1	3917.19	-11.61577	-3.116288E-008	0.0073032	7
	24	9	3984.375	3881.304	-941.2713	1	3993.809	-13.63186	7.803795E-008	0.0072359	7
	25	10	3170.956	3920.545	-1129.374	1	4079.97	-16.06986	-1.119295E-008	0.0073301	7
	26	10	2527.573	3971.168	-1357.173	1	4196.677	-18.8682	-4.603522E-008	0.0073609	7
	27	10	1976.103	4036.242	-1668.447	1	4367.489	-22.45856	1.119448E-008	0.007241	7
	28	11	1577.524	4117.393	-2012.924	1	4583.098	-26.05323	-5.297519E-008	0.0073973	7
	29	11	1265.625	4185.854	-2439.863	1	4845.029	-30.23718	1.695415E-010	0.0072881	7
	30	11	998.264	4288.947	-2998.018	1	5232.894	-34.95394	-3.931865E-009	0.0072818	7
	31	12	796.875	4407.072	-3655.106	1	5725.564	-39.67139	2.258887E-009	0.0072848	7
	32	12	627.7902	4562.895	-4510.055	1	6415.653	-44.66632	-2.832585E-008	0.0072958	7
	33	12	505.5147	4732.964	-5466.615	1	7230.825	-49.11417	-2.797784E-010	0.0072839	7
	34	13	397.9953	4982.222	-6766.824	1	8403.121	-53.63683	3.358814E-009	0.0073194	7
	35	13	315.5048	5284.173	-8326.463	1	9861.67	-57.59981	2.847972E-009	0.0073227	7
	36	13	252.4038	5664.646	-10163.02	1	11635.09	-60.86566	4.837393E-010	0.0072579	6
	37	14	198.6229	6192.015	-12587.33	1	14027.89	-63.80629	4.665975E-010	0.0072558	6
	38	14	158.3615	6851.345	-15397.16	1	16852.7	-66.01215	2.974818E-010	0.0072531	6
	39	14	125.558	7751.918	-18909.42	1	20436.69	-67.70882	3.084825E-010	0.0072539	6
	40	15	100.4464	8917.231	-23038.5	1	24704.04	-68.84068	3.787172E-010	0.0072531	6
	41	15	79.00281	10541.9	-28394.81	1	30288.56	-69.63199	1.018957E-009	0.0072508	6
	42	15	63.3446	12557.19	-33759.56	1	36019.31	-69.59684	-6.117991E-011	0.0072502	6
	43	16	49.86702	15614.69	-41443.84	1	44287.82	-69.35522	-6.429723E-010	0.0072498	6
	44	16	39.72458	19183.39	-50175.59	1	53717.71	-69.07688	-2.6109E-010	0.007256	6
	45	16	31.6723	23951.26	-60174.78	1	64766.25	-68.29604	-7.49347E-010	0.0072546	6
	46	17	24.93351	30568.79	-71673.48	1	77920.08	-66.90173	-3.274232E-010	0.0072577	6
	47	17	19.86229	38174.95	-84194.37	1	92444.67	-65.60977	-1.177592E-009	0.0072553	6
	48	17	15.83615	46324.11	-98622.3	1	108960	-64.83998	-8.206721E-010	0.0072626	5
	49	18	12.40079	60536.26	-115396.8	1	130311.4	-62.31884	-1.512798E-009	0.0072653	5
	50	18	9.93114	71936.95	-131874.7	1	150219.4	-61.38777	9.596227E-010	0.0072593	5
	51	19	7.944915	86384.91	-150913.3	1	173888.4	-60.21257	1.037083E-010	0.0072663	5
	52	19	6.317385	103018.5	-173573.1	1	201842.6	-59.31016	-2.219676E-010	0.0072699	5
	53	20	5.008013	122220.3	-198987.3	1	233524.6	-58.44127	4.956745E-011	0.0072657	5
	54	21	3.945707	144337.6	-230001.8	1	271540.4	-57.88969	-4.104252E-010	0.0072525	5
	55	22	3.158693	167731.6	-261906.4	1	311012.7	-57.36346	4.742945E-011	0.0072414	5
	56	24	2.504006	195352	-300902.8	1	358754.7	-57.00758	1.018856E-010	0.007254	5
	57	25	1.998082	226190.2	-344172.9	1	411845.8	-56.68711	-2.161923E-010	0.0072085	5
	58	27	1.584686	260486.3	-396078.3	1	474058.1	-56.66853	-1.894356E-010	0.0072226	5
	59	29	1.266892	298114.9	-452512.6	1	541885.7	-56.62315	-9.454937E-011	0.0072617	5
	60	31	0.999041	343613.3	-523159.4	1	625912	-56.70293	-4.081722E-011	0.0072831	5
