EXPLAIN
TAG	EISPOT
TITLE	LABEL	Potentiostatic EIS	Test &Identifier
DATE	LABEL	11/22/2019	Date
TIME	LABEL	0:13:23	Time
NOTES	NOTES	4	&Notes...
	
	
	
	
PSTAT	PSTAT	REF600-11020	Potentiostat
VDC	POTEN	0.00000E+000	T	DC &Voltage (V)
FREQINIT	QUANT	1.00000E+006	Initial Fre&q. (Hz)
FREQFINAL	QUANT	1.00000E+000	Final Fre&q. (Hz)
PTSPERDEC	QUANT	1.00000E+001	Points/&decade
VAC	QUANT	2.50000E+001	AC &Voltage (mV rms)
AREA	QUANT	1.00000E-002	&Area (cm^2)
CONDIT	TWOPARAM	T	5.00000E+000	0.00000E+000	Conditionin&g	Time(s)	E(V)
DELAY	TWOPARAM	T	5.00000E+000	0.00000E+000	Init. De&lay	Time(s)	Stab.(mV/s)
SPEED	SELECTOR	1	&Optimize for:
ZGUESS	QUANT	1.00000E+005	E&stimated Z (ohms)
OCVCURVE	TABLE	19
	Pt	T	Vf	Vm	Ach	Over
	#	s	V vs. Ref.	V	V	bits
	0	0.258333	5.50291E-003	5.50291E-003	5.51966E-004	...........
	1	0.516667	5.50027E-003	5.36472E-003	5.53433E-004	...........
	2	0.775	5.48589E-003	5.32964E-003	5.52399E-004	...........
	3	1.03333	5.45172E-003	5.31774E-003	5.53399E-004	...........
	4	1.29167	5.40567E-003	5.38348E-003	5.59299E-004	...........
	5	1.55	5.36934E-003	5.40511E-003	5.57333E-004	...........
	6	1.80833	5.35846E-003	5.43008E-003	5.57699E-004	...........
	7	2.06667	5.37124E-003	5.44322E-003	5.51366E-004	...........
	8	2.325	5.39463E-003	5.42725E-003	5.54933E-004	...........
	9	2.58333	5.41576E-003	5.43276E-003	5.55133E-004	...........
	10	2.84167	5.42838E-003	5.44014E-003	5.48699E-004	...........
	11	3.1	5.43400E-003	5.45457E-003	5.50633E-004	...........
	12	3.35833	5.43803E-003	5.46930E-003	5.52532E-004	...........
	13	3.61667	5.44459E-003	5.47986E-003	5.48133E-004	...........
	14	3.875	5.45452E-003	5.49452E-003	5.47399E-004	...........
	15	4.13333	5.46671E-003	5.51132E-003	5.51166E-004	...........
	16	4.39167	5.48026E-003	5.53051E-003	5.55133E-004	...........
	17	4.65	5.49506E-003	5.54540E-003	5.53333E-004	...........
	18	4.90833	5.51167E-003	5.59607E-003	5.57499E-004	...........
EOC	QUANT	0.0055117	Open Circuit (V)
PSTATMODEL	IQUANT	4	Pstat Model
PSTATSECTION	LABEL	REF600-11020	Pstat Section
PSTATSERIALNO	LABEL	11020	Pstat Serial Number
CTRLMODE	IQUANT	1	Control Mode
IESTAB	IQUANT	0	I/E Stability
CASPEED	IQUANT	1	Control Amp Speed
CONVENTION	IQUANT	1	Current Convention
ICHRANGE	IQUANT	2	Ich Range
ICHRANGEMODE	TOGGLE	F	Ich Auto Range
ICHOFFSETENABLE	TOGGLE	T	Ich Offset Enable
ICHOFFSET	QUANT	0	Ich Offset (V)
ICHFILTER	IQUANT	3	Ich Filter
VCHRANGE	IQUANT	2	Vch Range
VCHRANGEMODE	TOGGLE	F	Vch Auto Range
VCHOFFSETENABLE	TOGGLE	T	Vch Offset Enable
VCHOFFSET	QUANT	0	Vch Offset (V)
VCHFILTER	IQUANT	3	Vch Filter
ACHRANGE	IQUANT	2	Ach Range
ACHOFFSETENABLE	TOGGLE	F	Ach Offset Enable
ACHOFFSET	QUANT	0	Ach Offset (V)
ACHFILTER	IQUANT	3	Ach Filter
IERANGELOWERLIMIT	IQUANT	1	I/E Range Lower Limit
IERANGEMODE	TOGGLE	F	I/E AutoRange
IERANGE	IQUANT	5	I/E Range
POSFEEDENABLE	TOGGLE	F	Positive Feedback IR Comp
POSFEEDRESISTANCE	QUANT	0	Positive Feedback Resistance (ohm)
ACHSELECT	IQUANT	0	Ach Select
CABLEID	IQUANT	14	Cable ID
DCCALDATE	LABEL	8/19/2019	DC Calibration Date
ACCALDATE	LABEL	8/19/2019	AC Calibration Date
THERMOSELECT	IQUANT	1	Thermo Select
FRAMEWORKVERSION	QUANT	6.33	Framework Version
INSTRUMENTVERSION	LABEL	3.50	Instrument Version
ZCURVE	TABLE
	Pt	Time	Freq	Zreal	Zimag	Zsig	Zmod	Zphz	Idc	Vdc	IERange
	#	s	Hz	ohm	ohm	V	ohm	°	A	V	#
	0	1	1000078	2088.802	-1327.818	1	2475.115	-32.44347	1.437415E-006	0.0072188	8
	1	2	794390.6	2344.81	-1251.798	1	2658.032	-28.09594	-5.171304E-006	0.0080671	8
	2	3	630984.4	2563.856	-1141.413	1	2806.453	-23.99833	-4.131367E-006	0.0076148	8
	3	5	501234.4	2738.613	-1020.213	1	2922.471	-20.43183	3.933651E-007	0.0068071	8
	4	6	398109.4	2889.583	-895.1744	1	3025.067	-17.21264	-2.180057E-007	0.0067649	8
	5	8	316265.6	2992.114	-798.6277	1	3096.862	-14.94448	6.050845E-006	0.0059284	8
	6	9	251203.1	3091.997	-700.2033	1	3170.289	-12.7598	-1.781782E-006	0.0068264	8
	7	10	199546.9	3154.545	-616.7169	1	3214.264	-11.06186	6.910709E-006	0.0062742	8
	8	12	158578.1	3213.52	-530.1545	1	3256.958	-9.36806	-9.261018E-007	0.0074716	8
	9	13	125953.1	3293.386	-444.7343	1	3323.279	-7.69062	3.599134E-006	0.0027017	7
	10	14	100078.1	3315.762	-405.9388	1	3340.519	-6.979817	-1.181238E-006	0.0080721	7
	11	16	79453.13	3349.315	-386.4785	1	3371.539	-6.582267	-8.593288E-007	0.008624	7
	12	17	63140.62	3383.692	-375.1605	1	3404.426	-6.326722	8.196194E-008	0.0079101	7
	13	18	50203.12	3418.996	-372.8965	1	3439.271	-6.224422	1.046112E-006	0.0055798	7
	14	20	39890.62	3449.432	-374.8683	1	3469.741	-6.202301	-1.186191E-006	0.0084192	7
	15	21	31640.63	3485.333	-389.4566	1	3507.024	-6.375872	7.456555E-007	0.0052929	7
	16	22	25171.88	3520.973	-412.4976	1	3545.054	-6.681995	9.849725E-007	0.0062932	7
	17	24	20015.62	3565.323	-441.9206	1	3592.607	-7.065754	-1.018721E-006	0.0075165	7
	18	25	15890.62	3593.875	-483.4878	1	3626.251	-7.662058	-5.893483E-007	0.008532	7
	19	26	12609.37	3635.978	-537.0545	1	3675.427	-8.402159	8.6972E-008	0.0079021	7
	20	28	10078.13	3681.915	-600.7356	1	3730.6	-9.26664	7.471635E-007	0.0052864	7
	21	29	8015.625	3723.553	-680.3444	1	3785.197	-10.35451	-1.187678E-006	0.0084075	7
	22	30	6328.125	3776.919	-784.205	1	3857.473	-11.72971	-1.18514E-006	0.008412	7
	23	32	5015.625	3833.059	-912.2188	1	3940.112	-13.38664	4.625794E-007	0.0053923	7
	24	33	3984.375	3889.627	-1065.912	1	4033.034	-15.32509	-1.055798E-006	0.0085678	7
	25	34	3170.956	3953.425	-1254.526	1	4147.699	-17.6056	-1.055785E-006	0.0085694	7
	26	36	2527.573	4026.868	-1487.635	1	4292.869	-20.27561	4.629045E-007	0.0053904	7
	27	37	1976.103	4118.832	-1798.764	1	4494.478	-23.59172	1.067932E-006	0.0058794	7
	28	39	1577.524	4220.009	-2154.509	1	4738.184	-27.04641	3.929777E-007	0.0074736	7
	29	40	1265.625	4316.7	-2571.295	1	5024.485	-30.78066	7.475839E-007	0.0052852	7
	30	41	998.264	4451.83	-3127.109	1	5440.367	-35.08545	7.465558E-007	0.0052811	7
	31	43	796.875	4605.92	-3761.497	1	5946.71	-39.23734	-1.184114E-006	0.0084073	7
	32	44	627.7902	4802.12	-4590.57	1	6643.319	-43.70976	-1.183554E-006	0.0080614	7
	33	45	505.5147	5014.009	-5514.527	1	7453.207	-47.72174	-3.049751E-007	0.0061821	7
	34	47	397.9953	5287.4	-6749.914	1	8574.26	-51.92739	7.469112E-009	0.0070131	7
	35	48	315.5048	5608.528	-8227.857	1	9957.57	-55.71966	7.646122E-009	0.0070139	7
	36	49	252.4038	5981.019	-9960.8	1	11618.52	-59.01705	1.318028E-009	0.006952	6
	37	51	198.6229	6457.863	-12253.6	1	13851.16	-62.20997	1.008851E-009	0.0069511	6
	38	52	158.3615	7010.229	-14916.96	1	16482.08	-64.8288	3.144574E-010	0.0069537	6
	39	54	125.558	7716.398	-18277.48	1	19839.58	-67.11147	1.34924E-009	0.0069447	6
	40	55	100.4464	8564.791	-22206.03	1	23800.49	-68.90854	1.115651E-009	0.0069453	6
	41	56	79.00281	9787.52	-27438.84	1	29132.21	-70.36853	6.592759E-010	0.0069519	6
	42	58	63.3446	11128.83	-33063.5	1	34886.19	-71.39729	9.708244E-010	0.0069428	6
	43	59	49.86702	13220.81	-41307.69	1	43371.82	-72.25237	-2.883385E-011	0.0069509	6
	44	60	39.72458	15558.68	-50158.38	1	52516.05	-72.76658	1.177571E-009	0.0069467	6
	45	62	31.6723	18888.37	-61115.29	1	63967.56	-72.82565	1.635109E-009	0.0069522	6
	46	63	24.93351	23417.14	-74814.29	1	78393.49	-72.6197	1.065077E-010	0.0069519	6
	47	65	19.86229	29274.9	-90437.02	1	95057.2	-72.06298	7.171014E-010	0.0069505	6
	48	66	15.83615	36622.9	-109513.7	1	115475.1	-71.50935	-6.438703E-010	0.0069482	5
	49	67	12.40079	47635.52	-133318.8	1	141573.5	-70.33792	7.821545E-010	0.0069613	5
	50	69	9.93114	60668.07	-157180.1	1	168482	-68.8945	-2.494721E-010	0.0069641	5
	51	70	7.944915	77437.06	-185784.2	1	201276.6	-67.37305	4.136569E-010	0.0069493	5
	52	72	6.317385	98588.5	-218388	1	239610.1	-65.7038	5.219281E-010	0.0069395	5
	53	74	5.008013	125473.6	-255049.5	1	284242.6	-63.80476	-1.26093E-010	0.0069563	5
	54	76	3.945707	158903.5	-295943.9	1	335906.4	-61.76696	7.731559E-011	0.0069611	5
	55	79	3.158693	194962.8	-336804.1	1	389162.6	-59.93512	-2.604575E-011	0.0069384	5
	56	82	2.504006	237576.8	-382944.9	1	450654.5	-58.18478	4.188182E-010	0.0069617	5
	57	85	1.998082	283766.7	-431112	1	516121.2	-56.64627	3.813344E-010	0.0069743	5
	58	88	1.584686	335866.6	-483731.1	1	588899.1	-55.22678	1.217572E-010	0.0069158	5
	59	92	1.266892	389183.6	-543494.2	1	668468.3	-54.39443	2.618707E-010	0.0069819	5
	60	96	0.999041	451383.2	-614262.3	1	762276.2	-53.69014	-1.759096E-010	0.006922	5
