EXPLAIN
TAG	EISPOT
TITLE	LABEL	Potentiostatic EIS	Test &Identifier
DATE	LABEL	10/12/2019	Date
TIME	LABEL	10:41:36	Time
NOTES	NOTES	1	&Notes...
	
PSTAT	PSTAT	REF600-11020	Potentiostat
VDC	POTEN	0.00000E+000	T	DC &Voltage (V)
FREQINIT	QUANT	1.00000E+006	Initial Fre&q. (Hz)
FREQFINAL	QUANT	1.00000E+000	Final Fre&q. (Hz)
PTSPERDEC	QUANT	1.00000E+001	Points/&decade
VAC	QUANT	2.50000E+001	AC &Voltage (mV rms)
AREA	QUANT	1.00000E-002	&Area (cm^2)
CONDIT	TWOPARAM	T	5.00000E+000	0.00000E+000	Conditionin&g	Time(s)	E(V)
DELAY	TWOPARAM	T	5.00000E+000	0.00000E+000	Init. De&lay	Time(s)	Stab.(mV/s)
SPEED	SELECTOR	1	&Optimize for:
ZGUESS	QUANT	1.00000E+004	E&stimated Z (ohms)
OCVCURVE	TABLE	19
	Pt	T	Vf	Vm	Ach	Over
	#	s	V vs. Ref.	V	V	bits
	0	0.258333	5.76066E-003	5.76066E-003	5.13833E-004	...........
	1	0.516667	5.76012E-003	5.73226E-003	5.11067E-004	...........
	2	0.775	5.75703E-003	5.71792E-003	5.13400E-004	...........
	3	1.03333	5.74959E-003	5.73062E-003	5.09533E-004	...........
	4	1.29167	5.73950E-003	5.71490E-003	5.11500E-004	...........
	5	1.55	5.72961E-003	5.67356E-003	5.07367E-004	...........
	6	1.80833	5.71785E-003	5.61824E-003	5.20333E-004	...........
	7	2.06667	5.69744E-003	5.55109E-003	5.10700E-004	...........
	8	2.325	5.66219E-003	5.43847E-003	5.15900E-004	...........
	9	2.58333	5.60762E-003	5.29865E-003	5.08267E-004	...........
	10	2.84167	5.52939E-003	5.13929E-003	5.12033E-004	...........
	11	3.1	5.42446E-003	4.96015E-003	5.16666E-004	...........
	12	3.35833	5.29273E-003	4.75020E-003	5.17566E-004	...........
	13	3.61667	5.13651E-003	4.56126E-003	5.15933E-004	...........
	14	3.875	4.95956E-003	4.31953E-003	5.17500E-004	...........
	15	4.13333	4.76712E-003	4.16930E-003	5.12033E-004	...........
	16	4.39167	4.57987E-003	4.64289E-003	5.14333E-004	...........
	17	4.65	4.45987E-003	5.09219E-003	5.10200E-004	...........
	18	4.90833	4.46444E-003	4.20284E-003	5.18366E-004	...........
EOC	QUANT	0.0044644	Open Circuit (V)
PSTATMODEL	IQUANT	4	Pstat Model
PSTATSECTION	LABEL	REF600-11020	Pstat Section
PSTATSERIALNO	LABEL	11020	Pstat Serial Number
CTRLMODE	IQUANT	1	Control Mode
IESTAB	IQUANT	0	I/E Stability
CASPEED	IQUANT	1	Control Amp Speed
CONVENTION	IQUANT	1	Current Convention
ICHRANGE	IQUANT	2	Ich Range
ICHRANGEMODE	TOGGLE	F	Ich Auto Range
ICHOFFSETENABLE	TOGGLE	T	Ich Offset Enable
ICHOFFSET	QUANT	0	Ich Offset (V)
ICHFILTER	IQUANT	3	Ich Filter
VCHRANGE	IQUANT	2	Vch Range
VCHRANGEMODE	TOGGLE	F	Vch Auto Range
VCHOFFSETENABLE	TOGGLE	T	Vch Offset Enable
VCHOFFSET	QUANT	0	Vch Offset (V)
VCHFILTER	IQUANT	3	Vch Filter
ACHRANGE	IQUANT	2	Ach Range
ACHOFFSETENABLE	TOGGLE	F	Ach Offset Enable
ACHOFFSET	QUANT	0	Ach Offset (V)
ACHFILTER	IQUANT	3	Ach Filter
IERANGELOWERLIMIT	IQUANT	1	I/E Range Lower Limit
IERANGEMODE	TOGGLE	F	I/E AutoRange
IERANGE	IQUANT	5	I/E Range
POSFEEDENABLE	TOGGLE	F	Positive Feedback IR Comp
POSFEEDRESISTANCE	QUANT	0	Positive Feedback Resistance (ohm)
ACHSELECT	IQUANT	0	Ach Select
CABLEID	IQUANT	14	Cable ID
DCCALDATE	LABEL	8/19/2019	DC Calibration Date
ACCALDATE	LABEL	8/19/2019	AC Calibration Date
THERMOSELECT	IQUANT	1	Thermo Select
FRAMEWORKVERSION	QUANT	6.33	Framework Version
INSTRUMENTVERSION	LABEL	3.50	Instrument Version
ZCURVE	TABLE
	Pt	Time	Freq	Zreal	Zimag	Zsig	Zmod	Zphz	Idc	Vdc	IERange
	#	s	Hz	ohm	ohm	V	ohm	°	A	V	#
	0	1	1000078	2263.934	-1388.234	1	2655.671	-31.51643	1.652234E-007	0.0067752	8
	1	3	794390.6	2525.309	-1308.089	1	2843.991	-27.38378	-4.924575E-006	0.0073628	8
	2	4	630984.4	2767.978	-1189.795	1	3012.858	-23.26009	-8.931551E-007	0.0068449	8
	3	6	501234.4	2947.356	-1062.016	1	3132.856	-19.81553	-1.254551E-006	0.006428	8
	4	7	398109.4	3092.835	-942.6458	1	3233.297	-16.95037	1.601271E-006	0.0058123	8
	5	8	316265.6	3216.357	-819.6611	1	3319.156	-14.29702	1.348918E-006	0.0057902	8
	6	10	251203.1	3301.962	-701.3713	1	3375.63	-11.99199	3.489379E-007	0.0061632	8
	7	11	199546.9	3368.531	-606.9793	1	3422.78	-10.21458	-3.351982E-007	0.0060711	8
	8	12	158578.1	3417.818	-535.5863	1	3459.528	-8.906058	4.374581E-006	0.0051468	8
	9	14	125953.1	3481.906	-435.4036	1	3509.023	-7.127696	-7.431096E-009	0.0061889	7
	10	15	100078.1	3509.118	-391.0934	1	3530.845	-6.359407	-6.505186E-008	0.0061354	7
	11	16	79453.13	3540.456	-366.029	1	3559.326	-5.902537	6.831365E-009	0.0061302	7
	12	18	63140.62	3570.431	-348.8238	1	3587.43	-5.579972	-3.577281E-008	0.0061301	7
	13	19	50203.12	3600.867	-339.9485	1	3616.878	-5.393162	-1.029126E-008	0.0060977	7
	14	20	39890.62	3631.387	-339.1565	1	3647.19	-5.335711	5.496921E-008	0.0059517	7
	15	22	31640.63	3662.513	-346.5895	1	3678.876	-5.405893	-2.948449E-008	0.0060386	7
	16	23	25171.88	3697.627	-360.7754	1	3715.185	-5.572679	3.984841E-008	0.0059876	7
	17	24	20015.62	3736.859	-381.2268	1	3756.255	-5.825047	-8.925468E-009	0.0060856	7
	18	26	15890.62	3775.705	-410.1882	1	3797.921	-6.20023	9.834953E-009	0.0061216	7
	19	27	12609.37	3820.923	-444.4423	1	3846.684	-6.634718	-4.733848E-008	0.0060962	7
	20	29	10078.13	3868.949	-483.3349	1	3899.023	-7.120879	5.352993E-008	0.0059567	7
	21	30	8015.625	3919.824	-535.2943	1	3956.206	-7.776256	-3.417108E-008	0.0061193	7
	22	31	6328.125	3978.198	-586.8479	1	4021.25	-8.391524	-3.404763E-008	0.0061221	7
	23	33	5015.625	4035.152	-652.0477	1	4087.496	-9.179184	5.561304E-008	0.00595	7
	24	34	3984.375	4093.284	-725.4476	1	4157.072	-10.0501	1.080226E-008	0.0061273	7
	25	35	3170.956	4150.212	-824.7002	1	4231.358	-11.239	1.010217E-008	0.006021	7
	26	37	2527.573	4205.444	-941.4485	1	4309.535	-12.61843	8.886347E-009	0.0060128	7
	27	38	1976.103	4267.971	-1100.881	1	4407.666	-14.46361	-2.848121E-008	0.0060377	7
	28	39	1577.524	4319.06	-1282.184	1	4505.36	-16.53439	-1.849551E-008	0.0060178	7
	29	41	1265.625	4381.807	-1515.797	1	4636.58	-19.08203	8.941027E-009	0.0060051	7
	30	42	998.264	4452.278	-1822.91	1	4811.006	-22.26582	4.059155E-008	0.0059189	7
	31	43	796.875	4522.816	-2191.098	1	5025.612	-25.84807	-9.431762E-009	0.0060661	7
	32	45	627.7902	4614.756	-2677.606	1	5335.312	-30.12347	-3.438222E-008	0.0061167	7
	33	46	505.5147	4709.672	-3226.26	1	5708.745	-34.41225	-6.540659E-008	0.0062338	7
	34	48	397.9953	4842.635	-3973.01	1	6263.858	-39.36625	5.899587E-009	0.0060522	7
	35	49	315.5048	5001.316	-4876.966	1	6985.554	-44.27879	6.071708E-009	0.0060521	7
	36	50	252.4038	5194.339	-5947.946	1	7896.786	-48.8693	5.931421E-009	0.0060461	7
	37	52	198.6229	5460.397	-7365.432	1	9168.726	-53.44844	6.330876E-009	0.0060511	7
	38	53	158.3615	5787.461	-9012.95	1	10711.12	-57.29437	3.757911E-010	0.0059827	6
	39	54	125.558	6217.198	-11081.21	1	12706.17	-60.70507	7.545358E-010	0.0059882	6
	40	56	100.4464	6744.361	-13504.71	1	15095.15	-63.46208	7.214223E-010	0.0059919	6
	41	57	79.00281	7496.209	-16647.77	1	18257.63	-65.75876	8.593418E-010	0.0059858	6
	42	58	63.3446	8354.896	-20088.29	1	21756.46	-67.41714	2.98273E-010	0.0059868	6
	43	60	49.86702	9580.64	-24879.72	1	26660.63	-68.93938	6.411802E-010	0.0059882	6
	44	61	39.72458	10936.7	-30184.32	1	32104.59	-70.083	6.519202E-010	0.005989	6
	45	63	31.6723	12637.9	-36611.17	1	38731.05	-70.9557	9.595764E-010	0.0059885	6
	46	64	24.93351	14999.22	-44799.44	1	47243.69	-71.48904	4.501351E-010	0.0059891	6
	47	65	19.86229	17799.09	-54272.25	1	57116.41	-71.84261	8.333881E-010	0.0059876	6
	48	67	15.83615	21004.04	-65305.7	1	68600.32	-72.17084	1.451045E-009	0.0059894	6
	49	68	12.40079	26296.49	-80161.18	1	84364.21	-71.83817	-6.111133E-010	0.0059898	6
	50	70	9.93114	31589.52	-96496.4	1	101535.4	-71.87337	-1.238648E-010	0.0059909	6
	51	71	7.944915	38561.84	-115684.6	1	121942.4	-71.56492	7.190466E-010	0.0059948	5
	52	73	6.317385	47510.48	-139261.2	1	147142.5	-71.16236	-1.021971E-010	0.0060066	5
	53	75	5.008013	59192.35	-167484.8	1	177637	-70.53561	2.076142E-010	0.005986	5
	54	77	3.945707	74241.02	-201593.8	1	214829.6	-69.78274	2.372611E-010	0.0059925	5
	55	80	3.158693	91994.47	-238932.2	1	256030.4	-68.94213	6.098414E-011	0.0059989	5
	56	83	2.504006	114675.9	-284074.3	1	306347.5	-68.01691	1.938551E-010	0.0059795	5
	57	86	1.998082	141544.3	-334218.8	1	362955.9	-67.04695	-1.040749E-010	0.0060169	5
	58	89	1.584686	174749.4	-394561.5	1	431527.7	-66.11168	1.534382E-010	0.006029	5
	59	93	1.266892	213965.1	-459852.6	1	507193.7	-65.04789	-1.092307E-010	0.0060228	5
	60	97	0.999041	262230.1	-539712.7	1	600045.4	-64.08628	2.260846E-010	0.0059689	5
