EXPLAIN
TAG	EISPOT
TITLE	LABEL	Potentiostatic EIS	Test &Identifier
DATE	LABEL	9/24/2019	Date
TIME	LABEL	8:28:25	Time
NOTES	NOTES	1	&Notes...
	
PSTAT	PSTAT	REF600-11020	Potentiostat
VDC	POTEN	0.00000E+000	T	DC &Voltage (V)
FREQINIT	QUANT	1.00000E+006	Initial Fre&q. (Hz)
FREQFINAL	QUANT	1.00000E+000	Final Fre&q. (Hz)
PTSPERDEC	QUANT	1.00000E+001	Points/&decade
VAC	QUANT	2.50000E+001	AC &Voltage (mV rms)
AREA	QUANT	1.00000E-002	&Area (cm^2)
CONDIT	TWOPARAM	T	5.00000E+000	0.00000E+000	Conditionin&g	Time(s)	E(V)
DELAY	TWOPARAM	T	5.00000E+000	0.00000E+000	Init. De&lay	Time(s)	Stab.(mV/s)
SPEED	SELECTOR	1	&Optimize for:
ZGUESS	QUANT	1.00000E+004	E&stimated Z (ohms)
OCVCURVE	TABLE	19
	Pt	T	Vf	Vm	Ach	Over
	#	s	V vs. Ref.	V	V	bits
	0	0.258333	3.50242E-002	3.50242E-002	5.79132E-004	...........
	1	0.516667	3.50703E-002	3.74399E-002	5.78599E-004	...........
	2	0.775	3.53521E-002	3.96486E-002	5.81032E-004	...........
	3	1.03333	3.61420E-002	4.16459E-002	5.82632E-004	...........
	4	1.29167	3.75340E-002	4.35160E-002	5.79199E-004	...........
	5	1.55	3.93460E-002	4.52167E-002	5.71999E-004	...........
	6	1.80833	4.13010E-002	4.68287E-002	5.77932E-004	...........
	7	2.06667	4.32057E-002	4.83424E-002	5.78899E-004	...........
	8	2.325	4.49846E-002	4.98168E-002	5.74399E-004	...........
	9	2.58333	4.66343E-002	5.10932E-002	5.75165E-004	...........
	10	2.84167	4.81710E-002	5.23578E-002	5.81032E-004	...........
	11	3.1	4.96064E-002	5.35590E-002	5.79832E-004	...........
	12	3.35833	5.09515E-002	5.46959E-002	5.76266E-004	...........
	13	3.61667	5.22198E-002	5.57690E-002	5.82065E-004	...........
	14	3.875	5.34219E-002	5.68018E-002	5.78032E-004	...........
	15	4.13333	5.45641E-002	5.77812E-002	5.80099E-004	...........
	16	4.39167	5.56505E-002	5.87082E-002	5.71866E-004	...........
	17	4.65	5.66844E-002	5.95998E-002	5.72599E-004	...........
	18	4.90833	5.76688E-002	6.04561E-002	5.78566E-004	...........
EOC	QUANT	0.0576688	Open Circuit (V)
PSTATMODEL	IQUANT	4	Pstat Model
PSTATSECTION	LABEL	REF600-11020	Pstat Section
PSTATSERIALNO	LABEL	11020	Pstat Serial Number
CTRLMODE	IQUANT	1	Control Mode
IESTAB	IQUANT	0	I/E Stability
CASPEED	IQUANT	1	Control Amp Speed
CONVENTION	IQUANT	1	Current Convention
ICHRANGE	IQUANT	2	Ich Range
ICHRANGEMODE	TOGGLE	F	Ich Auto Range
ICHOFFSETENABLE	TOGGLE	T	Ich Offset Enable
ICHOFFSET	QUANT	0	Ich Offset (V)
ICHFILTER	IQUANT	3	Ich Filter
VCHRANGE	IQUANT	2	Vch Range
VCHRANGEMODE	TOGGLE	F	Vch Auto Range
VCHOFFSETENABLE	TOGGLE	T	Vch Offset Enable
VCHOFFSET	QUANT	0	Vch Offset (V)
VCHFILTER	IQUANT	3	Vch Filter
ACHRANGE	IQUANT	2	Ach Range
ACHOFFSETENABLE	TOGGLE	F	Ach Offset Enable
ACHOFFSET	QUANT	0	Ach Offset (V)
ACHFILTER	IQUANT	3	Ach Filter
IERANGELOWERLIMIT	IQUANT	1	I/E Range Lower Limit
IERANGEMODE	TOGGLE	F	I/E AutoRange
IERANGE	IQUANT	7	I/E Range
POSFEEDENABLE	TOGGLE	F	Positive Feedback IR Comp
POSFEEDRESISTANCE	QUANT	0	Positive Feedback Resistance (ohm)
ACHSELECT	IQUANT	0	Ach Select
CABLEID	IQUANT	14	Cable ID
DCCALDATE	LABEL	8/19/2019	DC Calibration Date
ACCALDATE	LABEL	8/19/2019	AC Calibration Date
THERMOSELECT	IQUANT	1	Thermo Select
FRAMEWORKVERSION	QUANT	6.33	Framework Version
INSTRUMENTVERSION	LABEL	3.50	Instrument Version
ZCURVE	TABLE
	Pt	Time	Freq	Zreal	Zimag	Zsig	Zmod	Zphz	Idc	Vdc	IERange
	#	s	Hz	ohm	ohm	V	ohm	°	A	V	#
	0	2	1000078	2077.015	-1151.839	1	2375.021	-29.0112	-6.78931E-008	0.060211	8
	1	3	794390.6	2281.193	-1079.966	1	2523.919	-25.33389	4.95764E-006	0.0588604	8
	2	5	630984.4	2464.028	-962.178	1	2645.226	-21.33014	-5.226457E-007	0.0595751	8
	3	6	501234.4	2626.271	-846.7895	1	2759.411	-17.8709	-2.723476E-006	0.0599769	8
	4	7	398109.4	2706.696	-744.6821	1	2807.269	-15.38295	9.514549E-007	0.0593309	8
	5	9	316265.6	2793.818	-649.2559	1	2868.266	-13.08277	3.158239E-007	0.0592329	8
	6	10	251203.1	2869.858	-565.2155	1	2924.988	-11.14174	-2.142962E-006	0.0599247	8
	7	11	199546.9	2918.707	-499.8615	1	2961.201	-9.71827	3.207447E-006	0.0586381	8
	8	13	158578.1	2961.533	-448.4601	1	2995.296	-8.610786	-4.577606E-007	0.0594227	8
	9	14	125953.1	3013.668	-379.1103	1	3037.42	-7.169971	2.912297E-007	0.0587655	7
	10	16	100078.1	3041.198	-348.77	1	3061.131	-6.542202	-5.065925E-008	0.0593843	7
	11	17	79453.13	3073.249	-338.294	1	3091.812	-6.281658	2.818332E-009	0.0592699	7
	12	18	63140.62	3105.135	-335.1844	1	3123.173	-6.16095	6.749279E-008	0.0591517	7
	13	20	50203.12	3138.344	-338.9154	1	3156.591	-6.163589	1.457621E-008	0.0592239	7
	14	21	39890.62	3172.667	-348.5608	1	3191.757	-6.26958	-3.678396E-008	0.0593079	7
	15	22	31640.63	3209.169	-365.0918	1	3229.87	-6.490362	-1.683277E-008	0.0592746	7
	16	24	25171.88	3248.922	-388.9835	1	3272.125	-6.82735	7.438747E-008	0.0592449	7
	17	25	20015.62	3291.057	-420.3914	1	3317.798	-7.279398	-5.619441E-008	0.0593843	7
	18	26	15890.62	3337.179	-457.4672	1	3368.388	-7.805571	-1.212276E-008	0.0593464	7
	19	28	12609.37	3388.639	-506.0892	1	3426.223	-8.494273	-3.749965E-008	0.0594306	7
	20	29	10078.13	3442.687	-558.8175	1	3487.746	-9.219847	2.010418E-009	0.0592347	7
	21	31	8015.625	3504.092	-624.3452	1	3559.279	-10.10271	6.971813E-008	0.0592583	7
	22	32	6328.125	3572.062	-700.7053	1	3640.14	-11.09837	-4.496722E-009	0.059397	7
	23	33	5015.625	3645.192	-790.1826	1	3729.855	-12.23099	-3.62479E-008	0.0593175	7
	24	35	3984.375	3724.014	-895.1613	1	3830.091	-13.51607	1.171339E-007	0.0591135	7
	25	36	3170.956	3806.406	-1015.97	1	3939.66	-14.94447	1.21808E-007	0.0591063	7
	26	37	2527.573	3894.023	-1158.516	1	4062.706	-16.56834	7.323106E-008	0.0591323	7
	27	39	1976.103	3994.427	-1344.718	1	4214.702	-18.60574	-3.36679E-008	0.0593326	7
	28	40	1577.524	4092.693	-1552.554	1	4377.278	-20.77413	-7.025173E-009	0.059249	7
	29	42	1265.625	4194.785	-1801.589	1	4565.298	-23.24271	-4.957747E-009	0.0592518	7
	30	43	998.264	4304.318	-2128	1	4801.618	-26.30721	-8.211993E-009	0.0592514	7
	31	44	796.875	4416.624	-2513.847	1	5081.928	-29.6476	-4.094074E-008	0.0593823	7
	32	46	627.7902	4547.665	-3021.06	1	5459.676	-33.59649	1.677408E-008	0.0592243	7
	33	47	505.5147	4679.922	-3591.226	1	5899.032	-37.5015	7.437342E-008	0.059134	7
	34	48	397.9953	4844.363	-4376.703	1	6528.658	-42.09665	6.230055E-009	0.0593164	7
	35	50	315.5048	5035.218	-5326.678	1	7329.865	-46.61119	5.842781E-009	0.0593121	7
	36	51	252.4038	5257.319	-6452.595	1	8323.184	-50.82821	6.65886E-009	0.0593119	7
	37	52	198.6229	5549.473	-7949.032	1	9694.52	-55.07988	6.277539E-009	0.0593115	7
	38	54	158.3615	5899.703	-9695.32	1	11349.26	-58.67905	4.001371E-010	0.0592466	6
	39	55	125.558	6346.925	-11894.25	1	13481.71	-61.91504	-5.261698E-010	0.0592534	6
	40	57	100.4464	6888.534	-14480.2	1	16035.21	-64.55859	5.850164E-010	0.0592503	6
	41	58	79.00281	7627.157	-17902.14	1	19459.19	-66.92371	-3.991557E-010	0.059245	6
	42	59	63.3446	8450.878	-21609.86	1	23203.52	-68.64124	-9.731431E-010	0.0592488	6
	43	61	49.86702	9930.56	-26785.81	1	28567.39	-69.65826	-1.27196E-009	0.0592474	6
	44	62	39.72458	11386.78	-32580.68	1	34513.18	-70.73573	1.571293E-010	0.0592532	6
	45	64	31.6723	13418.53	-39572.88	1	41786	-71.26903	2.775854E-011	0.0592507	6
	46	65	24.93351	16019.01	-48525.29	1	51101	-71.73107	-7.234499E-010	0.0592451	6
	47	66	19.86229	19322.8	-58731.46	1	61828.43	-71.78867	-4.542764E-010	0.0592517	6
	48	68	15.83615	23035.63	-70766.28	1	74421.14	-71.96905	-2.041374E-009	0.0592455	6
	49	69	12.40079	29588.79	-86607.98	1	91522.89	-71.13776	5.139255E-010	0.059249	6
	50	71	9.93114	35828.21	-103198.9	1	109241.3	-70.85421	-1.169255E-009	0.0592564	5
	51	72	7.944915	44076.39	-123131.1	1	130782.3	-70.30451	-5.698313E-010	0.0592459	5
	52	74	6.317385	54751.14	-147056.7	1	156918.3	-69.57903	-5.149305E-010	0.0592443	5
	53	76	5.008013	68089.45	-175581.4	1	188321.5	-68.80399	-9.001991E-010	0.0592533	5
	54	78	3.945707	84884.26	-209754.2	1	226279	-67.96759	-1.057537E-009	0.0592461	5
	55	81	3.158693	104151	-247103.3	1	268155.7	-67.14518	-6.634091E-010	0.0592532	5
	56	84	2.504006	128347.6	-292259.1	1	319199.8	-66.29099	-1.116078E-009	0.0592501	5
	57	87	1.998082	157156.5	-341854.3	1	376247.9	-65.31091	-6.635134E-010	0.059206	5
	58	90	1.584686	191686.1	-401786.5	1	445169.5	-64.49492	-8.940616E-010	0.0592291	5
	59	94	1.266892	233331.6	-466974	1	522023.3	-63.45021	-7.26662E-010	0.0592054	5
	60	98	0.999041	285675.7	-547495.7	1	617545.3	-62.44507	-1.161905E-009	0.0592765	5
