EXPLAIN
TAG	EISPOT
TITLE	LABEL	Potentiostatic IDE	Test &Identifier
DATE	LABEL	9/12/2019	Date
TIME	LABEL	11:13:55	Time
NOTES	NOTES	1	&Notes...
	
PSTAT	PSTAT	REF600-11020	Potentiostat
VDC	POTEN	0.00000E+000	T	DC &Voltage (V)
FREQINIT	QUANT	1.00000E+006	Initial Fre&q. (Hz)
FREQFINAL	QUANT	1.00000E+000	Final Fre&q. (Hz)
PTSPERDEC	QUANT	1.00000E+001	Points/&decade
VAC	QUANT	2.50000E+001	AC &Voltage (mV rms)
AREA	QUANT	1.00000E-002	&Area (cm^2)
CONDIT	TWOPARAM	T	5.00000E+000	0.00000E+000	Conditionin&g	Time(s)	E(V)
DELAY	TWOPARAM	T	5.00000E+000	0.00000E+000	Init. De&lay	Time(s)	Stab.(mV/s)
SPEED	SELECTOR	1	&Optimize for:
ZGUESS	QUANT	1.00000E+007	E&stimated Z (ohms)
OCVCURVE	TABLE	19
	Pt	T	Vf	Vm	Ach	Over
	#	s	V vs. Ref.	V	V	bits
	0	0.258333	4.52062E-003	4.52062E-003	5.67099E-004	...........
	1	0.516667	4.51761E-003	4.36347E-003	5.68666E-004	...........
	2	0.775	4.49964E-003	4.23840E-003	5.65732E-004	...........
	3	1.03333	4.45043E-003	4.12567E-003	5.65999E-004	...........
	4	1.29167	4.36601E-003	4.02057E-003	5.66999E-004	...........
	5	1.55	4.25909E-003	3.92864E-003	5.62999E-004	...........
	6	1.80833	4.14680E-003	3.84661E-003	5.63632E-004	...........
	7	2.06667	4.04027E-003	3.76285E-003	5.66432E-004	...........
	8	2.325	3.94342E-003	3.69702E-003	5.63832E-004	...........
	9	2.58333	3.85804E-003	3.73429E-003	5.64399E-004	...........
	10	2.84167	3.79217E-003	3.82562E-003	5.59499E-004	...........
	11	3.1	3.76261E-003	4.00376E-003	5.63532E-004	...........
	12	3.35833	3.78861E-003	4.29336E-003	5.66732E-004	...........
	13	3.61667	3.87369E-003	3.99631E-003	5.60099E-004	...........
	14	3.875	3.98663E-003	4.33165E-003	5.62099E-004	...........
	15	4.13333	4.08342E-003	4.08752E-003	5.64199E-004	...........
	16	4.39167	4.14083E-003	4.01779E-003	5.63766E-004	...........
	17	4.65	4.14716E-003	3.82489E-003	5.58899E-004	...........
	18	4.90833	4.09846E-003	3.90711E-003	5.65099E-004	...........
EOC	QUANT	0.0040985	Open Circuit (V)
PSTATMODEL	IQUANT	4	Pstat Model
PSTATSECTION	LABEL	REF600-11020	Pstat Section
PSTATSERIALNO	LABEL	11020	Pstat Serial Number
CTRLMODE	IQUANT	1	Control Mode
IESTAB	IQUANT	0	I/E Stability
CASPEED	IQUANT	1	Control Amp Speed
CONVENTION	IQUANT	1	Current Convention
ICHRANGE	IQUANT	2	Ich Range
ICHRANGEMODE	TOGGLE	F	Ich Auto Range
ICHOFFSETENABLE	TOGGLE	T	Ich Offset Enable
ICHOFFSET	QUANT	0	Ich Offset (V)
ICHFILTER	IQUANT	3	Ich Filter
VCHRANGE	IQUANT	2	Vch Range
VCHRANGEMODE	TOGGLE	F	Vch Auto Range
VCHOFFSETENABLE	TOGGLE	T	Vch Offset Enable
VCHOFFSET	QUANT	0	Vch Offset (V)
VCHFILTER	IQUANT	3	Vch Filter
ACHRANGE	IQUANT	2	Ach Range
ACHOFFSETENABLE	TOGGLE	F	Ach Offset Enable
ACHOFFSET	QUANT	0	Ach Offset (V)
ACHFILTER	IQUANT	3	Ach Filter
IERANGELOWERLIMIT	IQUANT	1	I/E Range Lower Limit
IERANGEMODE	TOGGLE	F	I/E AutoRange
IERANGE	IQUANT	2	I/E Range
POSFEEDENABLE	TOGGLE	F	Positive Feedback IR Comp
POSFEEDRESISTANCE	QUANT	0	Positive Feedback Resistance (ohm)
ACHSELECT	IQUANT	0	Ach Select
CABLEID	IQUANT	14	Cable ID
DCCALDATE	LABEL	8/19/2019	DC Calibration Date
ACCALDATE	LABEL	8/19/2019	AC Calibration Date
THERMOSELECT	IQUANT	1	Thermo Select
FRAMEWORKVERSION	QUANT	6.33	Framework Version
INSTRUMENTVERSION	LABEL	3.50	Instrument Version
ZCURVE	TABLE
	Pt	Time	Freq	Zreal	Zimag	Zsig	Zmod	Zphz	Idc	Vdc	IERange
	#	s	Hz	ohm	ohm	V	ohm	°	A	V	#
	0	2	1000078	2365.347	-1674.55	1	2898.1	-35.29662	2.774998E-006	0.0053234	8
	1	3	794390.6	2703.37	-1590.964	1	3136.778	-30.4773	-2.043971E-006	0.0061961	8
	2	5	630984.4	3000.113	-1464.29	1	3338.386	-26.016	3.41798E-006	0.0050446	8
	3	6	501234.4	3250.956	-1317.391	1	3507.739	-22.05936	-3.039251E-006	0.0060423	8
	4	8	398109.4	3419.566	-1154.247	1	3609.116	-18.65169	-3.453736E-006	0.0064508	8
	5	9	316265.6	3582.464	-991.162	1	3717.048	-15.4652	2.447921E-006	0.0052298	8
	6	11	251203.1	3686.336	-825.5839	1	3777.653	-12.62354	4.968593E-007	0.0053981	8
	7	12	199546.9	3761.157	-719.3578	1	3829.331	-10.82761	-1.635506E-006	0.0059104	8
	8	13	158578.1	3815.366	-635.3136	1	3867.899	-9.453836	-2.198413E-006	0.0058886	8
	9	15	125953.1	3890.766	-485.6105	1	3920.954	-7.114355	-9.286778E-007	0.0081083	7
	10	16	100078.1	3923.552	-431.5035	1	3947.209	-6.27604	-3.420856E-008	0.0056056	7
	11	18	79453.13	3953.716	-395.1992	1	3973.418	-5.70812	-4.517413E-008	0.0056542	7
	12	19	63140.62	3982.981	-373.2214	1	4000.429	-5.353215	8.248234E-008	0.0054452	7
	13	20	50203.12	4011.224	-359.1402	1	4027.269	-5.116268	-4.835112E-008	0.0056248	7
	14	22	39890.62	4045.88	-349.6284	1	4060.959	-4.938996	-2.322738E-008	0.0055753	7
	15	23	31640.63	4068.124	-360.101	1	4084.03	-5.058506	1.423217E-007	0.005376	7
	16	24	25171.88	4096.751	-374.1372	1	4113.8	-5.218083	-4.050946E-008	0.0057191	7
	17	26	20015.62	4127.413	-397.766	1	4146.536	-5.504694	-1.189305E-008	0.0056242	7
	18	27	15890.62	4156.755	-431.9227	1	4179.135	-5.932236	9.122101E-008	0.0054023	7
	19	28	12609.37	4193.712	-478.8207	1	4220.959	-6.513589	-1.150237E-008	0.0056404	7
	20	30	10078.13	4228.534	-535.6536	1	4262.326	-7.219545	8.324334E-008	0.0054426	7
	21	31	8015.625	4268.093	-610.1289	1	4311.481	-8.135383	-1.1743E-008	0.0056261	7
	22	32	6328.125	4312.777	-704.2862	1	4369.905	-9.274663	-1.198835E-008	0.00562	7
	23	33	5015.625	4359.084	-822.6115	1	4436.024	-10.68672	-2.312894E-008	0.0055707	7
	24	35	3984.375	4411.532	-966.349	1	4516.131	-12.35553	7.325138E-008	0.0055625	7
	25	36	3170.956	4469.836	-1139.622	1	4612.827	-14.30332	3.187229E-008	0.0055585	7
	26	37	2527.573	4536.302	-1352.325	1	4733.584	-16.59994	-2.185065E-008	0.0057304	7
	27	39	1976.103	4622.186	-1636.722	1	4903.413	-19.49912	-7.044791E-008	0.0056914	7
	28	40	1577.524	4708.374	-1954.893	1	5098.077	-22.54798	8.467167E-008	0.0054366	7
	29	41	1265.625	4812.673	-2329.792	1	5346.938	-25.8314	2.824587E-009	0.005513	7
	30	43	998.264	4940.24	-2827.341	1	5692.084	-29.78287	-3.914525E-009	0.0056102	7
	31	44	796.875	5080.296	-3397.42	1	6111.618	-33.77241	-1.047723E-008	0.0056304	7
	32	45	627.7902	5252.186	-4137.396	1	6686.068	-38.22918	9.349163E-008	0.0053894	7
	33	47	505.5147	5430.996	-4966.755	1	7359.645	-42.44354	-1.004876E-008	0.0056262	7
	34	48	397.9953	5663.388	-6074.592	1	8305.097	-47.00636	6.72126E-009	0.0055897	7
	35	49	315.5048	5928.962	-7413.027	1	9492.395	-51.34707	7.801781E-009	0.005588	7
	36	51	252.4038	6236.459	-8994.304	1	10944.9	-55.26338	1.025989E-009	0.005525	6
	37	52	198.6229	6633.87	-11091.25	1	12923.78	-59.11562	1.558698E-009	0.0055289	6
	38	53	158.3615	7103.592	-13544.87	1	15294.59	-62.32529	5.65601E-010	0.0055273	6
	39	55	125.558	7708.829	-16634.78	1	18334.17	-65.13622	1.361405E-009	0.0055259	6
	40	56	100.4464	8437.098	-20291.46	1	21975.62	-67.42268	1.677676E-010	0.0055259	6
	41	57	79.00281	9457.785	-25126.2	1	26847.26	-69.37309	2.033937E-009	0.0055225	6
	42	59	63.3446	10483.42	-30425.29	1	32180.74	-70.98796	1.223049E-009	0.0055249	6
	43	60	49.86702	12714.85	-37646.49	1	39735.7	-71.33794	1.747112E-010	0.0055235	6
	44	61	39.72458	14690.69	-45981.45	1	48271.21	-72.28175	1.148662E-009	0.0055255	6
	45	63	31.6723	17708.94	-55873.75	1	58612.99	-72.41422	1.639797E-009	0.0055185	6
	46	64	24.93351	21714.69	-68653.66	1	72005.92	-72.44819	9.695761E-010	0.005523	6
	47	65	19.86229	26684.92	-82978.77	1	87163.98	-72.17287	1.010263E-009	0.0055241	6
	48	67	15.83615	33006.05	-100876.6	1	106139	-71.88229	2.344225E-009	0.0055275	6
	49	68	12.40079	42860.91	-122014.6	1	129323.7	-70.6448	1.393718E-010	0.0055298	5
	50	70	9.93114	53231.38	-144979	1	154442.5	-69.83848	1.025055E-009	0.0055211	5
	51	71	7.944915	66273.4	-172040	1	184363.5	-68.93227	4.420124E-010	0.0055227	5
	52	73	6.317385	83494.97	-204052.9	1	220474.5	-67.74646	9.529034E-010	0.005521	5
	53	75	5.008013	105133.3	-241783.9	1	263652.2	-66.49946	7.373567E-010	0.0055355	5
	54	77	3.945707	133087.7	-285771	1	315241.8	-65.02792	5.620064E-011	0.0055263	5
	55	80	3.158693	165261.6	-331739.5	1	370624.4	-63.51904	3.041792E-010	0.0055231	5
	56	83	2.504006	204839	-384808.3	1	435931.7	-61.97299	4.71265E-010	0.0055327	5
	57	86	1.998082	250946.9	-441751.1	1	508053.5	-60.40026	5.342792E-010	0.0055472	5
	58	89	1.584686	305861.4	-503605.7	1	589211.3	-58.72789	3.565949E-010	0.0055	5
	59	93	1.266892	367888.3	-570909.7	1	679175.8	-57.20269	2.760122E-010	0.0055596	5
	60	97	0.999041	439388.3	-645561.6	1	780904.5	-55.75964	1.171322E-010	0.0054829	5
