EXPLAIN
TAG	EISPOT
TITLE	LABEL	Potentiostatic EIS	Test &Identifier
DATE	LABEL	11/11/2019	Date
TIME	LABEL	12:52:37	Time
NOTES	NOTES	3	&Notes...
	
	
	
PSTAT	PSTAT	REF600-11020	Potentiostat
VDC	POTEN	0.00000E+000	T	DC &Voltage (V)
FREQINIT	QUANT	1.00000E+006	Initial Fre&q. (Hz)
FREQFINAL	QUANT	1.00000E+000	Final Fre&q. (Hz)
PTSPERDEC	QUANT	1.00000E+001	Points/&decade
VAC	QUANT	2.50000E+001	AC &Voltage (mV rms)
AREA	QUANT	1.00000E-002	&Area (cm^2)
CONDIT	TWOPARAM	T	5.00000E+000	0.00000E+000	Conditionin&g	Time(s)	E(V)
DELAY	TWOPARAM	T	5.00000E+000	0.00000E+000	Init. De&lay	Time(s)	Stab.(mV/s)
SPEED	SELECTOR	1	&Optimize for:
ZGUESS	QUANT	1.00000E+005	E&stimated Z (ohms)
OCVCURVE	TABLE	19
	Pt	T	Vf	Vm	Ach	Over
	#	s	V vs. Ref.	V	V	bits
	0	0.258333	7.89442E-003	7.89442E-003	6.21365E-004	...........
	1	0.516667	7.89380E-003	7.86167E-003	6.23398E-004	...........
	2	0.775	7.88967E-003	7.81554E-003	6.30931E-004	...........
	3	1.03333	7.87404E-003	7.61490E-003	6.29898E-004	...........
	4	1.29167	7.83712E-003	7.73303E-003	6.26365E-004	...........
	5	1.55	7.77831E-003	7.41062E-003	6.33365E-004	...........
	6	1.80833	7.70385E-003	7.49094E-003	6.31165E-004	...........
	7	2.06667	7.62139E-003	7.47674E-003	6.34398E-004	...........
	8	2.325	7.54499E-003	7.32771E-003	6.23298E-004	...........
	9	2.58333	7.48552E-003	7.46927E-003	6.26931E-004	...........
	10	2.84167	7.43994E-003	7.16581E-003	6.28598E-004	...........
	11	3.1	7.39802E-003	7.37158E-003	6.25298E-004	...........
	12	3.35833	7.35779E-003	7.36790E-003	6.20698E-004	...........
	13	3.61667	7.33219E-003	7.31188E-003	6.20365E-004	...........
	14	3.875	7.32718E-003	7.33477E-003	6.25898E-004	...........
	15	4.13333	7.33055E-003	7.32653E-003	6.17765E-004	...........
	16	4.39167	7.33180E-003	7.32516E-003	6.22932E-004	...........
	17	4.65	7.33055E-003	7.33339E-003	6.24532E-004	...........
	18	4.90833	7.32921E-003	7.33180E-003	6.24532E-004	...........
EOC	QUANT	0.0073292	Open Circuit (V)
PSTATMODEL	IQUANT	4	Pstat Model
PSTATSECTION	LABEL	REF600-11020	Pstat Section
PSTATSERIALNO	LABEL	11020	Pstat Serial Number
CTRLMODE	IQUANT	1	Control Mode
IESTAB	IQUANT	0	I/E Stability
CASPEED	IQUANT	1	Control Amp Speed
CONVENTION	IQUANT	1	Current Convention
ICHRANGE	IQUANT	2	Ich Range
ICHRANGEMODE	TOGGLE	F	Ich Auto Range
ICHOFFSETENABLE	TOGGLE	T	Ich Offset Enable
ICHOFFSET	QUANT	0	Ich Offset (V)
ICHFILTER	IQUANT	3	Ich Filter
VCHRANGE	IQUANT	2	Vch Range
VCHRANGEMODE	TOGGLE	F	Vch Auto Range
VCHOFFSETENABLE	TOGGLE	T	Vch Offset Enable
VCHOFFSET	QUANT	0	Vch Offset (V)
VCHFILTER	IQUANT	3	Vch Filter
ACHRANGE	IQUANT	2	Ach Range
ACHOFFSETENABLE	TOGGLE	F	Ach Offset Enable
ACHOFFSET	QUANT	0	Ach Offset (V)
ACHFILTER	IQUANT	3	Ach Filter
IERANGELOWERLIMIT	IQUANT	1	I/E Range Lower Limit
IERANGEMODE	TOGGLE	F	I/E AutoRange
IERANGE	IQUANT	5	I/E Range
POSFEEDENABLE	TOGGLE	F	Positive Feedback IR Comp
POSFEEDRESISTANCE	QUANT	0	Positive Feedback Resistance (ohm)
ACHSELECT	IQUANT	0	Ach Select
CABLEID	IQUANT	14	Cable ID
DCCALDATE	LABEL	8/19/2019	DC Calibration Date
ACCALDATE	LABEL	8/19/2019	AC Calibration Date
THERMOSELECT	IQUANT	1	Thermo Select
FRAMEWORKVERSION	QUANT	6.33	Framework Version
INSTRUMENTVERSION	LABEL	3.50	Instrument Version
ZCURVE	TABLE
	Pt	Time	Freq	Zreal	Zimag	Zsig	Zmod	Zphz	Idc	Vdc	IERange
	#	s	Hz	ohm	ohm	V	ohm	°	A	V	#
	0	1	1000078	2266.627	-1517.207	1	2727.548	-33.79707	-3.82947E-006	0.0090954	8
	1	3	794390.6	2555.193	-1467.264	1	2946.502	-29.86565	-5.651913E-006	0.0101985	8
	2	4	630984.4	2825.066	-1366.695	1	3138.288	-25.81651	4.13721E-007	0.0094713	8
	3	5	501234.4	3050.616	-1253.06	1	3297.942	-22.33072	6.939866E-006	0.0081172	8
	4	7	398109.4	3232.376	-1134.173	1	3425.581	-19.3349	-1.249963E-006	0.0085617	8
	5	8	316265.6	3366.318	-1016.98	1	3516.582	-16.80981	5.481891E-006	0.0081519	8
	6	9	251203.1	3494.381	-889.6737	1	3605.859	-14.2841	1.634564E-006	0.0083819	8
	7	11	199546.9	3588.258	-806.5733	1	3677.792	-12.66846	-3.715407E-007	0.0092295	8
	8	12	158578.1	3676.073	-756.6453	1	3753.135	-11.63074	5.222265E-006	0.0081637	8
	9	13	125953.1	3753.062	-625.8616	1	3804.889	-9.46754	-2.587517E-006	0.0108912	7
	10	15	100078.1	3810.339	-596.8045	1	3856.794	-8.90178	7.589745E-007	0.0085523	7
	11	16	79453.13	3863.859	-595.0808	1	3909.415	-8.755447	9.230016E-007	0.0081032	7
	12	17	63140.62	3917.494	-602.5751	1	3963.566	-8.744501	-6.659884E-007	0.0086254	7
	13	19	50203.12	3974.66	-628.3394	1	4024.02	-8.983336	9.26341E-007	0.0080974	7
	14	20	39890.62	4031.771	-662.2147	1	4085.793	-9.327497	-6.671823E-007	0.0086263	7
	15	21	31640.63	4097.81	-715.8079	1	4159.859	-9.90849	3.623283E-007	0.0092263	7
	16	23	25171.88	4169.087	-782.4728	1	4241.88	-10.62986	9.91424E-008	0.0075194	7
	17	24	20015.62	4248.479	-865.048	1	4335.652	-11.50887	-2.869149E-007	0.0079903	7
	18	25	15890.62	4333.782	-966.324	1	4440.208	-12.56989	-6.680903E-007	0.0086185	7
	19	27	12609.37	4437.842	-1089.703	1	4569.671	-13.79591	9.271037E-007	0.0080911	7
	20	28	10078.13	4541.751	-1226.244	1	4704.378	-15.10923	-8.051683E-007	0.0102735	7
	21	29	8015.625	4670.827	-1392.621	1	4874.015	-16.60211	-2.532431E-007	0.0099696	7
	22	31	6328.125	4819.97	-1594.681	1	5076.92	-18.30673	-8.052559E-007	0.0102689	7
	23	32	5015.625	4988.383	-1823.955	1	5311.382	-20.08446	-1.106633E-006	0.0097433	7
	24	33	3984.375	5181.647	-2093.68	1	5588.646	-22.0015	8.864293E-007	0.007209	7
	25	35	3170.956	5395.282	-2390.31	1	5901.072	-23.89511	7.554388E-008	0.0096088	7
	26	36	2527.573	5637.289	-2740.22	1	6268	-25.92385	-2.849771E-007	0.0079891	7
	27	38	1976.103	5938.818	-3178.721	1	6736.01	-28.15768	-1.108783E-006	0.0097413	7
	28	39	1577.524	6243.089	-3652.197	1	7232.89	-30.32757	-2.918456E-007	0.0079845	7
	29	41	1265.625	6615.277	-4175.358	1	7822.755	-32.25885	1.000853E-006	0.0077083	7
	30	42	998.264	7045.937	-4829.421	1	8542.162	-34.42749	9.297538E-007	0.0080866	7
	31	43	796.875	7519.35	-5538.948	1	9339.195	-36.37632	5.668907E-007	0.0089173	7
	32	45	627.7902	8077.945	-6403.792	1	10308.33	-38.40562	-9.607182E-007	0.0092215	7
	33	46	505.5147	8645.898	-7302.689	1	11317.28	-40.18584	-1.108754E-006	0.0100693	7
	34	47	397.9953	9301.903	-8464.883	1	12576.95	-42.3027	5.951329E-009	0.0087671	7
	35	49	315.5048	9975.73	-9789.74	1	13976.91	-44.46086	1.003841E-009	0.0087093	6
	36	50	252.4038	10629.5	-11327.81	1	15534.02	-46.82156	3.800482E-010	0.0087089	6
	37	52	198.6229	11346.83	-13362.83	1	17530.43	-49.66428	5.312423E-010	0.0087009	6
	38	53	158.3615	12038.65	-15766.81	1	19837.38	-52.63668	1.237916E-010	0.0087057	6
	39	54	125.558	12812.73	-18848.46	1	22791.02	-55.79309	7.765931E-010	0.0087016	6
	40	56	100.4464	13649.5	-22546.94	1	26356.66	-58.81005	1.14778E-009	0.0087104	6
	41	57	79.00281	14612.63	-27571.17	1	31204.14	-62.07656	4.207042E-010	0.0087084	6
	42	58	63.3446	16092.31	-33365.38	1	37043.37	-64.25173	6.498479E-010	0.0087073	6
	43	60	49.86702	17256.62	-41093.23	1	44569.55	-67.2206	-3.972354E-010	0.0087018	6
	44	61	39.72458	19330.31	-49911.14	1	53523.66	-68.82889	1.163312E-009	0.0087049	6
	45	62	31.6723	21757.08	-60989.3	1	64753.89	-70.36685	3.436488E-010	0.0087095	6
	46	64	24.93351	25405.73	-75127.7	1	79307.13	-71.31614	2.954388E-010	0.0087101	6
	47	65	19.86229	29691.18	-91541.77	1	96236.5	-72.02975	8.656759E-010	0.0087016	6
	48	66	15.83615	35434.16	-110465.6	1	116009.6	-72.21527	-6.194156E-010	0.0086966	5
	49	68	12.40079	42914.26	-137693.8	1	144226.3	-72.6896	-3.062443E-010	0.008707	5
	50	69	9.93114	53325.07	-164781.8	1	173195.3	-72.06789	6.421881E-010	0.0087046	5
	51	71	7.944915	65312.95	-198513.5	1	208981.8	-71.78828	-4.79649E-012	0.0087076	5
	52	72	6.317385	81606.27	-238874.6	1	252429.5	-71.1384	-1.261323E-010	0.0087233	5
	53	75	5.008013	102629.2	-287219.4	1	305004.5	-70.33717	6.541884E-011	0.0086966	5
	54	77	3.945707	129907.3	-345215.5	1	368849.1	-69.37828	1.863534E-010	0.0087012	5
	55	80	3.158693	162484.3	-407969.9	1	439136.2	-68.28384	-3.996745E-011	0.0087106	5
	56	83	2.504006	203626.9	-484343.1	1	525406.6	-67.1972	1.578548E-010	0.008696	5
	57	86	1.998082	255742.8	-568228.4	1	623127.5	-65.7689	-1.624547E-011	0.0087302	5
	58	89	1.584686	312598.1	-666173.7	1	735870.2	-64.86196	-2.55646E-011	0.0087553	5
	59	92	1.266892	384081.4	-767761.5	1	858473.2	-63.42297	-4.768701E-011	0.008726	5
	60	97	0.999041	472108.1	-911750.9	1	1026731	-62.62471	3.280686E-010	0.0087144	5
