EXPLAIN
TAG	EISPOT
TITLE	LABEL	Potentiostatic EIS	Test &Identifier
DATE	LABEL	10/18/2019	Date
TIME	LABEL	9:42:43	Time
NOTES	NOTES	1	&Notes...
	
PSTAT	PSTAT	REF600-11020	Potentiostat
VDC	POTEN	0.00000E+000	T	DC &Voltage (V)
FREQINIT	QUANT	1.00000E+006	Initial Fre&q. (Hz)
FREQFINAL	QUANT	1.00000E+000	Final Fre&q. (Hz)
PTSPERDEC	QUANT	1.00000E+001	Points/&decade
VAC	QUANT	2.50000E+001	AC &Voltage (mV rms)
AREA	QUANT	1.00000E-002	&Area (cm^2)
CONDIT	TWOPARAM	T	5.00000E+000	0.00000E+000	Conditionin&g	Time(s)	E(V)
DELAY	TWOPARAM	T	5.00000E+000	0.00000E+000	Init. De&lay	Time(s)	Stab.(mV/s)
SPEED	SELECTOR	0	&Optimize for:
ZGUESS	QUANT	1.00000E+005	E&stimated Z (ohms)
OCVCURVE	TABLE	19
	Pt	T	Vf	Vm	Ach	Over
	#	s	V vs. Ref.	V	V	bits
	0	0.258333	4.78937E-003	4.78937E-003	5.31433E-004	...........
	1	0.516667	4.78869E-003	4.75411E-003	5.35466E-004	...........
	2	0.775	4.78560E-003	4.77520E-003	5.31133E-004	...........
	3	1.03333	4.77827E-003	4.68874E-003	5.37399E-004	...........
	4	1.29167	4.76310E-003	4.61337E-003	5.27500E-004	...........
	5	1.55	4.73290E-003	4.52738E-003	5.33100E-004	...........
	6	1.80833	4.68329E-003	4.48256E-003	5.33000E-004	...........
	7	2.06667	4.62009E-003	4.45332E-003	5.38066E-004	...........
	8	2.325	4.55619E-003	4.42458E-003	5.27433E-004	...........
	9	2.58333	4.50185E-003	4.38843E-003	5.27533E-004	...........
	10	2.84167	4.45948E-003	4.38512E-003	5.31200E-004	...........
	11	3.1	4.42717E-003	4.37484E-003	5.33133E-004	...........
	12	3.35833	4.40335E-003	4.36025E-003	5.30966E-004	...........
	13	3.61667	4.38621E-003	4.34476E-003	5.32533E-004	...........
	14	3.875	4.37265E-003	4.33533E-003	5.31066E-004	...........
	15	4.13333	4.36024E-003	4.32907E-003	5.31266E-004	...........
	16	4.39167	4.34864E-003	4.32187E-003	5.26600E-004	...........
	17	4.65	4.33751E-003	4.26552E-003	5.27233E-004	...........
	18	4.90833	4.32409E-003	4.26256E-003	5.34300E-004	...........
EOC	QUANT	0.0043241	Open Circuit (V)
PSTATMODEL	IQUANT	4	Pstat Model
PSTATSECTION	LABEL	REF600-11020	Pstat Section
PSTATSERIALNO	LABEL	11020	Pstat Serial Number
CTRLMODE	IQUANT	1	Control Mode
IESTAB	IQUANT	0	I/E Stability
CASPEED	IQUANT	1	Control Amp Speed
CONVENTION	IQUANT	1	Current Convention
ICHRANGE	IQUANT	2	Ich Range
ICHRANGEMODE	TOGGLE	F	Ich Auto Range
ICHOFFSETENABLE	TOGGLE	T	Ich Offset Enable
ICHOFFSET	QUANT	0	Ich Offset (V)
ICHFILTER	IQUANT	3	Ich Filter
VCHRANGE	IQUANT	2	Vch Range
VCHRANGEMODE	TOGGLE	F	Vch Auto Range
VCHOFFSETENABLE	TOGGLE	T	Vch Offset Enable
VCHOFFSET	QUANT	0	Vch Offset (V)
VCHFILTER	IQUANT	3	Vch Filter
ACHRANGE	IQUANT	2	Ach Range
ACHOFFSETENABLE	TOGGLE	F	Ach Offset Enable
ACHOFFSET	QUANT	0	Ach Offset (V)
ACHFILTER	IQUANT	3	Ach Filter
IERANGELOWERLIMIT	IQUANT	1	I/E Range Lower Limit
IERANGEMODE	TOGGLE	F	I/E AutoRange
IERANGE	IQUANT	4	I/E Range
POSFEEDENABLE	TOGGLE	F	Positive Feedback IR Comp
POSFEEDRESISTANCE	QUANT	0	Positive Feedback Resistance (ohm)
ACHSELECT	IQUANT	0	Ach Select
CABLEID	IQUANT	14	Cable ID
DCCALDATE	LABEL	8/19/2019	DC Calibration Date
ACCALDATE	LABEL	8/19/2019	AC Calibration Date
THERMOSELECT	IQUANT	1	Thermo Select
FRAMEWORKVERSION	QUANT	6.33	Framework Version
INSTRUMENTVERSION	LABEL	3.50	Instrument Version
ZCURVE	TABLE
	Pt	Time	Freq	Zreal	Zimag	Zsig	Zmod	Zphz	Idc	Vdc	IERange
	#	s	Hz	ohm	ohm	V	ohm	°	A	V	#
	0	2	1000078	2468.615	-1486.622	1	2881.684	-31.05672	5.284892E-006	0.0056377	8
	1	2	794390.6	2738.086	-1374.42	1	3063.682	-26.65499	-2.406211E-006	0.006356	8
	2	2	630984.4	2981.802	-1237.254	1	3228.303	-22.53527	2.55558E-007	0.005983	8
	3	3	501234.4	3162.073	-1090.942	1	3344.975	-19.03487	1.901638E-006	0.0053489	8
	4	3	398109.4	3328.818	-950.748	1	3461.929	-15.93994	-2.870341E-007	0.0058167	8
	5	3	316265.6	3440.798	-825.5616	1	3538.452	-13.49211	2.903722E-006	0.0052971	8
	6	4	251203.1	3515.803	-704.2505	1	3585.644	-11.32701	2.573068E-006	0.0052993	8
	7	4	199546.9	3572.084	-603.765	1	3622.75	-9.59364	-3.207228E-006	0.0064965	8
	8	4	158578.1	3635.921	-528.9675	1	3674.198	-8.277532	1.348167E-006	0.0057419	8
	9	5	125953.1	3672.331	-403.5766	1	3694.44	-6.271445	-5.381941E-007	0.0070313	7
	10	5	100078.1	3703.086	-361.207	1	3720.661	-5.571129	3.899202E-008	0.0056941	7
	11	5	79453.13	3730.195	-338.6451	1	3745.536	-5.187367	-1.556224E-008	0.0057869	7
	12	6	63140.62	3756.017	-326.5087	1	3770.182	-4.968204	-5.564053E-009	0.0058331	7
	13	6	50203.12	3780.042	-321.6344	1	3793.701	-4.863442	-1.892836E-008	0.0059611	7
	14	6	39890.62	3805.815	-324.2863	1	3819.606	-4.870301	1.340893E-007	0.0056162	7
	15	7	31640.63	3833.612	-336.6512	1	3848.365	-5.018593	-4.25425E-008	0.0058425	7
	16	7	25171.88	3861.951	-356.867	1	3878.405	-5.279474	-5.635919E-009	0.0058291	7
	17	7	20015.62	3897.796	-384.1194	1	3916.677	-5.628202	1.328517E-007	0.0056069	7
	18	8	15890.62	3922.91	-423.2083	1	3945.672	-6.157324	4.088135E-008	0.0056771	7
	19	8	12609.37	3957.644	-472.246	1	3985.719	-6.804647	-1.448715E-008	0.0057777	7
	20	8	10078.13	3994.417	-532.2805	1	4029.726	-7.590297	-1.440118E-008	0.0058563	7
	21	8	8015.625	4040.826	-606.8521	1	4086.14	-8.540863	-1.336981E-008	0.0057823	7
	22	9	6328.125	4077.866	-708.4333	1	4138.945	-9.85543	3.985621E-008	0.0056811	7
	23	9	5015.625	4123.878	-828.779	1	4206.334	-11.36341	3.565095E-008	0.0057738	7
	24	9	3984.375	4195.32	-981.454	1	4308.591	-13.16699	-5.485983E-008	0.0059679	7
	25	10	3170.956	4233.631	-1154.838	1	4388.313	-15.25778	-3.836541E-008	0.0058326	7
	26	10	2527.573	4299.131	-1374.081	1	4513.383	-17.72483	-1.501533E-008	0.0057678	7
	27	10	1976.103	4379.828	-1667.505	1	4686.52	-20.84303	-3.761061E-008	0.0058344	7
	28	11	1577.524	4467.922	-1965.917	1	4881.307	-23.74983	-1.426211E-008	0.0058514	7
	29	11	1265.625	4565.665	-2386.447	1	5151.74	-27.59581	-2.060362E-008	0.0059553	7
	30	11	998.264	4691.041	-2900.925	1	5515.545	-31.73252	-1.966145E-008	0.0057772	7
	31	12	796.875	4831.025	-3496.629	1	5963.658	-35.8965	-7.920691E-008	0.0059319	7
	32	12	627.7902	4992.708	-4267.379	1	6567.927	-40.52125	8.267853E-008	0.0057589	7
	33	12	505.5147	5179.797	-5125.335	1	7286.931	-44.6972	-5.168717E-009	0.0058212	7
	34	13	397.9953	5417.723	-6289.806	1	8301.408	-49.26004	1.989716E-009	0.0058239	7
	35	13	315.5048	5690.188	-7690.911	1	9567.05	-53.50378	4.139554E-009	0.0058194	7
	36	13	252.4038	6012.963	-9343.734	1	11111.3	-57.23755	5.276797E-010	0.0057557	6
	37	14	198.6229	6435.432	-11542.17	1	13215.01	-60.85778	9.609786E-010	0.0057572	6
	38	14	158.3615	6948.284	-14106.84	1	15725.19	-63.77758	-6.812204E-010	0.0057559	6
	39	14	125.558	7615.529	-17335.4	1	18934.42	-66.28387	-6.499259E-011	0.0057567	6
	40	15	100.4464	8400.785	-21130.7	1	22739.38	-68.31906	7.046567E-010	0.0057536	6
	41	15	79.00281	9538.09	-26083.38	1	27772.61	-69.9137	-6.494806E-010	0.0057508	6
	42	15	63.3446	11502.1	-31860.95	1	33873.56	-70.14995	4.648262E-010	0.0057528	6
	43	16	49.86702	13334.51	-39348.84	1	41546.85	-71.27954	-1.352829E-009	0.0057516	6
	44	16	39.72458	15569.11	-47483.58	1	49970.87	-71.84651	-1.484021E-012	0.0057563	6
	45	16	31.6723	18522.05	-57548.4	1	60455.64	-72.15914	-5.470892E-010	0.0057505	6
	46	17	24.93351	23294.29	-70556.8	1	74302.66	-71.72939	-4.15339E-010	0.0057509	6
	47	17	19.86229	28865.66	-85082.84	1	89846.06	-71.2597	-7.946532E-010	0.0057543	6
	48	17	15.83615	35496.95	-103823.8	1	109724.3	-71.12465	-2.830709E-009	0.0057564	5
	49	17	12.40079	46626.53	-124781.1	1	133207.9	-69.51096	-3.636665E-010	0.0057638	5
	50	18	9.93114	58418.08	-146961.5	1	158146.6	-68.32188	1.40003E-010	0.0057658	5
	51	18	7.944915	73740.98	-173434.2	1	188460	-66.96571	5.600531E-010	0.005757	5
	52	19	6.317385	93208.79	-203085.7	1	223454	-65.34663	3.39683E-011	0.0057602	5
	53	20	5.008013	117464.4	-237544.4	1	265000.4	-63.68787	-3.206589E-010	0.0057481	5
	54	21	3.945707	147750.9	-274903.2	1	312093	-61.74352	1.229407E-010	0.0057578	5
	55	22	3.158693	181589.7	-314565.4	1	363216.5	-60.00337	-9.134532E-011	0.0057658	5
	56	24	2.504006	221048.6	-358617.7	1	421270.9	-58.3507	-2.098483E-010	0.0057491	5
	57	25	1.998082	263901.3	-403353.5	1	482014.4	-56.80455	1.227813E-010	0.0057906	5
	58	27	1.584686	311055	-455790.3	1	551815.2	-55.68834	1.322689E-010	0.0057927	5
	59	29	1.266892	359354	-510785.6	1	624529.6	-54.87239	6.220265E-011	0.005751	5
	60	31	0.999041	415394.2	-577692.1	1	711533.9	-54.28167	1.510059E-011	0.0057282	5
