EXPLAIN
TAG	EISPOT
TITLE	LABEL	Potentiostatic EIS	Test &Identifier
DATE	LABEL	11/9/2019	Date
TIME	LABEL	11:25:18	Time
NOTES	NOTES	2	&Notes...
	
	
PSTAT	PSTAT	REF600-11020	Potentiostat
VDC	POTEN	0.00000E+000	T	DC &Voltage (V)
FREQINIT	QUANT	1.00000E+006	Initial Fre&q. (Hz)
FREQFINAL	QUANT	1.00000E+000	Final Fre&q. (Hz)
PTSPERDEC	QUANT	1.00000E+001	Points/&decade
VAC	QUANT	2.50000E+001	AC &Voltage (mV rms)
AREA	QUANT	1.00000E-002	&Area (cm^2)
CONDIT	TWOPARAM	T	5.00000E+000	0.00000E+000	Conditionin&g	Time(s)	E(V)
DELAY	TWOPARAM	T	5.00000E+000	0.00000E+000	Init. De&lay	Time(s)	Stab.(mV/s)
SPEED	SELECTOR	0	&Optimize for:
ZGUESS	QUANT	1.00000E+005	E&stimated Z (ohms)
OCVCURVE	TABLE	19
	Pt	T	Vf	Vm	Ach	Over
	#	s	V vs. Ref.	V	V	bits
	0	0.258333	1.35396E-001	1.35396E-001	5.54466E-004	...........
	1	0.516667	1.35573E-001	1.44660E-001	5.59666E-004	...........
	2	0.775	1.36650E-001	1.52899E-001	5.53199E-004	...........
	3	1.03333	1.39647E-001	1.60135E-001	5.57099E-004	...........
	4	1.29167	1.44881E-001	1.66721E-001	5.54299E-004	...........
	5	1.55	1.51602E-001	1.72595E-001	5.64766E-004	...........
	6	1.80833	1.58721E-001	1.77961E-001	5.68199E-004	...........
	7	2.06667	1.65497E-001	1.82784E-001	5.55533E-004	...........
	8	2.325	1.71647E-001	1.87256E-001	5.60332E-004	...........
	9	2.58333	1.77161E-001	1.91325E-001	5.58766E-004	...........
	10	2.84167	1.82129E-001	1.95095E-001	5.56432E-004	...........
	11	3.1	1.86647E-001	1.98554E-001	5.57899E-004	...........
	12	3.35833	1.90785E-001	2.01852E-001	5.58533E-004	...........
	13	3.61667	1.94601E-001	2.04944E-001	5.59699E-004	...........
	14	3.875	1.98143E-001	2.07758E-001	5.60699E-004	...........
	15	4.13333	2.01446E-001	2.10369E-001	5.61199E-004	...........
	16	4.39167	2.04523E-001	2.12864E-001	5.60666E-004	...........
	17	4.65	2.07387E-001	2.15140E-001	5.65966E-004	...........
	18	4.90833	2.10054E-001	2.17347E-001	5.59499E-004	...........
EOC	QUANT	0.2100543	Open Circuit (V)
PSTATMODEL	IQUANT	4	Pstat Model
PSTATSECTION	LABEL	REF600-11020	Pstat Section
PSTATSERIALNO	LABEL	11020	Pstat Serial Number
CTRLMODE	IQUANT	1	Control Mode
IESTAB	IQUANT	0	I/E Stability
CASPEED	IQUANT	1	Control Amp Speed
CONVENTION	IQUANT	1	Current Convention
ICHRANGE	IQUANT	2	Ich Range
ICHRANGEMODE	TOGGLE	F	Ich Auto Range
ICHOFFSETENABLE	TOGGLE	T	Ich Offset Enable
ICHOFFSET	QUANT	0	Ich Offset (V)
ICHFILTER	IQUANT	3	Ich Filter
VCHRANGE	IQUANT	2	Vch Range
VCHRANGEMODE	TOGGLE	F	Vch Auto Range
VCHOFFSETENABLE	TOGGLE	T	Vch Offset Enable
VCHOFFSET	QUANT	0	Vch Offset (V)
VCHFILTER	IQUANT	3	Vch Filter
ACHRANGE	IQUANT	2	Ach Range
ACHOFFSETENABLE	TOGGLE	F	Ach Offset Enable
ACHOFFSET	QUANT	0	Ach Offset (V)
ACHFILTER	IQUANT	3	Ach Filter
IERANGELOWERLIMIT	IQUANT	1	I/E Range Lower Limit
IERANGEMODE	TOGGLE	F	I/E AutoRange
IERANGE	IQUANT	6	I/E Range
POSFEEDENABLE	TOGGLE	F	Positive Feedback IR Comp
POSFEEDRESISTANCE	QUANT	0	Positive Feedback Resistance (ohm)
ACHSELECT	IQUANT	0	Ach Select
CABLEID	IQUANT	14	Cable ID
DCCALDATE	LABEL	8/19/2019	DC Calibration Date
ACCALDATE	LABEL	8/19/2019	AC Calibration Date
THERMOSELECT	IQUANT	1	Thermo Select
FRAMEWORKVERSION	QUANT	6.33	Framework Version
INSTRUMENTVERSION	LABEL	3.50	Instrument Version
ZCURVE	TABLE
	Pt	Time	Freq	Zreal	Zimag	Zsig	Zmod	Zphz	Idc	Vdc	IERange
	#	s	Hz	ohm	ohm	V	ohm	°	A	V	#
	0	2	1000078	1753.956	-1190.162	1	2119.633	-34.1592	-5.571526E-006	0.2117541	8
	1	2	794390.6	1976.907	-1235.469	1	2331.211	-32.00336	-1.28867E-006	0.2120681	8
	2	2	630984.4	2197.179	-1268.032	1	2536.829	-29.99002	-2.510463E-007	0.2123896	8
	3	3	501234.4	2410.627	-1282.321	1	2730.47	-28.01051	-9.040453E-008	0.2112072	8
	4	3	398109.4	2638.191	-1282.778	1	2933.525	-25.9306	7.76696E-006	0.2106024	8
	5	3	316265.6	2852.097	-1246.709	1	3112.674	-23.6111	-7.992206E-006	0.2126517	8
	6	4	251203.1	3059.456	-1217.114	1	3292.664	-21.69367	-3.153469E-006	0.2122273	8
	7	4	199546.9	3233.31	-1174.884	1	3440.152	-19.96956	-2.995538E-008	0.2111556	8
	8	4	158578.1	3394.618	-1146.389	1	3582.965	-18.66023	8.333572E-006	0.2106239	8
	9	5	125953.1	3597.726	-1034.846	1	3743.6	-16.0473	1.800081E-006	0.2049104	7
	10	5	100078.1	3722.362	-1024.395	1	3860.746	-15.38692	7.937183E-007	0.2116691	7
	11	5	79453.13	3860.837	-1003.906	1	3989.221	-14.57544	1.048822E-006	0.2111422	7
	12	5	63140.62	3993.351	-996.297	1	4115.758	-14.00869	1.343362E-006	0.2100419	7
	13	6	50203.12	4098.427	-991.368	1	4216.624	-13.59808	8.935397E-007	0.2093442	7
	14	6	39890.62	4221.064	-1024.822	1	4343.69	-13.64665	1.050596E-006	0.2111397	7
	15	6	31640.63	4346.336	-1045.847	1	4470.396	-13.52971	1.041524E-006	0.2111399	7
	16	7	25171.88	4439.428	-1080.453	1	4569.015	-13.67852	-1.062456E-006	0.2135611	7
	17	7	20015.62	4611.592	-1160.392	1	4755.343	-14.12385	1.053791E-006	0.2111361	7
	18	7	15890.62	4707.398	-1208.222	1	4859.979	-14.39506	-1.511538E-006	0.2133342	7
	19	8	12609.37	4898.16	-1302.522	1	5068.385	-14.8915	1.151634E-006	0.2094052	7
	20	8	10078.13	5023.532	-1366.509	1	5206.076	-15.21748	-1.330426E-006	0.2135072	7
	21	8	8015.625	5242.451	-1510.341	1	5455.678	-16.07159	1.160459E-006	0.2094105	7
	22	9	6328.125	5422.728	-1643.477	1	5666.304	-16.86059	8.870904E-007	0.2093478	7
	23	9	5015.625	5617.176	-1757.613	1	5885.734	-17.37489	7.438278E-008	0.2098958	7
	24	9	3984.375	5815.169	-1928.606	1	6126.64	-18.34815	-9.531869E-007	0.2113792	7
	25	10	3170.956	6031.003	-2086.863	1	6381.849	-19.08677	-1.508156E-006	0.2128761	7
	26	10	2527.573	6276.537	-2292.264	1	6682.02	-20.06278	-1.514056E-006	0.2128833	7
	27	10	1976.103	6596.618	-2578.654	1	7082.713	-21.3508	-3.076677E-007	0.2131098	7
	28	11	1577.524	6841.486	-2807.733	1	7395.222	-22.31315	-7.240057E-007	0.2134248	7
	29	11	1265.625	7062.596	-3111.8	1	7717.743	-23.77842	-9.539589E-007	0.2113773	7
	30	12	998.264	7363.275	-3516.054	1	8159.685	-25.52505	-1.322929E-006	0.2121926	7
	31	12	796.875	7738.292	-4085.914	1	8750.764	-27.8346	7.930651E-007	0.2116578	7
	32	12	627.7902	8094.205	-4640.076	1	9329.869	-29.82388	5.179443E-007	0.2095009	7
	33	13	505.5147	8330.631	-5256.023	1	9850.14	-32.24895	-1.326767E-006	0.2135021	7
	34	13	397.9953	8746.361	-6234.998	1	10741.23	-35.48384	-3.790964E-009	0.2115081	7
	35	13	315.5048	9148.528	-7331.625	1	11723.83	-38.70866	-7.651512E-009	0.2114465	6
	36	14	252.4038	9568.06	-8635.979	1	12889.06	-42.06891	-8.139986E-009	0.2114485	6
	37	14	198.6229	10085.66	-10363.84	1	14461.32	-45.77935	-6.843312E-009	0.21145	6
	38	14	158.3615	10671.08	-12403.5	1	16362.11	-49.29367	-7.756217E-009	0.2114451	6
	39	15	125.558	11388.67	-14945.83	1	18790.41	-52.69272	-7.625163E-009	0.2114488	6
	40	15	100.4464	12221.3	-17966.71	1	21729.31	-55.77571	-6.919075E-009	0.2114457	6
	41	15	79.00281	13360.47	-21947.64	1	25694.38	-58.66933	-6.740874E-009	0.2114423	6
	42	16	63.3446	14896.72	-25741.48	1	29741.15	-59.94183	-7.149584E-009	0.2114452	6
	43	16	49.86702	16747.57	-31647.24	1	35805.43	-62.11241	-6.435116E-009	0.2114325	6
	44	16	39.72458	18737.91	-38413.41	1	42739.91	-63.99706	-6.777737E-009	0.2114504	6
	45	17	31.6723	21352.06	-46294.05	1	50980.87	-65.23958	-6.036627E-009	0.2114377	6
	46	17	24.93351	25145.48	-56124.57	1	61500.1	-65.8662	-6.802038E-009	0.2114476	6
	47	17	19.86229	29636.75	-67461.33	1	73684.24	-66.28342	-5.005578E-009	0.2114497	6
	48	17	15.83615	35485	-79239.68	1	86822.3	-65.87628	-1.018768E-008	0.2114471	6
	49	18	12.40079	43022.55	-98364.7	1	107361.8	-66.37648	-8.266777E-009	0.2114478	6
	50	18	9.93114	50056.84	-115210.4	1	125615	-66.51592	-6.947036E-009	0.2114407	5
	51	19	7.944915	59997.32	-136780.8	1	149360.8	-66.31589	-7.591328E-009	0.2114483	5
	52	19	6.317385	73078.93	-161205.6	1	176996.6	-65.61391	-6.789689E-009	0.2114527	5
	53	20	5.008013	88828.94	-190938.7	1	210590	-65.0511	-6.410622E-009	0.2114555	5
	54	21	3.945707	108847.4	-226393.5	1	251200.7	-64.32228	-6.568645E-009	0.2114471	5
	55	23	3.158693	131580.5	-264821.2	1	295708.8	-63.57881	-6.212963E-009	0.2114386	5
	56	24	2.504006	159967.9	-310539.3	1	349319.9	-62.74568	-6.154502E-009	0.2114483	5
	57	26	1.998082	193710.6	-361164.4	1	409833.5	-61.7931	-6.316695E-009	0.2113964	5
	58	27	1.584686	233794.3	-420106.6	1	480779.9	-60.90355	-6.122168E-009	0.2114139	5
	59	29	1.266892	281190	-483437.7	1	559267.3	-59.81572	-5.932102E-009	0.2114519	5
	60	32	0.999041	341161.4	-560120.3	1	655839.8	-58.65499	-5.774584E-009	0.2114762	5
