EXPLAIN
TAG	EISPOT
TITLE	LABEL	Potentiostatic EIS	Test &Identifier
DATE	LABEL	10/28/2019	Date
TIME	LABEL	11:29:17	Time
NOTES	NOTES	1	&Notes...
	
PSTAT	PSTAT	REF600-11020	Potentiostat
VDC	POTEN	0.00000E+000	T	DC &Voltage (V)
FREQINIT	QUANT	1.00000E+006	Initial Fre&q. (Hz)
FREQFINAL	QUANT	1.00000E+000	Final Fre&q. (Hz)
PTSPERDEC	QUANT	1.00000E+001	Points/&decade
VAC	QUANT	2.50000E+001	AC &Voltage (mV rms)
AREA	QUANT	1.00000E-002	&Area (cm^2)
CONDIT	TWOPARAM	T	5.00000E+000	0.00000E+000	Conditionin&g	Time(s)	E(V)
DELAY	TWOPARAM	T	5.00000E+000	0.00000E+000	Init. De&lay	Time(s)	Stab.(mV/s)
SPEED	SELECTOR	1	&Optimize for:
ZGUESS	QUANT	1.00000E+005	E&stimated Z (ohms)
OCVCURVE	TABLE	19
	Pt	T	Vf	Vm	Ach	Over
	#	s	V vs. Ref.	V	V	bits
	0	0.258333	8.12554E-003	8.12554E-003	5.57132E-004	...........
	1	0.516667	8.12695E-003	8.19898E-003	5.61132E-004	...........
	2	0.775	8.13493E-003	8.23575E-003	5.56366E-004	...........
	3	1.03333	8.15594E-003	8.29714E-003	5.59532E-004	...........
	4	1.29167	8.19202E-003	8.37457E-003	5.61666E-004	...........
	5	1.55	8.24132E-003	8.45061E-003	5.56633E-004	...........
	6	1.80833	8.30165E-003	8.52820E-003	5.59799E-004	...........
	7	2.06667	8.37052E-003	8.60554E-003	5.54066E-004	...........
	8	2.325	8.44472E-003	8.68155E-003	5.57333E-004	...........
	9	2.58333	8.52131E-003	8.75736E-003	5.52466E-004	...........
	10	2.84167	8.59845E-003	8.83619E-003	5.48733E-004	...........
	11	3.1	8.67546E-003	8.91091E-003	5.54066E-004	...........
	12	3.35833	8.75237E-003	8.99188E-003	5.58132E-004	...........
	13	3.61667	8.82932E-003	9.06228E-003	5.61366E-004	...........
	14	3.875	8.90610E-003	9.13743E-003	5.59032E-004	...........
	15	4.13333	8.98204E-003	9.20566E-003	5.52632E-004	...........
	16	4.39167	9.05646E-003	9.27502E-003	5.60366E-004	...........
	17	4.65	9.12895E-003	9.33961E-003	5.57166E-004	...........
	18	4.90833	9.19938E-003	9.40818E-003	5.62932E-004	...........
EOC	QUANT	0.0091994	Open Circuit (V)
PSTATMODEL	IQUANT	4	Pstat Model
PSTATSECTION	LABEL	REF600-11020	Pstat Section
PSTATSERIALNO	LABEL	11020	Pstat Serial Number
CTRLMODE	IQUANT	1	Control Mode
IESTAB	IQUANT	0	I/E Stability
CASPEED	IQUANT	1	Control Amp Speed
CONVENTION	IQUANT	1	Current Convention
ICHRANGE	IQUANT	2	Ich Range
ICHRANGEMODE	TOGGLE	F	Ich Auto Range
ICHOFFSETENABLE	TOGGLE	T	Ich Offset Enable
ICHOFFSET	QUANT	0	Ich Offset (V)
ICHFILTER	IQUANT	3	Ich Filter
VCHRANGE	IQUANT	2	Vch Range
VCHRANGEMODE	TOGGLE	F	Vch Auto Range
VCHOFFSETENABLE	TOGGLE	T	Vch Offset Enable
VCHOFFSET	QUANT	0	Vch Offset (V)
VCHFILTER	IQUANT	3	Vch Filter
ACHRANGE	IQUANT	2	Ach Range
ACHOFFSETENABLE	TOGGLE	F	Ach Offset Enable
ACHOFFSET	QUANT	0	Ach Offset (V)
ACHFILTER	IQUANT	3	Ach Filter
IERANGELOWERLIMIT	IQUANT	1	I/E Range Lower Limit
IERANGEMODE	TOGGLE	F	I/E AutoRange
IERANGE	IQUANT	5	I/E Range
POSFEEDENABLE	TOGGLE	F	Positive Feedback IR Comp
POSFEEDRESISTANCE	QUANT	0	Positive Feedback Resistance (ohm)
ACHSELECT	IQUANT	0	Ach Select
CABLEID	IQUANT	14	Cable ID
DCCALDATE	LABEL	8/19/2019	DC Calibration Date
ACCALDATE	LABEL	8/19/2019	AC Calibration Date
THERMOSELECT	IQUANT	1	Thermo Select
FRAMEWORKVERSION	QUANT	6.33	Framework Version
INSTRUMENTVERSION	LABEL	3.50	Instrument Version
ZCURVE	TABLE
	Pt	Time	Freq	Zreal	Zimag	Zsig	Zmod	Zphz	Idc	Vdc	IERange
	#	s	Hz	ohm	ohm	V	ohm	°	A	V	#
	0	1	1000078	2491.92	-1929.159	1	3151.4	-37.74582	-7.428913E-006	0.0119185	8
	1	3	794390.6	2877.357	-1931.842	1	3465.718	-33.8772	8.512952E-006	0.0100593	8
	2	5	630984.4	3244.958	-1854.876	1	3737.689	-29.75306	-6.157146E-006	0.0118854	8
	3	6	501234.4	3606.1	-1743.882	1	4005.631	-25.80806	9.390127E-007	0.0107935	8
	4	8	398109.4	3906.471	-1559.306	1	4206.18	-21.75989	5.296892E-007	0.0109136	8
	5	9	316265.6	4162.695	-1398.129	1	4391.218	-18.56572	5.836796E-007	0.0106936	8
	6	11	251203.1	4328.28	-1202.375	1	4492.183	-15.52503	1.60948E-006	0.0103792	8
	7	12	199546.9	4472.661	-1044.41	1	4592.982	-13.14361	-3.540417E-006	0.0115322	8
	8	14	158578.1	4605.29	-903.7476	1	4693.128	-11.1027	4.430663E-006	0.0099869	8
	9	15	125953.1	4719.855	-698.5063	1	4771.262	-8.418281	6.48973E-007	0.0094386	7
	10	17	100078.1	4754.663	-615.5748	1	4794.346	-7.376912	-4.932866E-008	0.0109576	7
	11	19	79453.13	4804.572	-549.7566	1	4835.922	-6.527602	9.655925E-008	0.0107129	7
	12	20	63140.62	4848.873	-501.1238	1	4874.7	-5.900485	8.533114E-008	0.0106306	7
	13	21	50203.12	4885.999	-464.3733	1	4908.016	-5.429177	-7.656904E-008	0.0108835	7
	14	23	39890.62	4921.66	-442.5592	1	4941.518	-5.138258	1.46402E-007	0.0105543	7
	15	24	31640.63	4956.82	-432.3915	1	4975.643	-4.985385	-7.429685E-008	0.010883	7
	16	25	25171.88	4991.2	-432.9431	1	5009.942	-4.9575	1.492623E-008	0.0106854	7
	17	27	20015.62	5029.565	-449.6883	1	5049.628	-5.109172	-3.911705E-008	0.0107722	7
	18	28	15890.62	5057.365	-469.3286	1	5079.095	-5.301922	9.193204E-008	0.0105696	7
	19	29	12609.37	5090.15	-509.4051	1	5115.577	-5.71494	-3.961089E-008	0.0107727	7
	20	31	10078.13	5130.801	-565.9725	1	5161.922	-6.29478	9.238212E-008	0.0105692	7
	21	32	8015.625	5167.392	-628.39	1	5205.46	-6.933512	-6.962673E-009	0.010703	7
	22	34	6328.125	5200.167	-730.3402	1	5251.204	-7.994645	-5.592091E-008	0.0108139	7
	23	35	5015.625	5243.445	-851.3885	1	5312.116	-9.222739	8.56437E-008	0.0106285	7
	24	36	3984.375	5264.889	-1001.048	1	5359.212	-10.76552	8.489516E-008	0.0106247	7
	25	38	3170.956	5342.613	-1188.779	1	5473.272	-12.54446	9.982686E-008	0.010704	7
	26	39	2527.573	5398.584	-1416.155	1	5581.237	-14.69864	-4.721972E-008	0.0108132	7
	27	41	1976.103	5473.061	-1727.608	1	5739.252	-17.51864	-7.651842E-009	0.0107002	7
	28	42	1577.524	5605.437	-2056.317	1	5970.708	-20.14522	6.717304E-009	0.0108842	7
	29	43	1265.625	5624.455	-2487.58	1	6150.003	-23.85881	-4.655559E-008	0.0108132	7
	30	45	998.264	5741.875	-3036.198	1	6495.201	-27.86906	1.184145E-008	0.0106768	7
	31	46	796.875	5855.862	-3693.397	1	6923.316	-32.24036	8.329179E-008	0.0106206	7
	32	48	627.7902	6009.079	-4544.7	1	7534.144	-37.10042	1.00726E-007	0.0107026	7
	33	49	505.5147	6171.908	-5499.569	1	8266.663	-41.7031	8.465183E-008	0.0106189	7
	34	50	397.9953	6385.621	-6794.377	1	9324.146	-46.77637	5.354741E-009	0.0107787	7
	35	52	315.5048	6653.255	-8356.658	1	10681.74	-51.47452	1.525272E-009	0.0107166	6
	36	53	252.4038	6966.88	-10213.5	1	12363.37	-55.70114	1.555739E-010	0.0107206	6
	37	54	198.6229	7393.995	-12675.24	1	14674.22	-59.7432	8.791442E-010	0.0107214	6
	38	56	158.3615	7916.103	-15557.39	1	17455.57	-63.03154	-1.581594E-010	0.0107209	6
	39	57	125.558	8620.17	-19190.33	1	21037.49	-65.8107	7.03329E-010	0.0107198	6
	40	58	100.4464	9490.71	-23420.65	1	25270.55	-67.94082	4.027855E-011	0.010717	6
	41	60	79.00281	10840.01	-29157.04	1	31106.89	-69.60586	-2.911049E-010	0.0107131	6
	42	61	63.3446	12168.02	-35913.03	1	37918.42	-71.28263	1.50152E-009	0.0107133	6
	43	63	49.86702	14474.42	-43386.29	1	45737.06	-71.55041	1.365876E-009	0.0107118	6
	44	64	39.72458	17520.39	-53293.97	1	56100.02	-71.80172	9.087872E-010	0.0107142	6
	45	65	31.6723	21571.85	-64766.13	1	68264.16	-71.57848	6.452511E-010	0.0107185	6
	46	67	24.93351	27000.24	-79207.48	1	83682.96	-71.17679	2.581527E-010	0.0107158	6
	47	68	19.86229	33929.2	-95211.8	1	101076.6	-70.38622	2.548809E-011	0.0107141	6
	48	70	15.83615	43461.5	-115050.1	1	122985.5	-69.30537	-1.357101E-009	0.0107221	5
	49	71	12.40079	57187.68	-137647.9	1	149054.9	-67.4389	-1.623845E-009	0.0107213	5
	50	73	9.93114	70338.62	-160930.1	1	175630.3	-66.39103	-2.666483E-011	0.0107256	5
	51	74	7.944915	88377.05	-186684.5	1	206546.9	-64.66698	8.0064E-010	0.0107244	5
	52	76	6.317385	108198.9	-217544.6	1	242966.4	-63.55589	-2.300368E-010	0.0107271	5
	53	78	5.008013	133432.3	-251647.1	1	284834	-62.06586	-8.114909E-011	0.0107089	5
	54	80	3.945707	163027.5	-290554.3	1	333166.3	-60.70359	2.83761E-010	0.0107257	5
	55	83	3.158693	194069.2	-331975.7	1	384539.6	-59.68992	-1.302184E-010	0.0107047	5
	56	86	2.504006	230303.1	-380398.8	1	444682.7	-58.80822	3.123329E-010	0.0107262	5
	57	89	1.998082	269487.7	-434025.1	1	510882.9	-58.16371	3.056221E-010	0.0107206	5
	58	92	1.584686	316289	-497512.5	1	589540.1	-57.55421	3.789141E-012	0.0106707	5
	59	96	1.266892	363953.8	-567315.2	1	674024.4	-57.31831	1.840392E-010	0.0107097	5
	60	100	0.999041	422908.5	-656170.4	1	780647.9	-57.19781	-1.959703E-010	0.010723	5
