EXPLAIN
TAG	EISPOT
TITLE	LABEL	Potentiostatic EIS	Test &Identifier
DATE	LABEL	11/22/2019	Date
TIME	LABEL	9:54:56	Time
NOTES	NOTES	4	&Notes...
	
	
	
	
PSTAT	PSTAT	REF600-11020	Potentiostat
VDC	POTEN	0.00000E+000	T	DC &Voltage (V)
FREQINIT	QUANT	1.00000E+006	Initial Fre&q. (Hz)
FREQFINAL	QUANT	1.00000E+000	Final Fre&q. (Hz)
PTSPERDEC	QUANT	1.00000E+001	Points/&decade
VAC	QUANT	2.50000E+001	AC &Voltage (mV rms)
AREA	QUANT	1.00000E-002	&Area (cm^2)
CONDIT	TWOPARAM	T	5.00000E+000	0.00000E+000	Conditionin&g	Time(s)	E(V)
DELAY	TWOPARAM	T	5.00000E+000	0.00000E+000	Init. De&lay	Time(s)	Stab.(mV/s)
SPEED	SELECTOR	0	&Optimize for:
ZGUESS	QUANT	1.00000E+005	E&stimated Z (ohms)
OCVCURVE	TABLE	19
	Pt	T	Vf	Vm	Ach	Over
	#	s	V vs. Ref.	V	V	bits
	0	0.258333	3.47115E-003	3.47115E-003	5.63699E-004	...........
	1	0.516667	3.46707E-003	3.25762E-003	5.61166E-004	...........
	2	0.775	3.44245E-003	3.07771E-003	5.57366E-004	...........
	3	1.03333	3.37451E-003	2.91931E-003	5.62132E-004	...........
	4	1.29167	3.25714E-003	2.77970E-003	5.62732E-004	...........
	5	1.55	3.10816E-003	2.64945E-003	5.56799E-004	...........
	6	1.80833	2.95194E-003	2.53168E-003	5.68332E-004	...........
	7	2.06667	2.80383E-003	2.41443E-003	5.64699E-004	...........
	8	2.325	2.66866E-003	2.32453E-003	5.67866E-004	...........
	9	2.58333	2.54395E-003	2.11085E-003	5.62732E-004	...........
	10	2.84167	2.42174E-003	2.05041E-003	5.65632E-004	...........
	11	3.1	2.29675E-003	1.95511E-003	5.66632E-004	...........
	12	3.35833	2.17466E-003	1.87626E-003	5.65932E-004	...........
	13	3.61667	2.06480E-003	1.80459E-003	5.65732E-004	...........
	14	3.875	1.96997E-003	1.74238E-003	5.67832E-004	...........
	15	4.13333	1.88774E-003	1.67912E-003	5.69266E-004	...........
	16	4.39167	1.81472E-003	1.61640E-003	5.67599E-004	...........
	17	4.65	1.74765E-003	1.55564E-003	5.66632E-004	...........
	18	4.90833	1.68404E-003	1.50312E-003	5.70566E-004	...........
EOC	QUANT	0.001684	Open Circuit (V)
PSTATMODEL	IQUANT	4	Pstat Model
PSTATSECTION	LABEL	REF600-11020	Pstat Section
PSTATSERIALNO	LABEL	11020	Pstat Serial Number
CTRLMODE	IQUANT	1	Control Mode
IESTAB	IQUANT	0	I/E Stability
CASPEED	IQUANT	1	Control Amp Speed
CONVENTION	IQUANT	1	Current Convention
ICHRANGE	IQUANT	2	Ich Range
ICHRANGEMODE	TOGGLE	F	Ich Auto Range
ICHOFFSETENABLE	TOGGLE	T	Ich Offset Enable
ICHOFFSET	QUANT	0	Ich Offset (V)
ICHFILTER	IQUANT	3	Ich Filter
VCHRANGE	IQUANT	2	Vch Range
VCHRANGEMODE	TOGGLE	F	Vch Auto Range
VCHOFFSETENABLE	TOGGLE	T	Vch Offset Enable
VCHOFFSET	QUANT	0	Vch Offset (V)
VCHFILTER	IQUANT	3	Vch Filter
ACHRANGE	IQUANT	2	Ach Range
ACHOFFSETENABLE	TOGGLE	F	Ach Offset Enable
ACHOFFSET	QUANT	0	Ach Offset (V)
ACHFILTER	IQUANT	3	Ach Filter
IERANGELOWERLIMIT	IQUANT	1	I/E Range Lower Limit
IERANGEMODE	TOGGLE	F	I/E AutoRange
IERANGE	IQUANT	4	I/E Range
POSFEEDENABLE	TOGGLE	F	Positive Feedback IR Comp
POSFEEDRESISTANCE	QUANT	0	Positive Feedback Resistance (ohm)
ACHSELECT	IQUANT	0	Ach Select
CABLEID	IQUANT	14	Cable ID
DCCALDATE	LABEL	8/19/2019	DC Calibration Date
ACCALDATE	LABEL	8/19/2019	AC Calibration Date
THERMOSELECT	IQUANT	1	Thermo Select
FRAMEWORKVERSION	QUANT	6.33	Framework Version
INSTRUMENTVERSION	LABEL	3.50	Instrument Version
ZCURVE	TABLE
	Pt	Time	Freq	Zreal	Zimag	Zsig	Zmod	Zphz	Idc	Vdc	IERange
	#	s	Hz	ohm	ohm	V	ohm	°	A	V	#
	0	1	1000078	2291.901	-1374.646	1	2672.539	-30.95467	-1.933813E-007	0.0048504	8
	1	2	794390.6	2547.342	-1279.797	1	2850.759	-26.67518	2.841102E-006	0.0030895	8
	2	2	630984.4	2769.659	-1143.427	1	2996.404	-22.4328	1.888882E-006	0.0029822	8
	3	2	501234.4	2951.603	-1014.108	1	3120.957	-18.96163	7.408716E-006	0.0026044	8
	4	3	398109.4	3076.217	-882.9479	1	3200.423	-16.01475	3.519236E-006	0.0033231	8
	5	3	316265.6	3180.68	-769.9955	1	3272.555	-13.60865	5.924256E-006	0.0021967	8
	6	3	251203.1	3265.687	-665.1228	1	3332.732	-11.51198	3.75177E-006	0.0032748	8
	7	4	199546.9	3327.315	-564.3867	1	3374.842	-9.62701	-2.507757E-006	0.0032362	8
	8	4	158578.1	3372.106	-516.2194	1	3411.39	-8.703562	-7.685263E-007	0.0037475	8
	9	4	125953.1	3434.271	-396.0389	1	3457.031	-6.578271	-2.741207E-006	0.005556	7
	10	4	100078.1	3464.837	-358.2973	1	3483.313	-5.903947	-7.100007E-007	0.0031315	7
	11	5	79453.13	3492.732	-342.5988	1	3509.495	-5.602169	4.830166E-007	0.001652	7
	12	5	63140.62	3520.752	-330.7356	1	3536.253	-5.366553	-1.026502E-006	0.0037898	7
	13	5	50203.12	3550.425	-328.0691	1	3565.55	-5.279298	9.936987E-007	0.0025844	7
	14	6	39890.62	3580.444	-330.7938	1	3595.693	-5.278517	4.79599E-007	0.0016434	7
	15	6	31640.63	3610.51	-341.7461	1	3626.647	-5.407116	7.676538E-007	0.0015416	7
	16	6	25171.88	3639.184	-358.1726	1	3656.768	-5.621012	-8.860356E-007	0.0049374	7
	17	7	20015.62	3671.42	-386.0913	1	3691.665	-6.003234	-1.026445E-006	0.0037812	7
	18	7	15890.62	3704.264	-419.2037	1	3727.909	-6.456572	-1.201232E-006	0.0043463	7
	19	7	12609.37	3738.924	-465.4615	1	3767.785	-7.096287	-1.200828E-006	0.0043426	7
	20	8	10078.13	3775.7	-525.2678	1	3812.062	-7.920042	-8.855652E-007	0.0049313	7
	21	8	8015.625	3816.395	-591.4951	1	3861.96	-8.810058	-1.209294E-006	0.0047091	7
	22	8	6328.125	3858.951	-682.8069	1	3918.894	-10.03412	7.68357E-007	0.0015399	7
	23	8	5015.625	3901.36	-794.8654	1	3981.51	-11.51586	-2.911858E-007	0.0046138	7
	24	9	3984.375	3951.865	-936.4932	1	4061.313	-13.33174	9.926766E-007	0.0025825	7
	25	9	3170.956	4000.466	-1104.312	1	4150.088	-15.43194	-1.081722E-006	0.0048694	7
	26	9	2527.573	4059.789	-1314.844	1	4267.399	-17.94559	5.967618E-007	0.0034795	7
	27	10	1976.103	4133.383	-1594.615	1	4430.311	-21.09608	-1.20003E-006	0.004335	7
	28	10	1577.524	4206.883	-1928.655	1	4627.912	-24.62919	4.833698E-007	0.0016335	7
	29	10	1265.625	4301.282	-2296.795	1	4876.094	-28.10129	3.814012E-007	0.0037982	7
	30	11	998.264	4414.025	-2803.944	1	5229.313	-32.42515	8.140146E-007	0.0030664	7
	31	11	796.875	4544.185	-3391.942	1	5670.528	-36.73898	-2.935642E-007	0.002426	7
	32	11	627.7902	4705.581	-4157.67	1	6279.229	-41.46258	1.078212E-006	0.0021655	7
	33	11	505.5147	4882.448	-4997.875	1	6986.921	-45.66933	3.843128E-007	0.0037886	7
	34	12	397.9953	5118.545	-6149.168	1	8000.736	-50.22613	4.357057E-009	0.0032954	7
	35	12	315.5048	5400.88	-7528.797	1	9265.651	-54.34575	-3.633955E-010	0.0032979	7
	36	12	252.4038	5740.712	-9152.662	1	10804.03	-57.90333	2.821314E-010	0.0032293	6
	37	13	198.6229	6198.053	-11298.09	1	12886.53	-61.25113	9.097942E-010	0.0032328	6
	38	13	158.3615	6751.927	-13788.55	1	15352.94	-63.9101	8.158541E-010	0.0032349	6
	39	13	125.558	7479.477	-16908.79	1	18489.18	-66.13815	3.531146E-010	0.0032352	6
	40	14	100.4464	8384.77	-20543.88	1	22189.08	-67.79768	8.645052E-010	0.0032198	6
	41	14	79.00281	9674.88	-25395.64	1	27176.13	-69.14485	9.632235E-010	0.0032166	6
	42	14	63.3446	11059.31	-30891.41	1	32811.39	-70.30233	6.898557E-010	0.0032202	6
	43	15	49.86702	13297.56	-37754.85	1	40028.16	-70.59733	2.692545E-010	0.003223	6
	44	15	39.72458	16183.1	-45594.63	1	48381.44	-70.45847	2.590967E-010	0.0032306	6
	45	15	31.6723	19622.71	-54997.91	1	58393.67	-70.36411	4.18212E-010	0.003219	6
	46	16	24.93351	24603.57	-66529.98	1	70933.59	-69.70501	-4.39894E-011	0.0032248	6
	47	16	19.86229	30759.19	-79554.03	1	85293.45	-68.86124	-9.213098E-010	0.0032331	6
	48	16	15.83615	39112.61	-94442.39	1	102221.1	-67.50347	-2.436659E-009	0.0032252	6
	49	16	12.40079	48033.8	-112877.1	1	122672.2	-66.94827	-9.821269E-010	0.0032374	5
	50	17	9.93114	59323.9	-132253.5	1	144949.3	-65.84081	-1.363753E-010	0.0032393	5
	51	17	7.944915	73004.15	-154626	1	170993.6	-64.72643	2.613698E-010	0.0032253	5
	52	18	6.317385	88988.16	-179890.9	1	200697.8	-63.67939	-1.868767E-010	0.003237	5
	53	19	5.008013	108605	-209346	1	235840.6	-62.58051	-3.697299E-011	0.0032268	5
	54	20	3.945707	131406.5	-243863.7	1	277014.7	-61.6819	-3.538617E-011	0.0032218	5
	55	21	3.158693	156636.1	-280152.6	1	320967.8	-60.79	2.261161E-010	0.0032106	5
	56	23	2.504006	186084.6	-323862.3	1	373516.1	-60.11921	2.613148E-010	0.0032182	5
	57	24	1.998082	219057.1	-372018	1	431721.4	-59.50895	6.294511E-011	0.0031848	5
	58	26	1.584686	257511.5	-430468.8	1	501612.9	-59.11164	4.843997E-011	0.0031706	5
	59	27	1.266892	299223.2	-494806.3	1	578245.4	-58.83747	8.570211E-011	0.0031983	5
	60	30	0.999041	350419.8	-573612.9	1	672179.9	-58.57927	8.119817E-011	0.0032201	5
