EXPLAIN
TAG	EISPOT
TITLE	LABEL	Potentiostatic EIS	Test &Identifier
DATE	LABEL	11/22/2019	Date
TIME	LABEL	0:27:43	Time
NOTES	NOTES	4	&Notes...
	
	
	
	
PSTAT	PSTAT	REF600-11020	Potentiostat
VDC	POTEN	0.00000E+000	T	DC &Voltage (V)
FREQINIT	QUANT	1.00000E+006	Initial Fre&q. (Hz)
FREQFINAL	QUANT	1.00000E+000	Final Fre&q. (Hz)
PTSPERDEC	QUANT	1.00000E+001	Points/&decade
VAC	QUANT	2.50000E+001	AC &Voltage (mV rms)
AREA	QUANT	1.00000E-002	&Area (cm^2)
CONDIT	TWOPARAM	T	5.00000E+000	0.00000E+000	Conditionin&g	Time(s)	E(V)
DELAY	TWOPARAM	T	5.00000E+000	0.00000E+000	Init. De&lay	Time(s)	Stab.(mV/s)
SPEED	SELECTOR	1	&Optimize for:
ZGUESS	QUANT	1.00000E+005	E&stimated Z (ohms)
OCVCURVE	TABLE	19
	Pt	T	Vf	Vm	Ach	Over
	#	s	V vs. Ref.	V	V	bits
	0	0.258333	6.91798E-003	6.91798E-003	5.29066E-004	...........
	1	0.516667	6.91478E-003	6.75050E-003	5.28366E-004	...........
	2	0.775	6.89604E-003	6.63924E-003	5.20733E-004	...........
	3	1.03333	6.84664E-003	6.56389E-003	5.26633E-004	...........
	4	1.29167	6.76694E-003	6.50296E-003	5.27500E-004	...........
	5	1.55	6.67532E-003	6.47057E-003	5.23000E-004	...........
	6	1.80833	6.59148E-003	6.42021E-003	5.29533E-004	...........
	7	2.06667	6.52377E-003	6.37242E-003	5.26566E-004	...........
	8	2.325	6.46951E-003	6.33375E-003	5.29466E-004	...........
	9	2.58333	6.42284E-003	6.30976E-003	5.21900E-004	...........
	10	2.84167	6.38120E-003	6.28841E-003	5.21733E-004	...........
	11	3.1	6.34576E-003	6.29357E-003	5.26633E-004	...........
	12	3.35833	6.31911E-003	6.29916E-003	5.27500E-004	...........
	13	3.61667	6.30323E-003	6.30784E-003	5.28566E-004	...........
	14	3.875	6.29741E-003	6.29639E-003	5.24800E-004	...........
	15	4.13333	6.29758E-003	6.29796E-003	5.31066E-004	...........
	16	4.39167	6.29882E-003	6.29214E-003	5.25866E-004	...........
	17	4.65	6.29895E-003	6.31434E-003	5.27366E-004	...........
	18	4.90833	6.29955E-003	6.32231E-003	5.31600E-004	...........
EOC	QUANT	0.0062995	Open Circuit (V)
PSTATMODEL	IQUANT	4	Pstat Model
PSTATSECTION	LABEL	REF600-11020	Pstat Section
PSTATSERIALNO	LABEL	11020	Pstat Serial Number
CTRLMODE	IQUANT	1	Control Mode
IESTAB	IQUANT	0	I/E Stability
CASPEED	IQUANT	1	Control Amp Speed
CONVENTION	IQUANT	1	Current Convention
ICHRANGE	IQUANT	2	Ich Range
ICHRANGEMODE	TOGGLE	F	Ich Auto Range
ICHOFFSETENABLE	TOGGLE	T	Ich Offset Enable
ICHOFFSET	QUANT	0	Ich Offset (V)
ICHFILTER	IQUANT	3	Ich Filter
VCHRANGE	IQUANT	2	Vch Range
VCHRANGEMODE	TOGGLE	F	Vch Auto Range
VCHOFFSETENABLE	TOGGLE	T	Vch Offset Enable
VCHOFFSET	QUANT	0	Vch Offset (V)
VCHFILTER	IQUANT	3	Vch Filter
ACHRANGE	IQUANT	2	Ach Range
ACHOFFSETENABLE	TOGGLE	F	Ach Offset Enable
ACHOFFSET	QUANT	0	Ach Offset (V)
ACHFILTER	IQUANT	3	Ach Filter
IERANGELOWERLIMIT	IQUANT	1	I/E Range Lower Limit
IERANGEMODE	TOGGLE	F	I/E AutoRange
IERANGE	IQUANT	5	I/E Range
POSFEEDENABLE	TOGGLE	F	Positive Feedback IR Comp
POSFEEDRESISTANCE	QUANT	0	Positive Feedback Resistance (ohm)
ACHSELECT	IQUANT	0	Ach Select
CABLEID	IQUANT	14	Cable ID
DCCALDATE	LABEL	8/19/2019	DC Calibration Date
ACCALDATE	LABEL	8/19/2019	AC Calibration Date
THERMOSELECT	IQUANT	1	Thermo Select
FRAMEWORKVERSION	QUANT	6.33	Framework Version
INSTRUMENTVERSION	LABEL	3.50	Instrument Version
ZCURVE	TABLE
	Pt	Time	Freq	Zreal	Zimag	Zsig	Zmod	Zphz	Idc	Vdc	IERange
	#	s	Hz	ohm	ohm	V	ohm	°	A	V	#
	0	1	1000078	2275.673	-1752.183	1	2872.078	-37.59492	-5.432535E-006	0.0082648	8
	1	3	794390.6	2625.585	-1744.745	1	3152.433	-33.60469	2.89692E-006	0.0085871	8
	2	4	630984.4	2948.105	-1695.457	1	3400.867	-29.90324	-1.073956E-006	0.0084986	8
	3	5	501234.4	3233.707	-1610.514	1	3612.563	-26.47513	-8.262971E-007	0.0083713	8
	4	7	398109.4	3496.689	-1502.918	1	3805.995	-23.2586	-2.236087E-006	0.0080111	8
	5	8	316265.6	3710.152	-1390.929	1	3962.311	-20.55093	7.278529E-006	0.0070147	8
	6	9	251203.1	3890.836	-1291.342	1	4099.533	-18.36065	-1.813466E-006	0.0075757	8
	7	11	199546.9	4040.845	-1200.827	1	4215.497	-16.55049	7.700672E-007	0.008182	8
	8	12	158578.1	4173.032	-1126.642	1	4322.443	-15.10859	-3.579424E-007	0.0082434	8
	9	14	125953.1	4328.897	-1014.384	1	4446.159	-13.18808	1.321523E-006	0.009237	7
	10	15	100078.1	4441.699	-985.925	1	4549.806	-12.51505	1.135321E-006	0.0062351	7
	11	16	79453.13	4540.735	-978.509	1	4644.971	-12.16102	-9.317669E-007	0.009519	7
	12	18	63140.62	4649.153	-996.483	1	4754.746	-12.09753	8.798019E-007	0.0075129	7
	13	19	50203.12	4750.116	-1023.276	1	4859.084	-12.15695	8.238545E-008	0.0087591	7
	14	20	39890.62	4862.611	-1072.307	1	4979.44	-12.43588	8.109363E-007	0.0059038	7
	15	22	31640.63	4975.16	-1141.004	1	5104.323	-12.91685	4.147354E-007	0.008307	7
	16	23	25171.88	5101.073	-1230.914	1	5247.484	-13.56641	1.157096E-006	0.0065565	7
	17	24	20015.62	5232.206	-1333.6	1	5399.487	-14.29925	8.114613E-007	0.0059084	7
	18	26	15890.62	5374.61	-1472.593	1	5572.698	-15.32247	1.138944E-007	0.006342	7
	19	27	12609.37	5534.166	-1631.978	1	5769.778	-16.43034	8.281673E-008	0.0087558	7
	20	29	10078.13	5713.639	-1819.046	1	5996.215	-17.65987	1.024801E-006	0.0059816	7
	21	30	8015.625	5903.393	-2013.171	1	6237.219	-18.83036	-1.275189E-006	0.0088986	7
	22	31	6328.125	6128.807	-2297.167	1	6545.17	-20.54674	-1.274681E-006	0.0088993	7
	23	33	5015.625	6378.61	-2603.198	1	6889.362	-22.20105	-1.278396E-006	0.0092719	7
	24	34	3984.375	6671.122	-2964.902	1	7300.309	-23.96219	-3.296692E-007	0.0068803	7
	25	36	3170.956	6982.471	-3358.64	1	7748.249	-25.68803	-1.277791E-006	0.0092784	7
	26	37	2527.573	7366.062	-3827.543	1	8301.142	-27.45723	1.15794E-006	0.0065439	7
	27	39	1976.103	7826.931	-4407.641	1	8982.658	-29.38551	5.022301E-007	0.0060066	7
	28	40	1577.524	8303.053	-5145.378	1	9768.09	-31.78638	4.199993E-007	0.0082933	7
	29	41	1265.625	8873.262	-5630.61	1	10508.97	-32.39754	1.276726E-007	0.0077225	6
	30	43	998.264	9534.04	-6406.995	1	11486.84	-33.9016	1.800266E-007	0.0062737	6
	31	44	796.875	10200.82	-7223.23	1	12499.27	-35.30243	-2.035185E-007	0.0107626	6
	32	46	627.7902	10977.4	-8216.421	1	13711.78	-36.81432	1.588107E-007	0.004834	6
	33	47	505.5147	11707.76	-9246.016	1	14918.46	-38.29935	-1.641848E-007	0.0108391	6
	34	48	397.9953	12534.13	-10588.62	1	16408.03	-40.19055	1.059117E-009	0.0077119	6
	35	50	315.5048	13352.4	-12170.96	1	18067.07	-42.34976	7.228664E-010	0.0077226	6
	36	51	252.4038	14145.76	-14039.04	1	19929.81	-44.78306	-2.124128E-010	0.00772	6
	37	52	198.6229	15023.82	-16532.03	1	22338.83	-47.73636	7.461061E-010	0.0077081	6
	38	54	158.3615	15900.92	-19498.51	1	25160.11	-50.80297	1.780241E-010	0.0077079	6
	39	55	125.558	16875.88	-23308.9	1	28776.73	-54.09509	5.93383E-010	0.0077071	6
	40	57	100.4464	17964.05	-27841.86	1	33134.21	-57.16918	1.434858E-009	0.0077094	6
	41	58	79.00281	19396.94	-34022.73	1	39163.6	-60.31181	-3.048353E-012	0.0077193	6
	42	59	63.3446	20942.16	-41454.7	1	46444.23	-63.19793	1.154058E-010	0.0077224	6
	43	61	49.86702	22908.91	-50077.57	1	55068.88	-65.4174	-1.569733E-010	0.0077128	6
	44	62	39.72458	25696.52	-61269.67	1	66440.08	-67.24681	7.23608E-010	0.0077212	6
	45	63	31.6723	29203.78	-74819.96	1	80317.41	-68.67827	6.241107E-010	0.0077133	6
	46	65	24.93351	33943.01	-91840.17	1	97911.9	-69.7163	7.094596E-010	0.0077083	6
	47	66	19.86229	40100.36	-111606.3	1	118591.8	-70.23655	-1.245133E-010	0.0077231	5
	48	68	15.83615	47837.45	-134752.8	1	142992.1	-70.45506	3.049117E-010	0.007717	5
	49	69	12.40079	59569.3	-165392.7	1	175793.2	-70.19257	-6.219973E-011	0.0077202	5
	50	70	9.93114	73058.81	-198532.4	1	211548.3	-69.79666	3.396387E-010	0.0077154	5
	51	72	7.944915	89508.21	-236454.4	1	252828.8	-69.26617	-5.653273E-010	0.0077242	5
	52	74	6.317385	114062.5	-283119.3	1	305232.4	-68.05658	1.856604E-011	0.0077153	5
	53	76	5.008013	144357.3	-337207.4	1	366807.7	-66.82441	5.769429E-012	0.00773	5
	54	78	3.945707	183306	-399573.6	1	439613.7	-65.35652	-1.432292E-010	0.0077277	5
	55	81	3.158693	228969.3	-464953.4	1	518274.6	-63.78176	1.453709E-010	0.0077377	5
	56	84	2.504006	287055.7	-540190.4	1	611724.3	-62.01394	-2.10087E-010	0.0077316	5
	57	87	1.998082	353007	-618446.4	1	712102.4	-60.28243	5.543583E-011	0.0076842	5
	58	90	1.584686	430649.4	-704932.6	1	826068.3	-58.57888	-4.415792E-011	0.0077367	5
	59	94	1.266892	518122.7	-797357	1	950910	-56.98418	-2.498912E-011	0.0076861	5
	60	98	0.999041	621831.6	-902789.8	1	1096223	-55.44136	1.310214E-010	0.0077646	4
