EXPLAIN
TAG	EISPOT
TITLE	LABEL	Potentiostatic IDE	Test &Identifier
DATE	LABEL	9/10/2019	Date
TIME	LABEL	9:54:08	Time
NOTES	NOTES	1	&Notes...
	
PSTAT	PSTAT	REF600-11020	Potentiostat
VDC	POTEN	0.00000E+000	T	DC &Voltage (V)
FREQINIT	QUANT	1.00000E+006	Initial Fre&q. (Hz)
FREQFINAL	QUANT	1.00000E+000	Final Fre&q. (Hz)
PTSPERDEC	QUANT	1.00000E+001	Points/&decade
VAC	QUANT	2.50000E+001	AC &Voltage (mV rms)
AREA	QUANT	1.00000E-002	&Area (cm^2)
CONDIT	TWOPARAM	T	5.00000E+000	0.00000E+000	Conditionin&g	Time(s)	E(V)
DELAY	TWOPARAM	T	5.00000E+000	0.00000E+000	Init. De&lay	Time(s)	Stab.(mV/s)
SPEED	SELECTOR	1	&Optimize for:
ZGUESS	QUANT	1.00000E+007	E&stimated Z (ohms)
OCVCURVE	TABLE	19
	Pt	T	Vf	Vm	Ach	Over
	#	s	V vs. Ref.	V	V	bits
	0	0.258333	7.11301E-003	7.11301E-003	5.71299E-004	...........
	1	0.516667	7.11159E-003	7.03882E-003	5.70266E-004	...........
	2	0.775	7.10325E-003	6.98740E-003	5.66699E-004	...........
	3	1.03333	7.08122E-003	6.95744E-003	5.68799E-004	...........
	4	1.29167	7.04587E-003	6.93479E-003	5.65866E-004	...........
	5	1.55	7.00589E-003	6.92135E-003	5.61599E-004	...........
	6	1.80833	6.97063E-003	6.91776E-003	5.66199E-004	...........
	7	2.06667	6.94484E-003	6.91972E-003	5.67132E-004	...........
	8	2.325	6.92912E-003	6.92069E-003	5.74332E-004	...........
	9	2.58333	6.92183E-003	6.93193E-003	5.66866E-004	...........
	10	2.84167	6.92088E-003	6.94322E-003	5.66399E-004	...........
	11	3.1	6.92475E-003	6.95302E-003	5.70999E-004	...........
	12	3.35833	6.93222E-003	6.96752E-003	5.68832E-004	...........
	13	3.61667	6.94222E-003	6.98338E-003	5.68632E-004	...........
	14	3.875	6.95408E-003	6.99824E-003	5.68266E-004	...........
	15	4.13333	6.96750E-003	7.01472E-003	5.70399E-004	...........
	16	4.39167	6.98201E-003	7.02493E-003	5.71199E-004	...........
	17	4.65	6.99692E-003	7.04562E-003	5.66299E-004	...........
	18	4.90833	7.01200E-003	7.06411E-003	5.71332E-004	...........
EOC	QUANT	0.007012	Open Circuit (V)
PSTATMODEL	IQUANT	4	Pstat Model
PSTATSECTION	LABEL	REF600-11020	Pstat Section
PSTATSERIALNO	LABEL	11020	Pstat Serial Number
CTRLMODE	IQUANT	1	Control Mode
IESTAB	IQUANT	0	I/E Stability
CASPEED	IQUANT	1	Control Amp Speed
CONVENTION	IQUANT	1	Current Convention
ICHRANGE	IQUANT	2	Ich Range
ICHRANGEMODE	TOGGLE	F	Ich Auto Range
ICHOFFSETENABLE	TOGGLE	T	Ich Offset Enable
ICHOFFSET	QUANT	0	Ich Offset (V)
ICHFILTER	IQUANT	3	Ich Filter
VCHRANGE	IQUANT	2	Vch Range
VCHRANGEMODE	TOGGLE	F	Vch Auto Range
VCHOFFSETENABLE	TOGGLE	T	Vch Offset Enable
VCHOFFSET	QUANT	0	Vch Offset (V)
VCHFILTER	IQUANT	3	Vch Filter
ACHRANGE	IQUANT	2	Ach Range
ACHOFFSETENABLE	TOGGLE	F	Ach Offset Enable
ACHOFFSET	QUANT	0	Ach Offset (V)
ACHFILTER	IQUANT	3	Ach Filter
IERANGELOWERLIMIT	IQUANT	1	I/E Range Lower Limit
IERANGEMODE	TOGGLE	F	I/E AutoRange
IERANGE	IQUANT	3	I/E Range
POSFEEDENABLE	TOGGLE	F	Positive Feedback IR Comp
POSFEEDRESISTANCE	QUANT	0	Positive Feedback Resistance (ohm)
ACHSELECT	IQUANT	0	Ach Select
CABLEID	IQUANT	14	Cable ID
DCCALDATE	LABEL	8/19/2019	DC Calibration Date
ACCALDATE	LABEL	8/19/2019	AC Calibration Date
THERMOSELECT	IQUANT	1	Thermo Select
FRAMEWORKVERSION	QUANT	6.33	Framework Version
INSTRUMENTVERSION	LABEL	3.50	Instrument Version
ZCURVE	TABLE
	Pt	Time	Freq	Zreal	Zimag	Zsig	Zmod	Zphz	Idc	Vdc	IERange
	#	s	Hz	ohm	ohm	V	ohm	°	A	V	#
	0	2	1000078	2710.644	-1893.172	1	3306.311	-34.93128	1.111792E-007	0.0093125	8
	1	3	794390.6	3078.489	-1802.654	1	3567.444	-30.35173	4.575707E-006	0.0079601	8
	2	5	630984.4	3421.958	-1678.005	1	3811.233	-26.12166	-2.481968E-006	0.0092349	8
	3	6	501234.4	3717.613	-1507.564	1	4011.657	-22.0735	3.990232E-006	0.00811	8
	4	7	398109.4	3944.025	-1359.853	1	4171.874	-19.02358	-1.257778E-006	0.0088796	8
	5	9	316265.6	4123.811	-1181.415	1	4289.704	-15.98627	-1.182213E-006	0.0088974	8
	6	10	251203.1	4263.716	-1024.082	1	4384.976	-13.50578	1.636366E-006	0.0083274	8
	7	11	199546.9	4350.824	-883.7284	1	4439.667	-11.48158	-4.626766E-007	0.0085568	8
	8	13	158578.1	4440.622	-777.7382	1	4508.215	-9.93412	1.264444E-006	0.0083674	8
	9	14	125953.1	4529.682	-634.8535	1	4573.955	-7.97827	-5.608234E-007	0.009859	7
	10	15	100078.1	4566.622	-573.6226	1	4602.507	-7.15954	-1.155706E-008	0.0085837	7
	11	17	79453.13	4612.372	-529.0969	1	4642.62	-6.543941	-1.273223E-008	0.0085828	7
	12	18	63140.62	4653.775	-497.8591	1	4680.33	-6.106256	-4.097984E-008	0.00866	7
	13	19	50203.12	4692.556	-480.9396	1	4717.138	-5.851806	-3.122847E-008	0.0086082	7
	14	20	39890.62	4729.584	-473.1131	1	4753.189	-5.712448	-5.876974E-008	0.0087805	7
	15	22	31640.63	4769.352	-485.3403	1	4793.983	-5.810549	-1.516066E-008	0.0086345	7
	16	23	25171.88	4808.394	-507.2799	1	4835.079	-6.022361	5.316114E-008	0.0085205	7
	17	24	20015.62	4849.951	-543.9427	1	4880.358	-6.399225	6.722399E-008	0.0084659	7
	18	26	15890.62	4894.228	-593.3695	1	4930.066	-6.912724	-4.926533E-008	0.0087701	7
	19	27	12609.37	4942.426	-657.8386	1	4986.013	-7.581526	5.312363E-008	0.0085186	7
	20	28	10078.13	4995.667	-739.3995	1	5050.09	-8.41912	5.16125E-008	0.0085208	7
	21	30	8015.625	5050.563	-841.2695	1	5120.149	-9.456902	5.289704E-008	0.0085211	7
	22	31	6328.125	5117.03	-970.775	1	5208.301	-10.74218	-2.072706E-008	0.0086021	7
	23	32	5015.625	5190.009	-1130.38	1	5311.681	-12.28709	-1.797925E-009	0.0086024	7
	24	34	3984.375	5271.379	-1320.924	1	5434.361	-14.06774	-2.190378E-008	0.0085972	7
	25	35	3170.956	5363.302	-1551.546	1	5583.216	-16.13459	-2.791809E-009	0.0085745	7
	26	36	2527.573	5470.407	-1828.154	1	5767.798	-18.4791	-5.079612E-009	0.0085963	7
	27	38	1976.103	5599.706	-2197.586	1	6015.487	-21.42736	-1.238529E-008	0.0086245	7
	28	39	1577.524	5738.876	-2597.157	1	6299.201	-24.34937	6.873216E-008	0.0084595	7
	29	40	1265.625	5893.935	-3076.939	1	6648.761	-27.56689	5.147872E-008	0.0085121	7
	30	42	998.264	6087.413	-3698.415	1	7122.841	-31.28083	1.389709E-008	0.0086634	7
	31	43	796.875	6299.646	-4417.463	1	7694.123	-35.03906	1.421675E-008	0.0086717	7
	32	44	627.7902	6561.771	-5339.188	1	8459.536	-39.13459	9.402522E-008	0.0084647	7
	33	46	505.5147	6833.018	-6367.692	1	9340.108	-42.98116	-3.434861E-008	0.0086724	7
	34	47	397.9953	7185.999	-7732.509	1	10556.05	-47.09798	1.230255E-009	0.0085609	6
	35	48	315.5048	7587.968	-9368.636	1	12056.06	-50.99484	6.435985E-010	0.0085585	6
	36	50	252.4038	8046.096	-11286.2	1	13860.66	-54.51439	8.109649E-010	0.0085561	6
	37	51	198.6229	8632.725	-13806.6	1	16283.31	-57.98388	1.17586E-009	0.0085528	6
	38	52	158.3615	9297.417	-16728.93	1	19138.94	-60.93606	1.215449E-009	0.0085545	6
	39	54	125.558	10119.15	-20388.72	1	22761.74	-63.60428	9.781796E-010	0.0085619	6
	40	55	100.4464	11073.88	-24674.76	1	27045.79	-65.82976	1.349802E-009	0.0085571	6
	41	56	79.00281	12328.25	-30328.58	1	32738.48	-67.87878	5.428601E-010	0.0085563	6
	42	58	63.3446	13919.81	-36608.71	1	39165.79	-69.18159	6.611016E-010	0.0085482	6
	43	59	49.86702	15712.44	-45361.85	1	48006.02	-70.89494	1.152568E-009	0.0085505	6
	44	61	39.72458	18128	-55121.32	1	58025.72	-71.79528	9.033181E-010	0.0085605	6
	45	62	31.6723	21051.8	-67006.58	1	70235.74	-72.55858	6.401149E-010	0.0085571	6
	46	63	24.93351	25267.97	-82568.02	1	86347.84	-72.98452	4.845864E-010	0.0085558	6
	47	65	19.86229	30512.18	-100547.7	1	105075.4	-73.11907	1.097227E-009	0.0085592	6
	48	66	15.83615	37854.97	-122022.2	1	127759.2	-72.76453	1.46101E-009	0.0085592	5
	49	67	12.40079	47305.54	-149113.7	1	156437.6	-72.39864	-2.786906E-010	0.0085665	5
	50	69	9.93114	58739.47	-179942.4	1	189287	-71.92151	4.204098E-010	0.0085526	5
	51	70	7.944915	73779.98	-215447.8	1	227730.6	-71.09626	3.91429E-011	0.008565	5
	52	72	6.317385	93556.02	-258136.1	1	274566.9	-70.07801	5.362415E-012	0.0085724	5
	53	74	5.008013	119660.5	-307953.7	1	330384.8	-68.76554	3.611036E-010	0.0085698	5
	54	76	3.945707	153243.8	-367217.3	1	397909.8	-67.34869	7.537541E-011	0.0085604	5
	55	79	3.158693	192382	-429960.7	1	471038.2	-65.89431	2.624514E-010	0.0085695	5
	56	82	2.504006	242345.8	-503034.6	1	558368.4	-64.27673	2.616289E-011	0.0085677	5
	57	85	1.998082	299192.6	-580504.8	1	653071.2	-62.73338	4.006204E-010	0.0085477	5
	58	88	1.584686	371530.3	-670735	1	766759.6	-61.01726	1.05373E-010	0.0085092	5
	59	92	1.266892	449051.2	-765229.2	1	887255.7	-59.59477	3.079324E-010	0.0085625	5
	60	96	0.999041	549220.8	-879678.8	1	1037053	-58.02172	-1.492088E-010	0.0085323	4
