EXPLAIN
TAG	EISPOT
TITLE	LABEL	Potentiostatic EIS	Test &Identifier
DATE	LABEL	11/27/2019	Date
TIME	LABEL	13:56:23	Time
NOTES	NOTES	3	&Notes...
	
	
	
PSTAT	PSTAT	REF600-11020	Potentiostat
VDC	POTEN	0.00000E+000	T	DC &Voltage (V)
FREQINIT	QUANT	1.00000E+006	Initial Fre&q. (Hz)
FREQFINAL	QUANT	1.00000E+000	Final Fre&q. (Hz)
PTSPERDEC	QUANT	1.00000E+001	Points/&decade
VAC	QUANT	2.50000E+001	AC &Voltage (mV rms)
AREA	QUANT	1.00000E-002	&Area (cm^2)
CONDIT	TWOPARAM	T	5.00000E+000	0.00000E+000	Conditionin&g	Time(s)	E(V)
DELAY	TWOPARAM	T	5.00000E+000	0.00000E+000	Init. De&lay	Time(s)	Stab.(mV/s)
SPEED	SELECTOR	0	&Optimize for:
ZGUESS	QUANT	1.00000E+005	E&stimated Z (ohms)
OCVCURVE	TABLE	19
	Pt	T	Vf	Vm	Ach	Over
	#	s	V vs. Ref.	V	V	bits
	0	0.258333	5.79398E-002	5.79398E-002	5.42566E-004	...........
	1	0.516667	5.80164E-002	6.19491E-002	5.45899E-004	...........
	2	0.775	5.84832E-002	6.55638E-002	5.42599E-004	...........
	3	1.03333	5.97891E-002	6.88871E-002	5.45266E-004	...........
	4	1.29167	6.20816E-002	7.16070E-002	5.42199E-004	...........
	5	1.55	6.50330E-002	7.41403E-002	5.46099E-004	...........
	6	1.80833	6.81468E-002	7.63726E-002	5.41533E-004	...........
	7	2.06667	7.10812E-002	7.84537E-002	5.47566E-004	...........
	8	2.325	7.37162E-002	8.04034E-002	5.47666E-004	...........
	9	2.58333	7.60661E-002	8.20410E-002	5.46866E-004	...........
	10	2.84167	7.81795E-002	8.36692E-002	5.43933E-004	...........
	11	3.1	8.00955E-002	8.51248E-002	5.47966E-004	...........
	12	3.35833	8.18438E-002	8.64637E-002	5.47933E-004	...........
	13	3.61667	8.34502E-002	8.78116E-002	5.51199E-004	...........
	14	3.875	8.49387E-002	8.90334E-002	5.49099E-004	...........
	15	4.13333	8.63304E-002	9.01046E-002	5.40633E-004	...........
	16	4.39167	8.76342E-002	9.11612E-002	5.43133E-004	...........
	17	4.65	8.88493E-002	9.21321E-002	5.42533E-004	...........
	18	4.90833	8.99778E-002	9.30164E-002	5.36633E-004	...........
EOC	QUANT	0.0899778	Open Circuit (V)
PSTATMODEL	IQUANT	4	Pstat Model
PSTATSECTION	LABEL	REF600-11020	Pstat Section
PSTATSERIALNO	LABEL	11020	Pstat Serial Number
CTRLMODE	IQUANT	1	Control Mode
IESTAB	IQUANT	0	I/E Stability
CASPEED	IQUANT	1	Control Amp Speed
CONVENTION	IQUANT	1	Current Convention
ICHRANGE	IQUANT	2	Ich Range
ICHRANGEMODE	TOGGLE	F	Ich Auto Range
ICHOFFSETENABLE	TOGGLE	T	Ich Offset Enable
ICHOFFSET	QUANT	0	Ich Offset (V)
ICHFILTER	IQUANT	3	Ich Filter
VCHRANGE	IQUANT	2	Vch Range
VCHRANGEMODE	TOGGLE	F	Vch Auto Range
VCHOFFSETENABLE	TOGGLE	T	Vch Offset Enable
VCHOFFSET	QUANT	0	Vch Offset (V)
VCHFILTER	IQUANT	3	Vch Filter
ACHRANGE	IQUANT	2	Ach Range
ACHOFFSETENABLE	TOGGLE	F	Ach Offset Enable
ACHOFFSET	QUANT	0	Ach Offset (V)
ACHFILTER	IQUANT	3	Ach Filter
IERANGELOWERLIMIT	IQUANT	1	I/E Range Lower Limit
IERANGEMODE	TOGGLE	F	I/E AutoRange
IERANGE	IQUANT	6	I/E Range
POSFEEDENABLE	TOGGLE	F	Positive Feedback IR Comp
POSFEEDRESISTANCE	QUANT	0	Positive Feedback Resistance (ohm)
ACHSELECT	IQUANT	0	Ach Select
CABLEID	IQUANT	14	Cable ID
DCCALDATE	LABEL	8/19/2019	DC Calibration Date
ACCALDATE	LABEL	8/19/2019	AC Calibration Date
THERMOSELECT	IQUANT	1	Thermo Select
FRAMEWORKVERSION	QUANT	6.33	Framework Version
INSTRUMENTVERSION	LABEL	3.50	Instrument Version
ZCURVE	TABLE
	Pt	Time	Freq	Zreal	Zimag	Zsig	Zmod	Zphz	Idc	Vdc	IERange
	#	s	Hz	ohm	ohm	V	ohm	°	A	V	#
	0	2	1000078	1677.933	-912.7467	1	1910.122	-28.5449	-7.981912E-006	0.0933182	8
	1	2	794390.6	1815.483	-914.9603	1	2033.01	-26.74701	-1.923226E-007	0.0917231	8
	2	2	630984.4	1959.75	-905.9058	1	2159.001	-24.80902	1.996048E-006	0.0912063	8
	3	2	501234.4	2099.452	-885.95	1	2278.729	-22.87931	-3.826E-007	0.0912835	8
	4	3	398109.4	2238.965	-869.8696	1	2402.007	-21.23185	5.649287E-006	0.0908381	8
	5	3	316265.6	2356.814	-846.7375	1	2504.303	-19.76195	1.36616E-006	0.0911053	8
	6	3	251203.1	2482.582	-827.7994	1	2616.957	-18.4406	-2.360636E-006	0.0914395	8
	7	4	199546.9	2593.559	-803.7071	1	2715.233	-17.21747	1.770458E-006	0.0917809	8
	8	4	158578.1	2696.353	-785.4784	1	2808.433	-16.24145	7.21032E-007	0.0918575	8
	9	4	125953.1	2838.011	-752.3698	1	2936.046	-14.84783	2.401698E-006	0.089846	7
	10	5	100078.1	2914.654	-746.0012	1	3008.609	-14.35656	3.846923E-007	0.0918556	7
	11	5	79453.13	3008.933	-748.2471	1	3100.573	-13.96478	3.458557E-007	0.0901325	7
	12	5	63140.62	3104.216	-771.3174	1	3198.607	-13.95393	7.382154E-007	0.0912013	7
	13	6	50203.12	3201.667	-793.0699	1	3298.428	-13.91244	8.93907E-007	0.0902079	7
	14	6	39890.62	3288.752	-818.9	1	3389.172	-13.98232	-3.21018E-007	0.0908511	7
	15	6	31640.63	3388.075	-857.8073	1	3494.98	-14.20783	-9.2265E-007	0.0920123	7
	16	7	25171.88	3493.726	-904.1576	1	3608.825	-14.50951	-1.039344E-006	0.0927715	7
	17	7	20015.62	3596.912	-961.397	1	3723.178	-14.96443	-1.052579E-006	0.0924782	7
	18	7	15890.62	3736.611	-1035.752	1	3877.505	-15.49285	9.279163E-007	0.0904582	7
	19	8	12609.37	3854.822	-1115.977	1	4013.11	-16.14581	8.950383E-007	0.0902024	7
	20	8	10078.13	3964.254	-1200.889	1	4142.154	-16.8531	3.038772E-008	0.0903962	7
	21	8	8015.625	4110.097	-1327.371	1	4319.121	-17.89806	8.95951E-007	0.0902068	7
	22	9	6328.125	4255.979	-1471.067	1	4503.043	-19.06757	5.661795E-007	0.0915577	7
	23	9	5015.625	4416.215	-1641.655	1	4711.474	-20.39178	7.408736E-007	0.0911954	7
	24	9	3984.375	4578.847	-1833.593	1	4932.333	-21.82356	3.04393E-008	0.0903942	7
	25	9	3170.956	4786.897	-2074.251	1	5216.982	-23.42797	7.876675E-007	0.0900422	7
	26	10	2527.573	4982.538	-2319.701	1	5496.062	-24.9651	-9.23511E-007	0.0920003	7
	27	10	1976.103	5267.789	-2670.161	1	5905.875	-26.87975	3.854345E-007	0.0918369	7
	28	10	1577.524	5546.959	-3044.457	1	6327.518	-28.76025	3.876007E-007	0.0918372	7
	29	11	1265.625	5805.559	-3390.355	1	6723.021	-30.28426	2.446923E-008	0.0903892	7
	30	11	998.264	6125.594	-3886.371	1	7254.432	-32.39301	3.399666E-007	0.0901127	7
	31	11	796.875	6456.625	-4457.401	1	7845.791	-34.61968	8.933296E-007	0.0901902	7
	32	12	627.7902	6799.907	-5175.301	1	8545.319	-37.27419	5.665896E-007	0.0915539	7
	33	12	505.5147	7113.783	-5931.97	1	9262.515	-39.82371	-9.088918E-007	0.0928713	7
	34	12	397.9953	7547.905	-7050.3	1	10328.49	-43.04773	8.516807E-010	0.0914931	7
	35	13	315.5048	8029.937	-8366.727	1	11596.64	-46.1767	-1.52495E-009	0.091437	6
	36	13	252.4038	8586.798	-9917.65	1	13118.41	-49.11366	-1.167816E-009	0.0914296	6
	37	13	198.6229	9328.895	-11949.55	1	15159.82	-52.02119	-2.117323E-009	0.0914343	6
	38	14	158.3615	10224.08	-14265.73	1	17551.15	-54.37127	-1.582E-009	0.0914282	6
	39	14	125.558	11382.79	-17111.89	1	20552	-56.36825	-1.904818E-009	0.0914293	6
	40	14	100.4464	12766.3	-20338.99	1	24013.6	-57.88447	-2.468514E-009	0.0914285	6
	41	15	79.00281	14679.74	-24391.45	1	28468.19	-58.95881	-2.260359E-009	0.091435	6
	42	15	63.3446	17265.65	-29024.63	1	33771.76	-59.25318	-2.502118E-009	0.0914227	6
	43	15	49.86702	20156.67	-34508.24	1	39963.86	-59.7103	-2.472892E-009	0.0914212	6
	44	16	39.72458	23649.97	-40284.67	1	46713.77	-59.58403	-2.145313E-009	0.0914303	6
	45	16	31.6723	27865.62	-46906.65	1	54559.39	-59.28691	-2.361831E-009	0.0914276	6
	46	16	24.93351	33471.99	-55042.41	1	64420.81	-58.69568	-1.764522E-009	0.0914264	6
	47	17	19.86229	39771.23	-63575.87	1	74990.95	-57.97109	-2.565364E-010	0.0914316	6
	48	17	15.83615	47204.8	-72048.67	1	86135.38	-56.76801	-4.897674E-009	0.0914224	6
	49	17	12.40079	55524.99	-83100.13	1	99943.3	-56.25035	3.567703E-010	0.0914231	6
	50	18	9.93114	63825.13	-95132.4	1	114559.3	-56.14202	-2.83866E-009	0.0914335	5
	51	18	7.944915	72915.53	-108046.4	1	130348.4	-55.9864	-3.287041E-009	0.0914331	5
	52	19	6.317385	83454.84	-123751.7	1	149262.1	-56.00532	-2.613428E-009	0.0914439	5
	53	20	5.008013	94749.11	-142628.6	1	171231.8	-56.40366	-2.371765E-009	0.0914294	5
	54	21	3.945707	107726.1	-165929.7	1	197832.2	-57.00726	-1.782295E-009	0.09143	5
	55	22	3.158693	120874.7	-192338.5	1	227166.9	-57.85278	-1.679449E-009	0.0914452	5
	56	24	2.504006	137227.1	-225651	1	264101.6	-58.6946	-1.885059E-009	0.091441	5
	57	25	1.998082	155340.8	-264270.6	1	306544.8	-59.55258	-1.668333E-009	0.0914321	5
	58	27	1.584686	178935.2	-311937.1	1	359614.5	-60.16031	-1.459802E-009	0.0914822	5
	59	29	1.266892	206099.4	-367813.1	1	421620	-60.73647	-1.441818E-009	0.0914758	5
	60	31	0.999041	239896.2	-435923.4	1	497573.5	-61.17525	-1.357481E-009	0.091459	5
