EXPLAIN
TAG	EISPOT
TITLE	LABEL	Potentiostatic EIS	Test &Identifier
DATE	LABEL	10/4/2019	Date
TIME	LABEL	8:46:24	Time
NOTES	NOTES	2	&Notes...
	
	
PSTAT	PSTAT	REF600-11020	Potentiostat
VDC	POTEN	0.00000E+000	T	DC &Voltage (V)
FREQINIT	QUANT	1.00000E+006	Initial Fre&q. (Hz)
FREQFINAL	QUANT	1.00000E+000	Final Fre&q. (Hz)
PTSPERDEC	QUANT	1.00000E+001	Points/&decade
VAC	QUANT	2.50000E+001	AC &Voltage (mV rms)
AREA	QUANT	1.00000E-002	&Area (cm^2)
CONDIT	TWOPARAM	T	5.00000E+000	0.00000E+000	Conditionin&g	Time(s)	E(V)
DELAY	TWOPARAM	T	5.00000E+000	0.00000E+000	Init. De&lay	Time(s)	Stab.(mV/s)
SPEED	SELECTOR	1	&Optimize for:
ZGUESS	QUANT	1.00000E+004	E&stimated Z (ohms)
OCVCURVE	TABLE	19
	Pt	T	Vf	Vm	Ach	Over
	#	s	V vs. Ref.	V	V	bits
	0	0.258333	4.90561E-003	4.90561E-003	5.37299E-004	...........
	1	0.516667	4.90498E-003	4.87253E-003	5.36799E-004	...........
	2	0.775	4.90131E-003	4.85244E-003	5.33966E-004	...........
	3	1.03333	4.89184E-003	4.84251E-003	5.34266E-004	...........
	4	1.29167	4.87723E-003	4.84256E-003	5.38999E-004	...........
	5	1.55	4.86220E-003	4.84929E-003	5.39466E-004	...........
	6	1.80833	4.85177E-003	4.85863E-003	5.36099E-004	...........
	7	2.06667	4.84837E-003	4.87359E-003	5.34566E-004	...........
	8	2.325	4.85183E-003	4.89072E-003	5.29633E-004	...........
	9	2.58333	4.86086E-003	4.90788E-003	5.36266E-004	...........
	10	2.84167	4.87397E-003	4.92758E-003	5.32933E-004	...........
	11	3.1	4.88988E-003	4.95005E-003	5.36199E-004	...........
	12	3.35833	4.90789E-003	4.97368E-003	5.42499E-004	...........
	13	3.61667	4.92768E-003	4.99372E-003	5.37833E-004	...........
	14	3.875	4.94882E-003	5.01638E-003	5.33266E-004	...........
	15	4.13333	4.97065E-003	5.04002E-003	5.41066E-004	...........
	16	4.39167	4.99278E-003	5.06202E-003	5.35233E-004	...........
	17	4.65	5.01528E-003	5.09009E-003	5.37966E-004	...........
	18	4.90833	5.03848E-003	5.11818E-003	5.39633E-004	...........
EOC	QUANT	0.0050385	Open Circuit (V)
PSTATMODEL	IQUANT	4	Pstat Model
PSTATSECTION	LABEL	REF600-11020	Pstat Section
PSTATSERIALNO	LABEL	11020	Pstat Serial Number
CTRLMODE	IQUANT	1	Control Mode
IESTAB	IQUANT	0	I/E Stability
CASPEED	IQUANT	1	Control Amp Speed
CONVENTION	IQUANT	1	Current Convention
ICHRANGE	IQUANT	2	Ich Range
ICHRANGEMODE	TOGGLE	F	Ich Auto Range
ICHOFFSETENABLE	TOGGLE	T	Ich Offset Enable
ICHOFFSET	QUANT	0	Ich Offset (V)
ICHFILTER	IQUANT	3	Ich Filter
VCHRANGE	IQUANT	2	Vch Range
VCHRANGEMODE	TOGGLE	F	Vch Auto Range
VCHOFFSETENABLE	TOGGLE	T	Vch Offset Enable
VCHOFFSET	QUANT	0	Vch Offset (V)
VCHFILTER	IQUANT	3	Vch Filter
ACHRANGE	IQUANT	2	Ach Range
ACHOFFSETENABLE	TOGGLE	F	Ach Offset Enable
ACHOFFSET	QUANT	0	Ach Offset (V)
ACHFILTER	IQUANT	3	Ach Filter
IERANGELOWERLIMIT	IQUANT	1	I/E Range Lower Limit
IERANGEMODE	TOGGLE	F	I/E AutoRange
IERANGE	IQUANT	5	I/E Range
POSFEEDENABLE	TOGGLE	F	Positive Feedback IR Comp
POSFEEDRESISTANCE	QUANT	0	Positive Feedback Resistance (ohm)
ACHSELECT	IQUANT	0	Ach Select
CABLEID	IQUANT	14	Cable ID
DCCALDATE	LABEL	8/19/2019	DC Calibration Date
ACCALDATE	LABEL	8/19/2019	AC Calibration Date
THERMOSELECT	IQUANT	1	Thermo Select
FRAMEWORKVERSION	QUANT	6.33	Framework Version
INSTRUMENTVERSION	LABEL	3.50	Instrument Version
ZCURVE	TABLE
	Pt	Time	Freq	Zreal	Zimag	Zsig	Zmod	Zphz	Idc	Vdc	IERange
	#	s	Hz	ohm	ohm	V	ohm	°	A	V	#
	0	2	1000078	2277.656	-1092.251	1	2526.011	-25.62006	-6.236191E-006	0.0080869	8
	1	3	794390.6	2459.954	-976.19	1	2646.568	-21.6448	4.708797E-006	0.0063629	8
	2	5	630984.4	2609.328	-858.5167	1	2746.933	-18.21215	-2.704811E-006	0.0071126	8
	3	6	501234.4	2720.84	-749.0876	1	2822.074	-15.39302	-2.452676E-007	0.0068638	8
	4	7	398109.4	2807.987	-640.0618	1	2880.012	-12.84079	-7.377614E-007	0.0066929	8
	5	9	316265.6	2871.315	-557.8952	1	2925.012	-10.99554	-4.418644E-006	0.0073892	8
	6	10	251203.1	2916.895	-478.4415	1	2955.873	-9.314952	-1.005644E-006	0.0069908	8
	7	11	199546.9	2952.238	-416.195	1	2981.431	-8.024453	-1.156722E-006	0.0069852	8
	8	13	158578.1	2985.461	-371.5688	1	3008.495	-7.094518	6.144429E-007	0.0065683	8
	9	14	125953.1	3031.729	-307.1749	1	3047.25	-5.785468	-7.059917E-007	0.0084045	7
	10	15	100078.1	3048.063	-283.4484	1	3061.214	-5.312824	1.558883E-008	0.0064998	7
	11	17	79453.13	3071.252	-277.4484	1	3083.758	-5.161932	-2.110052E-008	0.0066016	7
	12	18	63140.62	3096.504	-279.6005	1	3109.102	-5.159561	1.708747E-008	0.0064625	7
	13	19	50203.12	3122.051	-285.9182	1	3135.116	-5.232566	8.797296E-009	0.0066275	7
	14	21	39890.62	3149.481	-297.8901	1	3163.537	-5.403183	-2.678725E-008	0.0065175	7
	15	22	31640.63	3178.31	-317.5092	1	3194.13	-5.704849	-8.437794E-008	0.0067746	7
	16	23	25171.88	3209.244	-343.0459	1	3227.526	-6.101353	-4.661653E-008	0.0066263	7
	17	25	20015.62	3242.941	-375.705	1	3264.632	-6.608437	5.418004E-008	0.0064325	7
	18	26	15890.62	3279.913	-416.722	1	3306.28	-7.240793	1.003113E-007	0.0064409	7
	19	28	12609.37	3320.48	-466.9338	1	3353.15	-8.00458	5.14109E-008	0.0063844	7
	20	29	10078.13	3361.193	-525.3785	1	3402.005	-8.883856	1.002316E-007	0.0064418	7
	21	30	8015.625	3406.005	-597.196	1	3457.964	-9.94493	-4.579766E-008	0.0066237	7
	22	32	6328.125	3455.847	-688.3109	1	3523.727	-11.26435	-8.336528E-008	0.0067634	7
	23	33	5015.625	3509.617	-797.3879	1	3599.061	-12.80035	-6.522374E-008	0.006649	7
	24	34	3984.375	3565.917	-929.2996	1	3685.019	-14.60674	1.850486E-008	0.0064435	7
	25	36	3170.956	3626.143	-1089.235	1	3786.205	-16.71942	-2.615591E-008	0.0065133	7
	26	37	2527.573	3692.753	-1283.689	1	3909.512	-19.16867	8.197129E-008	0.0063622	7
	27	38	1976.103	3771.507	-1544.802	1	4075.62	-22.27392	2.111306E-008	0.0064456	7
	28	40	1577.524	3852.208	-1840.031	1	4269.101	-25.53176	3.897013E-008	0.0064824	7
	29	41	1265.625	3940.861	-2192.321	1	4509.618	-29.08741	-3.750903E-008	0.0065244	7
	30	42	998.264	4045.103	-2662.162	1	4842.516	-33.3497	-3.758231E-008	0.0065288	7
	31	44	796.875	4160.715	-3213.629	1	5257.277	-37.68158	8.228542E-008	0.0063642	7
	32	45	627.7902	4306.067	-3939.759	1	5836.43	-42.45639	1.494048E-008	0.0066156	7
	33	46	505.5147	4468.737	-4749.677	1	6521.43	-46.74561	4.07735E-008	0.0064811	7
	34	48	397.9953	4684.44	-5855.03	1	7498.357	-51.33771	5.258061E-009	0.0065559	7
	35	49	315.5048	4951.509	-7184.603	1	8725.592	-55.42604	4.878257E-009	0.0065523	7
	36	50	252.4038	5280.811	-8751.499	1	10221.33	-58.89247	3.053819E-010	0.0064881	6
	37	52	198.6229	5736.648	-10820.6	1	12247.23	-62.06927	6.099333E-010	0.0064916	6
	38	53	158.3615	6298.417	-13218.88	1	14642.7	-64.52354	8.32595E-010	0.0064896	6
	39	54	125.558	7057.571	-16216.85	1	17686.02	-66.48133	1.096612E-009	0.0064861	6
	40	56	100.4464	8021.061	-19697.12	1	21267.67	-67.84286	2.494741E-010	0.006486	6
	41	57	79.00281	9356.399	-24274.17	1	26014.95	-68.92101	1.159876E-009	0.0064837	6
	42	59	63.3446	11149.89	-29405.48	1	31448.4	-69.23441	7.264169E-010	0.0064862	6
	43	60	49.86702	13271.11	-35863.89	1	38240.56	-69.69346	1.091233E-009	0.0064805	6
	44	61	39.72458	16365.64	-43170.94	1	46168.86	-69.23882	6.75164E-010	0.0064841	6
	45	63	31.6723	20209.79	-51889.17	1	55685.92	-68.72009	1.66395E-010	0.0064822	6
	46	64	24.93351	25459.56	-62396.34	1	67390.59	-67.80309	4.326333E-010	0.0064808	6
	47	65	19.86229	31981.07	-74015.89	1	80629.66	-66.63161	6.014284E-011	0.0064863	6
	48	67	15.83615	39493.68	-87019.48	1	95562.2	-65.58914	-1.398051E-010	0.0064866	6
	49	68	12.40079	50631.24	-102888.4	1	114671.5	-63.79826	-4.150456E-010	0.0064952	5
	50	70	9.93114	62748.27	-118768.5	1	134325.3	-62.15142	-5.268634E-010	0.0064948	5
	51	71	7.944915	76799.89	-136282.7	1	156432.7	-60.59727	3.665818E-011	0.0064853	5
	52	73	6.317385	93332.55	-155528.3	1	181383.6	-59.03203	6.337347E-010	0.0064802	5
	53	75	5.008013	112519.7	-177079.6	1	209804.4	-57.56736	7.755452E-011	0.0064898	5
	54	77	3.945707	134298	-201412	1	242080.1	-56.30534	-1.298711E-010	0.0064853	5
	55	80	3.158693	156119.5	-226358.7	1	274975.6	-55.40598	-2.507872E-011	0.0064722	5
	56	83	2.504006	180464.6	-256391.1	1	313534.4	-54.85965	1.757583E-010	0.0064925	5
	57	86	1.998082	205480.1	-290221.3	1	355598.8	-54.70105	4.19176E-010	0.0064831	5
	58	89	1.584686	234466.9	-331114.8	1	405723.7	-54.69718	3.548401E-011	0.0064321	5
	59	92	1.266892	263411	-378898.8	1	461464.7	-55.19292	3.082521E-010	0.0064801	5
	60	97	0.999041	299485.8	-440554.1	1	532709.8	-55.79239	-2.560313E-010	0.006461	5
