EXPLAIN
TAG	EISPOT
TITLE	LABEL	Potentiostatic EIS	Test &Identifier
DATE	LABEL	11/21/2019	Date
TIME	LABEL	23:20:08	Time
NOTES	NOTES	4	&Notes...
	
	
	
	
PSTAT	PSTAT	REF600-11020	Potentiostat
VDC	POTEN	0.00000E+000	T	DC &Voltage (V)
FREQINIT	QUANT	1.00000E+006	Initial Fre&q. (Hz)
FREQFINAL	QUANT	1.00000E+000	Final Fre&q. (Hz)
PTSPERDEC	QUANT	1.00000E+001	Points/&decade
VAC	QUANT	2.50000E+001	AC &Voltage (mV rms)
AREA	QUANT	1.00000E-002	&Area (cm^2)
CONDIT	TWOPARAM	T	5.00000E+000	0.00000E+000	Conditionin&g	Time(s)	E(V)
DELAY	TWOPARAM	T	5.00000E+000	0.00000E+000	Init. De&lay	Time(s)	Stab.(mV/s)
SPEED	SELECTOR	1	&Optimize for:
ZGUESS	QUANT	1.00000E+005	E&stimated Z (ohms)
OCVCURVE	TABLE	19
	Pt	T	Vf	Vm	Ach	Over
	#	s	V vs. Ref.	V	V	bits
	0	0.258333	8.13777E-003	8.13777E-003	6.11932E-004	...........
	1	0.516667	8.13882E-003	8.19270E-003	6.17398E-004	...........
	2	0.775	8.14638E-003	8.30301E-003	6.24198E-004	...........
	3	1.03333	8.17197E-003	8.43612E-003	6.07365E-004	...........
	4	1.29167	8.22708E-003	8.55794E-003	6.09332E-004	...........
	5	1.55	8.31385E-003	8.68399E-003	6.13732E-004	...........
	6	1.80833	8.42388E-003	8.80607E-003	6.14532E-004	...........
	7	2.06667	8.54656E-003	8.97991E-003	6.03432E-004	...........
	8	2.325	8.67702E-003	9.11942E-003	6.10965E-004	...........
	9	2.58333	8.81496E-003	9.25546E-003	6.21132E-004	...........
	10	2.84167	8.95763E-003	9.36545E-003	6.17932E-004	...........
	11	3.1	9.09839E-003	9.48826E-003	6.09832E-004	...........
	12	3.35833	9.23086E-003	9.55150E-003	6.20898E-004	...........
	13	3.61667	9.34986E-003	9.59515E-003	6.23165E-004	...........
	14	3.875	9.44987E-003	9.63579E-003	6.11565E-004	...........
	15	4.13333	9.53178E-003	9.88362E-003	6.06365E-004	...........
	16	4.39167	9.61527E-003	1.01373E-002	6.24065E-004	...........
	17	4.65	9.70323E-003	8.83222E-003	6.29598E-004	...........
	18	4.90833	9.71288E-003	8.72393E-003	6.16465E-004	...........
EOC	QUANT	0.0097129	Open Circuit (V)
PSTATMODEL	IQUANT	4	Pstat Model
PSTATSECTION	LABEL	REF600-11020	Pstat Section
PSTATSERIALNO	LABEL	11020	Pstat Serial Number
CTRLMODE	IQUANT	1	Control Mode
IESTAB	IQUANT	0	I/E Stability
CASPEED	IQUANT	1	Control Amp Speed
CONVENTION	IQUANT	1	Current Convention
ICHRANGE	IQUANT	2	Ich Range
ICHRANGEMODE	TOGGLE	F	Ich Auto Range
ICHOFFSETENABLE	TOGGLE	T	Ich Offset Enable
ICHOFFSET	QUANT	0	Ich Offset (V)
ICHFILTER	IQUANT	3	Ich Filter
VCHRANGE	IQUANT	2	Vch Range
VCHRANGEMODE	TOGGLE	F	Vch Auto Range
VCHOFFSETENABLE	TOGGLE	T	Vch Offset Enable
VCHOFFSET	QUANT	0	Vch Offset (V)
VCHFILTER	IQUANT	3	Vch Filter
ACHRANGE	IQUANT	2	Ach Range
ACHOFFSETENABLE	TOGGLE	F	Ach Offset Enable
ACHOFFSET	QUANT	0	Ach Offset (V)
ACHFILTER	IQUANT	3	Ach Filter
IERANGELOWERLIMIT	IQUANT	1	I/E Range Lower Limit
IERANGEMODE	TOGGLE	F	I/E AutoRange
IERANGE	IQUANT	5	I/E Range
POSFEEDENABLE	TOGGLE	F	Positive Feedback IR Comp
POSFEEDRESISTANCE	QUANT	0	Positive Feedback Resistance (ohm)
ACHSELECT	IQUANT	0	Ach Select
CABLEID	IQUANT	14	Cable ID
DCCALDATE	LABEL	8/19/2019	DC Calibration Date
ACCALDATE	LABEL	8/19/2019	AC Calibration Date
THERMOSELECT	IQUANT	1	Thermo Select
FRAMEWORKVERSION	QUANT	6.33	Framework Version
INSTRUMENTVERSION	LABEL	3.50	Instrument Version
ZCURVE	TABLE
	Pt	Time	Freq	Zreal	Zimag	Zsig	Zmod	Zphz	Idc	Vdc	IERange
	#	s	Hz	ohm	ohm	V	ohm	°	A	V	#
	0	2	1000078	2247.344	-1570.352	1	2741.634	-34.94427	-4.889064E-006	0.0125907	8
	1	3	794390.6	2572.954	-1521.902	1	2989.361	-30.60432	-1.772202E-006	0.0123952	8
	2	4	630984.4	2851.152	-1424.98	1	3187.418	-26.55547	2.676891E-006	0.0118563	8
	3	6	501234.4	3087.876	-1308.429	1	3353.65	-22.96388	-7.012137E-006	0.012404	8
	4	7	398109.4	3292.106	-1169.854	1	3493.783	-19.56274	-2.029546E-006	0.0112912	8
	5	8	316265.6	3453.466	-1044.511	1	3607.967	-16.82809	-1.439135E-006	0.0111109	8
	6	10	251203.1	3577.969	-921.7947	1	3694.803	-14.44699	-4.436019E-006	0.0116695	8
	7	11	199546.9	3682.652	-805.8143	1	3769.782	-12.34257	-1.157183E-006	0.011692	8
	8	13	158578.1	3750.948	-729.2977	1	3821.189	-11.00276	-4.359087E-006	0.0116478	8
	9	14	125953.1	3846.362	-589.1595	1	3891.222	-8.708492	-2.786426E-006	0.013621	7
	10	15	100078.1	3898.521	-539.3088	1	3935.648	-7.876123	-7.279173E-007	0.0111116	7
	11	17	79453.13	3943.579	-499.6651	1	3975.108	-7.221096	-9.026941E-007	0.0129574	7
	12	18	63140.62	3989.568	-480.5835	1	4018.409	-6.868757	1.022479E-006	0.0105467	7
	13	19	50203.12	4031.983	-468.1545	1	4059.071	-6.622971	8.403138E-007	0.0110347	7
	14	21	39890.62	4072.571	-470.419	1	4099.649	-6.588984	4.960199E-007	0.0095797	7
	15	22	31640.63	4113.304	-481.3474	1	4141.373	-6.674514	-2.909482E-007	0.0126119	7
	16	23	25171.88	4155.514	-504.8898	1	4186.074	-6.927411	-1.103568E-006	0.0128837	7
	17	25	20015.62	4203.041	-540.9432	1	4237.708	-7.333812	7.33889E-008	0.0122197	7
	18	26	15890.62	4252.183	-587.9847	1	4292.643	-7.87284	1.240036E-007	0.0098699	7
	19	28	12609.37	4308.893	-646.1367	1	4357.069	-8.5282	1.243693E-007	0.0098656	7
	20	29	10078.13	4377.6	-720.2972	1	4436.463	-9.343814	-2.899262E-007	0.0126118	7
	21	30	8015.625	4429.013	-811.8968	1	4502.813	-10.38775	1.113982E-006	0.0101102	7
	22	32	6328.125	4495.282	-923.4713	1	4589.156	-11.60884	-1.233505E-006	0.0127172	7
	23	33	5015.625	4572.093	-1061.697	1	4693.745	-13.0731	3.958828E-007	0.0117859	7
	24	34	3984.375	4649.683	-1226.995	1	4808.854	-14.78267	-9.021315E-007	0.0129478	7
	25	36	3170.956	4738.154	-1427.851	1	4948.622	-16.77027	7.90946E-007	0.0094688	7
	26	37	2527.573	4828.956	-1671.009	1	5109.9	-19.08764	-1.103078E-006	0.0128877	7
	27	38	1976.103	4942.673	-2001.28	1	5332.461	-22.04294	1.23541E-007	0.0098725	7
	28	40	1577.524	5059.233	-2357.978	1	5581.747	-24.98901	7.357799E-008	0.0122226	7
	29	41	1265.625	5186.703	-2800.678	1	5894.547	-28.36784	1.028802E-006	0.0105369	7
	30	43	998.264	5344.301	-3377.489	1	6322.103	-32.29205	1.115733E-006	0.0101123	7
	31	44	796.875	5512.967	-4038.635	1	6833.987	-36.22539	-1.103411E-006	0.0128918	7
	32	45	627.7902	5718.399	-4906.431	1	7534.796	-40.62985	-1.100829E-006	0.0128883	7
	33	47	505.5147	5941.132	-5872.954	1	8353.959	-44.66935	-1.232743E-006	0.012717	7
	34	48	397.9953	6214.635	-7197.085	1	9508.93	-49.18961	6.778022E-009	0.0112831	7
	35	49	315.5048	6543.908	-8777.278	1	10948.21	-53.2936	1.036145E-009	0.0112252	6
	36	51	252.4038	6920.642	-10649.98	1	12701.08	-56.98312	6.939392E-010	0.0112098	6
	37	52	198.6229	7425.703	-13129.39	1	15083.83	-60.50842	7.72489E-010	0.0112205	6
	38	54	158.3615	8031.093	-16021.39	1	17921.59	-63.37661	4.220503E-010	0.0112209	6
	39	55	125.558	8814.541	-19668.29	1	21553.14	-65.85999	8.354558E-010	0.0112172	6
	40	56	100.4464	9804.61	-23979.09	1	25906.13	-67.76125	1.254494E-009	0.0112201	6
	41	58	79.00281	11232.06	-29569.56	1	31630.96	-69.20061	7.939299E-010	0.0112198	6
	42	59	63.3446	12830.81	-35655.02	1	37893.4	-70.20824	5.69525E-010	0.0112109	6
	43	61	49.86702	15537.86	-44442.71	1	47080.57	-70.72958	-3.085533E-010	0.0112069	6
	44	62	39.72458	18531.83	-53893.61	1	56990.79	-71.02398	3.956386E-010	0.0112103	6
	45	63	31.6723	22807.12	-65076.62	1	68957.46	-70.68619	7.70935E-010	0.0112073	6
	46	65	24.93351	28710.3	-79476.15	1	84502.9	-70.13804	1.045909E-009	0.0111964	6
	47	66	19.86229	36261.65	-95276.9	1	101944.1	-69.16357	2.722787E-010	0.0112093	6
	48	67	15.83615	45694.69	-113466.1	1	122321.5	-68.06453	8.388396E-010	0.0112054	5
	49	69	12.40079	59263.68	-135562.8	1	147950.9	-66.3866	1.67341E-010	0.0112137	5
	50	70	9.93114	75902.63	-158246.9	1	175508.7	-64.37543	-5.927665E-010	0.0112177	5
	51	72	7.944915	94965.73	-182267.6	1	205523.6	-62.47942	9.148001E-010	0.0112175	5
	52	74	6.317385	118672.4	-209800.4	1	241038	-60.50558	-3.834578E-010	0.0112163	5
	53	76	5.008013	146368.1	-238664.5	1	279972.1	-58.48005	-9.827686E-011	0.0112034	5
	54	78	3.945707	177965.3	-269807.6	1	323214.8	-56.59112	2.573102E-010	0.0112069	5
	55	81	3.158693	209821.9	-301411.7	1	367252.3	-55.15705	-2.267847E-010	0.0111811	5
	56	84	2.504006	244986.8	-337910.1	1	417374.8	-54.05767	2.663268E-010	0.0112048	5
	57	87	1.998082	280687.7	-378050.3	1	470858.4	-53.40754	2.688678E-010	0.0112069	5
	58	90	1.584686	320643	-425920.8	1	533123.3	-53.02673	-8.127946E-011	0.0111487	5
	59	94	1.266892	359634.5	-481661.2	1	601111.1	-53.25298	1.91853E-010	0.0111961	5
	60	98	0.999041	406691.8	-553819.3	1	687105.5	-53.70866	-3.103964E-010	0.0112028	5
