EXPLAIN
TAG	EISPOT
TITLE	LABEL	Potentiostatic EIS	Test &Identifier
DATE	LABEL	11/11/2019	Date
TIME	LABEL	14:37:39	Time
NOTES	NOTES	3	&Notes...
	
	
	
PSTAT	PSTAT	REF600-11020	Potentiostat
VDC	POTEN	0.00000E+000	T	DC &Voltage (V)
FREQINIT	QUANT	1.00000E+006	Initial Fre&q. (Hz)
FREQFINAL	QUANT	1.00000E+000	Final Fre&q. (Hz)
PTSPERDEC	QUANT	1.00000E+001	Points/&decade
VAC	QUANT	2.50000E+001	AC &Voltage (mV rms)
AREA	QUANT	1.00000E-002	&Area (cm^2)
CONDIT	TWOPARAM	T	5.00000E+000	0.00000E+000	Conditionin&g	Time(s)	E(V)
DELAY	TWOPARAM	T	5.00000E+000	0.00000E+000	Init. De&lay	Time(s)	Stab.(mV/s)
SPEED	SELECTOR	1	&Optimize for:
ZGUESS	QUANT	1.00000E+005	E&stimated Z (ohms)
OCVCURVE	TABLE	19
	Pt	T	Vf	Vm	Ach	Over
	#	s	V vs. Ref.	V	V	bits
	0	0.258333	4.71988E-003	4.71988E-003	4.99933E-004	...........
	1	0.516667	4.71296E-003	4.35760E-003	5.02433E-004	...........
	2	0.775	4.67869E-003	4.44495E-003	5.03300E-004	...........
	3	1.03333	4.60768E-003	4.45460E-003	5.00833E-004	...........
	4	1.29167	4.52616E-003	4.39864E-003	5.01633E-004	...........
	5	1.55	4.47488E-003	4.86243E-003	5.02233E-004	...........
	6	1.80833	4.48516E-003	4.78751E-003	5.04433E-004	...........
	7	2.06667	4.56192E-003	4.81570E-003	5.03667E-004	...........
	8	2.325	4.66802E-003	4.84946E-003	5.00900E-004	...........
	9	2.58333	4.75629E-003	4.85026E-003	5.02300E-004	...........
	10	2.84167	4.81145E-003	4.91235E-003	5.00333E-004	...........
	11	3.1	4.84475E-003	4.91859E-003	4.97933E-004	...........
	12	3.35833	4.87049E-003	4.94258E-003	4.98633E-004	...........
	13	3.61667	4.89509E-003	4.96935E-003	4.97267E-004	...........
	14	3.875	4.91926E-003	4.99627E-003	5.03133E-004	...........
	15	4.13333	4.94347E-003	5.02533E-003	5.04867E-004	...........
	16	4.39167	4.96876E-003	5.05712E-003	5.00533E-004	...........
	17	4.65	4.99568E-003	5.08374E-003	4.97433E-004	...........
	18	4.90833	5.02399E-003	5.11350E-003	5.01333E-004	...........
EOC	QUANT	0.005024	Open Circuit (V)
PSTATMODEL	IQUANT	4	Pstat Model
PSTATSECTION	LABEL	REF600-11020	Pstat Section
PSTATSERIALNO	LABEL	11020	Pstat Serial Number
CTRLMODE	IQUANT	1	Control Mode
IESTAB	IQUANT	0	I/E Stability
CASPEED	IQUANT	1	Control Amp Speed
CONVENTION	IQUANT	1	Current Convention
ICHRANGE	IQUANT	2	Ich Range
ICHRANGEMODE	TOGGLE	F	Ich Auto Range
ICHOFFSETENABLE	TOGGLE	T	Ich Offset Enable
ICHOFFSET	QUANT	0	Ich Offset (V)
ICHFILTER	IQUANT	3	Ich Filter
VCHRANGE	IQUANT	2	Vch Range
VCHRANGEMODE	TOGGLE	F	Vch Auto Range
VCHOFFSETENABLE	TOGGLE	T	Vch Offset Enable
VCHOFFSET	QUANT	0	Vch Offset (V)
VCHFILTER	IQUANT	3	Vch Filter
ACHRANGE	IQUANT	2	Ach Range
ACHOFFSETENABLE	TOGGLE	F	Ach Offset Enable
ACHOFFSET	QUANT	0	Ach Offset (V)
ACHFILTER	IQUANT	3	Ach Filter
IERANGELOWERLIMIT	IQUANT	1	I/E Range Lower Limit
IERANGEMODE	TOGGLE	F	I/E AutoRange
IERANGE	IQUANT	4	I/E Range
POSFEEDENABLE	TOGGLE	F	Positive Feedback IR Comp
POSFEEDRESISTANCE	QUANT	0	Positive Feedback Resistance (ohm)
ACHSELECT	IQUANT	0	Ach Select
CABLEID	IQUANT	14	Cable ID
DCCALDATE	LABEL	8/19/2019	DC Calibration Date
ACCALDATE	LABEL	8/19/2019	AC Calibration Date
THERMOSELECT	IQUANT	1	Thermo Select
FRAMEWORKVERSION	QUANT	6.33	Framework Version
INSTRUMENTVERSION	LABEL	3.50	Instrument Version
ZCURVE	TABLE
	Pt	Time	Freq	Zreal	Zimag	Zsig	Zmod	Zphz	Idc	Vdc	IERange
	#	s	Hz	ohm	ohm	V	ohm	°	A	V	#
	0	2	1000078	1836.133	-827.8021	1	2014.11	-24.26776	8.889889E-006	0.0061943	8
	1	3	794390.6	1962.741	-788.3527	1	2115.148	-21.88331	4.398023E-006	0.0059762	8
	2	4	630984.4	2080.13	-750.9604	1	2211.534	-19.8504	3.003823E-006	0.0066221	8
	3	6	501234.4	2188.048	-712.1256	1	2301.017	-18.02808	-5.357447E-007	0.0063535	8
	4	7	398109.4	2285.264	-674.4597	1	2382.715	-16.44313	-2.279607E-007	0.0063392	8
	5	8	316265.6	2376.354	-631.4613	1	2458.821	-14.88114	5.898831E-006	0.005898	8
	6	10	251203.1	2461.942	-601.3923	1	2534.33	-13.72714	-4.895555E-007	0.0069258	8
	7	11	199546.9	2541.272	-572.219	1	2604.899	-12.68967	6.922861E-007	0.0068518	8
	8	12	158578.1	2609.073	-547.0431	1	2665.806	-11.84164	6.749897E-007	0.0068506	8
	9	14	125953.1	2704.935	-492.6384	1	2749.43	-10.32191	2.973488E-006	0.0013947	7
	10	15	100078.1	2761.378	-469.2473	1	2800.964	-9.64428	-2.615458E-007	0.0059351	7
	11	16	79453.13	2823.969	-467.3544	1	2862.38	-9.397025	8.001238E-007	0.0053993	7
	12	18	63140.62	2883.371	-468.3484	1	2921.16	-9.226027	7.759799E-007	0.0059208	7
	13	19	50203.12	2941.466	-468.3052	1	2978.512	-9.046031	3.28719E-007	0.0052932	7
	14	20	39890.62	2998.358	-473.3345	1	3035.49	-8.970941	-9.237126E-007	0.0076413	7
	15	22	31640.63	3062.313	-484.0972	1	3100.341	-8.983106	8.025789E-007	0.0053866	7
	16	23	25171.88	3116.284	-497.0652	1	3155.677	-9.062663	-8.151025E-007	0.007754	7
	17	24	20015.62	3175.283	-516.1395	1	3216.958	-9.23263	-8.11416E-007	0.0069582	7
	18	26	15890.62	3241.04	-543.6797	1	3286.324	-9.52262	4.936759E-007	0.0066022	7
	19	27	12609.37	3299.886	-574.2405	1	3349.477	-9.87166	-8.106925E-007	0.006952	7
	20	28	10078.13	3366.869	-615.3085	1	3422.632	-10.35674	3.289096E-007	0.0052906	7
	21	30	8015.625	3436.587	-665.6725	1	3500.465	-10.96252	5.54492E-007	0.0051939	7
	22	31	6328.125	3507.686	-722.9554	1	3581.414	-11.64593	-5.769075E-007	0.0064371	7
	23	33	5015.625	3589.721	-794.3054	1	3676.55	-12.47692	8.041541E-007	0.0053896	7
	24	34	3984.375	3666.159	-877.7598	1	3769.773	-13.46443	-1.842634E-007	0.0075051	7
	25	35	3170.956	3741.963	-976.659	1	3867.318	-14.62797	3.302489E-007	0.0052891	7
	26	37	2527.573	3816.17	-1098.271	1	3971.065	-16.05551	5.357214E-008	0.0055224	7
	27	38	1976.103	3902.125	-1269.285	1	4103.372	-18.01869	8.307437E-007	0.0056185	7
	28	39	1577.524	3964.221	-1464.421	1	4226.059	-20.27471	-9.310761E-007	0.0073719	7
	29	41	1265.625	4053.854	-1699.503	1	4395.684	-22.74496	3.300707E-007	0.0052886	7
	30	42	998.264	4142.8	-2022.011	1	4609.915	-26.016	-1.859046E-007	0.0074982	7
	31	43	796.875	4240.429	-2412.195	1	4878.516	-29.63366	6.546853E-007	0.0062708	7
	32	45	627.7902	4354.11	-2923.327	1	5244.437	-33.87721	3.334492E-007	0.006845	7
	33	46	505.5147	4479.888	-3501.644	1	5686.028	-38.01248	8.293872E-007	0.0056128	7
	34	47	397.9953	4648.26	-4282.764	1	6320.474	-42.65651	3.071044E-009	0.0065273	7
	35	49	315.5048	4856.328	-5229.41	1	7136.572	-47.11847	2.167279E-009	0.0065289	7
	36	50	252.4038	5110.226	-6347.452	1	8148.899	-51.16305	4.903925E-009	0.0065269	7
	37	51	198.6229	5465.729	-7820.753	1	9541.4	-55.05126	5.704604E-009	0.0065247	7
	38	53	158.3615	5906.463	-9526.14	1	11208.64	-58.19999	4.050475E-010	0.0064695	6
	39	54	125.558	6496.934	-11644.59	1	13334.41	-60.84128	8.493551E-010	0.006465	6
	40	55	100.4464	7231.768	-14103.93	1	15849.9	-62.85358	5.028661E-010	0.0064645	6
	41	57	79.00281	8301.442	-17305.07	1	19193.21	-64.37242	1.005451E-009	0.0064648	6
	42	58	63.3446	9645.86	-20799.8	1	22927.58	-65.1206	1.002107E-009	0.006467	6
	43	60	49.86702	11308.04	-25292	1	27704.82	-65.91061	4.903731E-010	0.0064661	6
	44	61	39.72458	13567.8	-30279.05	1	33179.9	-65.86324	1.193004E-009	0.0064628	6
	45	62	31.6723	16339.56	-36083.62	1	39610.72	-65.63779	7.588806E-010	0.0064608	6
	46	64	24.93351	20136.73	-43183.26	1	47647.47	-64.99995	-1.980714E-010	0.0064669	6
	47	65	19.86229	24564.02	-50835.36	1	56459.05	-64.20982	1.546758E-009	0.0064718	6
	48	66	15.83615	29996.35	-59851.92	1	66947.99	-63.38107	-2.215046E-009	0.0064691	6
	49	68	12.40079	36848.55	-70222.41	1	79303.23	-62.31218	7.117387E-010	0.0064709	6
	50	69	9.93114	44561.2	-81029.52	1	92474.23	-61.19194	6.447998E-010	0.0064632	6
	51	71	7.944915	53511.5	-92969.76	1	107270	-60.07615	-9.482775E-010	0.0064702	5
	52	72	6.317385	63789.73	-106461.3	1	124109.3	-59.07069	-5.470022E-010	0.006468	5
	53	74	5.008013	75553.87	-121953.7	1	143461.2	-58.22059	4.797443E-010	0.0064827	5
	54	77	3.945707	88837.92	-139678.7	1	165536.5	-57.54298	-1.668372E-010	0.0064633	5
	55	79	3.158693	101749.2	-158619.7	1	188449.2	-57.32118	2.625641E-010	0.0064892	5
	56	82	2.504006	116074.4	-181805.5	1	215700	-57.44365	-4.283827E-010	0.0064659	5
	57	85	1.998082	130283.4	-208310.8	1	245697.3	-57.97699	-1.202492E-010	0.0064273	5
	58	88	1.584686	144803.5	-241232.3	1	281355.8	-59.02505	-3.93238E-011	0.0064766	5
	59	92	1.266892	160366.2	-281508.5	1	323982	-60.33125	-6.664565E-011	0.0064225	5
	60	96	0.999041	178021.7	-333994	1	378475.6	-61.942	4.187083E-011	0.0065072	5
