EXPLAIN
TAG	EISPOT
TITLE	LABEL	Potentiostatic EIS	Test &Identifier
DATE	LABEL	10/24/2019	Date
TIME	LABEL	8:35:56	Time
NOTES	NOTES	1	&Notes...
	
PSTAT	PSTAT	REF600-11020	Potentiostat
VDC	POTEN	0.00000E+000	T	DC &Voltage (V)
FREQINIT	QUANT	1.00000E+006	Initial Fre&q. (Hz)
FREQFINAL	QUANT	1.00000E+000	Final Fre&q. (Hz)
PTSPERDEC	QUANT	1.00000E+001	Points/&decade
VAC	QUANT	2.50000E+001	AC &Voltage (mV rms)
AREA	QUANT	1.00000E-002	&Area (cm^2)
CONDIT	TWOPARAM	T	5.00000E+000	0.00000E+000	Conditionin&g	Time(s)	E(V)
DELAY	TWOPARAM	T	5.00000E+000	0.00000E+000	Init. De&lay	Time(s)	Stab.(mV/s)
SPEED	SELECTOR	1	&Optimize for:
ZGUESS	QUANT	1.00000E+005	E&stimated Z (ohms)
OCVCURVE	TABLE	19
	Pt	T	Vf	Vm	Ach	Over
	#	s	V vs. Ref.	V	V	bits
	0	0.258333	5.70886E-003	5.70886E-003	5.49933E-004	...........
	1	0.516667	5.70912E-003	5.72242E-003	5.45433E-004	...........
	2	0.775	5.71094E-003	5.74702E-003	5.49899E-004	...........
	3	1.03333	5.71720E-003	5.79067E-003	5.51999E-004	...........
	4	1.29167	5.73144E-003	5.82842E-003	5.47366E-004	...........
	5	1.55	5.75561E-003	5.87740E-003	5.51399E-004	...........
	6	1.80833	5.78884E-003	5.91761E-003	5.47166E-004	...........
	7	2.06667	5.82886E-003	5.99084E-003	5.53032E-004	...........
	8	2.325	5.87444E-003	6.03895E-003	5.54999E-004	...........
	9	2.58333	5.92519E-003	6.09724E-003	5.59332E-004	...........
	10	2.84167	5.97974E-003	6.15602E-003	5.58766E-004	...........
	11	3.1	6.03630E-003	6.21939E-003	5.51433E-004	...........
	12	3.35833	6.09411E-003	6.27550E-003	5.47699E-004	...........
	13	3.61667	6.15289E-003	6.33231E-003	5.47699E-004	...........
	14	3.875	6.21193E-003	6.39241E-003	5.48399E-004	...........
	15	4.13333	6.27060E-003	6.44910E-003	5.49666E-004	...........
	16	4.39167	6.32900E-003	6.51255E-003	5.51433E-004	...........
	17	4.65	6.38756E-003	6.56878E-003	5.54233E-004	...........
	18	4.90833	6.44629E-003	6.61574E-003	5.52366E-004	...........
EOC	QUANT	0.0064463	Open Circuit (V)
PSTATMODEL	IQUANT	4	Pstat Model
PSTATSECTION	LABEL	REF600-11020	Pstat Section
PSTATSERIALNO	LABEL	11020	Pstat Serial Number
CTRLMODE	IQUANT	1	Control Mode
IESTAB	IQUANT	0	I/E Stability
CASPEED	IQUANT	1	Control Amp Speed
CONVENTION	IQUANT	1	Current Convention
ICHRANGE	IQUANT	2	Ich Range
ICHRANGEMODE	TOGGLE	F	Ich Auto Range
ICHOFFSETENABLE	TOGGLE	T	Ich Offset Enable
ICHOFFSET	QUANT	0	Ich Offset (V)
ICHFILTER	IQUANT	3	Ich Filter
VCHRANGE	IQUANT	2	Vch Range
VCHRANGEMODE	TOGGLE	F	Vch Auto Range
VCHOFFSETENABLE	TOGGLE	T	Vch Offset Enable
VCHOFFSET	QUANT	0	Vch Offset (V)
VCHFILTER	IQUANT	3	Vch Filter
ACHRANGE	IQUANT	2	Ach Range
ACHOFFSETENABLE	TOGGLE	F	Ach Offset Enable
ACHOFFSET	QUANT	0	Ach Offset (V)
ACHFILTER	IQUANT	3	Ach Filter
IERANGELOWERLIMIT	IQUANT	1	I/E Range Lower Limit
IERANGEMODE	TOGGLE	F	I/E AutoRange
IERANGE	IQUANT	5	I/E Range
POSFEEDENABLE	TOGGLE	F	Positive Feedback IR Comp
POSFEEDRESISTANCE	QUANT	0	Positive Feedback Resistance (ohm)
ACHSELECT	IQUANT	0	Ach Select
CABLEID	IQUANT	14	Cable ID
DCCALDATE	LABEL	8/19/2019	DC Calibration Date
ACCALDATE	LABEL	8/19/2019	AC Calibration Date
THERMOSELECT	IQUANT	1	Thermo Select
FRAMEWORKVERSION	QUANT	6.33	Framework Version
INSTRUMENTVERSION	LABEL	3.50	Instrument Version
ZCURVE	TABLE
	Pt	Time	Freq	Zreal	Zimag	Zsig	Zmod	Zphz	Idc	Vdc	IERange
	#	s	Hz	ohm	ohm	V	ohm	°	A	V	#
	0	2	1000078	2271.632	-1258.843	1	2597.114	-28.99337	6.505334E-006	0.0077438	8
	1	3	794390.6	2494.781	-1154.328	1	2748.892	-24.82985	-1.568262E-006	0.0082349	8
	2	4	630984.4	2682.236	-1028.412	1	2872.633	-20.97761	3.768665E-006	0.0076663	8
	3	6	501234.4	2827.149	-899.4747	1	2966.788	-17.64878	-7.950565E-007	0.0081967	8
	4	7	398109.4	2936.269	-783.296	1	3038.951	-14.93672	1.436837E-006	0.0077988	8
	5	8	316265.6	3027.931	-674.6389	1	3102.177	-12.56064	-2.396357E-006	0.0085584	8
	6	10	251203.1	3085.37	-577.8986	1	3139.025	-10.60874	4.654238E-007	0.0081077	8
	7	11	199546.9	3143.047	-507.0449	1	3183.684	-9.164155	1.024151E-007	0.008134	8
	8	12	158578.1	3175.224	-445.2593	1	3206.291	-7.982493	8.617171E-007	0.0080167	8
	9	14	125953.1	3236.199	-373.0272	1	3257.627	-6.575299	-6.893625E-007	0.0095457	7
	10	15	100078.1	3258.305	-337.1827	1	3275.705	-5.908172	-2.776081E-008	0.008047	7
	11	17	79453.13	3283.682	-325.0173	1	3299.728	-5.652698	-6.972039E-009	0.0080794	7
	12	18	63140.62	3312.264	-320.1616	1	3327.701	-5.521026	9.570847E-009	0.0081141	7
	13	19	50203.12	3340.235	-322.8601	1	3355.802	-5.520939	4.925124E-008	0.0079524	7
	14	21	39890.62	3370.398	-332.5082	1	3386.76	-5.63431	3.699019E-008	0.0079272	7
	15	22	31640.63	3402.158	-349.8719	1	3420.101	-5.871555	-1.907055E-008	0.008026	7
	16	23	25171.88	3435.418	-374.4653	1	3455.767	-6.220759	-6.077936E-008	0.0081095	7
	17	25	20015.62	3470.488	-407.5854	1	3494.34	-6.698319	3.42492E-008	0.0079163	7
	18	26	15890.62	3511.536	-448.4529	1	3540.056	-7.277761	-3.994687E-008	0.0080746	7
	19	27	12609.37	3552.635	-498.6807	1	3587.464	-7.990358	3.549781E-008	0.0079947	7
	20	29	10078.13	3597.583	-560.4465	1	3640.976	-8.854603	-9.999039E-009	0.0080551	7
	21	30	8015.625	3644.78	-630.451	1	3698.904	-9.81356	3.607754E-008	0.0079122	7
	22	32	6328.125	3698.433	-728.9178	1	3769.58	-11.14943	-5.190317E-008	0.008122	7
	23	33	5015.625	3753.562	-842.8378	1	3847.025	-12.65548	3.352253E-008	0.0079877	7
	24	34	3984.375	3815.759	-982.415	1	3940.197	-14.43795	-4.01844E-008	0.0080768	7
	25	36	3170.956	3875.897	-1149.138	1	4042.66	-16.5142	8.898862E-009	0.0079723	7
	26	37	2527.573	3945.05	-1354.988	1	4171.26	-18.95582	-5.866971E-008	0.0081043	7
	27	38	1976.103	4027.847	-1628.902	1	4344.752	-22.01891	1.064128E-008	0.007968	7
	28	40	1577.524	4105.831	-1944.711	1	4543.099	-25.34439	-1.988006E-008	0.0080264	7
	29	41	1265.625	4200.876	-2313.147	1	4795.624	-28.83869	1.085692E-008	0.0081085	7
	30	42	998.264	4312.991	-2807.197	1	5146.09	-33.0589	5.035851E-008	0.0079461	7
	31	44	796.875	4434.324	-3388.464	1	5580.763	-37.38505	-4.293558E-009	0.0080121	7
	32	45	627.7902	4583.787	-4152.877	1	6185.264	-42.17634	1.129067E-008	0.0079657	7
	33	47	505.5147	4746.419	-5006.344	1	6898.693	-46.52665	-1.98521E-008	0.0080146	7
	34	48	397.9953	4967.196	-6177.178	1	7926.573	-51.19652	5.249706E-009	0.008049	7
	35	49	315.5048	5237.043	-7583.608	1	9216.167	-55.37205	5.109701E-009	0.0080503	7
	36	51	252.4038	5568.266	-9245.795	1	10793.07	-58.94161	1.544998E-009	0.007984	6
	37	52	198.6229	6024.27	-11442.47	1	12931.43	-62.23395	1.154742E-009	0.0079862	6
	38	53	158.3615	6589.778	-14000.14	1	15473.5	-64.79392	1.324635E-009	0.0079829	6
	39	55	125.558	7344.13	-17203.18	1	18705.23	-66.88211	7.036806E-010	0.0079851	6
	40	56	100.4464	8309.392	-20931.16	1	22520.2	-68.34758	-6.128301E-011	0.0079814	6
	41	58	79.00281	9710.68	-25882.5	1	27644.19	-69.43476	2.001026E-010	0.0079843	6
	42	59	63.3446	11562.61	-31523.37	1	33577.03	-69.85722	8.345641E-010	0.0079871	6
	43	60	49.86702	13583.57	-38309.87	1	40646.77	-70.47697	9.33011E-010	0.0079866	6
	44	62	39.72458	16927.03	-46459.55	1	49447.09	-69.98135	1.070527E-009	0.0079914	6
	45	63	31.6723	21140.35	-55903.62	1	59767.29	-69.28553	2.739959E-010	0.0079908	6
	46	64	24.93351	26607.68	-67474.05	1	72530.79	-68.47872	1.033189E-009	0.0079897	6
	47	66	19.86229	33470.69	-80297.85	1	86994.44	-67.37208	1.729848E-009	0.0079946	6
	48	67	15.83615	42762.55	-94119.98	1	103378.9	-65.56577	4.471441E-010	0.0079879	6
	49	69	12.40079	54678.64	-112768.6	1	125325.6	-64.13244	-7.856092E-010	0.0079915	5
	50	70	9.93114	67802.47	-129428.4	1	146112.6	-62.35172	5.206869E-010	0.0079916	5
	51	72	7.944915	83527.05	-148116.5	1	170044.9	-60.58013	-4.060411E-010	0.0079908	5
	52	73	6.317385	101871.5	-168326.7	1	196752.8	-58.81762	6.649348E-010	0.0079854	5
	53	75	5.008013	123118.4	-190838.7	1	227106.9	-57.17216	3.851205E-010	0.0080022	5
	54	78	3.945707	147116.9	-215832.3	1	261202.9	-55.72064	-1.507816E-010	0.0079907	5
	55	81	3.158693	169919.1	-241216.8	1	295055.9	-54.83818	1.591647E-010	0.0080054	5
	56	84	2.504006	196893.7	-272558.6	1	336237	-54.15602	-5.440566E-012	0.0079778	5
	57	87	1.998082	223434.6	-307170.8	1	379838.1	-53.96803	-2.367286E-010	0.0080126	5
	58	90	1.584686	252808.7	-350652.7	1	432284.1	-54.20967	1.615719E-010	0.0080226	5
	59	93	1.266892	283214	-400046.3	1	490150.2	-54.7033	-1.387954E-010	0.0080301	5
	60	98	0.999041	318610.4	-464038.4	1	562889.2	-55.52637	1.666618E-010	0.0079717	5
