EXPLAIN
TAG	EISPOT
TITLE	LABEL	Potentiostatic EIS	Test &Identifier
DATE	LABEL	10/22/2019	Date
TIME	LABEL	7:45:01	Time
NOTES	NOTES	1	&Notes...
	
PSTAT	PSTAT	REF600-11020	Potentiostat
VDC	POTEN	0.00000E+000	T	DC &Voltage (V)
FREQINIT	QUANT	1.00000E+006	Initial Fre&q. (Hz)
FREQFINAL	QUANT	1.00000E+000	Final Fre&q. (Hz)
PTSPERDEC	QUANT	1.00000E+001	Points/&decade
VAC	QUANT	2.50000E+001	AC &Voltage (mV rms)
AREA	QUANT	1.00000E-002	&Area (cm^2)
CONDIT	TWOPARAM	T	5.00000E+000	0.00000E+000	Conditionin&g	Time(s)	E(V)
DELAY	TWOPARAM	T	5.00000E+000	0.00000E+000	Init. De&lay	Time(s)	Stab.(mV/s)
SPEED	SELECTOR	1	&Optimize for:
ZGUESS	QUANT	1.00000E+005	E&stimated Z (ohms)
OCVCURVE	TABLE	19
	Pt	T	Vf	Vm	Ach	Over
	#	s	V vs. Ref.	V	V	bits
	0	0.258333	4.11858E-002	4.11858E-002	5.38599E-004	...........
	1	0.516667	4.12480E-002	4.44437E-002	5.42599E-004	...........
	2	0.775	4.16290E-002	4.74707E-002	5.41233E-004	...........
	3	1.03333	4.27029E-002	5.03727E-002	5.42666E-004	...........
	4	1.29167	4.46119E-002	5.29156E-002	5.34866E-004	...........
	5	1.55	4.71145E-002	5.50746E-002	5.37866E-004	...........
	6	1.80833	4.98123E-002	5.73127E-002	5.33733E-004	...........
	7	2.06667	5.24216E-002	5.96467E-002	5.43533E-004	...........
	8	2.325	5.48604E-002	6.17252E-002	5.36999E-004	...........
	9	2.58333	5.71639E-002	6.37401E-002	5.35699E-004	...........
	10	2.84167	5.93715E-002	6.57124E-002	5.41666E-004	...........
	11	3.1	6.14939E-002	6.75450E-002	5.42866E-004	...........
	12	3.35833	6.35302E-002	6.92954E-002	5.48466E-004	...........
	13	3.61667	6.54776E-002	7.09777E-002	5.53566E-004	...........
	14	3.875	6.73338E-002	7.25514E-002	5.42466E-004	...........
	15	4.13333	6.90988E-002	7.40089E-002	5.42866E-004	...........
	16	4.39167	7.07731E-002	7.54867E-002	5.49266E-004	...........
	17	4.65	7.23688E-002	7.72550E-002	5.50166E-004	...........
	18	4.90833	7.39172E-002	7.83877E-002	5.48766E-004	...........
EOC	QUANT	0.0739172	Open Circuit (V)
PSTATMODEL	IQUANT	4	Pstat Model
PSTATSECTION	LABEL	REF600-11020	Pstat Section
PSTATSERIALNO	LABEL	11020	Pstat Serial Number
CTRLMODE	IQUANT	1	Control Mode
IESTAB	IQUANT	0	I/E Stability
CASPEED	IQUANT	1	Control Amp Speed
CONVENTION	IQUANT	1	Current Convention
ICHRANGE	IQUANT	2	Ich Range
ICHRANGEMODE	TOGGLE	F	Ich Auto Range
ICHOFFSETENABLE	TOGGLE	T	Ich Offset Enable
ICHOFFSET	QUANT	0	Ich Offset (V)
ICHFILTER	IQUANT	3	Ich Filter
VCHRANGE	IQUANT	2	Vch Range
VCHRANGEMODE	TOGGLE	F	Vch Auto Range
VCHOFFSETENABLE	TOGGLE	T	Vch Offset Enable
VCHOFFSET	QUANT	0	Vch Offset (V)
VCHFILTER	IQUANT	3	Vch Filter
ACHRANGE	IQUANT	2	Ach Range
ACHOFFSETENABLE	TOGGLE	F	Ach Offset Enable
ACHOFFSET	QUANT	0	Ach Offset (V)
ACHFILTER	IQUANT	3	Ach Filter
IERANGELOWERLIMIT	IQUANT	1	I/E Range Lower Limit
IERANGEMODE	TOGGLE	F	I/E AutoRange
IERANGE	IQUANT	6	I/E Range
POSFEEDENABLE	TOGGLE	F	Positive Feedback IR Comp
POSFEEDRESISTANCE	QUANT	0	Positive Feedback Resistance (ohm)
ACHSELECT	IQUANT	0	Ach Select
CABLEID	IQUANT	14	Cable ID
DCCALDATE	LABEL	8/19/2019	DC Calibration Date
ACCALDATE	LABEL	8/19/2019	AC Calibration Date
THERMOSELECT	IQUANT	1	Thermo Select
FRAMEWORKVERSION	QUANT	6.33	Framework Version
INSTRUMENTVERSION	LABEL	3.50	Instrument Version
ZCURVE	TABLE
	Pt	Time	Freq	Zreal	Zimag	Zsig	Zmod	Zphz	Idc	Vdc	IERange
	#	s	Hz	ohm	ohm	V	ohm	°	A	V	#
	0	2	1000078	1654.426	-448.8158	1	1714.223	-15.17801	3.928101E-006	0.0757824	8
	1	3	794390.6	1710.635	-389.7734	1	1754.479	-12.83588	-1.572711E-006	0.0757428	8
	2	4	630984.4	1749.363	-332.451	1	1780.672	-10.76025	3.910651E-006	0.0751349	8
	3	6	501234.4	1784.227	-287.1024	1	1807.178	-9.141185	1.606466E-006	0.0753223	8
	4	7	398109.4	1809.096	-248.6546	1	1826.104	-7.826089	1.101536E-006	0.0754436	8
	5	9	316265.6	1829.322	-216.056	1	1842.037	-6.735835	-1.634663E-006	0.0756368	8
	6	10	251203.1	1845.421	-193.3573	1	1855.523	-5.981444	2.455806E-006	0.0750493	8
	7	11	199546.9	1861.508	-174.4536	1	1869.665	-5.353909	-1.509313E-006	0.0756167	8
	8	13	158578.1	1872.464	-162.1505	1	1879.472	-4.949317	1.954197E-006	0.0752792	8
	9	14	125953.1	1902.842	-131.3061	1	1907.367	-3.947453	-9.242813E-007	0.0776114	7
	10	15	100078.1	1912.658	-125.679	1	1916.782	-3.759449	6.441383E-008	0.0753705	7
	11	17	79453.13	1925.402	-131.0832	1	1929.859	-3.894742	-4.505579E-008	0.0755147	7
	12	18	63140.62	1940.017	-139.2522	1	1945.008	-4.105584	-9.352471E-009	0.0754526	7
	13	19	50203.12	1955.468	-149.0477	1	1961.14	-4.358714	-8.472839E-008	0.0757214	7
	14	21	39890.62	1972.992	-161.0976	1	1979.558	-4.667924	-4.546364E-008	0.0755118	7
	15	22	31640.63	1991.262	-175.3849	1	1998.971	-5.033465	2.239873E-008	0.0754808	7
	16	23	25171.88	2010.044	-192.7362	1	2019.264	-5.477149	-4.461036E-008	0.0755195	7
	17	25	20015.62	2028.986	-214.3273	1	2040.274	-6.029948	-2.839096E-008	0.075563	7
	18	26	15890.62	2050.185	-240.2353	1	2064.212	-6.683291	5.583234E-010	0.0754896	7
	19	28	12609.37	2071.595	-273.2687	1	2089.542	-7.514627	-5.572429E-008	0.0756048	7
	20	29	10078.13	2093.57	-311.5338	1	2116.622	-8.463795	6.539997E-008	0.0753515	7
	21	30	8015.625	2116.916	-360.5179	1	2147.395	-9.66494	-5.307234E-008	0.0755279	7
	22	32	6328.125	2143.563	-421.9897	1	2184.705	-11.13704	2.086113E-008	0.0754829	7
	23	33	5015.625	2171.286	-497.4696	1	2227.545	-12.90448	1.004247E-008	0.0755735	7
	24	34	3984.375	2202.188	-588.6111	1	2279.494	-14.96447	-5.700575E-008	0.0756116	7
	25	36	3170.956	2234.424	-701.4415	1	2341.938	-17.42838	-1.690332E-008	0.0755064	7
	26	37	2527.573	2271.151	-839.7825	1	2421.438	-20.29242	1.439626E-008	0.0754156	7
	27	38	1976.103	2316.56	-1026.643	1	2533.86	-23.90176	-8.409522E-008	0.0756192	7
	28	40	1577.524	2367.361	-1236.966	1	2671.045	-27.58745	-5.286897E-008	0.0755982	7
	29	41	1265.625	2423.776	-1493.577	1	2847.01	-31.64217	-7.214969E-008	0.0756	7
	30	42	998.264	2500.471	-1833.845	1	3100.862	-36.25631	8.90947E-008	0.0753501	7
	31	44	796.875	2592.444	-2229.528	1	3419.293	-40.69586	2.435254E-008	0.0754782	7
	32	45	627.7902	2717.374	-2744.993	1	3862.526	-45.2897	2.461352E-009	0.0754861	7
	33	46	505.5147	2863.086	-3318.336	1	4382.764	-49.21212	-5.330493E-008	0.075587	7
	34	48	397.9953	3078.115	-4084.016	1	5114.096	-52.99474	-4.258068E-009	0.0755263	7
	35	49	315.5048	3353.681	-4991.517	1	6013.52	-56.10379	-4.095016E-009	0.0755271	7
	36	50	252.4038	3703.383	-6036.126	1	7081.657	-58.46938	-4.295343E-009	0.0755311	7
	37	52	198.6229	4200.378	-7378.926	1	8490.685	-60.34975	-5.090986E-009	0.0755331	7
	38	53	158.3615	4819.956	-8884.996	1	10108.17	-61.52094	-5.580405E-009	0.0755306	7
	39	54	125.558	5652.288	-10695.62	1	12097.3	-62.145	-9.159763E-009	0.0754715	6
	40	56	100.4464	6674.524	-12712.24	1	14357.94	-62.29842	-1.03119E-008	0.0754607	6
	41	57	79.00281	8066.417	-15192.72	1	17201.33	-62.0344	-9.250021E-009	0.0754612	6
	42	59	63.3446	9609.68	-17760.42	1	20193.53	-61.58339	-9.04135E-009	0.0754593	6
	43	60	49.86702	11888.24	-20855.06	1	24005.49	-60.31509	-9.673784E-009	0.0754624	6
	44	61	39.72458	14267.44	-24191.23	1	28085.15	-59.46886	-9.193279E-009	0.0754662	6
	45	63	31.6723	17113.99	-27739.57	1	32594.05	-58.32739	-9.859209E-009	0.0754705	6
	46	64	24.93351	20536.43	-31977.85	1	38004.32	-57.2911	-9.656462E-009	0.0754622	6
	47	65	19.86229	24200.65	-36397.87	1	43709	-56.38039	-7.856781E-009	0.0754708	6
	48	67	15.83615	28526.73	-41380.14	1	50260.23	-55.41832	-1.191824E-008	0.0754648	6
	49	68	12.40079	33281.81	-47612.28	1	58091.37	-55.04578	-9.492793E-009	0.0754706	6
	50	70	9.93114	38329.17	-53719.67	1	65991.88	-54.49201	-1.032025E-008	0.0754699	6
	51	71	7.944915	43833.83	-60942.97	1	75069.64	-54.27405	-7.656308E-009	0.0754616	6
	52	73	6.317385	50132.2	-69560.81	1	85743.48	-54.21986	-7.186199E-009	0.0754533	6
	53	75	5.008013	57560.8	-79780.74	1	98377.9	-54.19003	-7.943382E-009	0.0754594	6
	54	77	3.945707	65730.88	-91940.98	1	113020.8	-54.43809	-7.905665E-009	0.0754845	5
	55	80	3.158693	74643.02	-105377.8	1	129135.8	-54.68864	-8.446031E-009	0.0754756	5
	56	83	2.504006	85148.38	-121834.7	1	148640.3	-55.0509	-8.381737E-009	0.0754685	5
	57	86	1.998082	96451.6	-140711.7	1	170595.1	-55.5711	-8.802772E-009	0.0754999	5
	58	89	1.584686	110674.6	-164093.1	1	197927.8	-56.00181	-8.508832E-009	0.0755169	5
	59	92	1.266892	126255.7	-190129	1	228231.3	-56.41374	-8.929708E-009	0.0754928	5
	60	97	0.999041	146794.2	-223527.5	1	267419.3	-56.70644	-8.478318E-009	0.0754871	5
