EXPLAIN
TAG	EISPOT
TITLE	LABEL	Potentiostatic EIS	Test &Identifier
DATE	LABEL	10/24/2019	Date
TIME	LABEL	8:24:17	Time
NOTES	NOTES	1	&Notes...
	
PSTAT	PSTAT	REF600-11020	Potentiostat
VDC	POTEN	0.00000E+000	T	DC &Voltage (V)
FREQINIT	QUANT	1.00000E+006	Initial Fre&q. (Hz)
FREQFINAL	QUANT	1.00000E+000	Final Fre&q. (Hz)
PTSPERDEC	QUANT	1.00000E+001	Points/&decade
VAC	QUANT	2.50000E+001	AC &Voltage (mV rms)
AREA	QUANT	1.00000E-002	&Area (cm^2)
CONDIT	TWOPARAM	T	5.00000E+000	0.00000E+000	Conditionin&g	Time(s)	E(V)
DELAY	TWOPARAM	T	5.00000E+000	0.00000E+000	Init. De&lay	Time(s)	Stab.(mV/s)
SPEED	SELECTOR	1	&Optimize for:
ZGUESS	QUANT	1.00000E+005	E&stimated Z (ohms)
OCVCURVE	TABLE	19
	Pt	T	Vf	Vm	Ach	Over
	#	s	V vs. Ref.	V	V	bits
	0	0.258333	3.70663E-003	3.70663E-003	5.65366E-004	...........
	1	0.516667	3.70703E-003	3.72767E-003	5.60932E-004	...........
	2	0.775	3.70481E-003	3.50222E-003	5.76366E-004	...........
	3	1.03333	3.68767E-003	3.53266E-003	5.75599E-004	...........
	4	1.29167	3.64474E-003	3.42301E-003	5.64332E-004	...........
	5	1.55	3.57207E-003	2.87025E-003	5.67099E-004	...........
	6	1.80833	3.45361E-003	2.86586E-003	5.77232E-004	...........
	7	2.06667	3.28141E-003	2.88254E-003	5.76332E-004	...........
	8	2.325	3.09560E-003	2.75825E-003	5.59232E-004	...........
	9	2.58333	2.94661E-003	2.65084E-003	5.56799E-004	...........
	10	2.84167	2.84189E-003	2.68788E-003	5.80799E-004	...........
	11	3.1	2.76434E-003	2.57336E-003	5.82699E-004	...........
	12	3.35833	2.70140E-003	2.49523E-003	5.66632E-004	...........
	13	3.61667	2.64276E-003	2.46165E-003	5.65599E-004	...........
	14	3.875	2.58199E-003	2.41070E-003	5.76699E-004	...........
	15	4.13333	2.52226E-003	2.39894E-003	5.78432E-004	...........
	16	4.39167	2.47038E-003	2.37014E-003	5.63932E-004	...........
	17	4.65	2.42952E-003	2.34571E-003	5.71766E-004	...........
	18	4.90833	2.39803E-003	2.32681E-003	5.78732E-004	...........
EOC	QUANT	0.002398	Open Circuit (V)
PSTATMODEL	IQUANT	4	Pstat Model
PSTATSECTION	LABEL	REF600-11020	Pstat Section
PSTATSERIALNO	LABEL	11020	Pstat Serial Number
CTRLMODE	IQUANT	1	Control Mode
IESTAB	IQUANT	0	I/E Stability
CASPEED	IQUANT	1	Control Amp Speed
CONVENTION	IQUANT	1	Current Convention
ICHRANGE	IQUANT	2	Ich Range
ICHRANGEMODE	TOGGLE	F	Ich Auto Range
ICHOFFSETENABLE	TOGGLE	T	Ich Offset Enable
ICHOFFSET	QUANT	0	Ich Offset (V)
ICHFILTER	IQUANT	3	Ich Filter
VCHRANGE	IQUANT	2	Vch Range
VCHRANGEMODE	TOGGLE	F	Vch Auto Range
VCHOFFSETENABLE	TOGGLE	T	Vch Offset Enable
VCHOFFSET	QUANT	0	Vch Offset (V)
VCHFILTER	IQUANT	3	Vch Filter
ACHRANGE	IQUANT	2	Ach Range
ACHOFFSETENABLE	TOGGLE	F	Ach Offset Enable
ACHOFFSET	QUANT	0	Ach Offset (V)
ACHFILTER	IQUANT	3	Ach Filter
IERANGELOWERLIMIT	IQUANT	1	I/E Range Lower Limit
IERANGEMODE	TOGGLE	F	I/E AutoRange
IERANGE	IQUANT	4	I/E Range
POSFEEDENABLE	TOGGLE	F	Positive Feedback IR Comp
POSFEEDRESISTANCE	QUANT	0	Positive Feedback Resistance (ohm)
ACHSELECT	IQUANT	0	Ach Select
CABLEID	IQUANT	14	Cable ID
DCCALDATE	LABEL	8/19/2019	DC Calibration Date
ACCALDATE	LABEL	8/19/2019	AC Calibration Date
THERMOSELECT	IQUANT	1	Thermo Select
FRAMEWORKVERSION	QUANT	6.33	Framework Version
INSTRUMENTVERSION	LABEL	3.50	Instrument Version
ZCURVE	TABLE
	Pt	Time	Freq	Zreal	Zimag	Zsig	Zmod	Zphz	Idc	Vdc	IERange
	#	s	Hz	ohm	ohm	V	ohm	°	A	V	#
	0	1	1000078	1913.512	-715.6485	1	2042.959	-20.50566	-1.065556E-006	0.005198	8
	1	3	794390.6	2007.347	-627.6274	1	2103.178	-17.36264	5.330593E-006	0.003394	8
	2	4	630984.4	2091.633	-538.8718	1	2159.933	-14.44707	-1.141676E-006	0.0043652	8
	3	5	501234.4	2148.676	-456.1918	1	2196.57	-11.98665	-1.125569E-007	0.0040224	8
	4	7	398109.4	2191.416	-396.8513	1	2227.06	-10.26465	3.970988E-006	0.0032718	8
	5	8	316265.6	2229.761	-341.4897	1	2255.759	-8.707239	5.360905E-007	0.0038552	8
	6	10	251203.1	2260.416	-294.9092	1	2279.573	-7.43321	3.780209E-006	0.0032656	8
	7	11	199546.9	2279.448	-266.013	1	2294.917	-6.656344	3.636518E-006	0.003278	8
	8	12	158578.1	2304.211	-240.937	1	2316.774	-5.96937	-1.149812E-006	0.0042864	8
	9	14	125953.1	2328.214	-195.7265	1	2336.427	-4.805397	-1.341991E-007	0.0040234	7
	10	15	100078.1	2346.772	-186.2748	1	2354.153	-4.538332	8.778249E-009	0.0039992	7
	11	16	79453.13	2363.719	-186.4858	1	2371.064	-4.511011	-5.285978E-008	0.0040916	7
	12	18	63140.62	2381.982	-191.5736	1	2389.673	-4.59818	-1.45109E-008	0.0040039	7
	13	19	50203.12	2402.113	-199.3056	1	2410.367	-4.743023	-2.345268E-008	0.0040713	7
	14	20	39890.62	2423.411	-209.8077	1	2432.476	-4.948066	-5.290359E-008	0.0040847	7
	15	22	31640.63	2445.275	-223.8523	1	2455.5	-5.230552	4.799146E-008	0.0039301	7
	16	23	25171.88	2468.306	-241.763	1	2480.118	-5.594101	4.294912E-009	0.0040857	7
	17	25	20015.62	2491.98	-265.4891	1	2506.083	-6.081205	-1.026801E-008	0.0040191	7
	18	26	15890.62	2516.724	-293.6548	1	2533.798	-6.655255	5.660047E-008	0.0038935	7
	19	27	12609.37	2543.139	-330.2592	1	2564.494	-7.399182	-1.315743E-008	0.0039891	7
	20	29	10078.13	2569.027	-373.6853	1	2596.063	-8.276081	9.819183E-009	0.0039562	7
	21	30	8015.625	2604.071	-428.3744	1	2639.07	-9.341595	-1.008513E-008	0.0040404	7
	22	31	6328.125	2628.559	-500.416	1	2675.769	-10.77879	-2.073805E-008	0.0040646	7
	23	33	5015.625	2661.116	-586.2576	1	2724.929	-12.42409	-2.094581E-008	0.0039997	7
	24	34	3984.375	2690.789	-693.5042	1	2778.721	-14.45247	6.843895E-009	0.0040862	7
	25	35	3170.956	2734.351	-821.3933	1	2855.059	-16.72016	-9.422411E-009	0.0040426	7
	26	37	2527.573	2775.357	-979.245	1	2943.047	-19.43466	1.195245E-008	0.0039537	7
	27	38	1976.103	2823.898	-1194.09	1	3065.983	-22.92115	-4.723379E-008	0.0040997	7
	28	40	1577.524	2881.589	-1431.479	1	3217.559	-26.41668	5.188441E-008	0.0039224	7
	29	41	1265.625	2933.092	-1732.575	1	3406.589	-30.57031	9.437455E-008	0.0038765	7
	30	42	998.264	3004.437	-2125.833	1	3680.463	-35.28186	1.461408E-008	0.0039608	7
	31	44	796.875	3088.412	-2588.114	1	4029.469	-39.96327	7.187931E-008	0.0039566	7
	32	45	627.7902	3195.882	-3194.192	1	4518.465	-44.98485	-9.668783E-009	0.0040181	7
	33	46	505.5147	3319.627	-3875.129	1	5102.602	-49.415	-9.713039E-009	0.0040448	7
	34	48	397.9953	3487.895	-4795.253	1	5929.575	-53.9692	6.041958E-009	0.0040383	7
	35	49	315.5048	3697.292	-5901.22	1	6963.79	-57.93161	6.096879E-009	0.0040388	7
	36	50	252.4038	3955.188	-7205.585	1	8219.73	-61.23736	6.519571E-009	0.0040388	7
	37	52	198.6229	4314.253	-8923.796	1	9911.96	-64.19833	6.608251E-009	0.0040286	7
	38	53	158.3615	4758.942	-10915.17	1	11907.5	-66.44312	1.759455E-009	0.0039723	6
	39	54	125.558	5350.179	-13403.52	1	14431.87	-68.23999	1.228061E-009	0.0039715	6
	40	56	100.4464	6081.893	-16293.59	1	17391.68	-69.53096	9.468936E-010	0.0039721	6
	41	57	79.00281	7105.936	-20074.29	1	21294.87	-70.50695	5.642473E-010	0.0039731	6
	42	58	63.3446	8416.076	-24460.91	1	25868.25	-71.0136	1.222746E-009	0.0039708	6
	43	60	49.86702	10054.22	-29685.74	1	31342.15	-71.28934	7.154038E-010	0.0039693	6
	44	61	39.72458	12324.68	-36001.45	1	38052.63	-71.10195	1.424088E-009	0.0039757	6
	45	62	31.6723	15026.63	-43249.33	1	45785.41	-70.84064	7.486099E-010	0.0039635	6
	46	64	24.93351	18824.68	-52484.77	1	55758.58	-70.26865	8.876897E-010	0.0039642	6
	47	65	19.86229	23258.44	-62683.07	1	66858.97	-69.64272	1.227187E-009	0.0039722	6
	48	66	15.83615	28767.8	-75135.45	1	80454.47	-69.04919	2.744899E-009	0.0039717	6
	49	68	12.40079	36209.34	-90175.26	1	97173.5	-68.12237	1.059298E-010	0.0039679	6
	50	69	9.93114	44588.87	-105596.7	1	114624.8	-67.1078	4.084207E-010	0.0039759	5
	51	71	7.944915	54502.28	-123791.7	1	135258.6	-66.23735	1.363131E-009	0.003968	5
	52	72	6.317385	67141.81	-145751.6	1	160472.9	-65.2664	4.764062E-010	0.0039634	5
	53	74	5.008013	82310.72	-170903.7	1	189692.2	-64.28358	5.751534E-011	0.0039697	5
	54	77	3.945707	101882	-200815.6	1	225181.8	-63.09945	5.232825E-010	0.0039841	5
	55	79	3.158693	123148.7	-232846.3	1	263406.5	-62.12636	-8.483161E-011	0.0039691	5
	56	83	2.504006	149455	-269750.8	1	308386.6	-61.01144	6.567575E-010	0.0039752	5
	57	85	1.998082	178905.7	-309725.4	1	357682.9	-59.98811	9.435027E-012	0.0040168	5
	58	89	1.584686	212838.5	-356676.9	1	415353.6	-59.17436	3.910813E-010	0.0040018	5
	59	92	1.266892	251458.1	-406915.7	1	478342.5	-58.28555	3.718795E-011	0.0040174	5
	60	97	0.999041	296438.2	-467086.8	1	553214	-57.59861	2.748056E-010	0.0039441	5
