EXPLAIN
TAG	EISPOT
TITLE	LABEL	Potentiostatic EIS	Test &Identifier
DATE	LABEL	11/7/2019	Date
TIME	LABEL	10:08:47	Time
NOTES	NOTES	2	&Notes...
	
	
PSTAT	PSTAT	REF600-11020	Potentiostat
VDC	POTEN	0.00000E+000	T	DC &Voltage (V)
FREQINIT	QUANT	1.00000E+006	Initial Fre&q. (Hz)
FREQFINAL	QUANT	1.00000E+000	Final Fre&q. (Hz)
PTSPERDEC	QUANT	1.00000E+001	Points/&decade
VAC	QUANT	2.50000E+001	AC &Voltage (mV rms)
AREA	QUANT	1.00000E-002	&Area (cm^2)
CONDIT	TWOPARAM	T	5.00000E+000	0.00000E+000	Conditionin&g	Time(s)	E(V)
DELAY	TWOPARAM	T	5.00000E+000	0.00000E+000	Init. De&lay	Time(s)	Stab.(mV/s)
SPEED	SELECTOR	1	&Optimize for:
ZGUESS	QUANT	1.00000E+005	E&stimated Z (ohms)
OCVCURVE	TABLE	19
	Pt	T	Vf	Vm	Ach	Over
	#	s	V vs. Ref.	V	V	bits
	0	0.258333	1.90789E-003	1.90789E-003	5.73432E-004	...........
	1	0.516667	1.90512E-003	1.76297E-003	5.71499E-004	...........
	2	0.775	1.88499E-003	1.46136E-003	5.73366E-004	...........
	3	1.03333	1.81843E-003	1.21596E-003	5.75399E-004	...........
	4	1.29167	1.68308E-003	9.93088E-004	5.80732E-004	...........
	5	1.55	1.48629E-003	7.63939E-004	5.76866E-004	...........
	6	1.80833	1.25585E-003	4.86697E-004	5.75766E-004	...........
	7	2.06667	1.01443E-003	3.02821E-004	5.76666E-004	...........
	8	2.325	7.71441E-004	-1.93201E-005	5.74266E-004	...........
	9	2.58333	5.37016E-004	2.61302E-004	5.73299E-004	...........
	10	2.84167	3.39806E-004	5.84677E-005	5.73499E-004	...........
	11	3.1	2.06492E-004	-5.14293E-005	5.74799E-004	...........
	12	3.35833	1.22321E-004	-1.29405E-004	5.69099E-004	...........
	13	3.61667	4.81256E-005	-2.56566E-004	5.73532E-004	...........
	14	3.875	-3.99659E-005	-4.86319E-004	5.73699E-004	...........
	15	4.13333	-1.48954E-004	-4.99333E-004	5.68799E-004	...........
	16	4.39167	-2.73011E-004	-5.94428E-004	5.72099E-004	...........
	17	4.65	-3.94470E-004	-6.99752E-004	5.69432E-004	...........
	18	4.90833	-5.03975E-004	-9.09907E-004	5.70666E-004	...........
EOC	QUANT	-0.000504	Open Circuit (V)
PSTATMODEL	IQUANT	4	Pstat Model
PSTATSECTION	LABEL	REF600-11020	Pstat Section
PSTATSERIALNO	LABEL	11020	Pstat Serial Number
CTRLMODE	IQUANT	1	Control Mode
IESTAB	IQUANT	0	I/E Stability
CASPEED	IQUANT	1	Control Amp Speed
CONVENTION	IQUANT	1	Current Convention
ICHRANGE	IQUANT	2	Ich Range
ICHRANGEMODE	TOGGLE	F	Ich Auto Range
ICHOFFSETENABLE	TOGGLE	T	Ich Offset Enable
ICHOFFSET	QUANT	0	Ich Offset (V)
ICHFILTER	IQUANT	3	Ich Filter
VCHRANGE	IQUANT	2	Vch Range
VCHRANGEMODE	TOGGLE	F	Vch Auto Range
VCHOFFSETENABLE	TOGGLE	T	Vch Offset Enable
VCHOFFSET	QUANT	0	Vch Offset (V)
VCHFILTER	IQUANT	3	Vch Filter
ACHRANGE	IQUANT	2	Ach Range
ACHOFFSETENABLE	TOGGLE	F	Ach Offset Enable
ACHOFFSET	QUANT	0	Ach Offset (V)
ACHFILTER	IQUANT	3	Ach Filter
IERANGELOWERLIMIT	IQUANT	1	I/E Range Lower Limit
IERANGEMODE	TOGGLE	F	I/E AutoRange
IERANGE	IQUANT	3	I/E Range
POSFEEDENABLE	TOGGLE	F	Positive Feedback IR Comp
POSFEEDRESISTANCE	QUANT	0	Positive Feedback Resistance (ohm)
ACHSELECT	IQUANT	0	Ach Select
CABLEID	IQUANT	14	Cable ID
DCCALDATE	LABEL	8/19/2019	DC Calibration Date
ACCALDATE	LABEL	8/19/2019	AC Calibration Date
THERMOSELECT	IQUANT	1	Thermo Select
FRAMEWORKVERSION	QUANT	6.33	Framework Version
INSTRUMENTVERSION	LABEL	3.50	Instrument Version
ZCURVE	TABLE
	Pt	Time	Freq	Zreal	Zimag	Zsig	Zmod	Zphz	Idc	Vdc	IERange
	#	s	Hz	ohm	ohm	V	ohm	°	A	V	#
	0	2	1000078	2387.715	-1683.74	1	2921.671	-35.19027	1.044579E-005	0.0003627	8
	1	3	794390.6	2690.147	-1563.046	1	3111.27	-30.15771	-7.430495E-006	0.0011994	8
	2	5	630984.4	2995.497	-1444.889	1	3325.764	-25.75051	6.930831E-006	0.0011419	8
	3	7	501234.4	3236.62	-1288.808	1	3483.781	-21.71223	-1.45419E-006	0.0016836	8
	4	8	398109.4	3416.284	-1157.083	1	3606.916	-18.71106	9.698256E-007	0.0015295	8
	5	10	316265.6	3572.131	-1000.451	1	3709.585	-15.64604	6.856916E-006	-0.0002328	8
	6	11	251203.1	3691.643	-878.0811	1	3794.635	-13.37955	1.858317E-006	0.0013599	8
	7	13	199546.9	3770.857	-776.0074	1	3849.876	-11.6286	-4.126532E-006	0.0016406	8
	8	15	158578.1	3823.337	-692.9742	1	3885.63	-10.27325	-3.988005E-006	0.0016336	8
	9	16	125953.1	3939.992	-542.9588	1	3977.228	-7.846343	-2.606584E-006	0.0018681	7
	10	17	100078.1	3963.87	-489.9203	1	3994.031	-7.045822	6.986616E-007	0.0012467	7
	11	19	79453.13	4020.743	-465.4112	1	4047.589	-6.602747	-1.055079E-006	0.0029384	7
	12	20	63140.62	4062.222	-451.2714	1	4087.211	-6.338984	9.249831E-007	-0.0011018	7
	13	22	50203.12	4103.121	-445.0497	1	4127.187	-6.190452	9.249002E-007	-0.0011031	7
	14	23	39890.62	4143.458	-442.6067	1	4167.03	-6.09725	1.287111E-006	-0.0003264	7
	15	24	31640.63	4180.084	-456.66	1	4204.954	-6.234645	-1.432963E-006	0.0026581	7
	16	26	25171.88	4225.908	-482.4572	1	4253.359	-6.513061	1.155636E-006	-0.0009887	7
	17	27	20015.62	4276.645	-514.6088	1	4307.495	-6.861413	4.42597E-007	0.0016132	7
	18	28	15890.62	4318.594	-557.7551	1	4354.463	-7.359128	1.27564E-006	-0.0007231	7
	19	30	12609.37	4362.01	-615.0067	1	4405.152	-8.025324	-1.283498E-006	0.0028511	7
	20	31	10078.13	4394.33	-695.4249	1	4449.017	-8.992767	-1.206084E-006	0.0015418	7
	21	33	8015.625	4476.648	-774.7986	1	4543.203	-9.81923	1.614493E-007	-0.0006515	7
	22	34	6328.125	4536.937	-884.4448	1	4622.341	-11.03107	-8.268619E-007	0.0007366	7
	23	35	5015.625	4607.193	-1020.124	1	4718.78	-12.48499	1.285204E-006	-0.0003395	7
	24	37	3984.375	4675.69	-1189.983	1	4824.743	-14.27888	9.27099E-007	-0.0011068	7
	25	38	3170.956	4752.377	-1383.352	1	4949.621	-16.22956	-1.056398E-006	0.0029265	7
	26	39	2527.573	4841.191	-1630.724	1	5108.463	-18.61577	6.735839E-008	0.0021082	7
	27	41	1976.103	4944.31	-1959.869	1	5318.579	-21.62282	1.610164E-007	-0.0006544	7
	28	42	1577.524	5066.596	-2373.844	1	5595.134	-25.10443	1.286517E-006	-0.0003389	7
	29	43	1265.625	5179.741	-2762.102	1	5870.172	-28.06881	-3.500047E-007	0.0025622	7
	30	45	998.264	5328.423	-3345.677	1	6291.713	-32.1244	-7.36332E-007	0.0028346	7
	31	46	796.875	5501.245	-4014.823	1	6810.47	-36.12206	-3.480808E-007	0.002563	7
	32	48	627.7902	5707.762	-4895.508	1	7519.611	-40.61946	1.554063E-007	-0.0006606	7
	33	49	505.5147	5929.231	-5858.583	1	8335.393	-44.65661	1.287345E-006	-0.0003437	7
	34	51	397.9953	6215.495	-7165.167	1	9485.356	-49.05967	6.858587E-009	0.0009845	7
	35	52	315.5048	6551.164	-8730.413	1	10915.03	-53.11602	-4.852632E-011	0.0009349	6
	36	53	252.4038	6931.607	-10580.67	1	12649.02	-56.7704	1.952502E-009	0.0009302	6
	37	55	198.6229	7431.274	-13026.89	1	14997.45	-60.29712	9.10197E-010	0.0009262	6
	38	56	158.3615	8013.592	-15884.63	1	17791.55	-63.22965	1.479332E-009	0.0009297	6
	39	58	125.558	8780.263	-19484.04	1	21371.03	-65.74183	5.666768E-010	0.0009306	6
	40	59	100.4464	9701.75	-23690.7	1	25600.26	-67.73005	-4.401411E-010	0.0009312	6
	41	60	79.00281	11069.82	-29395.61	1	31410.87	-69.36459	4.084607E-010	0.0009223	6
	42	62	63.3446	12173.25	-35824.39	1	37836.16	-71.23207	1.699356E-009	0.0009157	6
	43	63	49.86702	15052.74	-43568.11	1	46095.18	-70.94003	1.18578E-009	0.0009195	6
	44	65	39.72458	17743.33	-53356.12	1	56229	-71.6057	7.712697E-010	0.0009358	6
	45	66	31.6723	21565.26	-64944.11	1	68430.97	-71.6308	4.837338E-010	0.0009271	6
	46	68	24.93351	26736.52	-79261.3	1	83649.23	-71.35966	1.202302E-013	0.0009308	6
	47	69	19.86229	33433.19	-95685.6	1	101358.4	-70.74025	7.145617E-010	0.0009372	6
	48	70	15.83615	43588.96	-114521.1	1	122536	-69.16221	1.900677E-009	0.0009165	5
	49	72	12.40079	53191.96	-138545.1	1	148405.3	-68.99659	2.672145E-010	0.0009152	5
	50	73	9.93114	68953.42	-164059.7	1	177961.1	-67.20324	7.123999E-010	0.0009324	5
	51	75	7.944915	87577.41	-192877.6	1	211829.1	-65.57925	3.373515E-010	0.000915	5
	52	76	6.317385	109313.3	-224210.6	1	249439	-64.00856	2.122282E-010	0.0009434	5
	53	78	5.008013	137824.1	-260290.6	1	294527.9	-62.09873	2.197733E-010	0.0009333	5
	54	81	3.945707	171662.4	-299512	1	345217.9	-60.18124	6.070966E-010	0.0009303	5
	55	84	3.158693	208633	-339299.9	1	398311.6	-58.41295	1.554984E-011	0.0009256	5
	56	87	2.504006	251340.9	-383793.4	1	458769.7	-56.77978	7.039796E-010	0.0009272	5
	57	90	1.998082	296922.3	-430476.9	1	522946.7	-55.40395	4.091998E-010	0.0009559	5
	58	93	1.584686	346811.6	-482169.1	1	593940.5	-54.27352	3.2124E-010	0.0008855	5
	59	97	1.266892	397938.2	-541499.2	1	671994.2	-53.68849	4.193763E-010	0.0009441	5
	60	101	0.999041	457453.6	-613989	1	765667.2	-53.31199	-5.203974E-011	0.000894	5
