EXPLAIN
TAG	EISPOT
TITLE	LABEL	Potentiostatic EIS	Test &Identifier
DATE	LABEL	10/4/2019	Date
TIME	LABEL	8:55:28	Time
NOTES	NOTES	2	&Notes...
	
	
PSTAT	PSTAT	REF600-11020	Potentiostat
VDC	POTEN	0.00000E+000	T	DC &Voltage (V)
FREQINIT	QUANT	1.00000E+006	Initial Fre&q. (Hz)
FREQFINAL	QUANT	1.00000E+000	Final Fre&q. (Hz)
PTSPERDEC	QUANT	1.00000E+001	Points/&decade
VAC	QUANT	2.50000E+001	AC &Voltage (mV rms)
AREA	QUANT	1.00000E-002	&Area (cm^2)
CONDIT	TWOPARAM	T	5.00000E+000	0.00000E+000	Conditionin&g	Time(s)	E(V)
DELAY	TWOPARAM	T	5.00000E+000	0.00000E+000	Init. De&lay	Time(s)	Stab.(mV/s)
SPEED	SELECTOR	1	&Optimize for:
ZGUESS	QUANT	1.00000E+004	E&stimated Z (ohms)
OCVCURVE	TABLE	19
	Pt	T	Vf	Vm	Ach	Over
	#	s	V vs. Ref.	V	V	bits
	0	0.258333	5.35529E-003	5.35529E-003	5.68799E-004	...........
	1	0.516667	5.35111E-003	5.13625E-003	5.69132E-004	...........
	2	0.775	5.32717E-003	5.02081E-003	5.69532E-004	...........
	3	1.03333	5.26659E-003	4.97630E-003	5.71666E-004	...........
	4	1.29167	5.17476E-003	4.91887E-003	5.70466E-004	...........
	5	1.55	5.07706E-003	4.85872E-003	5.72232E-004	...........
	6	1.80833	4.99225E-003	4.79062E-003	5.73232E-004	...........
	7	2.06667	4.92167E-003	4.73772E-003	5.73965E-004	...........
	8	2.325	4.85910E-003	4.68700E-003	5.75332E-004	...........
	9	2.58333	4.80061E-003	4.64420E-003	5.73799E-004	...........
	10	2.84167	4.74592E-003	4.60519E-003	5.74999E-004	...........
	11	3.1	4.69590E-003	4.56720E-003	5.67899E-004	...........
	12	3.35833	4.65073E-003	4.53377E-003	5.74432E-004	...........
	13	3.61667	4.60986E-003	4.50336E-003	5.70766E-004	...........
	14	3.875	4.57255E-003	4.47080E-003	5.72766E-004	...........
	15	4.13333	4.53801E-003	4.43996E-003	5.65299E-004	...........
	16	4.39167	4.50533E-003	4.41013E-003	5.70932E-004	...........
	17	4.65	4.47371E-003	4.37768E-003	5.74632E-004	...........
	18	4.90833	4.44271E-003	4.35331E-003	5.73732E-004	...........
EOC	QUANT	0.0044427	Open Circuit (V)
PSTATMODEL	IQUANT	4	Pstat Model
PSTATSECTION	LABEL	REF600-11020	Pstat Section
PSTATSERIALNO	LABEL	11020	Pstat Serial Number
CTRLMODE	IQUANT	1	Control Mode
IESTAB	IQUANT	0	I/E Stability
CASPEED	IQUANT	1	Control Amp Speed
CONVENTION	IQUANT	1	Current Convention
ICHRANGE	IQUANT	2	Ich Range
ICHRANGEMODE	TOGGLE	F	Ich Auto Range
ICHOFFSETENABLE	TOGGLE	T	Ich Offset Enable
ICHOFFSET	QUANT	0	Ich Offset (V)
ICHFILTER	IQUANT	3	Ich Filter
VCHRANGE	IQUANT	2	Vch Range
VCHRANGEMODE	TOGGLE	F	Vch Auto Range
VCHOFFSETENABLE	TOGGLE	T	Vch Offset Enable
VCHOFFSET	QUANT	0	Vch Offset (V)
VCHFILTER	IQUANT	3	Vch Filter
ACHRANGE	IQUANT	2	Ach Range
ACHOFFSETENABLE	TOGGLE	F	Ach Offset Enable
ACHOFFSET	QUANT	0	Ach Offset (V)
ACHFILTER	IQUANT	3	Ach Filter
IERANGELOWERLIMIT	IQUANT	1	I/E Range Lower Limit
IERANGEMODE	TOGGLE	F	I/E AutoRange
IERANGE	IQUANT	5	I/E Range
POSFEEDENABLE	TOGGLE	F	Positive Feedback IR Comp
POSFEEDRESISTANCE	QUANT	0	Positive Feedback Resistance (ohm)
ACHSELECT	IQUANT	0	Ach Select
CABLEID	IQUANT	14	Cable ID
DCCALDATE	LABEL	8/19/2019	DC Calibration Date
ACCALDATE	LABEL	8/19/2019	AC Calibration Date
THERMOSELECT	IQUANT	1	Thermo Select
FRAMEWORKVERSION	QUANT	6.33	Framework Version
INSTRUMENTVERSION	LABEL	3.50	Instrument Version
ZCURVE	TABLE
	Pt	Time	Freq	Zreal	Zimag	Zsig	Zmod	Zphz	Idc	Vdc	IERange
	#	s	Hz	ohm	ohm	V	ohm	°	A	V	#
	0	1	1000078	2387.753	-1258.036	1	2698.892	-27.7834	1.60174E-006	0.0067405	8
	1	3	794390.6	2607.324	-1138.511	1	2845.056	-23.58892	6.904988E-007	0.0064178	8
	2	4	630984.4	2795.841	-1011.201	1	2973.088	-19.88405	4.659612E-006	0.0054438	8
	3	6	501234.4	2934.873	-882.4959	1	3064.683	-16.73567	1.415018E-006	0.0057743	8
	4	7	398109.4	3035.298	-759.7571	1	3128.94	-14.05281	4.257862E-006	0.0051617	8
	5	8	316265.6	3109.122	-641.9476	1	3174.703	-11.66606	-2.260306E-006	0.0064656	8
	6	10	251203.1	3181.227	-563.9222	1	3230.822	-10.05215	1.094549E-006	0.0060365	8
	7	11	199546.9	3237.799	-485.025	1	3273.926	-8.519606	-2.376997E-006	0.0066979	8
	8	12	158578.1	3255.177	-423.4643	1	3282.605	-7.411954	4.016486E-006	0.00538	8
	9	14	125953.1	3303.099	-345.7693	1	3321.147	-5.975973	9.794256E-007	0.0037455	7
	10	15	100078.1	3325.595	-313.5821	1	3340.347	-5.386693	-4.72932E-008	0.0061439	7
	11	16	79453.13	3348.786	-302.4286	1	3362.415	-5.160378	8.224168E-008	0.0058681	7
	12	18	63140.62	3374.276	-299.2611	1	3387.52	-5.068244	2.037699E-008	0.00595	7
	13	19	50203.12	3399.958	-302.014	1	3413.345	-5.07619	1.974253E-008	0.005945	7
	14	20	39890.62	3426.298	-312.6311	1	3440.532	-5.213491	-7.491727E-008	0.0061376	7
	15	22	31640.63	3454.449	-330.2416	1	3470.199	-5.460818	-1.045222E-008	0.0060539	7
	16	23	25171.88	3483.817	-356.5116	1	3502.011	-5.842946	-7.524388E-008	0.0062526	7
	17	25	20015.62	3516.163	-389.8554	1	3537.709	-6.326842	-4.11689E-008	0.0060398	7
	18	26	15890.62	3551.857	-432.7857	1	3578.127	-6.947114	8.459978E-008	0.0058616	7
	19	27	12609.37	3590.631	-486.675	1	3623.463	-7.718845	-4.465999E-008	0.006138	7
	20	29	10078.13	3630.749	-549.5842	1	3672.109	-8.607483	-6.118571E-008	0.0061402	7
	21	30	8015.625	3673.984	-629.2236	1	3727.476	-9.71846	-4.684E-008	0.006126	7
	22	31	6328.125	3723.963	-728.4872	1	3794.548	-11.06851	8.409662E-008	0.0058572	7
	23	33	5015.625	3776.904	-849.0079	1	3871.152	-12.6689	-4.586329E-008	0.0061299	7
	24	34	3984.375	3833.426	-995.953	1	3960.691	-14.56388	-9.289542E-009	0.0060428	7
	25	35	3170.956	3896.198	-1172.484	1	4068.793	-16.74813	-7.36577E-008	0.0062463	7
	26	37	2527.573	3965.592	-1387.806	1	4201.419	-19.28809	-7.400775E-008	0.0061239	7
	27	38	1976.103	4051.729	-1675.536	1	4384.51	-22.46686	2.019885E-008	0.0059341	7
	28	40	1577.524	4139.732	-1997.811	1	4596.589	-25.76169	9.868452E-008	0.0059375	7
	29	41	1265.625	4236.781	-2384.213	1	4861.562	-29.36827	-7.426247E-008	0.0061271	7
	30	42	998.264	4355.075	-2893.173	1	5228.492	-33.59697	1.302355E-008	0.0061122	7
	31	44	796.875	4485.47	-3485.268	1	5680.364	-37.84766	-2.551156E-009	0.0060019	7
	32	45	627.7902	4641.048	-4261.733	1	6300.928	-42.56031	4.997476E-008	0.005884	7
	33	46	505.5147	4805.008	-5126.401	1	7026.243	-46.85352	-4.023913E-008	0.0060257	7
	34	48	397.9953	5018.449	-6315.133	1	8066.333	-51.52687	3.877116E-009	0.0060408	7
	35	49	315.5048	5271.526	-7745.76	1	9369.407	-55.762	4.516636E-009	0.0060422	7
	36	50	252.4038	5573.245	-9440.346	1	10962.72	-59.4439	1.303957E-009	0.0059848	6
	37	52	198.6229	5978.884	-11689.44	1	13129.74	-62.91127	1.145182E-009	0.0059841	6
	38	53	158.3615	6467.584	-14318	1	15710.97	-65.69082	4.941639E-010	0.0059789	6
	39	55	125.558	7115.883	-17629.19	1	19011.15	-68.01892	8.344222E-010	0.0059852	6
	40	56	100.4464	7929.918	-21513.57	1	22928.53	-69.76608	2.425434E-010	0.0059789	6
	41	57	79.00281	9057.27	-26622.21	1	28120.74	-71.21094	5.850498E-010	0.0059783	6
	42	59	63.3446	10605.59	-32332.59	1	34027.56	-71.83971	7.78301E-010	0.0059788	6
	43	60	49.86702	12348.25	-40154.66	1	42010.43	-72.90643	2.434699E-010	0.0059791	6
	44	62	39.72458	14805.68	-48805.23	1	51001.55	-73.12417	7.025117E-010	0.0059867	6
	45	63	31.6723	17997.94	-59210.36	1	61885.32	-73.09251	5.101869E-010	0.0059819	6
	46	64	24.93351	22421.03	-72608.64	1	75991.56	-72.83968	3.492275E-010	0.0059788	6
	47	66	19.86229	27956.54	-87876.67	1	92216.47	-72.35237	8.796603E-010	0.0059893	6
	48	67	15.83615	35650.34	-105989.4	1	111824.4	-71.40924	-6.53558E-010	0.0059857	5
	49	68	12.40079	44677.32	-128848.7	1	136374.6	-70.87639	7.92756E-010	0.0059897	5
	50	70	9.93114	56807.99	-152466.7	1	162706	-69.56497	2.531732E-011	0.005994	5
	51	71	7.944915	71688.38	-179950.3	1	193704.2	-68.27871	8.514852E-010	0.0059922	5
	52	73	6.317385	89874.66	-212931.4	1	231121.7	-67.11623	-6.640307E-011	0.0059983	5
	53	75	5.008013	113136.7	-250760.8	1	275101.6	-65.71635	5.321023E-011	0.0059791	5
	54	78	3.945707	142022.5	-293817.1	1	326341.7	-64.20226	4.942763E-010	0.0059892	5
	55	80	3.158693	173970.9	-339965.9	1	381893.6	-62.89979	-4.079144E-011	0.0059745	5
	56	84	2.504006	212884.8	-393056.3	1	447004.7	-61.55941	5.457788E-010	0.0059865	5
	57	86	1.998082	256439.1	-450768.8	1	518607.3	-60.36476	3.14912E-010	0.0060132	5
	58	90	1.584686	307218.8	-515667.8	1	600247.2	-59.21483	1.776932E-010	0.0059407	5
	59	93	1.266892	361504.5	-589078.1	1	691157.4	-58.46346	2.697329E-010	0.0059975	5
	60	97	0.999041	427862.5	-677499.6	1	801293.9	-57.72629	-1.010785E-010	0.005946	5
