EXPLAIN
TAG	EISPOT
TITLE	LABEL	Potentiostatic EIS	Test &Identifier
DATE	LABEL	11/20/2019	Date
TIME	LABEL	10:15:16	Time
NOTES	NOTES	4	&Notes...
	
	
	
	
PSTAT	PSTAT	REF600-11020	Potentiostat
VDC	POTEN	0.00000E+000	T	DC &Voltage (V)
FREQINIT	QUANT	1.00000E+006	Initial Fre&q. (Hz)
FREQFINAL	QUANT	1.00000E+000	Final Fre&q. (Hz)
PTSPERDEC	QUANT	1.00000E+001	Points/&decade
VAC	QUANT	2.50000E+001	AC &Voltage (mV rms)
AREA	QUANT	1.00000E-002	&Area (cm^2)
CONDIT	TWOPARAM	T	5.00000E+000	0.00000E+000	Conditionin&g	Time(s)	E(V)
DELAY	TWOPARAM	T	5.00000E+000	0.00000E+000	Init. De&lay	Time(s)	Stab.(mV/s)
SPEED	SELECTOR	0	&Optimize for:
ZGUESS	QUANT	1.00000E+005	E&stimated Z (ohms)
OCVCURVE	TABLE	19
	Pt	T	Vf	Vm	Ach	Over
	#	s	V vs. Ref.	V	V	bits
	0	0.258333	1.73539E-003	1.73539E-003	5.43866E-004	...........
	1	0.516667	1.73230E-003	1.57384E-003	5.45666E-004	...........
	2	0.775	1.70999E-003	1.24485E-003	5.46333E-004	...........
	3	1.03333	1.63695E-003	9.93904E-004	5.45499E-004	...........
	4	1.29167	1.49135E-003	8.21644E-004	5.49333E-004	...........
	5	1.55	1.28576E-003	5.25775E-004	5.48099E-004	...........
	6	1.80833	1.05527E-003	5.14967E-004	5.43533E-004	...........
	7	2.06667	8.32129E-004	2.16280E-004	5.49833E-004	...........
	8	2.325	6.31715E-004	1.25651E-004	5.41966E-004	...........
	9	2.58333	4.52453E-004	1.62427E-005	5.44899E-004	...........
	10	2.84167	2.88501E-004	-2.38757E-004	5.40599E-004	...........
	11	3.1	1.34239E-004	-2.70587E-004	5.39799E-004	...........
	12	3.35833	-1.63965E-005	-5.16061E-004	5.41966E-004	...........
	13	3.61667	-1.66453E-004	-6.27080E-004	5.43633E-004	...........
	14	3.875	-3.15550E-004	-6.75351E-004	5.39433E-004	...........
	15	4.13333	-4.57989E-004	-8.64017E-004	5.42633E-004	...........
	16	4.39167	-5.86118E-004	-8.26682E-004	5.42633E-004	...........
	17	4.65	-6.97658E-004	-1.04181E-003	5.43299E-004	...........
	18	4.90833	-7.98044E-004	-1.12701E-003	5.41699E-004	...........
EOC	QUANT	-0.000798	Open Circuit (V)
PSTATMODEL	IQUANT	4	Pstat Model
PSTATSECTION	LABEL	REF600-11020	Pstat Section
PSTATSERIALNO	LABEL	11020	Pstat Serial Number
CTRLMODE	IQUANT	1	Control Mode
IESTAB	IQUANT	0	I/E Stability
CASPEED	IQUANT	1	Control Amp Speed
CONVENTION	IQUANT	1	Current Convention
ICHRANGE	IQUANT	2	Ich Range
ICHRANGEMODE	TOGGLE	F	Ich Auto Range
ICHOFFSETENABLE	TOGGLE	T	Ich Offset Enable
ICHOFFSET	QUANT	0	Ich Offset (V)
ICHFILTER	IQUANT	3	Ich Filter
VCHRANGE	IQUANT	2	Vch Range
VCHRANGEMODE	TOGGLE	F	Vch Auto Range
VCHOFFSETENABLE	TOGGLE	T	Vch Offset Enable
VCHOFFSET	QUANT	0	Vch Offset (V)
VCHFILTER	IQUANT	3	Vch Filter
ACHRANGE	IQUANT	2	Ach Range
ACHOFFSETENABLE	TOGGLE	F	Ach Offset Enable
ACHOFFSET	QUANT	0	Ach Offset (V)
ACHFILTER	IQUANT	3	Ach Filter
IERANGELOWERLIMIT	IQUANT	1	I/E Range Lower Limit
IERANGEMODE	TOGGLE	F	I/E AutoRange
IERANGE	IQUANT	4	I/E Range
POSFEEDENABLE	TOGGLE	F	Positive Feedback IR Comp
POSFEEDRESISTANCE	QUANT	0	Positive Feedback Resistance (ohm)
ACHSELECT	IQUANT	0	Ach Select
CABLEID	IQUANT	14	Cable ID
DCCALDATE	LABEL	8/19/2019	DC Calibration Date
ACCALDATE	LABEL	8/19/2019	AC Calibration Date
THERMOSELECT	IQUANT	1	Thermo Select
FRAMEWORKVERSION	QUANT	6.33	Framework Version
INSTRUMENTVERSION	LABEL	3.50	Instrument Version
ZCURVE	TABLE
	Pt	Time	Freq	Zreal	Zimag	Zsig	Zmod	Zphz	Idc	Vdc	IERange
	#	s	Hz	ohm	ohm	V	ohm	°	A	V	#
	0	2	1000078	2164.541	-1787.443	1	2807.167	-39.54935	-2.70354E-006	0.0011705	8
	1	2	794390.6	2519.961	-1785.796	1	3088.571	-35.32367	2.007479E-007	0.0007888	8
	2	2	630984.4	2883.619	-1716.16	1	3355.662	-30.75861	7.694755E-007	0.0013859	8
	3	3	501234.4	3194.485	-1605.51	1	3575.248	-26.68355	1.713598E-006	0.0011863	8
	4	3	398109.4	3462.684	-1459.126	1	3757.556	-22.84988	-7.487108E-007	0.000556	8
	5	3	316265.6	3688.536	-1299.116	1	3910.627	-19.40245	-7.045669E-007	0.001201	8
	6	3	251203.1	3858.997	-1143.232	1	4024.778	-16.50199	-3.439056E-007	0.0012098	8
	7	4	199546.9	4006.325	-987.24	1	4126.17	-13.84304	5.161666E-006	0.0001743	8
	8	4	158578.1	4109.116	-894.114	1	4205.267	-12.2758	-1.283997E-006	0.001152	8
	9	4	125953.1	4210.752	-727.7281	1	4273.174	-9.80535	-9.828647E-007	0.0018825	7
	10	5	100078.1	4273.82	-658.1414	1	4324.198	-8.754419	-1.140237E-006	0.0021178	7
	11	5	79453.13	4334.695	-598.4156	1	4375.806	-7.860145	-1.137232E-006	0.0017706	7
	12	5	63140.62	4391.598	-558.9409	1	4427.025	-7.253326	4.503778E-007	-0.0007985	7
	13	6	50203.12	4439.334	-529.7936	1	4470.835	-6.805535	1.035571E-007	-0.0005205	7
	14	6	39890.62	4487.534	-515.3865	1	4517.033	-6.551628	7.778959E-007	0.0005418	7
	15	6	31640.63	4533.881	-511.9431	1	4562.693	-6.442265	1.025792E-006	-0.0003091	7
	16	7	25171.88	4575.009	-519.7586	1	4604.438	-6.481482	6.65911E-008	0.0016433	7
	17	7	20015.62	4621.526	-540.1812	1	4652.988	-6.666694	1.041712E-007	-0.0005201	7
	18	7	15890.62	4668.889	-571.0671	1	4703.684	-6.973396	-9.782278E-007	0.0012364	7
	19	8	12609.37	4724.316	-616.8389	1	4764.416	-7.438845	7.769113E-007	0.0005401	7
	20	8	10078.13	4777.148	-672.0646	1	4824.19	-8.008	7.783818E-007	0.0005381	7
	21	8	8015.625	4822.607	-751.059	1	4880.741	-8.851971	-2.90606E-007	-3.859903E-005	7
	22	9	6328.125	4884.449	-851.3655	1	4958.091	-9.88739	7.23701E-007	-0.0009067	7
	23	9	5015.625	4947.359	-976.108	1	5042.732	-11.16104	1.011535E-006	-0.0006188	7
	24	9	3984.375	5011.2	-1128.667	1	5136.732	-12.69286	5.670437E-007	0.0009412	7
	25	10	3170.956	5079.043	-1317.895	1	5247.24	-14.54614	-2.712237E-007	0.0020072	7
	26	10	2527.573	5157.696	-1552.956	1	5386.418	-16.75678	6.57113E-008	0.0016305	7
	27	10	1976.103	5256.455	-1865.785	1	5577.766	-19.54238	9.151583E-007	-0.0008308	7
	28	10	1577.524	5372.589	-2240.382	1	5820.999	-22.63625	-5.785953E-007	0.0022277	7
	29	11	1265.625	5475.126	-2636.544	1	6076.872	-25.71311	-1.019973E-006	0.0022498	7
	30	11	998.264	5621.419	-3189.868	1	6463.405	-29.57269	-1.020911E-006	0.0022459	7
	31	12	796.875	5784.672	-3829.601	1	6937.455	-33.50557	-9.809831E-007	0.0012239	7
	32	12	627.7902	5982.99	-4660.62	1	7584.033	-37.91782	5.693216E-007	0.0009363	7
	33	12	505.5147	6184.812	-5583.313	1	8332.184	-42.07401	9.499045E-007	6.869625E-005	7
	34	13	397.9953	6453.947	-6822.784	1	9391.688	-46.59131	3.829536E-009	0.0007605	7
	35	13	315.5048	6760.206	-8317.708	1	10718.43	-50.89756	4.931051E-010	0.0007092	6
	36	13	252.4038	7107.137	-10087.82	1	12340	-54.8343	-3.000211E-011	0.0007061	6
	37	14	198.6229	7565.093	-12437.46	1	14557.51	-58.68991	5.185611E-010	0.0006988	6
	38	14	158.3615	8108.488	-15182.09	1	17211.73	-61.89411	4.155742E-010	0.0007042	6
	39	14	125.558	8806.214	-18643.55	1	20618.71	-64.71645	6.154698E-010	0.0007059	6
	40	15	100.4464	9694.44	-22715.73	1	24697.91	-66.88857	7.459494E-010	0.0007025	6
	41	15	79.00281	10911.49	-28135.15	1	30176.93	-68.80251	1.363275E-009	0.0006983	6
	42	15	63.3446	12237.82	-33941.64	1	36080.46	-70.17298	3.551241E-010	0.0007027	6
	43	16	49.86702	14439.49	-41923.53	1	44340.52	-70.99504	6.794616E-010	0.0007	6
	44	16	39.72458	17073.97	-51314.33	1	54080.32	-71.59601	2.844903E-010	0.0007056	6
	45	16	31.6723	20561.16	-62418.23	1	65717.55	-71.76762	9.225148E-010	0.0006916	6
	46	17	24.93351	25404.42	-76305.11	1	80422.97	-71.58575	-2.963563E-010	0.0007003	6
	47	17	19.86229	31398.66	-92139.19	1	97342.2	-71.18221	-6.679972E-010	0.0006974	6
	48	17	15.83615	39391.39	-111870	1	118602.6	-70.60194	1.975641E-009	0.0007007	5
	49	17	12.40079	50673.46	-135277.2	1	144456.7	-69.46456	-6.417827E-011	0.0007086	5
	50	18	9.93114	63911.3	-159379.6	1	171716.4	-68.14919	3.848937E-010	0.0007077	5
	51	18	7.944915	81145.44	-187793	1	204574.7	-66.63081	9.104881E-010	0.0007004	5
	52	19	6.317385	102416.7	-220864.5	1	243455	-65.12246	9.497392E-010	0.0006842	5
	53	20	5.008013	129940.3	-258290.4	1	289133.9	-63.29403	5.800382E-010	0.0007052	5
	54	21	3.945707	163883.9	-299110.3	1	341064.4	-61.28147	2.828258E-010	0.0007077	5
	55	22	3.158693	201722.9	-340429	1	395707	-59.35093	6.597093E-011	0.0006916	5
	56	24	2.504006	247127.2	-385867.8	1	458220.3	-57.36267	3.38206E-010	0.0006875	5
	57	25	1.998082	295291.7	-433287.8	1	524342.9	-55.72503	4.082339E-010	0.0007158	5
	58	27	1.584686	350636	-483909.2	1	597589.9	-54.07327	1.925355E-010	0.0006688	5
	59	29	1.266892	409013.8	-539017.4	1	676632.9	-52.80828	1.105318E-010	0.0006512	5
	60	31	0.999041	474173	-604583.8	1	768349.9	-51.89303	6.055344E-011	0.000659	5
