EXPLAIN
TAG	EISPOT
TITLE	LABEL	Potentiostatic EIS	Test &Identifier
DATE	LABEL	11/11/2019	Date
TIME	LABEL	13:58:57	Time
NOTES	NOTES	3	&Notes...
	
	
	
PSTAT	PSTAT	REF600-11020	Potentiostat
VDC	POTEN	0.00000E+000	T	DC &Voltage (V)
FREQINIT	QUANT	1.00000E+006	Initial Fre&q. (Hz)
FREQFINAL	QUANT	1.00000E+000	Final Fre&q. (Hz)
PTSPERDEC	QUANT	1.00000E+001	Points/&decade
VAC	QUANT	2.50000E+001	AC &Voltage (mV rms)
AREA	QUANT	1.00000E-002	&Area (cm^2)
CONDIT	TWOPARAM	T	5.00000E+000	0.00000E+000	Conditionin&g	Time(s)	E(V)
DELAY	TWOPARAM	T	5.00000E+000	0.00000E+000	Init. De&lay	Time(s)	Stab.(mV/s)
SPEED	SELECTOR	1	&Optimize for:
ZGUESS	QUANT	1.00000E+005	E&stimated Z (ohms)
OCVCURVE	TABLE	19
	Pt	T	Vf	Vm	Ach	Over
	#	s	V vs. Ref.	V	V	bits
	0	0.258333	4.75514E-003	4.75514E-003	5.83699E-004	...........
	1	0.516667	4.74881E-003	4.42385E-003	5.81565E-004	...........
	2	0.775	4.73528E-003	5.43588E-003	5.83765E-004	...........
	3	1.03333	4.74609E-003	4.56949E-003	5.84899E-004	...........
	4	1.29167	4.79390E-003	4.71145E-003	5.80299E-004	...........
	5	1.55	4.83135E-003	5.08924E-003	5.82065E-004	...........
	6	1.80833	4.84390E-003	5.01890E-003	5.76432E-004	...........
	7	2.06667	4.87499E-003	5.02568E-003	5.79199E-004	...........
	8	2.325	4.93235E-003	4.96532E-003	5.77732E-004	...........
	9	2.58333	4.98472E-003	5.22134E-003	5.79166E-004	...........
	10	2.84167	5.01846E-003	4.78757E-003	5.73699E-004	...........
	11	3.1	5.03474E-003	5.26223E-003	5.74599E-004	...........
	12	3.35833	5.04395E-003	5.20218E-003	5.74432E-004	...........
	13	3.61667	5.07047E-003	5.19094E-003	5.77432E-004	...........
	14	3.875	5.11855E-003	5.19490E-003	5.80232E-004	...........
	15	4.13333	5.16347E-003	5.20324E-003	5.77232E-004	...........
	16	4.39167	5.18932E-003	5.20932E-003	5.78032E-004	...........
	17	4.65	5.20052E-003	5.22383E-003	5.77999E-004	...........
	18	4.90833	5.20675E-003	5.24179E-003	5.79399E-004	...........
EOC	QUANT	0.0052068	Open Circuit (V)
PSTATMODEL	IQUANT	4	Pstat Model
PSTATSECTION	LABEL	REF600-11020	Pstat Section
PSTATSERIALNO	LABEL	11020	Pstat Serial Number
CTRLMODE	IQUANT	1	Control Mode
IESTAB	IQUANT	0	I/E Stability
CASPEED	IQUANT	1	Control Amp Speed
CONVENTION	IQUANT	1	Current Convention
ICHRANGE	IQUANT	2	Ich Range
ICHRANGEMODE	TOGGLE	F	Ich Auto Range
ICHOFFSETENABLE	TOGGLE	T	Ich Offset Enable
ICHOFFSET	QUANT	0	Ich Offset (V)
ICHFILTER	IQUANT	3	Ich Filter
VCHRANGE	IQUANT	2	Vch Range
VCHRANGEMODE	TOGGLE	F	Vch Auto Range
VCHOFFSETENABLE	TOGGLE	T	Vch Offset Enable
VCHOFFSET	QUANT	0	Vch Offset (V)
VCHFILTER	IQUANT	3	Vch Filter
ACHRANGE	IQUANT	2	Ach Range
ACHOFFSETENABLE	TOGGLE	F	Ach Offset Enable
ACHOFFSET	QUANT	0	Ach Offset (V)
ACHFILTER	IQUANT	3	Ach Filter
IERANGELOWERLIMIT	IQUANT	1	I/E Range Lower Limit
IERANGEMODE	TOGGLE	F	I/E AutoRange
IERANGE	IQUANT	4	I/E Range
POSFEEDENABLE	TOGGLE	F	Positive Feedback IR Comp
POSFEEDRESISTANCE	QUANT	0	Positive Feedback Resistance (ohm)
ACHSELECT	IQUANT	0	Ach Select
CABLEID	IQUANT	14	Cable ID
DCCALDATE	LABEL	8/19/2019	DC Calibration Date
ACCALDATE	LABEL	8/19/2019	AC Calibration Date
THERMOSELECT	IQUANT	1	Thermo Select
FRAMEWORKVERSION	QUANT	6.33	Framework Version
INSTRUMENTVERSION	LABEL	3.50	Instrument Version
ZCURVE	TABLE
	Pt	Time	Freq	Zreal	Zimag	Zsig	Zmod	Zphz	Idc	Vdc	IERange
	#	s	Hz	ohm	ohm	V	ohm	°	A	V	#
	0	2	1000078	2069.59	-1486.819	1	2548.3	-35.69393	-3.836617E-006	0.0073703	8
	1	3	794390.6	2348.683	-1498.598	1	2786.056	-32.54026	-1.100319E-006	0.0073769	8
	2	5	630984.4	2635.368	-1473.15	1	3019.161	-29.20485	-1.446335E-007	0.0074913	8
	3	6	501234.4	2899.627	-1425.475	1	3231.07	-26.17902	1.757049E-006	0.0065319	8
	4	7	398109.4	3144.801	-1341.082	1	3418.812	-23.09554	-4.342427E-006	0.0072117	8
	5	9	316265.6	3365.668	-1240.212	1	3586.899	-20.2283	-1.12381E-006	0.0066365	8
	6	10	251203.1	3553.352	-1134.769	1	3730.149	-17.71096	-6.17868E-007	0.0071708	8
	7	11	199546.9	3709.52	-1025.901	1	3848.767	-15.45927	-2.272591E-008	0.0065693	8
	8	13	158578.1	3843.758	-915.2814	1	3951.23	-13.39392	-1.831356E-006	0.0069699	8
	9	14	125953.1	3974.798	-760.0446	1	4046.812	-10.82519	-1.485331E-006	0.0065458	7
	10	15	100078.1	4069.109	-691.939	1	4127.521	-9.65065	3.496906E-007	0.0072107	7
	11	17	79453.13	4133.021	-621.991	1	4179.562	-8.558393	-1.047675E-006	0.0077275	7
	12	18	63140.62	4211.447	-575.3102	1	4250.561	-7.778816	9.437794E-007	0.0057787	7
	13	19	50203.12	4250.345	-534.9331	1	4283.875	-7.173325	-1.047609E-006	0.0077279	7
	14	21	39890.62	4307.183	-508.9297	1	4337.146	-6.738731	7.311387E-008	0.0056271	7
	15	22	31640.63	4356.289	-496.7461	1	4384.519	-6.50532	3.926355E-007	0.0053626	7
	16	23	25171.88	4395.549	-492.2061	1	4423.021	-6.389267	-1.045018E-006	0.0080215	7
	17	25	20015.62	4444.093	-501.048	1	4472.25	-6.432632	-2.866946E-007	0.0060794	7
	18	26	15890.62	4507.349	-522.8891	1	4537.578	-6.617197	7.322928E-007	0.006536	7
	19	27	12609.37	4559.335	-548.7587	1	4592.241	-6.86307	5.397509E-007	0.0069082	7
	20	29	10078.13	4608.648	-587.3655	1	4645.927	-7.263108	-2.296008E-007	0.0079104	7
	21	30	8015.625	4678.499	-632.1119	1	4721.008	-7.694636	5.420231E-007	0.0069087	7
	22	31	6328.125	4733.334	-686.3041	1	4782.83	-8.250039	-1.048702E-006	0.007712	7
	23	33	5015.625	4801.223	-753.5665	1	4860	-8.919975	-9.082215E-007	0.0072364	7
	24	34	3984.375	4872.332	-835.8833	1	4943.513	-9.73473	-5.172323E-007	0.0081191	7
	25	35	3170.956	4945.952	-937.6581	1	5034.048	-10.73479	8.100087E-008	0.0075537	7
	26	37	2527.573	5020.93	-1060.386	1	5131.682	-11.92524	8.824445E-007	0.0061149	7
	27	38	1976.103	5079.217	-1227.181	1	5225.363	-13.58284	-1.045098E-006	0.0080196	7
	28	40	1577.524	5145.668	-1422.295	1	5338.616	-15.45114	-9.298556E-007	0.0081594	7
	29	41	1265.625	5227.631	-1670.703	1	5488.112	-17.7234	9.260613E-007	0.0054894	7
	30	42	998.264	5292.574	-1992.11	1	5655.072	-20.6262	-9.265906E-007	0.0081494	7
	31	44	796.875	5386.451	-2387.702	1	5891.941	-23.90672	3.524785E-007	0.0071802	7
	32	45	627.7902	5480.093	-2895.839	1	6198.169	-27.85326	-1.048663E-006	0.0077091	7
	33	46	505.5147	5593.092	-3494.586	1	6595.06	-31.99731	3.541147E-007	0.0071837	7
	34	48	397.9953	5734.1	-4290.279	1	7161.452	-36.804	2.448091E-009	0.0067811	7
	35	49	315.5048	5907.633	-5258.767	1	7909.157	-41.67435	4.588554E-009	0.0067795	7
	36	51	252.4038	6114.777	-6406.808	1	8856.505	-46.33602	5.568676E-009	0.0067761	7
	37	52	198.6229	6400.822	-7926.965	1	10188.59	-51.08001	4.778632E-010	0.0067199	6
	38	53	158.3615	6747.966	-9697.49	1	11814.25	-55.16801	6.615548E-010	0.0067154	6
	39	55	125.558	7202.477	-11920.82	1	13927.73	-58.85992	5.083566E-010	0.0067297	6
	40	56	100.4464	7769.984	-14525.75	1	16473.31	-61.85718	1.724742E-010	0.0067196	6
	41	57	79.00281	8532.499	-17920.07	1	19847.73	-64.53891	8.095907E-010	0.0067216	6
	42	59	63.3446	9364.338	-21771.96	1	23700.4	-66.72697	3.814024E-010	0.0067172	6
	43	60	49.86702	10728.31	-26684.86	1	28760.71	-68.09803	4.950621E-010	0.0067184	6
	44	62	39.72458	12207.58	-32542.14	1	34756.52	-69.43736	5.868718E-010	0.0067215	6
	45	63	31.6723	14079.67	-39453.09	1	41890.13	-70.35998	3.376212E-010	0.0067142	6
	46	64	24.93351	16578.29	-48381.16	1	51142.71	-71.08546	4.660736E-010	0.0067201	6
	47	66	19.86229	19563.34	-58625.74	1	61803.74	-71.5462	7.29077E-010	0.0067274	6
	48	67	15.83615	23645.68	-70849.85	1	74691.5	-71.5439	-7.609762E-010	0.0067223	6
	49	68	12.40079	28714.41	-86932.81	1	91552.34	-71.72131	1.255087E-009	0.0067141	6
	50	70	9.93114	34572.62	-104377.2	1	109953.9	-71.6737	5.085039E-010	0.0067112	5
	51	71	7.944915	42204.63	-125133.4	1	132059.1	-71.36193	-1.813012E-010	0.0067211	5
	52	73	6.317385	52220.54	-150501	1	159303.3	-70.86436	-2.73359E-010	0.0067373	5
	53	75	5.008013	65194.61	-180883.1	1	192273.3	-70.17963	8.559295E-011	0.006728	5
	54	77	3.945707	81259.87	-217849.5	1	232511.4	-69.54402	3.933369E-010	0.0067216	5
	55	80	3.158693	101263.2	-256986.9	1	276218.2	-68.49357	9.180947E-011	0.0067428	5
	56	83	2.504006	126115.9	-305514.6	1	330521.4	-67.56925	-1.247361E-010	0.0067203	5
	57	86	1.998082	154445.1	-358032.3	1	389923.6	-66.66599	-1.614249E-010	0.0067233	5
	58	89	1.584686	193130	-420213.8	1	462470.4	-65.31652	1.352075E-011	0.0067747	5
	59	93	1.266892	231903.7	-491706.2	1	543649	-64.75	-1.48198E-010	0.0067096	5
	60	97	0.999041	284431.3	-578605.1	1	644736.4	-63.82215	2.464912E-010	0.0067492	5
