EXPLAIN
TAG	EISPOT
TITLE	LABEL	Potentiostatic IDE	Test &Identifier
DATE	LABEL	9/16/2019	Date
TIME	LABEL	8:37:52	Time
NOTES	NOTES	1	&Notes...
	
PSTAT	PSTAT	REF600-11020	Potentiostat
VDC	POTEN	0.00000E+000	T	DC &Voltage (V)
FREQINIT	QUANT	1.00000E+006	Initial Fre&q. (Hz)
FREQFINAL	QUANT	1.00000E+000	Final Fre&q. (Hz)
PTSPERDEC	QUANT	1.00000E+001	Points/&decade
VAC	QUANT	2.50000E+001	AC &Voltage (mV rms)
AREA	QUANT	1.00000E-002	&Area (cm^2)
CONDIT	TWOPARAM	T	5.00000E+000	0.00000E+000	Conditionin&g	Time(s)	E(V)
DELAY	TWOPARAM	T	5.00000E+000	0.00000E+000	Init. De&lay	Time(s)	Stab.(mV/s)
SPEED	SELECTOR	1	&Optimize for:
ZGUESS	QUANT	1.00000E+007	E&stimated Z (ohms)
OCVCURVE	TABLE	19
	Pt	T	Vf	Vm	Ach	Over
	#	s	V vs. Ref.	V	V	bits
	0	0.258333	2.29321E-003	2.29321E-003	5.62866E-004	...........
	1	0.516667	2.28723E-003	1.98016E-003	5.65232E-004	...........
	2	0.775	2.24712E-003	1.50596E-003	5.68699E-004	...........
	3	1.03333	2.11590E-003	7.12127E-004	5.68132E-004	...........
	4	1.29167	1.84169E-003	5.05415E-004	5.64899E-004	...........
	5	1.55	1.44803E-003	6.93306E-004	5.66932E-004	...........
	6	1.80833	1.05968E-003	8.67788E-004	5.67732E-004	...........
	7	2.06667	8.24432E-004	1.51782E-003	5.69332E-004	...........
	8	2.325	8.53777E-004	3.60122E-003	5.65299E-004	...........
	9	2.58333	1.21212E-003	2.51170E-003	5.72432E-004	...........
	10	2.84167	1.78101E-003	1.74447E-003	5.70766E-004	...........
	11	3.1	2.22002E-003	1.55070E-003	5.69866E-004	...........
	12	3.35833	2.29519E-003	1.90434E-003	5.70699E-004	...........
	13	3.61667	2.11111E-003	1.63014E-003	5.66966E-004	...........
	14	3.875	1.88764E-003	1.08934E-003	5.67732E-004	...........
	15	4.13333	1.68251E-003	4.00679E-004	5.70166E-004	...........
	16	4.39167	1.41268E-003	-2.37704E-005	5.65499E-004	...........
	17	4.65	1.02869E-003	-1.65841E-004	5.64366E-004	...........
	18	4.90833	5.92765E-004	-1.88598E-004	5.62099E-004	...........
EOC	QUANT	0.0005928	Open Circuit (V)
PSTATMODEL	IQUANT	4	Pstat Model
PSTATSECTION	LABEL	REF600-11020	Pstat Section
PSTATSERIALNO	LABEL	11020	Pstat Serial Number
CTRLMODE	IQUANT	1	Control Mode
IESTAB	IQUANT	0	I/E Stability
CASPEED	IQUANT	1	Control Amp Speed
CONVENTION	IQUANT	1	Current Convention
ICHRANGE	IQUANT	2	Ich Range
ICHRANGEMODE	TOGGLE	F	Ich Auto Range
ICHOFFSETENABLE	TOGGLE	T	Ich Offset Enable
ICHOFFSET	QUANT	0	Ich Offset (V)
ICHFILTER	IQUANT	3	Ich Filter
VCHRANGE	IQUANT	2	Vch Range
VCHRANGEMODE	TOGGLE	F	Vch Auto Range
VCHOFFSETENABLE	TOGGLE	T	Vch Offset Enable
VCHOFFSET	QUANT	0	Vch Offset (V)
VCHFILTER	IQUANT	3	Vch Filter
ACHRANGE	IQUANT	2	Ach Range
ACHOFFSETENABLE	TOGGLE	F	Ach Offset Enable
ACHOFFSET	QUANT	0	Ach Offset (V)
ACHFILTER	IQUANT	3	Ach Filter
IERANGELOWERLIMIT	IQUANT	1	I/E Range Lower Limit
IERANGEMODE	TOGGLE	F	I/E AutoRange
IERANGE	IQUANT	2	I/E Range
POSFEEDENABLE	TOGGLE	F	Positive Feedback IR Comp
POSFEEDRESISTANCE	QUANT	0	Positive Feedback Resistance (ohm)
ACHSELECT	IQUANT	0	Ach Select
CABLEID	IQUANT	14	Cable ID
DCCALDATE	LABEL	8/19/2019	DC Calibration Date
ACCALDATE	LABEL	8/19/2019	AC Calibration Date
THERMOSELECT	IQUANT	1	Thermo Select
FRAMEWORKVERSION	QUANT	6.33	Framework Version
INSTRUMENTVERSION	LABEL	3.50	Instrument Version
ZCURVE	TABLE
	Pt	Time	Freq	Zreal	Zimag	Zsig	Zmod	Zphz	Idc	Vdc	IERange
	#	s	Hz	ohm	ohm	V	ohm	°	A	V	#
	0	3	1000078	2510.878	-1633.174	1	2995.291	-33.04156	-1.127699E-007	0.0026999	8
	1	4	794390.6	2826.633	-1538.582	1	3218.243	-28.56017	8.895242E-008	0.0023874	8
	2	6	630984.4	3083.901	-1399.444	1	3386.575	-24.40808	-5.3521E-006	0.0035841	8
	3	7	501234.4	3329.332	-1270.912	1	3563.659	-20.89345	-2.149272E-008	0.0025877	8
	4	9	398109.4	3504.226	-1118.235	1	3678.322	-17.69843	-1.081998E-007	0.0024653	8
	5	10	316265.6	3643.079	-989.52	1	3775.073	-15.19586	3.900567E-006	0.0014317	8
	6	11	251203.1	3757.755	-845.3104	1	3851.658	-12.67771	-1.149672E-006	0.002348	8
	7	13	199546.9	3824.708	-730.6011	1	3893.863	-10.81444	3.785713E-006	0.0014356	8
	8	14	158578.1	3910.719	-672.6595	1	3968.148	-9.75961	6.754346E-007	0.0020088	8
	9	16	125953.1	3969.843	-540.4634	1	4006.464	-7.752713	-3.569915E-007	0.0029745	7
	10	17	100078.1	4010.404	-491.5653	1	4040.418	-6.988031	-4.758542E-008	0.0022463	7
	11	18	79453.13	4050.793	-464.7209	1	4077.363	-6.544557	4.478653E-008	0.0019562	7
	12	20	63140.62	4091.41	-450.4876	1	4116.136	-6.283283	7.490004E-008	0.0019686	7
	13	21	50203.12	4129.817	-444.6896	1	4153.689	-6.145804	-1.412146E-008	0.0021549	7
	14	22	39890.62	4168.795	-453.4335	1	4193.382	-6.207572	7.384521E-008	0.0019638	7
	15	24	31640.63	4214.993	-465.063	1	4240.571	-6.296287	-2.124742E-008	0.0022424	7
	16	25	25171.88	4261.265	-490.386	1	4289.389	-6.564714	-2.313598E-009	0.0020476	7
	17	26	20015.62	4312.053	-524.2274	1	4343.802	-6.93158	-5.040765E-008	0.0022034	7
	18	28	15890.62	4365.392	-568.2479	1	4402.222	-7.416552	7.347015E-008	0.0020693	7
	19	29	12609.37	4422.327	-620.0901	1	4465.589	-7.981865	-3.213747E-009	0.0020436	7
	20	30	10078.13	4481.626	-682.5864	1	4533.31	-8.660036	1.34666E-007	0.0019025	7
	21	32	8015.625	4546.37	-759.7622	1	4609.417	-9.487259	-5.192037E-008	0.0021933	7
	22	33	6328.125	4618.606	-858.16	1	4697.655	-10.52581	1.352973E-007	0.0018941	7
	23	34	5015.625	4692.777	-972.709	1	4792.528	-11.71033	-3.692928E-008	0.0021436	7
	24	36	3984.375	4771.451	-1114.933	1	4899.982	-13.15218	-5.829708E-009	0.0021268	7
	25	37	3170.956	4853.02	-1282.276	1	5019.565	-14.80058	-4.635085E-008	0.0022295	7
	26	38	2527.573	4940.231	-1488.641	1	5159.645	-16.76915	-1.918309E-008	0.0022568	7
	27	40	1976.103	5042.523	-1764.994	1	5342.494	-19.29117	2.12865E-008	0.0020158	7
	28	41	1577.524	5149.283	-2075.211	1	5551.722	-21.94991	-4.513663E-008	0.0022378	7
	29	42	1265.625	5275.378	-2450.896	1	5816.916	-24.91918	-6.997041E-009	0.0021248	7
	30	44	998.264	5399.792	-2946.208	1	6151.251	-28.61755	-6.659148E-008	0.0022025	7
	31	45	796.875	5552.066	-3522.511	1	6575.22	-32.3931	-1.857585E-008	0.0020673	7
	32	46	627.7902	5735.822	-4274.488	1	7153.384	-36.69446	1.359051E-007	0.0018986	7
	33	48	505.5147	5935.344	-5110.348	1	7832.239	-40.72854	-3.401374E-008	0.0020931	7
	34	49	397.9953	6194.205	-6239.734	1	8792.182	-45.2098	5.443996E-009	0.0021176	7
	35	50	315.5048	6499.981	-7589.194	1	9992.28	-49.42066	1.879054E-009	0.002054	6
	36	52	252.4038	6847.961	-9176.169	1	11449.75	-53.26688	1.8177E-009	0.0020468	6
	37	53	198.6229	7301.02	-11265.03	1	13424.07	-57.05217	1.570439E-009	0.00205	6
	38	54	158.3615	7819.37	-13689.62	1	15765.42	-60.26544	1.866657E-009	0.0020515	6
	39	56	125.558	8468.748	-16734.51	1	18755.36	-63.15763	1.538856E-009	0.0020513	6
	40	57	100.4464	9224.401	-20310.47	1	22307.06	-65.57389	5.896939E-010	0.0020527	6
	41	58	79.00281	10300.23	-25015.15	1	27052.77	-67.62012	1.761502E-009	0.0020457	6
	42	60	63.3446	11224.96	-30365.9	1	32374.18	-69.71282	1.502145E-009	0.0020383	6
	43	61	49.86702	13336.46	-37398.86	1	39705.62	-70.37373	4.165356E-010	0.0020367	6
	44	63	39.72458	15210.32	-45705.04	1	48169.54	-71.59292	1.458858E-009	0.0020473	6
	45	64	31.6723	17765.49	-55755.9	1	58517.8	-72.32657	1.602293E-009	0.0020495	6
	46	65	24.93351	21504.21	-68365.51	1	71667.8	-72.53915	1.220234E-009	0.0020437	6
	47	66	19.86229	26179.79	-82907.04	1	86942.27	-72.4753	1.446139E-009	0.0020463	6
	48	68	15.83615	32968.63	-100754.9	1	106011.7	-71.88107	-5.3134E-010	0.0020442	6
	49	69	12.40079	41430.32	-123372	1	130142.7	-71.43711	1.937747E-009	0.0020471	5
	50	71	9.93114	50727.29	-146920.6	1	155431.4	-70.95174	1.254073E-009	0.0020466	5
	51	72	7.944915	64221.58	-175583.2	1	186959.5	-69.90942	7.974625E-010	0.0020546	5
	52	74	6.317385	80153.59	-209278.5	1	224102.8	-69.04317	4.796319E-010	0.0020437	5
	53	76	5.008013	101575.2	-248992.6	1	268914.2	-67.80726	3.490023E-010	0.0020437	5
	54	78	3.945707	129271.1	-295735.3	1	322754.4	-66.38901	6.86182E-010	0.0020473	5
	55	81	3.158693	160868.3	-345882.6	1	381462.2	-65.0571	2.003095E-010	0.0020325	5
	56	84	2.504006	201653.1	-403914.6	1	451454.3	-63.46948	8.601165E-010	0.0020416	5
	57	87	1.998082	249439.8	-466092.8	1	528642.3	-61.84555	2.252008E-010	0.0020853	5
	58	90	1.584686	306825.8	-537692.1	1	619075.9	-60.28942	5.053957E-010	0.0020869	5
	59	94	1.266892	361875.6	-611384.7	1	710454.2	-59.37892	-1.131765E-009	0.00207	5
	60	98	0.999041	450118.3	-697955.8	1	830511.2	-57.18165	7.483641E-010	0.0020517	5
