EXPLAIN
TAG	EISPOT
TITLE	LABEL	Potentiostatic EIS	Test &Identifier
DATE	LABEL	10/24/2019	Date
TIME	LABEL	9:02:37	Time
NOTES	NOTES	1	&Notes...
	
PSTAT	PSTAT	REF600-11020	Potentiostat
VDC	POTEN	0.00000E+000	T	DC &Voltage (V)
FREQINIT	QUANT	1.00000E+006	Initial Fre&q. (Hz)
FREQFINAL	QUANT	1.00000E+000	Final Fre&q. (Hz)
PTSPERDEC	QUANT	1.00000E+001	Points/&decade
VAC	QUANT	2.50000E+001	AC &Voltage (mV rms)
AREA	QUANT	1.00000E-002	&Area (cm^2)
CONDIT	TWOPARAM	T	5.00000E+000	0.00000E+000	Conditionin&g	Time(s)	E(V)
DELAY	TWOPARAM	T	5.00000E+000	0.00000E+000	Init. De&lay	Time(s)	Stab.(mV/s)
SPEED	SELECTOR	1	&Optimize for:
ZGUESS	QUANT	1.00000E+005	E&stimated Z (ohms)
OCVCURVE	TABLE	19
	Pt	T	Vf	Vm	Ach	Over
	#	s	V vs. Ref.	V	V	bits
	0	0.258333	4.01318E-003	4.01318E-003	5.77632E-004	...........
	1	0.516667	4.01487E-003	4.10129E-003	5.74132E-004	...........
	2	0.775	4.01892E-003	3.85614E-003	5.59132E-004	...........
	3	1.03333	4.01395E-003	3.85187E-003	5.61199E-004	...........
	4	1.29167	3.98322E-003	3.81284E-003	5.72799E-004	...........
	5	1.55	3.92991E-003	3.80897E-003	5.64566E-004	...........
	6	1.80833	3.87671E-003	3.86313E-003	5.56599E-004	...........
	7	2.06667	3.84502E-003	3.94834E-003	5.65432E-004	...........
	8	2.325	3.84136E-003	3.76296E-003	5.72666E-004	...........
	9	2.58333	3.84878E-003	3.74619E-003	5.62099E-004	...........
	10	2.84167	3.84071E-003	3.75272E-003	5.58832E-004	...........
	11	3.1	3.81230E-003	3.75114E-003	5.70066E-004	...........
	12	3.35833	3.78098E-003	3.75537E-003	5.69899E-004	...........
	13	3.61667	3.76111E-003	3.76514E-003	5.59766E-004	...........
	14	3.875	3.75424E-003	3.76452E-003	5.66599E-004	...........
	15	4.13333	3.75554E-003	3.76794E-003	5.73965E-004	...........
	16	4.39167	3.76223E-003	3.89711E-003	5.77466E-004	...........
	17	4.65	3.77860E-003	3.87778E-003	5.61399E-004	...........
	18	4.90833	3.80703E-003	3.84145E-003	5.64532E-004	...........
EOC	QUANT	0.003807	Open Circuit (V)
PSTATMODEL	IQUANT	4	Pstat Model
PSTATSECTION	LABEL	REF600-11020	Pstat Section
PSTATSERIALNO	LABEL	11020	Pstat Serial Number
CTRLMODE	IQUANT	1	Control Mode
IESTAB	IQUANT	0	I/E Stability
CASPEED	IQUANT	1	Control Amp Speed
CONVENTION	IQUANT	1	Current Convention
ICHRANGE	IQUANT	2	Ich Range
ICHRANGEMODE	TOGGLE	F	Ich Auto Range
ICHOFFSETENABLE	TOGGLE	T	Ich Offset Enable
ICHOFFSET	QUANT	0	Ich Offset (V)
ICHFILTER	IQUANT	3	Ich Filter
VCHRANGE	IQUANT	2	Vch Range
VCHRANGEMODE	TOGGLE	F	Vch Auto Range
VCHOFFSETENABLE	TOGGLE	T	Vch Offset Enable
VCHOFFSET	QUANT	0	Vch Offset (V)
VCHFILTER	IQUANT	3	Vch Filter
ACHRANGE	IQUANT	2	Ach Range
ACHOFFSETENABLE	TOGGLE	F	Ach Offset Enable
ACHOFFSET	QUANT	0	Ach Offset (V)
ACHFILTER	IQUANT	3	Ach Filter
IERANGELOWERLIMIT	IQUANT	1	I/E Range Lower Limit
IERANGEMODE	TOGGLE	F	I/E AutoRange
IERANGE	IQUANT	4	I/E Range
POSFEEDENABLE	TOGGLE	F	Positive Feedback IR Comp
POSFEEDRESISTANCE	QUANT	0	Positive Feedback Resistance (ohm)
ACHSELECT	IQUANT	0	Ach Select
CABLEID	IQUANT	14	Cable ID
DCCALDATE	LABEL	8/19/2019	DC Calibration Date
ACCALDATE	LABEL	8/19/2019	AC Calibration Date
THERMOSELECT	IQUANT	1	Thermo Select
FRAMEWORKVERSION	QUANT	6.33	Framework Version
INSTRUMENTVERSION	LABEL	3.50	Instrument Version
ZCURVE	TABLE
	Pt	Time	Freq	Zreal	Zimag	Zsig	Zmod	Zphz	Idc	Vdc	IERange
	#	s	Hz	ohm	ohm	V	ohm	°	A	V	#
	0	1	1000078	2079.196	-904.7835	1	2267.529	-23.51676	-9.843551E-008	0.0055742	8
	1	3	794390.6	2216.989	-798.8717	1	2356.531	-19.81616	5.188082E-006	0.0044558	8
	2	4	630984.4	2335.198	-704.0564	1	2439.025	-16.77793	-1.542079E-006	0.0054209	8
	3	5	501234.4	2426.719	-615.4081	1	2503.536	-14.23003	3.019796E-007	0.0054402	8
	4	7	398109.4	2496.188	-529.1492	1	2551.657	-11.96855	6.474987E-007	0.0051089	8
	5	8	316265.6	2549.709	-456.2513	1	2590.209	-10.14527	-2.550312E-006	0.0058007	8
	6	10	251203.1	2593.181	-395.6883	1	2623.196	-8.675729	7.400513E-007	0.0050895	8
	7	11	199546.9	2627.352	-348.0112	1	2650.3	-7.545305	1.869342E-007	0.0053753	8
	8	12	158578.1	2658.447	-304.0249	1	2675.774	-6.524109	6.040264E-007	0.0052977	8
	9	14	125953.1	2686.378	-246.3518	1	2697.65	-5.239601	1.037276E-006	0.0032772	7
	10	15	100078.1	2709.646	-223.1998	1	2718.823	-4.708954	-4.177967E-009	0.0052297	7
	11	16	79453.13	2727.324	-214.4197	1	2735.74	-4.495295	4.985583E-008	0.0051702	7
	12	18	63140.62	2746.22	-210.5288	1	2754.278	-4.383796	-5.353004E-008	0.0053477	7
	13	19	50203.12	2765.69	-211.4413	1	2773.76	-4.371847	7.335293E-008	0.0051903	7
	14	20	39890.62	2785.42	-215.173	1	2793.719	-4.417313	-5.478325E-008	0.0053257	7
	15	22	31640.63	2806.27	-223.3845	1	2815.147	-4.551258	-6.261012E-009	0.0052447	7
	16	23	25171.88	2827.079	-236.3685	1	2836.943	-4.779311	-2.23757E-008	0.005253	7
	17	24	20015.62	2850.377	-255.6486	1	2861.819	-5.12511	1.0249E-008	0.0051926	7
	18	26	15890.62	2872.556	-277.0743	1	2885.888	-5.509459	-1.014279E-008	0.0052373	7
	19	27	12609.37	2896.506	-307.8365	1	2912.818	-6.066542	-7.45026E-009	0.0052665	7
	20	29	10078.13	2921.677	-342.815	1	2941.72	-6.692202	6.06253E-009	0.0051939	7
	21	30	8015.625	2947.869	-390.9616	1	2973.682	-7.554773	2.490729E-008	0.0052235	7
	22	31	6328.125	2978.157	-450.0199	1	3011.965	-8.592777	-1.424023E-008	0.0052352	7
	23	33	5015.625	3009.617	-522.6417	1	3054.66	-9.85158	-7.459629E-009	0.0052811	7
	24	34	3984.375	3043.501	-612.7102	1	3104.563	-11.3825	-3.185622E-009	0.0052643	7
	25	35	3170.956	3081.134	-717.5209	1	3163.578	-13.10915	-5.493796E-008	0.0053377	7
	26	37	2527.573	3121.988	-848.0207	1	3235.111	-15.1965	-3.326937E-008	0.0052872	7
	27	38	1976.103	3171.211	-1025.083	1	3332.772	-17.91325	-3.285618E-009	0.0052067	7
	28	39	1577.524	3225.143	-1225.919	1	3450.279	-20.81244	1.069356E-007	0.0050863	7
	29	41	1265.625	3278.848	-1462.158	1	3590.091	-24.03384	-1.727086E-010	0.005261	7
	30	42	998.264	3348.144	-1779.312	1	3791.572	-27.98761	-2.823383E-008	0.0052592	7
	31	44	796.875	3426.513	-2151.46	1	4045.957	-32.12414	-1.550289E-008	0.0052359	7
	32	45	627.7902	3524.319	-2639.602	1	4403.217	-36.83203	-3.330046E-008	0.0053165	7
	33	46	505.5147	3631.855	-3181.563	1	4828.324	-41.21888	-1.434338E-008	0.0052311	7
	34	48	397.9953	3777.871	-3919.36	1	5443.683	-46.05308	5.925616E-009	0.0052627	7
	35	49	315.5048	3957.096	-4806.524	1	6225.856	-50.5362	5.464095E-009	0.0052659	7
	36	50	252.4038	4173.88	-5850.306	1	7186.609	-54.49417	5.198114E-009	0.0052663	7
	37	52	198.6229	4472.677	-7227.636	1	8499.621	-58.24954	5.572765E-009	0.0052653	7
	38	53	158.3615	4838.352	-8822.218	1	10061.87	-61.2584	4.635941E-009	0.0052619	7
	39	54	125.558	5327.969	-10813.85	1	12055.15	-63.77059	7.126675E-010	0.0052019	6
	40	56	100.4464	5937.754	-13124.97	1	14405.61	-65.65794	8.823809E-010	0.0052002	6
	41	57	79.00281	6795.485	-16184.15	1	17552.93	-67.22319	9.252356E-010	0.0051989	6
	42	59	63.3446	7708.532	-19574.47	1	21037.62	-68.50521	1.161821E-009	0.0052017	6
	43	60	49.86702	9285.113	-23797.13	1	25544.41	-68.68538	4.228674E-011	0.0051969	6
	44	61	39.72458	11026.16	-28840.5	1	30876.38	-69.07738	1.071897E-009	0.0052029	6
	45	63	31.6723	13289.34	-34649.61	1	37110.67	-69.01643	6.671272E-010	0.0052034	6
	46	64	24.93351	16267.94	-41973.13	1	45015.44	-68.81467	6.03996E-011	0.0052057	6
	47	65	19.86229	19931.17	-50103.86	1	53922.62	-68.30749	1.37916E-009	0.0052086	6
	48	67	15.83615	24418.72	-59418.42	1	64240.35	-67.65919	1.149449E-009	0.0052028	6
	49	68	12.40079	30470.18	-71570.45	1	77786.64	-66.93876	3.097294E-011	0.0052063	6
	50	70	9.93114	37112.63	-83949.29	1	91786.88	-66.15055	9.882969E-010	0.0051988	6
	51	71	7.944915	44977.76	-98216.3	1	108025.2	-65.39478	2.020936E-010	0.00521	5
	52	73	6.317385	54983.77	-115139.3	1	127594.2	-64.47359	-3.742363E-010	0.0052123	5
	53	75	5.008013	67137.35	-134902.1	1	150685.1	-63.54163	-2.603319E-010	0.0052032	5
	54	77	3.945707	81936.05	-157799.4	1	177803.8	-62.55978	2.452237E-010	0.0052121	5
	55	80	3.158693	98108.8	-182247.4	1	206976.9	-61.7052	-1.150806E-011	0.0051932	5
	56	83	2.504006	117495.8	-210945.4	1	241460.6	-60.88235	3.055394E-010	0.0052129	5
	57	86	1.998082	138619.6	-242104.1	1	278979.9	-60.20619	4.757604E-010	0.0051789	5
	58	89	1.584686	163300.1	-279841.1	1	324003	-59.73448	-1.461285E-010	0.0051725	5
	59	93	1.266892	189553.8	-319473.8	1	371475.6	-59.31801	1.184918E-010	0.0051634	5
	60	97	0.999041	219958.5	-371032.7	1	431331.7	-59.33935	3.397525E-011	0.00524	5
