EXPLAIN
TAG	EISPOT
TITLE	LABEL	Potentiostatic EIS	Test &Identifier
DATE	LABEL	11/12/2019	Date
TIME	LABEL	23:34:59	Time
NOTES	NOTES	3	&Notes...
	
	
	
PSTAT	PSTAT	REF600-11020	Potentiostat
VDC	POTEN	0.00000E+000	T	DC &Voltage (V)
FREQINIT	QUANT	1.00000E+006	Initial Fre&q. (Hz)
FREQFINAL	QUANT	1.00000E+000	Final Fre&q. (Hz)
PTSPERDEC	QUANT	1.00000E+001	Points/&decade
VAC	QUANT	2.50000E+001	AC &Voltage (mV rms)
AREA	QUANT	1.00000E-002	&Area (cm^2)
CONDIT	TWOPARAM	T	5.00000E+000	0.00000E+000	Conditionin&g	Time(s)	E(V)
DELAY	TWOPARAM	T	5.00000E+000	0.00000E+000	Init. De&lay	Time(s)	Stab.(mV/s)
SPEED	SELECTOR	1	&Optimize for:
ZGUESS	QUANT	1.00000E+005	E&stimated Z (ohms)
OCVCURVE	TABLE	19
	Pt	T	Vf	Vm	Ach	Over
	#	s	V vs. Ref.	V	V	bits
	0	0.258333	5.26523E-003	5.26523E-003	5.47366E-004	...........
	1	0.516667	5.26286E-003	5.14143E-003	5.45733E-004	...........
	2	0.775	5.24831E-003	5.02229E-003	5.47166E-004	...........
	3	1.03333	5.20828E-003	4.97434E-003	5.51199E-004	...........
	4	1.29167	5.14307E-003	4.98537E-003	5.46166E-004	...........
	5	1.55	5.07273E-003	4.98080E-003	5.43399E-004	...........
	6	1.80833	5.01944E-003	4.96956E-003	5.51299E-004	...........
	7	2.06667	4.98913E-003	4.93825E-003	5.48166E-004	...........
	8	2.325	4.97265E-003	4.92284E-003	5.42366E-004	...........
	9	2.58333	4.95916E-003	4.92157E-003	5.50766E-004	...........
	10	2.84167	4.94655E-003	4.99339E-003	5.54133E-004	...........
	11	3.1	4.94211E-003	5.01826E-003	5.55433E-004	...........
	12	3.35833	4.95195E-003	4.97489E-003	5.49799E-004	...........
	13	3.61667	4.96877E-003	4.92926E-003	5.52932E-004	...........
	14	3.875	4.97702E-003	4.94616E-003	5.44966E-004	...........
	15	4.13333	4.97156E-003	4.97868E-003	5.47166E-004	...........
	16	4.39167	4.96230E-003	4.96676E-003	5.50799E-004	...........
	17	4.65	4.95919E-003	4.96821E-003	5.43099E-004	...........
	18	4.90833	4.96084E-003	4.91155E-003	5.47866E-004	...........
EOC	QUANT	0.0049608	Open Circuit (V)
PSTATMODEL	IQUANT	4	Pstat Model
PSTATSECTION	LABEL	REF600-11020	Pstat Section
PSTATSERIALNO	LABEL	11020	Pstat Serial Number
CTRLMODE	IQUANT	1	Control Mode
IESTAB	IQUANT	0	I/E Stability
CASPEED	IQUANT	1	Control Amp Speed
CONVENTION	IQUANT	1	Current Convention
ICHRANGE	IQUANT	2	Ich Range
ICHRANGEMODE	TOGGLE	F	Ich Auto Range
ICHOFFSETENABLE	TOGGLE	T	Ich Offset Enable
ICHOFFSET	QUANT	0	Ich Offset (V)
ICHFILTER	IQUANT	3	Ich Filter
VCHRANGE	IQUANT	2	Vch Range
VCHRANGEMODE	TOGGLE	F	Vch Auto Range
VCHOFFSETENABLE	TOGGLE	T	Vch Offset Enable
VCHOFFSET	QUANT	0	Vch Offset (V)
VCHFILTER	IQUANT	3	Vch Filter
ACHRANGE	IQUANT	2	Ach Range
ACHOFFSETENABLE	TOGGLE	F	Ach Offset Enable
ACHOFFSET	QUANT	0	Ach Offset (V)
ACHFILTER	IQUANT	3	Ach Filter
IERANGELOWERLIMIT	IQUANT	1	I/E Range Lower Limit
IERANGEMODE	TOGGLE	F	I/E AutoRange
IERANGE	IQUANT	4	I/E Range
POSFEEDENABLE	TOGGLE	F	Positive Feedback IR Comp
POSFEEDRESISTANCE	QUANT	0	Positive Feedback Resistance (ohm)
ACHSELECT	IQUANT	0	Ach Select
CABLEID	IQUANT	14	Cable ID
DCCALDATE	LABEL	8/19/2019	DC Calibration Date
ACCALDATE	LABEL	8/19/2019	AC Calibration Date
THERMOSELECT	IQUANT	1	Thermo Select
FRAMEWORKVERSION	QUANT	6.33	Framework Version
INSTRUMENTVERSION	LABEL	3.50	Instrument Version
ZCURVE	TABLE
	Pt	Time	Freq	Zreal	Zimag	Zsig	Zmod	Zphz	Idc	Vdc	IERange
	#	s	Hz	ohm	ohm	V	ohm	°	A	V	#
	0	1	1000078	2283.466	-1742.122	1	2872.144	-37.34105	-3.632711E-006	0.0080191	8
	1	3	794390.6	2652.67	-1670.645	1	3134.919	-32.20263	3.745322E-006	0.0063852	8
	2	4	630984.4	2959.161	-1558.192	1	3344.338	-27.76974	-3.607259E-006	0.0073318	8
	3	5	501234.4	3257.171	-1407.9	1	3548.428	-23.37623	2.571882E-006	0.0061956	8
	4	7	398109.4	3437.911	-1258.613	1	3661.057	-20.10759	-2.236503E-006	0.006745	8
	5	8	316265.6	3614.743	-1098.076	1	3777.848	-16.89758	-1.311001E-006	0.0063605	8
	6	10	251203.1	3738.372	-953.753	1	3858.117	-14.31228	7.183757E-007	0.0068944	8
	7	11	199546.9	3839.586	-839.3404	1	3930.257	-12.33098	-5.163492E-006	0.0073028	8
	8	12	158578.1	3912.761	-733.4201	1	3980.905	-10.61651	-2.815193E-007	0.0069633	8
	9	14	125953.1	3992.791	-612.398	1	4039.482	-8.719841	-2.567219E-006	0.0086188	7
	10	15	100078.1	4047.086	-556.4577	1	4085.163	-7.828845	1.217736E-007	0.0052387	7
	11	16	79453.13	4086.374	-523.9449	1	4119.826	-7.30646	9.982962E-007	0.0051793	7
	12	18	63140.62	4126.844	-505.0181	1	4157.629	-6.97682	5.521119E-007	0.0067133	7
	13	19	50203.12	4168.173	-496.6586	1	4197.658	-6.795041	-5.808002E-007	0.0079747	7
	14	21	39890.62	4210.325	-502.8334	1	4240.245	-6.810501	-1.011551E-006	0.0079886	7
	15	22	31640.63	4256.698	-522.401	1	4288.634	-6.996608	-5.818457E-007	0.0079724	7
	16	23	25171.88	4305.622	-553.9941	1	4341.116	-7.331828	-2.688624E-007	0.0056945	7
	17	25	20015.62	4359.917	-598.1793	1	4400.76	-7.81219	7.261153E-007	0.004867	7
	18	26	15890.62	4416.344	-651.6369	1	4464.16	-8.393499	7.270327E-007	0.0048671	7
	19	27	12609.37	4479.994	-722.2082	1	4537.833	-9.157716	4.598713E-007	0.0049544	7
	20	29	10078.13	4542.517	-805.8236	1	4613.438	-10.05938	-8.32161E-007	0.0080344	7
	21	30	8015.625	4615.59	-907.9177	1	4704.039	-11.12839	5.544013E-007	0.0066984	7
	22	32	6328.125	4688.868	-1034.273	1	4801.583	-12.43914	-8.30178E-007	0.008039	7
	23	33	5015.625	4774.341	-1187.875	1	4919.896	-13.97172	-5.797798E-007	0.0079669	7
	24	34	3984.375	4867.606	-1371.336	1	5057.089	-15.73396	3.498125E-007	0.0069977	7
	25	36	3170.956	4964.832	-1596.595	1	5215.234	-17.8268	-8.302187E-007	0.0080399	7
	26	37	2527.573	5077.874	-1869.657	1	5411.138	-20.21355	1.001207E-006	0.0051616	7
	27	38	1976.103	5205.357	-2229.886	1	5662.874	-23.18947	9.07751E-007	0.0049396	7
	28	40	1577.524	5347.584	-2640.976	1	5964.177	-26.28308	1.230128E-007	0.005215	7
	29	41	1265.625	5487.882	-3109.343	1	6307.525	-29.53517	-5.806971E-007	0.0079689	7
	30	43	998.264	5673.462	-3742.124	1	6796.445	-33.4082	5.983743E-008	0.0073906	7
	31	44	796.875	5872.833	-4475.516	1	7383.793	-37.30997	-9.587981E-007	0.0069493	7
	32	45	627.7902	6123.92	-5417.427	1	8176.241	-41.49706	-1.126012E-006	0.0078234	7
	33	47	505.5147	6371.068	-6481.417	1	9088.414	-45.49192	1.176492E-007	0.0052141	7
	34	48	397.9953	6713.57	-7888.941	1	10358.93	-49.60188	4.667866E-010	0.0064564	6
	35	50	315.5048	7090.969	-9590.02	1	11926.87	-53.52036	8.995683E-010	0.0064614	6
	36	51	252.4038	7521.359	-11593.29	1	13819.38	-57.02576	7.664437E-010	0.0064587	6
	37	52	198.6229	8077.43	-14246.4	1	16376.96	-60.44761	8.107681E-010	0.0064581	6
	38	54	158.3615	8725.896	-17346.91	1	19417.95	-63.29655	7.276606E-010	0.0064614	6
	39	55	125.558	9561.73	-21243.23	1	23295.95	-65.76716	1.109102E-009	0.0064544	6
	40	56	100.4464	10594.79	-25851.33	1	27938.16	-67.71445	-1.651159E-010	0.0064488	6
	41	58	79.00281	12027.92	-31856.24	1	34051.3	-69.31503	-6.957337E-012	0.0064514	6
	42	59	63.3446	14047.32	-38584.68	1	41062.2	-69.99522	4.491985E-010	0.0064577	6
	43	61	49.86702	16327.31	-47889.55	1	50596.35	-71.17387	8.837107E-011	0.0064543	6
	44	62	39.72458	19280.46	-58049.98	1	61168.1	-71.62684	9.966888E-010	0.0064547	6
	45	63	31.6723	23100.81	-70426.14	1	74118.07	-71.83974	4.65652E-010	0.0064582	6
	46	65	24.93351	28846.97	-86104.06	1	90807.8	-71.47789	2.347439E-010	0.0064546	6
	47	66	19.86229	35880.87	-103665	1	109698.9	-70.90807	8.073574E-010	0.0064481	5
	48	67	15.83615	44208.76	-123736.5	1	131396.8	-70.33913	-5.346094E-010	0.0064543	5
	49	69	12.40079	57336.78	-151156.3	1	161665.5	-69.22721	7.453042E-010	0.006461	5
	50	70	9.93114	72396.8	-178668.8	1	192779.3	-67.94215	-6.399557E-011	0.0064689	5
	51	72	7.944915	91469.06	-209505.7	1	228602.7	-66.41417	9.765942E-010	0.0064652	5
	52	74	6.317385	115892.3	-247292.7	1	273102	-64.89014	1.512725E-010	0.006478	5
	53	76	5.008013	146764.2	-288740.3	1	323899.2	-63.05616	1.613248E-010	0.0064638	5
	54	78	3.945707	184853.9	-334926.3	1	382552.7	-61.10464	4.111352E-010	0.0064628	5
	55	81	3.158693	227642	-381169.8	1	443972.2	-59.15353	-2.61439E-011	0.0064534	5
	56	84	2.504006	278877.6	-432397	1	514528.8	-57.17971	4.19927E-010	0.0064565	5
	57	87	1.998082	334892.8	-484334.8	1	588840.7	-55.33812	-1.049648E-010	0.0065053	5
	58	90	1.584686	396073.4	-542126.1	1	671397.8	-53.8484	2.363142E-010	0.0064625	5
	59	94	1.266892	463422.3	-601466.4	1	759290.6	-52.3862	-1.27186E-012	0.0065074	5
	60	98	0.999041	537485.7	-671118.3	1	859820.1	-51.30944	2.618403E-011	0.0064255	5
