EXPLAIN
TAG	EISPOT
TITLE	LABEL	Potentiostatic EIS	Test &Identifier
DATE	LABEL	11/22/2019	Date
TIME	LABEL	0:06:21	Time
NOTES	NOTES	4	&Notes...
	
	
	
	
PSTAT	PSTAT	REF600-11020	Potentiostat
VDC	POTEN	0.00000E+000	T	DC &Voltage (V)
FREQINIT	QUANT	1.00000E+006	Initial Fre&q. (Hz)
FREQFINAL	QUANT	1.00000E+000	Final Fre&q. (Hz)
PTSPERDEC	QUANT	1.00000E+001	Points/&decade
VAC	QUANT	2.50000E+001	AC &Voltage (mV rms)
AREA	QUANT	1.00000E-002	&Area (cm^2)
CONDIT	TWOPARAM	T	5.00000E+000	0.00000E+000	Conditionin&g	Time(s)	E(V)
DELAY	TWOPARAM	T	5.00000E+000	0.00000E+000	Init. De&lay	Time(s)	Stab.(mV/s)
SPEED	SELECTOR	1	&Optimize for:
ZGUESS	QUANT	1.00000E+005	E&stimated Z (ohms)
OCVCURVE	TABLE	19
	Pt	T	Vf	Vm	Ach	Over
	#	s	V vs. Ref.	V	V	bits
	0	0.258333	5.67172E-003	5.67172E-003	5.46433E-004	...........
	1	0.516667	5.67100E-003	5.63415E-003	5.44033E-004	...........
	2	0.775	5.66655E-003	5.59608E-003	5.37899E-004	...........
	3	1.03333	5.65391E-003	5.56560E-003	5.36566E-004	...........
	4	1.29167	5.63168E-003	5.54607E-003	5.35266E-004	...........
	5	1.55	5.60379E-003	5.53242E-003	5.30433E-004	...........
	6	1.80833	5.57634E-003	5.52070E-003	5.30166E-004	...........
	7	2.06667	5.55365E-003	5.52101E-003	5.40133E-004	...........
	8	2.325	5.53733E-003	5.52076E-003	5.42633E-004	...........
	9	2.58333	5.52737E-003	5.52433E-003	5.32233E-004	...........
	10	2.84167	5.52284E-003	5.52766E-003	5.30966E-004	...........
	11	3.1	5.52236E-003	5.53564E-003	5.45033E-004	...........
	12	3.35833	5.52372E-003	5.48944E-003	5.46099E-004	...........
	13	3.61667	5.52147E-003	5.42132E-003	5.44133E-004	...........
	14	3.875	5.50691E-003	5.35948E-003	5.46399E-004	...........
	15	4.13333	5.47331E-003	5.25242E-003	5.50033E-004	...........
	16	4.39167	5.41920E-003	5.15980E-003	5.47233E-004	...........
	17	4.65	5.34801E-003	5.12247E-003	5.39699E-004	...........
	18	4.90833	5.26898E-003	5.06887E-003	5.47933E-004	...........
EOC	QUANT	0.005269	Open Circuit (V)
PSTATMODEL	IQUANT	4	Pstat Model
PSTATSECTION	LABEL	REF600-11020	Pstat Section
PSTATSERIALNO	LABEL	11020	Pstat Serial Number
CTRLMODE	IQUANT	1	Control Mode
IESTAB	IQUANT	0	I/E Stability
CASPEED	IQUANT	1	Control Amp Speed
CONVENTION	IQUANT	1	Current Convention
ICHRANGE	IQUANT	2	Ich Range
ICHRANGEMODE	TOGGLE	F	Ich Auto Range
ICHOFFSETENABLE	TOGGLE	T	Ich Offset Enable
ICHOFFSET	QUANT	0	Ich Offset (V)
ICHFILTER	IQUANT	3	Ich Filter
VCHRANGE	IQUANT	2	Vch Range
VCHRANGEMODE	TOGGLE	F	Vch Auto Range
VCHOFFSETENABLE	TOGGLE	T	Vch Offset Enable
VCHOFFSET	QUANT	0	Vch Offset (V)
VCHFILTER	IQUANT	3	Vch Filter
ACHRANGE	IQUANT	2	Ach Range
ACHOFFSETENABLE	TOGGLE	F	Ach Offset Enable
ACHOFFSET	QUANT	0	Ach Offset (V)
ACHFILTER	IQUANT	3	Ach Filter
IERANGELOWERLIMIT	IQUANT	1	I/E Range Lower Limit
IERANGEMODE	TOGGLE	F	I/E AutoRange
IERANGE	IQUANT	4	I/E Range
POSFEEDENABLE	TOGGLE	F	Positive Feedback IR Comp
POSFEEDRESISTANCE	QUANT	0	Positive Feedback Resistance (ohm)
ACHSELECT	IQUANT	0	Ach Select
CABLEID	IQUANT	14	Cable ID
DCCALDATE	LABEL	8/19/2019	DC Calibration Date
ACCALDATE	LABEL	8/19/2019	AC Calibration Date
THERMOSELECT	IQUANT	1	Thermo Select
FRAMEWORKVERSION	QUANT	6.33	Framework Version
INSTRUMENTVERSION	LABEL	3.50	Instrument Version
ZCURVE	TABLE
	Pt	Time	Freq	Zreal	Zimag	Zsig	Zmod	Zphz	Idc	Vdc	IERange
	#	s	Hz	ohm	ohm	V	ohm	°	A	V	#
	0	2	1000078	2001.112	-1610.757	1	2568.85	-38.83167	1.101015E-005	0.0063065	8
	1	3	794390.6	2242.956	-1702.034	1	2815.629	-37.1925	-6.652975E-006	0.0073471	8
	2	4	630984.4	2504.807	-1780.328	1	3073.048	-35.40387	-5.627608E-006	0.008025	8
	3	6	501234.4	2789.629	-1852.904	1	3348.923	-33.59257	4.18187E-007	0.0073853	8
	4	7	398109.4	3085.135	-1911.713	1	3629.422	-31.78455	-1.457664E-006	0.0072547	8
	5	8	316265.6	3395.568	-1991.573	1	3936.527	-30.39253	-4.491117E-006	0.0071441	8
	6	10	251203.1	3733.162	-2049.593	1	4258.794	-28.76781	2.345218E-006	0.0063098	8
	7	11	199546.9	4107.041	-2056.183	1	4593.003	-26.59476	-1.378109E-006	0.0071764	8
	8	13	158578.1	4503.193	-2070.44	1	4956.357	-24.69163	-1.479759E-006	0.0065661	8
	9	14	125953.1	4919.767	-1991.385	1	5307.515	-22.03673	1.471989E-006	0.0080373	7
	10	15	100078.1	5253.077	-1863.822	1	5573.926	-19.53497	6.894869E-007	0.0069142	7
	11	17	79453.13	5559.048	-1743.925	1	5826.172	-17.41712	-2.700939E-007	0.0081697	7
	12	18	63140.62	5817.619	-1582.729	1	6029.073	-15.21941	-1.153521E-006	0.0085015	7
	13	19	50203.12	6037.037	-1417.033	1	6201.113	-13.20952	-1.140282E-006	0.0073663	7
	14	21	39890.62	6242.894	-1265.835	1	6369.935	-11.46214	4.715814E-007	0.0050019	7
	15	23	31640.63	6404.398	-1132.024	1	6503.675	-10.02391	1.027683E-006	0.0049182	7
	16	25	25171.88	6498.055	-1010.432	1	6576.146	-8.83857	4.723722E-007	0.005001	7
	17	26	20015.62	6620.067	-930.1858	1	6685.098	-7.998269	1.10845E-006	0.0059158	7
	18	28	15890.62	6690.352	-861.5723	1	6745.6	-7.338068	1.187485E-006	0.0054747	7
	19	30	12609.37	6735.091	-822.8554	1	6785.171	-6.965554	1.166034E-007	0.0077356	7
	20	31	10078.13	6759.829	-801.9294	1	6807.23	-6.765471	-1.154796E-006	0.0084957	7
	21	33	8015.625	6798.282	-817.9009	1	6847.306	-6.860279	-8.211758E-007	0.0066468	7
	22	34	6328.125	6899.821	-872.433	1	6954.758	-7.206399	6.942665E-007	0.0068979	7
	23	36	5015.625	6946.548	-951.351	1	7011.391	-7.798321	1.110609E-006	0.0059107	7
	24	38	3984.375	6984.94	-1066.453	1	7065.883	-8.680815	4.614705E-007	0.0072598	7
	25	39	3170.956	7012.337	-1212.154	1	7116.333	-9.80724	4.670679E-007	0.0049963	7
	26	41	2527.573	7090.477	-1411.75	1	7229.654	-11.26063	1.025202E-006	0.0049154	7
	27	43	1976.103	7121.48	-1679.424	1	7316.826	-13.26935	-1.307969E-006	0.0079487	7
	28	44	1577.524	7193.726	-1992.32	1	7464.518	-15.4802	-8.134585E-007	0.0066396	7
	29	46	1265.625	7282.427	-2362.849	1	7656.161	-17.97612	-1.144293E-006	0.0073515	7
	30	47	998.264	7403.417	-2871.328	1	7940.724	-21.19819	-1.303116E-006	0.0083277	7
	31	49	796.875	7555.515	-3472.566	1	8315.318	-24.68383	-6.270691E-007	0.0084266	7
	32	50	627.7902	7686.163	-4231.063	1	8773.768	-28.83181	6.954063E-008	0.0053335	7
	33	52	505.5147	7872.482	-5096.066	1	9377.945	-32.91605	4.69011E-007	0.0049857	7
	34	53	397.9953	8095.208	-6269.696	1	10239.21	-37.7576	3.94064E-009	0.0067565	7
	35	54	315.5048	8358.197	-7673.373	1	11346.37	-42.55397	7.956413E-010	0.0066885	6
	36	56	252.4038	8663.428	-9334.911	1	12735.6	-47.1366	1.906784E-009	0.0066881	6
	37	57	198.6229	9073.982	-11537.71	1	14678.42	-51.81626	7.851862E-010	0.0066955	6
	38	59	158.3615	9558.69	-14105.74	1	17039.38	-55.87665	2.992662E-010	0.0066934	6
	39	60	125.558	10202.67	-17347.33	1	20125.22	-59.53848	1.295941E-009	0.0066979	6
	40	61	100.4464	10991.66	-21142.83	1	23829.3	-62.53115	1.795644E-009	0.0066923	6
	41	63	79.00281	12132.83	-26230.66	1	28900.75	-65.1774	1.37187E-009	0.0066846	6
	42	64	63.3446	13197.71	-31976.54	1	34593.05	-67.57254	8.329943E-010	0.0066891	6
	43	66	49.86702	15369.41	-39113	1	42024.34	-68.54771	1.537776E-009	0.0066876	6
	44	67	39.72458	17759.98	-47946.91	1	51130.45	-69.6749	1.272506E-009	0.006682	6
	45	68	31.6723	20960.76	-58530.46	1	62170.47	-70.29668	2.775679E-010	0.0066807	6
	46	70	24.93351	25374.17	-71615.16	1	75977.5	-70.49011	9.479906E-010	0.0066851	6
	47	71	19.86229	31089.1	-86638.96	1	92048.04	-70.26023	5.997819E-010	0.0066803	6
	48	72	15.83615	38602.93	-103367.5	1	110340.5	-69.5217	1.254677E-009	0.0066911	5
	49	74	12.40079	48679.56	-126002.3	1	135078.7	-68.87652	8.766128E-010	0.0066845	5
	50	75	9.93114	61761.89	-150514.5	1	162693.4	-67.68977	6.068627E-010	0.0066872	5
	51	77	7.944915	77621.71	-177743.8	1	193953.6	-66.40884	2.860588E-010	0.0066927	5
	52	79	6.317385	98481	-207330	1	229530.5	-64.59246	6.469822E-010	0.006683	5
	53	81	5.008013	124237.1	-241762.5	1	271816.1	-62.80224	3.410137E-010	0.0066901	5
	54	83	3.945707	155768.7	-279449.3	1	319930.9	-60.86413	-1.198565E-010	0.006685	5
	55	86	3.158693	189640.3	-317248	1	369607.5	-59.13043	3.922101E-010	0.0067059	5
	56	89	2.504006	229693.7	-360375.7	1	427352.1	-57.48767	-2.112897E-010	0.00668	5
	57	92	1.998082	272066.7	-405260.2	1	488114.8	-56.12502	-1.681906E-010	0.0066775	5
	58	95	1.584686	320146.7	-455249.1	1	556547.9	-54.8838	1.204732E-010	0.0067473	5
	59	99	1.266892	367675.4	-511351.9	1	629814.3	-54.28288	-1.418224E-010	0.0067043	5
	60	103	0.999041	422939.4	-580404.6	1	718155.4	-53.91927	3.518753E-010	0.0067097	5
