EXPLAIN
TAG	EISPOT
TITLE	LABEL	Potentiostatic EIS	Test &Identifier
DATE	LABEL	10/14/2019	Date
TIME	LABEL	10:01:51	Time
NOTES	NOTES	1	&Notes...
	
PSTAT	PSTAT	REF600-11020	Potentiostat
VDC	POTEN	0.00000E+000	T	DC &Voltage (V)
FREQINIT	QUANT	1.00000E+006	Initial Fre&q. (Hz)
FREQFINAL	QUANT	1.00000E+000	Final Fre&q. (Hz)
PTSPERDEC	QUANT	1.00000E+001	Points/&decade
VAC	QUANT	2.50000E+001	AC &Voltage (mV rms)
AREA	QUANT	1.00000E-002	&Area (cm^2)
CONDIT	TWOPARAM	T	5.00000E+000	0.00000E+000	Conditionin&g	Time(s)	E(V)
DELAY	TWOPARAM	T	5.00000E+000	0.00000E+000	Init. De&lay	Time(s)	Stab.(mV/s)
SPEED	SELECTOR	1	&Optimize for:
ZGUESS	QUANT	1.00000E+004	E&stimated Z (ohms)
OCVCURVE	TABLE	19
	Pt	T	Vf	Vm	Ach	Over
	#	s	V vs. Ref.	V	V	bits
	0	0.258333	6.00146E-003	6.00146E-003	5.18700E-004	...........
	1	0.516667	5.99844E-003	5.84309E-003	5.15033E-004	...........
	2	0.775	5.98006E-003	5.70351E-003	5.16200E-004	...........
	3	1.03333	5.92920E-003	5.59352E-003	5.18600E-004	...........
	4	1.29167	5.84155E-003	5.49081E-003	5.20666E-004	...........
	5	1.55	5.73118E-003	5.39919E-003	5.12333E-004	...........
	6	1.80833	5.61669E-003	5.31083E-003	5.20500E-004	...........
	7	2.06667	5.50947E-003	5.24869E-003	5.15866E-004	...........
	8	2.325	5.41409E-003	5.20415E-003	5.22500E-004	...........
	9	2.58333	5.33220E-003	5.13563E-003	5.18933E-004	...........
	10	2.84167	5.26266E-003	5.08578E-003	5.12900E-004	...........
	11	3.1	5.20171E-003	5.04751E-003	5.15833E-004	...........
	12	3.35833	5.14642E-003	5.00054E-003	5.17066E-004	...........
	13	3.61667	5.09571E-003	4.94891E-003	5.15966E-004	...........
	14	3.875	5.04817E-003	4.91131E-003	5.13867E-004	...........
	15	4.13333	5.00201E-003	4.85731E-003	5.17133E-004	...........
	16	4.39167	4.95650E-003	4.83237E-003	5.14333E-004	...........
	17	4.65	4.91192E-003	4.76952E-003	5.18666E-004	...........
	18	4.90833	4.86745E-003	4.69580E-003	5.12100E-004	...........
EOC	QUANT	0.0048675	Open Circuit (V)
PSTATMODEL	IQUANT	4	Pstat Model
PSTATSECTION	LABEL	REF600-11020	Pstat Section
PSTATSERIALNO	LABEL	11020	Pstat Serial Number
CTRLMODE	IQUANT	1	Control Mode
IESTAB	IQUANT	0	I/E Stability
CASPEED	IQUANT	1	Control Amp Speed
CONVENTION	IQUANT	1	Current Convention
ICHRANGE	IQUANT	2	Ich Range
ICHRANGEMODE	TOGGLE	F	Ich Auto Range
ICHOFFSETENABLE	TOGGLE	T	Ich Offset Enable
ICHOFFSET	QUANT	0	Ich Offset (V)
ICHFILTER	IQUANT	3	Ich Filter
VCHRANGE	IQUANT	2	Vch Range
VCHRANGEMODE	TOGGLE	F	Vch Auto Range
VCHOFFSETENABLE	TOGGLE	T	Vch Offset Enable
VCHOFFSET	QUANT	0	Vch Offset (V)
VCHFILTER	IQUANT	3	Vch Filter
ACHRANGE	IQUANT	2	Ach Range
ACHOFFSETENABLE	TOGGLE	F	Ach Offset Enable
ACHOFFSET	QUANT	0	Ach Offset (V)
ACHFILTER	IQUANT	3	Ach Filter
IERANGELOWERLIMIT	IQUANT	1	I/E Range Lower Limit
IERANGEMODE	TOGGLE	F	I/E AutoRange
IERANGE	IQUANT	5	I/E Range
POSFEEDENABLE	TOGGLE	F	Positive Feedback IR Comp
POSFEEDRESISTANCE	QUANT	0	Positive Feedback Resistance (ohm)
ACHSELECT	IQUANT	0	Ach Select
CABLEID	IQUANT	14	Cable ID
DCCALDATE	LABEL	8/19/2019	DC Calibration Date
ACCALDATE	LABEL	8/19/2019	AC Calibration Date
THERMOSELECT	IQUANT	1	Thermo Select
FRAMEWORKVERSION	QUANT	6.33	Framework Version
INSTRUMENTVERSION	LABEL	3.50	Instrument Version
ZCURVE	TABLE
	Pt	Time	Freq	Zreal	Zimag	Zsig	Zmod	Zphz	Idc	Vdc	IERange
	#	s	Hz	ohm	ohm	V	ohm	°	A	V	#
	0	1	1000078	2483.596	-1662.191	1	2988.499	-33.79313	6.264954E-006	0.0059755	8
	1	3	794390.6	2800.336	-1535.544	1	3193.709	-28.73785	-1.379752E-006	0.0064911	8
	2	4	630984.4	3093.004	-1398.383	1	3394.43	-24.32828	5.824241E-008	0.0066702	8
	3	6	501234.4	3333.277	-1260.798	1	3563.755	-20.71892	6.824538E-007	0.0062699	8
	4	7	398109.4	3482.403	-1087.965	1	3648.396	-17.34974	-7.607247E-007	0.0065344	8
	5	8	316265.6	3632.04	-944.2635	1	3752.778	-14.57323	-2.820108E-006	0.006967	8
	6	10	251203.1	3731.845	-803.4564	1	3817.356	-12.15016	1.024907E-006	0.006334	8
	7	11	199546.9	3804.592	-696.1128	1	3867.751	-10.36852	1.036616E-006	0.0060625	8
	8	13	158578.1	3868.948	-604.3411	1	3915.864	-8.878026	-2.449186E-007	0.006332	8
	9	14	125953.1	3923.002	-482.1088	1	3952.515	-7.006112	-8.143469E-007	0.0079942	7
	10	15	100078.1	3949.013	-438.0561	1	3973.235	-6.329827	-6.900176E-009	0.0062751	7
	11	17	79453.13	3981.345	-409.1543	1	4002.314	-5.867566	4.060317E-008	0.0062742	7
	12	18	63140.62	4012.821	-391.7116	1	4031.894	-5.575265	7.788167E-008	0.0061468	7
	13	19	50203.12	4042.259	-384.0918	1	4060.466	-5.427896	8.170566E-008	0.0062564	7
	14	21	39890.62	4071.795	-387.7632	1	4090.217	-5.439958	-5.260956E-008	0.0064694	7
	15	22	31640.63	4105.512	-402.0815	1	4125.154	-5.593539	-4.809266E-009	0.0062571	7
	16	23	25171.88	4139.237	-424.594	1	4160.958	-5.856791	-6.33266E-008	0.0064098	7
	17	25	20015.62	4178.137	-455.4687	1	4202.889	-6.221384	-3.21114E-008	0.0063224	7
	18	26	15890.62	4212.213	-503.9589	1	4242.253	-6.82257	4.198149E-008	0.0062629	7
	19	28	12609.37	4255.753	-562.2345	1	4292.731	-7.525856	-4.149238E-008	0.0063933	7
	20	29	10078.13	4299.403	-634.1748	1	4345.923	-8.390794	-5.433946E-008	0.0064689	7
	21	30	8015.625	4348.283	-713.2668	1	4406.395	-9.315504	-7.327481E-008	0.006425	7
	22	32	6328.125	4398.573	-835.5255	1	4477.226	-10.75541	-1.459809E-008	0.0064438	7
	23	33	5015.625	4455.074	-973.685	1	4560.236	-12.3285	1.331955E-007	0.0061045	7
	24	34	3984.375	4522.275	-1150.562	1	4666.344	-14.2744	4.108606E-008	0.0061683	7
	25	36	3170.956	4581.558	-1352.515	1	4777.025	-16.44705	1.349011E-008	0.0062262	7
	26	37	2527.573	4655.428	-1608.18	1	4925.369	-19.05706	4.140328E-008	0.0061707	7
	27	38	1976.103	4749.863	-1948.552	1	5134.009	-22.30508	-3.958432E-008	0.0063235	7
	28	40	1577.524	4850.119	-2307.544	1	5371.072	-25.44373	6.749279E-008	0.0062006	7
	29	41	1265.625	4958.53	-2794.281	1	5691.663	-29.40257	-2.102635E-009	0.0063372	7
	30	43	998.264	5101.397	-3402.412	1	6131.938	-33.70158	-1.185485E-008	0.0063516	7
	31	44	796.875	5256.005	-4106.084	1	6669.747	-37.99759	-5.372392E-008	0.0064645	7
	32	45	627.7902	5452.449	-5016.752	1	7409.251	-42.6169	6.343129E-008	0.0062011	7
	33	47	505.5147	5659.617	-6041.484	1	8278.333	-46.86919	-1.273239E-008	0.0064453	7
	34	48	397.9953	5934.776	-7418.749	1	9500.5	-51.34124	5.375748E-009	0.006311	7
	35	49	315.5048	6258.404	-9080.205	1	11028.04	-55.42399	2.083876E-010	0.0062537	6
	36	51	252.4038	6635.448	-11046.84	1	12886.5	-59.00824	1.544247E-009	0.0062495	6
	37	52	198.6229	7143.872	-13650.82	1	15407.14	-62.37563	1.239922E-009	0.006251	6
	38	53	158.3615	7752.906	-16689.02	1	18401.93	-65.08271	1.327259E-010	0.0062446	6
	39	55	125.558	8560.659	-20517.42	1	22231.72	-67.35222	9.662025E-010	0.0062502	6
	40	56	100.4464	9560.99	-24987.64	1	26754.34	-69.06171	1.631536E-009	0.0062473	6
	41	58	79.00281	11041.67	-30987.12	1	32895.59	-70.38744	-2.338051E-010	0.0062461	6
	42	59	63.3446	12549.59	-37904.25	1	39927.74	-71.68098	1.198667E-009	0.0062428	6
	43	60	49.86702	15135.67	-45979.36	1	48406.51	-71.77927	5.017045E-010	0.0062412	6
	44	62	39.72458	18443.32	-56127.3	1	59079.86	-71.80958	1.048649E-009	0.0062481	6
	45	63	31.6723	22703.91	-67876.98	1	71573.41	-71.50562	1.397286E-010	0.0062428	6
	46	65	24.93351	28468.1	-82957.91	1	87706.59	-71.05967	2.346194E-010	0.0062414	6
	47	66	19.86229	35893.17	-99729.5	1	105991.9	-70.20592	5.0641E-010	0.0062499	5
	48	68	15.83615	46010.71	-118706.4	1	127311.5	-68.81363	1.311551E-009	0.0062494	5
	49	69	12.40079	57912.36	-143368.2	1	154623	-68.00417	1.015289E-009	0.0062497	5
	50	70	9.93114	72674.07	-167520.4	1	182605.1	-66.54773	-2.597586E-010	0.0062543	5
	51	72	7.944915	90758.22	-196147.3	1	216126.9	-65.16982	5.961227E-010	0.0062515	5
	52	74	6.317385	113331.8	-228222.6	1	254813	-63.59171	1.158974E-010	0.0062602	5
	53	76	5.008013	140285.7	-264372.1	1	299286.9	-62.04791	1.680694E-010	0.0062366	5
	54	78	3.945707	172207.2	-305183.1	1	350416.9	-60.56505	4.585258E-010	0.0062517	5
	55	81	3.158693	206512.9	-347740.1	1	404438.8	-59.29513	-8.417621E-011	0.0062365	5
	56	84	2.504006	246105.9	-396780.3	1	466907.6	-58.19044	4.993511E-010	0.0062464	5
	57	87	1.998082	288870.7	-450387.9	1	535065.9	-57.32462	3.005095E-010	0.0062719	5
	58	90	1.584686	337600.8	-511810.5	1	613126.7	-56.59032	1.035489E-010	0.0061974	5
	59	94	1.266892	387029.5	-581980.8	1	698923.1	-56.37526	2.455848E-010	0.0062475	5
	60	98	0.999041	447136.6	-669800.4	1	805334.5	-56.27424	-1.285712E-010	0.0062271	5
