EXPLAIN
TAG	EISPOT
TITLE	LABEL	Potentiostatic EIS	Test &Identifier
DATE	LABEL	10/28/2019	Date
TIME	LABEL	11:04:25	Time
NOTES	NOTES	1	&Notes...
	
PSTAT	PSTAT	REF600-11020	Potentiostat
VDC	POTEN	0.00000E+000	T	DC &Voltage (V)
FREQINIT	QUANT	1.00000E+006	Initial Fre&q. (Hz)
FREQFINAL	QUANT	1.00000E+000	Final Fre&q. (Hz)
PTSPERDEC	QUANT	1.00000E+001	Points/&decade
VAC	QUANT	2.50000E+001	AC &Voltage (mV rms)
AREA	QUANT	1.00000E-002	&Area (cm^2)
CONDIT	TWOPARAM	T	5.00000E+000	0.00000E+000	Conditionin&g	Time(s)	E(V)
DELAY	TWOPARAM	T	5.00000E+000	0.00000E+000	Init. De&lay	Time(s)	Stab.(mV/s)
SPEED	SELECTOR	1	&Optimize for:
ZGUESS	QUANT	1.00000E+005	E&stimated Z (ohms)
OCVCURVE	TABLE	19
	Pt	T	Vf	Vm	Ach	Over
	#	s	V vs. Ref.	V	V	bits
	0	0.258333	1.06572E-002	1.06572E-002	5.51499E-004	...........
	1	0.516667	1.06596E-002	1.07832E-002	5.56599E-004	...........
	2	0.775	1.06709E-002	1.07222E-002	5.53899E-004	...........
	3	1.03333	1.06898E-002	1.05756E-002	5.48699E-004	...........
	4	1.29167	1.06965E-002	1.05568E-002	5.50833E-004	...........
	5	1.55	1.06739E-002	1.05750E-002	5.46266E-004	...........
	6	1.80833	1.06332E-002	1.06085E-002	5.48099E-004	...........
	7	2.06667	1.06001E-002	1.05817E-002	5.45799E-004	...........
	8	2.325	1.05868E-002	1.06283E-002	5.46266E-004	...........
	9	2.58333	1.05902E-002	1.06778E-002	5.53433E-004	...........
	10	2.84167	1.06062E-002	1.07096E-002	5.48833E-004	...........
	11	3.1	1.06335E-002	1.07532E-002	5.49799E-004	...........
	12	3.35833	1.06686E-002	1.07748E-002	5.53333E-004	...........
	13	3.61667	1.07127E-002	1.11650E-002	5.51999E-004	...........
	14	3.875	1.07826E-002	1.11302E-002	5.53333E-004	...........
	15	4.13333	1.08869E-002	1.11141E-002	5.51499E-004	...........
	16	4.39167	1.09983E-002	1.11464E-002	5.49966E-004	...........
	17	4.65	1.10799E-002	1.11498E-002	5.50933E-004	...........
	18	4.90833	1.11275E-002	1.13659E-002	5.49299E-004	...........
EOC	QUANT	0.0111275	Open Circuit (V)
PSTATMODEL	IQUANT	4	Pstat Model
PSTATSECTION	LABEL	REF600-11020	Pstat Section
PSTATSERIALNO	LABEL	11020	Pstat Serial Number
CTRLMODE	IQUANT	1	Control Mode
IESTAB	IQUANT	0	I/E Stability
CASPEED	IQUANT	1	Control Amp Speed
CONVENTION	IQUANT	1	Current Convention
ICHRANGE	IQUANT	2	Ich Range
ICHRANGEMODE	TOGGLE	F	Ich Auto Range
ICHOFFSETENABLE	TOGGLE	T	Ich Offset Enable
ICHOFFSET	QUANT	0	Ich Offset (V)
ICHFILTER	IQUANT	3	Ich Filter
VCHRANGE	IQUANT	2	Vch Range
VCHRANGEMODE	TOGGLE	F	Vch Auto Range
VCHOFFSETENABLE	TOGGLE	T	Vch Offset Enable
VCHOFFSET	QUANT	0	Vch Offset (V)
VCHFILTER	IQUANT	3	Vch Filter
ACHRANGE	IQUANT	2	Ach Range
ACHOFFSETENABLE	TOGGLE	F	Ach Offset Enable
ACHOFFSET	QUANT	0	Ach Offset (V)
ACHFILTER	IQUANT	3	Ach Filter
IERANGELOWERLIMIT	IQUANT	1	I/E Range Lower Limit
IERANGEMODE	TOGGLE	F	I/E AutoRange
IERANGE	IQUANT	5	I/E Range
POSFEEDENABLE	TOGGLE	F	Positive Feedback IR Comp
POSFEEDRESISTANCE	QUANT	0	Positive Feedback Resistance (ohm)
ACHSELECT	IQUANT	0	Ach Select
CABLEID	IQUANT	14	Cable ID
DCCALDATE	LABEL	8/19/2019	DC Calibration Date
ACCALDATE	LABEL	8/19/2019	AC Calibration Date
THERMOSELECT	IQUANT	1	Thermo Select
FRAMEWORKVERSION	QUANT	6.33	Framework Version
INSTRUMENTVERSION	LABEL	3.50	Instrument Version
ZCURVE	TABLE
	Pt	Time	Freq	Zreal	Zimag	Zsig	Zmod	Zphz	Idc	Vdc	IERange
	#	s	Hz	ohm	ohm	V	ohm	°	A	V	#
	0	2	1000078	2685.958	-1771.587	1	3217.59	-33.40779	-1.468621E-008	0.0142282	8
	1	3	794390.6	3015.079	-1688.679	1	3455.768	-29.25222	-6.847356E-006	0.0147855	8
	2	5	630984.4	3316.587	-1570.663	1	3669.705	-25.34121	9.979896E-007	0.0132476	8
	3	6	501234.4	3578.796	-1451.897	1	3862.096	-22.08211	1.697376E-006	0.0125449	8
	4	8	398109.4	3791.647	-1293.963	1	4006.361	-18.84306	3.238733E-006	0.012191	8
	5	9	316265.6	3957.738	-1158.962	1	4123.94	-16.32185	-3.719288E-006	0.0135563	8
	6	11	251203.1	4100.105	-1038.615	1	4229.608	-14.21483	-3.071381E-006	0.0132738	8
	7	12	199546.9	4201.517	-940.2003	1	4305.429	-12.61364	-4.38361E-007	0.0130147	8
	8	14	158578.1	4281.793	-866.5939	1	4368.608	-11.44156	2.78003E-006	0.0122417	8
	9	16	125953.1	4394.769	-678.6701	1	4446.863	-8.778659	-6.037055E-007	0.0137123	7
	10	17	100078.1	4464.007	-682.2694	1	4515.844	-8.68972	-6.435877E-008	0.0129829	7
	11	19	79453.13	4526.363	-675.7785	1	4576.531	-8.491445	-6.518844E-009	0.0128247	7
	12	20	63140.62	4589.9	-684.2282	1	4640.62	-8.47879	-9.351978E-008	0.0129277	7
	13	22	50203.12	4653.728	-707.6898	1	4707.229	-8.646691	-4.727288E-008	0.012803	7
	14	23	39890.62	4723.626	-745.3129	1	4782.064	-8.96644	9.473947E-008	0.0125651	7
	15	24	31640.63	4797.387	-798.56	1	4863.396	-9.450649	-6.005271E-008	0.0129645	7
	16	26	25171.88	4881.323	-868.7492	1	4958.028	-10.0915	1.613509E-007	0.012524	7
	17	27	20015.62	4980.897	-958.28	1	5072.242	-10.89014	-5.788602E-008	0.0128899	7
	18	29	15890.62	5074.901	-1058.792	1	5184.174	-11.78474	-5.903155E-009	0.0127931	7
	19	31	12609.37	5188.567	-1183.362	1	5321.802	-12.84776	5.167029E-008	0.0127169	7
	20	32	10078.13	5312.875	-1326.491	1	5475.967	-14.0187	9.687259E-008	0.0125643	7
	21	34	8015.625	5470.809	-1498.854	1	5672.417	-15.32153	-1.285569E-008	0.0129366	7
	22	35	6328.125	5621.252	-1695.552	1	5871.403	-16.78501	-3.870453E-008	0.0128027	7
	23	37	5015.625	5808.479	-1929.062	1	6120.434	-18.37192	-4.840269E-008	0.0127979	7
	24	38	3984.375	6004.22	-2187.048	1	6390.136	-20.01424	-6.044465E-008	0.0129655	7
	25	40	3170.956	6256.362	-2499.312	1	6737.108	-21.77588	-6.190456E-008	0.0129596	7
	26	41	2527.573	6526.663	-2843.209	1	7119.07	-23.53938	-5.368813E-008	0.0128821	7
	27	42	1976.103	6863.412	-3266.549	1	7601.103	-25.45149	-6.581249E-009	0.0127916	7
	28	44	1577.524	7034.953	-3637.827	1	7919.871	-27.34382	-1.974569E-008	0.0127322	7
	29	45	1265.625	7587.226	-4179.873	1	8662.409	-28.85078	-3.965878E-008	0.0128044	7
	30	47	998.264	8031.665	-4759.228	1	9335.839	-30.6492	-4.935977E-008	0.0127983	7
	31	48	796.875	8484.625	-5392.583	1	10053.3	-32.43886	-1.094302E-008	0.0128265	6
	32	49	627.7902	8963.163	-6183.355	1	10889.08	-34.60036	-7.117506E-009	0.012744	6
	33	51	505.5147	9392.36	-7041.549	1	11738.82	-36.85927	7.708866E-009	0.012524	6
	34	52	397.9953	9864.29	-8207.957	1	12832.56	-39.76345	-4.157484E-010	0.0127235	6
	35	53	315.5048	10319.79	-9636.67	1	14119.61	-43.03948	1.297637E-009	0.0127289	6
	36	55	252.4038	10770.91	-11359.21	1	15653.89	-46.52278	1.073498E-009	0.0127253	6
	37	56	198.6229	11297.52	-13701.96	1	17758.88	-50.49379	1.802208E-010	0.0127213	6
	38	58	158.3615	11867.7	-16491.92	1	20318.11	-54.26095	1.032392E-009	0.0127242	6
	39	59	125.558	12549.18	-20062.98	1	23664.42	-57.97446	-1.497365E-010	0.0127237	6
	40	60	100.4464	13346.92	-24351.13	1	27769.01	-61.27274	1.726416E-009	0.0127296	6
	41	62	79.00281	14431.28	-29921.37	1	33219.73	-64.25168	-4.080477E-010	0.0127347	6
	42	63	63.3446	15649.95	-35913.75	1	39175.48	-66.45412	-1.915085E-010	0.0127324	6
	43	65	49.86702	18048.88	-45403.17	1	48859.08	-68.32096	-8.230732E-010	0.0127287	6
	44	66	39.72458	20120.92	-55057.32	1	58618.77	-69.92497	5.753456E-010	0.0127343	6
	45	67	31.6723	23205.51	-67269.08	1	71159.15	-70.96733	-3.899118E-011	0.0127319	6
	46	69	24.93351	27253.75	-82633.34	1	87011.7	-71.74665	1.797058E-010	0.0127272	6
	47	70	19.86229	32391.62	-100507.9	1	105598.6	-72.13695	-1.27734E-010	0.01273	6
	48	72	15.83615	40661.59	-123145.2	1	129684.6	-71.72717	-1.943178E-009	0.0127334	5
	49	73	12.40079	47973.36	-148065.4	1	155643.2	-72.04762	1.083026E-009	0.0127315	5
	50	75	9.93114	60103.77	-178793.6	1	188625.6	-71.41927	6.067189E-010	0.0127292	5
	51	76	7.944915	73241.33	-214286.6	1	226457.6	-71.13001	-5.790887E-010	0.0127312	5
	52	78	6.317385	93842.16	-256730.4	1	273343.8	-69.92123	-1.533317E-010	0.012732	5
	53	80	5.008013	117636.7	-306748.6	1	328531.7	-69.01841	-1.677375E-010	0.0127205	5
	54	82	3.945707	148854.9	-365340	1	394501	-67.83195	1.570687E-010	0.0127293	5
	55	85	3.158693	183678.3	-428081.3	1	465823.2	-66.77712	-1.965024E-011	0.01271	5
	56	88	2.504006	226404.3	-502664.7	1	551299.1	-65.75281	1.24089E-010	0.0127324	5
	57	91	1.998082	274029.8	-584434.4	1	645488.9	-64.87904	1.726358E-010	0.0127094	5
	58	94	1.584686	330962.1	-683675	1	759570.6	-64.16872	1.100046E-011	0.0126767	5
	59	98	1.266892	392884.8	-791224.9	1	883399.9	-63.59319	1.180339E-010	0.0126908	5
	60	102	0.999041	467464.4	-929937.8	1	1040821	-63.31208	-5.133101E-011	0.0127368	4
