EXPLAIN
TAG	EISPOT
TITLE	LABEL	Potentiostatic EIS	Test &Identifier
DATE	LABEL	11/7/2019	Date
TIME	LABEL	9:27:10	Time
NOTES	NOTES	2	&Notes...
	
	
PSTAT	PSTAT	REF600-11020	Potentiostat
VDC	POTEN	0.00000E+000	T	DC &Voltage (V)
FREQINIT	QUANT	1.00000E+006	Initial Fre&q. (Hz)
FREQFINAL	QUANT	1.00000E+000	Final Fre&q. (Hz)
PTSPERDEC	QUANT	1.00000E+001	Points/&decade
VAC	QUANT	2.50000E+001	AC &Voltage (mV rms)
AREA	QUANT	1.00000E-002	&Area (cm^2)
CONDIT	TWOPARAM	T	5.00000E+000	0.00000E+000	Conditionin&g	Time(s)	E(V)
DELAY	TWOPARAM	T	5.00000E+000	0.00000E+000	Init. De&lay	Time(s)	Stab.(mV/s)
SPEED	SELECTOR	1	&Optimize for:
ZGUESS	QUANT	1.00000E+005	E&stimated Z (ohms)
OCVCURVE	TABLE	19
	Pt	T	Vf	Vm	Ach	Over
	#	s	V vs. Ref.	V	V	bits
	0	0.258333	3.52657E-003	3.52657E-003	5.71866E-004	...........
	1	0.516667	3.52490E-003	3.43930E-003	5.74366E-004	...........
	2	0.775	3.51293E-003	3.26569E-003	5.77866E-004	...........
	3	1.03333	3.47372E-003	3.12203E-003	5.76132E-004	...........
	4	1.29167	3.39426E-003	2.98121E-003	5.77366E-004	...........
	5	1.55	3.27819E-003	2.84063E-003	5.76766E-004	...........
	6	1.80833	3.14158E-003	2.72280E-003	5.78299E-004	...........
	7	2.06667	3.00069E-003	2.61884E-003	5.73766E-004	...........
	8	2.325	2.86587E-003	2.49532E-003	5.82232E-004	...........
	9	2.58333	2.74070E-003	2.40337E-003	5.74032E-004	...........
	10	2.84167	2.62478E-003	2.33057E-003	5.76232E-004	...........
	11	3.1	2.51862E-003	2.25782E-003	5.78332E-004	...........
	12	3.35833	2.42383E-003	2.18320E-003	5.75165E-004	...........
	13	3.61667	2.33959E-003	2.10899E-003	5.75532E-004	...........
	14	3.875	2.26244E-003	2.04666E-003	5.75766E-004	...........
	15	4.13333	2.18937E-003	1.97966E-003	5.76632E-004	...........
	16	4.39167	2.11928E-003	1.91895E-003	5.79932E-004	...........
	17	4.65	2.05194E-003	1.85680E-003	5.74499E-004	...........
	18	4.90833	1.98700E-003	1.79624E-003	5.74099E-004	...........
EOC	QUANT	0.001987	Open Circuit (V)
PSTATMODEL	IQUANT	4	Pstat Model
PSTATSECTION	LABEL	REF600-11020	Pstat Section
PSTATSERIALNO	LABEL	11020	Pstat Serial Number
CTRLMODE	IQUANT	1	Control Mode
IESTAB	IQUANT	0	I/E Stability
CASPEED	IQUANT	1	Control Amp Speed
CONVENTION	IQUANT	1	Current Convention
ICHRANGE	IQUANT	2	Ich Range
ICHRANGEMODE	TOGGLE	F	Ich Auto Range
ICHOFFSETENABLE	TOGGLE	T	Ich Offset Enable
ICHOFFSET	QUANT	0	Ich Offset (V)
ICHFILTER	IQUANT	3	Ich Filter
VCHRANGE	IQUANT	2	Vch Range
VCHRANGEMODE	TOGGLE	F	Vch Auto Range
VCHOFFSETENABLE	TOGGLE	T	Vch Offset Enable
VCHOFFSET	QUANT	0	Vch Offset (V)
VCHFILTER	IQUANT	3	Vch Filter
ACHRANGE	IQUANT	2	Ach Range
ACHOFFSETENABLE	TOGGLE	F	Ach Offset Enable
ACHOFFSET	QUANT	0	Ach Offset (V)
ACHFILTER	IQUANT	3	Ach Filter
IERANGELOWERLIMIT	IQUANT	1	I/E Range Lower Limit
IERANGEMODE	TOGGLE	F	I/E AutoRange
IERANGE	IQUANT	4	I/E Range
POSFEEDENABLE	TOGGLE	F	Positive Feedback IR Comp
POSFEEDRESISTANCE	QUANT	0	Positive Feedback Resistance (ohm)
ACHSELECT	IQUANT	0	Ach Select
CABLEID	IQUANT	14	Cable ID
DCCALDATE	LABEL	8/19/2019	DC Calibration Date
ACCALDATE	LABEL	8/19/2019	AC Calibration Date
THERMOSELECT	IQUANT	1	Thermo Select
FRAMEWORKVERSION	QUANT	6.33	Framework Version
INSTRUMENTVERSION	LABEL	3.50	Instrument Version
ZCURVE	TABLE
	Pt	Time	Freq	Zreal	Zimag	Zsig	Zmod	Zphz	Idc	Vdc	IERange
	#	s	Hz	ohm	ohm	V	ohm	°	A	V	#
	0	1	1000078	2432.002	-1337.818	1	2775.678	-28.81472	-4.606466E-006	0.0051271	8
	1	2	794390.6	2671.033	-1300.168	1	2970.666	-25.95525	4.348384E-006	0.0043086	8
	2	4	630984.4	2896.884	-1169.88	1	3124.189	-21.99087	6.833676E-006	0.0022942	8
	3	5	501234.4	3065.979	-1047.781	1	3240.073	-18.86758	-2.032955E-006	0.0041651	8
	4	7	398109.4	3220.646	-918.4008	1	3349.033	-15.91605	-4.049766E-006	0.004224	8
	5	8	316265.6	3314.065	-797.5695	1	3408.687	-13.53159	-1.406147E-006	0.0040303	8
	6	9	251203.1	3409.272	-694.345	1	3479.26	-11.51163	-3.988339E-006	0.0041624	8
	7	11	199546.9	3467.43	-611.1268	1	3520.873	-9.9956	-2.644154E-006	0.0034409	8
	8	12	158578.1	3559.378	-531.0544	1	3598.776	-8.485858	-6.802969E-007	0.0032204	8
	9	14	125953.1	3597.887	-414.1727	1	3621.647	-6.56673	4.487839E-006	-0.0039702	7
	10	15	100078.1	3612.191	-384.6885	1	3632.617	-6.078932	-3.097696E-007	0.0025179	7
	11	16	79453.13	3641.889	-370.5983	1	3660.696	-5.810413	1.205393E-006	0.0018903	7
	12	18	63140.62	3674.057	-359.8096	1	3691.634	-5.593283	-1.145691E-006	0.004032	7
	13	19	50203.12	3706.13	-362.1194	1	3723.779	-5.580555	6.401887E-008	0.0045777	7
	14	20	39890.62	3739.529	-374.2434	1	3758.208	-5.715	1.208101E-006	0.0018875	7
	15	22	31640.63	3772.746	-390.969	1	3792.95	-5.916432	1.558205E-007	0.0019503	7
	16	23	25171.88	3807.328	-416.6086	1	3830.053	-6.244622	-7.871909E-007	0.0032754	7
	17	24	20015.62	3850.145	-454.8037	1	3876.914	-6.736925	1.220898E-006	0.0022536	7
	18	26	15890.62	3893.461	-497.8845	1	3925.166	-7.287268	-1.146534E-006	0.004034	7
	19	27	12609.37	3940.688	-555.8156	1	3979.692	-8.028343	1.117781E-006	0.0027303	7
	20	28	10078.13	4002.781	-601.4067	1	4047.708	-8.544619	6.605978E-008	0.0045783	7
	21	30	8015.625	4046.76	-698.1291	1	4106.538	-9.78807	-1.151391E-006	0.0040298	7
	22	31	6328.125	4109.124	-795.0975	1	4185.341	-10.95115	-1.366059E-006	0.0050957	7
	23	33	5015.625	4176.567	-913.1747	1	4275.231	-12.3332	5.609397E-007	0.0016231	7
	24	34	3984.375	4245.718	-1049.379	1	4373.479	-13.88308	-7.852562E-007	0.0032666	7
	25	35	3170.956	4319.948	-1224.446	1	4490.125	-15.82485	8.800379E-007	0.0015158	7
	26	37	2527.573	4400.164	-1431.694	1	4627.223	-18.02348	1.097016E-006	0.001626	7
	27	38	1976.103	4492.413	-1705.404	1	4805.224	-20.7877	1.098921E-006	0.0016223	7
	28	39	1577.524	4599.231	-2012.516	1	5020.273	-23.63307	-1.006452E-006	0.0053474	7
	29	41	1265.625	4690.411	-2391.955	1	5265.111	-27.02008	-1.148395E-006	0.0040274	7
	30	42	998.264	4807.48	-2889.29	1	5608.909	-31.00582	6.536402E-008	0.0045698	7
	31	43	796.875	4941.94	-3475.602	1	6041.737	-35.11822	9.11425E-007	0.0032707	7
	32	45	627.7902	5104.972	-4231.914	1	6630.975	-39.65802	-1.22336E-006	0.0052746	7
	33	46	505.5147	5272.138	-5099.184	1	7334.652	-44.04461	8.823929E-007	0.0015169	7
	34	48	397.9953	5510.192	-6264.825	1	8343.275	-48.66693	3.178423E-009	0.0035137	7
	35	49	315.5048	5792.923	-7671.472	1	9612.98	-52.94262	5.276739E-009	0.0035079	7
	36	50	252.4038	6141.235	-9333.925	1	11173.04	-56.65717	-1.864676E-010	0.0034522	6
	37	52	198.6229	6613.541	-11532.27	1	13294.07	-60.16653	4.312232E-010	0.0034552	6
	38	53	158.3615	7199.324	-14093.53	1	15825.86	-62.94093	2.40109E-010	0.0034414	6
	39	54	125.558	7988.798	-17297.53	1	19053.22	-65.21033	8.319895E-010	0.0034474	6
	40	56	100.4464	8996.863	-21052.63	1	22894.47	-66.86051	-3.840925E-010	0.0034463	6
	41	57	79.00281	10494.07	-25923.44	1	27966.95	-67.9614	3.628826E-010	0.0034428	6
	42	59	63.3446	12457.49	-31089.5	1	33492.47	-68.16414	1.562149E-009	0.0034444	6
	43	60	49.86702	14845.04	-38573.62	1	41331.57	-68.95081	6.107022E-010	0.0034456	6
	44	61	39.72458	17995.02	-46265.78	1	49642.15	-68.74652	8.261598E-010	0.0034456	6
	45	63	31.6723	22236.67	-55524.86	1	59812.04	-68.17482	3.851704E-010	0.0034364	6
	46	64	24.93351	28068.69	-66616.47	1	72288.35	-67.15199	1.052535E-009	0.003437	6
	47	66	19.86229	34959.23	-78721.63	1	86135.03	-66.05463	1.509897E-009	0.0034544	6
	48	67	15.83615	43093.87	-93201.87	1	102682.4	-65.18553	-1.499119E-009	0.0034403	6
	49	68	12.40079	54689.81	-108123.4	1	121167.8	-63.1693	8.033558E-010	0.0034567	5
	50	70	9.93114	67860.25	-124855.1	1	142104.9	-61.47539	7.812183E-010	0.0034498	5
	51	71	7.944915	82456.49	-143678.2	1	165657.8	-60.14862	5.363434E-011	0.0034529	5
	52	73	6.317385	99813.4	-162781.8	1	190946.6	-58.48451	1.432314E-010	0.0034643	5
	53	75	5.008013	118954.1	-184707.6	1	219697.5	-57.21794	4.389338E-010	0.003446	5
	54	78	3.945707	140231.3	-209895.1	1	252429.7	-56.25304	2.518253E-010	0.0034562	5
	55	80	3.158693	161456.3	-236493.8	1	286352	-55.67833	2.216675E-010	0.0034532	5
	56	84	2.504006	184667.3	-268933.2	1	326231.7	-55.52394	1.758451E-010	0.0034398	5
	57	86	1.998082	207942.8	-306507.8	1	370387.9	-55.84602	-4.168531E-011	0.0034555	5
	58	89	1.584686	234940.6	-353287.8	1	424275.1	-56.37562	2.087429E-010	0.0034998	5
	59	93	1.266892	261988.1	-407777.8	1	484686	-57.28016	-5.526235E-011	0.00346	5
	60	97	0.999041	295807.5	-479419.5	1	563333.9	-58.32492	3.723691E-010	0.0034602	5
