EXPLAIN
TAG	EISPOT
TITLE	LABEL	Potentiostatic EIS	Test &Identifier
DATE	LABEL	10/26/2019	Date
TIME	LABEL	10:46:35	Time
NOTES	NOTES	1	&Notes...
	
PSTAT	PSTAT	REF600-11020	Potentiostat
VDC	POTEN	0.00000E+000	T	DC &Voltage (V)
FREQINIT	QUANT	1.00000E+006	Initial Fre&q. (Hz)
FREQFINAL	QUANT	1.00000E+000	Final Fre&q. (Hz)
PTSPERDEC	QUANT	1.00000E+001	Points/&decade
VAC	QUANT	2.50000E+001	AC &Voltage (mV rms)
AREA	QUANT	1.00000E-002	&Area (cm^2)
CONDIT	TWOPARAM	T	5.00000E+000	0.00000E+000	Conditionin&g	Time(s)	E(V)
DELAY	TWOPARAM	T	5.00000E+000	0.00000E+000	Init. De&lay	Time(s)	Stab.(mV/s)
SPEED	SELECTOR	0	&Optimize for:
ZGUESS	QUANT	1.00000E+005	E&stimated Z (ohms)
OCVCURVE	TABLE	19
	Pt	T	Vf	Vm	Ach	Over
	#	s	V vs. Ref.	V	V	bits
	0	0.258333	5.58566E-003	5.58566E-003	5.63299E-004	...........
	1	0.516667	5.58501E-003	5.55161E-003	5.62532E-004	...........
	2	0.775	5.58134E-003	5.53630E-003	5.64299E-004	...........
	3	1.03333	5.57222E-003	5.53160E-003	5.59299E-004	...........
	4	1.29167	5.55896E-003	5.53351E-003	5.59666E-004	...........
	5	1.55	5.54643E-003	5.54320E-003	5.59899E-004	...........
	6	1.80833	5.53919E-003	5.55665E-003	5.61832E-004	...........
	7	2.06667	5.53906E-003	5.57128E-003	5.64299E-004	...........
	8	2.325	5.54558E-003	5.59400E-003	5.62632E-004	...........
	9	2.58333	5.55743E-003	5.61339E-003	5.62066E-004	...........
	10	2.84167	5.57335E-003	5.63707E-003	5.60299E-004	...........
	11	3.1	5.59230E-003	5.66328E-003	5.59532E-004	...........
	12	3.35833	5.61355E-003	5.68785E-003	5.63499E-004	...........
	13	3.61667	5.63661E-003	5.71262E-003	5.58399E-004	...........
	14	3.875	5.66091E-003	5.73928E-003	5.66299E-004	...........
	15	4.13333	5.68594E-003	5.76697E-003	5.61999E-004	...........
	16	4.39167	5.71161E-003	5.79488E-003	5.61132E-004	...........
	17	4.65	5.73799E-003	5.82128E-003	5.61832E-004	...........
	18	4.90833	5.76491E-003	5.84777E-003	5.66132E-004	...........
EOC	QUANT	0.0057649	Open Circuit (V)
PSTATMODEL	IQUANT	4	Pstat Model
PSTATSECTION	LABEL	REF600-11020	Pstat Section
PSTATSERIALNO	LABEL	11020	Pstat Serial Number
CTRLMODE	IQUANT	1	Control Mode
IESTAB	IQUANT	0	I/E Stability
CASPEED	IQUANT	1	Control Amp Speed
CONVENTION	IQUANT	1	Current Convention
ICHRANGE	IQUANT	2	Ich Range
ICHRANGEMODE	TOGGLE	F	Ich Auto Range
ICHOFFSETENABLE	TOGGLE	T	Ich Offset Enable
ICHOFFSET	QUANT	0	Ich Offset (V)
ICHFILTER	IQUANT	3	Ich Filter
VCHRANGE	IQUANT	2	Vch Range
VCHRANGEMODE	TOGGLE	F	Vch Auto Range
VCHOFFSETENABLE	TOGGLE	T	Vch Offset Enable
VCHOFFSET	QUANT	0	Vch Offset (V)
VCHFILTER	IQUANT	3	Vch Filter
ACHRANGE	IQUANT	2	Ach Range
ACHOFFSETENABLE	TOGGLE	F	Ach Offset Enable
ACHOFFSET	QUANT	0	Ach Offset (V)
ACHFILTER	IQUANT	3	Ach Filter
IERANGELOWERLIMIT	IQUANT	1	I/E Range Lower Limit
IERANGEMODE	TOGGLE	F	I/E AutoRange
IERANGE	IQUANT	5	I/E Range
POSFEEDENABLE	TOGGLE	F	Positive Feedback IR Comp
POSFEEDRESISTANCE	QUANT	0	Positive Feedback Resistance (ohm)
ACHSELECT	IQUANT	0	Ach Select
CABLEID	IQUANT	14	Cable ID
DCCALDATE	LABEL	8/19/2019	DC Calibration Date
ACCALDATE	LABEL	8/19/2019	AC Calibration Date
THERMOSELECT	IQUANT	1	Thermo Select
FRAMEWORKVERSION	QUANT	6.33	Framework Version
INSTRUMENTVERSION	LABEL	3.50	Instrument Version
ZCURVE	TABLE
	Pt	Time	Freq	Zreal	Zimag	Zsig	Zmod	Zphz	Idc	Vdc	IERange
	#	s	Hz	ohm	ohm	V	ohm	°	A	V	#
	0	1	1000078	2301.042	-1051.958	1	2530.101	-24.56825	3.04992E-006	0.0080767	8
	1	1	794390.6	2469.687	-961.648	1	2650.306	-21.27497	6.705957E-007	0.0074214	8
	2	2	630984.4	2604.978	-854.3851	1	2741.511	-18.15855	-3.072468E-006	0.0081472	8
	3	2	501234.4	2717.701	-751.1096	1	2819.586	-15.44957	3.474376E-008	0.0073527	8
	4	2	398109.4	2801.778	-649.8968	1	2876.166	-13.0593	-9.344685E-007	0.0077289	8
	5	3	316265.6	2872.306	-574.9175	1	2929.279	-11.31868	3.395467E-006	0.0066541	8
	6	3	251203.1	2936.466	-506.1152	1	2979.763	-9.77915	5.313914E-007	0.0073324	8
	7	3	199546.9	2970.101	-468.0989	1	3006.762	-8.956356	-2.446934E-006	0.0078327	8
	8	4	158578.1	3017.988	-418.4743	1	3046.863	-7.894298	-2.00009E-006	0.0078752	8
	9	4	125953.1	3060.32	-361.2567	1	3081.568	-6.732347	-1.047883E-006	0.0096239	7
	10	4	100078.1	3090.519	-337.3559	1	3108.877	-6.229647	-6.178738E-008	0.0074862	7
	11	4	79453.13	3125.451	-335.4767	1	3143.404	-6.126504	-6.014179E-008	0.0073795	7
	12	5	63140.62	3160.349	-339.2278	1	3178.503	-6.126597	-6.900174E-009	0.0072928	7
	13	5	50203.12	3196.843	-346.2658	1	3215.542	-6.181887	6.299373E-008	0.0071826	7
	14	5	39890.62	3235.098	-357.9633	1	3254.842	-6.314088	-6.082157E-008	0.0074807	7
	15	6	31640.63	3274.558	-373.8881	1	3295.834	-6.513808	3.514776E-008	0.0071876	7
	16	6	25171.88	3314.907	-395.5729	1	3338.426	-6.805013	7.129643E-008	0.0072495	7
	17	6	20015.62	3354.807	-423.969	1	3381.491	-7.202662	-5.998473E-009	0.0072883	7
	18	7	15890.62	3399.632	-458.7416	1	3430.443	-7.684994	1.360335E-009	0.0073844	7
	19	7	12609.37	3443.842	-503.5247	1	3480.457	-8.318285	-1.181959E-008	0.0073417	7
	20	7	10078.13	3490.432	-555.1432	1	3534.303	-9.037038	-6.74334E-010	0.0072943	7
	21	8	8015.625	3540.694	-624.0855	1	3595.275	-9.99632	1.032162E-009	0.007383	7
	22	8	6328.125	3589.262	-706.3959	1	3658.114	-11.13398	-6.032462E-008	0.0074721	7
	23	8	5015.625	3642.883	-809.989	1	3731.846	-12.53569	-1.320415E-008	0.0073268	7
	24	9	3984.375	3696.18	-934.8643	1	3812.573	-14.19398	9.784691E-008	0.0071564	7
	25	9	3170.956	3756.989	-1092.073	1	3912.491	-16.20797	7.217466E-008	0.0072386	7
	26	9	2527.573	3819.859	-1281.481	1	4029.084	-18.5455	-2.444945E-008	0.0072916	7
	27	10	1976.103	3891.512	-1538.666	1	4184.658	-21.57335	1.400961E-009	0.0073826	7
	28	10	1577.524	3976.947	-1825.092	1	4375.736	-24.65124	-5.717205E-009	0.0072865	7
	29	10	1265.625	4046.951	-2185.427	1	4599.338	-28.36985	5.080145E-008	0.0072142	7
	30	11	998.264	4150.267	-2662.453	1	4930.859	-32.68072	-3.079665E-008	0.0073722	7
	31	11	796.875	4266.292	-3218.423	1	5344.108	-37.03033	-4.93716E-008	0.0073622	7
	32	11	627.7902	4411.55	-3948.952	1	5920.811	-41.83298	5.0105E-008	0.0072091	7
	33	12	505.5147	4571.136	-4766.754	1	6604.334	-46.20011	-5.804655E-008	0.0073663	7
	34	12	397.9953	4796.281	-5871.367	1	7581.376	-50.75484	1.925635E-009	0.0073205	7
	35	12	315.5048	5070.709	-7201.637	1	8807.705	-54.85043	2.215089E-009	0.0073172	7
	36	12	252.4038	5408.236	-8764.084	1	10298.46	-58.32164	-5.408184E-010	0.0072555	6
	37	13	198.6229	5873.105	-10823.86	1	12314.6	-61.51543	8.838424E-011	0.0072538	6
	38	13	158.3615	6447.82	-13212.99	1	14702.29	-63.98804	5.075623E-010	0.0072494	6
	39	13	125.558	7208.966	-16192.78	1	17724.99	-66.00155	4.708385E-010	0.007258	6
	40	14	100.4464	8142.342	-19644.36	1	21264.96	-67.4866	6.115699E-010	0.0072512	6
	41	14	79.00281	9524.51	-24128.23	1	25940.08	-68.4586	8.389938E-010	0.0072489	6
	42	14	63.3446	11311.71	-29501.43	1	31595.71	-69.02171	-4.69667E-010	0.0072454	6
	43	15	49.86702	13585.67	-35931	1	38413.63	-69.28817	-1.554109E-010	0.0072454	6
	44	15	39.72458	16655.67	-43043.28	1	46153.39	-68.84596	1.303655E-010	0.0072476	6
	45	16	31.6723	20569.43	-51404.64	1	55367.31	-68.19132	-3.441616E-010	0.0072481	6
	46	16	24.93351	25905.63	-62051.68	1	67242.2	-67.34021	5.295199E-010	0.0072438	6
	47	16	19.86229	32533.28	-73543.03	1	80417.61	-66.1368	2.43451E-009	0.0072505	6
	48	16	15.83615	41829.64	-85717.4	1	95379.2	-63.98787	-2.948442E-009	0.0072447	6
	49	17	12.40079	52256.95	-100591	1	113355	-62.54816	1.85457E-009	0.0072452	5
	50	17	9.93114	63694.21	-115878.9	1	132230.3	-61.20407	-9.57322E-010	0.0072484	5
	51	18	7.944915	77053.07	-132178.1	1	152997.5	-59.76001	-3.682778E-010	0.0072476	5
	52	18	6.317385	91963.81	-149918.7	1	175877.7	-58.47402	-3.9415E-010	0.0072533	5
	53	19	5.008013	108502.2	-170171.7	1	201819.5	-57.47824	-3.729004E-010	0.0072426	5
	54	20	3.945707	126825.5	-194296.7	1	232025.6	-56.86586	2.365416E-010	0.0072512	5
	55	22	3.158693	144337.6	-220190.7	1	263281.7	-56.75468	-6.03314E-011	0.0072661	5
	56	23	2.504006	164320.7	-253030.2	1	301704.5	-56.99984	-2.863973E-010	0.0072518	5
	57	24	1.998082	185057.1	-290549.5	1	344478.1	-57.50608	2.179149E-011	0.0072756	5
	58	26	1.584686	209237.6	-338814.9	1	398215.9	-58.3023	7.271217E-011	0.0072957	5
	59	28	1.266892	234786.6	-394456.4	1	459043.2	-59.23823	-1.506058E-011	0.0072598	5
	60	31	0.999041	267705.7	-464702.2	1	536297	-60.05461	-5.873937E-011	0.0072365	5
