EXPLAIN
TAG	EISPOT
TITLE	LABEL	Potentiostatic IDE	Test &Identifier
DATE	LABEL	9/6/2019	Date
TIME	LABEL	7:26:38	Time
NOTES	NOTES	1	&Notes...
	
PSTAT	PSTAT	REF600-11020	Potentiostat
VDC	POTEN	0.00000E+000	T	DC &Voltage (V)
FREQINIT	QUANT	1.00000E+006	Initial Fre&q. (Hz)
FREQFINAL	QUANT	1.00000E+000	Final Fre&q. (Hz)
PTSPERDEC	QUANT	1.00000E+001	Points/&decade
VAC	QUANT	2.50000E+001	AC &Voltage (mV rms)
AREA	QUANT	1.00000E-002	&Area (cm^2)
CONDIT	TWOPARAM	T	5.00000E+000	0.00000E+000	Conditionin&g	Time(s)	E(V)
DELAY	TWOPARAM	T	5.00000E+000	0.00000E+000	Init. De&lay	Time(s)	Stab.(mV/s)
SPEED	SELECTOR	1	&Optimize for:
ZGUESS	QUANT	1.00000E+007	E&stimated Z (ohms)
OCVCURVE	TABLE	19
	Pt	T	Vf	Vm	Ach	Over
	#	s	V vs. Ref.	V	V	bits
	0	0.258333	7.70429E-003	7.70429E-003	5.63499E-004	...........
	1	0.516667	7.70072E-003	7.51765E-003	5.66832E-004	...........
	2	0.775	7.67943E-003	7.37211E-003	5.70366E-004	...........
	3	1.03333	7.62164E-003	7.25660E-003	5.69066E-004	...........
	4	1.29167	7.52429E-003	7.15479E-003	5.61766E-004	...........
	5	1.55	7.40508E-003	7.07679E-003	5.62399E-004	...........
	6	1.80833	7.28617E-003	7.00650E-003	5.62666E-004	...........
	7	2.06667	7.18087E-003	6.94790E-003	5.61399E-004	...........
	8	2.325	7.09256E-003	6.89575E-003	5.67599E-004	...........
	9	2.58333	7.01918E-003	6.85063E-003	5.70532E-004	...........
	10	2.84167	6.95735E-003	6.81246E-003	5.68266E-004	...........
	11	3.1	6.90436E-003	6.77693E-003	5.64832E-004	...........
	12	3.35833	6.85839E-003	6.74692E-003	5.63266E-004	...........
	13	3.61667	6.81821E-003	6.72025E-003	5.66732E-004	...........
	14	3.875	6.78282E-003	6.69191E-003	5.63632E-004	...........
	15	4.13333	6.75130E-003	6.67047E-003	5.62899E-004	...........
	16	4.39167	6.72286E-003	6.65146E-003	5.65999E-004	...........
	17	4.65	6.69723E-003	6.63385E-003	5.64566E-004	...........
	18	4.90833	6.67441E-003	6.61696E-003	5.66599E-004	...........
EOC	QUANT	0.0066744	Open Circuit (V)
PSTATMODEL	IQUANT	4	Pstat Model
PSTATSECTION	LABEL	REF600-11020	Pstat Section
PSTATSERIALNO	LABEL	11020	Pstat Serial Number
CTRLMODE	IQUANT	1	Control Mode
IESTAB	IQUANT	0	I/E Stability
CASPEED	IQUANT	1	Control Amp Speed
CONVENTION	IQUANT	1	Current Convention
ICHRANGE	IQUANT	2	Ich Range
ICHRANGEMODE	TOGGLE	F	Ich Auto Range
ICHOFFSETENABLE	TOGGLE	T	Ich Offset Enable
ICHOFFSET	QUANT	0	Ich Offset (V)
ICHFILTER	IQUANT	3	Ich Filter
VCHRANGE	IQUANT	2	Vch Range
VCHRANGEMODE	TOGGLE	F	Vch Auto Range
VCHOFFSETENABLE	TOGGLE	T	Vch Offset Enable
VCHOFFSET	QUANT	0	Vch Offset (V)
VCHFILTER	IQUANT	3	Vch Filter
ACHRANGE	IQUANT	2	Ach Range
ACHOFFSETENABLE	TOGGLE	F	Ach Offset Enable
ACHOFFSET	QUANT	0	Ach Offset (V)
ACHFILTER	IQUANT	3	Ach Filter
IERANGELOWERLIMIT	IQUANT	1	I/E Range Lower Limit
IERANGEMODE	TOGGLE	F	I/E AutoRange
IERANGE	IQUANT	3	I/E Range
POSFEEDENABLE	TOGGLE	F	Positive Feedback IR Comp
POSFEEDRESISTANCE	QUANT	0	Positive Feedback Resistance (ohm)
ACHSELECT	IQUANT	0	Ach Select
CABLEID	IQUANT	14	Cable ID
DCCALDATE	LABEL	8/19/2019	DC Calibration Date
ACCALDATE	LABEL	8/19/2019	AC Calibration Date
THERMOSELECT	IQUANT	1	Thermo Select
FRAMEWORKVERSION	QUANT	6.33	Framework Version
INSTRUMENTVERSION	LABEL	3.50	Instrument Version
ZCURVE	TABLE
	Pt	Time	Freq	Zreal	Zimag	Zsig	Zmod	Zphz	Idc	Vdc	IERange
	#	s	Hz	ohm	ohm	V	ohm	°	A	V	#
	0	2	1000078	2419.45	-1909.359	1	3082.108	-38.27946	1.437611E-006	0.0087446	8
	1	3	794390.6	2814.704	-1827.637	1	3356.011	-32.99638	-1.367996E-006	0.0090398	8
	2	4	630984.4	3155.979	-1693.019	1	3581.413	-28.21125	-4.802339E-007	0.0088628	8
	3	6	501234.4	3431.496	-1508.849	1	3748.572	-23.73537	-6.965961E-007	0.0087597	8
	4	7	398109.4	3650.852	-1317.366	1	3881.259	-19.84138	1.335531E-006	0.0082276	8
	5	8	316265.6	3833.362	-1149.476	1	4001.994	-16.69194	1.117434E-007	0.0083517	8
	6	10	251203.1	3969.805	-985.087	1	4090.202	-13.93616	2.784967E-007	0.0083568	8
	7	11	199546.9	4027.068	-847.2687	1	4115.233	-11.88137	-6.684613E-007	0.0086223	8
	8	12	158578.1	4114.239	-737.2334	1	4179.77	-10.15905	8.164636E-007	0.0082191	8
	9	14	125953.1	4185.094	-649.4808	1	4235.19	-8.821311	4.874236E-008	0.0083309	7
	10	15	100078.1	4225.131	-595.7607	1	4266.926	-8.026027	4.94919E-008	0.0082882	7
	11	17	79453.13	4268.041	-566.3047	1	4305.447	-7.558138	7.674091E-008	0.0082768	7
	12	18	63140.62	4310.959	-553.541	1	4346.353	-7.316924	1.89221E-008	0.0083692	7
	13	19	50203.12	4354.033	-557.7164	1	4389.607	-7.299377	1.135299E-009	0.0083443	7
	14	20	39890.62	4397.838	-576.2456	1	4435.43	-7.464899	5.087803E-008	0.0082814	7
	15	22	31640.63	4444.788	-609.3647	1	4486.365	-7.806384	5.071079E-008	0.0082795	7
	16	23	25171.88	4493.864	-657.9059	1	4541.768	-8.328987	-2.331648E-008	0.0084011	7
	17	24	20015.62	4549.102	-725.5384	1	4606.597	-9.061809	-2.487136E-008	0.0083975	7
	18	26	15890.62	4608.184	-812.0336	1	4679.184	-9.99381	-1.228683E-008	0.008462	7
	19	27	12609.37	4677.6	-921.2659	1	4767.459	-11.14195	-3.56244E-008	0.0084325	7
	20	28	10078.13	4750.658	-1047.497	1	4864.771	-12.43448	-7.892488E-009	0.0084075	7
	21	30	8015.625	4833.87	-1209.437	1	4982.875	-14.04706	-1.090385E-008	0.0083708	7
	22	31	6328.125	4932.851	-1410.891	1	5130.656	-15.96155	-7.634656E-009	0.0084108	7
	23	32	5015.625	5044.674	-1649.537	1	5307.515	-18.10702	2.056293E-008	0.0083627	7
	24	34	3984.375	5172.685	-1939.469	1	5524.329	-20.55325	-4.92803E-009	0.0083949	7
	25	35	3170.956	5320.922	-2277.511	1	5787.855	-23.17235	-2.278984E-008	0.008401	7
	26	36	2527.573	5490.718	-2687.846	1	6113.305	-26.08292	-6.650128E-009	0.008391	7
	27	38	1976.103	5708.171	-3214.783	1	6551.187	-29.38776	1.375904E-008	0.0083144	7
	28	39	1577.524	5945.063	-3797.594	1	7054.467	-32.56967	-3.779153E-009	0.0083957	7
	29	40	1265.625	6214.147	-4469.896	1	7654.776	-35.72783	-2.738861E-008	0.0083929	7
	30	42	998.264	6554.811	-5341.084	1	8455.337	-39.17432	-3.390499E-009	0.0084104	7
	31	43	796.875	6939.046	-6318.156	1	9384.533	-42.31856	1.495487E-009	0.0083384	7
	32	44	627.7902	7403.113	-7565.75	1	10585.21	-45.62249	-1.812022E-010	0.008251	6
	33	46	505.5147	7896.287	-8924.319	1	11916.16	-48.49742	-1.90595E-009	0.0083209	6
	34	47	397.9953	8523.114	-10703.63	1	13682.51	-51.47029	6.611409E-010	0.0083332	6
	35	48	315.5048	9232.295	-12806.15	1	15787.1	-54.21115	6.961504E-010	0.0083397	6
	36	50	252.4038	10022.18	-15242.33	1	18242.06	-56.67416	5.162053E-010	0.0083335	6
	37	51	198.6229	11017.92	-18412.32	1	21457.12	-59.10374	7.209066E-010	0.0083312	6
	38	52	158.3615	12132.32	-22054.79	1	25171.55	-61.18484	5.465958E-010	0.0083252	6
	39	54	125.558	13492.66	-26578.66	1	29807.33	-63.08536	7.986159E-010	0.0083303	6
	40	55	100.4464	15061.95	-31827.67	1	35211.69	-64.67487	4.985787E-010	0.0083313	6
	41	56	79.00281	17109.18	-38692.32	1	42306.27	-66.14568	5.168117E-010	0.0083285	6
	42	58	63.3446	19222.76	-46432.87	1	50254.61	-67.51092	5.076426E-010	0.0083268	6
	43	59	49.86702	22413.21	-56287.87	1	60586.1	-68.2881	6.618818E-010	0.008321	6
	44	60	39.72458	25839.14	-67931.8	1	72680.05	-69.17474	5.831982E-010	0.0083305	6
	45	62	31.6723	30198.12	-81736.66	1	87136.73	-69.72294	8.717751E-010	0.0083231	6
	46	63	24.93351	35699.18	-99445.3	1	105658.9	-70.25272	8.381006E-010	0.0083267	6
	47	65	19.86229	42356.94	-119645.9	1	126922.3	-70.50507	6.205892E-010	0.0083455	5
	48	66	15.83615	50571.14	-143509.8	1	152159.5	-70.58816	1.603734E-010	0.0083368	5
	49	67	12.40079	60919.57	-175622.8	1	185888.6	-70.8695	3.74588E-010	0.0083343	5
	50	69	9.93114	73875.07	-210059.9	1	222671.7	-70.62395	5.421461E-010	0.0083295	5
	51	70	7.944915	89599.21	-251325.8	1	266819.5	-70.37853	4.986599E-010	0.008339	5
	52	72	6.317385	109487.1	-302148	1	321373.4	-70.08139	9.205921E-011	0.0083526	5
	53	74	5.008013	135688.6	-362508.5	1	387070.8	-69.4789	7.801086E-012	0.0083332	5
	54	76	3.945707	170027.8	-436110.8	1	468083.4	-68.70053	3.190996E-010	0.0083388	5
	55	78	3.158693	211533.4	-516341.3	1	557991.7	-67.7222	1.268964E-010	0.0083443	5
	56	82	2.504006	265883.9	-613011.4	1	668189.6	-66.55198	2.292696E-010	0.0083232	5
	57	85	1.998082	330591.3	-719173.8	1	791518.5	-65.31261	-2.015146E-011	0.0083524	5
	58	88	1.584686	415397	-842913.1	1	939711.2	-63.7654	1.665177E-010	0.0083795	5
	59	91	1.266892	513211.5	-973251	1	1100274	-62.19657	-1.035935E-010	0.0083538	4
	60	96	0.999041	635888.7	-1126389	1	1293487	-60.55365	2.333497E-010	0.0083398	4
