EXPLAIN
TAG	EISPOT
TITLE	LABEL	Potentiostatic EIS	Test &Identifier
DATE	LABEL	10/10/2019	Date
TIME	LABEL	8:20:23	Time
NOTES	NOTES	1	&Notes...
	
PSTAT	PSTAT	REF600-11020	Potentiostat
VDC	POTEN	0.00000E+000	T	DC &Voltage (V)
FREQINIT	QUANT	1.00000E+006	Initial Fre&q. (Hz)
FREQFINAL	QUANT	1.00000E+000	Final Fre&q. (Hz)
PTSPERDEC	QUANT	1.00000E+001	Points/&decade
VAC	QUANT	2.50000E+001	AC &Voltage (mV rms)
AREA	QUANT	1.00000E-002	&Area (cm^2)
CONDIT	TWOPARAM	T	5.00000E+000	0.00000E+000	Conditionin&g	Time(s)	E(V)
DELAY	TWOPARAM	T	5.00000E+000	0.00000E+000	Init. De&lay	Time(s)	Stab.(mV/s)
SPEED	SELECTOR	1	&Optimize for:
ZGUESS	QUANT	1.00000E+004	E&stimated Z (ohms)
OCVCURVE	TABLE	19
	Pt	T	Vf	Vm	Ach	Over
	#	s	V vs. Ref.	V	V	bits
	0	0.258333	4.64768E-003	4.64768E-003	5.56499E-004	...........
	1	0.516667	4.64470E-003	4.49174E-003	5.52566E-004	...........
	2	0.775	4.62672E-003	4.36050E-003	5.60866E-004	...........
	3	1.03333	4.57719E-003	4.24876E-003	5.65399E-004	...........
	4	1.29167	4.49196E-003	4.14977E-003	5.67466E-004	...........
	5	1.55	4.38448E-003	4.06079E-003	5.64966E-004	...........
	6	1.80833	4.27291E-003	3.98118E-003	5.59832E-004	...........
	7	2.06667	4.16876E-003	3.91103E-003	5.55299E-004	...........
	8	2.325	4.07590E-003	3.84826E-003	5.53999E-004	...........
	9	2.58333	3.99406E-003	3.78959E-003	5.54399E-004	...........
	10	2.84167	3.92152E-003	3.73389E-003	5.55899E-004	...........
	11	3.1	3.85625E-003	3.68435E-003	5.65599E-004	...........
	12	3.35833	3.79662E-003	3.63796E-003	5.64466E-004	...........
	13	3.61667	3.74163E-003	3.59273E-003	5.56999E-004	...........
	14	3.875	3.69077E-003	3.55832E-003	5.57032E-004	...........
	15	4.13333	3.64382E-003	3.51692E-003	5.61932E-004	...........
	16	4.39167	3.60049E-003	3.48116E-003	5.57066E-004	...........
	17	4.65	3.56003E-003	3.44465E-003	5.56899E-004	...........
	18	4.90833	3.52164E-003	3.41655E-003	5.60766E-004	...........
EOC	QUANT	0.0035216	Open Circuit (V)
PSTATMODEL	IQUANT	4	Pstat Model
PSTATSECTION	LABEL	REF600-11020	Pstat Section
PSTATSERIALNO	LABEL	11020	Pstat Serial Number
CTRLMODE	IQUANT	1	Control Mode
IESTAB	IQUANT	0	I/E Stability
CASPEED	IQUANT	1	Control Amp Speed
CONVENTION	IQUANT	1	Current Convention
ICHRANGE	IQUANT	2	Ich Range
ICHRANGEMODE	TOGGLE	F	Ich Auto Range
ICHOFFSETENABLE	TOGGLE	T	Ich Offset Enable
ICHOFFSET	QUANT	0	Ich Offset (V)
ICHFILTER	IQUANT	3	Ich Filter
VCHRANGE	IQUANT	2	Vch Range
VCHRANGEMODE	TOGGLE	F	Vch Auto Range
VCHOFFSETENABLE	TOGGLE	T	Vch Offset Enable
VCHOFFSET	QUANT	0	Vch Offset (V)
VCHFILTER	IQUANT	3	Vch Filter
ACHRANGE	IQUANT	2	Ach Range
ACHOFFSETENABLE	TOGGLE	F	Ach Offset Enable
ACHOFFSET	QUANT	0	Ach Offset (V)
ACHFILTER	IQUANT	3	Ach Filter
IERANGELOWERLIMIT	IQUANT	1	I/E Range Lower Limit
IERANGEMODE	TOGGLE	F	I/E AutoRange
IERANGE	IQUANT	5	I/E Range
POSFEEDENABLE	TOGGLE	F	Positive Feedback IR Comp
POSFEEDRESISTANCE	QUANT	0	Positive Feedback Resistance (ohm)
ACHSELECT	IQUANT	0	Ach Select
CABLEID	IQUANT	14	Cable ID
DCCALDATE	LABEL	8/19/2019	DC Calibration Date
ACCALDATE	LABEL	8/19/2019	AC Calibration Date
THERMOSELECT	IQUANT	1	Thermo Select
FRAMEWORKVERSION	QUANT	6.33	Framework Version
INSTRUMENTVERSION	LABEL	3.50	Instrument Version
ZCURVE	TABLE
	Pt	Time	Freq	Zreal	Zimag	Zsig	Zmod	Zphz	Idc	Vdc	IERange
	#	s	Hz	ohm	ohm	V	ohm	°	A	V	#
	0	1	1000078	2678.46	-1609.13	1	3124.652	-30.99605	-2.40992E-006	0.005502	8
	1	3	794390.6	2969.32	-1498.306	1	3325.925	-26.77532	-2.717229E-006	0.0059281	8
	2	4	630984.4	3240.669	-1348.709	1	3510.121	-22.59622	-4.950468E-007	0.0056753	8
	3	6	501234.4	3434.284	-1183.025	1	3632.335	-19.00755	-1.701415E-006	0.0055224	8
	4	7	398109.4	3604.038	-1014.774	1	3744.176	-15.72541	1.474643E-006	0.0048882	8
	5	8	316265.6	3717.238	-862.7088	1	3816.035	-13.06608	-3.261193E-007	0.0050618	8
	6	10	251203.1	3813.601	-749.9139	1	3886.634	-11.12481	-2.997815E-006	0.0056902	8
	7	11	199546.9	3871.463	-636.6605	1	3923.463	-9.338683	7.910447E-007	0.0050959	8
	8	13	158578.1	3912.858	-560.6937	1	3952.826	-8.154696	-9.904953E-007	0.0054417	8
	9	14	125953.1	3970.174	-438.2971	1	3994.294	-6.299798	-3.257571E-007	0.0058642	7
	10	15	100078.1	3999.188	-390.8947	1	4018.246	-5.582558	-7.265132E-008	0.0051785	7
	11	17	79453.13	4025.887	-363.8743	1	4042.297	-5.164568	7.123393E-008	0.0049434	7
	12	18	63140.62	4054.856	-345.6456	1	4069.561	-4.872251	3.7384E-008	0.0050102	7
	13	20	50203.12	4082.781	-336.9019	1	4096.658	-4.717232	1.320156E-007	0.0048601	7
	14	21	39890.62	4111.28	-336.588	1	4125.035	-4.680332	-7.169337E-008	0.0051666	7
	15	22	31640.63	4139.306	-345.4527	1	4153.696	-4.77066	-2.385407E-008	0.0051225	7
	16	24	25171.88	4168.574	-360.7481	1	4184.155	-4.94605	-3.203799E-008	0.0050424	7
	17	25	20015.62	4199.924	-377.674	1	4216.871	-5.138445	1.399339E-007	0.0048423	7
	18	26	15890.62	4233.407	-418.9897	1	4254.09	-5.652283	-4.087354E-008	0.0050627	7
	19	28	12609.37	4268.574	-462.4512	1	4293.551	-6.183227	-4.372391E-008	0.0050773	7
	20	29	10078.13	4305.667	-516.0597	1	4336.483	-6.834635	7.013065E-008	0.0049369	7
	21	30	8015.625	4345.878	-587.5593	1	4385.417	-7.699656	-3.206141E-008	0.0050544	7
	22	32	6328.125	4385.209	-674.8641	1	4436.834	-8.748927	-1.42168E-008	0.0050903	7
	23	33	5015.625	4430.16	-783.7161	1	4498.948	-10.0321	4.375363E-008	0.0049138	7
	24	35	3984.375	4480.079	-924.3429	1	4574.442	-11.65785	8.491392E-008	0.0048719	7
	25	36	3170.956	4529.522	-1089.51	1	4658.713	-13.52472	7.463281E-008	0.0049326	7
	26	37	2527.573	4587.835	-1293.67	1	4766.741	-15.7473	1.113979E-008	0.0049814	7
	27	39	1976.103	4661.423	-1570.317	1	4918.817	-18.61739	7.353268E-008	0.0049265	7
	28	40	1577.524	4748.695	-1921.682	1	5122.789	-22.03199	-3.910143E-008	0.0050696	7
	29	41	1265.625	4829.441	-2250.972	1	5328.262	-24.98993	-2.46823E-008	0.0051207	7
	30	43	998.264	4941.606	-2743.242	1	5651.977	-29.03604	-1.390721E-008	0.0050736	7
	31	44	796.875	5063.369	-3313.938	1	6051.437	-33.20445	-2.98111E-008	0.005039	7
	32	45	627.7902	5219.989	-4058.44	1	6612.051	-37.86437	8.639188E-008	0.0049957	7
	33	47	505.5147	5382.125	-4883.539	1	7267.477	-42.21943	-4.856478E-008	0.0050848	7
	34	48	397.9953	5601.769	-6006.978	1	8213.623	-46.99913	3.471166E-009	0.0050619	7
	35	50	315.5048	5857.815	-7356.236	1	9403.628	-51.46948	4.255347E-009	0.0050612	7
	36	51	252.4038	6163.17	-8951.169	1	10867.75	-55.45133	5.425118E-010	0.0049994	6
	37	52	198.6229	6565.837	-11067.2	1	12868.3	-59.32061	1.278386E-009	0.0049985	6
	38	54	158.3615	7052.094	-13532.48	1	15259.75	-62.47491	1.250738E-009	0.0049934	6
	39	55	125.558	7690.419	-16643.83	1	18334.66	-65.20032	1.202357E-009	0.0049988	6
	40	56	100.4464	8502.826	-20301.14	1	22009.87	-67.27437	-6.59716E-011	0.0049952	6
	41	58	79.00281	9568.45	-25138.32	1	26897.78	-69.16157	2.687628E-012	0.0049983	6
	42	59	63.3446	10761.17	-30351.42	1	32202.67	-70.47791	8.108062E-010	0.0050005	6
	43	61	49.86702	13166.58	-37653.06	1	39888.74	-70.7262	1.033803E-009	0.0049959	6
	44	62	39.72458	15494.13	-45796.07	1	48346.13	-71.30784	1.167414E-009	0.0050016	6
	45	63	31.6723	18615.94	-55520.3	1	58558.16	-71.46371	6.874439E-010	0.0049946	6
	46	65	24.93351	23239.48	-67793.41	1	71666.04	-71.07836	5.179583E-010	0.0049932	6
	47	66	19.86229	29037.66	-81544.29	1	86560.13	-70.39935	1.035501E-009	0.0049991	6
	48	68	15.83615	36678.93	-97219.4	1	103908.4	-69.32952	1.10676E-009	0.0049955	6
	49	69	12.40079	46211.14	-117043.2	1	125835.6	-68.45485	1.273296E-009	0.0049956	5
	50	70	9.93114	57684.99	-138652.7	1	150173.7	-67.41077	7.988086E-010	0.0049958	5
	51	72	7.944915	71802.58	-162026.3	1	177223.4	-66.09928	-2.563264E-010	0.0049917	5
	52	74	6.317385	88125.95	-190241	1	209661.2	-65.14487	6.906117E-010	0.0049891	5
	53	76	5.008013	108667.6	-222521	1	247637.3	-63.97153	2.748477E-010	0.0050068	5
	54	78	3.945707	133460.5	-259957.3	1	292214.8	-62.8243	-6.949171E-011	0.0049949	5
	55	81	3.158693	160314.8	-299532.8	1	339736.3	-61.8436	3.555828E-010	0.0050109	5
	56	84	2.504006	192659.4	-347030.1	1	396922.6	-60.96245	-2.321726E-010	0.0050005	5
	57	87	1.998082	228350.1	-398690.7	1	459454	-60.19808	2.209674E-011	0.0049702	5
	58	90	1.584686	270251.1	-458628	1	532330.1	-59.49086	5.846076E-011	0.0050351	5
	59	94	1.266892	315611.4	-527529.6	1	614734.2	-59.10868	-4.546903E-011	0.0049822	5
	60	98	0.999041	371153.4	-610337.1	1	714329.2	-58.69571	2.981891E-010	0.0050322	5
