EXPLAIN
TAG	EISPOT
TITLE	LABEL	Potentiostatic IDE	Test &Identifier
DATE	LABEL	9/8/2019	Date
TIME	LABEL	7:48:35	Time
NOTES	NOTES	1	&Notes...
	
PSTAT	PSTAT	REF600-11020	Potentiostat
VDC	POTEN	0.00000E+000	T	DC &Voltage (V)
FREQINIT	QUANT	1.00000E+006	Initial Fre&q. (Hz)
FREQFINAL	QUANT	1.00000E+000	Final Fre&q. (Hz)
PTSPERDEC	QUANT	1.00000E+001	Points/&decade
VAC	QUANT	2.50000E+001	AC &Voltage (mV rms)
AREA	QUANT	1.00000E-002	&Area (cm^2)
CONDIT	TWOPARAM	T	5.00000E+000	0.00000E+000	Conditionin&g	Time(s)	E(V)
DELAY	TWOPARAM	T	5.00000E+000	0.00000E+000	Init. De&lay	Time(s)	Stab.(mV/s)
SPEED	SELECTOR	1	&Optimize for:
ZGUESS	QUANT	1.00000E+007	E&stimated Z (ohms)
OCVCURVE	TABLE	19
	Pt	T	Vf	Vm	Ach	Over
	#	s	V vs. Ref.	V	V	bits
	0	0.258333	3.72955E-002	3.72955E-002	5.67966E-004	...........
	1	0.516667	3.73441E-002	3.98403E-002	5.67799E-004	...........
	2	0.775	3.76423E-002	4.22317E-002	5.73032E-004	...........
	3	1.03333	3.84824E-002	4.44267E-002	5.65666E-004	...........
	4	1.29167	3.99728E-002	4.64371E-002	5.71466E-004	...........
	5	1.55	4.19255E-002	4.83231E-002	5.74466E-004	...........
	6	1.80833	4.40439E-002	5.00716E-002	5.67732E-004	...........
	7	2.06667	4.61171E-002	5.17371E-002	5.67899E-004	...........
	8	2.325	4.80585E-002	5.32989E-002	5.70799E-004	...........
	9	2.58333	4.98596E-002	5.47678E-002	5.68466E-004	...........
	10	2.84167	5.15387E-002	5.61851E-002	5.65266E-004	...........
	11	3.1	5.31166E-002	5.75456E-002	5.70866E-004	...........
	12	3.35833	5.46106E-002	5.88299E-002	5.72266E-004	...........
	13	3.61667	5.60333E-002	6.00728E-002	5.72266E-004	...........
	14	3.875	5.73927E-002	6.12715E-002	5.68399E-004	...........
	15	4.13333	5.86940E-002	6.24073E-002	5.69766E-004	...........
	16	4.39167	5.99420E-002	6.35230E-002	5.68932E-004	...........
	17	4.65	6.11402E-002	6.45632E-002	5.72599E-004	...........
	18	4.90833	6.22922E-002	6.56502E-002	5.72399E-004	...........
EOC	QUANT	0.0622922	Open Circuit (V)
PSTATMODEL	IQUANT	4	Pstat Model
PSTATSECTION	LABEL	REF600-11020	Pstat Section
PSTATSERIALNO	LABEL	11020	Pstat Serial Number
CTRLMODE	IQUANT	1	Control Mode
IESTAB	IQUANT	0	I/E Stability
CASPEED	IQUANT	1	Control Amp Speed
CONVENTION	IQUANT	1	Current Convention
ICHRANGE	IQUANT	2	Ich Range
ICHRANGEMODE	TOGGLE	F	Ich Auto Range
ICHOFFSETENABLE	TOGGLE	T	Ich Offset Enable
ICHOFFSET	QUANT	0	Ich Offset (V)
ICHFILTER	IQUANT	3	Ich Filter
VCHRANGE	IQUANT	2	Vch Range
VCHRANGEMODE	TOGGLE	F	Vch Auto Range
VCHOFFSETENABLE	TOGGLE	T	Vch Offset Enable
VCHOFFSET	QUANT	0	Vch Offset (V)
VCHFILTER	IQUANT	3	Vch Filter
ACHRANGE	IQUANT	2	Ach Range
ACHOFFSETENABLE	TOGGLE	F	Ach Offset Enable
ACHOFFSET	QUANT	0	Ach Offset (V)
ACHFILTER	IQUANT	3	Ach Filter
IERANGELOWERLIMIT	IQUANT	1	I/E Range Lower Limit
IERANGEMODE	TOGGLE	F	I/E AutoRange
IERANGE	IQUANT	4	I/E Range
POSFEEDENABLE	TOGGLE	F	Positive Feedback IR Comp
POSFEEDRESISTANCE	QUANT	0	Positive Feedback Resistance (ohm)
ACHSELECT	IQUANT	0	Ach Select
CABLEID	IQUANT	14	Cable ID
DCCALDATE	LABEL	8/19/2019	DC Calibration Date
ACCALDATE	LABEL	8/19/2019	AC Calibration Date
THERMOSELECT	IQUANT	1	Thermo Select
FRAMEWORKVERSION	QUANT	6.33	Framework Version
INSTRUMENTVERSION	LABEL	3.50	Instrument Version
ZCURVE	TABLE
	Pt	Time	Freq	Zreal	Zimag	Zsig	Zmod	Zphz	Idc	Vdc	IERange
	#	s	Hz	ohm	ohm	V	ohm	°	A	V	#
	0	2	1000078	2379.525	-1277.533	1	2700.783	-28.23071	-4.772907E-006	0.0656501	8
	1	3	794390.6	2604.476	-1165.703	1	2853.447	-24.11217	4.162225E-006	0.0635522	8
	2	5	630984.4	2788.09	-1033.899	1	2973.616	-20.34613	6.414798E-006	0.0627179	8
	3	6	501234.4	2912.848	-910.7162	1	3051.899	-17.36211	1.512216E-006	0.0635093	8
	4	8	398109.4	3050.194	-800.5998	1	3153.512	-14.70697	-1.808971E-006	0.0644462	8
	5	9	316265.6	3098.691	-710.738	1	3179.156	-12.91832	8.737693E-008	0.0639304	8
	6	11	251203.1	3184.035	-626.3763	1	3245.062	-11.12934	1.456451E-008	0.0639134	8
	7	12	199546.9	3256.536	-572.327	1	3306.446	-9.96778	-1.581294E-006	0.064388	8
	8	14	158578.1	3292.553	-516.4536	1	3332.812	-8.914495	-1.53747E-006	0.0640137	8
	9	15	125953.1	3347.24	-435.8712	1	3375.5	-7.4192	8.646147E-007	0.06272	7
	10	17	100078.1	3384.059	-426.0897	1	3410.778	-7.176396	-6.011679E-008	0.0639474	7
	11	18	79453.13	3422.719	-432.6486	1	3449.956	-7.20426	1.419998E-007	0.0636457	7
	12	19	63140.62	3463.657	-447.1871	1	3492.406	-7.356669	-2.979081E-008	0.0639153	7
	13	21	50203.12	3508.234	-470.4741	1	3539.64	-7.638119	-3.569941E-008	0.0638534	7
	14	22	39890.62	3559.744	-496.5392	1	3594.208	-7.940799	-5.32143E-008	0.0638821	7
	15	23	31640.63	3608.935	-544.2372	1	3649.74	-8.575742	5.657098E-008	0.0638602	7
	16	24	25171.88	3666.569	-597.4774	1	3714.93	-9.255157	-2.488074E-008	0.0639079	7
	17	26	20015.62	3731.005	-660.1522	1	3788.958	-10.03388	-3.937647E-008	0.0638717	7
	18	27	15890.62	3798.686	-738.843	1	3869.871	-11.00659	8.86066E-008	0.0636697	7
	19	28	12609.37	3881.512	-824.0981	1	3968.031	-11.98669	6.581345E-009	0.0637551	7
	20	30	10078.13	3968.224	-924.4833	1	4074.49	-13.11436	-6.474867E-008	0.063925	7
	21	31	8015.625	4067.209	-1043.348	1	4198.901	-14.38766	-3.424141E-008	0.0638444	7
	22	32	6328.125	4181.183	-1188.274	1	4346.755	-15.86492	-1.840487E-008	0.063885	7
	23	34	5015.625	4307.065	-1354.035	1	4514.889	-17.45186	-7.27732E-008	0.0639407	7
	24	35	3984.375	4447.098	-1544.358	1	4707.624	-19.15074	-3.682612E-008	0.0638453	7
	25	36	3170.956	4602.117	-1761.983	1	4927.886	-20.95002	-5.633347E-008	0.0639199	7
	26	38	2527.573	4777.535	-2016.91	1	5185.824	-22.88778	3.566887E-009	0.0637474	7
	27	39	1976.103	4992.931	-2338.084	1	5513.256	-25.0927	-2.31524E-008	0.0639858	7
	28	40	1577.524	5212.75	-2680.846	1	5861.715	-27.21614	-5.05436E-008	0.063871	7
	29	42	1265.625	5453.001	-3070.719	1	6258.157	-29.38493	9.582634E-008	0.0636592	7
	30	43	998.264	5741.371	-3559.967	1	6755.494	-31.8012	8.978922E-008	0.0636437	7
	31	44	796.875	6043.778	-4113.162	1	7310.633	-34.23769	-2.351229E-008	0.0639911	7
	32	46	627.7902	6403.047	-4812.948	1	8010.211	-36.93091	-3.422073E-008	0.0638425	7
	33	47	505.5147	6762.593	-5558.168	1	8753.622	-39.41675	2.53625E-008	0.0637367	7
	34	48	397.9953	7194.959	-6566.561	1	9741	-42.38549	2.345127E-009	0.0638579	7
	35	50	315.5048	7677.133	-7749.059	1	10908.08	-45.26715	-3.761496E-009	0.0637965	6
	36	51	252.4038	8204.876	-9132.58	1	12276.97	-48.0629	-5.007188E-009	0.0637918	6
	37	52	198.6229	8864.558	-10944.52	1	14084.14	-50.99412	-4.502203E-009	0.0637979	6
	38	54	158.3615	9617.78	-13039.33	1	16202.65	-53.58762	-5.125072E-009	0.0637946	6
	39	55	125.558	10562.36	-15649.16	1	18880.13	-55.98271	-4.584493E-009	0.0637939	6
	40	56	100.4464	11688.16	-18675.86	1	22031.81	-57.9599	-3.479577E-009	0.0637908	6
	41	58	79.00281	13302.07	-22608.14	1	26231.15	-59.52849	-3.766012E-009	0.0637929	6
	42	59	63.3446	14876.56	-26932.73	1	30768.23	-61.0855	-4.482677E-009	0.0637899	6
	43	60	49.86702	17901.36	-32248.07	1	36883.56	-60.96473	-5.708068E-009	0.0637978	6
	44	62	39.72458	20799.06	-38345.16	1	43622.84	-61.52385	-3.835566E-009	0.0637919	6
	45	63	31.6723	24813.42	-45330.8	1	51677.72	-61.30435	-5.203264E-009	0.0638014	6
	46	65	24.93351	29909.79	-53526.56	1	61316.3	-60.80424	-4.981807E-009	0.0637918	6
	47	66	19.86229	35776.47	-62425.14	1	71950.36	-60.18255	-5.418442E-009	0.063792	6
	48	67	15.83615	43663.65	-72160.88	1	84342.8	-58.82239	-7.296185E-009	0.063793	6
	49	69	12.40079	52113.95	-83451.19	1	98386.8	-58.01587	-2.512579E-009	0.0637888	6
	50	70	9.93114	61777.73	-95708.2	1	113914.7	-57.15857	-4.073453E-009	0.0637942	5
	51	72	7.944915	72849.65	-108925.6	1	131041.5	-56.22533	-5.635832E-009	0.0638019	5
	52	73	6.317385	85470.36	-124052.9	1	150646.3	-55.4338	-5.385802E-009	0.0638073	5
	53	75	5.008013	99951.8	-141057.2	1	172880	-54.67897	-4.26456E-009	0.0638049	5
	54	78	3.945707	116689.9	-160891.2	1	198752.4	-54.04766	-5.152687E-009	0.0637925	5
	55	80	3.158693	134197.8	-182233.3	1	226314	-53.63182	-4.615445E-009	0.0637977	5
	56	84	2.504006	154700.8	-207427.2	1	258763.1	-53.28414	-5.213224E-009	0.0638013	5
	57	86	1.998082	176441.5	-235430.8	1	294209.5	-53.15059	-4.472503E-009	0.063774	5
	58	89	1.584686	203190.2	-268894	1	337031.5	-52.92342	-4.725172E-009	0.0637433	5
	59	93	1.266892	231407	-306578.5	1	384108.8	-52.9543	-4.498405E-009	0.0637998	5
	60	97	0.999041	267769.6	-352715	1	442841.3	-52.79543	-5.254257E-009	0.0637603	5
