EXPLAIN
TAG	EISPOT
TITLE	LABEL	Potentiostatic EIS	Test &Identifier
DATE	LABEL	11/11/2019	Date
TIME	LABEL	11:54:25	Time
NOTES	NOTES	3	&Notes...
	
	
	
PSTAT	PSTAT	REF600-11020	Potentiostat
VDC	POTEN	0.00000E+000	T	DC &Voltage (V)
FREQINIT	QUANT	1.00000E+006	Initial Fre&q. (Hz)
FREQFINAL	QUANT	1.00000E+000	Final Fre&q. (Hz)
PTSPERDEC	QUANT	1.00000E+001	Points/&decade
VAC	QUANT	2.50000E+001	AC &Voltage (mV rms)
AREA	QUANT	1.00000E-002	&Area (cm^2)
CONDIT	TWOPARAM	T	5.00000E+000	0.00000E+000	Conditionin&g	Time(s)	E(V)
DELAY	TWOPARAM	T	5.00000E+000	0.00000E+000	Init. De&lay	Time(s)	Stab.(mV/s)
SPEED	SELECTOR	1	&Optimize for:
ZGUESS	QUANT	1.00000E+005	E&stimated Z (ohms)
OCVCURVE	TABLE	19
	Pt	T	Vf	Vm	Ach	Over
	#	s	V vs. Ref.	V	V	bits
	0	0.258333	1.18808E-003	1.18808E-003	5.35066E-004	...........
	1	0.516667	1.17203E-003	3.48227E-004	5.39599E-004	...........
	2	0.775	1.07803E-003	-2.11327E-004	5.33700E-004	...........
	3	1.03333	8.28685E-004	-6.66569E-004	5.35099E-004	...........
	4	1.29167	4.14741E-004	-1.29852E-003	5.33766E-004	...........
	5	1.55	-8.63342E-005	-1.02653E-003	5.30300E-004	...........
	6	1.80833	-5.52573E-004	-1.02332E-003	5.36933E-004	...........
	7	2.06667	-8.83964E-004	-1.51337E-003	5.38899E-004	...........
	8	2.325	-1.08491E-003	-1.63477E-003	5.38499E-004	...........
	9	2.58333	-1.24365E-003	-1.84442E-003	5.34733E-004	...........
	10	2.84167	-1.41458E-003	-1.69298E-003	5.36066E-004	...........
	11	3.1	-1.57944E-003	-1.97265E-003	5.37799E-004	...........
	12	3.35833	-1.71264E-003	-2.08961E-003	5.40266E-004	...........
	13	3.61667	-1.82706E-003	-2.25050E-003	5.37799E-004	...........
	14	3.875	-1.94855E-003	-2.37765E-003	5.43333E-004	...........
	15	4.13333	-2.09052E-003	-2.87162E-003	5.42433E-004	...........
	16	4.39167	-2.25353E-003	-2.29032E-003	5.39433E-004	...........
	17	4.65	-2.40877E-003	-2.79373E-003	5.34233E-004	...........
	18	4.90833	-2.52680E-003	-3.05054E-003	5.33833E-004	...........
EOC	QUANT	-0.0025268	Open Circuit (V)
PSTATMODEL	IQUANT	4	Pstat Model
PSTATSECTION	LABEL	REF600-11020	Pstat Section
PSTATSERIALNO	LABEL	11020	Pstat Serial Number
CTRLMODE	IQUANT	1	Control Mode
IESTAB	IQUANT	0	I/E Stability
CASPEED	IQUANT	1	Control Amp Speed
CONVENTION	IQUANT	1	Current Convention
ICHRANGE	IQUANT	2	Ich Range
ICHRANGEMODE	TOGGLE	F	Ich Auto Range
ICHOFFSETENABLE	TOGGLE	T	Ich Offset Enable
ICHOFFSET	QUANT	0	Ich Offset (V)
ICHFILTER	IQUANT	3	Ich Filter
VCHRANGE	IQUANT	2	Vch Range
VCHRANGEMODE	TOGGLE	F	Vch Auto Range
VCHOFFSETENABLE	TOGGLE	T	Vch Offset Enable
VCHOFFSET	QUANT	0	Vch Offset (V)
VCHFILTER	IQUANT	3	Vch Filter
ACHRANGE	IQUANT	2	Ach Range
ACHOFFSETENABLE	TOGGLE	F	Ach Offset Enable
ACHOFFSET	QUANT	0	Ach Offset (V)
ACHFILTER	IQUANT	3	Ach Filter
IERANGELOWERLIMIT	IQUANT	1	I/E Range Lower Limit
IERANGEMODE	TOGGLE	F	I/E AutoRange
IERANGE	IQUANT	4	I/E Range
POSFEEDENABLE	TOGGLE	F	Positive Feedback IR Comp
POSFEEDRESISTANCE	QUANT	0	Positive Feedback Resistance (ohm)
ACHSELECT	IQUANT	0	Ach Select
CABLEID	IQUANT	14	Cable ID
DCCALDATE	LABEL	8/19/2019	DC Calibration Date
ACCALDATE	LABEL	8/19/2019	AC Calibration Date
THERMOSELECT	IQUANT	1	Thermo Select
FRAMEWORKVERSION	QUANT	6.33	Framework Version
INSTRUMENTVERSION	LABEL	3.50	Instrument Version
ZCURVE	TABLE
	Pt	Time	Freq	Zreal	Zimag	Zsig	Zmod	Zphz	Idc	Vdc	IERange
	#	s	Hz	ohm	ohm	V	ohm	°	A	V	#
	0	1	1000078	2172.962	-1209.057	1	2486.681	-29.09199	-4.108526E-006	-0.0006917	8
	1	2	794390.6	2421.89	-1123.482	1	2669.787	-24.88595	6.068168E-007	-0.0010403	8
	2	4	630984.4	2611.127	-1015.151	1	2801.52	-21.24502	-5.197262E-007	-0.0002806	8
	3	5	501234.4	2758.303	-893.7688	1	2899.493	-17.9538	-2.582796E-006	-0.0009916	8
	4	6	398109.4	2867.665	-781.1204	1	2972.146	-15.23707	-4.456636E-006	-0.0005601	8
	5	8	316265.6	2968.887	-680.1355	1	3045.796	-12.90311	-8.795261E-008	-0.000508	8
	6	9	251203.1	3037.785	-593.7612	1	3095.269	-11.05952	5.672733E-006	-0.0016805	8
	7	10	199546.9	3088.066	-517.6577	1	3131.154	-9.51611	3.689298E-006	-0.0010261	8
	8	12	158578.1	3137.121	-464.359	1	3171.302	-8.419826	-5.598556E-006	-0.0001512	8
	9	13	125953.1	3202.542	-369.1733	1	3223.75	-6.575752	3.501817E-006	-0.0051588	7
	10	14	100078.1	3215.777	-337.4532	1	3233.434	-5.99051	-1.129672E-006	5.462172E-006	7
	11	16	79453.13	3243.663	-327.4942	1	3260.154	-5.765292	-6.778541E-007	-0.0011634	7
	12	17	63140.62	3273.015	-328.2069	1	3289.43	-5.726285	7.129933E-007	-0.0026555	7
	13	18	50203.12	3300.156	-332.5004	1	3316.864	-5.753303	-6.778431E-007	-0.0011618	7
	14	20	39890.62	3332.269	-345.8348	1	3350.167	-5.925149	3.74133E-007	-0.0005567	7
	15	21	31640.63	3365.802	-366.0898	1	3385.653	-6.207515	1.025554E-007	-0.0022887	7
	16	22	25171.88	3399.925	-392.8171	1	3422.542	-6.59056	-8.227223E-007	0.0005263	7
	17	24	20015.62	3439.532	-425.2924	1	3465.726	-7.04875	1.030508E-007	-0.0022883	7
	18	25	15890.62	3483.123	-471.4511	1	3514.884	-7.708311	-2.584298E-007	0.0002181	7
	19	26	12609.37	3529.686	-523.6367	1	3568.316	-8.438409	-1.010043E-006	0.0004722	7
	20	28	10078.13	3582.785	-586.5646	1	3630.483	-9.297837	-2.875384E-007	-0.0018139	7
	21	29	8015.625	3639.869	-659.0905	1	3699.06	-10.26364	-6.779432E-007	-0.0011683	7
	22	30	6328.125	3703.717	-750.502	1	3778.991	-11.45501	-1.133305E-006	0.0003171	7
	23	32	5015.625	3779.159	-857.9277	1	3875.318	-12.79025	9.463892E-007	-0.0017131	7
	24	33	3984.375	3855.913	-983.218	1	3979.294	-14.30499	7.157014E-007	-0.0026751	7
	25	35	3170.956	3945.32	-1129.151	1	4103.722	-15.97113	7.148669E-007	-0.0026742	7
	26	36	2527.573	4039.541	-1301.351	1	4243.985	-17.85652	4.450255E-007	-0.0025702	7
	27	37	1976.103	4153.063	-1523.91	1	4423.826	-20.14993	7.80293E-007	-0.0012548	7
	28	39	1577.524	4242.773	-1754.349	1	4591.172	-22.46465	9.020425E-007	-0.0025945	7
	29	40	1265.625	4393.452	-2054.843	1	4850.237	-25.06576	1.020395E-006	-0.0020919	7
	30	41	998.264	4537.441	-2428.096	1	5146.263	-28.15233	4.451154E-007	-0.0025717	7
	31	43	796.875	4689.762	-2850.438	1	5488.065	-31.29124	7.972257E-008	-0.0001584	7
	32	44	627.7902	4859.688	-3402.757	1	5932.564	-34.99974	1.065624E-007	-0.0022921	7
	33	45	505.5147	5024.669	-4011.844	1	6429.79	-38.6049	5.775216E-007	-0.0008648	7
	34	47	397.9953	5225.623	-4848.58	1	7128.524	-42.85662	3.962209E-009	-0.0010138	7
	35	48	315.5048	5442.257	-5858.787	1	7996.471	-47.11083	3.357744E-009	-0.0010125	7
	36	49	252.4038	5678.093	-7060.737	1	9060.615	-51.19451	3.193926E-009	-0.0010092	7
	37	51	198.6229	5979.831	-8664.78	1	10527.91	-55.38925	8.115036E-010	-0.0010685	6
	38	52	158.3615	6320.312	-10551.87	1	12299.93	-59.07943	5.010465E-010	-0.0010753	6
	39	54	125.558	6755.527	-12944.69	1	14601.45	-62.44102	5.670414E-010	-0.0010662	6
	40	55	100.4464	7266.76	-15775.89	1	17369.07	-65.26805	-1.326571E-011	-0.0010665	6
	41	56	79.00281	8018.518	-19534.05	1	21115.77	-67.68238	1.363825E-009	-0.001068	6
	42	58	63.3446	8922.909	-23632.4	1	25260.82	-69.31492	8.836415E-010	-0.0010802	6
	43	59	49.86702	10125.22	-29499.98	1	31189.24	-71.05634	1.415104E-009	-0.0010739	6
	44	60	39.72458	11471.52	-35991.35	1	37775.29	-72.32137	1.128737E-009	-0.0010672	6
	45	62	31.6723	13388.37	-43983.66	1	45976.2	-73.07005	9.100175E-010	-0.0010666	6
	46	63	24.93351	15975.12	-54132.56	1	56440.57	-73.55808	1.111782E-009	-0.0010762	6
	47	64	19.86229	19295.06	-65961.83	1	68725.99	-73.69482	6.142187E-010	-0.0010689	6
	48	66	15.83615	22808.51	-80097.6	1	83281.77	-74.10522	-4.829719E-010	-0.0010676	6
	49	67	12.40079	29598.43	-99103.3	1	103428.9	-73.37109	-9.408965E-010	-0.0010639	6
	50	69	9.93114	36359.31	-118649.8	1	124095.8	-72.96273	-1.701572E-010	-0.0010544	5
	51	70	7.944915	45197.48	-142566.8	1	149559.7	-72.41	6.857612E-010	-0.001066	5
	52	72	6.317385	56824.28	-171347.4	1	180524	-71.65282	5.869466E-010	-0.0010638	5
	53	74	5.008013	71679.28	-206148.1	1	218254.4	-70.82705	4.898319E-010	-0.0010543	5
	54	76	3.945707	91585.45	-247366.8	1	263776.9	-69.68336	9.286368E-011	-0.0010753	5
	55	79	3.158693	114488.2	-292500.4	1	314108.3	-68.62402	3.370197E-010	-0.0010573	5
	56	82	2.504006	144139.6	-346483.8	1	375269.6	-67.41235	4.412816E-012	-0.0010656	5
	57	85	1.998082	178792.8	-405171.4	1	442866.5	-66.18923	3.746598E-010	-0.0011136	5
	58	88	1.584686	220183.2	-475427.7	1	523939	-65.14989	1.154089E-010	-0.0010989	5
	59	92	1.266892	269936.9	-552093.7	1	614551.4	-63.94446	3.288509E-010	-0.0011139	5
	60	96	0.999041	329894.4	-642896.6	1	722596.9	-62.83594	5.325963E-011	-0.0010499	5
