EXPLAIN
TAG	EISPOT
TITLE	LABEL	Potentiostatic EIS	Test &Identifier
DATE	LABEL	10/31/2019	Date
TIME	LABEL	23:42:14	Time
NOTES	NOTES	1	&Notes...
	
PSTAT	PSTAT	REF600-11020	Potentiostat
VDC	POTEN	0.00000E+000	T	DC &Voltage (V)
FREQINIT	QUANT	1.00000E+006	Initial Fre&q. (Hz)
FREQFINAL	QUANT	1.00000E+000	Final Fre&q. (Hz)
PTSPERDEC	QUANT	1.00000E+001	Points/&decade
VAC	QUANT	2.50000E+001	AC &Voltage (mV rms)
AREA	QUANT	1.00000E-002	&Area (cm^2)
CONDIT	TWOPARAM	T	5.00000E+000	0.00000E+000	Conditionin&g	Time(s)	E(V)
DELAY	TWOPARAM	T	5.00000E+000	0.00000E+000	Init. De&lay	Time(s)	Stab.(mV/s)
SPEED	SELECTOR	0	&Optimize for:
ZGUESS	QUANT	1.00000E+005	E&stimated Z (ohms)
OCVCURVE	TABLE	19
	Pt	T	Vf	Vm	Ach	Over
	#	s	V vs. Ref.	V	V	bits
	0	0.258333	7.56813E-003	7.56813E-003	5.49033E-004	...........
	1	0.516667	7.57165E-003	7.75244E-003	5.57066E-004	...........
	2	0.775	7.59331E-003	7.92892E-003	5.55033E-004	...........
	3	1.03333	7.65490E-003	8.10984E-003	5.48999E-004	...........
	4	1.29167	7.76631E-003	8.28509E-003	5.53466E-004	...........
	5	1.55	7.91724E-003	8.46422E-003	5.60299E-004	...........
	6	1.80833	8.08906E-003	8.63301E-003	5.59466E-004	...........
	7	2.06667	8.26725E-003	8.80286E-003	5.55733E-004	...........
	8	2.325	8.44418E-003	8.96171E-003	5.53266E-004	...........
	9	2.58333	8.61691E-003	9.12489E-003	5.54266E-004	...........
	10	2.84167	8.78487E-003	9.27642E-003	5.51199E-004	...........
	11	3.1	8.94838E-003	9.43211E-003	5.47466E-004	...........
	12	3.35833	9.10787E-003	9.57668E-003	5.54066E-004	...........
	13	3.61667	9.26364E-003	9.72581E-003	5.57666E-004	...........
	14	3.875	9.41584E-003	9.86297E-003	5.53233E-004	...........
	15	4.13333	9.56455E-003	1.00052E-002	5.54533E-004	...........
	16	4.39167	9.70984E-003	1.01390E-002	5.61699E-004	...........
	17	4.65	9.85196E-003	1.02767E-002	5.64199E-004	...........
	18	4.90833	9.99133E-003	1.04053E-002	5.56133E-004	...........
EOC	QUANT	0.0099913	Open Circuit (V)
PSTATMODEL	IQUANT	4	Pstat Model
PSTATSECTION	LABEL	REF600-11020	Pstat Section
PSTATSERIALNO	LABEL	11020	Pstat Serial Number
CTRLMODE	IQUANT	1	Control Mode
IESTAB	IQUANT	0	I/E Stability
CASPEED	IQUANT	1	Control Amp Speed
CONVENTION	IQUANT	1	Current Convention
ICHRANGE	IQUANT	2	Ich Range
ICHRANGEMODE	TOGGLE	F	Ich Auto Range
ICHOFFSETENABLE	TOGGLE	T	Ich Offset Enable
ICHOFFSET	QUANT	0	Ich Offset (V)
ICHFILTER	IQUANT	3	Ich Filter
VCHRANGE	IQUANT	2	Vch Range
VCHRANGEMODE	TOGGLE	F	Vch Auto Range
VCHOFFSETENABLE	TOGGLE	T	Vch Offset Enable
VCHOFFSET	QUANT	0	Vch Offset (V)
VCHFILTER	IQUANT	3	Vch Filter
ACHRANGE	IQUANT	2	Ach Range
ACHOFFSETENABLE	TOGGLE	F	Ach Offset Enable
ACHOFFSET	QUANT	0	Ach Offset (V)
ACHFILTER	IQUANT	3	Ach Filter
IERANGELOWERLIMIT	IQUANT	1	I/E Range Lower Limit
IERANGEMODE	TOGGLE	F	I/E AutoRange
IERANGE	IQUANT	5	I/E Range
POSFEEDENABLE	TOGGLE	F	Positive Feedback IR Comp
POSFEEDRESISTANCE	QUANT	0	Positive Feedback Resistance (ohm)
ACHSELECT	IQUANT	0	Ach Select
CABLEID	IQUANT	14	Cable ID
DCCALDATE	LABEL	8/19/2019	DC Calibration Date
ACCALDATE	LABEL	8/19/2019	AC Calibration Date
THERMOSELECT	IQUANT	1	Thermo Select
FRAMEWORKVERSION	QUANT	6.33	Framework Version
INSTRUMENTVERSION	LABEL	3.50	Instrument Version
ZCURVE	TABLE
	Pt	Time	Freq	Zreal	Zimag	Zsig	Zmod	Zphz	Idc	Vdc	IERange
	#	s	Hz	ohm	ohm	V	ohm	°	A	V	#
	0	2	1000078	1717.753	-776.3512	1	1885.046	-24.32094	1.479303E-005	0.0110843	8
	1	2	794390.6	1859.925	-731.6198	1	1998.647	-21.47268	2.173826E-006	0.010967	8
	2	2	630984.4	1970.126	-656.34	1	2076.578	-18.4253	-2.395269E-006	0.0115038	8
	3	3	501234.4	2059.137	-583.1402	1	2140.116	-15.81193	-2.397496E-006	0.0121891	8
	4	3	398109.4	2133.371	-516.8579	1	2195.088	-13.6188	-4.447938E-006	0.0119701	8
	5	3	316265.6	2191.687	-452.9941	1	2238.011	-11.67788	1.045064E-006	0.0119298	8
	6	4	251203.1	2240.423	-402.8537	1	2276.354	-10.19351	5.645307E-006	0.0105002	8
	7	4	199546.9	2278.296	-360.6077	1	2306.658	-8.994138	-1.396524E-006	0.0119461	8
	8	4	158578.1	2318.284	-316.549	1	2339.796	-7.775339	-7.207508E-007	0.0119639	8
	9	5	125953.1	2354.394	-268.3558	1	2369.638	-6.502559	-2.699041E-006	0.0150666	7
	10	5	100078.1	2375.5	-244.6176	1	2388.062	-5.879322	-1.037174E-006	0.0127906	7
	11	5	79453.13	2399.33	-241.4788	1	2411.451	-5.74714	8.577064E-007	0.0108879	7
	12	6	63140.62	2421.365	-241.2708	1	2433.355	-5.69031	7.418249E-008	0.0104005	7
	13	6	50203.12	2443.916	-246.5377	1	2456.319	-5.760406	3.577118E-007	0.0119125	7
	14	6	39890.62	2466.406	-255.5101	1	2479.606	-5.91452	-8.995595E-007	0.0119908	7
	15	7	31640.63	2491.585	-269.7274	1	2506.142	-6.178514	7.407004E-008	0.0103978	7
	16	7	25171.88	2514.934	-289.8807	1	2531.585	-6.575109	-2.789499E-007	0.0108311	7
	17	7	20015.62	2541.527	-314.2292	1	2560.878	-7.048165	-9.207123E-007	0.0129025	7
	18	8	15890.62	2565.104	-352.2446	1	2589.177	-7.819053	-1.041226E-006	0.0127748	7
	19	8	12609.37	2595.513	-397.8539	1	2625.829	-8.714767	8.61454E-007	0.0108746	7
	20	8	10078.13	2620.927	-452.4204	1	2659.689	-9.79379	-7.446586E-007	0.0129336	7
	21	9	8015.625	2652.483	-521.0833	1	2703.182	-11.11428	7.160076E-007	0.011285	7
	22	9	6328.125	2688.412	-612.9408	1	2757.4	-12.84353	6.309241E-007	0.0100413	7
	23	9	5015.625	2725.046	-722.8084	1	2819.278	-14.85541	3.583465E-007	0.011905	7
	24	9	3984.375	2767.564	-856.183	1	2896.974	-17.19015	3.840625E-007	0.0101347	7
	25	10	3170.956	2813.281	-1020.541	1	2992.666	-19.93866	-5.04407E-007	0.0128456	7
	26	10	2527.573	2866.605	-1220.423	1	3115.583	-23.06131	5.37946E-007	0.0116334	7
	27	10	1976.103	2930.013	-1486.334	1	3285.447	-26.89772	-7.439771E-007	0.0129273	7
	28	11	1577.524	3012.558	-1782.164	1	3500.231	-30.60763	8.612031E-008	0.0122851	7
	29	11	1265.625	3075.07	-2155.047	1	3755.035	-35.02325	9.016846E-007	0.0102683	7
	30	11	998.264	3167.684	-2636.433	1	4121.286	-39.77028	8.047148E-007	0.0100938	7
	31	12	796.875	3277.104	-3196.673	1	4578.005	-44.28819	-2.754711E-007	0.0108133	7
	32	12	627.7902	3411.384	-3942.672	1	5213.656	-49.13211	8.629275E-007	0.0108744	7
	33	12	505.5147	3564.975	-4767.171	1	5952.728	-53.21021	7.539073E-008	0.0103829	7
	34	13	397.9953	3775.44	-5892.326	1	6998.104	-57.35075	1.763467E-009	0.0115389	7
	35	13	315.5048	4037.123	-7247.148	1	8295.753	-60.87941	1.431391E-009	0.0115352	7
	36	13	252.4038	4359.729	-8845.56	1	9861.6	-63.7626	3.770166E-009	0.0115331	7
	37	14	198.6229	4816.708	-10952.02	1	11964.42	-66.26006	-2.116584E-010	0.0114752	6
	38	14	158.3615	5380.06	-13389.75	1	14430.19	-68.10953	2.936922E-010	0.0114691	6
	39	14	125.558	6145.714	-16437.83	1	17549.13	-69.50043	-1.841013E-010	0.0114729	6
	40	15	100.4464	7117.786	-20009.95	1	21238.2	-70.4189	1.545932E-010	0.011469	6
	41	15	79.00281	8415.484	-24611.96	1	26010.94	-71.12308	-6.424369E-010	0.0114731	6
	42	15	63.3446	10377.63	-29510.63	1	31282.14	-70.6254	-2.146363E-010	0.0114624	6
	43	16	49.86702	12664.07	-36206.32	1	38357.22	-70.72143	-5.32023E-010	0.0114654	6
	44	16	39.72458	15415.4	-43767.17	1	46402.59	-70.59704	5.516483E-011	0.0114604	6
	45	16	31.6723	19058.46	-52612.82	1	55958.32	-70.08759	-2.838864E-010	0.0114628	6
	46	17	24.93351	24455.2	-63518.54	1	68063.66	-68.94286	-1.251958E-009	0.0114632	6
	47	17	19.86229	30864.58	-75367.74	1	81442.73	-67.72993	-1.575766E-009	0.0114588	6
	48	17	15.83615	38058.85	-88358.45	1	96206.5	-66.69688	-9.406089E-010	0.011458	6
	49	18	12.40079	48998.22	-105337.7	1	116176	-65.05433	5.237631E-010	0.0114663	5
	50	18	9.93114	61908.68	-121821	1	136649.3	-63.0606	1.076093E-009	0.0114682	5
	51	19	7.944915	76331.87	-140434.7	1	159838.9	-61.47416	-5.95131E-010	0.0114788	5
	52	19	6.317385	93614.16	-161078.3	1	186305.7	-59.83605	-6.25844E-010	0.0114799	5
	53	20	5.008013	113788.4	-183464.8	1	215886.9	-58.19201	5.12526E-012	0.0114742	5
	54	21	3.945707	136989.9	-208358.8	1	249358.4	-56.67624	-3.04757E-010	0.0114618	5
	55	22	3.158693	161013.6	-234451.1	1	284416.4	-55.51995	4.093882E-011	0.0114673	5
	56	24	2.504006	187657.2	-264591.9	1	324382.6	-54.6545	1.709937E-011	0.0114744	5
	57	25	1.998082	216009.9	-297661.2	1	367780.4	-54.03196	-3.630395E-010	0.0114249	5
	58	27	1.584686	245847.9	-337618.9	1	417645.4	-53.93858	-2.898951E-010	0.011441	5
	59	29	1.266892	277476.2	-381745.1	1	471934.7	-53.988	-1.713418E-010	0.011483	5
	60	31	0.999041	314579.5	-438424.5	1	539607.5	-54.3397	-1.141489E-010	0.0115036	5
