EXPLAIN
TAG	EISPOT
TITLE	LABEL	Potentiostatic EIS	Test &Identifier
DATE	LABEL	10/16/2019	Date
TIME	LABEL	10:16:38	Time
NOTES	NOTES	1	&Notes...
	
PSTAT	PSTAT	REF600-11020	Potentiostat
VDC	POTEN	0.00000E+000	T	DC &Voltage (V)
FREQINIT	QUANT	1.00000E+006	Initial Fre&q. (Hz)
FREQFINAL	QUANT	1.00000E+000	Final Fre&q. (Hz)
PTSPERDEC	QUANT	1.00000E+001	Points/&decade
VAC	QUANT	2.50000E+001	AC &Voltage (mV rms)
AREA	QUANT	1.00000E-002	&Area (cm^2)
CONDIT	TWOPARAM	T	5.00000E+000	0.00000E+000	Conditionin&g	Time(s)	E(V)
DELAY	TWOPARAM	T	5.00000E+000	0.00000E+000	Init. De&lay	Time(s)	Stab.(mV/s)
SPEED	SELECTOR	0	&Optimize for:
ZGUESS	QUANT	1.00000E+005	E&stimated Z (ohms)
OCVCURVE	TABLE	19
	Pt	T	Vf	Vm	Ach	Over
	#	s	V vs. Ref.	V	V	bits
	0	0.258333	6.69528E-003	6.69528E-003	5.57032E-004	...........
	1	0.516667	6.69449E-003	6.65415E-003	5.57532E-004	...........
	2	0.775	6.69084E-003	6.67668E-003	5.56099E-004	...........
	3	1.03333	6.68421E-003	6.68692E-003	5.47766E-004	...........
	4	1.29167	6.67836E-003	6.66603E-003	5.53066E-004	...........
	5	1.55	6.67639E-003	6.70656E-003	5.57699E-004	...........
	6	1.80833	6.67868E-003	6.70678E-003	5.53566E-004	...........
	7	2.06667	6.68373E-003	6.63684E-003	5.51066E-004	...........
	8	2.325	6.68472E-003	6.60044E-003	5.51099E-004	...........
	9	2.58333	6.67371E-003	6.63523E-003	5.49899E-004	...........
	10	2.84167	6.65569E-003	6.72795E-003	5.47599E-004	...........
	11	3.1	6.65104E-003	6.86494E-003	5.45399E-004	...........
	12	3.35833	6.68302E-003	7.10896E-003	5.49266E-004	...........
	13	3.61667	6.76765E-003	7.33500E-003	5.49799E-004	...........
	14	3.875	6.90112E-003	7.14548E-003	5.53766E-004	...........
	15	4.13333	7.04101E-003	7.01870E-003	5.56766E-004	...........
	16	4.39167	7.12555E-003	7.02416E-003	5.52333E-004	...........
	17	4.65	7.13275E-003	7.03941E-003	5.50566E-004	...........
	18	4.90833	7.09841E-003	7.14165E-003	5.50966E-004	...........
EOC	QUANT	0.0070984	Open Circuit (V)
PSTATMODEL	IQUANT	4	Pstat Model
PSTATSECTION	LABEL	REF600-11020	Pstat Section
PSTATSERIALNO	LABEL	11020	Pstat Serial Number
CTRLMODE	IQUANT	1	Control Mode
IESTAB	IQUANT	0	I/E Stability
CASPEED	IQUANT	1	Control Amp Speed
CONVENTION	IQUANT	1	Current Convention
ICHRANGE	IQUANT	2	Ich Range
ICHRANGEMODE	TOGGLE	F	Ich Auto Range
ICHOFFSETENABLE	TOGGLE	T	Ich Offset Enable
ICHOFFSET	QUANT	0	Ich Offset (V)
ICHFILTER	IQUANT	3	Ich Filter
VCHRANGE	IQUANT	2	Vch Range
VCHRANGEMODE	TOGGLE	F	Vch Auto Range
VCHOFFSETENABLE	TOGGLE	T	Vch Offset Enable
VCHOFFSET	QUANT	0	Vch Offset (V)
VCHFILTER	IQUANT	3	Vch Filter
ACHRANGE	IQUANT	2	Ach Range
ACHOFFSETENABLE	TOGGLE	F	Ach Offset Enable
ACHOFFSET	QUANT	0	Ach Offset (V)
ACHFILTER	IQUANT	3	Ach Filter
IERANGELOWERLIMIT	IQUANT	1	I/E Range Lower Limit
IERANGEMODE	TOGGLE	F	I/E AutoRange
IERANGE	IQUANT	5	I/E Range
POSFEEDENABLE	TOGGLE	F	Positive Feedback IR Comp
POSFEEDRESISTANCE	QUANT	0	Positive Feedback Resistance (ohm)
ACHSELECT	IQUANT	0	Ach Select
CABLEID	IQUANT	14	Cable ID
DCCALDATE	LABEL	8/19/2019	DC Calibration Date
ACCALDATE	LABEL	8/19/2019	AC Calibration Date
THERMOSELECT	IQUANT	1	Thermo Select
FRAMEWORKVERSION	QUANT	6.33	Framework Version
INSTRUMENTVERSION	LABEL	3.50	Instrument Version
ZCURVE	TABLE
	Pt	Time	Freq	Zreal	Zimag	Zsig	Zmod	Zphz	Idc	Vdc	IERange
	#	s	Hz	ohm	ohm	V	ohm	°	A	V	#
	0	1	1000078	2176.151	-1082.577	1	2430.557	-26.44912	4.392213E-006	0.0087825	8
	1	2	794390.6	2372.748	-999.373	1	2574.622	-22.84024	-3.312588E-006	0.0092342	8
	2	2	630984.4	2531.617	-899.6879	1	2686.731	-19.56423	1.365839E-006	0.0087362	8
	3	2	501234.4	2654.563	-807.7888	1	2774.748	-16.92511	-1.712716E-006	0.0089811	8
	4	3	398109.4	2740.638	-714.0808	1	2832.138	-14.60388	-2.42977E-006	0.0091413	8
	5	3	316265.6	2837.283	-626.2455	1	2905.574	-12.44677	3.644547E-006	0.0080176	8
	6	3	251203.1	2898.598	-557.5045	1	2951.726	-10.88708	4.787652E-007	0.0085737	8
	7	4	199546.9	2950.344	-498.2607	1	2992.121	-9.58579	3.374573E-006	0.0078624	8
	8	4	158578.1	2989.757	-454.8007	1	3024.152	-8.649501	1.230771E-006	0.0083506	8
	9	4	125953.1	3054.333	-397.0712	1	3080.035	-7.407057	-3.905753E-008	0.0087926	7
	10	5	100078.1	3083.57	-368.2132	1	3105.476	-6.809522	-7.823712E-009	0.0085559	7
	11	5	79453.13	3119.268	-366.3439	1	3140.707	-6.698444	9.655452E-008	0.0084192	7
	12	5	63140.62	3157.425	-370.528	1	3179.091	-6.693125	-6.108723E-008	0.0087297	7
	13	6	50203.12	3198.605	-379.528	1	3221.042	-6.76675	-4.759164E-008	0.0086207	7
	14	6	39890.62	3241.494	-394.1023	1	3265.363	-6.932025	-1.142424E-008	0.0085934	7
	15	6	31640.63	3286.875	-412.7481	1	3312.689	-7.157432	3.70605E-008	0.0084434	7
	16	7	25171.88	3333.921	-437.6437	1	3362.523	-7.478456	-4.861679E-008	0.0086188	7
	17	7	20015.62	3392.037	-468.8234	1	3424.282	-7.869162	-4.986695E-008	0.0086143	7
	18	7	15890.62	3438.772	-501.2405	1	3475.111	-8.293114	-5.969171E-008	0.0087293	7
	19	7	12609.37	3493.639	-542.9438	1	3535.576	-8.83363	-2.707413E-009	0.0085502	7
	20	8	10078.13	3547.582	-590.6462	1	3596.415	-9.452621	-1.397771E-008	0.0085297	7
	21	8	8015.625	3608.474	-650.4585	1	3666.631	-10.21832	-2.5448E-008	0.0085493	7
	22	8	6328.125	3668.37	-724.8479	1	3739.297	-11.17732	3.350222E-008	0.0084431	7
	23	9	5015.625	3728.73	-815.2307	1	3816.809	-12.3328	-2.485574E-008	0.0085462	7
	24	9	3984.375	3788.191	-928.8759	1	3900.411	-13.77727	8.934821E-009	0.0084915	7
	25	9	3170.956	3849.029	-1066.936	1	3994.168	-15.49317	1.019436E-008	0.0084941	7
	26	10	2527.573	3908.436	-1240.554	1	4100.591	-17.60966	3.582906E-008	0.0084376	7
	27	10	1976.103	3977.599	-1481.021	1	4244.375	-20.42233	6.188579E-008	0.008426	7
	28	10	1577.524	4048.468	-1776.844	1	4421.229	-23.69633	-1.46153E-008	0.0085875	7
	29	11	1265.625	4126.147	-2090.58	1	4625.54	-26.8698	3.26302E-008	0.008514	7
	30	11	998.264	4220.943	-2541.956	1	4927.261	-31.05739	9.681274E-008	0.0084039	7
	31	11	796.875	4326.642	-3074.127	1	5307.55	-35.39422	7.231532E-008	0.0084947	7
	32	12	627.7902	4465.209	-3770.058	1	5843.922	-40.17501	-4.966729E-008	0.0086098	7
	33	12	505.5147	4619.876	-4546.566	1	6481.861	-44.54178	9.170767E-009	0.0084861	7
	34	12	397.9953	4827.511	-5604.324	1	7396.844	-49.25871	2.075158E-009	0.0085717	7
	35	13	315.5048	5086.21	-6873.331	1	8550.567	-53.49885	1.958943E-009	0.008572	7
	36	13	252.4038	5401.022	-8363.962	1	9956.25	-57.14767	2.997801E-009	0.0085694	7
	37	13	198.6229	5837.715	-10326.21	1	11862.1	-60.51922	4.735786E-010	0.0085129	6
	38	14	158.3615	6366.559	-12593.65	1	14111.45	-63.18171	1.150493E-009	0.0085085	6
	39	14	125.558	7065.913	-15424.03	1	16965.49	-65.38698	7.2157E-010	0.0085102	6
	40	14	100.4464	7912.165	-18716.3	1	20319.99	-67.08418	-5.669185E-010	0.0085055	6
	41	15	79.00281	9077.771	-22992.68	1	24719.82	-68.45533	8.733895E-010	0.0085011	6
	42	15	63.3446	10775.6	-27819.85	1	29833.83	-68.82687	1.216579E-010	0.0085015	6
	43	15	49.86702	12656.11	-34021.12	1	36298.95	-69.59443	6.337154E-011	0.0084983	6
	44	16	39.72458	14904.08	-40950.43	1	43578.31	-70.00082	2.184658E-010	0.008502	6
	45	16	31.6723	17725.36	-49338.48	1	52425.89	-70.23865	6.753871E-010	0.0084987	6
	46	16	24.93351	21880.95	-59828.08	1	63703.81	-69.911	6.539121E-010	0.0084996	6
	47	17	19.86229	26550.52	-71596.92	1	76361.3	-69.65355	1.07465E-009	0.008499	6
	48	17	15.83615	32447.29	-86161.33	1	92068.46	-69.36425	1.963548E-009	0.0084996	6
	49	17	12.40079	40708.42	-103727.1	1	111429.3	-68.57213	-2.532967E-010	0.0085039	5
	50	18	9.93114	49227.03	-121984.2	1	131542.5	-68.02333	1.142027E-010	0.0085026	5
	51	18	7.944915	60089.1	-143813	1	155861.8	-67.32347	2.01501E-012	0.0085049	5
	52	19	6.317385	73219.2	-169520.9	1	184657.5	-66.6396	2.832302E-010	0.008495	5
	53	19	5.008013	89484.7	-200057.2	1	219158.4	-65.90125	3.050765E-010	0.0085057	5
	54	21	3.945707	109856.8	-237064.4	1	261281.6	-65.13676	-1.617655E-010	0.0084981	5
	55	22	3.158693	131802.1	-276067.6	1	305916.9	-64.47894	-2.601927E-011	0.0084804	5
	56	24	2.504006	159474	-323319.4	1	360509.9	-63.74565	2.271899E-010	0.0084866	5
	57	25	1.998082	190298	-375209.1	1	420708	-63.10686	-4.791766E-012	0.0084718	5
	58	26	1.584686	227959.4	-438242.8	1	493986.1	-62.51804	-8.208263E-011	0.0084408	5
	59	28	1.266892	267979.7	-507757	1	574134.4	-62.17618	-4.324252E-011	0.0084621	5
	60	31	0.999041	317161	-592113.7	1	671706.6	-61.82462	3.50924E-011	0.0084888	5
