EXPLAIN
TAG	EISPOT
TITLE	LABEL	Potentiostatic EIS	Test &Identifier
DATE	LABEL	10/14/2019	Date
TIME	LABEL	11:10:35	Time
NOTES	NOTES	1	&Notes...
	
PSTAT	PSTAT	REF600-11020	Potentiostat
VDC	POTEN	0.00000E+000	T	DC &Voltage (V)
FREQINIT	QUANT	1.00000E+006	Initial Fre&q. (Hz)
FREQFINAL	QUANT	1.00000E+000	Final Fre&q. (Hz)
PTSPERDEC	QUANT	1.00000E+001	Points/&decade
VAC	QUANT	2.50000E+001	AC &Voltage (mV rms)
AREA	QUANT	1.00000E-002	&Area (cm^2)
CONDIT	TWOPARAM	T	5.00000E+000	0.00000E+000	Conditionin&g	Time(s)	E(V)
DELAY	TWOPARAM	T	5.00000E+000	0.00000E+000	Init. De&lay	Time(s)	Stab.(mV/s)
SPEED	SELECTOR	1	&Optimize for:
ZGUESS	QUANT	1.00000E+004	E&stimated Z (ohms)
OCVCURVE	TABLE	19
	Pt	T	Vf	Vm	Ach	Over
	#	s	V vs. Ref.	V	V	bits
	0	0.258333	6.13607E-003	6.13607E-003	5.65666E-004	...........
	1	0.516667	6.13417E-003	6.03638E-003	5.70766E-004	...........
	2	0.775	6.12284E-003	5.96092E-003	5.65399E-004	...........
	3	1.03333	6.09235E-003	5.90753E-003	5.56233E-004	...........
	4	1.29167	6.04176E-003	5.85722E-003	5.69899E-004	...........
	5	1.55	5.98114E-003	5.82533E-003	5.73999E-004	...........
	6	1.80833	5.92246E-003	5.79542E-003	5.61532E-004	...........
	7	2.06667	5.87265E-003	5.77781E-003	5.63232E-004	...........
	8	2.325	5.83338E-003	5.75644E-003	5.69199E-004	...........
	9	2.58333	5.80333E-003	5.74832E-003	5.72532E-004	...........
	10	2.84167	5.78047E-003	5.73977E-003	5.61299E-004	...........
	11	3.1	5.76331E-003	5.73399E-003	5.67132E-004	...........
	12	3.35833	5.75083E-003	5.73188E-003	5.75999E-004	...........
	13	3.61667	5.74211E-003	5.73031E-003	5.78466E-004	...........
	14	3.875	5.73635E-003	5.72979E-003	5.66299E-004	...........
	15	4.13333	5.73286E-003	5.72994E-003	5.65966E-004	...........
	16	4.39167	5.73091E-003	5.72675E-003	5.77566E-004	...........
	17	4.65	5.72997E-003	5.73785E-003	5.73999E-004	...........
	18	4.90833	5.73019E-003	5.74269E-003	5.66232E-004	...........
EOC	QUANT	0.0057302	Open Circuit (V)
PSTATMODEL	IQUANT	4	Pstat Model
PSTATSECTION	LABEL	REF600-11020	Pstat Section
PSTATSERIALNO	LABEL	11020	Pstat Serial Number
CTRLMODE	IQUANT	1	Control Mode
IESTAB	IQUANT	0	I/E Stability
CASPEED	IQUANT	1	Control Amp Speed
CONVENTION	IQUANT	1	Current Convention
ICHRANGE	IQUANT	2	Ich Range
ICHRANGEMODE	TOGGLE	F	Ich Auto Range
ICHOFFSETENABLE	TOGGLE	T	Ich Offset Enable
ICHOFFSET	QUANT	0	Ich Offset (V)
ICHFILTER	IQUANT	3	Ich Filter
VCHRANGE	IQUANT	2	Vch Range
VCHRANGEMODE	TOGGLE	F	Vch Auto Range
VCHOFFSETENABLE	TOGGLE	T	Vch Offset Enable
VCHOFFSET	QUANT	0	Vch Offset (V)
VCHFILTER	IQUANT	3	Vch Filter
ACHRANGE	IQUANT	2	Ach Range
ACHOFFSETENABLE	TOGGLE	F	Ach Offset Enable
ACHOFFSET	QUANT	0	Ach Offset (V)
ACHFILTER	IQUANT	3	Ach Filter
IERANGELOWERLIMIT	IQUANT	1	I/E Range Lower Limit
IERANGEMODE	TOGGLE	F	I/E AutoRange
IERANGE	IQUANT	6	I/E Range
POSFEEDENABLE	TOGGLE	F	Positive Feedback IR Comp
POSFEEDRESISTANCE	QUANT	0	Positive Feedback Resistance (ohm)
ACHSELECT	IQUANT	0	Ach Select
CABLEID	IQUANT	14	Cable ID
DCCALDATE	LABEL	8/19/2019	DC Calibration Date
ACCALDATE	LABEL	8/19/2019	AC Calibration Date
THERMOSELECT	IQUANT	1	Thermo Select
FRAMEWORKVERSION	QUANT	6.33	Framework Version
INSTRUMENTVERSION	LABEL	3.50	Instrument Version
ZCURVE	TABLE
	Pt	Time	Freq	Zreal	Zimag	Zsig	Zmod	Zphz	Idc	Vdc	IERange
	#	s	Hz	ohm	ohm	V	ohm	°	A	V	#
	0	1	1000078	2537.593	-1890.439	1	3164.354	-36.68513	4.593867E-007	0.0080699	8
	1	3	794390.6	2912.668	-1851.452	1	3451.306	-32.44228	9.060013E-007	0.0075557	8
	2	4	630984.4	3265.249	-1730.955	1	3695.681	-27.9287	-3.519188E-006	0.0082369	8
	3	5	501234.4	3559.387	-1583.467	1	3895.716	-23.98289	-2.567641E-006	0.0080788	8
	4	7	398109.4	3814.33	-1407.392	1	4065.693	-20.25279	1.006431E-006	0.0072538	8
	5	8	316265.6	4000.363	-1222.63	1	4183.028	-16.99471	-2.619087E-006	0.007988	8
	6	9	251203.1	4159.031	-1064.024	1	4292.981	-14.35045	7.187367E-007	0.007272	8
	7	11	199546.9	4267.526	-918.5269	1	4365.257	-12.14682	-2.215238E-006	0.0077776	8
	8	12	158578.1	4349.613	-796.673	1	4421.971	-10.37922	-2.5825E-006	0.007764	8
	9	14	125953.1	4442.925	-640.2109	1	4488.814	-8.199693	1.117062E-006	0.0052403	7
	10	15	100078.1	4480.965	-573.1049	1	4517.465	-7.288426	-3.054089E-008	0.0073113	7
	11	16	79453.13	4527.441	-523.0914	1	4557.56	-6.590615	4.310732E-009	0.0073936	7
	12	18	63140.62	4566.555	-487.0028	1	4592.45	-6.087333	5.947605E-008	0.0072019	7
	13	19	50203.12	4604.378	-463.0439	1	4627.603	-5.7427	-6.245403E-009	0.0073388	7
	14	20	39890.62	4642.487	-454.6796	1	4664.699	-5.59364	3.867322E-008	0.007246	7
	15	22	31640.63	4676.929	-454.686	1	4698.979	-5.552784	6.063716E-008	0.0071968	7
	16	23	25171.88	4713.866	-467.9907	1	4737.04	-5.669723	1.101642E-007	0.0071348	7
	17	24	20015.62	4750.475	-497.0371	1	4776.406	-5.973063	-2.143184E-008	0.0072849	7
	18	26	15890.62	4794.604	-531.5595	1	4823.98	-6.32633	-2.213594E-009	0.0073287	7
	19	27	12609.37	4837.465	-583.2161	1	4872.496	-6.874534	5.8565E-008	0.0072007	7
	20	28	10078.13	4882.289	-648.2592	1	4925.138	-7.563364	4.035314E-008	0.0072409	7
	21	30	8015.625	4941.254	-721.5016	1	4993.651	-8.307386	4.149547E-008	0.0071698	7
	22	31	6328.125	4983.398	-843.0228	1	5054.201	-9.60161	-2.633975E-009	0.0073339	7
	23	32	5015.625	5040.012	-978.225	1	5134.067	-10.98407	-5.573807E-008	0.00738	7
	24	34	3984.375	5086.072	-1139.932	1	5212.252	-12.63283	2.854276E-009	0.007256	7
	25	35	3170.956	5170.039	-1347.976	1	5342.878	-14.6133	6.128144E-009	0.0073825	7
	26	36	2527.573	5247.138	-1595.944	1	5484.477	-16.91741	2.921455E-009	0.0072471	7
	27	38	1976.103	5342.391	-1931.739	1	5680.912	-19.87933	-4.439123E-008	0.0073429	7
	28	39	1577.524	5453.109	-2321.492	1	5926.696	-23.06038	3.935924E-008	0.0071635	7
	29	41	1265.625	5561.867	-2754.776	1	6206.702	-26.34908	4.19869E-009	0.0072463	7
	30	42	998.264	5711.736	-3342.918	1	6618.083	-30.33924	3.785419E-008	0.0071622	7
	31	43	796.875	5871.948	-4025.009	1	7119.022	-34.42923	7.700242E-009	0.0072172	7
	32	45	627.7902	6078.091	-4914.433	1	7816.318	-38.95723	-5.681601E-008	0.0073493	7
	33	46	505.5147	6291.606	-5893.673	1	8620.887	-43.12956	8.084514E-009	0.0072233	7
	34	47	397.9953	6571.458	-7225.069	1	9766.56	-47.71236	3.384149E-009	0.0073029	7
	35	49	315.5048	6897.681	-8820.801	1	11197.52	-51.97534	2.760427E-010	0.007241	6
	36	50	252.4038	7273.177	-10707.41	1	12944.02	-55.81307	3.196806E-010	0.007236	6
	37	51	198.6229	7772.152	-13207.24	1	15324.41	-59.52418	8.723118E-010	0.0072383	6
	38	53	158.3615	8364.501	-16131.03	1	18170.72	-62.59169	1.017436E-009	0.0072307	6
	39	54	125.558	9143.523	-19805.11	1	21813.9	-65.21841	6.04875E-010	0.0072372	6
	40	55	100.4464	10130.84	-24128.73	1	26169.25	-67.22411	1.132821E-009	0.0072333	6
	41	57	79.00281	11453.84	-29801.38	1	31926.68	-68.97627	9.022793E-010	0.0072319	6
	42	58	63.3446	12941.29	-36438.78	1	38668.61	-70.44743	7.542357E-010	0.0072338	6
	43	60	49.86702	15559.55	-44440.3	1	47085.46	-70.7037	7.337648E-010	0.0072308	6
	44	61	39.72458	18682.9	-54267.77	1	57393.74	-71.00283	8.249874E-010	0.0072381	6
	45	62	31.6723	22750.11	-65968.43	1	69781.09	-70.97255	1.224564E-009	0.0072308	6
	46	64	24.93351	28353.53	-80249.04	1	85110.7	-70.5407	5.543156E-010	0.0072271	6
	47	65	19.86229	35510.07	-96365	1	102699.5	-69.77138	1.159072E-009	0.0072362	6
	48	66	15.83615	45091.53	-114682.1	1	123228.4	-68.53588	8.728637E-010	0.0072314	5
	49	68	12.40079	57909.64	-138834.4	1	150427.8	-67.35835	-4.670403E-011	0.0072335	5
	50	69	9.93114	72547.64	-162602.8	1	178052.9	-65.95525	8.586548E-011	0.0072394	5
	51	71	7.944915	91374.39	-188690.8	1	209650.9	-64.16119	8.462251E-010	0.0072427	5
	52	72	6.317385	113869.6	-219720.5	1	247474	-62.60466	8.260329E-011	0.0072529	5
	53	74	5.008013	141608.6	-252926.9	1	289870.7	-60.75644	3.022217E-010	0.0072406	5
	54	77	3.945707	173963.6	-289941.2	1	338126	-59.0364	1.463893E-010	0.0072353	5
	55	80	3.158693	207506.4	-326719.7	1	387046.1	-57.57954	1.952573E-010	0.0072453	5
	56	83	2.504006	246099.6	-370218.5	1	444552.3	-56.38637	-9.639768E-011	0.0072265	5
	57	86	1.998082	285821.7	-416996.6	1	505549.4	-55.57212	-1.197536E-010	0.0072118	5
	58	89	1.584686	329717.8	-470602.4	1	574613.3	-54.98379	1.402133E-011	0.0072756	5
	59	92	1.266892	375102	-534129.6	1	652683.6	-54.92087	-7.877691E-011	0.0072079	5
	60	97	0.999041	428319	-611876	1	746893.1	-55.00762	2.029677E-010	0.007277	5
