EXPLAIN
TAG	EISPOT
TITLE	LABEL	Potentiostatic IDE	Test &Identifier
DATE	LABEL	9/14/2019	Date
TIME	LABEL	11:41:50	Time
NOTES	NOTES	1	&Notes...
	
PSTAT	PSTAT	REF600-11020	Potentiostat
VDC	POTEN	0.00000E+000	T	DC &Voltage (V)
FREQINIT	QUANT	1.00000E+006	Initial Fre&q. (Hz)
FREQFINAL	QUANT	1.00000E+000	Final Fre&q. (Hz)
PTSPERDEC	QUANT	1.00000E+001	Points/&decade
VAC	QUANT	2.50000E+001	AC &Voltage (mV rms)
AREA	QUANT	1.00000E-002	&Area (cm^2)
CONDIT	TWOPARAM	T	5.00000E+000	0.00000E+000	Conditionin&g	Time(s)	E(V)
DELAY	TWOPARAM	T	5.00000E+000	0.00000E+000	Init. De&lay	Time(s)	Stab.(mV/s)
SPEED	SELECTOR	1	&Optimize for:
ZGUESS	QUANT	1.00000E+007	E&stimated Z (ohms)
OCVCURVE	TABLE	19
	Pt	T	Vf	Vm	Ach	Over
	#	s	V vs. Ref.	V	V	bits
	0	0.258333	-2.60525E-003	-2.60525E-003	5.63266E-004	...........
	1	0.516667	-2.61899E-003	-3.32448E-003	5.65532E-004	...........
	2	0.775	-2.70251E-003	-3.96153E-003	5.64366E-004	...........
	3	1.03333	-2.93613E-003	-4.58313E-003	5.63399E-004	...........
	4	1.29167	-3.34881E-003	-5.14498E-003	5.65466E-004	...........
	5	1.55	-3.88966E-003	-5.68398E-003	5.62466E-004	...........
	6	1.80833	-4.47936E-003	-6.18454E-003	5.63466E-004	...........
	7	2.06667	-5.06099E-003	-6.65355E-003	5.62832E-004	...........
	8	2.325	-5.60979E-003	-7.10379E-003	5.63499E-004	...........
	9	2.58333	-6.12176E-003	-7.53341E-003	5.64266E-004	...........
	10	2.84167	-6.60156E-003	-7.94798E-003	5.62399E-004	...........
	11	3.1	-7.05550E-003	-8.34154E-003	5.63532E-004	...........
	12	3.35833	-7.48810E-003	-8.71293E-003	5.64232E-004	...........
	13	3.61667	-7.90146E-003	-9.07612E-003	5.62399E-004	...........
	14	3.875	-8.29660E-003	-9.42388E-003	5.62699E-004	...........
	15	4.13333	-8.67491E-003	-9.75959E-003	5.54999E-004	...........
	16	4.39167	-9.03814E-003	-1.00827E-002	5.58299E-004	...........
	17	4.65	-9.38775E-003	-1.03973E-002	5.56066E-004	...........
	18	4.90833	-9.72486E-003	-1.07016E-002	5.57532E-004	...........
EOC	QUANT	-0.0097249	Open Circuit (V)
PSTATMODEL	IQUANT	4	Pstat Model
PSTATSECTION	LABEL	REF600-11020	Pstat Section
PSTATSERIALNO	LABEL	11020	Pstat Serial Number
CTRLMODE	IQUANT	1	Control Mode
IESTAB	IQUANT	0	I/E Stability
CASPEED	IQUANT	1	Control Amp Speed
CONVENTION	IQUANT	1	Current Convention
ICHRANGE	IQUANT	2	Ich Range
ICHRANGEMODE	TOGGLE	F	Ich Auto Range
ICHOFFSETENABLE	TOGGLE	T	Ich Offset Enable
ICHOFFSET	QUANT	0	Ich Offset (V)
ICHFILTER	IQUANT	3	Ich Filter
VCHRANGE	IQUANT	2	Vch Range
VCHRANGEMODE	TOGGLE	F	Vch Auto Range
VCHOFFSETENABLE	TOGGLE	T	Vch Offset Enable
VCHOFFSET	QUANT	0	Vch Offset (V)
VCHFILTER	IQUANT	3	Vch Filter
ACHRANGE	IQUANT	2	Ach Range
ACHOFFSETENABLE	TOGGLE	F	Ach Offset Enable
ACHOFFSET	QUANT	0	Ach Offset (V)
ACHFILTER	IQUANT	3	Ach Filter
IERANGELOWERLIMIT	IQUANT	1	I/E Range Lower Limit
IERANGEMODE	TOGGLE	F	I/E AutoRange
IERANGE	IQUANT	3	I/E Range
POSFEEDENABLE	TOGGLE	F	Positive Feedback IR Comp
POSFEEDRESISTANCE	QUANT	0	Positive Feedback Resistance (ohm)
ACHSELECT	IQUANT	0	Ach Select
CABLEID	IQUANT	14	Cable ID
DCCALDATE	LABEL	8/19/2019	DC Calibration Date
ACCALDATE	LABEL	8/19/2019	AC Calibration Date
THERMOSELECT	IQUANT	1	Thermo Select
FRAMEWORKVERSION	QUANT	6.33	Framework Version
INSTRUMENTVERSION	LABEL	3.50	Instrument Version
ZCURVE	TABLE
	Pt	Time	Freq	Zreal	Zimag	Zsig	Zmod	Zphz	Idc	Vdc	IERange
	#	s	Hz	ohm	ohm	V	ohm	°	A	V	#
	0	3	1000078	2465.629	-1683.093	1	2985.319	-34.31831	1.599363E-007	-0.0081852	8
	1	4	794390.6	2792.793	-1554.064	1	3196.061	-29.09398	9.166376E-007	-0.0081156	8
	2	6	630984.4	3076.861	-1411.434	1	3385.147	-24.64211	-4.477146E-006	-0.0070919	8
	3	7	501234.4	3316.574	-1258.596	1	3547.355	-20.78109	-3.532562E-006	-0.0071744	8
	4	8	398109.4	3457.357	-1095.308	1	3626.709	-17.57847	-7.482315E-007	-0.0078068	8
	5	10	316265.6	3613.759	-930.3528	1	3731.596	-14.43714	5.391932E-006	-0.0091465	8
	6	11	251203.1	3691.347	-806.0782	1	3778.334	-12.31829	-1.223063E-006	-0.0078528	8
	7	12	199546.9	3757.754	-688.174	1	3820.249	-10.37783	-1.698623E-006	-0.0078403	8
	8	14	158578.1	3827.982	-608.6896	1	3876.074	-9.034993	-8.93429E-007	-0.0078893	8
	9	15	125953.1	3894.818	-500.4751	1	3926.841	-7.322251	-5.341873E-007	-0.0073676	7
	10	17	100078.1	3924.194	-453.3765	1	3950.297	-6.590371	2.53761E-008	-0.0082628	7
	11	18	79453.13	3956.646	-430.8943	1	3980.04	-6.215241	7.500788E-008	-0.0083137	7
	12	19	63140.62	3990.093	-417.9792	1	4011.925	-5.980166	-4.131578E-008	-0.0080547	7
	13	21	50203.12	4025.326	-416.1375	1	4046.779	-5.90226	-3.809505E-008	-0.008139	7
	14	22	39890.62	4058.222	-424.6543	1	4080.38	-5.973718	2.519484E-008	-0.0082805	7
	15	23	31640.63	4099.585	-442.5295	1	4123.401	-6.160934	-4.067662E-008	-0.0081592	7
	16	25	25171.88	4140.404	-470.5109	1	4167.053	-6.483216	-2.702729E-009	-0.0082458	7
	17	26	20015.62	4185.884	-508.964	1	4216.713	-6.932594	-8.314437E-009	-0.0081643	7
	18	27	15890.62	4238.681	-559.9278	1	4275.504	-7.525176	8.78487E-008	-0.0083756	7
	19	29	12609.37	4286.511	-619.0352	1	4330.979	-8.217539	-5.218913E-008	-0.0080888	7
	20	30	10078.13	4342.945	-688.5492	1	4397.189	-9.008936	1.368647E-007	-0.0083975	7
	21	31	8015.625	4402.506	-779.884	1	4471.049	-10.04548	-1.957534E-008	-0.0080534	7
	22	33	6328.125	4472.744	-890.5288	1	4560.535	-11.26041	3.472269E-008	-0.0082273	7
	23	34	5015.625	4545.837	-1023.249	1	4659.579	-12.68561	7.252943E-008	-0.0082246	7
	24	35	3984.375	4624.394	-1181.644	1	4772.976	-14.33374	-2.563623E-009	-0.0082536	7
	25	37	3170.956	4712.264	-1373.984	1	4908.489	-16.25542	2.737637E-008	-0.0082894	7
	26	38	2527.573	4805.657	-1606.581	1	5067.094	-18.48532	-3.073093E-009	-0.0082587	7
	27	39	1976.103	4917.386	-1911.826	1	5275.961	-21.24553	2.718415E-008	-0.0082872	7
	28	41	1577.524	5030.714	-2262.5	1	5516.066	-24.21523	-5.156719E-008	-0.0080905	7
	29	42	1265.625	5162.003	-2672.57	1	5812.823	-27.37236	-4.099858E-008	-0.0080608	7
	30	43	998.264	5313.485	-3212.6	1	6209.181	-31.15769	7.264971E-008	-0.0082277	7
	31	45	796.875	5485.747	-3840.05	1	6696.223	-34.99221	-2.968251E-008	-0.0081954	7
	32	46	627.7902	5692.123	-4655.693	1	7353.621	-39.28038	-5.101485E-008	-0.00809	7
	33	47	505.5147	5913.892	-5558.283	1	8115.949	-43.22454	-2.941545E-008	-0.0081998	7
	34	49	397.9953	6186.384	-6779.18	1	9177.615	-47.61779	5.701481E-009	-0.0081811	7
	35	50	315.5048	6506.658	-8236.634	1	10496.61	-51.69247	2.036739E-009	-0.0082473	6
	36	51	252.4038	6865.194	-9956.05	1	12093.54	-55.41179	1.08382E-009	-0.0082533	6
	37	53	198.6229	7318.175	-12230.5	1	14252.75	-59.10561	1.205359E-009	-0.0082477	6
	38	54	158.3615	7836.978	-14882.13	1	16819.51	-62.22856	9.97794E-010	-0.0082468	6
	39	55	125.558	8482.259	-18238.56	1	20114.52	-65.05814	1.318854E-009	-0.008251	6
	40	57	100.4464	9249.896	-22230.96	1	24078.54	-67.4087	1.047333E-009	-0.0082473	6
	41	58	79.00281	10316.75	-27523.19	1	29393.21	-69.45207	1.931313E-009	-0.0082523	6
	42	59	63.3446	11570.26	-33071.81	1	35037.35	-70.71748	1.466202E-009	-0.0082511	6
	43	61	49.86702	13415.8	-41544.76	1	43657.2	-72.10349	9.482457E-010	-0.0082575	6
	44	62	39.72458	15518.32	-50441.13	1	52774.3	-72.89938	1.746981E-009	-0.0082538	6
	45	63	31.6723	18622.1	-61619.87	1	64372.29	-73.18469	1.602292E-009	-0.0082526	6
	46	65	24.93351	22578.92	-75833.48	1	79123.47	-73.41945	6.810191E-010	-0.0082591	6
	47	66	19.86229	27750.68	-92292.3	1	96374.1	-73.26489	1.426371E-009	-0.0082498	6
	48	68	15.83615	33702.45	-112476.7	1	117417.5	-73.31972	-7.234442E-010	-0.0082385	5
	49	69	12.40079	43767.83	-135393.3	1	142291.8	-72.08582	-4.854693E-010	-0.0082403	5
	50	70	9.93114	54932.87	-163727.8	1	172697.5	-71.45271	7.440539E-010	-0.0082488	5
	51	72	7.944915	69623.55	-195943.7	1	207945.6	-70.43864	7.231892E-010	-0.0082462	5
	52	74	6.317385	88128.73	-232302.2	1	248457.2	-69.2247	3.496058E-010	-0.0082453	5
	53	76	5.008013	111861.2	-276310	1	298094.2	-67.95995	1.839698E-010	-0.0082468	5
	54	78	3.945707	142665.3	-327344	1	357081.9	-66.45113	5.955961E-010	-0.0082377	5
	55	81	3.158693	177614.8	-382012.4	1	421284.3	-65.06416	2.311256E-010	-0.0082571	5
	56	84	2.504006	223043.5	-446001.3	1	498663.8	-63.43054	6.073789E-010	-0.0082494	5
	57	87	1.998082	273101.7	-514650.1	1	582622.8	-62.04711	4.411943E-010	-0.0082101	5
	58	90	1.584686	335037.1	-592313.1	1	680503.2	-60.50568	5.232788E-010	-0.0082409	5
	59	94	1.266892	402066.2	-677059.4	1	787443.1	-59.29639	2.264876E-010	-0.0082103	5
	60	98	0.999041	485422.8	-772817.7	1	912623.9	-57.86622	3.963551E-010	-0.0082766	5
