EXPLAIN
TAG	EISPOT
TITLE	LABEL	Potentiostatic EIS	Test &Identifier
DATE	LABEL	10/16/2019	Date
TIME	LABEL	9:20:01	Time
NOTES	NOTES	1	&Notes...
	
PSTAT	PSTAT	REF600-11020	Potentiostat
VDC	POTEN	0.00000E+000	T	DC &Voltage (V)
FREQINIT	QUANT	1.00000E+006	Initial Fre&q. (Hz)
FREQFINAL	QUANT	1.00000E+000	Final Fre&q. (Hz)
PTSPERDEC	QUANT	1.00000E+001	Points/&decade
VAC	QUANT	2.50000E+001	AC &Voltage (mV rms)
AREA	QUANT	1.00000E-002	&Area (cm^2)
CONDIT	TWOPARAM	T	5.00000E+000	0.00000E+000	Conditionin&g	Time(s)	E(V)
DELAY	TWOPARAM	T	5.00000E+000	0.00000E+000	Init. De&lay	Time(s)	Stab.(mV/s)
SPEED	SELECTOR	0	&Optimize for:
ZGUESS	QUANT	1.00000E+005	E&stimated Z (ohms)
OCVCURVE	TABLE	19
	Pt	T	Vf	Vm	Ach	Over
	#	s	V vs. Ref.	V	V	bits
	0	0.258333	6.71087E-003	6.71087E-003	5.48199E-004	...........
	1	0.516667	6.71152E-003	6.74495E-003	5.48699E-004	...........
	2	0.775	6.71598E-003	6.80142E-003	5.46733E-004	...........
	3	1.03333	6.73018E-003	6.85849E-003	5.49233E-004	...........
	4	1.29167	6.75906E-003	6.92637E-003	5.43066E-004	...........
	5	1.55	6.80280E-003	6.98503E-003	5.49233E-004	...........
	6	1.80833	6.85688E-003	7.01917E-003	5.44766E-004	...........
	7	2.06667	6.91475E-003	7.10097E-003	5.40199E-004	...........
	8	2.325	6.97346E-003	7.20337E-003	5.45333E-004	...........
	9	2.58333	7.03665E-003	7.27952E-003	5.45966E-004	...........
	10	2.84167	7.10893E-003	7.37113E-003	5.45166E-004	...........
	11	3.1	7.18908E-003	7.42309E-003	5.40233E-004	...........
	12	3.35833	7.27039E-003	7.46549E-003	5.39366E-004	...........
	13	3.61667	7.34559E-003	7.54599E-003	5.45233E-004	...........
	14	3.875	7.41327E-003	7.63907E-003	5.44033E-004	...........
	15	4.13333	7.47948E-003	7.71369E-003	5.39999E-004	...........
	16	4.39167	7.55012E-003	7.76700E-003	5.43799E-004	...........
	17	4.65	7.62278E-003	7.77101E-003	5.45166E-004	...........
	18	4.90833	7.68871E-003	7.83877E-003	5.48533E-004	...........
EOC	QUANT	0.0076887	Open Circuit (V)
PSTATMODEL	IQUANT	4	Pstat Model
PSTATSECTION	LABEL	REF600-11020	Pstat Section
PSTATSERIALNO	LABEL	11020	Pstat Serial Number
CTRLMODE	IQUANT	1	Control Mode
IESTAB	IQUANT	0	I/E Stability
CASPEED	IQUANT	1	Control Amp Speed
CONVENTION	IQUANT	1	Current Convention
ICHRANGE	IQUANT	2	Ich Range
ICHRANGEMODE	TOGGLE	F	Ich Auto Range
ICHOFFSETENABLE	TOGGLE	T	Ich Offset Enable
ICHOFFSET	QUANT	0	Ich Offset (V)
ICHFILTER	IQUANT	3	Ich Filter
VCHRANGE	IQUANT	2	Vch Range
VCHRANGEMODE	TOGGLE	F	Vch Auto Range
VCHOFFSETENABLE	TOGGLE	T	Vch Offset Enable
VCHOFFSET	QUANT	0	Vch Offset (V)
VCHFILTER	IQUANT	3	Vch Filter
ACHRANGE	IQUANT	2	Ach Range
ACHOFFSETENABLE	TOGGLE	F	Ach Offset Enable
ACHOFFSET	QUANT	0	Ach Offset (V)
ACHFILTER	IQUANT	3	Ach Filter
IERANGELOWERLIMIT	IQUANT	1	I/E Range Lower Limit
IERANGEMODE	TOGGLE	F	I/E AutoRange
IERANGE	IQUANT	5	I/E Range
POSFEEDENABLE	TOGGLE	F	Positive Feedback IR Comp
POSFEEDRESISTANCE	QUANT	0	Positive Feedback Resistance (ohm)
ACHSELECT	IQUANT	0	Ach Select
CABLEID	IQUANT	14	Cable ID
DCCALDATE	LABEL	8/19/2019	DC Calibration Date
ACCALDATE	LABEL	8/19/2019	AC Calibration Date
THERMOSELECT	IQUANT	1	Thermo Select
FRAMEWORKVERSION	QUANT	6.33	Framework Version
INSTRUMENTVERSION	LABEL	3.50	Instrument Version
ZCURVE	TABLE
	Pt	Time	Freq	Zreal	Zimag	Zsig	Zmod	Zphz	Idc	Vdc	IERange
	#	s	Hz	ohm	ohm	V	ohm	°	A	V	#
	0	2	1000078	2320.651	-1074.122	1	2557.178	-24.83723	1.673044E-006	0.0101846	8
	1	2	794390.6	2503.11	-975.774	1	2686.576	-21.29706	-3.624337E-006	0.0103797	8
	2	2	630984.4	2650.483	-856.8552	1	2785.545	-17.91512	-2.23466E-006	0.0103256	8
	3	3	501234.4	2777.985	-741.3998	1	2875.218	-14.94304	-1.923513E-006	0.0098166	8
	4	3	398109.4	2839.911	-637.5853	1	2910.603	-12.6536	-3.179214E-007	0.0094815	8
	5	3	316265.6	2902.627	-551.0287	1	2954.467	-10.749	-9.112262E-008	0.0093457	8
	6	4	251203.1	2953.533	-484.3627	1	2992.986	-9.313283	-2.266489E-006	0.0098358	8
	7	4	199546.9	2988.874	-424.6389	1	3018.888	-8.086079	1.375212E-006	0.0090467	8
	8	4	158578.1	3020.354	-373.442	1	3043.353	-7.048381	-1.00293E-006	0.0095531	8
	9	5	125953.1	3066.021	-309.1465	1	3081.567	-5.757667	2.222438E-008	0.0093393	7
	10	5	100078.1	3080.334	-281.1384	1	3093.137	-5.214869	-4.135327E-008	0.009461	7
	11	5	79453.13	3102.091	-280.0354	1	3114.705	-5.158288	-3.122537E-008	0.0093332	7
	12	5	63140.62	3125.353	-283.8853	1	3138.22	-5.190107	-3.879049E-008	0.0093655	7
	13	6	50203.12	3150.635	-294.1848	1	3164.34	-5.334423	-2.241941E-008	0.0093739	7
	14	6	39890.62	3177.487	-310.6318	1	3192.635	-5.583506	-4.244876E-008	0.0094495	7
	15	6	31640.63	3206.995	-335.0168	1	3224.447	-5.963738	-3.210515E-008	0.0093297	7
	16	7	25171.88	3238.848	-365.9552	1	3259.457	-6.44647	2.365866E-008	0.0092878	7
	17	7	20015.62	3280.628	-419.5307	1	3307.344	-7.2875	-2.721469E-009	0.0094061	7
	18	7	15890.62	3314.682	-452.3723	1	3345.408	-7.77145	2.62778E-008	0.0092799	7
	19	8	12609.37	3359.757	-508.9545	1	3398.088	-8.613988	9.596071E-008	0.0091717	7
	20	8	10078.13	3408.58	-575.4595	1	3456.815	-9.5827	-9.744311E-009	0.0093398	7
	21	8	8015.625	3460.23	-655.7444	1	3521.817	-10.73081	-3.957809E-008	0.0094435	7
	22	9	6328.125	3528.109	-749.5352	1	3606.848	-11.99398	5.590996E-008	0.0092157	7
	23	9	5015.625	3598.279	-860.2526	1	3699.682	-13.44552	-2.465259E-008	0.0093099	7
	24	9	3984.375	3663.349	-973.466	1	3790.483	-14.88136	6.428453E-008	0.0092706	7
	25	10	3170.956	3756.382	-1143.472	1	3926.567	-16.93067	-3.967965E-008	0.0093458	7
	26	10	2527.573	3843.987	-1324.546	1	4065.791	-19.01272	-1.056159E-008	0.0093353	7
	27	10	1976.103	3948.889	-1562.845	1	4246.906	-21.59208	-2.53777E-008	0.0093123	7
	28	11	1577.524	4102.753	-1805.266	1	4482.362	-23.75013	-2.062016E-009	0.0093909	7
	29	11	1265.625	4164.692	-2139.069	1	4681.909	-27.18594	-2.014415E-008	0.0093578	7
	30	11	998.264	4294.942	-2547.792	1	4993.774	-30.67674	-2.205971E-009	0.0093912	7
	31	11	796.875	4429.908	-3027.791	1	5365.781	-34.35216	1.863527E-009	0.0092507	7
	32	12	627.7902	4586.202	-3654.364	1	5864.096	-38.54844	6.289666E-008	0.0091731	7
	33	12	505.5147	4747.301	-4357.545	1	6443.995	-42.54881	6.202638E-008	0.0092669	7
	34	12	397.9953	4950.105	-5314.833	1	7262.988	-47.03495	3.377926E-009	0.0093202	7
	35	13	315.5048	5183.984	-6472.548	1	8292.621	-51.30811	3.148025E-009	0.0093224	7
	36	13	252.4038	5458.104	-7847.518	1	9559	-55.18062	3.626792E-009	0.0093195	7
	37	13	198.6229	5825.321	-9672.63	1	11291.33	-58.94163	4.723985E-010	0.009256	6
	38	14	158.3615	6261.911	-11808.26	1	13365.88	-62.06304	8.705331E-010	0.0092591	6
	39	14	125.558	6841.308	-14489.44	1	16023.34	-64.72528	6.186116E-010	0.0092581	6
	40	14	100.4464	7549.341	-17665.25	1	19210.77	-66.8603	-8.315169E-011	0.0092559	6
	41	15	79.00281	8531.116	-21819.68	1	23428.15	-68.64536	4.047328E-011	0.0092558	6
	42	15	63.3446	9989.36	-26326.88	1	28158.34	-69.22146	3.741887E-010	0.009251	6
	43	15	49.86702	11754.11	-32498.96	1	34559.24	-70.11613	1.027941E-009	0.0092488	6
	44	16	39.72458	13786.58	-39535.21	1	41870.07	-70.77549	9.169183E-011	0.0092543	6
	45	16	31.6723	16572.62	-47916.75	1	50701.75	-70.92141	5.137613E-010	0.0092539	6
	46	16	24.93351	20796.23	-58434.82	1	62025.09	-70.40999	6.904779E-010	0.0092537	6
	47	17	19.86229	25824.05	-70283.18	1	74877.28	-69.82523	2.356451E-009	0.0092618	6
	48	17	15.83615	33249.87	-83739.49	1	90099.15	-68.34379	-2.53847E-009	0.0092549	6
	49	17	12.40079	41706.66	-100772.2	1	109061.8	-67.51676	1.185642E-009	0.0092549	5
	50	18	9.93114	52001.81	-118113	1	129053.7	-66.23746	-4.885534E-010	0.0092536	5
	51	18	7.944915	64236.67	-138355.6	1	152540.5	-65.09518	-8.159516E-010	0.0092604	5
	52	19	6.317385	79821.66	-160579.2	1	179324.3	-63.56868	-3.28679E-010	0.0092647	5
	53	20	5.008013	98198.4	-185959.8	1	210294.9	-62.16313	1.439061E-010	0.0092649	5
	54	21	3.945707	119942.8	-214736.4	1	245963.4	-60.81409	-2.077327E-010	0.0092496	5
	55	22	3.158693	142906.9	-245292.8	1	283885.4	-59.77504	7.889248E-011	0.0092547	5
	56	24	2.504006	168939.3	-280966.8	1	327845.8	-58.98241	9.797052E-011	0.0092587	5
	57	25	1.998082	196970.2	-320438.4	1	376135.7	-58.42138	-1.96307E-010	0.0092127	5
	58	27	1.584686	226919.1	-368204.7	1	432512.4	-58.35509	-1.181132E-010	0.0092311	5
	59	29	1.266892	259642	-421715	1	495234.8	-58.38017	-3.616988E-011	0.0092669	5
	60	31	0.999041	302024.5	-490184.1	1	575759.8	-58.3609	6.094245E-010	0.0092882	5
