EXPLAIN
TAG	EISPOT
TITLE	LABEL	Potentiostatic EIS	Test &Identifier
DATE	LABEL	10/18/2019	Date
TIME	LABEL	9:47:31	Time
NOTES	NOTES	1	&Notes...
	
PSTAT	PSTAT	REF600-11020	Potentiostat
VDC	POTEN	0.00000E+000	T	DC &Voltage (V)
FREQINIT	QUANT	1.00000E+006	Initial Fre&q. (Hz)
FREQFINAL	QUANT	1.00000E+000	Final Fre&q. (Hz)
PTSPERDEC	QUANT	1.00000E+001	Points/&decade
VAC	QUANT	2.50000E+001	AC &Voltage (mV rms)
AREA	QUANT	1.00000E-002	&Area (cm^2)
CONDIT	TWOPARAM	T	5.00000E+000	0.00000E+000	Conditionin&g	Time(s)	E(V)
DELAY	TWOPARAM	T	5.00000E+000	0.00000E+000	Init. De&lay	Time(s)	Stab.(mV/s)
SPEED	SELECTOR	0	&Optimize for:
ZGUESS	QUANT	1.00000E+005	E&stimated Z (ohms)
OCVCURVE	TABLE	19
	Pt	T	Vf	Vm	Ach	Over
	#	s	V vs. Ref.	V	V	bits
	0	0.258333	3.33002E-003	3.33002E-003	5.01767E-004	...........
	1	0.516667	3.33123E-003	3.39377E-003	4.99500E-004	...........
	2	0.775	3.34003E-003	3.52335E-003	5.00533E-004	...........
	3	1.03333	3.36748E-003	3.55141E-003	4.99467E-004	...........
	4	1.29167	3.41799E-003	3.62731E-003	5.00933E-004	...........
	5	1.55	3.48087E-003	3.57018E-003	4.99033E-004	...........
	6	1.80833	3.53260E-003	3.36764E-003	4.94400E-004	...........
	7	2.06667	3.54002E-003	3.06144E-003	4.99533E-004	...........
	8	2.325	3.47169E-003	2.85916E-003	4.99700E-004	...........
	9	2.58333	3.32404E-003	2.75451E-003	4.98633E-004	...........
	10	2.84167	3.13381E-003	2.72719E-003	4.99433E-004	...........
	11	3.1	2.95568E-003	2.72172E-003	5.01967E-004	...........
	12	3.35833	2.82537E-003	2.61103E-003	5.03667E-004	...........
	13	3.61667	2.74140E-003	2.54214E-003	5.07033E-004	...........
	14	3.875	2.67834E-003	2.44873E-003	5.06333E-004	...........
	15	4.13333	2.61360E-003	2.36338E-003	5.01767E-004	...........
	16	4.39167	2.54001E-003	2.31327E-003	5.05100E-004	...........
	17	4.65	2.46297E-003	2.30253E-003	5.02767E-004	...........
	18	4.90833	2.39328E-003	2.25312E-003	5.05167E-004	...........
EOC	QUANT	0.0023933	Open Circuit (V)
PSTATMODEL	IQUANT	4	Pstat Model
PSTATSECTION	LABEL	REF600-11020	Pstat Section
PSTATSERIALNO	LABEL	11020	Pstat Serial Number
CTRLMODE	IQUANT	1	Control Mode
IESTAB	IQUANT	0	I/E Stability
CASPEED	IQUANT	1	Control Amp Speed
CONVENTION	IQUANT	1	Current Convention
ICHRANGE	IQUANT	2	Ich Range
ICHRANGEMODE	TOGGLE	F	Ich Auto Range
ICHOFFSETENABLE	TOGGLE	T	Ich Offset Enable
ICHOFFSET	QUANT	0	Ich Offset (V)
ICHFILTER	IQUANT	3	Ich Filter
VCHRANGE	IQUANT	2	Vch Range
VCHRANGEMODE	TOGGLE	F	Vch Auto Range
VCHOFFSETENABLE	TOGGLE	T	Vch Offset Enable
VCHOFFSET	QUANT	0	Vch Offset (V)
VCHFILTER	IQUANT	3	Vch Filter
ACHRANGE	IQUANT	2	Ach Range
ACHOFFSETENABLE	TOGGLE	F	Ach Offset Enable
ACHOFFSET	QUANT	0	Ach Offset (V)
ACHFILTER	IQUANT	3	Ach Filter
IERANGELOWERLIMIT	IQUANT	1	I/E Range Lower Limit
IERANGEMODE	TOGGLE	F	I/E AutoRange
IERANGE	IQUANT	4	I/E Range
POSFEEDENABLE	TOGGLE	F	Positive Feedback IR Comp
POSFEEDRESISTANCE	QUANT	0	Positive Feedback Resistance (ohm)
ACHSELECT	IQUANT	0	Ach Select
CABLEID	IQUANT	14	Cable ID
DCCALDATE	LABEL	8/19/2019	DC Calibration Date
ACCALDATE	LABEL	8/19/2019	AC Calibration Date
THERMOSELECT	IQUANT	1	Thermo Select
FRAMEWORKVERSION	QUANT	6.33	Framework Version
INSTRUMENTVERSION	LABEL	3.50	Instrument Version
ZCURVE	TABLE
	Pt	Time	Freq	Zreal	Zimag	Zsig	Zmod	Zphz	Idc	Vdc	IERange
	#	s	Hz	ohm	ohm	V	ohm	°	A	V	#
	0	1	1000078	2569.22	-1749.124	1	3108.107	-34.24702	2.473514E-006	0.0047332	8
	1	1	794390.6	2941.769	-1668.526	1	3382.009	-29.56124	4.951859E-007	0.004428	8
	2	2	630984.4	3251.632	-1540.494	1	3598.087	-25.34974	1.150683E-006	0.0042543	8
	3	2	501234.4	3527.951	-1390.404	1	3792.052	-21.50994	-3.620199E-006	0.0049346	8
	4	2	398109.4	3714.594	-1243.384	1	3917.169	-18.50691	-8.680498E-008	0.0041542	8
	5	3	316265.6	3882.611	-1068.721	1	4027.013	-15.39001	-1.910581E-006	0.0045117	8
	6	3	251203.1	3973.756	-917.5568	1	4078.315	-13.00196	-3.001128E-006	0.0047496	8
	7	3	199546.9	4077.831	-786.0243	1	4152.895	-10.91027	-2.482835E-007	0.004097	8
	8	4	158578.1	4108.762	-660.4514	1	4161.505	-9.131734	8.294107E-007	0.0039612	8
	9	4	125953.1	4238.006	-540.5652	1	4272.342	-7.268928	6.786638E-007	0.0025661	7
	10	4	100078.1	4264.928	-476.0457	1	4291.414	-6.368918	-1.876895E-008	0.0040582	7
	11	5	79453.13	4299.312	-437.9757	1	4321.563	-5.81672	6.256715E-008	0.00398	7
	12	5	63140.62	4333.482	-410.9272	1	4352.922	-5.416937	-5.906282E-009	0.0042027	7
	13	5	50203.12	4363.905	-396.9142	1	4381.918	-5.196975	-2.457917E-008	0.004051	7
	14	6	39890.62	4393.75	-393.4757	1	4411.333	-5.117387	-2.691854E-008	0.0041408	7
	15	6	31640.63	4427.524	-400.3321	1	4445.586	-5.166575	-6.414162E-009	0.0041935	7
	16	6	25171.88	4459.527	-418.0031	1	4479.074	-5.354837	-5.128748E-008	0.0041063	7
	17	7	20015.62	4492.628	-444.5562	1	4514.57	-5.651157	5.395245E-009	0.004009	7
	18	7	15890.62	4527.026	-486.3882	1	4553.08	-6.132392	-1.065536E-008	0.0040319	7
	19	7	12609.37	4564.024	-540.2637	1	4595.89	-6.750938	-4.127518E-008	0.0041509	7
	20	7	10078.13	4604.062	-607.3533	1	4643.949	-7.514887	-6.428218E-009	0.0041038	7
	21	8	8015.625	4640.784	-695.2626	1	4692.576	-8.520441	-8.95827E-009	0.0040864	7
	22	8	6328.125	4689.24	-808.4382	1	4758.418	-9.7818	-3.258022E-008	0.0040716	7
	23	8	5015.625	4740.88	-945.5012	1	4834.244	-11.27885	-7.537825E-008	0.0041822	7
	24	9	3984.375	4792.795	-1121.865	1	4922.344	-13.17422	-4.181587E-008	0.00415	7
	25	9	3170.956	4858.51	-1325.274	1	5036.017	-15.2576	1.119448E-008	0.0040017	7
	26	9	2527.573	4930.091	-1581.327	1	5177.489	-17.78365	8.96958E-008	0.0040001	7
	27	10	1976.103	5019.509	-1925.926	1	5376.306	-20.99121	8.101962E-008	0.003897	7
	28	10	1577.524	5117.969	-2281.021	1	5603.272	-24.022	-2.197408E-008	0.0040459	7
	29	10	1265.625	5226.869	-2772.008	1	5916.433	-27.93871	6.457911E-009	0.0040025	7
	30	11	998.264	5374.55	-3380.77	1	6349.44	-32.17125	-2.605156E-008	0.0040542	7
	31	11	796.875	5540.263	-4085.248	1	6883.586	-36.40411	3.350844E-008	0.0039453	7
	32	11	627.7902	5750.85	-5000.199	1	7620.647	-41.00602	-3.262519E-009	0.0041845	7
	33	12	505.5147	5987.851	-6005.43	1	8480.539	-45.08398	6.212703E-008	0.0039572	7
	34	12	397.9953	6293.621	-7363.191	1	9686.39	-49.47813	3.701554E-009	0.0040779	7
	35	12	315.5048	6663.543	-8982.737	1	11184.47	-53.43137	-1.601006E-010	0.0040182	6
	36	13	252.4038	7095.407	-10887.68	1	12995.63	-56.90805	-5.151963E-010	0.0040176	6
	37	13	198.6229	7671.222	-13400.37	1	15440.78	-60.21044	6.048909E-010	0.0040182	6
	38	13	158.3615	8363.163	-16320.56	1	18338.57	-62.86798	-7.667689E-011	0.0040164	6
	39	14	125.558	9257.509	-19972.9	1	22014.05	-65.13212	8.55773E-010	0.0040153	6
	40	14	100.4464	10418.54	-24298.62	1	26438.02	-66.79176	-5.807929E-010	0.0040158	6
	41	14	79.00281	11942.18	-29978.31	1	32269.41	-68.2796	-8.143514E-010	0.0040082	6
	42	15	63.3446	13977.27	-35513.66	1	38165.22	-68.51667	9.108186E-010	0.0040099	6
	43	15	49.86702	16918.76	-43840.47	1	46991.82	-68.89758	8.833944E-010	0.0040041	6
	44	15	39.72458	20298.59	-53472.3	1	57195.45	-69.21277	-1.911581E-010	0.004007	6
	45	16	31.6723	24991.06	-64587.01	1	69253.41	-68.84673	-4.711866E-010	0.0040071	6
	46	16	24.93351	31816.04	-77686.9	1	83949.48	-67.72884	1.882381E-010	0.0040115	6
	47	16	19.86229	40150.48	-92279.66	1	100636	-66.48635	-1.930922E-010	0.0040117	6
	48	16	15.83615	48363.52	-109478	1	119684.8	-66.16585	-1.757741E-009	0.0040119	5
	49	17	12.40079	63731.68	-126281	1	141451.8	-63.22076	-2.483277E-009	0.0040164	5
	50	17	9.93114	78873.23	-147825.9	1	167551.4	-61.91763	7.363329E-010	0.00402	5
	51	18	7.944915	96158.8	-168742.6	1	194217.9	-60.32315	1.659469E-009	0.004012	5
	52	18	6.317385	118184	-191988.4	1	225448.5	-58.38441	9.094818E-010	0.0040011	5
	53	19	5.008013	142714.5	-217906.3	1	260481.5	-56.77781	3.180367E-010	0.004015	5
	54	20	3.945707	171170.7	-246102.4	1	299776.3	-55.18037	-1.838557E-011	0.0040222	5
	55	22	3.158693	198988.7	-276338	1	340527.9	-54.24265	-1.721292E-010	0.0040035	5
	56	23	2.504006	230896.5	-309982.9	1	386526.3	-53.31873	1.362712E-010	0.0040013	5
	57	25	1.998082	263394.4	-348003.3	1	436443.4	-52.87889	1.691444E-010	0.0040307	5
	58	26	1.584686	298119	-391822.3	1	492341	-52.73421	-1.029269E-010	0.003987	5
	59	28	1.266892	335279.1	-444885.6	1	557077.4	-52.99723	-7.087828E-011	0.0039607	5
	60	31	0.999041	376313.2	-508055.9	1	632243.9	-53.47293	4.247725E-011	0.0039715	5
