EXPLAIN
TAG	EISPOT
TITLE	LABEL	Potentiostatic IDE	Test &Identifier
DATE	LABEL	9/12/2019	Date
TIME	LABEL	10:21:35	Time
NOTES	NOTES	1	&Notes...
	
PSTAT	PSTAT	REF600-11020	Potentiostat
VDC	POTEN	0.00000E+000	T	DC &Voltage (V)
FREQINIT	QUANT	1.00000E+006	Initial Fre&q. (Hz)
FREQFINAL	QUANT	1.00000E+000	Final Fre&q. (Hz)
PTSPERDEC	QUANT	1.00000E+001	Points/&decade
VAC	QUANT	2.50000E+001	AC &Voltage (mV rms)
AREA	QUANT	1.00000E-002	&Area (cm^2)
CONDIT	TWOPARAM	T	5.00000E+000	0.00000E+000	Conditionin&g	Time(s)	E(V)
DELAY	TWOPARAM	T	5.00000E+000	0.00000E+000	Init. De&lay	Time(s)	Stab.(mV/s)
SPEED	SELECTOR	1	&Optimize for:
ZGUESS	QUANT	1.00000E+007	E&stimated Z (ohms)
OCVCURVE	TABLE	19
	Pt	T	Vf	Vm	Ach	Over
	#	s	V vs. Ref.	V	V	bits
	0	0.258333	6.76193E-003	6.76193E-003	5.49366E-004	...........
	1	0.516667	6.76133E-003	6.73033E-003	5.44733E-004	...........
	2	0.775	6.75791E-003	6.71519E-003	5.46299E-004	...........
	3	1.03333	6.74943E-003	6.71508E-003	5.46966E-004	...........
	4	1.29167	6.73735E-003	6.71760E-003	5.43833E-004	...........
	5	1.55	6.72646E-003	6.72563E-003	5.35866E-004	...........
	6	1.80833	6.72082E-003	6.73997E-003	5.42899E-004	...........
	7	2.06667	6.72178E-003	6.75662E-003	5.46833E-004	...........
	8	2.325	6.72877E-003	6.77000E-003	5.48333E-004	...........
	9	2.58333	6.74030E-003	6.79053E-003	5.48299E-004	...........
	10	2.84167	6.75480E-003	6.81007E-003	5.42033E-004	...........
	11	3.1	6.77129E-003	6.82778E-003	5.42699E-004	...........
	12	3.35833	6.78918E-003	6.84772E-003	5.44333E-004	...........
	13	3.61667	6.80785E-003	6.86669E-003	5.47633E-004	...........
	14	3.875	6.82686E-003	6.88569E-003	5.39233E-004	...........
	15	4.13333	6.84599E-003	6.90523E-003	5.39766E-004	...........
	16	4.39167	6.86521E-003	6.92636E-003	5.47933E-004	...........
	17	4.65	6.88454E-003	6.94139E-003	5.46066E-004	...........
	18	4.90833	6.90376E-003	6.95826E-003	5.45966E-004	...........
EOC	QUANT	0.0069038	Open Circuit (V)
PSTATMODEL	IQUANT	4	Pstat Model
PSTATSECTION	LABEL	REF600-11020	Pstat Section
PSTATSERIALNO	LABEL	11020	Pstat Serial Number
CTRLMODE	IQUANT	1	Control Mode
IESTAB	IQUANT	0	I/E Stability
CASPEED	IQUANT	1	Control Amp Speed
CONVENTION	IQUANT	1	Current Convention
ICHRANGE	IQUANT	2	Ich Range
ICHRANGEMODE	TOGGLE	F	Ich Auto Range
ICHOFFSETENABLE	TOGGLE	T	Ich Offset Enable
ICHOFFSET	QUANT	0	Ich Offset (V)
ICHFILTER	IQUANT	3	Ich Filter
VCHRANGE	IQUANT	2	Vch Range
VCHRANGEMODE	TOGGLE	F	Vch Auto Range
VCHOFFSETENABLE	TOGGLE	T	Vch Offset Enable
VCHOFFSET	QUANT	0	Vch Offset (V)
VCHFILTER	IQUANT	3	Vch Filter
ACHRANGE	IQUANT	2	Ach Range
ACHOFFSETENABLE	TOGGLE	F	Ach Offset Enable
ACHOFFSET	QUANT	0	Ach Offset (V)
ACHFILTER	IQUANT	3	Ach Filter
IERANGELOWERLIMIT	IQUANT	1	I/E Range Lower Limit
IERANGEMODE	TOGGLE	F	I/E AutoRange
IERANGE	IQUANT	3	I/E Range
POSFEEDENABLE	TOGGLE	F	Positive Feedback IR Comp
POSFEEDRESISTANCE	QUANT	0	Positive Feedback Resistance (ohm)
ACHSELECT	IQUANT	0	Ach Select
CABLEID	IQUANT	14	Cable ID
DCCALDATE	LABEL	8/19/2019	DC Calibration Date
ACCALDATE	LABEL	8/19/2019	AC Calibration Date
THERMOSELECT	IQUANT	1	Thermo Select
FRAMEWORKVERSION	QUANT	6.33	Framework Version
INSTRUMENTVERSION	LABEL	3.50	Instrument Version
ZCURVE	TABLE
	Pt	Time	Freq	Zreal	Zimag	Zsig	Zmod	Zphz	Idc	Vdc	IERange
	#	s	Hz	ohm	ohm	V	ohm	°	A	V	#
	0	2	1000078	2570.552	-1880.481	1	3184.956	-36.18724	-2.939432E-006	0.0099899	8
	1	4	794390.6	2963.011	-1787.86	1	3460.618	-31.10649	2.486324E-006	0.0086977	8
	2	5	630984.4	3284.816	-1667.341	1	3683.754	-26.91191	1.71521E-007	0.009	8
	3	7	501234.4	3556.026	-1459.116	1	3843.741	-22.30943	-1.171194E-006	0.0091212	8
	4	8	398109.4	3775.904	-1291.135	1	3990.549	-18.87764	-1.201676E-006	0.009168	8
	5	10	316265.6	3956.117	-1103.79	1	4107.215	-15.58955	-1.748823E-006	0.0090143	8
	6	11	251203.1	4059.361	-988.144	1	4177.899	-13.68106	4.032425E-007	0.0084966	8
	7	12	199546.9	4155.863	-844.1239	1	4240.725	-11.48152	3.000504E-007	0.0085026	8
	8	14	158578.1	4235.418	-757.4691	1	4302.619	-10.13967	-8.428966E-007	0.008899	8
	9	15	125953.1	4314.8	-620.7827	1	4359.229	-8.187126	1.5039E-006	0.0059101	7
	10	17	100078.1	4347.815	-564.767	1	4384.342	-7.401094	4.476782E-008	0.0084822	7
	11	18	79453.13	4389.957	-537.2039	1	4422.704	-6.976661	-4.079543E-008	0.0086688	7
	12	19	63140.62	4433.654	-525.8345	1	4464.728	-6.763724	1.437797E-007	0.0083989	7
	13	21	50203.12	4477.615	-524.778	1	4508.262	-6.68459	-3.920085E-009	0.0085635	7
	14	22	39890.62	4523.221	-541.8643	1	4555.562	-6.831258	-7.481879E-008	0.0087322	7
	15	23	31640.63	4571.354	-569.9831	1	4606.751	-7.107292	7.62299E-008	0.0084824	7
	16	25	25171.88	4625.365	-609.8188	1	4665.392	-7.51069	7.962099E-008	0.0084819	7
	17	26	20015.62	4683.357	-664.7829	1	4730.303	-8.078925	-5.407068E-008	0.0087218	7
	18	27	15890.62	4742.35	-734.9037	1	4798.955	-8.808839	-2.152247E-008	0.008598	7
	19	29	12609.37	4820.85	-813.0836	1	4888.936	-9.5734	-4.590079E-008	0.0087548	7
	20	30	10078.13	4894.233	-910.3443	1	4978.177	-10.5368	-4.302855E-008	0.0087624	7
	21	31	8015.625	4982.508	-1034.464	1	5088.763	-11.72906	3.630727E-008	0.0085814	7
	22	33	6328.125	5083.72	-1180.677	1	5219.023	-13.07496	8.144624E-008	0.0085821	7
	23	34	5015.625	5192.292	-1355.029	1	5366.191	-14.62622	-8.139421E-009	0.0086645	7
	24	36	3984.375	5311.644	-1559.777	1	5535.925	-16.36501	-7.374678E-008	0.0087317	7
	25	37	3170.956	5447.404	-1799.531	1	5736.943	-18.28079	-8.770736E-009	0.0086515	7
	26	38	2527.573	5594.26	-2081.342	1	5968.897	-20.40769	2.19147E-008	0.0085183	7
	27	40	1976.103	5774.052	-2452.245	1	6273.211	-23.01098	-5.422586E-008	0.0087209	7
	28	41	1577.524	5960.538	-2855.602	1	6609.271	-25.59836	-4.490457E-008	0.0086492	7
	29	42	1265.625	6154.45	-3328.351	1	6996.797	-28.4047	8.535819E-008	0.008578	7
	30	44	998.264	6398.22	-3943.511	1	7515.883	-31.6474	-6.972397E-009	0.0086579	7
	31	45	796.875	6655.304	-4643.416	1	8115.072	-34.90354	-2.930111E-009	0.0085573	7
	32	46	627.7902	6959.274	-5558.795	1	8906.835	-38.61649	-5.265987E-008	0.0087229	7
	33	47	505.5147	7273.671	-6543.515	1	9783.86	-41.97507	-1.559476E-009	0.0085633	6
	34	49	397.9953	7669.403	-7895.632	1	11007.3	-45.8327	1.545766E-009	0.0085637	6
	35	50	315.5048	8107.59	-9497.589	1	12487.48	-49.51437	4.490687E-010	0.0085636	6
	36	51	252.4038	8592.137	-11373.13	1	14253.87	-52.9298	5.34178E-010	0.0085629	6
	37	53	198.6229	9201.32	-13841.41	1	16620.74	-56.38533	9.949769E-010	0.0085588	6
	38	54	158.3615	9878.81	-16712.62	1	19413.97	-59.4127	1.355649E-009	0.0085612	6
	39	55	125.558	10695.81	-20311.31	1	22955.39	-62.229	7.651331E-010	0.008562	6
	40	57	100.4464	11660.41	-24569.47	1	27196.03	-64.61147	1.749407E-009	0.00856	6
	41	58	79.00281	12904.07	-30133	1	32779.76	-66.8176	1.585957E-009	0.0085589	6
	42	59	63.3446	14055.85	-36850.55	1	39440.2	-69.12173	7.170455E-010	0.0085559	6
	43	61	49.86702	16419.66	-44739.2	1	47657.12	-69.84644	1.687636E-011	0.0085638	6
	44	62	39.72458	18597.33	-54858.04	1	57924.65	-71.27292	1.277585E-009	0.0085611	6
	45	64	31.6723	21908.92	-66904.95	1	70400.8	-71.86827	1.389986E-009	0.0085595	6
	46	65	24.93351	26112.71	-82260.59	1	86305.73	-72.38853	9.969652E-010	0.0085559	6
	47	66	19.86229	31451.05	-99973.4	1	104803.9	-72.53674	1.179464E-009	0.0085618	6
	48	68	15.83615	38818.75	-122202.8	1	128220.2	-72.37711	-6.412569E-010	0.0085613	5
	49	69	12.40079	50090.97	-148832.8	1	157036	-71.39889	1.50114E-009	0.0085609	5
	50	71	9.93114	61389.49	-177942.2	1	188234.2	-70.96574	8.392137E-010	0.008558	5
	51	72	7.944915	76406.07	-213168.8	1	226448.3	-70.28081	1.64127E-010	0.0085709	5
	52	74	6.317385	97868.2	-254472.9	1	272643.8	-68.96366	1.900712E-011	0.0085786	5
	53	76	5.008013	125058.4	-302884.5	1	327686.8	-67.56469	3.058798E-011	0.0085585	5
	54	78	3.945707	160888.8	-359320.5	1	393695.9	-65.87914	3.995153E-010	0.0085673	5
	55	81	3.158693	202898.7	-418078.4	1	464712.2	-64.11212	9.299001E-011	0.0085695	5
	56	84	2.504006	255659	-485421.9	1	548631	-62.2254	1.340693E-010	0.0085531	5
	57	87	1.998082	316469.3	-556009	1	639764.6	-60.35233	-1.139438E-010	0.0085755	5
	58	90	1.584686	391589.7	-633631.9	1	744870.4	-58.2836	2.994322E-010	0.008605	5
	59	94	1.266892	471732.5	-712229.2	1	854284.5	-56.4822	-1.388906E-010	0.0085772	5
	60	98	0.999041	567205.3	-800379.1	1	980983	-54.67591	4.063115E-010	0.0085642	5
