EXPLAIN
TAG	EISPOT
TITLE	LABEL	Potentiostatic EIS	Test &Identifier
DATE	LABEL	10/4/2019	Date
TIME	LABEL	9:47:26	Time
NOTES	NOTES	2	&Notes...
	
	
PSTAT	PSTAT	REF600-11020	Potentiostat
VDC	POTEN	0.00000E+000	T	DC &Voltage (V)
FREQINIT	QUANT	1.00000E+006	Initial Fre&q. (Hz)
FREQFINAL	QUANT	1.00000E+000	Final Fre&q. (Hz)
PTSPERDEC	QUANT	1.00000E+001	Points/&decade
VAC	QUANT	2.50000E+001	AC &Voltage (mV rms)
AREA	QUANT	1.00000E-002	&Area (cm^2)
CONDIT	TWOPARAM	T	5.00000E+000	0.00000E+000	Conditionin&g	Time(s)	E(V)
DELAY	TWOPARAM	T	5.00000E+000	0.00000E+000	Init. De&lay	Time(s)	Stab.(mV/s)
SPEED	SELECTOR	1	&Optimize for:
ZGUESS	QUANT	1.00000E+004	E&stimated Z (ohms)
OCVCURVE	TABLE	19
	Pt	T	Vf	Vm	Ach	Over
	#	s	V vs. Ref.	V	V	bits
	0	0.258333	2.63285E-003	2.63285E-003	5.60799E-004	...........
	1	0.516667	2.62884E-003	2.42257E-003	5.61599E-004	...........
	2	0.775	2.59800E-003	1.90063E-003	5.57466E-004	...........
	3	1.03333	2.49352E-003	1.56790E-003	5.61132E-004	...........
	4	1.29167	2.28268E-003	1.34045E-003	5.62632E-004	...........
	5	1.55	1.99069E-003	1.12874E-003	5.58533E-004	...........
	6	1.80833	1.68217E-003	9.92519E-004	5.60499E-004	...........
	7	2.06667	1.42561E-003	1.72699E-003	5.61199E-004	...........
	8	2.325	1.35048E-003	4.67708E-003	5.53166E-004	...........
	9	2.58333	1.69152E-003	5.51951E-003	5.59332E-004	...........
	10	2.84167	2.54473E-003	4.47441E-003	5.63766E-004	...........
	11	3.1	3.56010E-003	3.02478E-003	5.62332E-004	...........
	12	3.35833	4.12899E-003	1.10782E-003	5.66532E-004	...........
	13	3.61667	3.87720E-003	-6.73409E-004	5.57766E-004	...........
	14	3.875	2.85809E-003	-1.81503E-003	5.57799E-004	...........
	15	4.13333	1.42524E-003	-1.55856E-003	5.65232E-004	...........
	16	4.39167	4.80492E-005	-1.20861E-003	5.58032E-004	...........
	17	4.65	-9.01728E-004	-1.39142E-003	5.56666E-004	...........
	18	4.90833	-1.33286E-003	-9.06332E-004	5.61399E-004	...........
EOC	QUANT	-0.0013329	Open Circuit (V)
PSTATMODEL	IQUANT	4	Pstat Model
PSTATSECTION	LABEL	REF600-11020	Pstat Section
PSTATSERIALNO	LABEL	11020	Pstat Serial Number
CTRLMODE	IQUANT	1	Control Mode
IESTAB	IQUANT	0	I/E Stability
CASPEED	IQUANT	1	Control Amp Speed
CONVENTION	IQUANT	1	Current Convention
ICHRANGE	IQUANT	2	Ich Range
ICHRANGEMODE	TOGGLE	F	Ich Auto Range
ICHOFFSETENABLE	TOGGLE	T	Ich Offset Enable
ICHOFFSET	QUANT	0	Ich Offset (V)
ICHFILTER	IQUANT	3	Ich Filter
VCHRANGE	IQUANT	2	Vch Range
VCHRANGEMODE	TOGGLE	F	Vch Auto Range
VCHOFFSETENABLE	TOGGLE	T	Vch Offset Enable
VCHOFFSET	QUANT	0	Vch Offset (V)
VCHFILTER	IQUANT	3	Vch Filter
ACHRANGE	IQUANT	2	Ach Range
ACHOFFSETENABLE	TOGGLE	F	Ach Offset Enable
ACHOFFSET	QUANT	0	Ach Offset (V)
ACHFILTER	IQUANT	3	Ach Filter
IERANGELOWERLIMIT	IQUANT	1	I/E Range Lower Limit
IERANGEMODE	TOGGLE	F	I/E AutoRange
IERANGE	IQUANT	5	I/E Range
POSFEEDENABLE	TOGGLE	F	Positive Feedback IR Comp
POSFEEDRESISTANCE	QUANT	0	Positive Feedback Resistance (ohm)
ACHSELECT	IQUANT	0	Ach Select
CABLEID	IQUANT	14	Cable ID
DCCALDATE	LABEL	8/19/2019	DC Calibration Date
ACCALDATE	LABEL	8/19/2019	AC Calibration Date
THERMOSELECT	IQUANT	1	Thermo Select
FRAMEWORKVERSION	QUANT	6.33	Framework Version
INSTRUMENTVERSION	LABEL	3.50	Instrument Version
ZCURVE	TABLE
	Pt	Time	Freq	Zreal	Zimag	Zsig	Zmod	Zphz	Idc	Vdc	IERange
	#	s	Hz	ohm	ohm	V	ohm	°	A	V	#
	0	2	1000078	2553.898	-2032.973	1	3264.257	-38.52075	5.445109E-007	9.345268E-005	8
	1	4	794390.6	2965.354	-2027.972	1	3592.491	-34.36779	-1.160071E-006	0.0007221	8
	2	5	630984.4	3372.14	-1945.605	1	3893.162	-29.98342	3.343335E-006	-0.0001792	8
	3	6	501234.4	3743.397	-1836.958	1	4169.825	-26.13809	4.950755E-007	0.000199	8
	4	8	398109.4	4009.3	-1674.308	1	4344.858	-22.66571	4.189684E-006	-0.0004053	8
	5	9	316265.6	4294.443	-1493.441	1	4546.714	-19.1757	2.975461E-006	-0.0003356	8
	6	11	251203.1	4508.715	-1338.399	1	4703.172	-16.53336	-2.277269E-006	0.0007423	8
	7	12	199546.9	4676.206	-1168.641	1	4820.023	-14.03151	4.030398E-006	-0.0003877	8
	8	13	158578.1	4785.361	-1014.52	1	4891.721	-11.96976	-2.896138E-006	0.0009409	8
	9	15	125953.1	4912.531	-832.1744	1	4982.517	-9.61453	6.38287E-007	-0.0016053	7
	10	16	100078.1	4980.067	-741.5169	1	5034.969	-8.468947	-6.133571E-008	0.0004603	7
	11	18	79453.13	5043.954	-673.9921	1	5088.785	-7.610993	-8.400756E-008	0.0004051	7
	12	19	63140.62	5099.053	-625.1486	1	5137.232	-6.989634	-8.383878E-008	0.000398	7
	13	20	50203.12	5148.604	-593.6292	1	5182.713	-6.577108	4.238624E-008	0.0002122	7
	14	22	39890.62	5197.316	-578.6821	1	5229.433	-6.353286	-2.295236E-008	0.0003294	7
	15	23	31640.63	5245.211	-577.9587	1	5276.957	-6.287934	-9.933396E-009	0.0004018	7
	16	24	25171.88	5292.251	-592.8366	1	5325.352	-6.391613	-2.314457E-008	0.0003269	7
	17	26	20015.62	5341.028	-621.6099	1	5377.08	-6.638443	-5.37331E-008	0.000304	7
	18	27	15890.62	5393.628	-665.1389	1	5434.486	-7.030186	8.078437E-009	0.0001934	7
	19	28	12609.37	5444.077	-729.197	1	5492.695	-7.628972	6.484868E-008	0.000152	7
	20	30	10078.13	5501.744	-807.8243	1	5560.734	-8.353086	8.294176E-008	8.203373E-005	7
	21	31	8015.625	5565.532	-909.5813	1	5639.37	-9.281857	6.590038E-008	0.0001553	7
	22	32	6328.125	5635.01	-1041.859	1	5730.515	-10.47514	-8.508191E-009	0.0003942	7
	23	34	5015.625	5709.96	-1203.122	1	5835.336	-11.89851	9.362603E-008	0.0001928	7
	24	35	3984.375	5791.008	-1400.143	1	5957.866	-13.59206	6.71731E-009	0.000179	7
	25	36	3170.956	5877.742	-1644.694	1	6103.513	-15.63254	-1.349546E-008	0.0002253	7
	26	38	2527.573	5975.084	-1941.151	1	6282.492	-17.99765	-3.586759E-009	0.000273	7
	27	39	1976.103	6101.28	-2337.322	1	6533.658	-20.9612	7.054146E-008	0.0001431	7
	28	40	1577.524	6231.063	-2785.418	1	6825.298	-24.08566	1.089462E-007	0.0001844	7
	29	42	1265.625	6386.654	-3314.933	1	7195.702	-27.43114	7.897307E-008	0.0000997	7
	30	43	998.264	6574.62	-4010.127	1	7701.088	-31.38071	-4.834094E-009	0.0002259	7
	31	44	796.875	6792.346	-4820.135	1	8328.846	-35.36111	-2.549568E-008	0.0002613	7
	32	46	627.7902	7070.008	-5858.723	1	9182.028	-39.64762	5.531873E-008	0.0001685	7
	33	47	505.5147	7374.125	-7012.414	1	10176.03	-43.55976	-8.225328E-009	0.0003134	6
	34	49	397.9953	7773.781	-8555.072	1	11559.45	-47.73936	1.604611E-011	0.0002196	6
	35	50	315.5048	8242.837	-10392.75	1	13264.75	-51.58089	1.128067E-009	0.0002191	6
	36	51	252.4038	8792.384	-12542.68	1	15317.46	-54.96964	1.213369E-009	0.0002128	6
	37	53	198.6229	9520.09	-15367.22	1	18077.15	-58.22151	5.466781E-010	0.0002179	6
	38	54	158.3615	10386.39	-18634.02	1	21333.17	-60.8652	6.669343E-010	0.0002172	6
	39	55	125.558	11515.81	-22722.01	1	25473.58	-63.12352	9.713982E-010	0.0002135	6
	40	57	100.4464	12911.77	-27489.91	1	30371.18	-64.84097	2.251064E-010	0.0002143	6
	41	58	79.00281	14882.43	-33694.16	1	36834.54	-66.16935	1.029115E-009	0.0002139	6
	42	59	63.3446	17252.8	-40794.99	1	44293.23	-67.07579	8.792535E-010	0.0002101	6
	43	61	49.86702	20717.06	-49341.21	1	53514.03	-67.22376	6.922762E-011	0.0002076	6
	44	62	39.72458	25187.51	-59466.49	1	64580.75	-67.04453	4.954545E-010	0.0002116	6
	45	64	31.6723	30735.62	-71086.09	1	77446.18	-66.61771	5.727464E-011	0.0002118	6
	46	65	24.93351	38644.88	-85194.41	1	93549.52	-65.60057	9.29582E-010	0.0002071	6
	47	66	19.86229	48025.6	-100442.3	1	111333.4	-64.44562	9.555645E-010	0.0002177	5
	48	68	15.83615	59960.85	-116657.3	1	131164.9	-62.79722	5.011302E-010	0.000209	5
	49	69	12.40079	75661.38	-137418.1	1	156870.5	-61.16314	1.323243E-009	0.0002091	5
	50	70	9.93114	92047.91	-156692.5	1	181728.8	-59.56819	9.06717E-010	0.0002092	5
	51	72	7.944915	111015.7	-177440.4	1	209307.4	-57.96782	-3.841697E-010	0.0002206	5
	52	74	6.317385	132867	-200686.5	1	240683.9	-56.49295	-1.612679E-010	0.000215	5
	53	76	5.008013	157052.6	-226331.4	1	275484	-55.24301	8.159391E-011	0.0002043	5
	54	78	3.945707	183367.6	-255621	1	314588.2	-54.34654	5.710394E-010	0.0002172	5
	55	81	3.158693	209945.6	-286830.3	1	355455.8	-53.79771	1.351972E-010	0.0002191	5
	56	84	2.504006	239076.2	-324868.1	1	403356.8	-53.64999	5.082945E-010	0.0002071	5
	57	87	1.998082	268504.3	-368702.6	1	456109.8	-53.93636	7.551642E-012	0.0002481	5
	58	90	1.584686	302837.2	-423669.1	1	520774.3	-54.44295	2.575713E-010	0.0002625	5
	59	93	1.266892	338082.7	-486275.7	1	592253.3	-55.19107	-2.657164E-011	0.000233	5
	60	98	0.999041	381730.9	-567220.4	1	683708.7	-56.06003	3.58764E-010	0.0002225	5
