EXPLAIN
TAG	EISPOT
TITLE	LABEL	Potentiostatic EIS	Test &Identifier
DATE	LABEL	10/18/2019	Date
TIME	LABEL	9:54:15	Time
NOTES	NOTES	1	&Notes...
	
PSTAT	PSTAT	REF600-11020	Potentiostat
VDC	POTEN	0.00000E+000	T	DC &Voltage (V)
FREQINIT	QUANT	1.00000E+006	Initial Fre&q. (Hz)
FREQFINAL	QUANT	1.00000E+000	Final Fre&q. (Hz)
PTSPERDEC	QUANT	1.00000E+001	Points/&decade
VAC	QUANT	2.50000E+001	AC &Voltage (mV rms)
AREA	QUANT	1.00000E-002	&Area (cm^2)
CONDIT	TWOPARAM	T	5.00000E+000	0.00000E+000	Conditionin&g	Time(s)	E(V)
DELAY	TWOPARAM	T	5.00000E+000	0.00000E+000	Init. De&lay	Time(s)	Stab.(mV/s)
SPEED	SELECTOR	0	&Optimize for:
ZGUESS	QUANT	1.00000E+005	E&stimated Z (ohms)
OCVCURVE	TABLE	19
	Pt	T	Vf	Vm	Ach	Over
	#	s	V vs. Ref.	V	V	bits
	0	0.258333	6.32304E-003	6.32304E-003	5.29533E-004	...........
	1	0.516667	6.32213E-003	6.27549E-003	5.25033E-004	...........
	2	0.775	6.31674E-003	6.24050E-003	5.22633E-004	...........
	3	1.03333	6.30170E-003	6.18325E-003	5.24000E-004	...........
	4	1.29167	6.27470E-003	6.16281E-003	5.27800E-004	...........
	5	1.55	6.23806E-003	6.07666E-003	5.24433E-004	...........
	6	1.80833	6.19448E-003	6.02418E-003	5.27766E-004	...........
	7	2.06667	6.14845E-003	6.18104E-003	5.31766E-004	...........
	8	2.325	6.11681E-003	6.26821E-003	5.28866E-004	...........
	9	2.58333	6.12323E-003	6.37396E-003	5.29166E-004	...........
	10	2.84167	6.17163E-003	6.27958E-003	5.30099E-004	...........
	11	3.1	6.23363E-003	6.20257E-003	5.27566E-004	...........
	12	3.35833	6.26932E-003	6.12351E-003	5.29899E-004	...........
	13	3.61667	6.26342E-003	6.31649E-003	5.36399E-004	...........
	14	3.875	6.24411E-003	6.47961E-003	5.35000E-004	...........
	15	4.13333	6.25606E-003	6.43158E-003	5.32400E-004	...........
	16	4.39167	6.30916E-003	6.42046E-003	5.31866E-004	...........
	17	4.65	6.36788E-003	6.24894E-003	5.35033E-004	...........
	18	4.90833	6.38976E-003	6.19354E-003	5.30466E-004	...........
EOC	QUANT	0.0063898	Open Circuit (V)
PSTATMODEL	IQUANT	4	Pstat Model
PSTATSECTION	LABEL	REF600-11020	Pstat Section
PSTATSERIALNO	LABEL	11020	Pstat Serial Number
CTRLMODE	IQUANT	1	Control Mode
IESTAB	IQUANT	0	I/E Stability
CASPEED	IQUANT	1	Control Amp Speed
CONVENTION	IQUANT	1	Current Convention
ICHRANGE	IQUANT	2	Ich Range
ICHRANGEMODE	TOGGLE	F	Ich Auto Range
ICHOFFSETENABLE	TOGGLE	T	Ich Offset Enable
ICHOFFSET	QUANT	0	Ich Offset (V)
ICHFILTER	IQUANT	3	Ich Filter
VCHRANGE	IQUANT	2	Vch Range
VCHRANGEMODE	TOGGLE	F	Vch Auto Range
VCHOFFSETENABLE	TOGGLE	T	Vch Offset Enable
VCHOFFSET	QUANT	0	Vch Offset (V)
VCHFILTER	IQUANT	3	Vch Filter
ACHRANGE	IQUANT	2	Ach Range
ACHOFFSETENABLE	TOGGLE	F	Ach Offset Enable
ACHOFFSET	QUANT	0	Ach Offset (V)
ACHFILTER	IQUANT	3	Ach Filter
IERANGELOWERLIMIT	IQUANT	1	I/E Range Lower Limit
IERANGEMODE	TOGGLE	F	I/E AutoRange
IERANGE	IQUANT	5	I/E Range
POSFEEDENABLE	TOGGLE	F	Positive Feedback IR Comp
POSFEEDRESISTANCE	QUANT	0	Positive Feedback Resistance (ohm)
ACHSELECT	IQUANT	0	Ach Select
CABLEID	IQUANT	14	Cable ID
DCCALDATE	LABEL	8/19/2019	DC Calibration Date
ACCALDATE	LABEL	8/19/2019	AC Calibration Date
THERMOSELECT	IQUANT	1	Thermo Select
FRAMEWORKVERSION	QUANT	6.33	Framework Version
INSTRUMENTVERSION	LABEL	3.50	Instrument Version
ZCURVE	TABLE
	Pt	Time	Freq	Zreal	Zimag	Zsig	Zmod	Zphz	Idc	Vdc	IERange
	#	s	Hz	ohm	ohm	V	ohm	°	A	V	#
	0	1	1000078	2650.54	-1744.361	1	3173.036	-33.34954	3.016173E-006	0.0092916	8
	1	1	794390.6	3011.833	-1658.648	1	3438.35	-28.84204	-1.361526E-006	0.0086904	8
	2	2	630984.4	3305.151	-1508.097	1	3632.958	-24.52658	1.737643E-006	0.0080231	8
	3	2	501234.4	3549.906	-1343.87	1	3795.763	-20.73491	1.101105E-006	0.0079666	8
	4	2	398109.4	3740.671	-1185.411	1	3924.005	-17.5833	1.543154E-006	0.008011	8
	5	3	316265.6	3881.681	-1020.703	1	4013.637	-14.73263	1.160029E-006	0.007895	8
	6	3	251203.1	4000.629	-883.0496	1	4096.927	-12.44718	-3.229278E-006	0.00862	8
	7	3	199546.9	4086.689	-748.3452	1	4154.642	-10.37691	1.30599E-006	0.007889	8
	8	4	158578.1	4158.604	-654.3633	1	4209.772	-8.942266	3.822896E-006	0.0074088	8
	9	4	125953.1	4236.788	-519.8738	1	4268.564	-6.995493	-6.111686E-007	0.0101558	7
	10	4	100078.1	4257.459	-467.2096	1	4283.018	-6.262527	-2.218504E-008	0.0081626	7
	11	5	79453.13	4293.473	-436.4978	1	4315.604	-5.805056	-5.918541E-008	0.0082771	7
	12	5	63140.62	4329.524	-416.7327	1	4349.534	-5.497993	-8.478266E-008	0.0082269	7
	13	5	50203.12	4361.923	-408.6324	1	4381.022	-5.351947	-4.773854E-008	0.0081863	7
	14	5	39890.62	4396.674	-410.8129	1	4415.825	-5.338058	8.966042E-009	0.0080213	7
	15	6	31640.63	4431.544	-423.1026	1	4451.696	-5.453795	-5.281231E-009	0.0081389	7
	16	6	25171.88	4469.542	-446.1046	1	4491.749	-5.699811	-5.876973E-008	0.008269	7
	17	6	20015.62	4513.963	-462.6512	1	4537.61	-5.852002	1.352333E-007	0.0078899	7
	18	7	15890.62	4552.462	-522.8018	1	4582.383	-6.551111	-3.539625E-008	0.0081104	7
	19	7	12609.37	4598.12	-576.9847	1	4634.18	-7.152248	-4.258785E-008	0.0081196	7
	20	7	10078.13	4644.4	-642.881	1	4688.683	-7.880842	-4.539449E-008	0.0081184	7
	21	8	8015.625	4674.523	-722.295	1	4729.998	-8.783727	8.236982E-008	0.0079204	7
	22	8	6328.125	4761.002	-835.0475	1	4833.679	-9.9481	-4.549605E-008	0.0081802	7
	23	8	5015.625	4823.837	-963.563	1	4919.132	-11.29618	-1.689059E-008	0.0080553	7
	24	9	3984.375	4853.403	-1099.45	1	4976.375	-12.7639	3.774655E-008	0.007956	7
	25	9	3170.956	4965.943	-1310.056	1	5135.838	-14.7784	8.237294E-008	0.0079171	7
	26	9	2527.573	5045.103	-1543.699	1	5275.99	-17.01305	-5.704765E-008	0.0082588	7
	27	10	1976.103	5145.204	-1850.537	1	5467.871	-19.78176	1.34555E-007	0.0078772	7
	28	10	1577.524	5272.267	-2299.488	1	5751.908	-23.56432	-7.21272E-009	0.0081311	7
	29	10	1265.625	5362.919	-2617.079	1	5967.412	-26.01215	-4.159084E-008	0.0081135	7
	30	11	998.264	5498.611	-3169.845	1	6346.861	-29.96263	1.340824E-007	0.0078852	7
	31	11	796.875	5664.578	-3802.831	1	6822.68	-33.87485	4.157392E-008	0.0080445	7
	32	11	627.7902	5854.907	-4630.967	1	7464.971	-38.3424	4.288769E-008	0.0080442	7
	33	11	505.5147	6054.714	-5553.888	1	8216.157	-42.52964	9.004366E-008	0.0080172	7
	34	12	397.9953	6321.289	-6797.495	1	9282.49	-47.0789	2.767597E-009	0.0081023	7
	35	12	315.5048	6629.553	-8293.229	1	10617.37	-51.36139	-6.737721E-010	0.0080387	6
	36	12	252.4038	6984.103	-10064.91	1	12250.71	-55.24297	6.382602E-010	0.008036	6
	37	13	198.6229	7448.627	-12409.36	1	14473.23	-59.02603	5.305746E-011	0.0080419	6
	38	13	158.3615	8007.566	-15150.27	1	17136.28	-62.14164	1.436696E-009	0.0080379	6
	39	13	125.558	8731.647	-18587.42	1	20536.16	-64.83769	4.829815E-010	0.0080413	6
	40	14	100.4464	9670.4	-22670.21	1	24646.61	-66.89842	-2.965944E-010	0.0080387	6
	41	14	79.00281	10895.51	-28083.37	1	30122.88	-68.79523	-9.878085E-010	0.0080389	6
	42	14	63.3446	12071.73	-33537.44	1	35643.88	-70.20377	2.051025E-010	0.0080363	6
	43	15	49.86702	14512.85	-41438.82	1	43906.71	-70.69854	1.02443E-009	0.0080323	6
	44	15	39.72458	17276.99	-50920.96	1	53772.1	-71.25842	-3.343388E-010	0.0080391	6
	45	15	31.6723	20843.64	-62025.6	1	65434.18	-71.42513	-5.653966E-010	0.0080401	6
	46	16	24.93351	26112.1	-75473.84	1	79863.27	-70.91563	-2.624439E-010	0.0080364	6
	47	16	19.86229	32482.01	-91153.23	1	96767.7	-70.38672	-1.564283E-009	0.0080388	6
	48	16	15.83615	41507.49	-107122.1	1	114882.6	-68.81973	2.431205E-009	0.0080361	5
	49	17	12.40079	51145.23	-131457.8	1	141056.7	-68.74088	-1.121351E-009	0.0080415	5
	50	17	9.93114	65228.28	-155310.6	1	168452.1	-67.21828	-5.002557E-010	0.0080459	5
	51	18	7.944915	81413.91	-182834	1	200141.2	-65.99712	4.379861E-010	0.008039	5
	52	18	6.317385	102357.7	-212777.9	1	236117.6	-64.30994	6.342343E-011	0.0080448	5
	53	19	5.008013	127841.8	-247577.7	1	278636.4	-62.68951	-2.635391E-010	0.0080291	5
	54	20	3.945707	159388.7	-287062	1	328343.3	-60.95916	2.616002E-010	0.0080468	5
	55	21	3.158693	193284.3	-326189.7	1	379155	-59.35106	-1.293736E-010	0.0080526	5
	56	23	2.504006	232987	-371614.3	1	438611.6	-57.91397	-2.276612E-010	0.0080372	5
	57	24	1.998082	275897.7	-418666.8	1	501399.4	-56.61547	9.501215E-011	0.0080787	5
	58	26	1.584686	322725.5	-474624.5	1	573951.4	-55.78588	9.180447E-011	0.0080722	5
	59	28	1.266892	371376.4	-534282.9	1	650675.6	-55.1971	2.018254E-011	0.0080346	5
	60	30	0.999041	428495.3	-608221.6	1	744003.8	-54.8351	-2.557502E-011	0.0080082	5
