EXPLAIN
TAG	EISPOT
TITLE	LABEL	Potentiostatic IDE	Test &Identifier
DATE	LABEL	9/12/2019	Date
TIME	LABEL	9:23:36	Time
NOTES	NOTES	1	&Notes...
	
PSTAT	PSTAT	REF600-11020	Potentiostat
VDC	POTEN	0.00000E+000	T	DC &Voltage (V)
FREQINIT	QUANT	1.00000E+006	Initial Fre&q. (Hz)
FREQFINAL	QUANT	1.00000E+000	Final Fre&q. (Hz)
PTSPERDEC	QUANT	1.00000E+001	Points/&decade
VAC	QUANT	2.50000E+001	AC &Voltage (mV rms)
AREA	QUANT	1.00000E-002	&Area (cm^2)
CONDIT	TWOPARAM	T	5.00000E+000	0.00000E+000	Conditionin&g	Time(s)	E(V)
DELAY	TWOPARAM	T	5.00000E+000	0.00000E+000	Init. De&lay	Time(s)	Stab.(mV/s)
SPEED	SELECTOR	1	&Optimize for:
ZGUESS	QUANT	1.00000E+007	E&stimated Z (ohms)
OCVCURVE	TABLE	19
	Pt	T	Vf	Vm	Ach	Over
	#	s	V vs. Ref.	V	V	bits
	0	0.258333	4.11159E-003	4.11159E-003	5.52832E-004	...........
	1	0.516667	4.10778E-003	3.91229E-003	5.50699E-004	...........
	2	0.775	4.08472E-003	3.74024E-003	5.51033E-004	...........
	3	1.03333	4.02084E-003	3.58920E-003	5.52399E-004	...........
	4	1.29167	3.90994E-003	3.45279E-003	5.46933E-004	...........
	5	1.55	3.76848E-003	3.33376E-003	5.49133E-004	...........
	6	1.80833	3.61978E-003	3.22400E-003	5.52699E-004	...........
	7	2.06667	3.47926E-003	3.11756E-003	5.56999E-004	...........
	8	2.325	3.35135E-003	2.98922E-003	5.51499E-004	...........
	9	2.58333	3.23283E-003	2.89028E-003	5.57199E-004	...........
	10	2.84167	3.11978E-003	2.83015E-003	5.55166E-004	...........
	11	3.1	3.01370E-003	2.75910E-003	5.55433E-004	...........
	12	3.35833	2.91928E-003	2.69336E-003	5.47499E-004	...........
	13	3.61667	2.83764E-003	2.62645E-003	5.52399E-004	...........
	14	3.875	2.76523E-003	2.56326E-003	5.51666E-004	...........
	15	4.13333	2.69780E-003	2.50301E-003	5.54666E-004	...........
	16	4.39167	2.63298E-003	2.44543E-003	5.56066E-004	...........
	17	4.65	2.57024E-003	2.39010E-003	5.47933E-004	...........
	18	4.90833	2.50975E-003	2.33614E-003	5.46566E-004	...........
EOC	QUANT	0.0025098	Open Circuit (V)
PSTATMODEL	IQUANT	4	Pstat Model
PSTATSECTION	LABEL	REF600-11020	Pstat Section
PSTATSERIALNO	LABEL	11020	Pstat Serial Number
CTRLMODE	IQUANT	1	Control Mode
IESTAB	IQUANT	0	I/E Stability
CASPEED	IQUANT	1	Control Amp Speed
CONVENTION	IQUANT	1	Current Convention
ICHRANGE	IQUANT	2	Ich Range
ICHRANGEMODE	TOGGLE	F	Ich Auto Range
ICHOFFSETENABLE	TOGGLE	T	Ich Offset Enable
ICHOFFSET	QUANT	0	Ich Offset (V)
ICHFILTER	IQUANT	3	Ich Filter
VCHRANGE	IQUANT	2	Vch Range
VCHRANGEMODE	TOGGLE	F	Vch Auto Range
VCHOFFSETENABLE	TOGGLE	T	Vch Offset Enable
VCHOFFSET	QUANT	0	Vch Offset (V)
VCHFILTER	IQUANT	3	Vch Filter
ACHRANGE	IQUANT	2	Ach Range
ACHOFFSETENABLE	TOGGLE	F	Ach Offset Enable
ACHOFFSET	QUANT	0	Ach Offset (V)
ACHFILTER	IQUANT	3	Ach Filter
IERANGELOWERLIMIT	IQUANT	1	I/E Range Lower Limit
IERANGEMODE	TOGGLE	F	I/E AutoRange
IERANGE	IQUANT	2	I/E Range
POSFEEDENABLE	TOGGLE	F	Positive Feedback IR Comp
POSFEEDRESISTANCE	QUANT	0	Positive Feedback Resistance (ohm)
ACHSELECT	IQUANT	0	Ach Select
CABLEID	IQUANT	14	Cable ID
DCCALDATE	LABEL	8/19/2019	DC Calibration Date
ACCALDATE	LABEL	8/19/2019	AC Calibration Date
THERMOSELECT	IQUANT	1	Thermo Select
FRAMEWORKVERSION	QUANT	6.33	Framework Version
INSTRUMENTVERSION	LABEL	3.50	Instrument Version
ZCURVE	TABLE
	Pt	Time	Freq	Zreal	Zimag	Zsig	Zmod	Zphz	Idc	Vdc	IERange
	#	s	Hz	ohm	ohm	V	ohm	°	A	V	#
	0	2	1000078	2463.059	-1314.079	1	2791.678	-28.08059	3.121041E-006	0.0048947	8
	1	3	794390.6	2721.632	-1204.672	1	2976.325	-23.87556	-6.971806E-007	0.0043319	8
	2	5	630984.4	2890.952	-1045.342	1	3074.141	-19.87953	7.390493E-007	0.0041906	8
	3	6	501234.4	3040.915	-899.3952	1	3171.131	-16.47636	-4.748352E-007	0.0044216	8
	4	7	398109.4	3169.382	-774.7654	1	3262.705	-13.73674	5.607446E-006	0.0031972	8
	5	9	316265.6	3211.564	-664.1783	1	3279.524	-11.68452	1.849467E-006	0.0036488	8
	6	10	251203.1	3284.486	-572.0961	1	3333.938	-9.88072	-1.306125E-006	0.0045613	8
	7	12	199546.9	3325.121	-504.9657	1	3363.246	-8.635178	-3.358537E-006	0.0048521	8
	8	13	158578.1	3361.684	-436.0912	1	3389.852	-7.391364	9.817405E-008	0.0042133	8
	9	14	125953.1	3403.802	-367.3385	1	3423.566	-6.159524	7.029486E-007	0.0026309	7
	10	16	100078.1	3424.692	-323.7496	1	3439.961	-5.400346	-1.030066E-008	0.0041784	7
	11	17	79453.13	3449.11	-316.5955	1	3463.609	-5.244513	-5.876506E-008	0.0042088	7
	12	18	63140.62	3474.711	-317.2217	1	3489.162	-5.216323	-6.897113E-008	0.0042111	7
	13	20	50203.12	3501.358	-325.8976	1	3516.492	-5.317626	7.963975E-008	0.0039524	7
	14	21	39890.62	3529.378	-341.4919	1	3545.861	-5.526563	-6.663954E-008	0.0041992	7
	15	22	31640.63	3561.93	-365.6889	1	3580.652	-5.861788	7.189023E-008	0.0039942	7
	16	24	25171.88	3598.19	-397.3144	1	3620.06	-6.301109	-3.68027E-008	0.0041127	7
	17	25	20015.62	3637.55	-437.43	1	3663.757	-6.857121	4.60727E-008	0.0039633	7
	18	26	15890.62	3686.6	-489.6208	1	3718.971	-7.565234	2.862088E-009	0.0040379	7
	19	28	12609.37	3733.518	-543.7676	1	3772.909	-8.286569	8.235418E-008	0.0039418	7
	20	29	10078.13	3786.711	-609.9772	1	3835.525	-9.150805	-5.254861E-008	0.0041801	7
	21	30	8015.625	3848.536	-688.2788	1	3909.598	-10.13968	-3.744811E-008	0.0041264	7
	22	32	6328.125	3918.231	-783.6517	1	3995.828	-11.31001	-6.164124E-009	0.0041457	7
	23	33	5015.625	3993.714	-894.6625	1	4092.697	-12.6268	-2.527142E-008	0.0041019	7
	24	35	3984.375	4075.018	-1023.478	1	4201.581	-14.09874	-2.42041E-008	0.0041022	7
	25	36	3170.956	4161.646	-1176.255	1	4324.682	-15.7825	-5.218688E-009	0.0041455	7
	26	37	2527.573	4254.973	-1357.42	1	4466.25	-17.69371	-3.039242E-008	0.0041049	7
	27	39	1976.103	4365.433	-1595.396	1	4647.827	-20.07539	-5.474889E-008	0.0041928	7
	28	40	1577.524	4475.1	-1858.889	1	4845.821	-22.55726	-4.976071E-008	0.0041732	7
	29	41	1265.625	4595.648	-2166.142	1	5080.566	-25.23668	-2.464633E-008	0.0041001	7
	30	43	998.264	4729.374	-2583.627	1	5389.073	-28.64751	1.382021E-007	0.0039011	7
	31	44	796.875	4875.189	-3063.895	1	5758.031	-32.148	-8.859812E-009	0.0041405	7
	32	45	627.7902	5049.076	-3681.441	1	6248.694	-36.09698	-4.498263E-008	0.0041671	7
	33	47	505.5147	5226	-4371.316	1	6813.184	-39.91098	1.756793E-009	0.0040428	7
	34	48	397.9953	5444.998	-5306.717	1	7603.24	-44.26315	6.151227E-009	0.0041096	7
	35	49	315.5048	5691.633	-6429.98	1	8587.161	-48.48567	6.747889E-009	0.0041087	7
	36	51	252.4038	5963.06	-7757.375	1	9784.42	-52.45068	5.59268E-009	0.004109	7
	37	52	198.6229	6310.069	-9519.16	1	11420.66	-56.46037	1.084788E-009	0.0040542	6
	38	53	158.3615	6697.383	-11582.51	1	13379.44	-59.9621	1.607021E-009	0.0040499	6
	39	55	125.558	7182.968	-14193.65	1	15907.7	-63.15744	1.427562E-009	0.0040428	6
	40	56	100.4464	7753.484	-17282.84	1	18942.37	-65.83789	1.941116E-010	0.0040457	6
	41	57	79.00281	8527.803	-21380.62	1	23018.56	-68.25508	1.814919E-009	0.0040449	6
	42	59	63.3446	9673.66	-26125.97	1	27859.39	-69.68192	9.170656E-010	0.0040443	6
	43	60	49.86702	10660.98	-32257.55	1	33973.61	-71.7115	1.319387E-009	0.0040436	6
	44	61	39.72458	12475.46	-39421.39	1	41348.32	-72.43929	1.103344E-009	0.004055	6
	45	63	31.6723	14518.14	-48189.66	1	50329.11	-73.23398	9.479663E-010	0.0040492	6
	46	64	24.93351	17537.28	-59331.59	1	61869.17	-73.53333	4.795147E-010	0.0040458	6
	47	65	19.86229	21392.27	-72248.91	1	75349.41	-73.50644	9.698665E-010	0.0040452	6
	48	67	15.83615	26569.24	-87192.87	1	91151.09	-73.05308	-4.260133E-010	0.0040458	6
	49	68	12.40079	33601.25	-107285	1	112423.9	-72.60965	1.967312E-009	0.0040474	5
	50	69	9.93114	41505.19	-129190.5	1	135694	-72.18928	1.774851E-010	0.0040537	5
	51	71	7.944915	51731.85	-155077.9	1	163478.8	-71.55201	6.195808E-010	0.0040499	5
	52	73	6.317385	65432.11	-185648.8	1	196842.2	-70.58495	8.846383E-011	0.0040602	5
	53	75	5.008013	83235.79	-221828.6	1	236930.7	-69.43262	4.540619E-010	0.0040507	5
	54	77	3.945707	106053	-264985.2	1	285419.7	-68.18761	2.115608E-010	0.0040417	5
	55	80	3.158693	132189.7	-310906.8	1	337841.9	-66.96603	4.372091E-010	0.0040649	5
	56	83	2.504006	165629.1	-366197.4	1	401912.3	-65.66302	3.610975E-011	0.004042	5
	57	86	1.998082	204561	-426490.1	1	473010.6	-64.37583	1.108375E-010	0.00401	5
	58	89	1.584686	252287.1	-494736.9	1	555349.8	-62.98106	9.154052E-011	0.0040822	5
	59	93	1.266892	306277.3	-571875.3	1	648727.3	-61.82799	5.175894E-011	0.0040176	5
	60	97	0.999041	374678.3	-660521.8	1	759389.8	-60.4361	3.092553E-010	0.0040891	5
