EXPLAIN
TAG	EISPOT
TITLE	LABEL	Potentiostatic EIS	Test &Identifier
DATE	LABEL	10/26/2019	Date
TIME	LABEL	10:08:30	Time
NOTES	NOTES	1	&Notes...
	
PSTAT	PSTAT	REF600-11020	Potentiostat
VDC	POTEN	0.00000E+000	T	DC &Voltage (V)
FREQINIT	QUANT	1.00000E+006	Initial Fre&q. (Hz)
FREQFINAL	QUANT	1.00000E+000	Final Fre&q. (Hz)
PTSPERDEC	QUANT	1.00000E+001	Points/&decade
VAC	QUANT	2.50000E+001	AC &Voltage (mV rms)
AREA	QUANT	1.00000E-002	&Area (cm^2)
CONDIT	TWOPARAM	T	5.00000E+000	0.00000E+000	Conditionin&g	Time(s)	E(V)
DELAY	TWOPARAM	T	5.00000E+000	0.00000E+000	Init. De&lay	Time(s)	Stab.(mV/s)
SPEED	SELECTOR	0	&Optimize for:
ZGUESS	QUANT	1.00000E+005	E&stimated Z (ohms)
OCVCURVE	TABLE	19
	Pt	T	Vf	Vm	Ach	Over
	#	s	V vs. Ref.	V	V	bits
	0	0.258333	5.18789E-003	5.18789E-003	5.57766E-004	...........
	1	0.516667	5.18732E-003	5.15800E-003	5.58099E-004	...........
	2	0.775	5.18405E-003	5.14233E-003	5.53866E-004	...........
	3	1.03333	5.17584E-003	5.13839E-003	5.56199E-004	...........
	4	1.29167	5.16379E-003	5.14356E-003	5.51766E-004	...........
	5	1.55	5.15256E-003	5.15204E-003	5.56899E-004	...........
	6	1.80833	5.14658E-003	5.16712E-003	5.57833E-004	...........
	7	2.06667	5.14764E-003	5.18575E-003	5.66866E-004	...........
	8	2.325	5.15538E-003	5.20633E-003	5.60166E-004	...........
	9	2.58333	5.16851E-003	5.22700E-003	5.62466E-004	...........
	10	2.84167	5.18559E-003	5.25317E-003	5.57199E-004	...........
	11	3.1	5.20552E-003	5.27972E-003	5.61699E-004	...........
	12	3.35833	5.22784E-003	5.30828E-003	5.56099E-004	...........
	13	3.61667	5.25231E-003	5.33517E-003	5.51266E-004	...........
	14	3.875	5.27842E-003	5.36194E-003	5.56766E-004	...........
	15	4.13333	5.30552E-003	5.39392E-003	5.54299E-004	...........
	16	4.39167	5.33324E-003	5.42009E-003	5.55199E-004	...........
	17	4.65	5.36144E-003	5.44851E-003	5.52299E-004	...........
	18	4.90833	5.38986E-003	5.47710E-003	5.50433E-004	...........
EOC	QUANT	0.0053899	Open Circuit (V)
PSTATMODEL	IQUANT	4	Pstat Model
PSTATSECTION	LABEL	REF600-11020	Pstat Section
PSTATSERIALNO	LABEL	11020	Pstat Serial Number
CTRLMODE	IQUANT	1	Control Mode
IESTAB	IQUANT	0	I/E Stability
CASPEED	IQUANT	1	Control Amp Speed
CONVENTION	IQUANT	1	Current Convention
ICHRANGE	IQUANT	2	Ich Range
ICHRANGEMODE	TOGGLE	F	Ich Auto Range
ICHOFFSETENABLE	TOGGLE	T	Ich Offset Enable
ICHOFFSET	QUANT	0	Ich Offset (V)
ICHFILTER	IQUANT	3	Ich Filter
VCHRANGE	IQUANT	2	Vch Range
VCHRANGEMODE	TOGGLE	F	Vch Auto Range
VCHOFFSETENABLE	TOGGLE	T	Vch Offset Enable
VCHOFFSET	QUANT	0	Vch Offset (V)
VCHFILTER	IQUANT	3	Vch Filter
ACHRANGE	IQUANT	2	Ach Range
ACHOFFSETENABLE	TOGGLE	F	Ach Offset Enable
ACHOFFSET	QUANT	0	Ach Offset (V)
ACHFILTER	IQUANT	3	Ach Filter
IERANGELOWERLIMIT	IQUANT	1	I/E Range Lower Limit
IERANGEMODE	TOGGLE	F	I/E AutoRange
IERANGE	IQUANT	5	I/E Range
POSFEEDENABLE	TOGGLE	F	Positive Feedback IR Comp
POSFEEDRESISTANCE	QUANT	0	Positive Feedback Resistance (ohm)
ACHSELECT	IQUANT	0	Ach Select
CABLEID	IQUANT	14	Cable ID
DCCALDATE	LABEL	8/19/2019	DC Calibration Date
ACCALDATE	LABEL	8/19/2019	AC Calibration Date
THERMOSELECT	IQUANT	1	Thermo Select
FRAMEWORKVERSION	QUANT	6.33	Framework Version
INSTRUMENTVERSION	LABEL	3.50	Instrument Version
ZCURVE	TABLE
	Pt	Time	Freq	Zreal	Zimag	Zsig	Zmod	Zphz	Idc	Vdc	IERange
	#	s	Hz	ohm	ohm	V	ohm	°	A	V	#
	0	2	1000078	2195.037	-991.878	1	2408.736	-24.31692	-4.35219E-006	0.0087482	8
	1	2	794390.6	2364.683	-887.3087	1	2525.676	-20.56779	-3.916086E-007	0.0078747	8
	2	2	630984.4	2491.86	-776.6548	1	2610.088	-17.31104	3.935309E-007	0.0073473	8
	3	3	501234.4	2589.793	-670.8094	1	2675.26	-14.52163	-2.373972E-007	0.0073057	8
	4	3	398109.4	2650.453	-576.0329	1	2712.326	-12.26163	-4.543047E-007	0.0071761	8
	5	3	316265.6	2714.878	-494.7267	1	2759.586	-10.32757	1.631527E-006	0.0068022	8
	6	4	251203.1	2752.927	-427.5805	1	2785.935	-8.828552	-5.196552E-007	0.0070014	8
	7	4	199546.9	2790.314	-379.389	1	2815.988	-7.742822	-1.567427E-007	0.0071727	8
	8	4	158578.1	2827.145	-340.2316	1	2847.544	-6.862235	-1.412203E-007	0.0071625	8
	9	5	125953.1	2852.552	-281.0118	1	2866.361	-5.626192	-8.800989E-007	0.008357	7
	10	5	100078.1	2870.865	-263.4726	1	2882.93	-5.24361	-3.064405E-008	0.0070424	7
	11	5	79453.13	2891.688	-263.0988	1	2903.632	-5.198713	2.578393E-008	0.0070111	7
	12	6	63140.62	2913.526	-268.8514	1	2925.904	-5.272151	-3.41757E-008	0.0071113	7
	13	6	50203.12	2938.156	-280.8476	1	2951.548	-5.460106	5.902443E-008	0.0069114	7
	14	6	39890.62	2963.641	-298.032	1	2978.588	-5.742518	3.454143E-008	0.0069222	7
	15	7	31640.63	2992.061	-322.2856	1	3009.368	-6.14783	4.444743E-008	0.0069562	7
	16	7	25171.88	3023.744	-353.253	1	3044.309	-6.663452	-5.351589E-008	0.0071257	7
	17	7	20015.62	3058.77	-391.6411	1	3083.741	-7.296382	1.062724E-008	0.0069719	7
	18	8	15890.62	3097.317	-438.1086	1	3128.149	-8.05095	2.767018E-008	0.0070003	7
	19	8	12609.37	3141.456	-494.725	1	3180.173	-8.949592	-5.38972E-008	0.0071227	7
	20	8	10078.13	3189.612	-558.1302	1	3238.075	-9.92534	6.077783E-008	0.0069061	7
	21	8	8015.625	3243.731	-635.1096	1	3305.323	-11.07814	3.493053E-008	0.0069149	7
	22	9	6328.125	3307.061	-727.1384	1	3386.057	-12.40056	-5.177035E-008	0.0071274	7
	23	9	5015.625	3374.285	-833.5534	1	3475.718	-13.87603	-4.81683E-008	0.0070862	7
	24	9	3984.375	3446.094	-958.069	1	3576.795	-15.53677	3.528059E-008	0.0069107	7
	25	10	3170.956	3526.222	-1106.321	1	3695.698	-17.41879	3.410618E-009	0.0071059	7
	26	10	2527.573	3610.484	-1280.068	1	3830.688	-19.52155	-5.304238E-008	0.0071174	7
	27	10	1976.103	3707.651	-1510.832	1	4003.659	-22.17042	-5.707793E-009	0.0069882	7
	28	11	1577.524	3800.027	-1766.917	1	4190.728	-24.93724	-8.525356E-009	0.0070141	7
	29	11	1265.625	3904.921	-2072.15	1	4420.658	-27.9527	-2.316802E-008	0.0070206	7
	30	11	998.264	4019.802	-2481.254	1	4723.921	-31.68529	-5.347338E-008	0.0071198	7
	31	12	796.875	4141.389	-2953.296	1	5086.557	-35.49333	-2.681538E-008	0.0070171	7
	32	12	627.7902	4283.074	-3582.807	1	5584.016	-39.9126	7.381309E-008	0.0069564	7
	33	12	505.5147	4434.426	-4286.042	1	6167.195	-44.02517	-6.18759E-009	0.0069832	7
	34	13	397.9953	4626.101	-5247.892	1	6995.797	-48.60331	6.636789E-010	0.0070466	7
	35	13	315.5048	4853.577	-6410.942	1	8040.982	-52.87148	1.68221E-009	0.0070456	7
	36	13	252.4038	5123.613	-7790.203	1	9324.091	-56.6671	9.422472E-010	0.0070448	7
	37	14	198.6229	5493.908	-9620.09	1	11078.32	-60.26986	7.796671E-010	0.0069852	6
	38	14	158.3615	5944.399	-11757.16	1	13174.47	-63.17892	-5.981901E-010	0.0069806	6
	39	14	125.558	6539.64	-14437.94	1	15849.95	-65.63194	-2.186545E-010	0.0069835	6
	40	15	100.4464	7293.062	-17562.33	1	19016.42	-67.44849	9.689928E-010	0.0069792	6
	41	15	79.00281	8394.672	-21666.68	1	23236.08	-68.82133	-1.645025E-010	0.0069785	6
	42	15	63.3446	9582.26	-26554.12	1	28230.14	-70.15764	2.394833E-010	0.0069763	6
	43	16	49.86702	11399.31	-32493.45	1	34434.99	-70.66817	-8.992524E-010	0.0069772	6
	44	16	39.72458	13931.17	-39252.49	1	41651.36	-70.45963	-4.152792E-011	0.0069829	6
	45	16	31.6723	17104.7	-47262.32	1	50262.29	-70.10431	-6.84382E-010	0.0069817	6
	46	17	24.93351	21245.31	-57494.71	1	61294.41	-69.71984	7.692412E-010	0.0069792	6
	47	17	19.86229	26496.8	-68863.88	1	73785.59	-68.95474	2.370514E-009	0.0069886	6
	48	17	15.83615	34242.49	-82053.47	1	88911.87	-67.34828	-3.021226E-009	0.006979	6
	49	18	12.40079	43462.63	-97568.9	1	106811.4	-65.98914	1.817692E-009	0.0069819	5
	50	18	9.93114	53180.95	-114387.1	1	126145.2	-65.0653	-7.908302E-010	0.00699	5
	51	19	7.944915	65397.34	-132738.4	1	147974	-63.77153	5.256936E-010	0.006979	5
	52	19	6.317385	80632.44	-153152.7	1	173081.9	-62.23392	1.886063E-010	0.0069832	5
	53	20	5.008013	98389.3	-176415	1	201996.8	-60.85094	-2.882446E-010	0.0069808	5
	54	21	3.945707	119005	-202896.3	1	235221.3	-59.60704	1.486767E-010	0.0069875	5
	55	22	3.158693	140528.4	-230936.4	1	270332.9	-58.67884	-2.194201E-010	0.0069886	5
	56	24	2.504006	164838.1	-264045.2	1	311273.9	-58.02429	-2.333872E-010	0.0069747	5
	57	25	1.998082	190819.3	-300805.5	1	356224.6	-57.61055	1.077255E-010	0.0070214	5
	58	27	1.584686	218628.8	-345660.8	1	408998.8	-57.68684	1.642261E-011	0.0070029	5
	59	29	1.266892	249171	-396067	1	467926.6	-57.82545	-6.874913E-011	0.0069606	5
	60	31	0.999041	286035.4	-461057.5	1	542577.4	-58.18496	-1.2099E-010	0.0069424	5
