EXPLAIN
TAG	EISPOT
TITLE	LABEL	Potentiostatic EIS	Test &Identifier
DATE	LABEL	8/16/2017	Date
TIME	LABEL	17:16:08	Time
NOTES	NOTES	1	&Notes...
	
PSTAT	PSTAT	REF600-11020	Potentiostat
VDC	POTEN	0.00000E+000	T	DC &Voltage (V)
FREQINIT	QUANT	1.00000E+006	Initial Fre&q. (Hz)
FREQFINAL	QUANT	1.00000E+000	Final Fre&q. (Hz)
PTSPERDEC	QUANT	1.00000E+001	Points/&decade
VAC	QUANT	2.50000E+001	AC &Voltage (mV rms)
AREA	QUANT	1.00000E-002	&Area (cm^2)
CONDIT	TWOPARAM	T	5.00000E+000	0.00000E+000	Conditionin&g	Time(s)	E(V)
DELAY	TWOPARAM	T	5.00000E+000	0.00000E+000	Init. De&lay	Time(s)	Stab.(mV/s)
SPEED	SELECTOR	0	&Optimize for:
ZGUESS	QUANT	1.00000E+005	E&stimated Z (ohms)
OCVCURVE	TABLE	19
	Pt	T	Vf	Vm	Ach	Over
	#	s	V vs. Ref.	V	V	bits
	0	0.258333	2.42517E-001	2.42517E-001	5.54608E-004	...........
	1	0.516667	2.42756E-001	2.55021E-001	5.46074E-004	...........
	2	0.775	2.44200E-001	2.65681E-001	5.46174E-004	...........
	3	1.03333	2.48187E-001	2.74719E-001	5.43608E-004	...........
	4	1.29167	2.55053E-001	2.82348E-001	5.46841E-004	...........
	5	1.55	2.63684E-001	2.88870E-001	5.48508E-004	...........
	6	1.80833	2.72537E-001	2.94409E-001	5.42408E-004	...........
	7	2.06667	2.80602E-001	2.99159E-001	5.42974E-004	...........
	8	2.325	2.87532E-001	3.03197E-001	5.42174E-004	...........
	9	2.58333	2.93374E-001	3.06677E-001	5.37808E-004	...........
	10	2.84167	2.98301E-001	3.09633E-001	5.40641E-004	...........
	11	3.1	3.02482E-001	3.12172E-001	5.44908E-004	...........
	12	3.35833	3.06050E-001	3.14321E-001	5.43941E-004	...........
	13	3.61667	3.09099E-001	3.16160E-001	5.38175E-004	...........
	14	3.875	3.11703E-001	3.17679E-001	5.47274E-004	...........
	15	4.13333	3.13921E-001	3.18965E-001	5.44108E-004	...........
	16	4.39167	3.15800E-001	3.19998E-001	5.50008E-004	...........
	17	4.65	3.17379E-001	3.20817E-001	5.52808E-004	...........
	18	4.90833	3.18691E-001	3.21470E-001	5.46208E-004	...........
EOC	QUANT	0.3186907	Open Circuit (V)
PSTATMODEL	IQUANT	4	Pstat Model
PSTATSECTION	LABEL	REF600-11020	Pstat Section
PSTATSERIALNO	LABEL	11020	Pstat Serial Number
CTRLMODE	IQUANT	1	Control Mode
IESTAB	IQUANT	0	I/E Stability
CASPEED	IQUANT	1	Control Amp Speed
CONVENTION	IQUANT	1	Current Convention
ICHRANGE	IQUANT	2	Ich Range
ICHRANGEMODE	TOGGLE	F	Ich Auto Range
ICHOFFSETENABLE	TOGGLE	T	Ich Offset Enable
ICHOFFSET	QUANT	0	Ich Offset (V)
ICHFILTER	IQUANT	3	Ich Filter
VCHRANGE	IQUANT	2	Vch Range
VCHRANGEMODE	TOGGLE	F	Vch Auto Range
VCHOFFSETENABLE	TOGGLE	T	Vch Offset Enable
VCHOFFSET	QUANT	0	Vch Offset (V)
VCHFILTER	IQUANT	3	Vch Filter
ACHRANGE	IQUANT	2	Ach Range
ACHOFFSETENABLE	TOGGLE	F	Ach Offset Enable
ACHOFFSET	QUANT	0	Ach Offset (V)
ACHFILTER	IQUANT	2	Ach Filter
IERANGELOWERLIMIT	IQUANT	1	I/E Range Lower Limit
IERANGEMODE	TOGGLE	F	I/E AutoRange
IERANGE	IQUANT	6	I/E Range
POSFEEDENABLE	TOGGLE	F	Positive Feedback IR Comp
POSFEEDRESISTANCE	QUANT	0	Positive Feedback Resistance (ohm)
ACHSELECT	IQUANT	0	Ach Select
CABLEID	IQUANT	14	Cable ID
DCCALDATE	LABEL	8/19/2019	DC Calibration Date
ACCALDATE	LABEL	8/19/2019	AC Calibration Date
THERMOSELECT	IQUANT	1	Thermo Select
FRAMEWORKVERSION	QUANT	6.33	Framework Version
INSTRUMENTVERSION	LABEL	3.50	Instrument Version
ZCURVE	TABLE
	Pt	Time	Freq	Zreal	Zimag	Zsig	Zmod	Zphz	Idc	Vdc	IERange
	#	s	Hz	ohm	ohm	V	ohm	°	A	V	#
	0	1	1000078	1177.151	-2600.391	1	2854.421	-65.64458	-6.565803E-006	0.3216093	8
	1	2	794390.6	1368.943	-3124.849	1	3411.552	-66.34259	1.197008E-005	0.3195313	8
	2	2	630984.4	1550.433	-3788.441	1	4093.425	-67.74299	-6.033575E-006	0.3210847	8
	3	2	501234.4	1858.484	-4560.388	1	4924.541	-67.82775	-2.036575E-006	0.3202474	8
	4	3	398109.4	2207.976	-5540.243	1	5964.013	-68.27103	2.333118E-007	0.3199432	8
	5	3	316265.6	2725.678	-6664.815	1	7200.631	-67.75714	-2.190612E-006	0.32045	8
	6	3	251203.1	3432.671	-8021.59	1	8725.201	-66.83251	-1.087795E-006	0.3207344	8
	7	4	199546.9	4401.818	-9567.94	1	10531.93	-65.29478	7.538393E-007	0.3206785	8
	8	5	158578.1	6028.633	-11187.3	1	12708.27	-61.68058	-1.356084E-006	0.3206794	8
	9	5	125953.1	7876.486	-13065.62	1	15256.13	-58.91673	-1.534945E-006	0.3186055	7
	10	5	100078.1	9827	-14804.82	1	17769.43	-56.42499	-3.559852E-007	0.3220289	7
	11	6	79453.13	12731.61	-16389.75	1	20753.74	-52.15981	-1.161592E-006	0.3224623	7
	12	6	63140.62	16372.02	-18330.32	1	24577.3	-48.22985	1.018338E-006	0.317854	7
	13	6	50203.12	20160.75	-18889.24	1	27627.15	-43.13504	6.023745E-007	0.3180352	7
	14	7	39890.62	24100.12	-19364.38	1	30915.93	-38.78178	1.305913E-006	0.3179309	7
	15	7	31640.63	27380.93	-17855.33	1	32688.35	-33.1087	-4.661415E-007	0.319186	7
	16	7	25171.88	30865.09	-16928.96	1	35202.89	-28.744	9.701073E-008	0.3184751	7
	17	8	20015.62	33804.76	-15363.32	1	37132.11	-24.44047	9.650908E-008	0.3184777	7
	18	8	15890.62	35262.54	-13571.96	1	37784.19	-21.05088	-1.157934E-006	0.3224555	7
	19	8	12609.37	38556.83	-11930.28	1	40360.39	-17.19315	9.274975E-008	0.3216363	6
	20	9	10078.13	38899.02	-10148.17	1	40200.98	-14.62171	-1.253264E-007	0.3193832	6
	21	9	8015.625	40273.3	-8898.937	1	41244.75	-12.46007	1.718432E-007	0.3164067	6
	22	9	6328.125	41290.16	-7808.936	1	42022.1	-10.70948	-6.953004E-008	0.3235187	6
	23	10	5015.625	42063.21	-6811.933	1	42611.22	-9.198912	9.417047E-008	0.3216372	6
	24	10	3984.375	41602.04	-5697.281	1	41990.34	-7.797986	1.079491E-007	0.3166992	6
	25	10	3170.956	41723	-5218.756	1	42048.11	-7.129588	-2.683095E-007	0.3232253	6
	26	11	2527.573	42479.96	-4868.61	1	42758.05	-6.538116	-1.510623E-007	0.3241184	6
	27	11	1976.103	42716.71	-4486.199	1	42951.64	-5.995346	2.482393E-007	0.3169025	6
	28	11	1577.524	42662.87	-4043.703	1	42854.08	-5.414475	-2.583402E-007	0.3240191	6
	29	11	1265.625	42143.49	-4298.629	1	42362.15	-5.824019	-2.661813E-007	0.3232156	6
	30	12	998.264	42741.37	-4446.523	1	42972.04	-5.9393	2.492237E-007	0.316911	6
	31	12	796.875	42931.43	-4799.933	1	43198.93	-6.379439	2.566224E-007	0.3175496	6
	32	12	627.7902	42566.26	-5299.512	1	42894.88	-7.096824	-2.184234E-007	0.3243291	6
	33	13	505.5147	43252.2	-6013	1	43668.17	-7.914634	1.63691E-007	0.3204758	6
	34	13	397.9953	42815.98	-6923.737	1	43372.18	-9.185737	1.147567E-008	0.3201887	6
	35	13	315.5048	43029.27	-8119.037	1	43788.55	-10.68531	1.091084E-008	0.3201733	6
	36	14	252.4038	43265.8	-9579.23	1	44313.55	-12.48414	1.104504E-008	0.3201832	6
	37	14	198.6229	43669.11	-11477.85	1	45152.32	-14.72636	1.217018E-008	0.3201723	6
	38	14	158.3615	44275.5	-13696.8	1	46345.68	-17.18966	1.165937E-008	0.3201821	6
	39	15	125.558	45071.32	-16417.59	1	47968.34	-20.01456	1.10784E-008	0.3201726	6
	40	15	100.4464	46148.6	-19430.94	1	50072.5	-22.8336	1.06617E-008	0.3201724	6
	41	15	79.00281	47823.47	-23521.14	1	53294.73	-26.18946	1.037223E-008	0.3201634	6
	42	16	63.3446	48526.45	-27920.46	1	55985.43	-29.91465	1.16053E-008	0.3201694	6
	43	16	49.86702	51414.65	-33039.78	1	61115.41	-32.72537	1.084365E-008	0.3201794	6
	44	16	39.72458	55155.48	-38921.81	1	67505.81	-35.20964	1.054284E-008	0.3201756	6
	45	17	31.6723	59326.79	-45722.71	1	74901.49	-37.62117	1.117916E-008	0.3201748	6
	46	17	24.93351	64826.49	-53000.92	1	83735.13	-39.26879	1.10935E-008	0.3201732	6
	47	17	19.86229	71105.94	-61163.05	1	93792.18	-40.70107	1.387643E-008	0.3201727	6
	48	18	15.83615	78648.94	-68486.5	1	104288.3	-41.04893	7.1481E-009	0.3201717	5
	49	18	12.40079	87947.55	-79887.24	1	118813.9	-42.25047	1.075904E-008	0.3201643	5
	50	18	9.93114	96170.5	-89308.23	1	131243	-42.88115	9.90324E-009	0.3201614	5
	51	19	7.944915	105878.8	-100334.4	1	145867.4	-43.45988	8.590853E-009	0.3201778	5
	52	20	6.317385	117176.6	-113140.3	1	162883.6	-43.99601	9.21786E-009	0.3201925	5
	53	20	5.008013	129641.6	-128122.5	1	182269.9	-44.66233	9.799701E-009	0.3201762	5
	54	21	3.945707	143640.6	-145633.7	1	204552.7	-45.39477	1.062526E-008	0.3201683	5
	55	23	3.158693	157927.3	-164994.4	1	228394.8	-46.2537	1.070242E-008	0.3201817	5
	56	24	2.504006	175521	-188228.5	1	257366.6	-47.0008	1.007302E-008	0.3201829	5
	57	26	1.998082	194271.7	-214536.6	1	289426.1	-47.83788	1.010118E-008	0.3201727	5
	58	27	1.584686	217478.1	-245152.5	1	327714	-48.42333	1.022558E-008	0.3202152	5
	59	29	1.266892	243221.1	-280971.2	1	371619.9	-49.11908	9.974657E-009	0.3202141	5
	60	32	0.999041	274183.5	-324391.6	1	424742.9	-49.79471	9.681425E-009	0.3201938	5
