EXPLAIN
TAG	EISPOT
TITLE	LABEL	Potentiostatic EIS	Test &Identifier
DATE	LABEL	6/20/2000	Date
TIME	LABEL	8:58:45	Time
NOTES	NOTES	2	&Notes...
	
	
PSTAT	PSTAT	REF600-11020	Potentiostat
VDC	POTEN	0.00000E+000	T	DC &Voltage (V)
FREQINIT	QUANT	1.00000E+006	Initial Fre&q. (Hz)
FREQFINAL	QUANT	1.00000E+000	Final Fre&q. (Hz)
PTSPERDEC	QUANT	1.00000E+001	Points/&decade
VAC	QUANT	2.50000E+001	AC &Voltage (mV rms)
AREA	QUANT	1.00000E-002	&Area (cm^2)
CONDIT	TWOPARAM	T	5.00000E+000	0.00000E+000	Conditionin&g	Time(s)	E(V)
DELAY	TWOPARAM	T	5.00000E+000	0.00000E+000	Init. De&lay	Time(s)	Stab.(mV/s)
SPEED	SELECTOR	0	&Optimize for:
ZGUESS	QUANT	1.00000E+005	E&stimated Z (ohms)
OCVCURVE	TABLE	19
	Pt	T	Vf	Vm	Ach	Over
	#	s	V vs. Ref.	V	V	bits
	0	0.258333	1.92481E-003	1.92481E-003	5.41433E-004	...........
	1	0.516667	1.91951E-003	1.64694E-003	5.37566E-004	...........
	2	0.775	1.88721E-003	1.39918E-003	5.32366E-004	...........
	3	1.03333	1.79722E-003	1.18179E-003	5.38333E-004	...........
	4	1.29167	1.63887E-003	9.22200E-004	5.41833E-004	...........
	5	1.55	1.43029E-003	7.15716E-004	5.37933E-004	...........
	6	1.80833	1.19854E-003	4.86998E-004	5.38833E-004	...........
	7	2.06667	9.62642E-004	2.45594E-004	5.38333E-004	...........
	8	2.325	7.32189E-004	1.58034E-004	5.41299E-004	...........
	9	2.58333	5.17902E-004	8.80196E-005	5.41066E-004	...........
	10	2.84167	3.35827E-004	-2.72007E-005	5.38133E-004	...........
	11	3.1	1.92838E-004	-1.36663E-004	5.40699E-004	...........
	12	3.35833	7.77637E-005	-2.42519E-004	5.37266E-004	...........
	13	3.61667	-2.60455E-005	-3.30095E-004	5.31666E-004	...........
	14	3.875	-1.27271E-004	-4.29190E-004	5.38766E-004	...........
	15	4.13333	-2.26971E-004	-5.22389E-004	5.34500E-004	...........
	16	4.39167	-3.24563E-004	-6.15523E-004	5.33800E-004	...........
	17	4.65	-4.20286E-004	-7.09129E-004	5.33233E-004	...........
	18	4.90833	-5.14338E-004	-7.81412E-004	5.35666E-004	...........
EOC	QUANT	-0.0005143	Open Circuit (V)
PSTATMODEL	IQUANT	4	Pstat Model
PSTATSECTION	LABEL	REF600-11020	Pstat Section
PSTATSERIALNO	LABEL	11020	Pstat Serial Number
CTRLMODE	IQUANT	1	Control Mode
IESTAB	IQUANT	0	I/E Stability
CASPEED	IQUANT	1	Control Amp Speed
CONVENTION	IQUANT	1	Current Convention
ICHRANGE	IQUANT	2	Ich Range
ICHRANGEMODE	TOGGLE	F	Ich Auto Range
ICHOFFSETENABLE	TOGGLE	T	Ich Offset Enable
ICHOFFSET	QUANT	0	Ich Offset (V)
ICHFILTER	IQUANT	3	Ich Filter
VCHRANGE	IQUANT	2	Vch Range
VCHRANGEMODE	TOGGLE	F	Vch Auto Range
VCHOFFSETENABLE	TOGGLE	T	Vch Offset Enable
VCHOFFSET	QUANT	0	Vch Offset (V)
VCHFILTER	IQUANT	3	Vch Filter
ACHRANGE	IQUANT	2	Ach Range
ACHOFFSETENABLE	TOGGLE	F	Ach Offset Enable
ACHOFFSET	QUANT	0	Ach Offset (V)
ACHFILTER	IQUANT	3	Ach Filter
IERANGELOWERLIMIT	IQUANT	1	I/E Range Lower Limit
IERANGEMODE	TOGGLE	F	I/E AutoRange
IERANGE	IQUANT	3	I/E Range
POSFEEDENABLE	TOGGLE	F	Positive Feedback IR Comp
POSFEEDRESISTANCE	QUANT	0	Positive Feedback Resistance (ohm)
ACHSELECT	IQUANT	0	Ach Select
CABLEID	IQUANT	14	Cable ID
DCCALDATE	LABEL	8/19/2019	DC Calibration Date
ACCALDATE	LABEL	8/19/2019	AC Calibration Date
THERMOSELECT	IQUANT	1	Thermo Select
FRAMEWORKVERSION	QUANT	6.33	Framework Version
INSTRUMENTVERSION	LABEL	3.50	Instrument Version
ZCURVE	TABLE
	Pt	Time	Freq	Zreal	Zimag	Zsig	Zmod	Zphz	Idc	Vdc	IERange
	#	s	Hz	ohm	ohm	V	ohm	°	A	V	#
	0	2	1000078	1584.448	-474.2908	1	1653.912	-16.66462	1.850817E-006	0.001242	8
	1	2	794390.6	1644.252	-413.8873	1	1695.543	-14.12883	-2.512672E-006	0.001892	8
	2	2	630984.4	1689.588	-361.765	1	1727.883	-12.08537	-6.901483E-006	0.0022843	8
	3	3	501234.4	1726.44	-309.7633	1	1754.009	-10.17196	7.687655E-006	-0.0001238	8
	4	3	398109.4	1752.895	-274.5715	1	1774.269	-8.902408	5.706886E-006	-0.0001159	8
	5	3	316265.6	1775.071	-244.457	1	1791.825	-7.841263	-3.026172E-006	0.0009709	8
	6	4	251203.1	1792.743	-223.9265	1	1806.674	-7.119781	-1.342885E-006	0.0014854	8
	7	4	199546.9	1810.196	-207.0695	1	1822.001	-6.525738	-3.030038E-007	0.0007942	8
	8	4	158578.1	1828.652	-198.3747	1	1839.38	-6.191316	-7.902977E-007	0.0007706	8
	9	5	125953.1	1858.086	-167.1684	1	1865.591	-5.140949	1.023872E-006	0.0021876	7
	10	5	100078.1	1869.737	-167.5707	1	1877.231	-5.121314	-2.560861E-007	0.0002953	7
	11	5	79453.13	1887.365	-178.7795	1	1895.814	-5.411162	9.213007E-008	-0.0001348	7
	12	6	63140.62	1904.649	-193.6395	1	1914.467	-5.805131	8.531354E-007	0.0003875	7
	13	6	50203.12	1924.576	-211.7504	1	1936.19	-6.278682	-5.160794E-007	0.0023505	7
	14	6	39890.62	1947.698	-234.1195	1	1961.718	-6.85425	9.043502E-007	-0.0002253	7
	15	7	31640.63	1972.158	-259.2278	1	1989.122	-7.488242	-7.531397E-007	0.002433	7
	16	7	25171.88	1999.673	-289.95	1	2020.585	-8.250317	9.262398E-008	-0.0001349	7
	17	7	20015.62	2030.421	-324.9927	1	2056.266	-9.093726	3.586821E-007	0.0013981	7
	18	7	15890.62	2064.349	-367.4072	1	2096.789	-10.09168	8.196472E-008	0.0017931	7
	19	8	12609.37	2103.7	-416.5091	1	2144.536	-11.19909	-9.310218E-007	0.0023898	7
	20	8	10078.13	2143.773	-473.4532	1	2195.432	-12.45389	8.109281E-008	0.0017912	7
	21	8	8015.625	2193.932	-538.0952	1	2258.957	-13.78063	8.57111E-007	0.0003844	7
	22	9	6328.125	2248.447	-616.4308	1	2331.416	-15.33142	6.401596E-007	-0.0004678	7
	23	9	5015.625	2307.777	-706.9321	1	2413.625	-17.03119	6.422272E-007	-0.0004638	7
	24	9	3984.375	2372.351	-811.8689	1	2507.425	-18.89203	8.5723E-007	0.0003891	7
	25	10	3170.956	2440.643	-933.3007	1	2613.003	-20.92683	-2.324998E-007	0.0021411	7
	26	10	2527.573	2513.946	-1077.734	1	2735.221	-23.20493	-2.325512E-007	0.0021379	7
	27	10	1976.103	2598.981	-1266.043	1	2890.946	-25.97213	5.362535E-007	0.0011241	7
	28	11	1577.524	2685.243	-1481.274	1	3066.709	-28.88266	-6.198619E-007	0.0008656	7
	29	11	1265.625	2766.822	-1732.11	1	3264.278	-32.04774	-1.044579E-006	0.0019373	7
	30	11	998.264	2865.264	-2068.589	1	3533.949	-35.82756	-8.989514E-007	0.0014504	7
	31	12	796.875	2970.054	-2465.341	1	3859.939	-39.69492	3.584574E-007	0.0013854	7
	32	12	627.7902	3093.448	-2986.964	1	4300.16	-43.9967	7.089101E-007	0.0007924	7
	33	12	505.5147	3225.266	-3574.619	1	4814.586	-47.94107	9.509186E-008	-0.0001467	7
	34	13	397.9953	3401.843	-4370.411	1	5538.323	-52.1035	2.994655E-009	0.0010233	7
	35	13	315.5048	3611.64	-5330.059	1	6438.437	-55.87849	3.868623E-010	0.0010217	7
	36	13	252.4038	3861.725	-6460.042	1	7526.292	-59.12959	-1.545745E-010	0.0010175	7
	37	14	198.6229	4203.119	-7949.894	1	8992.609	-62.13454	-7.716639E-010	0.0010178	7
	38	14	158.3615	4616.079	-9673.38	1	10718.32	-64.48981	7.972663E-010	0.000955	6
	39	14	125.558	5150.693	-11822.81	1	12896.06	-66.4593	1.818955E-010	0.000961	6
	40	15	100.4464	5819.376	-14324.58	1	15461.53	-67.8905	-2.367289E-010	0.000955	6
	41	15	79.00281	6722.366	-17611.75	1	18851.1	-69.10826	-5.444771E-010	0.0009507	6
	42	15	63.3446	7688.088	-21119.96	1	22475.75	-69.99748	5.517423E-010	0.0009523	6
	43	16	49.86702	9204.074	-25838.84	1	27429.2	-70.39355	2.485489E-010	0.0009596	6
	44	16	39.72458	10972.53	-31343.34	1	33208.45	-70.7061	-1.145838E-010	0.0009627	6
	45	16	31.6723	13200.21	-37787.36	1	40026.62	-70.74422	3.675358E-010	0.000956	6
	46	17	24.93351	16131.94	-45799.62	1	48557.64	-70.59628	7.395494E-010	0.0009557	6
	47	17	19.86229	19583.31	-54880.45	1	58269.8	-70.36178	1.715136E-009	0.000963	6
	48	17	15.83615	24141.77	-66151.7	1	70419.27	-69.95067	-2.690888E-009	0.0009579	6
	49	17	12.40079	29581.08	-79474.52	1	84801.17	-69.58431	3.185874E-010	0.000959	6
	50	18	9.93114	35923.04	-94188.5	1	100806.4	-69.12339	1.527316E-010	0.0009553	6
	51	18	7.944915	43600.53	-111244.4	1	119483.5	-68.59806	9.673532E-010	0.0009518	5
	52	19	6.317385	53227.24	-131966.2	1	142296.2	-68.03381	6.372521E-010	0.000954	5
	53	20	5.008013	65113.41	-156821.4	1	169801.9	-67.45141	4.199888E-010	0.0009547	5
	54	21	3.945707	79132.5	-186860.5	1	202925.6	-67.0481	5.108698E-010	0.0009636	5
	55	22	3.158693	95518.9	-219635.1	1	239506.6	-66.49586	3.303919E-011	0.0009527	5
	56	24	2.504006	115494.8	-259592.1	1	284125.2	-66.0153	1.370523E-010	0.0009452	5
	57	25	1.998082	138662.6	-305198.1	1	335221.1	-65.56598	3.409035E-010	0.0009891	5
	58	27	1.584686	166724.6	-359246.7	1	396049.6	-65.10423	1.959526E-010	0.0009536	5
	59	29	1.266892	200736.8	-420917.8	1	466333.7	-64.5034	1.372633E-010	0.0009126	5
	60	31	0.999041	243470.8	-498012.8	1	554341.8	-63.9467	1.032062E-010	0.000902	5
