EXPLAIN
TAG	EISPOT
TITLE	LABEL	Potentiostatic EIS	Test &Identifier
DATE	LABEL	9/24/2019	Date
TIME	LABEL	10:44:58	Time
NOTES	NOTES	1	&Notes...
	
PSTAT	PSTAT	REF600-11020	Potentiostat
VDC	POTEN	0.00000E+000	T	DC &Voltage (V)
FREQINIT	QUANT	1.00000E+006	Initial Fre&q. (Hz)
FREQFINAL	QUANT	1.00000E+000	Final Fre&q. (Hz)
PTSPERDEC	QUANT	1.00000E+001	Points/&decade
VAC	QUANT	2.50000E+001	AC &Voltage (mV rms)
AREA	QUANT	1.00000E-002	&Area (cm^2)
CONDIT	TWOPARAM	T	5.00000E+000	0.00000E+000	Conditionin&g	Time(s)	E(V)
DELAY	TWOPARAM	T	5.00000E+000	0.00000E+000	Init. De&lay	Time(s)	Stab.(mV/s)
SPEED	SELECTOR	1	&Optimize for:
ZGUESS	QUANT	1.00000E+004	E&stimated Z (ohms)
OCVCURVE	TABLE	19
	Pt	T	Vf	Vm	Ach	Over
	#	s	V vs. Ref.	V	V	bits
	0	0.258333	8.65879E-004	8.65879E-004	5.92099E-004	...........
	1	0.516667	8.57133E-004	4.08082E-004	5.93165E-004	...........
	2	0.775	8.03705E-004	-1.14863E-005	5.92865E-004	...........
	3	1.03333	6.53496E-004	-4.12875E-004	5.93199E-004	...........
	4	1.29167	3.86905E-004	-7.83442E-004	5.89099E-004	...........
	5	1.55	3.58578E-005	-1.14364E-003	5.93599E-004	...........
	6	1.80833	-3.49197E-004	-1.48379E-003	5.88199E-004	...........
	7	2.06667	-7.32376E-004	-1.80651E-003	5.95099E-004	...........
	8	2.325	-1.09843E-003	-2.12579E-003	5.93665E-004	...........
	9	2.58333	-1.44516E-003	-2.42811E-003	5.92565E-004	...........
	10	2.84167	-1.77535E-003	-2.72102E-003	5.93865E-004	...........
	11	3.1	-2.09207E-003	-3.00793E-003	5.92065E-004	...........
	12	3.35833	-2.39732E-003	-3.28004E-003	5.93865E-004	...........
	13	3.61667	-2.69230E-003	-3.55139E-003	5.91032E-004	...........
	14	3.875	-2.97759E-003	-3.79528E-003	5.90899E-004	...........
	15	4.13333	-3.25316E-003	-4.05486E-003	6.00099E-004	...........
	16	4.39167	-3.51951E-003	-4.30841E-003	5.97165E-004	...........
	17	4.65	-3.77803E-003	-4.51449E-003	5.93999E-004	...........
	18	4.90833	-4.02864E-003	-4.74881E-003	5.93032E-004	...........
EOC	QUANT	-0.0040286	Open Circuit (V)
PSTATMODEL	IQUANT	4	Pstat Model
PSTATSECTION	LABEL	REF600-11020	Pstat Section
PSTATSERIALNO	LABEL	11020	Pstat Serial Number
CTRLMODE	IQUANT	1	Control Mode
IESTAB	IQUANT	0	I/E Stability
CASPEED	IQUANT	1	Control Amp Speed
CONVENTION	IQUANT	1	Current Convention
ICHRANGE	IQUANT	2	Ich Range
ICHRANGEMODE	TOGGLE	F	Ich Auto Range
ICHOFFSETENABLE	TOGGLE	T	Ich Offset Enable
ICHOFFSET	QUANT	0	Ich Offset (V)
ICHFILTER	IQUANT	3	Ich Filter
VCHRANGE	IQUANT	2	Vch Range
VCHRANGEMODE	TOGGLE	F	Vch Auto Range
VCHOFFSETENABLE	TOGGLE	T	Vch Offset Enable
VCHOFFSET	QUANT	0	Vch Offset (V)
VCHFILTER	IQUANT	3	Vch Filter
ACHRANGE	IQUANT	2	Ach Range
ACHOFFSETENABLE	TOGGLE	F	Ach Offset Enable
ACHOFFSET	QUANT	0	Ach Offset (V)
ACHFILTER	IQUANT	3	Ach Filter
IERANGELOWERLIMIT	IQUANT	1	I/E Range Lower Limit
IERANGEMODE	TOGGLE	F	I/E AutoRange
IERANGE	IQUANT	5	I/E Range
POSFEEDENABLE	TOGGLE	F	Positive Feedback IR Comp
POSFEEDRESISTANCE	QUANT	0	Positive Feedback Resistance (ohm)
ACHSELECT	IQUANT	0	Ach Select
CABLEID	IQUANT	14	Cable ID
DCCALDATE	LABEL	8/19/2019	DC Calibration Date
ACCALDATE	LABEL	8/19/2019	AC Calibration Date
THERMOSELECT	IQUANT	1	Thermo Select
FRAMEWORKVERSION	QUANT	6.33	Framework Version
INSTRUMENTVERSION	LABEL	3.50	Instrument Version
ZCURVE	TABLE
	Pt	Time	Freq	Zreal	Zimag	Zsig	Zmod	Zphz	Idc	Vdc	IERange
	#	s	Hz	ohm	ohm	V	ohm	°	A	V	#
	0	1	1000078	2316.007	-1844.976	1	2961.051	-38.5415	-9.438863E-006	-0.0002485	8
	1	3	794390.6	2667.679	-1804.309	1	3220.566	-34.07281	2.421618E-006	-0.0017702	8
	2	4	630984.4	3018.935	-1721.994	1	3475.519	-29.70034	-1.622843E-007	-0.002417	8
	3	6	501234.4	3330.022	-1590.345	1	3690.291	-25.5281	-7.690099E-007	-0.0020752	8
	4	7	398109.4	3607.812	-1430.415	1	3881.03	-21.62719	-3.317606E-006	-0.0017135	8
	5	8	316265.6	3821.275	-1279.282	1	4029.727	-18.50946	-8.585554E-007	-0.0022108	8
	6	10	251203.1	3966.716	-1099.719	1	4116.335	-15.49533	2.793116E-006	-0.0030081	8
	7	11	199546.9	4108.85	-931.9966	1	4213.225	-12.77996	-8.834082E-007	-0.0021278	8
	8	13	158578.1	4189.374	-822.7744	1	4269.404	-11.11122	-3.104826E-006	-0.0017719	8
	9	14	125953.1	4297.02	-654.3101	1	4346.551	-8.657959	4.920699E-007	-0.0037016	7
	10	15	100078.1	4340.556	-578.7034	1	4378.964	-7.594158	-7.414062E-008	-0.0023648	7
	11	17	79453.13	4385.792	-523.0693	1	4416.874	-6.801227	7.38921E-008	-0.0026103	7
	12	18	63140.62	4426.285	-481.0443	1	4452.348	-6.202506	-4.590237E-008	-0.0023308	7
	13	19	50203.12	4462.284	-452.6215	1	4485.181	-5.791856	-5.420257E-009	-0.0025391	7
	14	21	39890.62	4496.168	-439.0035	1	4517.55	-5.576653	-1.813765E-008	-0.0025063	7
	15	22	31640.63	4530.981	-435.512	1	4551.863	-5.490329	-4.617038E-009	-0.0024638	7
	16	23	25171.88	4566.907	-444.4643	1	4588.484	-5.558681	1.801729E-008	-0.0025633	7
	17	25	20015.62	4602.786	-463.192	1	4626.034	-5.746499	-6.907992E-009	-0.0024405	7
	18	26	15890.62	4643.2	-493.7576	1	4669.379	-6.070019	-3.545046E-009	-0.0025415	7
	19	27	12609.37	4683.347	-533.5323	1	4713.64	-6.499182	4.007966E-008	-0.0025375	7
	20	29	10078.13	4725.635	-589.3362	1	4762.241	-7.108683	-1.391834E-008	-0.0023496	7
	21	30	8015.625	4773.537	-660.6285	1	4819.033	-7.879339	1.377227E-007	-0.002693	7
	22	31	6328.125	4822.376	-751.1862	1	4880.532	-8.853865	1.374992E-007	-0.0026928	7
	23	33	5015.625	4874.622	-864.9893	1	4950.772	-10.06225	8.028982E-008	-0.0025314	7
	24	34	3984.375	4928.18	-1005.083	1	5029.627	-11.52716	-3.385696E-008	-0.0024796	7
	25	36	3170.956	4989.503	-1176.353	1	5126.3	-13.26611	7.702688E-008	-0.0026284	7
	26	37	2527.573	5059.807	-1389.154	1	5247.037	-15.35211	1.99316E-008	-0.0025708	7
	27	38	1976.103	5145.516	-1675.896	1	5411.559	-18.04045	8.580623E-008	-0.0026717	7
	28	40	1577.524	5235.844	-1998.128	1	5604.157	-20.8881	-3.671204E-008	-0.0024822	7
	29	41	1265.625	5345.649	-2382.235	1	5852.437	-24.01967	8.424662E-008	-0.002674	7
	30	42	998.264	5471.903	-2882.977	1	6184.923	-27.78336	7.733959E-008	-0.00263	7
	31	44	796.875	5614.914	-3471.11	1	6601.202	-31.72414	8.220024E-008	-0.0025346	7
	32	45	627.7902	5807.278	-4223.519	1	7180.709	-36.02766	1.95227E-008	-0.0025758	7
	33	46	505.5147	6008.715	-5062.076	1	7856.798	-40.11266	-3.655987E-009	-0.0025586	7
	34	48	397.9953	6280.27	-6184.897	1	8814.462	-44.56163	7.225478E-009	-0.0024837	7
	35	49	315.5048	6597.798	-7525.994	1	10008.57	-48.75999	8.032872E-010	-0.002541	6
	36	50	252.4038	6967.593	-9101.475	1	11462.29	-52.5643	1.5915E-009	-0.002547	6
	37	52	198.6229	7454.404	-11173.83	1	13432.15	-56.29154	1.376661E-009	-0.0025424	6
	38	53	158.3615	8027.904	-13574.79	1	15770.93	-59.40064	9.987015E-010	-0.002542	6
	39	54	125.558	8781.64	-16582.96	1	18764.64	-62.09619	1.486419E-009	-0.0025407	6
	40	56	100.4464	9718.65	-20085.3	1	22313.04	-64.17911	1.645633E-009	-0.0025413	6
	41	57	79.00281	10967.16	-24751.28	1	27072.21	-66.10212	1.096834E-009	-0.0025424	6
	42	58	63.3446	12727.7	-29659.08	1	32274.69	-66.77422	1.807182E-009	-0.0025486	6
	43	60	49.86702	14582.17	-36710.08	1	39500.25	-68.33578	2.131991E-009	-0.0025518	6
	44	61	39.72458	17203.03	-44021.57	1	47263.55	-68.65512	1.912234E-009	-0.002543	6
	45	63	31.6723	20415.88	-53116.81	1	56905.21	-68.97533	2.306848E-009	-0.0025463	6
	46	64	24.93351	25053.68	-64263.22	1	68974.26	-68.70116	1.277741E-009	-0.0025481	6
	47	65	19.86229	30562.12	-76854.91	1	82708.66	-68.31426	1.07113E-009	-0.0025471	6
	48	67	15.83615	36390.52	-91295.38	1	98280.8	-68.26767	1.801186E-010	-0.0025467	6
	49	68	12.40079	46547.46	-109025.2	1	118546	-66.88033	2.289245E-009	-0.0025493	5
	50	69	9.93114	56053.36	-129353.3	1	140976.1	-66.57121	1.13984E-009	-0.0025365	5
	51	71	7.944915	67767.34	-151844.9	1	166280.7	-65.94911	5.029197E-010	-0.0025428	5
	52	73	6.317385	83557.41	-178305.8	1	196913.2	-64.89133	3.092526E-010	-0.0025292	5
	53	75	5.008013	102006.8	-209044.8	1	232605.1	-63.9892	6.850052E-010	-0.0025527	5
	54	77	3.945707	124379.5	-245292.6	1	275025	-63.112	9.090566E-010	-0.0025375	5
	55	80	3.158693	149189.5	-284579.3	1	321314.3	-62.33441	2.670285E-010	-0.0025523	5
	56	83	2.504006	179233.3	-330377.6	1	375864.3	-61.51971	9.354225E-010	-0.0025426	5
	57	86	1.998082	213362.1	-381428.1	1	437047.8	-60.77835	6.414999E-010	-0.0025081	5
	58	89	1.584686	253581.7	-439795.6	1	507665.1	-60.03268	5.300116E-010	-0.0025848	5
	59	93	1.266892	297269.2	-506387.1	1	587194.1	-59.58538	6.171701E-010	-0.0025309	5
	60	97	0.999041	352509	-587294.1	1	684964.9	-59.02673	2.204087E-010	-0.0025755	5
