EXPLAIN
TAG	EISPOT
TITLE	LABEL	Potentiostatic IDE	Test &Identifier
DATE	LABEL	9/4/2019	Date
TIME	LABEL	12:44:18	Time
NOTES	NOTES	1	&Notes...
	
PSTAT	PSTAT	REF600-11020	Potentiostat
VDC	POTEN	0.00000E+000	T	DC &Voltage (V)
FREQINIT	QUANT	1.00000E+006	Initial Fre&q. (Hz)
FREQFINAL	QUANT	1.00000E+000	Final Fre&q. (Hz)
PTSPERDEC	QUANT	1.00000E+001	Points/&decade
VAC	QUANT	2.50000E+001	AC &Voltage (mV rms)
AREA	QUANT	1.00000E-002	&Area (cm^2)
CONDIT	TWOPARAM	T	5.00000E+000	0.00000E+000	Conditionin&g	Time(s)	E(V)
DELAY	TWOPARAM	T	5.00000E+000	0.00000E+000	Init. De&lay	Time(s)	Stab.(mV/s)
SPEED	SELECTOR	1	&Optimize for:
ZGUESS	QUANT	1.00000E+007	E&stimated Z (ohms)
OCVCURVE	TABLE	19
	Pt	T	Vf	Vm	Ach	Over
	#	s	V vs. Ref.	V	V	bits
	0	0.258333	5.87949E-002	5.87949E-002	6.14832E-004	...........
	1	0.516667	5.88003E-002	5.90765E-002	6.20365E-004	...........
	2	0.775	5.88348E-002	5.94232E-002	6.23898E-004	...........
	3	1.03333	5.89383E-002	5.97887E-002	6.16565E-004	...........
	4	1.29167	5.91363E-002	6.01601E-002	6.22698E-004	...........
	5	1.55	5.94201E-002	6.05290E-002	6.20732E-004	...........
	6	1.80833	5.97596E-002	6.09318E-002	6.23498E-004	...........
	7	2.06667	6.01282E-002	6.13421E-002	6.24465E-004	...........
	8	2.325	6.05117E-002	6.17088E-002	6.24398E-004	...........
	9	2.58333	6.09021E-002	6.20854E-002	6.30065E-004	...........
	10	2.84167	6.12909E-002	6.24022E-002	6.26498E-004	...........
	11	3.1	6.16691E-002	6.27426E-002	6.30631E-004	...........
	12	3.35833	6.20327E-002	6.31559E-002	6.26631E-004	...........
	13	3.61667	6.23874E-002	6.34588E-002	6.25165E-004	...........
	14	3.875	6.27392E-002	6.37380E-002	6.21165E-004	...........
	15	4.13333	6.30826E-002	6.40235E-002	6.23832E-004	...........
	16	4.39167	6.34076E-002	6.43141E-002	6.21765E-004	...........
	17	4.65	6.37126E-002	6.45921E-002	6.19765E-004	...........
	18	4.90833	6.40041E-002	6.48661E-002	6.22565E-004	...........
EOC	QUANT	0.0640041	Open Circuit (V)
PSTATMODEL	IQUANT	4	Pstat Model
PSTATSECTION	LABEL	REF600-11020	Pstat Section
PSTATSERIALNO	LABEL	11020	Pstat Serial Number
CTRLMODE	IQUANT	1	Control Mode
IESTAB	IQUANT	0	I/E Stability
CASPEED	IQUANT	1	Control Amp Speed
CONVENTION	IQUANT	1	Current Convention
ICHRANGE	IQUANT	2	Ich Range
ICHRANGEMODE	TOGGLE	F	Ich Auto Range
ICHOFFSETENABLE	TOGGLE	T	Ich Offset Enable
ICHOFFSET	QUANT	0	Ich Offset (V)
ICHFILTER	IQUANT	3	Ich Filter
VCHRANGE	IQUANT	2	Vch Range
VCHRANGEMODE	TOGGLE	F	Vch Auto Range
VCHOFFSETENABLE	TOGGLE	T	Vch Offset Enable
VCHOFFSET	QUANT	0	Vch Offset (V)
VCHFILTER	IQUANT	3	Vch Filter
ACHRANGE	IQUANT	2	Ach Range
ACHOFFSETENABLE	TOGGLE	F	Ach Offset Enable
ACHOFFSET	QUANT	0	Ach Offset (V)
ACHFILTER	IQUANT	3	Ach Filter
IERANGELOWERLIMIT	IQUANT	1	I/E Range Lower Limit
IERANGEMODE	TOGGLE	F	I/E AutoRange
IERANGE	IQUANT	4	I/E Range
POSFEEDENABLE	TOGGLE	F	Positive Feedback IR Comp
POSFEEDRESISTANCE	QUANT	0	Positive Feedback Resistance (ohm)
ACHSELECT	IQUANT	0	Ach Select
CABLEID	IQUANT	14	Cable ID
DCCALDATE	LABEL	8/19/2019	DC Calibration Date
ACCALDATE	LABEL	8/19/2019	AC Calibration Date
THERMOSELECT	IQUANT	1	Thermo Select
FRAMEWORKVERSION	QUANT	6.33	Framework Version
INSTRUMENTVERSION	LABEL	3.50	Instrument Version
ZCURVE	TABLE
	Pt	Time	Freq	Zreal	Zimag	Zsig	Zmod	Zphz	Idc	Vdc	IERange
	#	s	Hz	ohm	ohm	V	ohm	°	A	V	#
	0	2	1000078	2316.251	-2071.822	1	3107.646	-41.81173	1.052952E-005	0.0652186	8
	1	3	794390.6	2746.483	-2015.571	1	3406.713	-36.27395	1.090494E-005	0.0650196	8
	2	5	630984.4	3126.074	-1899.576	1	3657.968	-31.28519	1.064065E-005	0.0651352	8
	3	6	501234.4	3436.392	-1750.75	1	3856.672	-26.99763	1.143011E-005	0.0647845	8
	4	8	398109.4	3721.002	-1572.007	1	4039.438	-22.90254	8.677976E-006	0.0652947	8
	5	10	316265.6	3920.792	-1385.682	1	4158.453	-19.46438	8.841701E-006	0.0653551	8
	6	11	251203.1	4096.217	-1245.948	1	4281.516	-16.91822	8.84178E-006	0.0655173	8
	7	13	199546.9	4234.417	-1158.955	1	4390.155	-15.30693	8.782639E-006	0.0651684	8
	8	14	158578.1	4328.059	-1042.094	1	4451.747	-13.53779	1.084025E-005	0.0649432	8
	9	16	125953.1	4414.946	-974.069	1	4521.124	-12.44184	1.048252E-006	0.0643682	7
	10	17	100078.1	4490.328	-930.3929	1	4585.703	-11.70601	9.691063E-007	0.0652432	7
	11	19	79453.13	4559.129	-927.3531	1	4652.488	-11.49744	8.870936E-007	0.0653207	7
	12	20	63140.62	4639.471	-950.162	1	4735.768	-11.57411	8.838478E-007	0.0654084	7
	13	21	50203.12	4711.943	-999.293	1	4816.741	-11.97369	8.937272E-007	0.0653021	7
	14	23	39890.62	4798.604	-1074.314	1	4917.392	-12.61932	8.864293E-007	0.0653082	7
	15	24	31640.63	4890.521	-1177.973	1	5030.389	-13.54279	8.875045E-007	0.0653152	7
	16	25	25171.88	4985.257	-1312.959	1	5155.254	-14.75484	8.804176E-007	0.065349	7
	17	27	20015.62	5096.306	-1485.925	1	5308.513	-16.25505	9.398742E-007	0.0652399	7
	18	28	15890.62	5229.902	-1692.352	1	5496.902	-17.93114	9.096544E-007	0.065305	7
	19	29	12609.37	5373.091	-1946.523	1	5714.811	-19.91406	8.902362E-007	0.0653548	7
	20	31	10078.13	5539.219	-2235.601	1	5973.346	-21.97875	8.789081E-007	0.0653512	7
	21	32	8015.625	5731.628	-2596.577	1	6292.358	-24.37177	8.979853E-007	0.0653718	7
	22	33	6328.125	5962.276	-3039.178	1	6692.185	-27.00951	9.739321E-007	0.0652036	7
	23	35	5015.625	6231.738	-3551.05	1	7172.483	-29.67592	9.733517E-007	0.0652004	7
	24	36	3984.375	6532.508	-4159.727	1	7744.481	-32.48789	9.730361E-007	0.0651986	7
	25	37	3170.956	6886.021	-4876.399	1	8437.806	-35.30457	8.714872E-007	0.0653905	7
	26	39	2527.573	7292.786	-5702.306	1	9257.484	-38.02222	9.398487E-007	0.0652393	7
	27	40	1976.103	7811.994	-6775.585	1	10340.98	-40.93612	9.484088E-007	0.0652006	7
	28	41	1577.524	8368.477	-7954.168	1	11545.57	-43.54601	9.237629E-007	0.0652864	7
	29	43	1265.625	9012.457	-9298.604	1	12949.46	-45.89529	8.327174E-008	0.0652831	6
	30	44	998.264	9825.83	-11005.69	1	14753.72	-48.24167	8.699753E-008	0.0652138	6
	31	45	796.875	10755.04	-12938.15	1	16824.59	-50.26441	8.575218E-008	0.0652316	6
	32	47	627.7902	11882.35	-15362.24	1	19421.35	-52.27886	9.070982E-008	0.0653123	6
	33	48	505.5147	13095.95	-17921.54	1	22196.52	-53.84298	8.738851E-008	0.0652308	6
	34	49	397.9953	14677.73	-21285.35	1	25855.4	-55.41103	9.036923E-008	0.0648841	6
	35	50	315.5048	16497.74	-25150.75	1	30078.82	-56.73695	9.035345E-008	0.0648812	6
	36	52	252.4038	18554.33	-29522.82	1	34869.19	-57.8517	9.056375E-008	0.0648837	6
	37	53	198.6229	21164.16	-35074.11	1	40964.8	-58.89269	9.033677E-008	0.0648852	6
	38	55	158.3615	24091.96	-41266.64	1	47784.49	-59.72311	9.040511E-008	0.0648859	6
	39	56	125.558	27575.73	-48751.8	1	56010.35	-60.50597	9.041054E-008	0.0648879	6
	40	57	100.4464	31572.26	-57155.75	1	65296.16	-61.08418	9.063594E-008	0.0648815	6
	41	59	79.00281	36667.33	-67828.96	1	77105.52	-61.605	8.985761E-008	0.0648833	6
	42	60	63.3446	42122.25	-80404.82	1	90770.14	-62.35099	9.012918E-008	0.06488	6
	43	61	49.86702	48165.48	-94321.14	1	105907.5	-62.94868	9.033096E-008	0.0648785	6
	44	63	39.72458	56323.26	-111214	1	124663	-63.14051	9.015736E-008	0.0648821	6
	45	64	31.6723	64561.45	-131213	1	146236.2	-63.80117	9.126182E-009	0.0648859	5
	46	65	24.93351	75180.27	-155930.5	1	173108	-64.25944	9.08173E-009	0.0648854	5
	47	67	19.86229	87139.81	-184139.8	1	203717.5	-64.67525	9.334584E-009	0.064898	5
	48	68	15.83615	100720.8	-216589.9	1	238863.7	-65.06016	9.682019E-009	0.0648892	5
	49	69	12.40079	118338.1	-260762.4	1	286358	-65.59071	8.796152E-009	0.0648865	5
	50	71	9.93114	135685.7	-310286	1	338656.2	-66.38061	9.186206E-009	0.0648834	5
	51	72	7.944915	156788.9	-368195.8	1	400188.6	-66.93423	9.010583E-009	0.0648933	5
	52	74	6.317385	184983.2	-438438.1	1	475864.3	-67.12444	9.130833E-009	0.0648858	5
	53	76	5.008013	218239.8	-524946.3	1	568504.3	-67.42551	9.175013E-009	0.0648799	5
	54	79	3.945707	260158.4	-631817.7	1	683283.3	-67.62001	9.267271E-009	0.06489	5
	55	81	3.158693	307681.1	-752052.8	1	812558.3	-67.74947	9.035509E-008	0.0648685	6
	56	85	2.504006	371266.3	-898416.9	1	972107	-67.54738	9.063549E-009	0.0651776	5
	57	88	1.998082	446770.1	-1068057	1	1157735	-67.30037	9.085505E-009	0.0652065	5
	58	91	1.584686	543436.6	-1271182	1	1382472	-66.85306	9.898563E-010	0.0651649	4
	59	95	1.266892	664877	-1505159	1	1645468	-66.16742	9.813848E-010	0.0652194	4
	60	99	0.999041	821878.1	-1786404	1	1966399	-65.29408	9.71705E-010	0.0651367	4
