EXPLAIN
TAG	EISPOT
TITLE	LABEL	Potentiostatic EIS	Test &Identifier
DATE	LABEL	11/3/2019	Date
TIME	LABEL	10:59:18	Time
NOTES	NOTES	1	&Notes...
	
PSTAT	PSTAT	REF600-11020	Potentiostat
VDC	POTEN	0.00000E+000	T	DC &Voltage (V)
FREQINIT	QUANT	1.00000E+006	Initial Fre&q. (Hz)
FREQFINAL	QUANT	1.00000E+000	Final Fre&q. (Hz)
PTSPERDEC	QUANT	1.00000E+001	Points/&decade
VAC	QUANT	2.50000E+001	AC &Voltage (mV rms)
AREA	QUANT	1.00000E-002	&Area (cm^2)
CONDIT	TWOPARAM	T	5.00000E+000	0.00000E+000	Conditionin&g	Time(s)	E(V)
DELAY	TWOPARAM	T	5.00000E+000	0.00000E+000	Init. De&lay	Time(s)	Stab.(mV/s)
SPEED	SELECTOR	1	&Optimize for:
ZGUESS	QUANT	1.00000E+005	E&stimated Z (ohms)
OCVCURVE	TABLE	19
	Pt	T	Vf	Vm	Ach	Over
	#	s	V vs. Ref.	V	V	bits
	0	0.258333	5.00524E-003	5.00524E-003	5.61866E-004	...........
	1	0.516667	5.00229E-003	4.85097E-003	5.64266E-004	...........
	2	0.775	4.98487E-003	4.74024E-003	5.65632E-004	...........
	3	1.03333	4.93506E-003	4.48772E-003	5.70666E-004	...........
	4	1.29167	4.83816E-003	4.24836E-003	5.71999E-004	...........
	5	1.55	4.69210E-003	4.17534E-003	5.69132E-004	...........
	6	1.80833	4.51959E-003	4.23952E-003	5.67066E-004	...........
	7	2.06667	4.36614E-003	4.21266E-003	5.66232E-004	...........
	8	2.325	4.26643E-003	4.16856E-003	5.61299E-004	...........
	9	2.58333	4.21674E-003	4.12998E-003	5.60199E-004	...........
	10	2.84167	4.18973E-003	4.09472E-003	5.66132E-004	...........
	11	3.1	4.16421E-003	4.07013E-003	5.68266E-004	...........
	12	3.35833	4.13450E-003	4.03805E-003	5.61932E-004	...........
	13	3.61667	4.10273E-003	4.00607E-003	5.64532E-004	...........
	14	3.875	4.07112E-003	3.97706E-003	5.59299E-004	...........
	15	4.13333	4.03991E-003	3.93801E-003	5.60666E-004	...........
	16	4.39167	4.00826E-003	3.89850E-003	5.59766E-004	...........
	17	4.65	3.97537E-003	3.88224E-003	5.66999E-004	...........
	18	4.90833	3.94223E-003	3.85848E-003	5.67332E-004	...........
EOC	QUANT	0.0039422	Open Circuit (V)
PSTATMODEL	IQUANT	4	Pstat Model
PSTATSECTION	LABEL	REF600-11020	Pstat Section
PSTATSERIALNO	LABEL	11020	Pstat Serial Number
CTRLMODE	IQUANT	1	Control Mode
IESTAB	IQUANT	0	I/E Stability
CASPEED	IQUANT	1	Control Amp Speed
CONVENTION	IQUANT	1	Current Convention
ICHRANGE	IQUANT	2	Ich Range
ICHRANGEMODE	TOGGLE	F	Ich Auto Range
ICHOFFSETENABLE	TOGGLE	T	Ich Offset Enable
ICHOFFSET	QUANT	0	Ich Offset (V)
ICHFILTER	IQUANT	3	Ich Filter
VCHRANGE	IQUANT	2	Vch Range
VCHRANGEMODE	TOGGLE	F	Vch Auto Range
VCHOFFSETENABLE	TOGGLE	T	Vch Offset Enable
VCHOFFSET	QUANT	0	Vch Offset (V)
VCHFILTER	IQUANT	3	Vch Filter
ACHRANGE	IQUANT	2	Ach Range
ACHOFFSETENABLE	TOGGLE	F	Ach Offset Enable
ACHOFFSET	QUANT	0	Ach Offset (V)
ACHFILTER	IQUANT	3	Ach Filter
IERANGELOWERLIMIT	IQUANT	1	I/E Range Lower Limit
IERANGEMODE	TOGGLE	F	I/E AutoRange
IERANGE	IQUANT	4	I/E Range
POSFEEDENABLE	TOGGLE	F	Positive Feedback IR Comp
POSFEEDRESISTANCE	QUANT	0	Positive Feedback Resistance (ohm)
ACHSELECT	IQUANT	0	Ach Select
CABLEID	IQUANT	14	Cable ID
DCCALDATE	LABEL	8/19/2019	DC Calibration Date
ACCALDATE	LABEL	8/19/2019	AC Calibration Date
THERMOSELECT	IQUANT	1	Thermo Select
FRAMEWORKVERSION	QUANT	6.33	Framework Version
INSTRUMENTVERSION	LABEL	3.50	Instrument Version
ZCURVE	TABLE
	Pt	Time	Freq	Zreal	Zimag	Zsig	Zmod	Zphz	Idc	Vdc	IERange
	#	s	Hz	ohm	ohm	V	ohm	°	A	V	#
	0	2	1000078	1909.075	-1293.264	1	2305.884	-34.11488	1.308229E-005	0.0044677	8
	1	3	794390.6	2167.949	-1234.845	1	2494.964	-29.66547	-1.269493E-005	0.0070473	8
	2	4	630984.4	2390.303	-1164.557	1	2658.899	-25.97538	2.031772E-006	0.0053644	8
	3	6	501234.4	2580.086	-1064.662	1	2791.12	-22.42329	2.189896E-006	0.0050595	8
	4	7	398109.4	2741.208	-969.233	1	2907.514	-19.4725	-2.424468E-006	0.0057308	8
	5	8	316265.6	2866.146	-876.7889	1	2997.257	-17.00951	4.240243E-006	0.0054927	8
	6	10	251203.1	2976.566	-786.3535	1	3078.685	-14.79839	6.045377E-007	0.0059306	8
	7	11	199546.9	3063.573	-714.2123	1	3145.724	-13.123	-1.392587E-006	0.0059559	8
	8	12	158578.1	3124.086	-655.0548	1	3192.023	-11.84215	-6.013218E-006	0.0064187	8
	9	14	125953.1	3218.787	-564.8658	1	3267.976	-9.9535	-2.726585E-006	0.0078363	7
	10	15	100078.1	3262.958	-542.8406	1	3307.804	-9.44548	-1.044685E-006	0.0060428	7
	11	16	79453.13	3325.264	-525.7182	1	3366.565	-8.983999	-8.744637E-007	0.0071587	7
	12	18	63140.62	3378.523	-524.4808	1	3418.991	-8.824142	-1.078681E-006	0.007109	7
	13	19	50203.12	3432.09	-532.4462	1	3473.146	-8.818433	-1.079089E-006	0.0071028	7
	14	20	39890.62	3490.811	-550.5356	1	3533.957	-8.962297	9.50106E-008	0.0041583	7
	15	22	31640.63	3546.403	-576.9476	1	3593.027	-9.240229	-5.972697E-007	0.0070628	7
	16	23	25171.88	3608.752	-612.9143	1	3660.431	-9.6392	9.751722E-008	0.0041584	7
	17	24	20015.62	3669.909	-660.6216	1	3728.895	-10.20455	-8.751279E-007	0.007151	7
	18	26	15890.62	3742.172	-721.393	1	3811.071	-10.91128	6.242608E-007	0.0056542	7
	19	27	12609.37	3819.297	-795.0831	1	3901.178	-11.75961	7.551193E-007	0.0037414	7
	20	29	10078.13	3893.778	-872.3083	1	3990.292	-12.62727	-2.697563E-007	0.0068106	7
	21	30	8015.625	3975.146	-982.108	1	4094.669	-13.8777	4.058514E-007	0.0059808	7
	22	31	6328.125	4065.398	-1109.505	1	4214.079	-15.26508	-1.214624E-006	0.0069486	7
	23	33	5015.625	4169.119	-1265.139	1	4356.849	-16.88067	1.091221E-006	0.0043448	7
	24	34	3984.375	4263.554	-1444.869	1	4501.726	-18.72092	-2.693172E-007	0.0068041	7
	25	35	3170.956	4374.828	-1665.975	1	4681.303	-20.8473	9.831574E-008	0.0041526	7
	26	37	2527.573	4486.157	-1930.61	1	4883.939	-23.28454	-1.044854E-006	0.0060214	7
	27	38	1976.103	4616.172	-2289.816	1	5152.893	-26.38335	-1.214033E-006	0.0069406	7
	28	39	1577.524	4743.15	-2684.234	1	5450.008	-29.5063	-1.077071E-006	0.0070875	7
	29	41	1265.625	4887.266	-3186.961	1	5834.56	-33.10816	9.038025E-008	0.0064148	7
	30	42	998.264	5056.44	-3843.175	1	6351.188	-37.23685	1.013326E-006	0.0047508	7
	31	43	796.875	5246.092	-4604.564	1	6980.222	-41.27385	6.2282E-007	0.0056484	7
	32	45	627.7902	5477.319	-5603.552	1	7835.868	-45.65269	4.107225E-007	0.0059764	7
	33	46	505.5147	5737.063	-6721.63	1	8837.092	-49.51849	4.096892E-007	0.0059773	7
	34	48	397.9953	6082.905	-8227.937	1	10232.33	-53.52452	7.138299E-009	0.0055087	7
	35	49	315.5048	6503.03	-10030.63	1	11954.2	-57.04396	5.278125E-010	0.0054434	6
	36	50	252.4038	6993.432	-12146.6	1	14015.99	-60.06871	1.923415E-010	0.005451	6
	37	52	198.6229	7654.727	-14924.45	1	16773.02	-62.84679	4.626789E-010	0.0054551	6
	38	53	158.3615	8430.773	-18131.46	1	19995.7	-65.0625	5.104503E-010	0.0054391	6
	39	54	125.558	9441.094	-22149.37	1	24077.56	-66.91404	1.197823E-009	0.0054403	6
	40	56	100.4464	10683.81	-26806.89	1	28857.46	-68.27039	-4.865876E-010	0.0054467	6
	41	57	79.00281	12303.73	-33036.25	1	35253.03	-69.5731	1.362748E-009	0.0054378	6
	42	58	63.3446	14702.31	-40190.99	1	42795.72	-69.90692	1.357174E-010	0.00544	6
	43	60	49.86702	16848.35	-48930.39	1	51749.88	-70.99972	-3.612969E-010	0.0054434	6
	44	61	39.72458	20715.33	-59118.64	1	62642.95	-70.6894	4.985771E-010	0.0054398	6
	45	63	31.6723	25469.41	-71628.73	1	76022.13	-70.42587	-1.009496E-010	0.0054405	6
	46	64	24.93351	32075.26	-86824.96	1	92560.23	-69.72454	8.158804E-010	0.0054349	6
	47	65	19.86229	40385.11	-103670.8	1	111259.1	-68.71652	2.101077E-010	0.0054556	5
	48	67	15.83615	51057.1	-124575.5	1	134632.4	-67.71379	2.043803E-009	0.0054449	5
	49	68	12.40079	66354.41	-148014.2	1	162207	-65.85342	4.80008E-010	0.0054434	5
	50	70	9.93114	83300.76	-172338.2	1	191414.4	-64.20291	5.758197E-010	0.005452	5
	51	71	7.944915	104486.2	-198349.7	1	224187.3	-62.22074	1.421257E-010	0.0054571	5
	52	73	6.317385	129779.4	-227568.6	1	261973.6	-60.30444	-2.774038E-010	0.0054469	5
	53	75	5.008013	159736.7	-259198.6	1	304466.3	-58.35566	-5.772923E-011	0.0054456	5
	54	77	3.945707	194027.9	-293310.9	1	351679	-56.51498	4.539891E-010	0.0054568	5
	55	80	3.158693	229447.7	-327534.6	1	399906.4	-54.98762	-2.091133E-011	0.0054476	5
	56	83	2.504006	268430.5	-366297.2	1	454123.9	-53.76523	3.781368E-010	0.0054407	5
	57	86	1.998082	306968.9	-408089.4	1	510653.3	-53.04915	-1.659941E-011	0.0054825	5
	58	89	1.584686	348619.6	-459986.1	1	577167.9	-52.84182	2.137502E-010	0.0054864	5
	59	93	1.266892	391949.1	-517573	1	649234.9	-52.86398	-1.124066E-010	0.0054819	5
	60	97	0.999041	437137.7	-594275.4	1	737734.8	-53.6625	1.719062E-010	0.0054342	5
