EXPLAIN
TAG	EISPOT
TITLE	LABEL	Potentiostatic EIS	Test &Identifier
DATE	LABEL	10/10/2019	Date
TIME	LABEL	10:13:38	Time
NOTES	NOTES	1	&Notes...
	
PSTAT	PSTAT	REF600-11020	Potentiostat
VDC	POTEN	0.00000E+000	T	DC &Voltage (V)
FREQINIT	QUANT	1.00000E+006	Initial Fre&q. (Hz)
FREQFINAL	QUANT	1.00000E+000	Final Fre&q. (Hz)
PTSPERDEC	QUANT	1.00000E+001	Points/&decade
VAC	QUANT	2.50000E+001	AC &Voltage (mV rms)
AREA	QUANT	1.00000E-002	&Area (cm^2)
CONDIT	TWOPARAM	T	5.00000E+000	0.00000E+000	Conditionin&g	Time(s)	E(V)
DELAY	TWOPARAM	T	5.00000E+000	0.00000E+000	Init. De&lay	Time(s)	Stab.(mV/s)
SPEED	SELECTOR	1	&Optimize for:
ZGUESS	QUANT	1.00000E+004	E&stimated Z (ohms)
OCVCURVE	TABLE	19
	Pt	T	Vf	Vm	Ach	Over
	#	s	V vs. Ref.	V	V	bits
	0	0.258333	5.48949E-003	5.48949E-003	5.48199E-004	...........
	1	0.516667	5.48724E-003	5.37146E-003	5.58599E-004	...........
	2	0.775	5.47285E-003	5.23133E-003	5.53333E-004	...........
	3	1.03333	5.43113E-003	5.13719E-003	5.41999E-004	...........
	4	1.29167	5.35747E-003	5.10403E-003	5.49333E-004	...........
	5	1.55	5.26677E-003	5.03417E-003	5.61866E-004	...........
	6	1.80833	5.17951E-003	4.97399E-003	5.46699E-004	...........
	7	2.06667	5.10432E-003	4.90509E-003	5.41066E-004	...........
	8	2.325	5.03868E-003	4.88434E-003	5.60132E-004	...........
	9	2.58333	4.98012E-003	4.85649E-003	5.55966E-004	...........
	10	2.84167	4.93017E-003	4.82120E-003	5.48199E-004	...........
	11	3.1	4.89403E-003	5.02723E-003	5.48966E-004	...........
	12	3.35833	4.87783E-003	4.71368E-003	5.60566E-004	...........
	13	3.61667	4.87014E-003	4.66990E-003	5.56099E-004	...........
	14	3.875	4.84174E-003	4.65445E-003	5.36633E-004	...........
	15	4.13333	4.78410E-003	4.62869E-003	5.39099E-004	...........
	16	4.39167	4.71971E-003	4.62112E-003	5.53366E-004	...........
	17	4.65	4.67007E-003	4.61610E-003	5.53999E-004	...........
	18	4.90833	4.63953E-003	4.59955E-003	5.40399E-004	...........
EOC	QUANT	0.0046395	Open Circuit (V)
PSTATMODEL	IQUANT	4	Pstat Model
PSTATSECTION	LABEL	REF600-11020	Pstat Section
PSTATSERIALNO	LABEL	11020	Pstat Serial Number
CTRLMODE	IQUANT	1	Control Mode
IESTAB	IQUANT	0	I/E Stability
CASPEED	IQUANT	1	Control Amp Speed
CONVENTION	IQUANT	1	Current Convention
ICHRANGE	IQUANT	2	Ich Range
ICHRANGEMODE	TOGGLE	F	Ich Auto Range
ICHOFFSETENABLE	TOGGLE	T	Ich Offset Enable
ICHOFFSET	QUANT	0	Ich Offset (V)
ICHFILTER	IQUANT	3	Ich Filter
VCHRANGE	IQUANT	2	Vch Range
VCHRANGEMODE	TOGGLE	F	Vch Auto Range
VCHOFFSETENABLE	TOGGLE	T	Vch Offset Enable
VCHOFFSET	QUANT	0	Vch Offset (V)
VCHFILTER	IQUANT	3	Vch Filter
ACHRANGE	IQUANT	2	Ach Range
ACHOFFSETENABLE	TOGGLE	F	Ach Offset Enable
ACHOFFSET	QUANT	0	Ach Offset (V)
ACHFILTER	IQUANT	3	Ach Filter
IERANGELOWERLIMIT	IQUANT	1	I/E Range Lower Limit
IERANGEMODE	TOGGLE	F	I/E AutoRange
IERANGE	IQUANT	5	I/E Range
POSFEEDENABLE	TOGGLE	F	Positive Feedback IR Comp
POSFEEDRESISTANCE	QUANT	0	Positive Feedback Resistance (ohm)
ACHSELECT	IQUANT	0	Ach Select
CABLEID	IQUANT	14	Cable ID
DCCALDATE	LABEL	8/19/2019	DC Calibration Date
ACCALDATE	LABEL	8/19/2019	AC Calibration Date
THERMOSELECT	IQUANT	1	Thermo Select
FRAMEWORKVERSION	QUANT	6.33	Framework Version
INSTRUMENTVERSION	LABEL	3.50	Instrument Version
ZCURVE	TABLE
	Pt	Time	Freq	Zreal	Zimag	Zsig	Zmod	Zphz	Idc	Vdc	IERange
	#	s	Hz	ohm	ohm	V	ohm	°	A	V	#
	0	1	1000078	2728.925	-2117.131	1	3453.878	-37.80471	6.940274E-006	0.0058527	8
	1	3	794390.6	3149.785	-2073.282	1	3770.895	-33.3541	-7.818288E-007	0.0065744	8
	2	4	630984.4	3569.402	-1952.099	1	4068.331	-28.67417	3.544515E-006	0.0058162	8
	3	6	501234.4	3894.939	-1796.008	1	4289.079	-24.75506	-1.841363E-006	0.0068762	8
	4	7	398109.4	4181.141	-1599.816	1	4476.756	-20.93819	3.319802E-006	0.0057543	8
	5	9	316265.6	4405.754	-1384.115	1	4618.056	-17.44066	-4.187472E-007	0.0063085	8
	6	10	251203.1	4582.117	-1208.56	1	4738.82	-14.7756	1.446675E-006	0.006051	8
	7	12	199546.9	4726.424	-1024.849	1	4836.259	-12.23427	-2.378269E-006	0.0068024	8
	8	13	158578.1	4817.724	-905.6367	1	4902.106	-10.64623	-2.016542E-007	0.0063066	8
	9	15	125953.1	4921.708	-725.4064	1	4974.88	-8.384411	-5.993274E-007	0.0073154	7
	10	16	100078.1	4972.647	-640.945	1	5013.784	-7.344594	-4.681185E-008	0.0063363	7
	11	17	79453.13	5023.155	-583.2745	1	5056.905	-6.623362	-3.521183E-008	0.00634	7
	12	19	63140.62	5068.422	-540.7538	1	5097.187	-6.089894	4.399739E-008	0.0062565	7
	13	20	50203.12	5110.046	-511.3714	1	5135.569	-5.714665	-1.976058E-009	0.0063121	7
	14	21	39890.62	5147.99	-493.6354	1	5171.603	-5.477286	9.073813E-008	0.0062522	7
	15	23	31640.63	5191.298	-497.3621	1	5215.069	-5.472626	-2.982451E-009	0.0063168	7
	16	24	25171.88	5231.568	-509.6266	1	5256.332	-5.563841	1.476818E-007	0.006083	7
	17	26	20015.62	5276.885	-512.2489	1	5301.69	-5.544564	-4.20294E-009	0.0063122	7
	18	27	15890.62	5308.86	-568.9711	1	5339.262	-6.117261	4.380206E-008	0.0062472	7
	19	28	12609.37	5360.313	-626.4341	1	5396.793	-6.665647	1.183756E-009	0.0063339	7
	20	30	10078.13	5404.85	-695.4326	1	5449.406	-7.331865	-4.254254E-008	0.006314	7
	21	31	8015.625	5453.957	-767.1345	1	5507.644	-8.006498	9.035995E-008	0.0061144	7
	22	32	6328.125	5507.229	-904.6121	1	5581.03	-9.328051	7.822236E-008	0.0061775	7
	23	34	5015.625	5565.648	-1050.501	1	5663.92	-10.68868	9.197894E-008	0.0061135	7
	24	35	3984.375	5621.571	-1236.97	1	5756.054	-12.4096	1.665616E-008	0.0062156	7
	25	36	3170.956	5699.622	-1457.27	1	5882.969	-14.34204	9.37026E-008	0.0062461	7
	26	38	2527.573	5778.69	-1730.693	1	6032.293	-16.67274	-1.589827E-008	0.0063515	7
	27	39	1976.103	5872.587	-2101.599	1	6237.307	-19.69056	-5.698984E-008	0.0064758	7
	28	40	1577.524	5966.193	-2510.152	1	6472.737	-22.81791	9.038165E-008	0.0061172	7
	29	42	1265.625	6090.411	-3015.064	1	6795.86	-26.33776	-1.968961E-008	0.006274	7
	30	43	998.264	6231.347	-3675.523	1	7234.581	-30.53398	-3.544574E-008	0.0063232	7
	31	44	796.875	6402.139	-4441.511	1	7791.945	-34.75114	-4.415839E-008	0.0063274	7
	32	46	627.7902	6596.6	-5440.216	1	8550.502	-39.5124	-1.650806E-008	0.0063613	7
	33	47	505.5147	6827.314	-6561.879	1	9469.45	-43.86428	1.493558E-007	0.0060768	7
	34	48	397.9953	7146.24	-8097.037	1	10799.57	-48.56919	7.525989E-010	0.0062539	6
	35	50	315.5048	7522.023	-9929.76	1	12457.16	-52.85522	5.806383E-010	0.0062519	6
	36	51	252.4038	7983.168	-12087.95	1	14486.18	-56.55828	7.383097E-010	0.0062499	6
	37	52	198.6229	8619.012	-14940.64	1	17248.48	-60.02005	9.275825E-010	0.0062533	6
	38	54	158.3615	9407.227	-18252.77	1	20534.35	-62.73404	3.063988E-010	0.0062474	6
	39	55	125.558	10480.11	-22397.16	1	24727.83	-64.92411	1.305297E-009	0.0062517	6
	40	56	100.4464	11866.81	-27251.37	1	29723.03	-66.46893	-1.430209E-010	0.0062446	6
	41	58	79.00281	13762.82	-33543.5	1	36257.16	-67.69178	2.664714E-011	0.0062455	6
	42	59	63.3446	16436.12	-41015.5	1	44186.17	-68.16257	6.251581E-010	0.0062454	6
	43	61	49.86702	19569.36	-49201.4	1	52950.33	-68.3103	1.340877E-009	0.006242	6
	44	62	39.72458	24576.38	-59535.59	1	64408.73	-67.56909	1.325637E-009	0.0062478	6
	45	63	31.6723	30693.12	-70881.98	1	77241.97	-66.58656	8.646316E-010	0.0062526	6
	46	65	24.93351	38902.87	-84809.11	1	93306.05	-65.35856	1.54575E-010	0.0062549	6
	47	66	19.86229	48816.59	-99337.8	1	110684.5	-63.82957	1.527813E-009	0.0062589	5
	48	67	15.83615	62391.08	-114827.3	1	130682.7	-61.48269	-8.486848E-010	0.0062576	5
	49	69	12.40079	78654.96	-132881	1	154414.9	-59.37785	2.265779E-009	0.0062562	5
	50	70	9.93114	93935.68	-150301.8	1	177241.5	-57.99543	1.122896E-009	0.0062529	5
	51	72	7.944915	113248.6	-169575.8	1	203914.7	-56.26364	3.321441E-010	0.006256	5
	52	74	6.317385	132502	-190029.2	1	231663.3	-55.11301	4.114049E-010	0.0062416	5
	53	76	5.008013	154294.2	-213235.9	1	263203.8	-54.11109	7.100331E-011	0.0062592	5
	54	78	3.945707	177720.5	-240951.6	1	299403.2	-53.58836	-1.831318E-010	0.0062476	5
	55	81	3.158693	201098.7	-270937.1	1	337413.1	-53.41595	2.213703E-010	0.0062653	5
	56	84	2.504006	226845	-308681	1	383070	-53.6884	-2.246789E-010	0.0062603	5
	57	87	1.998082	253097.6	-351608.3	1	433228.3	-54.25259	3.005942E-010	0.0062098	5
	58	90	1.584686	282827.9	-406713.2	1	495385.9	-55.18529	-6.403944E-011	0.0062666	5
	59	94	1.266892	317877.4	-469806.6	1	567242.7	-55.91719	2.872771E-011	0.0062128	5
	60	98	0.999041	359198.7	-549681.6	1	656638.1	-56.83672	2.938163E-010	0.006293	5
