EXPLAIN
TAG	EISPOT
TITLE	LABEL	Potentiostatic EIS	Test &Identifier
DATE	LABEL	9/24/2019	Date
TIME	LABEL	8:37:54	Time
NOTES	NOTES	1	&Notes...
	
PSTAT	PSTAT	REF600-11020	Potentiostat
VDC	POTEN	0.00000E+000	T	DC &Voltage (V)
FREQINIT	QUANT	1.00000E+006	Initial Fre&q. (Hz)
FREQFINAL	QUANT	1.00000E+000	Final Fre&q. (Hz)
PTSPERDEC	QUANT	1.00000E+001	Points/&decade
VAC	QUANT	2.50000E+001	AC &Voltage (mV rms)
AREA	QUANT	1.00000E-002	&Area (cm^2)
CONDIT	TWOPARAM	T	5.00000E+000	0.00000E+000	Conditionin&g	Time(s)	E(V)
DELAY	TWOPARAM	T	5.00000E+000	0.00000E+000	Init. De&lay	Time(s)	Stab.(mV/s)
SPEED	SELECTOR	1	&Optimize for:
ZGUESS	QUANT	1.00000E+004	E&stimated Z (ohms)
OCVCURVE	TABLE	19
	Pt	T	Vf	Vm	Ach	Over
	#	s	V vs. Ref.	V	V	bits
	0	0.258333	-3.41347E-003	-3.41347E-003	5.74432E-004	...........
	1	0.516667	-3.42231E-003	-3.87616E-003	5.72499E-004	...........
	2	0.775	-3.47780E-003	-4.37793E-003	5.72932E-004	...........
	3	1.03333	-3.63788E-003	-4.81277E-003	5.77399E-004	...........
	4	1.29167	-3.92974E-003	-5.31276E-003	5.70966E-004	...........
	5	1.55	-4.32484E-003	-5.66842E-003	5.75799E-004	...........
	6	1.80833	-4.76620E-003	-6.00598E-003	5.79899E-004	...........
	7	2.06667	-5.20232E-003	-6.35639E-003	5.74432E-004	...........
	8	2.325	-5.60794E-003	-6.78095E-003	5.74966E-004	...........
	9	2.58333	-5.98723E-003	-7.08498E-003	5.72532E-004	...........
	10	2.84167	-6.35263E-003	-7.36859E-003	5.73532E-004	...........
	11	3.1	-6.70582E-003	-7.75171E-003	5.77232E-004	...........
	12	3.35833	-7.04802E-003	-8.18890E-003	5.78165E-004	...........
	13	3.61667	-7.39009E-003	-8.37462E-003	5.73532E-004	...........
	14	3.875	-7.73223E-003	-8.59739E-003	5.75599E-004	...........
	15	4.13333	-8.05378E-003	-8.86627E-003	5.68866E-004	...........
	16	4.39167	-8.34060E-003	-9.13887E-003	5.71232E-004	...........
	17	4.65	-8.60294E-003	-9.40430E-003	5.78599E-004	...........
	18	4.90833	-8.85916E-003	-9.66542E-003	5.74665E-004	...........
EOC	QUANT	-0.0088592	Open Circuit (V)
PSTATMODEL	IQUANT	4	Pstat Model
PSTATSECTION	LABEL	REF600-11020	Pstat Section
PSTATSERIALNO	LABEL	11020	Pstat Serial Number
CTRLMODE	IQUANT	1	Control Mode
IESTAB	IQUANT	0	I/E Stability
CASPEED	IQUANT	1	Control Amp Speed
CONVENTION	IQUANT	1	Current Convention
ICHRANGE	IQUANT	2	Ich Range
ICHRANGEMODE	TOGGLE	F	Ich Auto Range
ICHOFFSETENABLE	TOGGLE	T	Ich Offset Enable
ICHOFFSET	QUANT	0	Ich Offset (V)
ICHFILTER	IQUANT	3	Ich Filter
VCHRANGE	IQUANT	2	Vch Range
VCHRANGEMODE	TOGGLE	F	Vch Auto Range
VCHOFFSETENABLE	TOGGLE	T	Vch Offset Enable
VCHOFFSET	QUANT	0	Vch Offset (V)
VCHFILTER	IQUANT	3	Vch Filter
ACHRANGE	IQUANT	2	Ach Range
ACHOFFSETENABLE	TOGGLE	F	Ach Offset Enable
ACHOFFSET	QUANT	0	Ach Offset (V)
ACHFILTER	IQUANT	3	Ach Filter
IERANGELOWERLIMIT	IQUANT	1	I/E Range Lower Limit
IERANGEMODE	TOGGLE	F	I/E AutoRange
IERANGE	IQUANT	6	I/E Range
POSFEEDENABLE	TOGGLE	F	Positive Feedback IR Comp
POSFEEDRESISTANCE	QUANT	0	Positive Feedback Resistance (ohm)
ACHSELECT	IQUANT	0	Ach Select
CABLEID	IQUANT	14	Cable ID
DCCALDATE	LABEL	8/19/2019	DC Calibration Date
ACCALDATE	LABEL	8/19/2019	AC Calibration Date
THERMOSELECT	IQUANT	1	Thermo Select
FRAMEWORKVERSION	QUANT	6.33	Framework Version
INSTRUMENTVERSION	LABEL	3.50	Instrument Version
ZCURVE	TABLE
	Pt	Time	Freq	Zreal	Zimag	Zsig	Zmod	Zphz	Idc	Vdc	IERange
	#	s	Hz	ohm	ohm	V	ohm	°	A	V	#
	0	1	1000078	2044.462	-1666.34	1	2637.521	-39.18178	5.132679E-006	-0.0074901	8
	1	3	794390.6	2389.017	-1663.799	1	2911.293	-34.85476	-2.688058E-006	-0.0064242	8
	2	4	630984.4	2707.635	-1585.932	1	3137.908	-30.35862	-2.30382E-006	-0.0064659	8
	3	5	501234.4	2992.4	-1490.039	1	3342.855	-26.4706	-2.361042E-006	-0.0066058	8
	4	7	398109.4	3247.733	-1357.78	1	3520.133	-22.68835	1.042825E-006	-0.0073411	8
	5	8	316265.6	3452.012	-1221.274	1	3661.679	-19.48307	3.960726E-006	-0.007892	8
	6	10	251203.1	3630.301	-1084.708	1	3788.888	-16.63577	3.129226E-006	-0.0077628	8
	7	11	199546.9	3763.373	-969.83	1	3886.328	-14.45084	-2.481102E-006	-0.006757	8
	8	13	158578.1	3864.164	-849.8722	1	3956.519	-12.40397	3.89516E-006	-0.0078769	8
	9	14	125953.1	3979.378	-716.6689	1	4043.398	-10.20928	3.578612E-007	-0.0078813	7
	10	15	100078.1	4041.254	-635.7697	1	4090.958	-8.940489	1.021156E-008	-0.0071153	7
	11	17	79453.13	4101.163	-582.8525	1	4142.373	-8.088642	-1.003807E-008	-0.0071829	7
	12	18	63140.62	4154.967	-541.1345	1	4190.057	-7.420319	9.744286E-009	-0.0071235	7
	13	20	50203.12	4203.467	-512.5522	1	4234.601	-6.952074	-1.038424E-009	-0.0071855	7
	14	21	39890.62	4249.288	-495.121	1	4278.036	-6.646055	-3.026428E-008	-0.0072012	7
	15	22	31640.63	4297.008	-489.771	1	4324.83	-6.502484	1.675461E-008	-0.0072832	7
	16	24	25171.88	4344.477	-495.8373	1	4372.68	-6.511023	-1.023658E-008	-0.0071695	7
	17	25	20015.62	4390.375	-512.0106	1	4420.13	-6.651852	-3.160352E-008	-0.0072057	7
	18	26	15890.62	4442.002	-537.2559	1	4474.375	-6.896372	-3.587214E-009	-0.0072689	7
	19	28	12609.37	4498.294	-574.874	1	4534.879	-7.282821	-2.287072E-009	-0.0072694	7
	20	29	10078.13	4552.746	-619.998	1	4594.768	-7.754899	7.076509E-008	-0.0073346	7
	21	30	8015.625	4616.329	-680.5691	1	4666.226	-8.386504	-2.813587E-008	-0.0072098	7
	22	32	6328.125	4683.361	-756.3775	1	4744.046	-9.174232	-3.320001E-009	-0.0072005	7
	23	33	5015.625	4754.327	-848.4872	1	4829.446	-10.11884	4.115793E-008	-0.0072711	7
	24	35	3984.375	4830.163	-958.848	1	4924.415	-11.22796	8.154468E-008	-0.0072679	7
	25	36	3170.956	4909.119	-1092.659	1	5029.25	-12.5482	1.250288E-007	-0.0074047	7
	26	37	2527.573	4989.603	-1254.292	1	5144.841	-14.1107	-3.942025E-008	-0.0070872	7
	27	39	1976.103	5088.118	-1468.586	1	5295.818	-16.09975	-2.695611E-010	-0.0071934	7
	28	40	1577.524	5183.311	-1713.667	1	5459.246	-18.29453	4.397238E-008	-0.0072709	7
	29	41	1265.625	5304.879	-1991.407	1	5666.343	-20.57571	-1.148829E-008	-0.0071708	7
	30	43	998.264	5412.471	-2387.338	1	5915.591	-23.80136	-3.122555E-008	-0.0072135	7
	31	44	796.875	5543.678	-2835.778	1	6226.877	-27.09128	-3.319096E-008	-0.0071899	7
	32	46	627.7902	5703.651	-3424.767	1	6652.869	-30.98278	-3.405752E-008	-0.0071506	7
	33	47	505.5147	5870.487	-4078.048	1	7147.943	-34.78653	2.712369E-009	-0.0071197	7
	34	48	397.9953	6090.765	-4969.477	1	7860.86	-39.21112	8.735782E-009	-0.0072043	7
	35	50	315.5048	6353.108	-6038.342	1	8764.905	-43.54489	8.689081E-009	-0.0071987	7
	36	51	252.4038	6667.167	-7298.376	1	9885.21	-47.58787	2.912345E-009	-0.0072643	6
	37	52	198.6229	7094.794	-8958.542	1	11427.67	-51.62223	3.175095E-009	-0.0072654	6
	38	54	158.3615	7615.244	-10878.17	1	13278.8	-55.00612	3.996163E-009	-0.0072692	6
	39	55	125.558	8306.938	-13268.92	1	15654.7	-57.9516	3.850789E-009	-0.0072632	6
	40	56	100.4464	9190.933	-16041.92	1	18488.28	-60.19021	3.740106E-009	-0.0072671	6
	41	58	79.00281	10412.62	-19664.12	1	22250.85	-62.09772	2.477245E-009	-0.0072682	6
	42	59	63.3446	11735.7	-23712.44	1	26457.64	-63.6684	3.181427E-009	-0.0072665	6
	43	61	49.86702	13909.62	-28496.77	1	31710.3	-63.98244	2.358582E-009	-0.007266	6
	44	62	39.72458	16494.96	-34270.62	1	38033.66	-64.29779	3.461653E-009	-0.0072649	6
	45	63	31.6723	19838.11	-40875.93	1	45435.59	-64.11155	3.767075E-009	-0.0072668	6
	46	65	24.93351	24153.35	-48792.81	1	54443.76	-63.66373	3.085783E-009	-0.0072648	6
	47	66	19.86229	29435.93	-57452.73	1	64554.55	-62.87165	2.926233E-009	-0.0072681	6
	48	68	15.83615	35757.1	-66784.94	1	75754.86	-61.83511	3.03611E-009	-0.0072641	6
	49	69	12.40079	43991.79	-78833.23	1	90277.11	-60.83691	2.69751E-009	-0.0072631	6
	50	70	9.93114	53539.06	-90855.3	1	105456.7	-59.49008	1.74238E-009	-0.0072539	5
	51	72	7.944915	64439.36	-104126.3	1	122452.9	-58.24839	2.77267E-009	-0.0072641	5
	52	74	6.317385	77467.06	-118872.4	1	141886.6	-56.90842	1.706165E-009	-0.0072569	5
	53	76	5.008013	92919.5	-135276.7	1	164115.3	-55.51543	1.895516E-009	-0.0072663	5
	54	78	3.945707	111126.9	-153539.3	1	189534.9	-54.10418	2.358999E-009	-0.0072676	5
	55	81	3.158693	130375.1	-171896.3	1	215745.2	-52.82143	2.542927E-009	-0.007272	5
	56	84	2.504006	152587.1	-192851.4	1	245915.6	-51.64838	2.034538E-009	-0.0072608	5
	57	87	1.998082	175686.2	-214598.9	1	277341.6	-50.69376	3.049103E-009	-0.0072994	5
	58	90	1.584686	202223.3	-240319.9	1	314082.7	-49.92021	2.302809E-009	-0.0072894	5
	59	94	1.266892	229910.6	-266878.9	1	352254.5	-49.2558	2.877707E-009	-0.0073075	5
	60	98	0.999041	261550.8	-299749.7	1	397817.4	-48.89322	2.476821E-009	-0.0072287	5
