EXPLAIN
TAG	EISPOT
TITLE	LABEL	Potentiostatic EIS	Test &Identifier
DATE	LABEL	10/14/2019	Date
TIME	LABEL	10:35:31	Time
NOTES	NOTES	1	&Notes...
	
PSTAT	PSTAT	REF600-11020	Potentiostat
VDC	POTEN	0.00000E+000	T	DC &Voltage (V)
FREQINIT	QUANT	1.00000E+006	Initial Fre&q. (Hz)
FREQFINAL	QUANT	1.00000E+000	Final Fre&q. (Hz)
PTSPERDEC	QUANT	1.00000E+001	Points/&decade
VAC	QUANT	2.50000E+001	AC &Voltage (mV rms)
AREA	QUANT	1.00000E-002	&Area (cm^2)
CONDIT	TWOPARAM	T	5.00000E+000	0.00000E+000	Conditionin&g	Time(s)	E(V)
DELAY	TWOPARAM	T	5.00000E+000	0.00000E+000	Init. De&lay	Time(s)	Stab.(mV/s)
SPEED	SELECTOR	1	&Optimize for:
ZGUESS	QUANT	1.00000E+004	E&stimated Z (ohms)
OCVCURVE	TABLE	19
	Pt	T	Vf	Vm	Ach	Over
	#	s	V vs. Ref.	V	V	bits
	0	0.258333	5.59741E-003	5.59741E-003	5.37933E-004	...........
	1	0.516667	5.59630E-003	5.53970E-003	5.37099E-004	...........
	2	0.775	5.58873E-003	5.44290E-003	5.44966E-004	...........
	3	1.03333	5.56515E-003	5.37701E-003	5.39899E-004	...........
	4	1.29167	5.52068E-003	5.34792E-003	5.38933E-004	...........
	5	1.55	5.46254E-003	5.29902E-003	5.45799E-004	...........
	6	1.80833	5.40366E-003	5.26592E-003	5.45799E-004	...........
	7	2.06667	5.35198E-003	5.24097E-003	5.37899E-004	...........
	8	2.325	5.30951E-003	5.24103E-003	5.38366E-004	...........
	9	2.58333	5.27698E-003	5.23221E-003	5.46766E-004	...........
	10	2.84167	5.25485E-003	5.23082E-003	5.42033E-004	...........
	11	3.1	5.24117E-003	5.20169E-003	5.39199E-004	...........
	12	3.35833	5.23114E-003	5.18691E-003	5.42599E-004	...........
	13	3.61667	5.22027E-003	5.19170E-003	5.42533E-004	...........
	14	3.875	5.20833E-003	5.19112E-003	5.33833E-004	...........
	15	4.13333	5.19867E-003	5.19854E-003	5.36499E-004	...........
	16	4.39167	5.19402E-003	5.20794E-003	5.36699E-004	...........
	17	4.65	5.19418E-003	5.18983E-003	5.42599E-004	...........
	18	4.90833	5.19642E-003	5.20111E-003	5.36066E-004	...........
EOC	QUANT	0.0051964	Open Circuit (V)
PSTATMODEL	IQUANT	4	Pstat Model
PSTATSECTION	LABEL	REF600-11020	Pstat Section
PSTATSERIALNO	LABEL	11020	Pstat Serial Number
CTRLMODE	IQUANT	1	Control Mode
IESTAB	IQUANT	0	I/E Stability
CASPEED	IQUANT	1	Control Amp Speed
CONVENTION	IQUANT	1	Current Convention
ICHRANGE	IQUANT	2	Ich Range
ICHRANGEMODE	TOGGLE	F	Ich Auto Range
ICHOFFSETENABLE	TOGGLE	T	Ich Offset Enable
ICHOFFSET	QUANT	0	Ich Offset (V)
ICHFILTER	IQUANT	3	Ich Filter
VCHRANGE	IQUANT	2	Vch Range
VCHRANGEMODE	TOGGLE	F	Vch Auto Range
VCHOFFSETENABLE	TOGGLE	T	Vch Offset Enable
VCHOFFSET	QUANT	0	Vch Offset (V)
VCHFILTER	IQUANT	3	Vch Filter
ACHRANGE	IQUANT	2	Ach Range
ACHOFFSETENABLE	TOGGLE	F	Ach Offset Enable
ACHOFFSET	QUANT	0	Ach Offset (V)
ACHFILTER	IQUANT	3	Ach Filter
IERANGELOWERLIMIT	IQUANT	1	I/E Range Lower Limit
IERANGEMODE	TOGGLE	F	I/E AutoRange
IERANGE	IQUANT	5	I/E Range
POSFEEDENABLE	TOGGLE	F	Positive Feedback IR Comp
POSFEEDRESISTANCE	QUANT	0	Positive Feedback Resistance (ohm)
ACHSELECT	IQUANT	0	Ach Select
CABLEID	IQUANT	14	Cable ID
DCCALDATE	LABEL	8/19/2019	DC Calibration Date
ACCALDATE	LABEL	8/19/2019	AC Calibration Date
THERMOSELECT	IQUANT	1	Thermo Select
FRAMEWORKVERSION	QUANT	6.33	Framework Version
INSTRUMENTVERSION	LABEL	3.50	Instrument Version
ZCURVE	TABLE
	Pt	Time	Freq	Zreal	Zimag	Zsig	Zmod	Zphz	Idc	Vdc	IERange
	#	s	Hz	ohm	ohm	V	ohm	°	A	V	#
	0	1	1000078	2363.333	-1679.213	1	2899.155	-35.39484	3.408122E-007	0.0072158	8
	1	3	794390.6	2701.454	-1608.76	1	3144.195	-30.77449	1.275896E-006	0.0071294	8
	2	4	630984.4	3003.429	-1490.002	1	3352.715	-26.38603	7.534609E-007	0.0067727	8
	3	6	501234.4	3258.982	-1344.988	1	3525.614	-22.42604	-7.647233E-007	0.007162	8
	4	7	398109.4	3461.437	-1181.351	1	3657.476	-18.84422	-2.055005E-006	0.0072792	8
	5	8	316265.6	3615.67	-1025.398	1	3758.259	-15.83325	1.132559E-006	0.006631	8
	6	10	251203.1	3721.719	-866.2825	1	3821.209	-13.10309	3.793352E-006	0.0061167	8
	7	11	199546.9	3822.557	-755.8147	1	3896.562	-11.18454	-9.366796E-008	0.0067779	8
	8	13	158578.1	3866.027	-645.412	1	3919.531	-9.477812	-4.508163E-008	0.0067864	8
	9	14	125953.1	3926.958	-511.8986	1	3960.182	-7.426913	-3.09833E-007	0.0075908	7
	10	16	100078.1	3975.171	-459.7235	1	4001.666	-6.596879	7.398273E-008	0.006654	7
	11	17	79453.13	4009.894	-418.0215	1	4031.624	-5.951447	-7.46118E-009	0.0068444	7
	12	18	63140.62	4039.443	-390.8601	1	4058.309	-5.526784	7.508761E-008	0.0067643	7
	13	20	50203.12	4069.359	-374.0881	1	4086.518	-5.252326	6.231865E-008	0.0066951	7
	14	21	39890.62	4098.516	-366.4775	1	4114.868	-5.109634	7.486565E-008	0.0067548	7
	15	23	31640.63	4126.887	-369.7801	1	4143.421	-5.120181	7.686751E-008	0.0066405	7
	16	24	25171.88	4156.772	-382.4532	1	4174.33	-5.256827	-1.29838E-008	0.0067647	7
	17	25	20015.62	4182.803	-391.1926	1	4201.056	-5.34299	-4.494754E-008	0.0068898	7
	18	27	15890.62	4216.805	-439.1922	1	4239.615	-5.946079	6.112473E-008	0.0066989	7
	19	28	12609.37	4251.09	-485.1555	1	4278.685	-6.51071	1.257992E-007	0.0066039	7
	20	29	10078.13	4285.473	-542.6414	1	4319.691	-7.216584	-1.634521E-008	0.0067718	7
	21	31	8015.625	4317.072	-600.9735	1	4358.701	-7.925133	-7.336234E-008	0.0069079	7
	22	32	6328.125	4368.631	-715.7316	1	4426.874	-9.304352	7.613301E-008	0.0067524	7
	23	33	5015.625	4410.551	-834.8439	1	4488.867	-10.71833	3.953425E-008	0.0066658	7
	24	35	3984.375	4453.853	-996.358	1	4563.938	-12.60984	7.514384E-008	0.0067501	7
	25	36	3170.956	4514.649	-1165.279	1	4662.61	-14.47277	-4.64587E-008	0.0068871	7
	26	37	2527.573	4575.19	-1387.089	1	4780.834	-16.86606	-6.643893E-009	0.0068314	7
	27	39	1976.103	4651.681	-1686.846	1	4948.089	-19.93225	-4.871369E-008	0.0069445	7
	28	40	1577.524	4762.022	-2003.052	1	5166.147	-22.81311	-7.190123E-008	0.0069121	7
	29	41	1265.625	4825.708	-2423.517	1	5400.083	-26.66624	-7.18262E-008	0.0069128	7
	30	43	998.264	4941.696	-2954.539	1	5757.574	-30.87434	-4.287296E-008	0.0068874	7
	31	44	796.875	5068.16	-3572.901	1	6200.957	-35.18269	1.260248E-008	0.0067218	7
	32	45	627.7902	5224.07	-4381.284	1	6818.105	-39.98564	-3.59109E-008	0.0068112	7
	33	47	505.5147	5394.923	-5278.815	1	7547.919	-44.37676	7.62788E-008	0.006636	7
	34	48	397.9953	5619.072	-6507.551	1	8597.802	-49.1904	4.50186E-009	0.0068029	7
	35	49	315.5048	5884.287	-7983.251	1	9917.52	-53.60685	4.14985E-009	0.0068038	7
	36	51	252.4038	6200.207	-9729.6	1	11537.23	-57.4926	7.704923E-010	0.0067412	6
	37	52	198.6229	6623.734	-12043.8	1	13745.07	-61.19051	1.109066E-009	0.0067396	6
	38	54	158.3615	7130.88	-14749.37	1	16382.72	-64.19762	1.333107E-009	0.0067378	6
	39	55	125.558	7806.817	-18155.01	1	19762.36	-66.73186	6.531492E-010	0.0067453	6
	40	56	100.4464	8622.943	-22163.95	1	23782.25	-68.74134	4.609076E-011	0.0067359	6
	41	58	79.00281	9883.9	-27492.26	1	29214.99	-70.22569	1.037446E-009	0.006732	6
	42	59	63.3446	11515.69	-33232.09	1	35170.77	-70.88762	1.951028E-010	0.0067333	6
	43	60	49.86702	13348.42	-41456.74	1	43552.75	-72.15226	6.157821E-010	0.006737	6
	44	62	39.72458	15968.08	-50303.66	1	52777.24	-72.3888	8.578022E-010	0.0067348	6
	45	63	31.6723	19554.97	-61078.01	1	64132.05	-72.24681	5.403238E-010	0.0067334	6
	46	65	24.93351	24353.46	-74736.17	1	78603.98	-71.95132	7.49716E-010	0.0067367	6
	47	66	19.86229	30428.27	-90099.11	1	95098.5	-71.33915	9.906134E-010	0.0067481	6
	48	67	15.83615	38332.7	-109148.2	1	115683.8	-70.6488	2.340889E-009	0.0067408	5
	49	69	12.40079	50332.5	-130338.1	1	139719	-68.885	1.763547E-009	0.0067405	5
	50	70	9.93114	62650.23	-155232.5	1	167398.2	-68.0215	6.599893E-010	0.0067406	5
	51	72	7.944915	78473.52	-181878.8	1	198085.8	-66.66171	-4.262185E-010	0.0067457	5
	52	73	6.317385	100188.3	-213524.4	1	235860.9	-64.86344	-2.660819E-010	0.0067537	5
	53	75	5.008013	126788	-248844.8	1	279282.9	-63.00086	2.067919E-010	0.0067421	5
	54	78	3.945707	159270.5	-288369.6	1	329430	-61.08752	2.360857E-010	0.006749	5
	55	81	3.158693	194419.8	-327203.9	1	380606.7	-59.28183	4.926604E-011	0.006753	5
	56	84	2.504006	237243.5	-370813.1	1	440212.2	-57.38919	-5.456724E-011	0.0067277	5
	57	87	1.998082	281067.6	-417862.8	1	503595.4	-56.07399	-2.347533E-010	0.0067453	5
	58	90	1.584686	332650.8	-467947.3	1	574135.2	-54.59203	-1.712352E-011	0.0067913	5
	59	93	1.266892	381863.7	-524682	1	648930.8	-53.95286	-1.373416E-010	0.006736	5
	60	98	0.999041	439462.7	-591325.2	1	736744.8	-53.38091	3.166864E-010	0.0067686	5
