EXPLAIN
TAG	EISPOT
TITLE	LABEL	Potentiostatic EIS	Test &Identifier
DATE	LABEL	9/26/2019	Date
TIME	LABEL	8:54:16	Time
NOTES	NOTES	2	&Notes...
	
	
PSTAT	PSTAT	REF600-11020	Potentiostat
VDC	POTEN	0.00000E+000	T	DC &Voltage (V)
FREQINIT	QUANT	1.00000E+006	Initial Fre&q. (Hz)
FREQFINAL	QUANT	1.00000E+000	Final Fre&q. (Hz)
PTSPERDEC	QUANT	1.00000E+001	Points/&decade
VAC	QUANT	2.50000E+001	AC &Voltage (mV rms)
AREA	QUANT	1.00000E-002	&Area (cm^2)
CONDIT	TWOPARAM	T	5.00000E+000	0.00000E+000	Conditionin&g	Time(s)	E(V)
DELAY	TWOPARAM	T	5.00000E+000	0.00000E+000	Init. De&lay	Time(s)	Stab.(mV/s)
SPEED	SELECTOR	1	&Optimize for:
ZGUESS	QUANT	1.00000E+004	E&stimated Z (ohms)
OCVCURVE	TABLE	19
	Pt	T	Vf	Vm	Ach	Over
	#	s	V vs. Ref.	V	V	bits
	0	0.258333	3.44856E-002	3.44856E-002	5.67699E-004	...........
	1	0.516667	3.45234E-002	3.64639E-002	5.69599E-004	...........
	2	0.775	3.47538E-002	3.82544E-002	5.69166E-004	...........
	3	1.03333	3.53991E-002	3.99046E-002	5.74366E-004	...........
	4	1.29167	3.65366E-002	4.14422E-002	5.64099E-004	...........
	5	1.55	3.80200E-002	4.28745E-002	5.70499E-004	...........
	6	1.80833	3.96261E-002	4.41884E-002	5.65432E-004	...........
	7	2.06667	4.11967E-002	4.54234E-002	5.63632E-004	...........
	8	2.325	4.26640E-002	4.65750E-002	5.67332E-004	...........
	9	2.58333	4.40175E-002	4.76593E-002	5.71732E-004	...........
	10	2.84167	4.52695E-002	4.86626E-002	5.71966E-004	...........
	11	3.1	4.64344E-002	4.96207E-002	5.69966E-004	...........
	12	3.35833	4.75231E-002	5.05075E-002	5.69199E-004	...........
	13	3.61667	4.85436E-002	5.13577E-002	5.72566E-004	...........
	14	3.875	4.95037E-002	5.22261E-002	5.73132E-004	...........
	15	4.13333	5.04120E-002	5.29046E-002	5.75832E-004	...........
	16	4.39167	5.12721E-002	5.36460E-002	5.71099E-004	...........
	17	4.65	5.20807E-002	5.42472E-002	5.70432E-004	...........
	18	4.90833	5.28352E-002	5.49404E-002	5.71632E-004	...........
EOC	QUANT	0.0528352	Open Circuit (V)
PSTATMODEL	IQUANT	4	Pstat Model
PSTATSECTION	LABEL	REF600-11020	Pstat Section
PSTATSERIALNO	LABEL	11020	Pstat Serial Number
CTRLMODE	IQUANT	1	Control Mode
IESTAB	IQUANT	0	I/E Stability
CASPEED	IQUANT	1	Control Amp Speed
CONVENTION	IQUANT	1	Current Convention
ICHRANGE	IQUANT	2	Ich Range
ICHRANGEMODE	TOGGLE	F	Ich Auto Range
ICHOFFSETENABLE	TOGGLE	T	Ich Offset Enable
ICHOFFSET	QUANT	0	Ich Offset (V)
ICHFILTER	IQUANT	3	Ich Filter
VCHRANGE	IQUANT	2	Vch Range
VCHRANGEMODE	TOGGLE	F	Vch Auto Range
VCHOFFSETENABLE	TOGGLE	T	Vch Offset Enable
VCHOFFSET	QUANT	0	Vch Offset (V)
VCHFILTER	IQUANT	3	Vch Filter
ACHRANGE	IQUANT	2	Ach Range
ACHOFFSETENABLE	TOGGLE	F	Ach Offset Enable
ACHOFFSET	QUANT	0	Ach Offset (V)
ACHFILTER	IQUANT	3	Ach Filter
IERANGELOWERLIMIT	IQUANT	1	I/E Range Lower Limit
IERANGEMODE	TOGGLE	F	I/E AutoRange
IERANGE	IQUANT	6	I/E Range
POSFEEDENABLE	TOGGLE	F	Positive Feedback IR Comp
POSFEEDRESISTANCE	QUANT	0	Positive Feedback Resistance (ohm)
ACHSELECT	IQUANT	0	Ach Select
CABLEID	IQUANT	14	Cable ID
DCCALDATE	LABEL	8/19/2019	DC Calibration Date
ACCALDATE	LABEL	8/19/2019	AC Calibration Date
THERMOSELECT	IQUANT	1	Thermo Select
FRAMEWORKVERSION	QUANT	6.33	Framework Version
INSTRUMENTVERSION	LABEL	3.50	Instrument Version
ZCURVE	TABLE
	Pt	Time	Freq	Zreal	Zimag	Zsig	Zmod	Zphz	Idc	Vdc	IERange
	#	s	Hz	ohm	ohm	V	ohm	°	A	V	#
	0	1	1000078	2269.847	-1876.592	1	2945.132	-39.58219	-4.915311E-006	0.0561324	8
	1	3	794390.6	2642.741	-1882.319	1	3244.565	-35.46075	2.410537E-006	0.0545448	8
	2	4	630984.4	3014.029	-1852.257	1	3537.686	-31.5726	-1.66659E-006	0.0549273	8
	3	6	501234.4	3378.398	-1772.604	1	3815.193	-27.68544	2.101672E-006	0.0540607	8
	4	7	398109.4	3677.749	-1632.951	1	4023.974	-23.94162	-4.05526E-006	0.0551853	8
	5	9	316265.6	3921.776	-1468.14	1	4187.573	-20.52368	5.344798E-006	0.0534249	8
	6	10	251203.1	4140.845	-1325.707	1	4347.884	-17.75266	-4.381295E-007	0.0543085	8
	7	11	199546.9	4317.171	-1168.433	1	4472.494	-15.14416	1.923453E-006	0.0538673	8
	8	13	158578.1	4457.273	-1029.952	1	4574.723	-13.01109	1.884885E-006	0.0538732	8
	9	15	125953.1	4575.879	-853.8212	1	4654.855	-10.56937	-4.257776E-007	0.0548589	7
	10	16	100078.1	4663.951	-756.4763	1	4724.902	-9.21294	-4.896841E-008	0.0543676	7
	11	17	79453.13	4732.865	-691.7029	1	4783.144	-8.314847	-3.407729E-008	0.0543075	7
	12	19	63140.62	4795.107	-640.2596	1	4837.664	-7.60535	1.381196E-007	0.0541003	7
	13	20	50203.12	4849.251	-606.3987	1	4887.02	-7.127835	-4.490223E-008	0.0543318	7
	14	21	39890.62	4901.967	-589.851	1	4937.328	-6.86138	-1.761881E-008	0.0543667	7
	15	23	31640.63	4954.173	-584.5419	1	4988.539	-6.729207	-4.546792E-008	0.0543234	7
	16	24	25171.88	5005.514	-597.0667	1	5040.998	-6.802205	-7.153241E-008	0.0544062	7
	17	25	20015.62	5061.383	-619.5207	1	5099.157	-6.978375	-1.814388E-008	0.054361	7
	18	27	15890.62	5118.275	-658.3652	1	5160.444	-7.329723	-1.168052E-008	0.0543343	7
	19	28	12609.37	5177.121	-709.6064	1	5225.526	-7.804661	-4.194245E-008	0.0543178	7
	20	30	10078.13	5245.009	-778.309	1	5302.441	-8.440551	-5.021774E-009	0.054239	7
	21	31	8015.625	5312.031	-864.1268	1	5381.857	-9.239573	-3.317252E-008	0.0542985	7
	22	32	6328.125	5388.854	-971.206	1	5475.672	-10.21646	8.123371E-008	0.0542604	7
	23	34	5015.625	5468.33	-1105.902	1	5579.037	-11.43316	7.8338E-008	0.0541681	7
	24	35	3984.375	5559.378	-1267.6	1	5702.061	-12.84449	4.719627E-008	0.0541494	7
	25	36	3170.956	5648.466	-1463.035	1	5834.864	-14.52131	-4.340456E-009	0.0543416	7
	26	38	2527.573	5750.007	-1703.906	1	5997.155	-16.50619	-4.389116E-008	0.0543168	7
	27	39	1976.103	5867.426	-2020.823	1	6205.676	-19.00442	-4.537825E-008	0.0543228	7
	28	40	1577.524	5995.125	-2377.859	1	6449.475	-21.63486	-4.40684E-008	0.0543201	7
	29	42	1265.625	6116.46	-2780.362	1	6718.742	-24.44514	8.34382E-008	0.0542616	7
	30	43	998.264	6298.918	-3369.075	1	7143.322	-28.1408	-1.293608E-008	0.0543296	7
	31	45	796.875	6482.952	-4018.984	1	7627.64	-31.79606	-5.859104E-009	0.054426	7
	32	46	627.7902	6700.604	-4860.633	1	8277.913	-35.95721	-4.491369E-008	0.0543139	7
	33	47	505.5147	6920.584	-5799.034	1	9029.024	-39.96099	-1.763181E-008	0.0543601	7
	34	49	397.9953	7218	-7056.199	1	10094.03	-44.35057	4.303284E-010	0.0542497	6
	35	50	315.5048	7542.265	-8574.462	1	11419.6	-48.66451	7.65491E-010	0.0542501	6
	36	51	252.4038	7910.068	-10368.01	1	13040.89	-52.6589	7.679858E-010	0.0542455	6
	37	53	198.6229	8384.493	-12749.87	1	15259.71	-56.67052	2.511304E-010	0.0542469	6
	38	54	158.3615	8934.633	-15526.82	1	17913.96	-60.08249	4.890209E-010	0.0542453	6
	39	55	125.558	9642.34	-19041.64	1	21343.82	-63.14318	-4.601958E-010	0.0542481	6
	40	57	100.4464	10470.23	-23157.95	1	25414.88	-65.67121	-4.383536E-010	0.0542473	6
	41	58	79.00281	11711.94	-28736.68	1	31031.7	-67.82612	4.212274E-010	0.0542414	6
	42	60	63.3446	13462.11	-35091.09	1	37584.74	-69.01152	-9.434784E-010	0.0542451	6
	43	61	49.86702	14738.09	-42948.9	1	45407.26	-71.06013	-1.250863E-009	0.0542447	6
	44	62	39.72458	17501.75	-52401.46	1	55246.93	-71.53101	-3.398086E-010	0.0542505	6
	45	64	31.6723	20827.67	-63508.88	1	66836.89	-71.84315	-6.828208E-010	0.054249	6
	46	65	24.93351	25282.97	-78106.09	1	82096.22	-72.06321	-3.807726E-010	0.0542459	6
	47	67	19.86229	30730.62	-94511.67	1	99382.2	-71.98798	-6.768274E-010	0.0542428	6
	48	68	15.83615	36335.36	-114490.6	1	120118	-72.39235	1.453044E-009	0.054249	5
	49	69	12.40079	49049.57	-140008.2	1	148351.4	-70.69292	1.184228E-009	0.0542446	5
	50	71	9.93114	59156.15	-165931	1	176160.6	-70.37832	-6.512184E-010	0.0542519	5
	51	72	7.944915	72891.09	-197291.5	1	210326	-69.7228	-3.327662E-011	0.0542476	5
	52	74	6.317385	92201.17	-235076.5	1	252511.5	-68.58401	-2.245843E-010	0.0542544	5
	53	76	5.008013	115455.4	-279465.6	1	302375.6	-67.55305	-2.760203E-010	0.0542628	5
	54	79	3.945707	145621.5	-331838.7	1	362384.5	-66.30659	-6.129514E-010	0.0542452	5
	55	81	3.158693	180195.7	-387611.5	1	427449.7	-65.06688	-4.690643E-010	0.0542693	5
	56	85	2.504006	223610.2	-454129	1	506196.3	-63.78466	-6.351003E-010	0.0542418	5
	57	87	1.998082	273395.9	-526772.5	1	593493.6	-62.5706	-8.501556E-010	0.0542602	5
	58	91	1.584686	337054.7	-609561	1	696541.8	-61.05975	-4.104458E-010	0.0543045	5
	59	94	1.266892	407449.8	-698211.8	1	808402.8	-59.7338	-7.04958E-010	0.0542715	5
	60	99	0.999041	495645.8	-803245.7	1	943858.3	-58.32318	-3.529005E-010	0.0542496	5
