EXPLAIN
TAG	EISPOT
TITLE	LABEL	Potentiostatic EIS	Test &Identifier
DATE	LABEL	11/9/2019	Date
TIME	LABEL	11:01:35	Time
NOTES	NOTES	2	&Notes...
	
	
PSTAT	PSTAT	REF600-11020	Potentiostat
VDC	POTEN	0.00000E+000	T	DC &Voltage (V)
FREQINIT	QUANT	1.00000E+006	Initial Fre&q. (Hz)
FREQFINAL	QUANT	1.00000E+000	Final Fre&q. (Hz)
PTSPERDEC	QUANT	1.00000E+001	Points/&decade
VAC	QUANT	2.50000E+001	AC &Voltage (mV rms)
AREA	QUANT	1.00000E-002	&Area (cm^2)
CONDIT	TWOPARAM	T	5.00000E+000	0.00000E+000	Conditionin&g	Time(s)	E(V)
DELAY	TWOPARAM	T	5.00000E+000	0.00000E+000	Init. De&lay	Time(s)	Stab.(mV/s)
SPEED	SELECTOR	0	&Optimize for:
ZGUESS	QUANT	1.00000E+005	E&stimated Z (ohms)
OCVCURVE	TABLE	19
	Pt	T	Vf	Vm	Ach	Over
	#	s	V vs. Ref.	V	V	bits
	0	0.258333	1.50453E-002	1.50453E-002	5.49266E-004	...........
	1	0.516667	1.50578E-002	1.57027E-002	5.46133E-004	...........
	2	0.775	1.51364E-002	1.63992E-002	5.51599E-004	...........
	3	1.03333	1.53617E-002	1.69898E-002	5.53099E-004	...........
	4	1.29167	1.57692E-002	1.76570E-002	5.51299E-004	...........
	5	1.55	1.63165E-002	1.82008E-002	5.50999E-004	...........
	6	1.80833	1.69294E-002	1.88236E-002	5.52733E-004	...........
	7	2.06667	1.75518E-002	1.93321E-002	5.49899E-004	...........
	8	2.325	1.81572E-002	1.99092E-002	5.45766E-004	...........
	9	2.58333	1.87387E-002	2.03957E-002	5.47199E-004	...........
	10	2.84167	1.92977E-002	2.09296E-002	5.48666E-004	...........
	11	3.1	1.98374E-002	2.14022E-002	5.51433E-004	...........
	12	3.35833	2.03604E-002	2.18971E-002	5.54733E-004	...........
	13	3.61667	2.08686E-002	2.23565E-002	5.49699E-004	...........
	14	3.875	2.13632E-002	2.28177E-002	5.51966E-004	...........
	15	4.13333	2.18449E-002	2.32556E-002	5.50933E-004	...........
	16	4.39167	2.23142E-002	2.37029E-002	5.48966E-004	...........
	17	4.65	2.27717E-002	2.41094E-002	5.55499E-004	...........
	18	4.90833	2.32180E-002	2.45435E-002	5.52166E-004	...........
EOC	QUANT	0.023218	Open Circuit (V)
PSTATMODEL	IQUANT	4	Pstat Model
PSTATSECTION	LABEL	REF600-11020	Pstat Section
PSTATSERIALNO	LABEL	11020	Pstat Serial Number
CTRLMODE	IQUANT	1	Control Mode
IESTAB	IQUANT	0	I/E Stability
CASPEED	IQUANT	1	Control Amp Speed
CONVENTION	IQUANT	1	Current Convention
ICHRANGE	IQUANT	2	Ich Range
ICHRANGEMODE	TOGGLE	F	Ich Auto Range
ICHOFFSETENABLE	TOGGLE	T	Ich Offset Enable
ICHOFFSET	QUANT	0	Ich Offset (V)
ICHFILTER	IQUANT	3	Ich Filter
VCHRANGE	IQUANT	2	Vch Range
VCHRANGEMODE	TOGGLE	F	Vch Auto Range
VCHOFFSETENABLE	TOGGLE	T	Vch Offset Enable
VCHOFFSET	QUANT	0	Vch Offset (V)
VCHFILTER	IQUANT	3	Vch Filter
ACHRANGE	IQUANT	2	Ach Range
ACHOFFSETENABLE	TOGGLE	F	Ach Offset Enable
ACHOFFSET	QUANT	0	Ach Offset (V)
ACHFILTER	IQUANT	3	Ach Filter
IERANGELOWERLIMIT	IQUANT	1	I/E Range Lower Limit
IERANGEMODE	TOGGLE	F	I/E AutoRange
IERANGE	IQUANT	5	I/E Range
POSFEEDENABLE	TOGGLE	F	Positive Feedback IR Comp
POSFEEDRESISTANCE	QUANT	0	Positive Feedback Resistance (ohm)
ACHSELECT	IQUANT	0	Ach Select
CABLEID	IQUANT	14	Cable ID
DCCALDATE	LABEL	8/19/2019	DC Calibration Date
ACCALDATE	LABEL	8/19/2019	AC Calibration Date
THERMOSELECT	IQUANT	1	Thermo Select
FRAMEWORKVERSION	QUANT	6.33	Framework Version
INSTRUMENTVERSION	LABEL	3.50	Instrument Version
ZCURVE	TABLE
	Pt	Time	Freq	Zreal	Zimag	Zsig	Zmod	Zphz	Idc	Vdc	IERange
	#	s	Hz	ohm	ohm	V	ohm	°	A	V	#
	0	1	1000078	2322.815	-1484.636	1	2756.74	-32.58484	-3.602209E-006	0.0246438	8
	1	2	794390.6	2587.138	-1488.192	1	2984.627	-29.90868	9.428717E-007	0.0247177	8
	2	2	630984.4	2858.199	-1437.845	1	3199.485	-26.70513	-1.214353E-006	0.0246025	8
	3	2	501234.4	3109.091	-1384.383	1	3403.375	-24.00195	-1.690537E-006	0.0254977	8
	4	2	398109.4	3339.844	-1299.071	1	3583.594	-21.25412	-9.423621E-007	0.02545	8
	5	3	316265.6	3563.508	-1207.879	1	3762.653	-18.72449	2.512786E-006	0.0242546	8
	6	3	251203.1	3738.9	-1119.072	1	3902.78	-16.66271	8.615439E-006	0.0238502	8
	7	3	199546.9	3911.354	-986.349	1	4033.804	-14.15352	-4.680075E-006	0.0255331	8
	8	4	158578.1	3994.273	-886.5801	1	4091.484	-12.51464	-4.357082E-006	0.0255263	8
	9	4	125953.1	4183.921	-747.274	1	4250.131	-10.1266	3.321707E-006	0.0176598	7
	10	4	100078.1	4222.72	-657.3992	1	4273.586	-8.848859	-1.555333E-006	0.0266639	7
	11	5	79453.13	4306.805	-584.7963	1	4346.326	-7.732574	1.24063E-007	0.0230667	7
	12	5	63140.62	4376.716	-539.4949	1	4409.841	-7.027104	1.403758E-006	0.0233193	7
	13	5	50203.12	4423.791	-501.7359	1	4452.152	-6.470701	7.865204E-007	0.0250386	7
	14	6	39890.62	4457.459	-469.0563	1	4482.07	-6.0071	-3.662195E-007	0.0265083	7
	15	6	31640.63	4498.03	-455.2675	1	4521.012	-5.779502	-3.656584E-007	0.0265115	7
	16	6	25171.88	4512.687	-447.0645	1	4534.778	-5.657738	-1.34913E-006	0.0254741	7
	17	7	20015.62	4550.602	-453.5228	1	4573.145	-5.691427	-1.344879E-006	0.0254828	7
	18	7	15890.62	4605.459	-477.0625	1	4630.102	-5.913965	9.724536E-007	0.0225259	7
	19	7	12609.37	4619.319	-532.1959	1	4649.875	-6.572122	-1.13882E-006	0.0269359	7
	20	8	10078.13	4692.142	-581.8865	1	4728.084	-7.069328	1.299167E-006	0.023859	7
	21	8	8015.625	4685.428	-654.87	1	4730.972	-7.956538	-1.126703E-006	0.0269322	7
	22	8	6328.125	4741.289	-757.1236	1	4801.359	-9.072807	1.047619E-007	0.0259984	7
	23	8	5015.625	4795.717	-877.3458	1	4875.309	-10.36725	1.304535E-006	0.0238509	7
	24	9	3984.375	4827.684	-1031.33	1	4936.615	-12.05874	-1.348741E-006	0.0254697	7
	25	9	3170.956	4895.103	-1222.598	1	5045.471	-14.02327	5.06512E-007	0.0254416	7
	26	9	2527.573	4959.759	-1463.759	1	5171.248	-16.44275	9.805422E-007	0.0225271	7
	27	10	1976.103	5027.537	-1776.178	1	5332.067	-19.4578	1.23252E-007	0.0230656	7
	28	10	1577.524	5117.683	-2151.622	1	5551.591	-22.8033	5.077043E-007	0.0254402	7
	29	10	1265.625	5192.813	-2585.006	1	5800.652	-26.46433	-4.196783E-007	0.0237357	7
	30	11	998.264	5338.477	-3139.804	1	6193.359	-30.46174	-1.564672E-006	0.0266377	7
	31	11	796.875	5465.905	-3808.434	1	6661.853	-34.86731	-1.561473E-006	0.0261867	7
	32	11	627.7902	5674.264	-4685.048	1	7358.461	-39.54534	-1.5569E-006	0.026193	7
	33	12	505.5147	5879.742	-5641.882	1	8148.754	-43.81732	-1.382841E-006	0.0268541	7
	34	12	397.9953	6154.854	-6942.177	1	9277.719	-48.44017	1.937902E-010	0.0248201	7
	35	13	315.5048	6492.068	-8486.64	1	10685.04	-52.58491	-1.021618E-009	0.0247527	6
	36	13	252.4038	6881.971	-10306.8	1	12393.21	-56.26849	-2.399629E-009	0.0247502	6
	37	13	198.6229	7403.586	-12705.09	1	14704.84	-59.76953	-9.634715E-010	0.0247534	6
	38	14	158.3615	8030.872	-15486.23	1	17444.72	-62.58958	-3.389793E-010	0.0247493	6
	39	14	125.558	8856.73	-19001.11	1	20963.87	-65.009	-7.730732E-010	0.0247419	6
	40	14	100.4464	9850.5	-23059.7	1	25075.53	-66.86909	1.069876E-009	0.0247511	6
	41	15	79.00281	11343.89	-28344.35	1	30530.08	-68.18788	-7.843952E-010	0.0247463	6
	42	15	63.3446	13153.44	-35297.82	1	37668.94	-69.56251	-1.540429E-009	0.0247487	6
	43	15	49.86702	15391.33	-42962.78	1	45636.54	-70.29005	-1.668101E-009	0.0247372	6
	44	16	39.72458	19023.43	-51392.44	1	54800.31	-69.68746	-4.355246E-010	0.0247454	6
	45	16	31.6723	23203.64	-61729.2	1	65946.21	-69.39906	-1.218118E-010	0.0247421	6
	46	16	24.93351	29320.77	-75093.37	1	80614.65	-68.67146	2.391199E-010	0.024732	6
	47	17	19.86229	36636.93	-89480.77	1	96690.6	-67.73389	-3.117022E-010	0.0247473	6
	48	17	15.83615	45428.77	-103953.2	1	113446.2	-66.39411	-3.560892E-009	0.0247411	5
	49	17	12.40079	59585.44	-126881	1	140175.7	-64.84447	-2.402246E-010	0.0247419	5
	50	18	9.93114	75264.98	-145514	1	163826.6	-62.6504	-1.756728E-010	0.0247459	5
	51	18	7.944915	93862.13	-167527	1	192029.7	-60.73894	-1.172887E-009	0.0247456	5
	52	19	6.317385	114244.2	-192157.1	1	223553.3	-59.26702	-1.625379E-009	0.0247724	5
	53	20	5.008013	140159.7	-218440.8	1	259540.2	-57.31427	-1.02368E-009	0.0247421	5
	54	21	3.945707	169142.3	-247096.3	1	299442.3	-55.60759	-8.431246E-010	0.0247337	5
	55	22	3.158693	199807.5	-275494.2	1	340323.5	-54.04777	-4.958772E-010	0.0247575	5
	56	24	2.504006	233958.6	-307258.6	1	386192.3	-52.71294	-7.634025E-010	0.0247526	5
	57	25	1.998082	268587	-342310.5	1	435103.9	-51.88121	-8.399249E-010	0.024718	5
	58	27	1.584686	305879.6	-381605.5	1	489065.5	-51.28575	-6.042948E-010	0.0247669	5
	59	28	1.266892	344762	-427412.7	1	549128.9	-51.10946	-4.925348E-010	0.0247845	5
	60	31	0.999041	387440.1	-485997	1	621532.7	-51.43792	-4.368068E-010	0.0247768	5
