EXPLAIN
TAG	EISPOT
TITLE	LABEL	Potentiostatic EIS	Test &Identifier
DATE	LABEL	10/16/2019	Date
TIME	LABEL	10:07:53	Time
NOTES	NOTES	1	&Notes...
	
PSTAT	PSTAT	REF600-11020	Potentiostat
VDC	POTEN	0.00000E+000	T	DC &Voltage (V)
FREQINIT	QUANT	1.00000E+006	Initial Fre&q. (Hz)
FREQFINAL	QUANT	1.00000E+000	Final Fre&q. (Hz)
PTSPERDEC	QUANT	1.00000E+001	Points/&decade
VAC	QUANT	2.50000E+001	AC &Voltage (mV rms)
AREA	QUANT	1.00000E-002	&Area (cm^2)
CONDIT	TWOPARAM	T	5.00000E+000	0.00000E+000	Conditionin&g	Time(s)	E(V)
DELAY	TWOPARAM	T	5.00000E+000	0.00000E+000	Init. De&lay	Time(s)	Stab.(mV/s)
SPEED	SELECTOR	0	&Optimize for:
ZGUESS	QUANT	1.00000E+005	E&stimated Z (ohms)
OCVCURVE	TABLE	19
	Pt	T	Vf	Vm	Ach	Over
	#	s	V vs. Ref.	V	V	bits
	0	0.258333	7.71021E-003	7.71021E-003	5.45133E-004	...........
	1	0.516667	7.73013E-003	8.75301E-003	5.46733E-004	...........
	2	0.775	7.82058E-003	8.07283E-003	5.41899E-004	...........
	3	1.03333	7.97220E-003	7.50818E-003	5.40033E-004	...........
	4	1.29167	8.07477E-003	8.49066E-003	5.47733E-004	...........
	5	1.55	8.09746E-003	8.78260E-003	5.41966E-004	...........
	6	1.80833	8.14965E-003	8.17857E-003	5.48299E-004	...........
	7	2.06667	8.26425E-003	8.21635E-003	5.46566E-004	...........
	8	2.325	8.36298E-003	9.24747E-003	5.43933E-004	...........
	9	2.58333	8.45037E-003	8.89458E-003	5.50199E-004	...........
	10	2.84167	8.57636E-003	8.08542E-003	5.45666E-004	...........
	11	3.1	8.67478E-003	8.76869E-003	5.49633E-004	...........
	12	3.35833	8.68186E-003	9.11138E-003	5.42666E-004	...........
	13	3.61667	8.67429E-003	8.69001E-003	5.46866E-004	...........
	14	3.875	8.71862E-003	8.66136E-003	5.47299E-004	...........
	15	4.13333	8.78182E-003	9.57986E-003	5.41033E-004	...........
	16	4.39167	8.85748E-003	9.03200E-003	5.40433E-004	...........
	17	4.65	8.95913E-003	8.58776E-003	5.42466E-004	...........
	18	4.90833	9.01990E-003	8.89442E-003	5.39399E-004	...........
EOC	QUANT	0.0090199	Open Circuit (V)
PSTATMODEL	IQUANT	4	Pstat Model
PSTATSECTION	LABEL	REF600-11020	Pstat Section
PSTATSERIALNO	LABEL	11020	Pstat Serial Number
CTRLMODE	IQUANT	1	Control Mode
IESTAB	IQUANT	0	I/E Stability
CASPEED	IQUANT	1	Control Amp Speed
CONVENTION	IQUANT	1	Current Convention
ICHRANGE	IQUANT	2	Ich Range
ICHRANGEMODE	TOGGLE	F	Ich Auto Range
ICHOFFSETENABLE	TOGGLE	T	Ich Offset Enable
ICHOFFSET	QUANT	0	Ich Offset (V)
ICHFILTER	IQUANT	3	Ich Filter
VCHRANGE	IQUANT	2	Vch Range
VCHRANGEMODE	TOGGLE	F	Vch Auto Range
VCHOFFSETENABLE	TOGGLE	T	Vch Offset Enable
VCHOFFSET	QUANT	0	Vch Offset (V)
VCHFILTER	IQUANT	3	Vch Filter
ACHRANGE	IQUANT	2	Ach Range
ACHOFFSETENABLE	TOGGLE	F	Ach Offset Enable
ACHOFFSET	QUANT	0	Ach Offset (V)
ACHFILTER	IQUANT	3	Ach Filter
IERANGELOWERLIMIT	IQUANT	1	I/E Range Lower Limit
IERANGEMODE	TOGGLE	F	I/E AutoRange
IERANGE	IQUANT	5	I/E Range
POSFEEDENABLE	TOGGLE	F	Positive Feedback IR Comp
POSFEEDRESISTANCE	QUANT	0	Positive Feedback Resistance (ohm)
ACHSELECT	IQUANT	0	Ach Select
CABLEID	IQUANT	14	Cable ID
DCCALDATE	LABEL	8/19/2019	DC Calibration Date
ACCALDATE	LABEL	8/19/2019	AC Calibration Date
THERMOSELECT	IQUANT	1	Thermo Select
FRAMEWORKVERSION	QUANT	6.33	Framework Version
INSTRUMENTVERSION	LABEL	3.50	Instrument Version
ZCURVE	TABLE
	Pt	Time	Freq	Zreal	Zimag	Zsig	Zmod	Zphz	Idc	Vdc	IERange
	#	s	Hz	ohm	ohm	V	ohm	°	A	V	#
	0	1	1000078	2296.361	-1660.809	1	2834.001	-35.87578	-8.755504E-007	0.0111856	8
	1	2	794390.6	2610.144	-1616.73	1	3070.288	-31.77419	4.392727E-006	0.009994	8
	2	2	630984.4	2925.252	-1532.017	1	3302.147	-27.64202	-3.255054E-006	0.0112158	8
	3	2	501234.4	3203.943	-1400.412	1	3496.628	-23.60966	-2.283112E-006	0.0112268	8
	4	2	398109.4	3436.413	-1265.012	1	3661.856	-20.20966	-2.800049E-006	0.0111532	8
	5	3	316265.6	3609.954	-1105.554	1	3775.449	-17.02729	2.915387E-006	0.0100821	8
	6	3	251203.1	3753.891	-971.782	1	3877.636	-14.51373	-3.404209E-007	0.010565	8
	7	3	199546.9	3866.258	-828.5796	1	3954.048	-12.09612	-2.855916E-007	0.0105872	8
	8	4	158578.1	3939.804	-720.7126	1	4005.182	-10.36656	-5.523632E-007	0.0105423	8
	9	4	125953.1	4022.833	-571.5869	1	4063.237	-8.086779	-4.455177E-007	0.01154	7
	10	4	100078.1	4059.374	-491.5867	1	4089.031	-6.904847	3.176194E-009	0.0105098	7
	11	5	79453.13	4097.691	-441.6816	1	4121.426	-6.152041	-2.715761E-008	0.0105644	7
	12	5	63140.62	4130.939	-406.7961	1	4150.92	-5.624095	-4.095099E-009	0.010596	7
	13	5	50203.12	4160.979	-381.3	1	4178.413	-5.235795	-5.302834E-008	0.0106495	7
	14	6	39890.62	4190.008	-368.2932	1	4206.163	-5.023273	-3.569007E-008	0.0105696	7
	15	6	31640.63	4217.181	-365.4187	1	4232.983	-4.952309	-1.895807E-008	0.0105454	7
	16	6	25171.88	4245.099	-373.0294	1	4261.457	-5.02185	7.442343E-008	0.010501	7
	17	7	20015.62	4267.257	-388.501	1	4284.906	-5.202	2.965013E-008	0.0104564	7
	18	7	15890.62	4301.327	-419.1507	1	4321.701	-5.56572	3.084875E-008	0.0104546	7
	19	7	12609.37	4332.238	-460.6298	1	4356.658	-6.069231	-1.753756E-008	0.0105426	7
	20	8	10078.13	4362.186	-512.6247	1	4392.204	-6.702404	-4.458345E-008	0.0106075	7
	21	8	8015.625	4394.777	-592.8762	1	4434.588	-7.683085	5.248137E-008	0.0104732	7
	22	8	6328.125	4432.946	-676.3444	1	4484.245	-8.674845	1.052095E-008	0.0106285	7
	23	8	5015.625	4471.739	-790.3346	1	4541.044	-10.02294	2.941788E-009	0.0105003	7
	24	9	3984.375	4523.019	-919.9808	1	4615.632	-11.49711	9.779849E-008	0.0104141	7
	25	9	3170.956	4568.11	-1108.164	1	4700.602	-13.6358	3.962254E-009	0.0104982	7
	26	9	2527.573	4622.9	-1322.055	1	4808.226	-15.95945	-5.310489E-008	0.0106355	7
	27	10	1976.103	4692.492	-1607.22	1	4960.104	-18.90679	-2.750767E-008	0.0105493	7
	28	10	1577.524	4781.52	-1923.346	1	5153.852	-21.91224	-9.130167E-009	0.0105689	7
	29	10	1265.625	4851.413	-2323.009	1	5378.901	-25.58656	9.960497E-008	0.0104121	7
	30	11	998.264	4960.729	-2836.788	1	5714.561	-29.76303	-2.395371E-008	0.0105952	7
	31	11	796.875	5074.723	-3438.35	1	6129.851	-34.11938	1.052407E-008	0.0106198	7
	32	11	627.7902	5219.501	-4224.128	1	6714.645	-38.98315	-7.57282E-009	0.0105671	7
	33	12	505.5147	5378.817	-5099.187	1	7411.706	-43.47129	-4.12619E-008	0.0105977	7
	34	12	397.9953	5591.193	-6297.108	1	8421.105	-48.39818	2.130361E-009	0.0105703	7
	35	12	315.5048	5845.851	-7736.926	1	9697.11	-52.92611	2.813278E-009	0.0105701	7
	36	13	252.4038	6155.251	-9441.36	1	11270.6	-56.89785	1.04025E-009	0.0105083	6
	37	13	198.6229	6572.47	-11699.37	1	13419.12	-60.67361	5.882793E-010	0.0105053	6
	38	13	158.3615	7083.974	-14332.42	1	15987.53	-63.69856	1.036199E-009	0.0105043	6
	39	14	125.558	7757.774	-17639.93	1	19270.45	-66.26083	7.658406E-010	0.0104996	6
	40	14	100.4464	8598.155	-21504.33	1	23159.54	-68.2068	-6.066692E-010	0.0105	6
	41	14	79.00281	9830.75	-26580.79	1	28340.47	-69.70338	6.262003E-010	0.0104966	6
	42	15	63.3446	11054.5	-32643.52	1	34464.5	-71.29169	2.451108E-010	0.0104966	6
	43	15	49.86702	13075.39	-40009.9	1	42092.26	-71.9024	6.321921E-010	0.0104936	6
	44	15	39.72458	15898.57	-48613.43	1	51147.14	-71.89015	4.940847E-010	0.0105036	6
	45	16	31.6723	19445.79	-58865.27	1	61994.02	-71.71935	8.180385E-010	0.0105019	6
	46	16	24.93351	23903.73	-71983.91	1	75849	-71.6302	-4.072138E-010	0.0104978	6
	47	16	19.86229	29940.64	-86965.02	1	91974.76	-71.00225	-1.131179E-009	0.0105049	6
	48	16	15.83615	37267.05	-103301.3	1	109818	-70.16256	3.978489E-010	0.0105038	5
	49	17	12.40079	47879.8	-127255.8	1	135965.2	-69.38127	-2.037139E-010	0.0105089	5
	50	17	9.93114	60564.78	-149412.3	1	161220.7	-67.93465	-1.075072E-010	0.0105138	5
	51	18	7.944915	76468.64	-175998.3	1	191892.8	-66.51577	3.846244E-010	0.0105068	5
	52	18	6.317385	96755.3	-205709.7	1	227328.2	-64.81011	-3.004412E-010	0.01051	5
	53	19	5.008013	121848	-239577.1	1	268782.7	-63.04228	-3.348914E-010	0.0104982	5
	54	20	3.945707	152747	-276614.8	1	315986.3	-61.09247	3.975927E-011	0.0105097	5
	55	22	3.158693	186731.2	-315227.8	1	366383.8	-59.35881	-2.070969E-010	0.0105164	5
	56	23	2.504006	226070.5	-358147.5	1	423529.8	-57.73898	-2.920085E-010	0.0104985	5
	57	25	1.998082	268501.7	-401846.5	1	483294.8	-56.25035	4.396716E-011	0.0105415	5
	58	26	1.584686	314094.9	-453136.8	1	551351.6	-55.27197	3.865329E-011	0.0105341	5
	59	28	1.266892	360734.8	-507156.7	1	622364.4	-54.57619	-4.953279E-011	0.0104942	5
	60	31	0.999041	413962.6	-573849.2	1	707578.9	-54.19412	-1.016002E-010	0.0104672	5
