EXPLAIN
TAG	EISPOT
TITLE	LABEL	Potentiostatic EIS	Test &Identifier
DATE	LABEL	10/18/2019	Date
TIME	LABEL	9:30:43	Time
NOTES	NOTES	1	&Notes...
	
PSTAT	PSTAT	REF600-11020	Potentiostat
VDC	POTEN	0.00000E+000	T	DC &Voltage (V)
FREQINIT	QUANT	1.00000E+006	Initial Fre&q. (Hz)
FREQFINAL	QUANT	1.00000E+000	Final Fre&q. (Hz)
PTSPERDEC	QUANT	1.00000E+001	Points/&decade
VAC	QUANT	2.50000E+001	AC &Voltage (mV rms)
AREA	QUANT	1.00000E-002	&Area (cm^2)
CONDIT	TWOPARAM	T	5.00000E+000	0.00000E+000	Conditionin&g	Time(s)	E(V)
DELAY	TWOPARAM	T	5.00000E+000	0.00000E+000	Init. De&lay	Time(s)	Stab.(mV/s)
SPEED	SELECTOR	0	&Optimize for:
ZGUESS	QUANT	1.00000E+005	E&stimated Z (ohms)
OCVCURVE	TABLE	19
	Pt	T	Vf	Vm	Ach	Over
	#	s	V vs. Ref.	V	V	bits
	0	0.258333	2.34455E-003	2.34455E-003	5.31566E-004	...........
	1	0.516667	2.32871E-003	1.51538E-003	5.30700E-004	...........
	2	0.775	2.23411E-003	8.69290E-004	5.31400E-004	...........
	3	1.03333	1.99109E-003	1.07085E-003	5.29233E-004	...........
	4	1.29167	1.64020E-003	1.17235E-003	5.29899E-004	...........
	5	1.55	1.32420E-003	8.78401E-004	5.30933E-004	...........
	6	1.80833	1.12489E-003	7.20570E-004	5.30366E-004	...........
	7	2.06667	1.00173E-003	6.71505E-004	5.40966E-004	...........
	8	2.325	8.94453E-004	6.73567E-004	5.34733E-004	...........
	9	2.58333	7.93517E-004	5.70761E-004	5.38999E-004	...........
	10	2.84167	7.09282E-004	4.58310E-004	5.37033E-004	...........
	11	3.1	6.35330E-004	3.53691E-004	5.32266E-004	...........
	12	3.35833	5.56446E-004	2.75164E-004	5.38099E-004	...........
	13	3.61667	4.68060E-004	2.03037E-004	5.33566E-004	...........
	14	3.875	3.77059E-004	1.38265E-004	5.37633E-004	...........
	15	4.13333	2.91402E-004	6.91199E-005	5.28900E-004	...........
	16	4.39167	2.13579E-004	-8.77262E-006	5.27400E-004	...........
	17	4.65	1.40723E-004	-9.39927E-005	5.26466E-004	...........
	18	4.90833	6.79006E-005	-1.80336E-004	5.28266E-004	...........
EOC	QUANT	6.790062E-005	Open Circuit (V)
PSTATMODEL	IQUANT	4	Pstat Model
PSTATSECTION	LABEL	REF600-11020	Pstat Section
PSTATSERIALNO	LABEL	11020	Pstat Serial Number
CTRLMODE	IQUANT	1	Control Mode
IESTAB	IQUANT	0	I/E Stability
CASPEED	IQUANT	1	Control Amp Speed
CONVENTION	IQUANT	1	Current Convention
ICHRANGE	IQUANT	2	Ich Range
ICHRANGEMODE	TOGGLE	F	Ich Auto Range
ICHOFFSETENABLE	TOGGLE	T	Ich Offset Enable
ICHOFFSET	QUANT	0	Ich Offset (V)
ICHFILTER	IQUANT	3	Ich Filter
VCHRANGE	IQUANT	2	Vch Range
VCHRANGEMODE	TOGGLE	F	Vch Auto Range
VCHOFFSETENABLE	TOGGLE	T	Vch Offset Enable
VCHOFFSET	QUANT	0	Vch Offset (V)
VCHFILTER	IQUANT	3	Vch Filter
ACHRANGE	IQUANT	2	Ach Range
ACHOFFSETENABLE	TOGGLE	F	Ach Offset Enable
ACHOFFSET	QUANT	0	Ach Offset (V)
ACHFILTER	IQUANT	3	Ach Filter
IERANGELOWERLIMIT	IQUANT	1	I/E Range Lower Limit
IERANGEMODE	TOGGLE	F	I/E AutoRange
IERANGE	IQUANT	3	I/E Range
POSFEEDENABLE	TOGGLE	F	Positive Feedback IR Comp
POSFEEDRESISTANCE	QUANT	0	Positive Feedback Resistance (ohm)
ACHSELECT	IQUANT	0	Ach Select
CABLEID	IQUANT	14	Cable ID
DCCALDATE	LABEL	8/19/2019	DC Calibration Date
ACCALDATE	LABEL	8/19/2019	AC Calibration Date
THERMOSELECT	IQUANT	1	Thermo Select
FRAMEWORKVERSION	QUANT	6.33	Framework Version
INSTRUMENTVERSION	LABEL	3.50	Instrument Version
ZCURVE	TABLE
	Pt	Time	Freq	Zreal	Zimag	Zsig	Zmod	Zphz	Idc	Vdc	IERange
	#	s	Hz	ohm	ohm	V	ohm	°	A	V	#
	0	1	1000078	2362.948	-843.4648	1	2508.975	-19.64425	6.609885E-007	0.0022124	8
	1	2	794390.6	2495.05	-781.9618	1	2614.716	-17.40126	3.689286E-006	0.0011149	8
	2	2	630984.4	2595.78	-700.7552	1	2688.705	-15.1074	-1.631155E-007	0.0017714	8
	3	2	501234.4	2682.851	-617.3606	1	2752.966	-12.95895	1.107725E-006	0.0016611	8
	4	3	398109.4	2741.561	-527.2556	1	2791.801	-10.88618	9.142782E-007	0.0016104	8
	5	3	316265.6	2814.094	-465.6678	1	2852.363	-9.395987	-8.53928E-007	0.0019547	8
	6	3	251203.1	2866.052	-420.6701	1	2896.759	-8.350073	-2.849435E-006	0.0023445	8
	7	4	199546.9	2898.68	-351.5372	1	2919.919	-6.914773	-2.741625E-006	0.0023292	8
	8	4	158578.1	2927.798	-319.8239	1	2945.214	-6.234101	7.53972E-007	0.0015037	8
	9	4	125953.1	2986.909	-228.3176	1	2995.623	-4.371157	6.926263E-007	-3.852769E-005	7
	10	5	100078.1	2992.66	-205.3019	1	2999.694	-3.924444	-6.111851E-008	0.0016906	7
	11	5	79453.13	3009.709	-193.7896	1	3015.942	-3.684083	8.158379E-008	0.0015257	7
	12	5	63140.62	3026.584	-186.1796	1	3032.305	-3.520102	3.016801E-009	0.0016842	7
	13	6	50203.12	3042.765	-182.0124	1	3048.204	-3.423244	-6.031993E-008	0.0017665	7
	14	6	39890.62	3058.845	-181.6215	1	3064.233	-3.397995	3.646594E-009	0.0015204	7
	15	6	31640.63	3073.062	-184.8061	1	3078.613	-3.441478	-3.732306E-008	0.0016652	7
	16	7	25171.88	3087.087	-194.0552	1	3093.18	-3.596897	-7.909665E-009	0.0015986	7
	17	7	20015.62	3099.161	-203.8084	1	3105.855	-3.762494	2.663652E-009	0.0015341	7
	18	7	15890.62	3115.715	-228.2338	1	3124.063	-4.189575	4.193529E-009	0.0016777	7
	19	7	12609.37	3129.998	-257.6497	1	3140.584	-4.705764	-5.827748E-008	0.0016453	7
	20	8	10078.13	3145.654	-293.0733	1	3159.277	-5.32275	3.793468E-009	0.0016799	7
	21	8	8015.625	3166.125	-340.4239	1	3184.374	-6.136904	-6.085128E-008	0.0017631	7
	22	8	6328.125	3183.621	-400.4576	1	3208.708	-7.169401	-6.541904E-008	0.0016915	7
	23	9	5015.625	3204.921	-474.9622	1	3239.924	-8.429751	-2.381814E-008	0.0016438	7
	24	9	3984.375	3226.854	-569.7554	1	3276.768	-10.01333	-7.995649E-009	0.0016957	7
	25	9	3170.956	3257.79	-677.783	1	3327.549	-11.75273	-2.515187E-009	0.001523	7
	26	10	2527.573	3289.236	-815.9641	1	3388.933	-13.93218	-5.254387E-008	0.001747	7
	27	10	1976.103	3329.459	-1000.171	1	3476.441	-16.72029	-3.528686E-008	0.0016424	7
	28	10	1577.524	3404.466	-1204.344	1	3611.209	-19.48145	-9.778685E-009	0.0016215	7
	29	11	1265.625	3423.119	-1456.136	1	3719.956	-23.04407	-9.495815E-009	0.0016194	7
	30	11	998.264	3488.285	-1786.381	1	3919.093	-27.11738	3.945945E-008	0.0014468	7
	31	11	796.875	3561.616	-2173.646	1	4172.511	-31.39562	-3.687236E-009	0.0015236	7
	32	12	627.7902	3653.423	-2676.824	1	4529.116	-36.22984	3.476957E-008	0.001542	7
	33	12	505.5147	3755.066	-3242.601	1	4961.349	-40.8115	6.725681E-008	0.0014685	7
	34	12	397.9953	3899.642	-4007.763	1	5591.902	-45.78339	2.864442E-009	0.001594	7
	35	13	315.5048	4073.441	-4926.501	1	6392.443	-50.41461	4.78275E-009	0.0015901	7
	36	13	252.4038	4283.688	-6008.421	1	7379.1	-54.51313	3.802996E-009	0.0015913	7
	37	13	198.6229	4576.69	-7438.41	1	8733.615	-58.39693	3.650639E-009	0.0015908	7
	38	14	158.3615	4935.285	-9096.836	1	10349.37	-61.51895	1.59513E-009	0.0015305	6
	39	14	125.558	5411.862	-11176.42	1	12417.76	-64.16275	4.168089E-010	0.0015332	6
	40	14	100.4464	5997.235	-13589.37	1	14853.88	-66.18726	4.542003E-010	0.0015296	6
	41	14	79.00281	6845.042	-16741.27	1	18086.59	-67.76171	1.62627E-011	0.0015264	6
	42	15	63.3446	8024.534	-20464.83	1	21981.87	-68.5892	1.307519E-010	0.0015263	6
	43	15	49.86702	9389.584	-25068.78	1	26769.54	-69.46642	-2.854986E-010	0.0015204	6
	44	16	39.72458	11141.53	-30187.58	1	32178	-69.74207	2.419062E-010	0.0015241	6
	45	16	31.6723	13372.5	-36344.35	1	38726.41	-69.79947	-1.291778E-010	0.0015225	6
	46	16	24.93351	16636.16	-44281.48	1	47303.39	-69.40925	-2.249494E-010	0.0015184	6
	47	17	19.86229	20512.39	-52944.23	1	56778.96	-68.82195	-1.1446E-009	0.001524	6
	48	17	15.83615	25047.89	-63356.79	1	68128.4	-68.4288	-4.261471E-010	0.0015205	6
	49	17	12.40079	31924.75	-76247.35	1	82661.05	-67.28094	6.439417E-010	0.0015267	6
	50	18	9.93114	40161.54	-88613.05	1	97289.4	-65.61884	9.254095E-010	0.0015268	6
	51	18	7.944915	49356.82	-103333.8	1	114516.2	-64.46879	1.053544E-009	0.0015216	5
	52	19	6.317385	60717.84	-120494.7	1	134928.2	-63.25625	1.465564E-009	0.0015125	5
	53	19	5.008013	74964.09	-140160	1	158947.9	-61.86006	6.515786E-010	0.0015223	5
	54	21	3.945707	91370.23	-162497.7	1	186424.3	-60.65155	5.068994E-010	0.0015312	5
	55	22	3.158693	109733.9	-185611	1	215622.3	-59.40828	-1.764025E-010	0.001527	5
	56	24	2.504006	131195.7	-212185	1	249468.9	-58.27117	1.998722E-010	0.0015223	5
	57	25	1.998082	154256.8	-241439.4	1	286510.3	-57.42529	4.053863E-010	0.0015611	5
	58	26	1.584686	180425.2	-274351.7	1	328362.8	-56.6694	1.308903E-010	0.001512	5
	59	28	1.266892	209115	-311424.6	1	375119.1	-56.11949	1.49226E-011	0.0014837	5
	60	31	0.999041	241699.9	-357388.7	1	431445.9	-55.92974	-4.680775E-011	0.0014835	5
