EXPLAIN
TAG	EISPOT
TITLE	LABEL	Potentiostatic EIS	Test &Identifier
DATE	LABEL	10/28/2019	Date
TIME	LABEL	9:21:32	Time
NOTES	NOTES	1	&Notes...
	
PSTAT	PSTAT	REF600-11020	Potentiostat
VDC	POTEN	0.00000E+000	T	DC &Voltage (V)
FREQINIT	QUANT	1.00000E+006	Initial Fre&q. (Hz)
FREQFINAL	QUANT	1.00000E+000	Final Fre&q. (Hz)
PTSPERDEC	QUANT	1.00000E+001	Points/&decade
VAC	QUANT	2.50000E+001	AC &Voltage (mV rms)
AREA	QUANT	1.00000E-002	&Area (cm^2)
CONDIT	TWOPARAM	T	5.00000E+000	0.00000E+000	Conditionin&g	Time(s)	E(V)
DELAY	TWOPARAM	T	5.00000E+000	0.00000E+000	Init. De&lay	Time(s)	Stab.(mV/s)
SPEED	SELECTOR	1	&Optimize for:
ZGUESS	QUANT	1.00000E+005	E&stimated Z (ohms)
OCVCURVE	TABLE	19
	Pt	T	Vf	Vm	Ach	Over
	#	s	V vs. Ref.	V	V	bits
	0	0.258333	7.15638E-003	7.15638E-003	5.23333E-004	...........
	1	0.516667	7.15927E-003	7.30777E-003	5.34333E-004	...........
	2	0.775	7.17528E-003	7.35980E-003	5.27433E-004	...........
	3	1.03333	7.21547E-003	7.44649E-003	5.24300E-004	...........
	4	1.29167	7.27915E-003	7.52706E-003	5.21866E-004	...........
	5	1.55	7.35607E-003	7.60665E-003	5.28733E-004	...........
	6	1.80833	7.43785E-003	7.70815E-003	5.26900E-004	...........
	7	2.06667	7.52373E-003	7.89363E-003	5.22733E-004	...........
	8	2.325	7.61664E-003	7.80191E-003	5.22433E-004	...........
	9	2.58333	7.70994E-003	7.92233E-003	5.26533E-004	...........
	10	2.84167	7.78965E-003	7.97147E-003	5.35233E-004	...........
	11	3.1	7.85573E-003	8.14472E-003	5.25833E-004	...........
	12	3.35833	7.92468E-003	8.21939E-003	5.32733E-004	...........
	13	3.61667	8.00872E-003	8.28644E-003	5.37599E-004	...........
	14	3.875	8.10280E-003	8.34465E-003	5.34333E-004	...........
	15	4.13333	8.19512E-003	8.50816E-003	5.28366E-004	...........
	16	4.39167	8.28379E-003	8.55765E-003	5.30499E-004	...........
	17	4.65	8.37248E-003	8.56866E-003	5.36099E-004	...........
	18	4.90833	8.45735E-003	8.70563E-003	5.33266E-004	...........
EOC	QUANT	0.0084574	Open Circuit (V)
PSTATMODEL	IQUANT	4	Pstat Model
PSTATSECTION	LABEL	REF600-11020	Pstat Section
PSTATSERIALNO	LABEL	11020	Pstat Serial Number
CTRLMODE	IQUANT	1	Control Mode
IESTAB	IQUANT	0	I/E Stability
CASPEED	IQUANT	1	Control Amp Speed
CONVENTION	IQUANT	1	Current Convention
ICHRANGE	IQUANT	2	Ich Range
ICHRANGEMODE	TOGGLE	F	Ich Auto Range
ICHOFFSETENABLE	TOGGLE	T	Ich Offset Enable
ICHOFFSET	QUANT	0	Ich Offset (V)
ICHFILTER	IQUANT	3	Ich Filter
VCHRANGE	IQUANT	2	Vch Range
VCHRANGEMODE	TOGGLE	F	Vch Auto Range
VCHOFFSETENABLE	TOGGLE	T	Vch Offset Enable
VCHOFFSET	QUANT	0	Vch Offset (V)
VCHFILTER	IQUANT	3	Vch Filter
ACHRANGE	IQUANT	2	Ach Range
ACHOFFSETENABLE	TOGGLE	F	Ach Offset Enable
ACHOFFSET	QUANT	0	Ach Offset (V)
ACHFILTER	IQUANT	3	Ach Filter
IERANGELOWERLIMIT	IQUANT	1	I/E Range Lower Limit
IERANGEMODE	TOGGLE	F	I/E AutoRange
IERANGE	IQUANT	5	I/E Range
POSFEEDENABLE	TOGGLE	F	Positive Feedback IR Comp
POSFEEDRESISTANCE	QUANT	0	Positive Feedback Resistance (ohm)
ACHSELECT	IQUANT	0	Ach Select
CABLEID	IQUANT	14	Cable ID
DCCALDATE	LABEL	8/19/2019	DC Calibration Date
ACCALDATE	LABEL	8/19/2019	AC Calibration Date
THERMOSELECT	IQUANT	1	Thermo Select
FRAMEWORKVERSION	QUANT	6.33	Framework Version
INSTRUMENTVERSION	LABEL	3.50	Instrument Version
ZCURVE	TABLE
	Pt	Time	Freq	Zreal	Zimag	Zsig	Zmod	Zphz	Idc	Vdc	IERange
	#	s	Hz	ohm	ohm	V	ohm	°	A	V	#
	0	2	1000078	2303.359	-1335.535	1	2662.539	-30.10604	6.792549E-006	0.0095469	8
	1	3	794390.6	2568.163	-1252.496	1	2857.308	-25.99855	-7.848295E-006	0.0116951	8
	2	5	630984.4	2787.309	-1147.812	1	3014.393	-22.38182	1.914104E-006	0.0102733	8
	3	6	501234.4	2950.092	-1017.563	1	3120.653	-19.03064	6.039739E-007	0.0097747	8
	4	7	398109.4	3094.859	-899.1577	1	3222.831	-16.20031	4.987685E-007	0.009778	8
	5	9	316265.6	3218.281	-773.2202	1	3309.865	-13.50975	5.149964E-007	0.0097634	8
	6	10	251203.1	3298.537	-675.7954	1	3367.052	-11.57838	1.465064E-006	0.0097881	8
	7	12	199546.9	3368.537	-580.1757	1	3418.135	-9.77239	2.756817E-006	0.0094584	8
	8	13	158578.1	3431.092	-537.506	1	3472.938	-8.903446	-3.249962E-006	0.0106993	8
	9	15	125953.1	3480.252	-382.4377	1	3501.202	-6.270954	-7.8652E-007	0.0116959	7
	10	16	100078.1	3509.37	-351.3445	1	3526.914	-5.71718	-2.057298E-009	0.0101305	7
	11	17	79453.13	3536.324	-329.2307	1	3551.617	-5.318888	-1.722659E-008	0.0100437	7
	12	19	63140.62	3564.075	-315.812	1	3578.04	-5.063743	-1.526536E-008	0.0100384	7
	13	20	50203.12	3590.672	-308.9422	1	3603.938	-4.917631	-3.960697E-009	0.0099388	7
	14	21	39890.62	3617.017	-309.7092	1	3630.253	-4.894046	-4.941534E-008	0.0100543	7
	15	23	31640.63	3645.138	-318.0364	1	3658.986	-4.986399	-3.048088E-009	0.0099342	7
	16	24	25171.88	3672.919	-332.8961	1	3687.975	-5.178869	-5.601543E-009	0.0100367	7
	17	25	20015.62	3702.359	-353.4707	1	3719.194	-5.453599	1.32338E-008	0.0099179	7
	18	27	15890.62	3734.641	-387.7804	1	3754.719	-5.927971	4.210493E-008	0.0099451	7
	19	28	12609.37	3766.854	-431.7345	1	3791.514	-6.538373	1.366835E-007	0.0097959	7
	20	30	10078.13	3802.49	-479.0571	1	3832.548	-7.180583	-2.579181E-008	0.0100664	7
	21	31	8015.625	3839.069	-543.076	1	3877.29	-8.051659	4.136106E-008	0.009942	7
	22	32	6328.125	3878.367	-627.6007	1	3928.819	-9.191972	-5.104684E-008	0.0100317	7
	23	34	5015.625	3920.219	-728.3533	1	3987.306	-10.5252	-6.708964E-008	0.0100897	7
	24	35	3984.375	3974.736	-862.0791	1	4067.15	-12.23732	8.621097E-008	0.009939	7
	25	36	3170.956	4017.169	-1008.143	1	4141.739	-14.08793	1.361647E-007	0.0097987	7
	26	38	2527.573	4075.313	-1195.759	1	4247.119	-16.3525	1.33307E-008	0.0099283	7
	27	39	1976.103	4147.741	-1446.405	1	4392.703	-19.22474	-2.695915E-008	0.0100699	7
	28	40	1577.524	4195.359	-1683.894	1	4520.679	-21.86907	-2.833746E-008	0.0100675	7
	29	42	1265.625	4304.526	-2067.151	1	4775.15	-25.65159	4.733222E-008	0.00984	7
	30	43	998.264	4410.442	-2510.513	1	5074.907	-29.64941	4.505915E-008	0.0098438	7
	31	45	796.875	4522.796	-3028.685	1	5443.218	-33.8082	-7.104173E-008	0.0101081	7
	32	46	627.7902	4659.005	-3702.177	1	5950.835	-38.47165	-1.448542E-008	0.0100515	7
	33	47	505.5147	4802.818	-4450.579	1	6547.879	-42.82003	8.96422E-008	0.0099451	7
	34	49	397.9953	4991.731	-5476.635	1	7410.19	-47.6521	6.302108E-009	0.0100172	7
	35	50	315.5048	5209.77	-6711.793	1	8496.462	-52.18098	4.878739E-009	0.0100143	7
	36	51	252.4038	5466.286	-8175.663	1	9834.72	-56.23313	5.891359E-009	0.0100093	7
	37	53	198.6229	5808.92	-10121.45	1	11669.94	-60.14756	8.95117E-010	0.00995	6
	38	54	158.3615	6219.885	-12398.13	1	13870.86	-63.35803	1.398071E-009	0.0099455	6
	39	55	125.558	6752.842	-15268.82	1	16695.44	-66.14194	7.800783E-010	0.0099459	6
	40	57	100.4464	7418.673	-18687.4	1	20106.11	-68.34752	1.439806E-009	0.00994	6
	41	58	79.00281	8325.064	-23117.86	1	24571.16	-70.19534	1.480757E-009	0.0099435	6
	42	60	63.3446	9608.92	-27936.23	1	29542.58	-71.01888	-2.710995E-011	0.0099434	6
	43	61	49.86702	11262.62	-35115.31	1	36877.25	-72.21726	1.143194E-009	0.0099415	6
	44	62	39.72458	13272.42	-42720.93	1	44735.16	-72.74117	6.978225E-010	0.009947	6
	45	64	31.6723	15902.54	-51874.36	1	54257.17	-72.95662	-9.122934E-011	0.0099423	6
	46	65	24.93351	20024.23	-63812	1	66880.05	-72.57812	7.379843E-010	0.0099413	6
	47	67	19.86229	25032.18	-77278.45	1	81231.57	-72.05173	-1.291764E-010	0.0099447	6
	48	68	15.83615	31580.42	-93388.38	1	98583.5	-71.31641	1.309598E-009	0.0099411	6
	49	69	12.40079	41861.2	-112463.3	1	120001.5	-69.58368	-6.719839E-010	0.009953	5
	50	71	9.93114	52400.44	-133683.2	1	143586.2	-68.59607	1.555836E-010	0.009949	5
	51	72	7.944915	66199.14	-157388.6	1	170744	-67.18791	3.378725E-010	0.0099523	5
	52	74	6.317385	83996.38	-184152.6	1	202404.5	-65.48114	-2.924778E-010	0.0099636	5
	53	76	5.008013	105496.3	-214464	1	239006.8	-63.80711	-1.690438E-010	0.00994	5
	54	79	3.945707	131348.8	-248591.3	1	281158.6	-62.14925	3.787468E-010	0.0099524	5
	55	81	3.158693	159010.2	-284209.9	1	325667.8	-60.77379	-1.753801E-010	0.0099325	5
	56	85	2.504006	190961.5	-325342.9	1	377245.7	-59.589	4.572481E-010	0.0099488	5
	57	87	1.998082	225137	-370249.8	1	433326.2	-58.69757	2.440864E-010	0.0099687	5
	58	90	1.584686	263632.9	-421974.5	1	497558.8	-58.0045	7.820929E-011	0.0099059	5
	59	94	1.266892	304029.4	-482660.4	1	570434.1	-57.79304	1.632312E-010	0.0099684	5
	60	98	0.999041	351817.3	-557425.9	1	659165.4	-57.74207	-2.182475E-010	0.0099099	5
