EXPLAIN
TAG	EISPOT
TITLE	LABEL	Potentiostatic EIS	Test &Identifier
DATE	LABEL	11/5/2019	Date
TIME	LABEL	9:36:54	Time
NOTES	NOTES	2	&Notes...
	
	
PSTAT	PSTAT	REF600-11020	Potentiostat
VDC	POTEN	0.00000E+000	T	DC &Voltage (V)
FREQINIT	QUANT	1.00000E+006	Initial Fre&q. (Hz)
FREQFINAL	QUANT	1.00000E+000	Final Fre&q. (Hz)
PTSPERDEC	QUANT	1.00000E+001	Points/&decade
VAC	QUANT	2.50000E+001	AC &Voltage (mV rms)
AREA	QUANT	1.00000E-002	&Area (cm^2)
CONDIT	TWOPARAM	T	5.00000E+000	0.00000E+000	Conditionin&g	Time(s)	E(V)
DELAY	TWOPARAM	T	5.00000E+000	0.00000E+000	Init. De&lay	Time(s)	Stab.(mV/s)
SPEED	SELECTOR	1	&Optimize for:
ZGUESS	QUANT	1.00000E+005	E&stimated Z (ohms)
OCVCURVE	TABLE	19
	Pt	T	Vf	Vm	Ach	Over
	#	s	V vs. Ref.	V	V	bits
	0	0.258333	6.13129E-003	6.13129E-003	5.71332E-004	...........
	1	0.516667	6.12710E-003	5.91201E-003	5.74799E-004	...........
	2	0.775	6.10190E-003	5.73137E-003	5.70632E-004	...........
	3	1.03333	6.03271E-003	5.57775E-003	5.72966E-004	...........
	4	1.29167	5.91420E-003	5.44619E-003	5.71432E-004	...........
	5	1.55	5.76622E-003	5.34933E-003	5.75165E-004	...........
	6	1.80833	5.61566E-003	5.23648E-003	5.70666E-004	...........
	7	2.06667	5.48278E-003	5.35065E-003	5.69399E-004	...........
	8	2.325	5.38630E-003	5.42068E-003	5.72366E-004	...........
	9	2.58333	5.33792E-003	5.17626E-003	5.72699E-004	...........
	10	2.84167	5.31631E-003	5.03758E-003	5.73666E-004	...........
	11	3.1	5.27093E-003	4.72606E-003	5.69632E-004	...........
	12	3.35833	5.16856E-003	4.78501E-003	5.73399E-004	...........
	13	3.61667	5.02956E-003	4.92400E-003	5.74532E-004	...........
	14	3.875	4.91510E-003	4.97795E-003	5.73799E-004	...........
	15	4.13333	4.85167E-003	3.97214E-003	5.70599E-004	...........
	16	4.39167	4.77771E-003	4.40172E-003	5.76032E-004	...........
	17	4.65	4.62452E-003	3.69476E-003	5.73132E-004	...........
	18	4.90833	4.40944E-003	4.14563E-003	5.73432E-004	...........
EOC	QUANT	0.0044094	Open Circuit (V)
PSTATMODEL	IQUANT	4	Pstat Model
PSTATSECTION	LABEL	REF600-11020	Pstat Section
PSTATSERIALNO	LABEL	11020	Pstat Serial Number
CTRLMODE	IQUANT	1	Control Mode
IESTAB	IQUANT	0	I/E Stability
CASPEED	IQUANT	1	Control Amp Speed
CONVENTION	IQUANT	1	Current Convention
ICHRANGE	IQUANT	2	Ich Range
ICHRANGEMODE	TOGGLE	F	Ich Auto Range
ICHOFFSETENABLE	TOGGLE	T	Ich Offset Enable
ICHOFFSET	QUANT	0	Ich Offset (V)
ICHFILTER	IQUANT	3	Ich Filter
VCHRANGE	IQUANT	2	Vch Range
VCHRANGEMODE	TOGGLE	F	Vch Auto Range
VCHOFFSETENABLE	TOGGLE	T	Vch Offset Enable
VCHOFFSET	QUANT	0	Vch Offset (V)
VCHFILTER	IQUANT	3	Vch Filter
ACHRANGE	IQUANT	2	Ach Range
ACHOFFSETENABLE	TOGGLE	F	Ach Offset Enable
ACHOFFSET	QUANT	0	Ach Offset (V)
ACHFILTER	IQUANT	3	Ach Filter
IERANGELOWERLIMIT	IQUANT	1	I/E Range Lower Limit
IERANGEMODE	TOGGLE	F	I/E AutoRange
IERANGE	IQUANT	4	I/E Range
POSFEEDENABLE	TOGGLE	F	Positive Feedback IR Comp
POSFEEDRESISTANCE	QUANT	0	Positive Feedback Resistance (ohm)
ACHSELECT	IQUANT	0	Ach Select
CABLEID	IQUANT	14	Cable ID
DCCALDATE	LABEL	8/19/2019	DC Calibration Date
ACCALDATE	LABEL	8/19/2019	AC Calibration Date
THERMOSELECT	IQUANT	1	Thermo Select
FRAMEWORKVERSION	QUANT	6.33	Framework Version
INSTRUMENTVERSION	LABEL	3.50	Instrument Version
ZCURVE	TABLE
	Pt	Time	Freq	Zreal	Zimag	Zsig	Zmod	Zphz	Idc	Vdc	IERange
	#	s	Hz	ohm	ohm	V	ohm	°	A	V	#
	0	1	1000078	2410.904	-1909.246	1	3075.334	-38.37645	9.403037E-006	0.0055476	8
	1	2	794390.6	2799.777	-1893.655	1	3380.041	-34.07282	-8.605742E-006	0.0072099	8
	2	4	630984.4	3157.347	-1813.038	1	3640.872	-29.86566	7.481338E-007	0.0068463	8
	3	5	501234.4	3470.503	-1683.701	1	3857.362	-25.88016	-1.456051E-007	0.0057763	8
	4	7	398109.4	3747.525	-1545.453	1	4053.686	-22.41091	8.069864E-006	0.0052359	8
	5	8	316265.6	3975.88	-1420.313	1	4221.956	-19.65837	-3.31213E-006	0.0059537	8
	6	9	251203.1	4153.819	-1284.121	1	4347.779	-17.1786	-6.529499E-006	0.0070142	8
	7	11	199546.9	4298.166	-1148.085	1	4448.857	-14.95516	-6.418564E-006	0.0070067	8
	8	12	158578.1	4409.138	-1061.41	1	4535.095	-13.53525	-8.732808E-007	0.0065212	8
	9	13	125953.1	4553.316	-918.8275	1	4645.098	-11.40868	-3.243924E-006	0.008651	7
	10	15	100078.1	4638.411	-866.5851	1	4718.668	-10.58246	-1.438352E-006	0.0076929	7
	11	16	79453.13	4723.108	-862.9711	1	4801.298	-10.35444	-1.059548E-006	0.0079609	7
	12	17	63140.62	4807.441	-867.1613	1	4885.024	-10.225	-3.336306E-007	0.0049569	7
	13	19	50203.12	4898.606	-889.7076	1	4978.747	-10.29411	6.982459E-007	0.0062644	7
	14	20	39890.62	4989.274	-929.5724	1	5075.132	-10.554	1.164025E-006	0.0040174	7
	15	21	31640.63	5079.846	-981.865	1	5173.867	-10.9396	-7.415722E-007	0.0078705	7
	16	23	25171.88	5181.726	-1059.541	1	5288.942	-11.55634	-1.28832E-006	0.0078661	7
	17	24	20015.62	5295.285	-1150.383	1	5418.802	-12.25686	4.354054E-007	0.0066407	7
	18	26	15890.62	5421.976	-1265.911	1	5567.796	-13.14188	-3.349043E-007	0.004963	7
	19	27	12609.37	5556.953	-1393.047	1	5728.901	-14.0732	-1.293274E-006	0.0078742	7
	20	28	10078.13	5711.382	-1561.722	1	5921.052	-15.29314	6.297186E-008	0.0071436	7
	21	30	8015.625	5883.782	-1746.26	1	6137.452	-16.53047	6.833645E-008	0.0071408	7
	22	31	6328.125	6086.527	-1975.626	1	6399.133	-17.98292	1.282104E-006	0.0042849	7
	23	33	5015.625	6295.606	-2227.636	1	6678.1	-19.48581	-1.059203E-006	0.0079494	7
	24	34	3984.375	6554.424	-2520.569	1	7022.375	-21.03474	1.613524E-007	0.004356	7
	25	36	3170.956	6827.399	-2859.617	1	7402.08	-22.72609	6.940355E-008	0.007133	7
	26	37	2527.573	7149.815	-3242.289	1	7850.624	-24.39328	7.042981E-007	0.0062551	7
	27	39	1976.103	7552.841	-3718.756	1	8418.703	-26.21403	1.181904E-006	0.0051904	7
	28	40	1577.524	7951.854	-4181.597	1	8984.306	-27.73829	1.531133E-007	0.0043555	7
	29	41	1265.625	8396.402	-4705.005	1	9624.79	-29.26451	1.159826E-006	0.0040058	7
	30	43	998.264	8892.668	-5342.316	1	10374	-30.99556	9.635554E-007	0.0057672	7
	31	44	796.875	9404.991	-6013.939	1	11163.39	-32.59653	-1.28646E-006	0.0078695	7
	32	46	627.7902	9958.18	-6867.858	1	12096.81	-34.59286	-3.512065E-007	0.0075875	7
	33	47	505.5147	10461.37	-7802.255	1	13050.49	-36.71616	1.813222E-007	0.0026951	6
	34	48	397.9953	11020.45	-9050.133	1	14260.27	-39.39328	-2.024957E-010	0.0059499	6
	35	50	315.5048	11560.27	-10578.07	1	15669.57	-42.45966	1.741281E-009	0.0059472	6
	36	51	252.4038	12095.71	-12412.17	1	17331.13	-45.7398	-2.31155E-010	0.0059424	6
	37	53	198.6229	12703.71	-14898.51	1	19579.32	-49.54633	1.711125E-011	0.0059517	6
	38	54	158.3615	13349.2	-17853.58	1	22292.41	-53.21438	-4.6066E-010	0.0059487	6
	39	55	125.558	14127.34	-21663.38	1	25862.79	-56.89042	4.517151E-010	0.0059509	6
	40	57	100.4464	15045.03	-26156.62	1	30174.85	-60.09291	1.139957E-009	0.0059477	6
	41	58	79.00281	16339.98	-32304.45	1	36201.83	-63.16917	1.558273E-010	0.0059423	6
	42	59	63.3446	17367.02	-39564.43	1	43208.3	-66.30067	7.398588E-010	0.0059372	6
	43	61	49.86702	19829.01	-47956.3	1	51894.09	-67.53584	1.26264E-010	0.0059514	6
	44	62	39.72458	22311.28	-58930.59	1	63012.76	-69.2632	8.833932E-010	0.005945	6
	45	64	31.6723	25548.1	-72087.59	1	76480.89	-70.48549	-3.02436E-010	0.0059519	6
	46	65	24.93351	30067.46	-88522.88	1	93489.84	-71.23956	-2.79073E-010	0.0059477	6
	47	66	19.86229	35874.38	-107445.5	1	113276.3	-71.53664	3.7277E-010	0.0059354	5
	48	68	15.83615	42251.7	-128928.1	1	135674.8	-71.85523	1.645666E-009	0.0059516	5
	49	69	12.40079	53874.64	-158114.5	1	167040.9	-71.18439	1.085811E-009	0.0059505	5
	50	71	9.93114	66030.3	-191756.5	1	202806.7	-70.99913	5.511957E-010	0.0059457	5
	51	72	7.944915	82833.05	-229710.2	1	244188.6	-70.17079	-1.862296E-010	0.005957	5
	52	74	6.317385	101638.3	-274786	1	292980.7	-69.70148	1.591248E-010	0.0059734	5
	53	76	5.008013	127653.7	-328702.1	1	352619.6	-68.77598	1.240236E-010	0.0059506	5
	54	78	3.945707	162031	-393146.5	1	425227.2	-67.60153	2.612375E-010	0.005961	5
	55	81	3.158693	202203.3	-461713.2	1	504048.9	-66.3494	4.125243E-011	0.0059437	5
	56	85	2.504006	253176.2	-543752.8	1	599804.4	-65.03289	2.359338E-010	0.0059564	5
	57	87	1.998082	314752	-632168.2	1	706190.8	-63.53161	4.221136E-010	0.0059424	5
	58	90	1.584686	390921.5	-734241.6	1	831823.6	-61.96848	3.837358E-011	0.0058994	5
	59	94	1.266892	476165.4	-839957.7	1	965537	-60.45144	2.293854E-010	0.0059223	5
	60	98	0.999041	581915.6	-963611	1	1125688	-58.87263	4.917237E-011	0.0059641	4
