EXPLAIN
TAG	EISPOT
TITLE	LABEL	Potentiostatic EIS	Test &Identifier
DATE	LABEL	11/12/2019	Date
TIME	LABEL	23:37:23	Time
NOTES	NOTES	3	&Notes...
	
	
	
PSTAT	PSTAT	REF600-11020	Potentiostat
VDC	POTEN	0.00000E+000	T	DC &Voltage (V)
FREQINIT	QUANT	1.00000E+006	Initial Fre&q. (Hz)
FREQFINAL	QUANT	1.00000E+000	Final Fre&q. (Hz)
PTSPERDEC	QUANT	1.00000E+001	Points/&decade
VAC	QUANT	2.50000E+001	AC &Voltage (mV rms)
AREA	QUANT	1.00000E-002	&Area (cm^2)
CONDIT	TWOPARAM	T	5.00000E+000	0.00000E+000	Conditionin&g	Time(s)	E(V)
DELAY	TWOPARAM	T	5.00000E+000	0.00000E+000	Init. De&lay	Time(s)	Stab.(mV/s)
SPEED	SELECTOR	1	&Optimize for:
ZGUESS	QUANT	1.00000E+005	E&stimated Z (ohms)
OCVCURVE	TABLE	19
	Pt	T	Vf	Vm	Ach	Over
	#	s	V vs. Ref.	V	V	bits
	0	0.258333	3.45234E-003	3.45234E-003	5.36733E-004	...........
	1	0.516667	3.44708E-003	3.17698E-003	5.34200E-004	...........
	2	0.775	3.41536E-003	2.94616E-003	5.35933E-004	...........
	3	1.03333	3.32854E-003	2.77792E-003	5.32066E-004	...........
	4	1.29167	3.18087E-003	2.59023E-003	5.30400E-004	...........
	5	1.55	2.99523E-003	2.36815E-003	5.40333E-004	...........
	6	1.80833	2.79620E-003	2.17380E-003	5.36466E-004	...........
	7	2.06667	2.59467E-003	1.99875E-003	5.41133E-004	...........
	8	2.325	2.39566E-003	1.84821E-003	5.46199E-004	...........
	9	2.58333	2.20544E-003	1.70556E-003	5.42199E-004	...........
	10	2.84167	2.02962E-003	1.57888E-003	5.45633E-004	...........
	11	3.1	1.86517E-003	1.19341E-003	5.39299E-004	...........
	12	3.35833	1.69627E-003	1.16302E-003	5.37833E-004	...........
	13	3.61667	1.51533E-003	1.10616E-003	5.35000E-004	...........
	14	3.875	1.34578E-003	1.15000E-003	5.37833E-004	...........
	15	4.13333	1.22688E-003	1.37168E-003	5.37633E-004	...........
	16	4.39167	1.17947E-003	1.10435E-003	5.35433E-004	...........
	17	4.65	1.17668E-003	8.37368E-004	5.41366E-004	...........
	18	4.90833	1.14971E-003	6.27916E-004	5.38933E-004	...........
EOC	QUANT	0.0011497	Open Circuit (V)
PSTATMODEL	IQUANT	4	Pstat Model
PSTATSECTION	LABEL	REF600-11020	Pstat Section
PSTATSERIALNO	LABEL	11020	Pstat Serial Number
CTRLMODE	IQUANT	1	Control Mode
IESTAB	IQUANT	0	I/E Stability
CASPEED	IQUANT	1	Control Amp Speed
CONVENTION	IQUANT	1	Current Convention
ICHRANGE	IQUANT	2	Ich Range
ICHRANGEMODE	TOGGLE	F	Ich Auto Range
ICHOFFSETENABLE	TOGGLE	T	Ich Offset Enable
ICHOFFSET	QUANT	0	Ich Offset (V)
ICHFILTER	IQUANT	3	Ich Filter
VCHRANGE	IQUANT	2	Vch Range
VCHRANGEMODE	TOGGLE	F	Vch Auto Range
VCHOFFSETENABLE	TOGGLE	T	Vch Offset Enable
VCHOFFSET	QUANT	0	Vch Offset (V)
VCHFILTER	IQUANT	3	Vch Filter
ACHRANGE	IQUANT	2	Ach Range
ACHOFFSETENABLE	TOGGLE	F	Ach Offset Enable
ACHOFFSET	QUANT	0	Ach Offset (V)
ACHFILTER	IQUANT	3	Ach Filter
IERANGELOWERLIMIT	IQUANT	1	I/E Range Lower Limit
IERANGEMODE	TOGGLE	F	I/E AutoRange
IERANGE	IQUANT	4	I/E Range
POSFEEDENABLE	TOGGLE	F	Positive Feedback IR Comp
POSFEEDRESISTANCE	QUANT	0	Positive Feedback Resistance (ohm)
ACHSELECT	IQUANT	0	Ach Select
CABLEID	IQUANT	14	Cable ID
DCCALDATE	LABEL	8/19/2019	DC Calibration Date
ACCALDATE	LABEL	8/19/2019	AC Calibration Date
THERMOSELECT	IQUANT	1	Thermo Select
FRAMEWORKVERSION	QUANT	6.33	Framework Version
INSTRUMENTVERSION	LABEL	3.50	Instrument Version
ZCURVE	TABLE
	Pt	Time	Freq	Zreal	Zimag	Zsig	Zmod	Zphz	Idc	Vdc	IERange
	#	s	Hz	ohm	ohm	V	ohm	°	A	V	#
	0	1	1000078	2092.756	-1839.11	1	2786.028	-41.30893	6.448621E-006	0.0025198	8
	1	3	794390.6	2458.678	-1869.707	1	3088.835	-37.25124	-4.751833E-006	0.0033523	8
	2	4	630984.4	2839.126	-1836.596	1	3381.379	-32.89833	-1.524939E-006	0.0028968	8
	3	6	501234.4	3192.445	-1731.996	1	3632.013	-28.48115	-4.07058E-007	0.0026165	8
	4	7	398109.4	3499	-1588.987	1	3842.9	-24.42404	2.084234E-006	0.002373	8
	5	9	316265.6	3756.94	-1425.796	1	4018.394	-20.78225	-3.434733E-006	0.003333	8
	6	10	251203.1	3961.456	-1263.122	1	4157.958	-17.68503	1.056638E-007	0.0025239	8
	7	11	199546.9	4123.164	-1099.891	1	4267.346	-14.93636	-5.135189E-006	0.0035546	8
	8	13	158578.1	4225.417	-960.93	1	4333.306	-12.81211	5.320399E-006	0.0021692	8
	9	14	125953.1	4367.916	-796.0513	1	4439.863	-10.32878	-1.643862E-006	0.0058777	7
	10	15	100078.1	4429.743	-693.1523	1	4483.646	-8.893347	5.902914E-008	0.0036881	7
	11	17	79453.13	4492.009	-618.806	1	4534.431	-7.843532	7.340993E-007	0.0011079	7
	12	18	63140.62	4543.385	-562.7818	1	4578.107	-7.061169	7.341711E-007	0.0011041	7
	13	19	50203.12	4582.346	-523.2937	1	4612.128	-6.514828	-2.791654E-007	0.0040386	7
	14	21	39890.62	4625.709	-496.6226	1	4652.292	-6.127882	5.687861E-007	0.0029672	7
	15	22	31640.63	4665.377	-484.5177	1	4690.469	-5.929136	7.774442E-007	0.0025718	7
	16	24	25171.88	4694.162	-484.872	1	4719.138	-5.897314	-2.824252E-007	0.0019619	7
	17	25	20015.62	4741.543	-503.4632	1	4768.197	-6.06103	1.124114E-007	0.0014702	7
	18	26	15890.62	4760.917	-530.5065	1	4790.382	-6.35821	-1.026333E-006	0.0042765	7
	19	28	12609.37	4802.574	-578.8665	1	4837.334	-6.872851	-2.772479E-007	0.0040372	7
	20	29	10078.13	4831.737	-637.6374	1	4873.63	-7.517799	-1.027672E-006	0.0042731	7
	21	30	8015.625	4886.647	-739.15	1	4942.233	-8.601307	7.352963E-007	0.0011004	7
	22	32	6328.125	4912.32	-844.7071	1	4984.417	-9.75698	-1.14571E-006	0.0041156	7
	23	33	5015.625	4958.659	-991.143	1	5056.744	-11.30339	-1.027102E-006	0.0042792	7
	24	35	3984.375	5008.625	-1164.186	1	5142.146	-13.08527	-5.854806E-007	0.0042589	7
	25	36	3170.956	5070.409	-1397.432	1	5259.455	-15.4085	-1.027003E-006	0.0042805	7
	26	37	2527.573	5143.686	-1674.413	1	5409.359	-18.03151	-6.74799E-007	0.0026077	7
	27	39	1976.103	5239.885	-2049.147	1	5626.313	-21.35884	7.369559E-007	0.0010966	7
	28	40	1577.524	5344.211	-2479.23	1	5891.279	-24.88703	-1.026181E-006	0.0042732	7
	29	41	1265.625	5449.074	-2953.815	1	6198.18	-28.46108	-1.024299E-006	0.0042703	7
	30	43	998.264	5599.344	-3606.632	1	6660.364	-32.78627	-2.765402E-007	0.0040347	7
	31	44	796.875	5762.625	-4354.143	1	7222.632	-37.07408	-1.144995E-006	0.0041118	7
	32	46	627.7902	5973.86	-5348.494	1	8018.316	-41.8386	1.031945E-006	0.0017044	7
	33	47	505.5147	6187.494	-6427.908	1	8922.056	-46.09176	5.699334E-007	0.0029592	7
	34	48	397.9953	6478.187	-7900.532	1	10216.91	-50.64933	6.24826E-009	0.0027855	7
	35	50	315.5048	6815.064	-9670.98	1	11831.01	-54.82793	3.22E-010	0.0027237	6
	36	51	252.4038	7202.211	-11766.91	1	13796.09	-58.53032	5.802844E-010	0.0027183	6
	37	53	198.6229	7718.488	-14547.02	1	16467.88	-62.05008	6.01369E-010	0.0027231	6
	38	54	158.3615	8331.015	-17795.92	1	19649.44	-64.91374	6.017556E-010	0.00272	6
	39	55	125.558	9143.915	-21897.77	1	23730.22	-67.33591	8.52121E-010	0.0027188	6
	40	57	100.4464	10137.41	-26722	1	28580.28	-69.22498	1.254474E-009	0.0027204	6
	41	58	79.00281	11619.51	-33070.62	1	35052.52	-70.64084	1.391144E-009	0.0027092	6
	42	59	63.3446	13101.76	-40057.59	1	42145.78	-71.88847	6.258584E-011	0.0027176	6
	43	61	49.86702	16105.57	-49648.67	1	52195.59	-72.02742	7.693159E-010	0.0027011	6
	44	62	39.72458	19160.39	-60671.46	1	63625.04	-72.47359	9.916106E-010	0.0027114	6
	45	64	31.6723	23423.78	-73730.15	1	77361.54	-72.37515	6.92288E-010	0.0027019	6
	46	65	24.93351	29742.86	-90359.71	1	95128.9	-71.78049	9.474909E-010	0.0026999	6
	47	67	19.86229	37469.29	-108740	1	115014.5	-70.98724	-7.45132E-011	0.0027114	5
	48	68	15.83615	46765.56	-130867.4	1	138972.3	-70.33562	1.966809E-009	0.0027032	5
	49	69	12.40079	62586.11	-157437.8	1	169421.7	-68.32074	3.798742E-010	0.0027111	5
	50	71	9.93114	79576.3	-184845.2	1	201246.5	-66.70801	-1.517602E-010	0.0027137	5
	51	72	7.944915	100567.5	-215068.2	1	237419.8	-64.93886	1.26571E-009	0.002715	5
	52	74	6.317385	126696.4	-250321.8	1	280558.3	-63.15447	9.833512E-011	0.0027265	5
	53	76	5.008013	158295.6	-288488.3	1	329063.8	-61.24611	5.250625E-010	0.0027078	5
	54	79	3.945707	195438.3	-330853.6	1	384265.8	-59.42926	4.951122E-010	0.0027056	5
	55	81	3.158693	234703.8	-374010.1	1	441553.4	-57.89036	7.201616E-011	0.0027048	5
	56	85	2.504006	280192.2	-423159.5	1	507515.1	-56.48973	4.441119E-010	0.0027051	5
	57	87	1.998082	328430.1	-475806.3	1	578150.5	-55.38423	1.737896E-011	0.0027464	5
	58	91	1.584686	380754.1	-537596.4	1	658774.3	-54.69186	2.490948E-010	0.0027138	5
	59	94	1.266892	439487.9	-606145.9	1	748707.3	-54.0559	1.270907E-010	0.0027597	5
	60	99	0.999041	505357.8	-690167.1	1	855404.6	-53.78747	2.3304E-011	0.0026821	5
