EXPLAIN
TAG	EISPOT
TITLE	LABEL	Potentiostatic IDE	Test &Identifier
DATE	LABEL	9/4/2019	Date
TIME	LABEL	11:40:48	Time
NOTES	NOTES	1	&Notes...
	
PSTAT	PSTAT	REF600-11020	Potentiostat
VDC	POTEN	0.00000E+000	T	DC &Voltage (V)
FREQINIT	QUANT	1.00000E+006	Initial Fre&q. (Hz)
FREQFINAL	QUANT	1.00000E+000	Final Fre&q. (Hz)
PTSPERDEC	QUANT	1.00000E+001	Points/&decade
VAC	QUANT	2.50000E+001	AC &Voltage (mV rms)
AREA	QUANT	1.00000E-002	&Area (cm^2)
CONDIT	TWOPARAM	T	5.00000E+000	0.00000E+000	Conditionin&g	Time(s)	E(V)
DELAY	TWOPARAM	T	5.00000E+000	0.00000E+000	Init. De&lay	Time(s)	Stab.(mV/s)
SPEED	SELECTOR	1	&Optimize for:
ZGUESS	QUANT	1.00000E+007	E&stimated Z (ohms)
OCVCURVE	TABLE	18
	Pt	T	Vf	Vm	Ach	Over
	#	s	V vs. Ref.	V	V	bits
	0	0.258333	8.52410E-002	8.52410E-002	5.70366E-004	...........
	1	0.516667	8.52988E-002	8.82626E-002	5.68066E-004	...........
	2	0.775	8.56305E-002	8.99393E-002	5.77399E-004	...........
	3	1.03333	8.65006E-002	9.19108E-002	5.73732E-004	...........
	4	1.29167	8.79438E-002	9.39206E-002	5.74532E-004	...........
	5	1.55	8.97602E-002	9.60715E-002	5.77066E-004	...........
	6	1.80833	9.17459E-002	9.80743E-002	5.75932E-004	...........
	7	2.06667	9.37888E-002	9.98722E-002	5.75299E-004	...........
	8	2.325	9.58193E-002	1.01543E-001	5.73432E-004	...........
	9	2.58333	9.77768E-002	1.03163E-001	5.80099E-004	...........
	10	2.84167	9.96234E-002	1.04718E-001	5.76999E-004	...........
	11	3.1	1.01356E-001	1.06175E-001	5.76232E-004	...........
	12	3.35833	1.02988E-001	1.07517E-001	5.72799E-004	...........
	13	3.61667	1.04531E-001	1.08794E-001	5.78266E-004	...........
	14	3.875	1.05986E-001	1.10010E-001	5.74799E-004	...........
	15	4.13333	1.07357E-001	1.11227E-001	5.77032E-004	...........
	16	4.39167	1.08659E-001	1.12465E-001	5.79032E-004	...........
	17	4.65	1.09913E-001	1.13646E-001	5.82365E-004	...........
EOC	QUANT	0.1111313	Open Circuit (V)
PSTATMODEL	IQUANT	4	Pstat Model
PSTATSECTION	LABEL	REF600-11020	Pstat Section
PSTATSERIALNO	LABEL	11020	Pstat Serial Number
CTRLMODE	IQUANT	1	Control Mode
IESTAB	IQUANT	0	I/E Stability
CASPEED	IQUANT	1	Control Amp Speed
CONVENTION	IQUANT	1	Current Convention
ICHRANGE	IQUANT	2	Ich Range
ICHRANGEMODE	TOGGLE	F	Ich Auto Range
ICHOFFSETENABLE	TOGGLE	T	Ich Offset Enable
ICHOFFSET	QUANT	0	Ich Offset (V)
ICHFILTER	IQUANT	3	Ich Filter
VCHRANGE	IQUANT	2	Vch Range
VCHRANGEMODE	TOGGLE	F	Vch Auto Range
VCHOFFSETENABLE	TOGGLE	T	Vch Offset Enable
VCHOFFSET	QUANT	0	Vch Offset (V)
VCHFILTER	IQUANT	3	Vch Filter
ACHRANGE	IQUANT	2	Ach Range
ACHOFFSETENABLE	TOGGLE	F	Ach Offset Enable
ACHOFFSET	QUANT	0	Ach Offset (V)
ACHFILTER	IQUANT	3	Ach Filter
IERANGELOWERLIMIT	IQUANT	1	I/E Range Lower Limit
IERANGEMODE	TOGGLE	F	I/E AutoRange
IERANGE	IQUANT	4	I/E Range
POSFEEDENABLE	TOGGLE	F	Positive Feedback IR Comp
POSFEEDRESISTANCE	QUANT	0	Positive Feedback Resistance (ohm)
ACHSELECT	IQUANT	0	Ach Select
CABLEID	IQUANT	14	Cable ID
DCCALDATE	LABEL	8/19/2019	DC Calibration Date
ACCALDATE	LABEL	8/19/2019	AC Calibration Date
THERMOSELECT	IQUANT	1	Thermo Select
FRAMEWORKVERSION	QUANT	6.33	Framework Version
INSTRUMENTVERSION	LABEL	3.50	Instrument Version
ZCURVE	TABLE
	Pt	Time	Freq	Zreal	Zimag	Zsig	Zmod	Zphz	Idc	Vdc	IERange
	#	s	Hz	ohm	ohm	V	ohm	°	A	V	#
	0	2	1000078	2438.195	-1683.003	1	2962.65	-34.616	1.384182E-005	0.1126815	8
	1	3	794390.6	2742.461	-1594.894	1	3172.504	-30.18038	9.732319E-006	0.1128521	8
	2	5	630984.4	3023.567	-1469.614	1	3361.803	-25.92222	1.391835E-005	0.1120506	8
	3	6	501234.4	3236.136	-1345.893	1	3504.854	-22.58219	1.314239E-005	0.11197	8
	4	8	398109.4	3415.994	-1206.966	1	3622.952	-19.45974	1.232522E-005	0.1121255	8
	5	9	316265.6	3548.46	-1081.175	1	3709.516	-16.94537	1.362477E-005	0.1120451	8
	6	11	251203.1	3668.777	-991.584	1	3800.416	-15.12434	1.225846E-005	0.1121945	8
	7	12	199546.9	3762.715	-905.8107	1	3870.209	-13.53545	1.407875E-005	0.1118222	8
	8	14	158578.1	3835.022	-849.7426	1	3928.034	-12.49343	1.236194E-005	0.1121146	8
	9	16	125953.1	3925.412	-824.2879	1	4011.023	-11.8591	9.065406E-007	0.1124536	7
	10	17	100078.1	3993.173	-810.3958	1	4074.576	-11.47211	1.119722E-006	0.1125432	7
	11	18	79453.13	4054.41	-836.1597	1	4139.735	-11.653	1.112676E-006	0.1125737	7
	12	20	63140.62	4124.015	-881.6771	1	4217.209	-12.06765	1.110197E-006	0.1125184	7
	13	21	50203.12	4198.728	-951.054	1	4305.092	-12.76271	1.118148E-006	0.1125341	7
	14	22	39890.62	4277.321	-1042.969	1	4402.642	-13.70342	1.109974E-006	0.1125801	7
	15	24	31640.63	4369.247	-1168.517	1	4522.803	-14.97284	1.125346E-006	0.1125335	7
	16	25	25171.88	4469.738	-1320.202	1	4660.632	-16.45527	1.125474E-006	0.1125308	7
	17	26	20015.62	4584.393	-1508.563	1	4826.222	-18.21456	1.13175E-006	0.1124646	7
	18	28	15890.62	4716.794	-1734.875	1	5025.728	-20.19392	1.159698E-006	0.112416	7
	19	29	12609.37	4872.336	-2006.399	1	5269.279	-22.38157	1.127323E-006	0.112491	7
	20	30	10078.13	5044.807	-2320.386	1	5552.861	-24.70032	1.099036E-006	0.1125487	7
	21	32	8015.625	5247.779	-2696.726	1	5900.128	-27.1977	1.132368E-006	0.1124592	7
	22	33	6328.125	5490.494	-3168.391	1	6339.103	-29.98789	1.109599E-006	0.11251	7
	23	35	5015.625	5769.802	-3711.313	1	6860.354	-32.75036	1.144164E-006	0.1124956	7
	24	36	3984.375	6087.19	-4348.151	1	7480.662	-35.53866	1.10861E-006	0.1125965	7
	25	37	3170.956	6485.283	-5083.994	1	8240.503	-38.09388	1.107016E-006	0.1125007	7
	26	39	2527.573	6894.401	-5968.315	1	9118.857	-40.88194	1.122634E-006	0.1125142	7
	27	40	1976.103	7458.041	-7088.586	1	10289.33	-43.54512	1.098025E-006	0.1125289	7
	28	41	1577.524	8056.609	-8307.841	1	11572.78	-45.87955	1.10922E-006	0.112521	7
	29	43	1265.625	8742.572	-9699.23	1	13057.86	-47.96953	1.176784E-006	0.112442	7
	30	44	998.264	9613.94	-11489.46	1	14981.17	-50.07871	1.11631E-007	0.1123611	6
	31	45	796.875	10614.07	-13466.35	1	17146.46	-51.75509	1.134837E-007	0.1123503	6
	32	47	627.7902	11833.79	-15966.79	1	19874.03	-53.45601	1.074095E-007	0.1125288	6
	33	48	505.5147	13143.13	-18637.24	1	22805.45	-54.8082	1.197934E-007	0.1123152	6
	34	49	397.9953	14861.91	-22057.87	1	26597.47	-56.02913	1.122963E-007	0.112102	6
	35	51	315.5048	16840.73	-25998.88	1	30976.63	-57.06692	1.121994E-007	0.112099	6
	36	52	252.4038	19081.51	-30433.27	1	35920.57	-57.91249	1.12616E-007	0.1121026	6
	37	53	198.6229	21924.01	-36038.84	1	42183.65	-58.68601	1.121132E-007	0.1121043	6
	38	55	158.3615	25117.88	-42248.28	1	49151.04	-59.26723	1.12545E-007	0.1120945	6
	39	56	125.558	28974.18	-49718.62	1	57545.15	-59.76795	1.124199E-007	0.1121016	6
	40	57	100.4464	33278.52	-58127.82	1	66979.88	-60.20861	1.126541E-007	0.1121013	6
	41	59	79.00281	38984.88	-68745.46	1	79030.12	-60.44285	1.12477E-007	0.1120968	6
	42	60	63.3446	45533.78	-79303.8	1	91446.26	-60.1369	1.12206E-007	0.1120966	6
	43	62	49.86702	52239.69	-95125.1	1	108525.5	-61.22581	1.127525E-007	0.1120993	6
	44	63	39.72458	60652.12	-110331.2	1	125903.4	-61.20119	1.122545E-007	0.1121041	6
	45	64	31.6723	70380.72	-129305.2	1	147218.4	-61.44057	1.119099E-008	0.1121087	5
	46	66	24.93351	81807.3	-152359.9	1	172933.5	-61.76712	1.120625E-008	0.1121074	5
	47	67	19.86229	94448.33	-178480.5	1	201930.2	-62.11311	1.125083E-008	0.1121025	5
	48	68	15.83615	111259.7	-209342	1	237071.3	-62.01055	1.206863E-008	0.1121067	5
	49	70	12.40079	128279.8	-248880.6	1	279995.1	-62.7322	1.130908E-008	0.1121065	5
	50	71	9.93114	147496.9	-292143.8	1	327266.5	-63.21181	1.1381E-008	0.1121056	5
	51	73	7.944915	169724	-342228.7	1	382003.6	-63.62146	1.141281E-008	0.1121069	5
	52	74	6.317385	197142.3	-404833.5	1	450283.5	-64.03525	1.130047E-008	0.1121227	5
	53	76	5.008013	229493.5	-480405.3	1	532406.3	-64.46582	1.142159E-008	0.1121159	5
	54	79	3.945707	269896.8	-573566.1	1	633894.6	-64.80024	1.132603E-008	0.1120983	5
	55	81	3.158693	314916.9	-679228.6	1	748681.6	-65.12572	1.124858E-007	0.1120917	6
	56	85	2.504006	372526.7	-806105.9	1	888021.9	-65.19687	1.122741E-008	0.112394	5
	57	88	1.998082	439396	-952463	1	1048930	-65.23489	1.127261E-008	0.1123816	5
	58	91	1.584686	528435.7	-1132593	1	1249805	-64.98759	1.118843E-008	0.1123368	5
	59	95	1.266892	630019.9	-1335319	1	1476483	-64.74148	1.132542E-009	0.1123764	4
	60	99	0.999041	765156.1	-1589981	1	1764512	-64.30147	1.01272E-009	0.1123711	4
