EXPLAIN
TAG	EISPOT
TITLE	LABEL	Potentiostatic EIS	Test &Identifier
DATE	LABEL	10/14/2019	Date
TIME	LABEL	11:48:39	Time
NOTES	NOTES	1	&Notes...
	
PSTAT	PSTAT	REF600-11020	Potentiostat
VDC	POTEN	0.00000E+000	T	DC &Voltage (V)
FREQINIT	QUANT	1.00000E+006	Initial Fre&q. (Hz)
FREQFINAL	QUANT	1.00000E+000	Final Fre&q. (Hz)
PTSPERDEC	QUANT	1.00000E+001	Points/&decade
VAC	QUANT	2.50000E+001	AC &Voltage (mV rms)
AREA	QUANT	1.00000E-002	&Area (cm^2)
CONDIT	TWOPARAM	T	5.00000E+000	0.00000E+000	Conditionin&g	Time(s)	E(V)
DELAY	TWOPARAM	T	5.00000E+000	0.00000E+000	Init. De&lay	Time(s)	Stab.(mV/s)
SPEED	SELECTOR	1	&Optimize for:
ZGUESS	QUANT	1.00000E+004	E&stimated Z (ohms)
OCVCURVE	TABLE	19
	Pt	T	Vf	Vm	Ach	Over
	#	s	V vs. Ref.	V	V	bits
	0	0.258333	1.67258E-003	1.67258E-003	5.65866E-004	...........
	1	0.516667	1.66457E-003	1.25342E-003	5.60766E-004	...........
	2	0.775	1.61581E-003	8.77707E-004	5.59632E-004	...........
	3	1.03333	1.47947E-003	5.28793E-004	5.62732E-004	...........
	4	1.29167	1.23953E-003	2.12724E-004	5.58266E-004	...........
	5	1.55	9.27585E-004	-7.93585E-005	5.60566E-004	...........
	6	1.80833	5.91627E-004	-3.55078E-004	5.57632E-004	...........
	7	2.06667	2.65075E-004	-6.09270E-004	5.60199E-004	...........
	8	2.325	-3.89702E-005	-8.57638E-004	5.59132E-004	...........
	9	2.58333	-3.19914E-004	-1.08202E-003	5.63132E-004	...........
	10	2.84167	-5.81195E-004	-1.29785E-003	5.60666E-004	...........
	11	3.1	-8.25799E-004	-1.49903E-003	5.57566E-004	...........
	12	3.35833	-1.05559E-003	-1.69319E-003	5.60066E-004	...........
	13	3.61667	-1.27204E-003	-1.87381E-003	5.61299E-004	...........
	14	3.875	-1.47650E-003	-2.04834E-003	5.51199E-004	...........
	15	4.13333	-1.67014E-003	-2.21444E-003	5.55966E-004	...........
	16	4.39167	-1.85405E-003	-2.37564E-003	5.55733E-004	...........
	17	4.65	-2.02944E-003	-2.53106E-003	5.54433E-004	...........
	18	4.90833	-2.19738E-003	-2.67596E-003	5.56399E-004	...........
EOC	QUANT	-0.0021974	Open Circuit (V)
PSTATMODEL	IQUANT	4	Pstat Model
PSTATSECTION	LABEL	REF600-11020	Pstat Section
PSTATSERIALNO	LABEL	11020	Pstat Serial Number
CTRLMODE	IQUANT	1	Control Mode
IESTAB	IQUANT	0	I/E Stability
CASPEED	IQUANT	1	Control Amp Speed
CONVENTION	IQUANT	1	Current Convention
ICHRANGE	IQUANT	2	Ich Range
ICHRANGEMODE	TOGGLE	F	Ich Auto Range
ICHOFFSETENABLE	TOGGLE	T	Ich Offset Enable
ICHOFFSET	QUANT	0	Ich Offset (V)
ICHFILTER	IQUANT	3	Ich Filter
VCHRANGE	IQUANT	2	Vch Range
VCHRANGEMODE	TOGGLE	F	Vch Auto Range
VCHOFFSETENABLE	TOGGLE	T	Vch Offset Enable
VCHOFFSET	QUANT	0	Vch Offset (V)
VCHFILTER	IQUANT	3	Vch Filter
ACHRANGE	IQUANT	2	Ach Range
ACHOFFSETENABLE	TOGGLE	F	Ach Offset Enable
ACHOFFSET	QUANT	0	Ach Offset (V)
ACHFILTER	IQUANT	3	Ach Filter
IERANGELOWERLIMIT	IQUANT	1	I/E Range Lower Limit
IERANGEMODE	TOGGLE	F	I/E AutoRange
IERANGE	IQUANT	5	I/E Range
POSFEEDENABLE	TOGGLE	F	Positive Feedback IR Comp
POSFEEDRESISTANCE	QUANT	0	Positive Feedback Resistance (ohm)
ACHSELECT	IQUANT	0	Ach Select
CABLEID	IQUANT	14	Cable ID
DCCALDATE	LABEL	8/19/2019	DC Calibration Date
ACCALDATE	LABEL	8/19/2019	AC Calibration Date
THERMOSELECT	IQUANT	1	Thermo Select
FRAMEWORKVERSION	QUANT	6.33	Framework Version
INSTRUMENTVERSION	LABEL	3.50	Instrument Version
ZCURVE	TABLE
	Pt	Time	Freq	Zreal	Zimag	Zsig	Zmod	Zphz	Idc	Vdc	IERange
	#	s	Hz	ohm	ohm	V	ohm	°	A	V	#
	0	2	1000078	2548.171	-2016.126	1	3249.298	-38.35123	3.317543E-006	-0.0002901	8
	1	3	794390.6	2967.794	-2011.456	1	3585.213	-34.1279	-4.710354E-007	-0.000684	8
	2	5	630984.4	3391.854	-1946.694	1	3910.792	-29.8529	2.654139E-006	-0.0010633	8
	3	6	501234.4	3743.233	-1798.436	1	4152.851	-25.66195	-2.420817E-006	-0.0002698	8
	4	7	398109.4	4056.72	-1637.951	1	4374.913	-21.98701	4.278023E-006	-0.0013382	8
	5	9	316265.6	4285.219	-1442.357	1	4521.449	-18.60266	2.451853E-007	-0.0006993	8
	6	10	251203.1	4490.791	-1274.885	1	4668.247	-15.84865	1.002465E-006	-0.0007877	8
	7	12	199546.9	4641.614	-1082.446	1	4766.159	-13.12703	1.826372E-006	-0.0011198	8
	8	13	158578.1	4750.093	-930.9009	1	4840.451	-11.08803	-9.790632E-007	-0.0003537	8
	9	14	125953.1	4863.022	-771.1781	1	4923.79	-9.01093	1.384146E-006	-0.0036654	7
	10	16	100078.1	4913.973	-667.9705	1	4959.165	-7.740934	-7.064275E-009	-0.0007343	7
	11	17	79453.13	4968.7	-594.646	1	5004.156	-6.824607	1.883458E-008	-0.000651	7
	12	18	63140.62	5014.754	-538.1438	1	5043.546	-6.12509	4.911215E-008	-0.0008058	7
	13	20	50203.12	5054.939	-496.8562	1	5079.298	-5.613641	-9.45677E-009	-0.0007231	7
	14	21	39890.62	5092.908	-469.132	1	5114.47	-5.262935	-3.976557E-008	-0.0007202	7
	15	22	31640.63	5127.793	-454.9291	1	5147.934	-5.069911	-8.164942E-008	-0.0006182	7
	16	24	25171.88	5161.54	-454.0483	1	5181.472	-5.027232	2.550112E-008	-0.0008465	7
	17	25	20015.62	5184.66	-468.1642	1	5205.754	-5.159699	-5.875723E-008	-0.0006537	7
	18	27	15890.62	5231.055	-488.5177	1	5253.816	-5.335263	-8.422273E-009	-0.0006822	7
	19	28	12609.37	5265.904	-526.0063	1	5292.11	-5.704301	-9.203616E-009	-0.0006786	7
	20	29	10078.13	5302.179	-576.3334	1	5333.41	-6.20355	2.927194E-008	-0.0008495	7
	21	31	8015.625	5341.017	-637.55	1	5378.934	-6.807111	1.137788E-007	-0.0009072	7
	22	32	6328.125	5378.873	-744.0669	1	5430.093	-7.875822	1.147867E-007	-0.0009158	7
	23	33	5015.625	5422.48	-864.5168	1	5490.964	-9.058541	-7.667999E-008	-0.0005022	7
	24	35	3984.375	5487.803	-1011.802	1	5580.298	-10.44647	-5.593497E-008	-0.0007007	7
	25	36	3170.956	5523.159	-1198.961	1	5651.796	-12.24768	-1.091948E-008	-0.0007955	7
	26	37	2527.573	5582.256	-1426.97	1	5761.755	-14.33922	4.957628E-008	-0.0008139	7
	27	39	1976.103	5658.325	-1732.491	1	5917.615	-17.02377	4.556065E-009	-0.0007805	7
	28	40	1577.524	5771.495	-2090.805	1	6138.535	-19.91363	1.140741E-007	-0.000913	7
	29	41	1265.625	5825.095	-2493.776	1	6336.454	-23.1762	-8.599643E-008	-0.0006155	7
	30	43	998.264	5935.363	-3042.969	1	6669.947	-27.14352	2.931224E-008	-0.0008533	7
	31	44	796.875	6058.025	-3686.057	1	7091.31	-31.31878	-5.794121E-008	-0.0007041	7
	32	45	627.7902	6208.879	-4531.31	1	7686.543	-36.12239	-6.688976E-008	-0.0005964	7
	33	47	505.5147	6378.875	-5472.239	1	8404.489	-40.62527	9.228349E-008	-0.0009352	7
	34	48	397.9953	6596.46	-6761.714	1	9446.378	-45.70877	4.561052E-009	-0.000731	7
	35	49	315.5048	6863.546	-8311.22	1	10778.9	-50.44953	6.639073E-010	-0.0007941	6
	36	51	252.4038	7180.114	-10147	1	12430.43	-54.71642	7.736211E-010	-0.0007917	6
	37	52	198.6229	7612.134	-12582.62	1	14706.01	-58.82723	1.158091E-009	-0.0007904	6
	38	53	158.3615	8139.685	-15429.86	1	17445.21	-62.1871	1.083298E-009	-0.0007884	6
	39	55	125.558	8840.499	-19013.98	1	20968.69	-65.06406	7.802437E-010	-0.0007897	6
	40	56	100.4464	9736.29	-23225.22	1	25183.45	-67.25598	9.276693E-010	-0.000797	6
	41	58	79.00281	11010.9	-28775.93	1	30810.61	-69.06102	7.280285E-010	-0.0007954	6
	42	59	63.3446	12422.13	-34898.81	1	37043.71	-70.40696	5.635853E-010	-0.0007974	6
	43	60	49.86702	14961.3	-43345.33	1	45854.75	-70.95711	9.744201E-010	-0.0007998	6
	44	62	39.72458	17667.06	-52810.05	1	55686.86	-71.50286	9.86725E-010	-0.0007899	6
	45	63	31.6723	21578.18	-64021.32	1	67559.95	-71.37377	7.78527E-010	-0.0007952	6
	46	64	24.93351	26871.31	-78326.6	1	82807.75	-71.06458	7.128363E-010	-0.0007978	6
	47	66	19.86229	33638.74	-94226.17	1	100050.7	-70.35344	7.147967E-010	-0.0007932	6
	48	67	15.83615	42285.23	-112811.7	1	120476.2	-69.45248	1.036309E-009	-0.0007902	5
	49	69	12.40079	54930.41	-135648.3	1	146348.2	-67.95464	7.569456E-010	-0.0007869	5
	50	70	9.93114	68784.52	-159351.4	1	173563.2	-66.6524	7.937705E-010	-0.0007896	5
	51	72	7.944915	85758.54	-186103.8	1	204912.6	-65.25927	1.369746E-010	-0.0007825	5
	52	73	6.317385	106905.7	-216434.7	1	241397.7	-63.7134	-3.525341E-011	-0.0007715	5
	53	75	5.008013	131921.1	-250406	1	283030.7	-62.21845	4.359302E-010	-0.0007876	5
	54	78	3.945707	161669.5	-289792.6	1	331838.5	-60.84373	2.603586E-010	-0.0007904	5
	55	80	3.158693	192800.1	-330409	1	382546.7	-59.7356	2.953107E-010	-0.0007768	5
	56	84	2.504006	229441.5	-379090.7	1	443117.6	-58.81593	-2.697116E-011	-0.0008043	5
	57	86	1.998082	269001.7	-432576	1	509395.7	-58.12417	-6.053937E-011	-0.0008082	5
	58	90	1.584686	315101.1	-493826.1	1	585792.6	-57.45882	7.841486E-011	-0.0007514	5
	59	93	1.266892	364410.1	-565163.3	1	672461.3	-57.18659	1.382404E-011	-0.0008192	5
	60	97	0.999041	423766.2	-650338	1	776219.9	-56.91137	2.424774E-010	-0.0007473	5
