EXPLAIN
TAG	EISPOT
TITLE	LABEL	Potentiostatic EIS	Test &Identifier
DATE	LABEL	8/16/2017	Date
TIME	LABEL	16:55:41	Time
NOTES	NOTES	1	&Notes...
	
PSTAT	PSTAT	REF600-11020	Potentiostat
VDC	POTEN	0.00000E+000	T	DC &Voltage (V)
FREQINIT	QUANT	1.00000E+006	Initial Fre&q. (Hz)
FREQFINAL	QUANT	1.00000E+000	Final Fre&q. (Hz)
PTSPERDEC	QUANT	1.00000E+001	Points/&decade
VAC	QUANT	2.50000E+001	AC &Voltage (mV rms)
AREA	QUANT	1.00000E-002	&Area (cm^2)
CONDIT	TWOPARAM	T	5.00000E+000	0.00000E+000	Conditionin&g	Time(s)	E(V)
DELAY	TWOPARAM	T	5.00000E+000	0.00000E+000	Init. De&lay	Time(s)	Stab.(mV/s)
SPEED	SELECTOR	0	&Optimize for:
ZGUESS	QUANT	1.00000E+005	E&stimated Z (ohms)
OCVCURVE	TABLE	19
	Pt	T	Vf	Vm	Ach	Over
	#	s	V vs. Ref.	V	V	bits
	0	0.258333	8.58846E-003	8.58846E-003	5.32733E-004	...........
	1	0.516667	8.59104E-003	8.72363E-003	5.40099E-004	...........
	2	0.775	8.60624E-003	8.81709E-003	5.55233E-004	...........
	3	1.03333	8.65639E-003	9.39707E-003	5.52133E-004	...........
	4	1.29167	8.78857E-003	1.02602E-002	5.36466E-004	...........
	5	1.55	9.06439E-003	1.05822E-002	5.34400E-004	...........
	6	1.80833	9.50120E-003	1.14231E-002	5.49233E-004	...........
	7	2.06667	1.00459E-002	1.16086E-002	5.56933E-004	...........
	8	2.325	1.06070E-002	1.15687E-002	5.40866E-004	...........
	9	2.58333	1.10707E-002	1.10810E-002	5.37733E-004	...........
	10	2.84167	1.13105E-002	9.92766E-003	5.51533E-004	...........
	11	3.1	1.12614E-002	1.11911E-002	5.54599E-004	...........
	12	3.35833	1.10445E-002	1.12962E-002	5.41066E-004	...........
	13	3.61667	1.09051E-002	1.12771E-002	5.46466E-004	...........
	14	3.875	1.09503E-002	1.11926E-002	5.54166E-004	...........
	15	4.13333	1.10815E-002	1.12012E-002	5.41933E-004	...........
	16	4.39167	1.11799E-002	1.11982E-002	5.41166E-004	...........
	17	4.65	1.12165E-002	1.11954E-002	5.47666E-004	...........
	18	4.90833	1.12165E-002	1.11907E-002	5.52766E-004	...........
EOC	QUANT	0.0112165	Open Circuit (V)
PSTATMODEL	IQUANT	4	Pstat Model
PSTATSECTION	LABEL	REF600-11020	Pstat Section
PSTATSERIALNO	LABEL	11020	Pstat Serial Number
CTRLMODE	IQUANT	1	Control Mode
IESTAB	IQUANT	0	I/E Stability
CASPEED	IQUANT	1	Control Amp Speed
CONVENTION	IQUANT	1	Current Convention
ICHRANGE	IQUANT	2	Ich Range
ICHRANGEMODE	TOGGLE	F	Ich Auto Range
ICHOFFSETENABLE	TOGGLE	T	Ich Offset Enable
ICHOFFSET	QUANT	0	Ich Offset (V)
ICHFILTER	IQUANT	3	Ich Filter
VCHRANGE	IQUANT	2	Vch Range
VCHRANGEMODE	TOGGLE	F	Vch Auto Range
VCHOFFSETENABLE	TOGGLE	T	Vch Offset Enable
VCHOFFSET	QUANT	0	Vch Offset (V)
VCHFILTER	IQUANT	3	Vch Filter
ACHRANGE	IQUANT	2	Ach Range
ACHOFFSETENABLE	TOGGLE	F	Ach Offset Enable
ACHOFFSET	QUANT	0	Ach Offset (V)
ACHFILTER	IQUANT	3	Ach Filter
IERANGELOWERLIMIT	IQUANT	1	I/E Range Lower Limit
IERANGEMODE	TOGGLE	F	I/E AutoRange
IERANGE	IQUANT	5	I/E Range
POSFEEDENABLE	TOGGLE	F	Positive Feedback IR Comp
POSFEEDRESISTANCE	QUANT	0	Positive Feedback Resistance (ohm)
ACHSELECT	IQUANT	0	Ach Select
CABLEID	IQUANT	14	Cable ID
DCCALDATE	LABEL	8/19/2019	DC Calibration Date
ACCALDATE	LABEL	8/19/2019	AC Calibration Date
THERMOSELECT	IQUANT	1	Thermo Select
FRAMEWORKVERSION	QUANT	6.33	Framework Version
INSTRUMENTVERSION	LABEL	3.50	Instrument Version
ZCURVE	TABLE
	Pt	Time	Freq	Zreal	Zimag	Zsig	Zmod	Zphz	Idc	Vdc	IERange
	#	s	Hz	ohm	ohm	V	ohm	°	A	V	#
	0	1	1000078	1978.789	-1525.747	1	2498.702	-37.63406	-3.199028E-006	0.0143445	8
	1	2	794390.6	2283.579	-1543.088	1	2756.058	-34.04816	-1.014874E-006	0.0128872	8
	2	2	630984.4	2573.087	-1515.319	1	2986.129	-30.4943	-6.897696E-006	0.0140386	8
	3	2	501234.4	2832.181	-1463.028	1	3187.742	-27.31964	7.825912E-006	0.0121074	8
	4	3	398109.4	3103.796	-1380.225	1	3396.847	-23.97421	-7.058013E-006	0.0137905	8
	5	3	316265.6	3336.359	-1279.7	1	3573.363	-20.9849	7.566798E-006	0.0120838	8
	6	3	251203.1	3539.028	-1153.853	1	3722.378	-18.05787	-2.254328E-006	0.012955	8
	7	4	199546.9	3708.826	-1031.57	1	3849.614	-15.54333	1.923703E-006	0.0131138	8
	8	4	158578.1	3851.207	-904.3154	1	3955.955	-13.21442	-3.339755E-007	0.0125691	8
	9	4	125953.1	3961.577	-737.1805	1	4029.581	-10.54118	-3.198207E-006	0.0168358	7
	10	5	100078.1	4050.021	-649.1599	1	4101.717	-9.106228	8.659063E-007	0.0125606	7
	11	5	79453.13	4112.916	-575.5184	1	4152.987	-7.965651	4.918069E-007	0.0110743	7
	12	5	63140.62	4163.778	-519.6073	1	4196.074	-7.113297	4.917787E-007	0.0110727	7
	13	6	50203.12	4200.212	-476.8199	1	4227.19	-6.476652	-9.274959E-007	0.0145281	7
	14	6	39890.62	4238.181	-444.8369	1	4261.462	-5.991792	-9.265036E-007	0.0145282	7
	15	6	31640.63	4286.026	-428.6201	1	4307.405	-5.710824	1.055009E-006	0.0120356	7
	16	7	25171.88	4316.664	-422.7219	1	4337.313	-5.593024	1.127386E-006	0.0112561	7
	17	7	20015.62	4332.274	-428.5897	1	4353.422	-5.649858	-1.13634E-006	0.014465	7
	18	7	15890.62	4364.732	-446.0573	1	4387.466	-5.83513	-7.615936E-007	0.0126291	7
	19	7	12609.37	4406.398	-481.0713	1	4432.581	-6.230626	1.126936E-006	0.0112489	7
	20	8	10078.13	4422.987	-531.7679	1	4454.839	-6.855665	-3.296379E-007	0.0119122	7
	21	8	8015.625	4456.202	-592.5398	1	4495.424	-7.574171	-1.278086E-006	0.0142959	7
	22	8	6328.125	4500.927	-679.869	1	4551.985	-8.589642	7.746446E-008	0.013768	7
	23	9	5015.625	4530.516	-792.3013	1	4599.273	-9.91963	-1.090856E-006	0.0133246	7
	24	9	3984.375	4582.073	-931.4395	1	4675.786	-11.49047	7.818486E-008	0.0137661	7
	25	9	3170.956	4630.905	-1105.04	1	4760.923	-13.42111	7.841769E-008	0.0137686	7
	26	10	2527.573	4692.133	-1320.009	1	4874.273	-15.71255	1.053768E-006	0.0120324	7
	27	10	1976.103	4749.893	-1602.677	1	5012.988	-18.64508	-6.391707E-007	0.0144252	7
	28	10	1577.524	4824.2	-1934.282	1	5197.534	-21.84851	8.017132E-007	0.0109386	7
	29	11	1265.625	4909.317	-2321.947	1	5430.73	-25.31263	1.12627E-006	0.0112467	7
	30	11	998.264	5007.542	-2837.973	1	5755.829	-29.54195	1.12803E-006	0.0112411	7
	31	11	796.875	5114.682	-3439.171	1	6163.43	-33.91734	4.955152E-007	0.0110527	7
	32	12	627.7902	5259.891	-4225.189	1	6746.753	-38.77438	-6.376832E-007	0.0144194	7
	33	12	505.5147	5420.144	-5101.787	1	7443.533	-43.26696	-1.136298E-006	0.0144524	7
	34	13	397.9953	5631.826	-6323.438	1	8467.782	-48.31087	3.891695E-009	0.0127972	7
	35	13	315.5048	5891.706	-7774.675	1	9754.88	-52.84488	3.43024E-009	0.0127913	7
	36	13	252.4038	6212.195	-9489.317	1	11341.89	-56.78918	-7.226683E-010	0.0127348	6
	37	14	198.6229	6645.778	-11760.69	1	13508.52	-60.5299	3.624765E-010	0.0127269	6
	38	14	158.3615	7178.27	-14398.59	1	16088.72	-63.50192	-1.65294E-010	0.0127237	6
	39	14	125.558	7887.027	-17718.46	1	19394.56	-66.00469	-3.561787E-010	0.0127363	6
	40	15	100.4464	8743.176	-21607.51	1	23309.39	-67.96997	4.977149E-010	0.0127337	6
	41	15	79.00281	9996.15	-26658.96	1	28471.44	-69.44576	5.241013E-010	0.0127317	6
	42	15	63.3446	11784.53	-32650.48	1	34712.09	-70.15398	-9.850477E-010	0.0127316	6
	43	16	49.86702	13835.31	-40141.74	1	42459.1	-70.9829	7.5525E-010	0.0127185	6
	44	16	39.72458	16440.64	-48502.29	1	51212.96	-71.27507	6.271124E-010	0.0127241	6
	45	16	31.6723	20072.37	-58670.63	1	62009.21	-71.11317	3.757957E-010	0.0127305	6
	46	17	24.93351	24806.34	-71592.35	1	75768.2	-70.88909	-1.067685E-010	0.0127186	6
	47	17	19.86229	30796.37	-86293.69	1	91624.32	-70.3596	-1.420201E-009	0.0127205	6
	48	17	15.83615	40060.45	-103405.7	1	110894.5	-68.82311	2.481637E-009	0.0127209	5
	49	18	12.40079	49151.62	-125221.6	1	134522.6	-68.56915	4.709467E-010	0.0127382	5
	50	18	9.93114	62848.7	-146030.8	1	158981	-66.71394	8.06453E-010	0.0127308	5
	51	19	7.944915	79297.73	-171113.6	1	188594.8	-65.13598	5.61834E-010	0.0127266	5
	52	19	6.317385	99073	-199274.8	1	222544.2	-63.56492	4.629575E-010	0.0127251	5
	53	20	5.008013	123757.8	-231020.8	1	262081.3	-61.82205	3.105572E-010	0.012731	5
	54	21	3.945707	153288.4	-265837.2	1	306866	-60.03117	-1.706962E-010	0.0127279	5
	55	22	3.158693	185170.3	-301014.4	1	353408.7	-58.40208	-2.237045E-010	0.0127217	5
	56	24	2.504006	221947.6	-340859.5	1	406750.4	-56.9302	1.007577E-010	0.0127191	5
	57	25	1.998082	259426.3	-382756.2	1	462389.7	-55.87118	-7.407038E-011	0.0127089	5
	58	27	1.584686	302300.3	-432245.1	1	527466.9	-55.03212	-2.475112E-010	0.0126764	5
	59	29	1.266892	344455.6	-487676.2	1	597057.6	-54.76566	-1.929228E-010	0.0126852	5
	60	31	0.999041	391042.3	-555849.3	1	679619.3	-54.87346	-1.983658E-010	0.0127101	5
