EXPLAIN
TAG	EISPOT
TITLE	LABEL	Potentiostatic EIS	Test &Identifier
DATE	LABEL	8/16/2017	Date
TIME	LABEL	16:37:33	Time
NOTES	NOTES	1	&Notes...
	
PSTAT	PSTAT	REF600-11020	Potentiostat
VDC	POTEN	0.00000E+000	T	DC &Voltage (V)
FREQINIT	QUANT	1.00000E+006	Initial Fre&q. (Hz)
FREQFINAL	QUANT	1.00000E+000	Final Fre&q. (Hz)
PTSPERDEC	QUANT	1.00000E+001	Points/&decade
VAC	QUANT	2.50000E+001	AC &Voltage (mV rms)
AREA	QUANT	1.00000E-002	&Area (cm^2)
CONDIT	TWOPARAM	T	5.00000E+000	0.00000E+000	Conditionin&g	Time(s)	E(V)
DELAY	TWOPARAM	T	5.00000E+000	0.00000E+000	Init. De&lay	Time(s)	Stab.(mV/s)
SPEED	SELECTOR	0	&Optimize for:
ZGUESS	QUANT	1.00000E+005	E&stimated Z (ohms)
OCVCURVE	TABLE	19
	Pt	T	Vf	Vm	Ach	Over
	#	s	V vs. Ref.	V	V	bits
	0	0.258333	3.75433E-003	3.75433E-003	5.77166E-004	...........
	1	0.516667	3.74975E-003	3.51461E-003	5.84432E-004	...........
	2	0.775	3.72092E-003	3.25003E-003	5.86099E-004	...........
	3	1.03333	3.63788E-003	3.04370E-003	5.84632E-004	...........
	4	1.29167	3.48865E-003	2.84307E-003	5.86932E-004	...........
	5	1.55	3.29396E-003	2.72819E-003	5.86899E-004	...........
	6	1.80833	3.09056E-003	2.61948E-003	5.83732E-004	...........
	7	2.06667	2.90666E-003	2.45315E-003	5.72999E-004	...........
	8	2.325	2.75086E-003	2.43222E-003	5.82732E-004	...........
	9	2.58333	2.61872E-003	2.24555E-003	5.91965E-004	...........
	10	2.84167	2.50525E-003	2.34424E-003	5.87332E-004	...........
	11	3.1	2.40779E-003	2.01464E-003	5.85865E-004	...........
	12	3.35833	2.31935E-003	2.12839E-003	5.90399E-004	...........
	13	3.61667	2.23129E-003	1.92120E-003	5.87499E-004	...........
	14	3.875	2.14275E-003	1.89801E-003	5.78865E-004	...........
	15	4.13333	2.05277E-003	1.62182E-003	5.80266E-004	...........
	16	4.39167	1.95371E-003	1.69884E-003	5.81199E-004	...........
	17	4.65	1.84427E-003	1.44496E-003	5.85932E-004	...........
	18	4.90833	1.73351E-003	1.50488E-003	5.85665E-004	...........
EOC	QUANT	0.0017335	Open Circuit (V)
PSTATMODEL	IQUANT	4	Pstat Model
PSTATSECTION	LABEL	REF600-11020	Pstat Section
PSTATSERIALNO	LABEL	11020	Pstat Serial Number
CTRLMODE	IQUANT	1	Control Mode
IESTAB	IQUANT	0	I/E Stability
CASPEED	IQUANT	1	Control Amp Speed
CONVENTION	IQUANT	1	Current Convention
ICHRANGE	IQUANT	2	Ich Range
ICHRANGEMODE	TOGGLE	F	Ich Auto Range
ICHOFFSETENABLE	TOGGLE	T	Ich Offset Enable
ICHOFFSET	QUANT	0	Ich Offset (V)
ICHFILTER	IQUANT	3	Ich Filter
VCHRANGE	IQUANT	2	Vch Range
VCHRANGEMODE	TOGGLE	F	Vch Auto Range
VCHOFFSETENABLE	TOGGLE	T	Vch Offset Enable
VCHOFFSET	QUANT	0	Vch Offset (V)
VCHFILTER	IQUANT	3	Vch Filter
ACHRANGE	IQUANT	2	Ach Range
ACHOFFSETENABLE	TOGGLE	F	Ach Offset Enable
ACHOFFSET	QUANT	0	Ach Offset (V)
ACHFILTER	IQUANT	3	Ach Filter
IERANGELOWERLIMIT	IQUANT	1	I/E Range Lower Limit
IERANGEMODE	TOGGLE	F	I/E AutoRange
IERANGE	IQUANT	4	I/E Range
POSFEEDENABLE	TOGGLE	F	Positive Feedback IR Comp
POSFEEDRESISTANCE	QUANT	0	Positive Feedback Resistance (ohm)
ACHSELECT	IQUANT	0	Ach Select
CABLEID	IQUANT	14	Cable ID
DCCALDATE	LABEL	8/19/2019	DC Calibration Date
ACCALDATE	LABEL	8/19/2019	AC Calibration Date
THERMOSELECT	IQUANT	1	Thermo Select
FRAMEWORKVERSION	QUANT	6.33	Framework Version
INSTRUMENTVERSION	LABEL	3.50	Instrument Version
ZCURVE	TABLE
	Pt	Time	Freq	Zreal	Zimag	Zsig	Zmod	Zphz	Idc	Vdc	IERange
	#	s	Hz	ohm	ohm	V	ohm	°	A	V	#
	0	1	1000078	2144.453	-1637.42	1	2698.115	-37.36393	-3.535676E-006	0.0037511	8
	1	2	794390.6	2468.417	-1620.408	1	2952.762	-33.28315	6.302693E-007	0.0044223	8
	2	2	630984.4	2775.692	-1573.698	1	3190.767	-29.55138	8.19232E-007	0.0040624	8
	3	2	501234.4	3054.192	-1489.723	1	3398.141	-26.00142	2.18008E-006	0.0038128	8
	4	3	398109.4	3296.965	-1374.823	1	3572.13	-22.63597	2.347922E-006	0.0028293	8
	5	3	316265.6	3522.437	-1252.971	1	3738.65	-19.58106	7.808589E-006	0.0025022	8
	6	3	251203.1	3700.574	-1133.438	1	3870.263	-17.02915	-9.994333E-007	0.0030287	8
	7	4	199546.9	3839.434	-1005.366	1	3968.88	-14.67361	6.587827E-006	0.0021485	8
	8	4	158578.1	3973.702	-883.2747	1	4070.685	-12.53197	6.419077E-006	0.0021544	8
	9	4	125953.1	4086.527	-742.0541	1	4153.354	-10.29194	-8.572038E-009	0.0063011	7
	10	5	100078.1	4152.366	-655.3398	1	4203.762	-8.968629	-1.396808E-006	0.0049782	7
	11	5	79453.13	4215.86	-602.9616	1	4258.76	-8.139371	-8.417967E-007	0.0031522	7
	12	5	63140.62	4269.298	-563.408	1	4306.313	-7.517733	-1.24904E-006	0.0051629	7
	13	5	50203.12	4326.102	-538.799	1	4359.525	-7.099406	5.446719E-007	0.0014094	7
	14	6	39890.62	4365.596	-523.2595	1	4396.843	-6.834854	-8.391042E-007	0.0031406	7
	15	6	31640.63	4422.519	-528.3236	1	4453.964	-6.812393	1.256755E-006	0.001998	7
	16	6	25171.88	4452.828	-539.5482	1	4485.397	-6.908836	-1.2012E-006	0.0039135	7
	17	7	20015.62	4479.798	-572.6064	1	4516.245	-7.284032	7.047187E-007	0.0035263	7
	18	7	15890.62	4558.992	-613.4965	1	4600.085	-7.664163	9.547558E-007	0.0030424	7
	19	7	12609.37	4603.596	-669.6079	1	4652.04	-8.275819	7.027512E-007	0.0035261	7
	20	8	10078.13	4656.336	-747.6523	1	4715.979	-9.12193	1.159659E-006	0.0024788	7
	21	8	8015.625	4692.817	-854.5019	1	4769.98	-10.31977	-3.601702E-007	0.0023506	7
	22	8	6328.125	4765.12	-969.843	1	4862.814	-11.50426	8.731892E-008	0.0043873	7
	23	9	5015.625	4820.96	-1124.825	1	4950.443	-13.13328	-1.247621E-006	0.0051467	7
	24	9	3984.375	4870.432	-1310.786	1	5043.736	-15.06318	-1.39287E-006	0.00455	7
	25	9	3170.956	4976.841	-1560.217	1	5215.671	-17.40597	4.493839E-007	0.0038934	7
	26	10	2527.573	5065.762	-1848.413	1	5392.456	-20.04619	5.444734E-007	0.0014074	7
	27	10	1976.103	5181.495	-2244.113	1	5646.586	-23.4175	1.161334E-006	0.0024757	7
	28	10	1577.524	5342.647	-2599.578	1	5941.522	-25.94622	-7.029763E-007	0.0051073	7
	29	11	1265.625	5424.798	-3201.609	1	6299.106	-30.54827	-3.262499E-007	0.0048345	7
	30	11	998.264	5595.744	-3891.354	1	6815.79	-34.81526	-3.590497E-007	0.0023456	7
	31	11	796.875	5798.18	-4695.885	1	7461.248	-39.00365	5.387859E-007	0.0014075	7
	32	12	627.7902	6043.597	-5729.601	1	8327.868	-43.47226	9.581864E-007	0.0030377	7
	33	12	505.5147	6314.176	-6891.167	1	9346.497	-47.50188	1.236251E-006	0.00162	7
	34	12	397.9953	6689.293	-8425.564	1	10758.1	-51.55295	1.697092E-009	0.0033176	7
	35	13	315.5048	7135.707	-10277.37	1	12511.7	-55.22726	1.212903E-009	0.0032554	6
	36	13	252.4038	7661.53	-12458.7	1	14625.94	-58.41039	1.10456E-009	0.0032488	6
	37	13	198.6229	8389.888	-15330.65	1	17476.24	-61.30977	8.635113E-010	0.003251	6
	38	14	158.3615	9284.136	-18660.95	1	20842.89	-63.54888	5.55315E-010	0.0032456	6
	39	14	125.558	10492.55	-22799.41	1	25097.94	-65.28757	4.298402E-011	0.0032611	6
	40	14	100.4464	12033.66	-27567.19	1	30079.21	-66.41771	-1.247405E-009	0.0032579	6
	41	15	79.00281	14343.51	-33738.07	1	36660.52	-66.96756	5.978898E-013	0.0032442	6
	42	15	63.3446	16750.1	-41091.82	1	44374.58	-67.82291	7.776778E-010	0.0032437	6
	43	15	49.86702	20622.33	-49548.48	1	53668.73	-67.40268	-2.237771E-010	0.0032543	6
	44	16	39.72458	25807.29	-58863.68	1	64272.46	-66.32616	-2.409686E-010	0.0032565	6
	45	16	31.6723	32218.76	-69483.52	1	76589.87	-65.12336	-4.964115E-010	0.0032451	6
	46	16	24.93351	40225.32	-82453.38	1	91742.22	-63.99432	5.922585E-010	0.0032521	6
	47	17	19.86229	49867.81	-96093.2	1	108262.1	-62.57282	2.24198E-009	0.0032625	5
	48	17	15.83615	61345.31	-109372.4	1	125401.6	-60.7126	9.858379E-010	0.0032466	5
	49	17	12.40079	77186.04	-127632.7	1	149157	-58.8365	-1.803015E-011	0.0032488	5
	50	18	9.93114	91871.53	-144834.8	1	171515.3	-57.61226	-2.095615E-010	0.0032643	5
	51	18	7.944915	108071.9	-163011.2	1	195581.7	-56.45673	9.121592E-010	0.0032491	5
	52	19	6.317385	126837.4	-183136.2	1	222770.2	-55.29409	5.457067E-010	0.0032442	5
	53	20	5.008013	147038.8	-206717.3	1	253677.8	-54.57561	8.021939E-011	0.0032521	5
	54	21	3.945707	168598	-235282	1	289452.8	-54.37545	3.054969E-010	0.0032486	5
	55	22	3.158693	190379.6	-266698.3	1	327677.3	-54.47929	-1.01276E-010	0.0032541	5
	56	24	2.504006	215127.1	-305973.3	1	374031.2	-54.8893	5.441357E-012	0.0032416	5
	57	25	1.998082	242031.6	-351745.4	1	426970.8	-55.46863	2.264536E-010	0.0032811	5
	58	27	1.584686	271971.9	-407484.1	1	489910.3	-56.2792	9.632406E-011	0.0032503	5
	59	29	1.266892	307036.5	-471831.4	1	562935.4	-56.9466	1.378236E-011	0.0032175	5
	60	31	0.999041	350230.8	-554528.1	1	655868.2	-57.72417	-4.766302E-012	0.0032034	5
