EXPLAIN
TAG	EISPOT
TITLE	LABEL	Potentiostatic EIS	Test &Identifier
DATE	LABEL	10/24/2019	Date
TIME	LABEL	8:26:23	Time
NOTES	NOTES	1	&Notes...
	
PSTAT	PSTAT	REF600-11020	Potentiostat
VDC	POTEN	0.00000E+000	T	DC &Voltage (V)
FREQINIT	QUANT	1.00000E+006	Initial Fre&q. (Hz)
FREQFINAL	QUANT	1.00000E+000	Final Fre&q. (Hz)
PTSPERDEC	QUANT	1.00000E+001	Points/&decade
VAC	QUANT	2.50000E+001	AC &Voltage (mV rms)
AREA	QUANT	1.00000E-002	&Area (cm^2)
CONDIT	TWOPARAM	T	5.00000E+000	0.00000E+000	Conditionin&g	Time(s)	E(V)
DELAY	TWOPARAM	T	5.00000E+000	0.00000E+000	Init. De&lay	Time(s)	Stab.(mV/s)
SPEED	SELECTOR	1	&Optimize for:
ZGUESS	QUANT	1.00000E+005	E&stimated Z (ohms)
OCVCURVE	TABLE	19
	Pt	T	Vf	Vm	Ach	Over
	#	s	V vs. Ref.	V	V	bits
	0	0.258333	3.59903E-003	3.59903E-003	5.47866E-004	...........
	1	0.516667	3.59446E-003	3.35986E-003	5.45333E-004	...........
	2	0.775	3.56824E-003	3.22909E-003	5.47966E-004	...........
	3	1.03333	3.49778E-003	2.97967E-003	5.45099E-004	...........
	4	1.29167	3.37455E-003	2.81211E-003	5.44966E-004	...........
	5	1.55	3.21026E-003	2.66129E-003	5.53466E-004	...........
	6	1.80833	3.02820E-003	2.53232E-003	5.48633E-004	...........
	7	2.06667	2.85117E-003	2.41329E-003	5.44366E-004	...........
	8	2.325	2.69170E-003	2.29282E-003	5.42099E-004	...........
	9	2.58333	2.55094E-003	2.18692E-003	5.50499E-004	...........
	10	2.84167	2.42459E-003	2.08981E-003	5.51066E-004	...........
	11	3.1	2.30861E-003	1.99151E-003	5.52333E-004	...........
	12	3.35833	2.20071E-003	1.90442E-003	5.49933E-004	...........
	13	3.61667	2.09947E-003	1.81591E-003	5.52799E-004	...........
	14	3.875	2.00367E-003	1.72742E-003	5.52266E-004	...........
	15	4.13333	1.91185E-003	1.63808E-003	5.50466E-004	...........
	16	4.39167	1.82282E-003	1.57669E-003	5.43199E-004	...........
	17	4.65	1.73673E-003	1.48376E-003	5.48766E-004	...........
	18	4.90833	1.65459E-003	1.44053E-003	5.51232E-004	...........
EOC	QUANT	0.0016546	Open Circuit (V)
PSTATMODEL	IQUANT	4	Pstat Model
PSTATSECTION	LABEL	REF600-11020	Pstat Section
PSTATSERIALNO	LABEL	11020	Pstat Serial Number
CTRLMODE	IQUANT	1	Control Mode
IESTAB	IQUANT	0	I/E Stability
CASPEED	IQUANT	1	Control Amp Speed
CONVENTION	IQUANT	1	Current Convention
ICHRANGE	IQUANT	2	Ich Range
ICHRANGEMODE	TOGGLE	F	Ich Auto Range
ICHOFFSETENABLE	TOGGLE	T	Ich Offset Enable
ICHOFFSET	QUANT	0	Ich Offset (V)
ICHFILTER	IQUANT	3	Ich Filter
VCHRANGE	IQUANT	2	Vch Range
VCHRANGEMODE	TOGGLE	F	Vch Auto Range
VCHOFFSETENABLE	TOGGLE	T	Vch Offset Enable
VCHOFFSET	QUANT	0	Vch Offset (V)
VCHFILTER	IQUANT	3	Vch Filter
ACHRANGE	IQUANT	2	Ach Range
ACHOFFSETENABLE	TOGGLE	F	Ach Offset Enable
ACHOFFSET	QUANT	0	Ach Offset (V)
ACHFILTER	IQUANT	3	Ach Filter
IERANGELOWERLIMIT	IQUANT	1	I/E Range Lower Limit
IERANGEMODE	TOGGLE	F	I/E AutoRange
IERANGE	IQUANT	4	I/E Range
POSFEEDENABLE	TOGGLE	F	Positive Feedback IR Comp
POSFEEDRESISTANCE	QUANT	0	Positive Feedback Resistance (ohm)
ACHSELECT	IQUANT	0	Ach Select
CABLEID	IQUANT	14	Cable ID
DCCALDATE	LABEL	8/19/2019	DC Calibration Date
ACCALDATE	LABEL	8/19/2019	AC Calibration Date
THERMOSELECT	IQUANT	1	Thermo Select
FRAMEWORKVERSION	QUANT	6.33	Framework Version
INSTRUMENTVERSION	LABEL	3.50	Instrument Version
ZCURVE	TABLE
	Pt	Time	Freq	Zreal	Zimag	Zsig	Zmod	Zphz	Idc	Vdc	IERange
	#	s	Hz	ohm	ohm	V	ohm	°	A	V	#
	0	2	1000078	2152.892	-1006.113	1	2376.386	-25.04815	1.907759E-006	0.0039837	8
	1	3	794390.6	2332.572	-905.9753	1	2502.335	-21.22626	-2.507696E-006	0.0040454	8
	2	4	630984.4	2458.278	-799.6326	1	2585.061	-18.01875	2.164371E-006	0.0031872	8
	3	6	501234.4	2561.085	-692.8005	1	2653.136	-15.13683	-3.548165E-007	0.0033754	8
	4	7	398109.4	2639.185	-600.1089	1	2706.553	-12.81034	-1.384433E-006	0.0036709	8
	5	8	316265.6	2698.087	-518.7265	1	2747.499	-10.88274	1.524209E-006	0.0030214	8
	6	10	251203.1	2742.587	-456.847	1	2780.376	-9.457222	-8.13451E-008	0.0032637	8
	7	11	199546.9	2779.504	-407.576	1	2809.228	-8.342185	-1.328268E-006	0.0035962	8
	8	12	158578.1	2804.151	-365.5252	1	2827.874	-7.426715	3.782489E-006	0.0025156	8
	9	14	125953.1	2855.706	-316.913	1	2873.237	-6.332508	1.013401E-006	0.0011167	7
	10	15	100078.1	2875.362	-292.799	1	2890.232	-5.814404	-2.746235E-008	0.0033439	7
	11	16	79453.13	2900.22	-293.9529	1	2915.079	-5.787471	-6.102789E-008	0.0034528	7
	12	18	63140.62	2927.91	-302.2486	1	2943.469	-5.893777	1.118104E-009	0.0032359	7
	13	19	50203.12	2957.129	-315.6833	1	2973.931	-6.093437	-5.848533E-008	0.0033543	7
	14	21	39890.62	2988.178	-336.0867	1	3007.019	-6.417209	5.0921E-009	0.0033594	7
	15	22	31640.63	3022.653	-363.1819	1	3044.394	-6.851435	5.199849E-008	0.0031766	7
	16	23	25171.88	3060.056	-397.7986	1	3085.804	-7.406753	-1.892524E-008	0.0032637	7
	17	25	20015.62	3105.541	-435.2784	1	3135.897	-7.978706	3.81966E-008	0.0031621	7
	18	26	15890.62	3144.134	-490.736	1	3182.2	-8.871143	-1.092102E-008	0.0033022	7
	19	27	12609.37	3190.549	-551.7134	1	3237.899	-9.81063	-4.843636E-009	0.0032401	7
	20	29	10078.13	3240.106	-623.1586	1	3299.487	-10.88657	3.626823E-008	0.0031626	7
	21	30	8015.625	3297.56	-706.3299	1	3372.358	-12.08994	1.25103E-008	0.0032087	7
	22	31	6328.125	3351.818	-821.931	1	3451.124	-13.77816	-4.962473E-008	0.0033631	7
	23	33	5015.625	3413.073	-954.476	1	3544.022	-15.62381	7.472814E-008	0.003207	7
	24	34	3984.375	3472.307	-1120.929	1	3648.753	-17.8911	3.276307E-008	0.0032329	7
	25	36	3170.956	3552.341	-1312.09	1	3786.913	-20.27218	-5.515613E-009	0.0032348	7
	26	37	2527.573	3630.802	-1550.799	1	3948.126	-23.12845	8.306585E-009	0.0033381	7
	27	38	1976.103	3725.625	-1868.362	1	4167.86	-26.63329	-6.989238E-009	0.0033099	7
	28	40	1577.524	3798.156	-2245.201	1	4412.133	-30.58858	1.326509E-008	0.0032111	7
	29	41	1265.625	3929.585	-2657.29	1	4743.715	-34.0676	-2.719983E-008	0.0033332	7
	30	42	998.264	4058.88	-3224.396	1	5183.748	-38.46382	-6.781232E-009	0.0033064	7
	31	44	796.875	4195.156	-3888.831	1	5720.344	-42.82994	-3.99328E-008	0.0033153	7
	32	45	627.7902	4368.107	-4766.562	1	6465.329	-47.49766	-1.790776E-008	0.0032523	7
	33	46	505.5147	4553.962	-5749.409	1	7334.458	-51.61814	-7.608873E-009	0.0033071	7
	34	48	397.9953	4797.726	-7090.482	1	8561.14	-55.91602	5.176432E-009	0.0032852	7
	35	49	315.5048	5098.245	-8707.759	1	10090.45	-59.65175	5.998078E-009	0.0032916	7
	36	51	252.4038	5465.564	-10617.64	1	11941.8	-62.76227	1.699129E-009	0.0032307	6
	37	52	198.6229	5968.269	-13146.82	1	14438.11	-65.58334	1.026426E-009	0.0032317	6
	38	53	158.3615	6589.199	-16089.42	1	17386.4	-67.72913	9.071551E-010	0.0032283	6
	39	55	125.558	7410.474	-19785.71	1	21127.93	-69.46723	8.333776E-010	0.0032337	6
	40	56	100.4464	8438.105	-24135.54	1	25568.06	-70.7297	1.381077E-009	0.0032288	6
	41	57	79.00281	9881.21	-29729.13	1	31328.26	-71.61449	1.985226E-009	0.0032264	6
	42	59	63.3446	11513.99	-35811.15	1	37616.62	-72.17638	1.491206E-009	0.0032241	6
	43	60	49.86702	14588.78	-44376.92	1	46713.42	-71.80187	1.463547E-009	0.0032228	6
	44	62	39.72458	17538.04	-53767.86	1	56555.86	-71.93468	1.219764E-009	0.0032219	6
	45	63	31.6723	21758.59	-65173.45	1	68709.64	-71.53807	5.898853E-010	0.0032173	6
	46	64	24.93351	27586.76	-78978.82	1	83658.13	-70.74604	9.373028E-010	0.003221	6
	47	66	19.86229	34727.68	-94605.89	1	100778.4	-69.84296	5.765372E-010	0.0032183	6
	48	67	15.83615	44098.78	-113456.6	1	121725.5	-68.75969	-1.105997E-009	0.0032257	5
	49	69	12.40079	56855.06	-134242.6	1	145786	-67.04614	9.075516E-010	0.0032197	5
	50	70	9.93114	71107.75	-157297.5	1	172623.3	-65.67422	2.83074E-010	0.0032263	5
	51	72	7.944915	88459.4	-182399.9	1	202718.5	-64.12777	1.153498E-009	0.0032265	5
	52	73	6.317385	110459.8	-211946.7	1	239003.7	-62.47292	5.735672E-011	0.0032422	5
	53	75	5.008013	136082.4	-244560.5	1	279871.8	-60.90683	2.032566E-010	0.003225	5
	54	78	3.945707	165935.3	-281064.3	1	326391.9	-59.44316	6.467429E-010	0.0032316	5
	55	81	3.158693	197949.7	-319314	1	375693.4	-58.20433	2.395988E-011	0.0032172	5
	56	84	2.504006	234640.9	-363736.9	1	432852	-57.17458	5.94742E-010	0.0032181	5
	57	87	1.998082	274134.5	-412277.4	1	495098.3	-56.37898	3.241923E-010	0.0032504	5
	58	90	1.584686	318708.8	-468404.4	1	566549.3	-55.76809	2.439219E-010	0.0031788	5
	59	94	1.266892	365644.8	-533358	1	646658.3	-55.56732	3.402369E-010	0.0032361	5
	60	98	0.999041	422836.3	-613443.6	1	745052.8	-55.42216	-1.026441E-010	0.0032025	5
