EXPLAIN
TAG	EISPOT
TITLE	LABEL	Potentiostatic EIS	Test &Identifier
DATE	LABEL	9/26/2019	Date
TIME	LABEL	8:44:59	Time
NOTES	NOTES	2	&Notes...
	
	
PSTAT	PSTAT	REF600-11020	Potentiostat
VDC	POTEN	0.00000E+000	T	DC &Voltage (V)
FREQINIT	QUANT	1.00000E+006	Initial Fre&q. (Hz)
FREQFINAL	QUANT	1.00000E+000	Final Fre&q. (Hz)
PTSPERDEC	QUANT	1.00000E+001	Points/&decade
VAC	QUANT	2.50000E+001	AC &Voltage (mV rms)
AREA	QUANT	1.00000E-002	&Area (cm^2)
CONDIT	TWOPARAM	T	5.00000E+000	0.00000E+000	Conditionin&g	Time(s)	E(V)
DELAY	TWOPARAM	T	5.00000E+000	0.00000E+000	Init. De&lay	Time(s)	Stab.(mV/s)
SPEED	SELECTOR	1	&Optimize for:
ZGUESS	QUANT	1.00000E+004	E&stimated Z (ohms)
OCVCURVE	TABLE	19
	Pt	T	Vf	Vm	Ach	Over
	#	s	V vs. Ref.	V	V	bits
	0	0.258333	2.73310E-002	2.73310E-002	5.61366E-004	...........
	1	0.516667	2.73607E-002	2.88849E-002	5.72532E-004	...........
	2	0.775	2.75423E-002	3.03233E-002	5.71132E-004	...........
	3	1.03333	2.80530E-002	3.16543E-002	5.69266E-004	...........
	4	1.29167	2.89575E-002	3.28899E-002	5.66966E-004	...........
	5	1.55	3.01428E-002	3.40547E-002	5.65732E-004	...........
	6	1.80833	3.14321E-002	3.51345E-002	5.68866E-004	...........
	7	2.06667	3.26996E-002	3.61494E-002	5.66566E-004	...........
	8	2.325	3.38909E-002	3.71011E-002	5.69066E-004	...........
	9	2.58333	3.49968E-002	3.80026E-002	5.70466E-004	...........
	10	2.84167	3.60259E-002	3.88463E-002	5.66999E-004	...........
	11	3.1	3.69887E-002	3.96393E-002	5.70766E-004	...........
	12	3.35833	3.78931E-002	4.03966E-002	5.69766E-004	...........
	13	3.61667	3.87447E-002	4.11103E-002	5.70299E-004	...........
	14	3.875	3.95483E-002	4.17898E-002	5.70699E-004	...........
	15	4.13333	4.03083E-002	4.24315E-002	5.66166E-004	...........
	16	4.39167	4.10282E-002	4.30412E-002	5.66532E-004	...........
	17	4.65	4.17103E-002	4.36138E-002	5.69932E-004	...........
	18	4.90833	4.23568E-002	4.41750E-002	5.65066E-004	...........
EOC	QUANT	0.0423568	Open Circuit (V)
PSTATMODEL	IQUANT	4	Pstat Model
PSTATSECTION	LABEL	REF600-11020	Pstat Section
PSTATSERIALNO	LABEL	11020	Pstat Serial Number
CTRLMODE	IQUANT	1	Control Mode
IESTAB	IQUANT	0	I/E Stability
CASPEED	IQUANT	1	Control Amp Speed
CONVENTION	IQUANT	1	Current Convention
ICHRANGE	IQUANT	2	Ich Range
ICHRANGEMODE	TOGGLE	F	Ich Auto Range
ICHOFFSETENABLE	TOGGLE	T	Ich Offset Enable
ICHOFFSET	QUANT	0	Ich Offset (V)
ICHFILTER	IQUANT	3	Ich Filter
VCHRANGE	IQUANT	2	Vch Range
VCHRANGEMODE	TOGGLE	F	Vch Auto Range
VCHOFFSETENABLE	TOGGLE	T	Vch Offset Enable
VCHOFFSET	QUANT	0	Vch Offset (V)
VCHFILTER	IQUANT	3	Vch Filter
ACHRANGE	IQUANT	2	Ach Range
ACHOFFSETENABLE	TOGGLE	F	Ach Offset Enable
ACHOFFSET	QUANT	0	Ach Offset (V)
ACHFILTER	IQUANT	3	Ach Filter
IERANGELOWERLIMIT	IQUANT	1	I/E Range Lower Limit
IERANGEMODE	TOGGLE	F	I/E AutoRange
IERANGE	IQUANT	6	I/E Range
POSFEEDENABLE	TOGGLE	F	Positive Feedback IR Comp
POSFEEDRESISTANCE	QUANT	0	Positive Feedback Resistance (ohm)
ACHSELECT	IQUANT	0	Ach Select
CABLEID	IQUANT	14	Cable ID
DCCALDATE	LABEL	8/19/2019	DC Calibration Date
ACCALDATE	LABEL	8/19/2019	AC Calibration Date
THERMOSELECT	IQUANT	1	Thermo Select
FRAMEWORKVERSION	QUANT	6.33	Framework Version
INSTRUMENTVERSION	LABEL	3.50	Instrument Version
ZCURVE	TABLE
	Pt	Time	Freq	Zreal	Zimag	Zsig	Zmod	Zphz	Idc	Vdc	IERange
	#	s	Hz	ohm	ohm	V	ohm	°	A	V	#
	0	2	1000078	2224.84	-1971.357	1	2972.568	-41.54308	-5.248054E-006	0.0455537	8
	1	3	794390.6	2629.915	-1998.642	1	3303.183	-37.23355	8.243019E-006	0.0429545	8
	2	5	630984.4	3009.361	-1993.535	1	3609.77	-33.52226	3.901388E-006	0.0429348	8
	3	6	501234.4	3404.68	-1951.211	1	3924.165	-29.81688	-9.165685E-007	0.0438661	8
	4	8	398109.4	3744.772	-1779.81	1	4146.208	-25.42075	8.021779E-007	0.0437008	8
	5	9	316265.6	4045.324	-1660.339	1	4372.799	-22.31492	-2.176849E-006	0.0442253	8
	6	10	251203.1	4295.702	-1472.193	1	4540.97	-18.91725	1.793857E-006	0.0434717	8
	7	12	199546.9	4520.382	-1315.732	1	4707.973	-16.2285	3.581995E-006	0.0431601	8
	8	13	158578.1	4670.034	-1163.169	1	4812.71	-13.98612	-5.058786E-007	0.0439835	8
	9	15	125953.1	4828.363	-949.562	1	4920.849	-11.12599	2.827023E-007	0.0432331	7
	10	16	100078.1	4922.74	-838.175	1	4993.586	-9.66286	-1.37855E-008	0.0438204	7
	11	17	79453.13	5000.544	-750.2695	1	5056.516	-8.53287	-4.430215E-008	0.0437962	7
	12	19	63140.62	5067.063	-683.4894	1	5112.953	-7.682183	7.705033E-008	0.043643	7
	13	20	50203.12	5122.19	-628.7499	1	5160.635	-6.998061	-4.249565E-008	0.0437886	7
	14	22	39890.62	5179.318	-607.1897	1	5214.788	-6.686465	1.390869E-007	0.0435711	7
	15	23	31640.63	5221.644	-578.584	1	5253.601	-6.322864	-2.975486E-008	0.0437728	7
	16	24	25171.88	5269.02	-577.5438	1	5300.578	-6.25529	1.387119E-007	0.0435688	7
	17	26	20015.62	5314.799	-591.0287	1	5347.561	-6.345468	-4.235812E-008	0.0437914	7
	18	27	15890.62	5352.508	-632.008	1	5389.692	-6.734132	4.602891E-008	0.0436272	7
	19	28	12609.37	5412.055	-668.092	1	5453.136	-7.037285	-4.175806E-008	0.0437917	7
	20	30	10078.13	5463.349	-730.8579	1	5512.018	-7.619489	4.5196E-008	0.0436231	7
	21	31	8015.625	5514.464	-814.559	1	5574.3	-8.40258	-7.200279E-008	0.0438759	7
	22	33	6328.125	5574.828	-926.5937	1	5651.308	-9.436878	4.192993E-008	0.0437164	7
	23	34	5015.625	5638.177	-1067.266	1	5738.301	-10.71885	-4.470063E-008	0.0438202	7
	24	35	3984.375	5704.614	-1241.088	1	5838.058	-12.27393	-4.289257E-008	0.0437871	7
	25	37	3170.956	5779.876	-1455.192	1	5960.248	-14.13159	-6.476668E-009	0.0437124	7
	26	38	2527.573	5861.22	-1719.593	1	6108.265	-16.35089	-1.602485E-008	0.0438257	7
	27	39	1976.103	5962.929	-2076.157	1	6314.028	-19.19696	-3.160181E-008	0.0437595	7
	28	41	1577.524	6074.514	-2471.968	1	6558.227	-22.14342	7.712376E-008	0.0436294	7
	29	42	1265.625	6201.411	-2942.542	1	6864.114	-25.38413	-4.962422E-009	0.0438893	7
	30	44	998.264	6364.1	-3579.027	1	7301.452	-29.35242	-1.941558E-008	0.0438231	7
	31	45	796.875	6540.233	-4293.011	1	7823.336	-33.28091	-4.342252E-008	0.0438196	7
	32	46	627.7902	6757.281	-5238.445	1	8549.979	-37.78391	-4.370623E-008	0.0439153	7
	33	48	505.5147	6993.925	-6283.406	1	9401.924	-41.93681	1.424616E-007	0.0435635	7
	34	49	397.9953	7300.035	-7688.057	1	10601.73	-46.48298	5.782686E-010	0.0437209	6
	35	50	315.5048	7654.092	-9379.243	1	12106	-50.78325	-3.418324E-010	0.0437251	6
	36	52	252.4038	8062.827	-11375.26	1	13942.95	-54.67085	7.748381E-010	0.0437207	6
	37	53	198.6229	8609.316	-14016.65	1	16449.52	-58.44089	3.874744E-010	0.0437181	6
	38	55	158.3615	9254.426	-17091.22	1	19435.9	-61.56567	9.656425E-010	0.0437196	6
	39	56	125.558	10083.81	-20957.18	1	23256.96	-64.30489	2.654167E-010	0.04372	6
	40	57	100.4464	11091.58	-25530.53	1	27835.79	-66.51775	-1.488218E-010	0.043726	6
	41	59	79.00281	12527.37	-31375.27	1	33783.76	-68.23438	-6.351602E-010	0.0437214	6
	42	60	63.3446	14775.82	-38037.11	1	40806.21	-68.77094	-3.680939E-010	0.0437247	6
	43	61	49.86702	16613.91	-47405.84	1	50232.82	-70.68642	-9.211315E-010	0.0437214	6
	44	63	39.72458	19652.71	-57209.48	1	60490.93	-71.04128	-3.039588E-011	0.0437266	6
	45	64	31.6723	23596.52	-68945.13	1	72871.3	-71.10645	5.059034E-010	0.0437233	6
	46	66	24.93351	28971.6	-84750.59	1	89565.7	-71.12724	-2.320672E-010	0.0437158	6
	47	67	19.86229	35835.03	-102346.9	1	108439	-70.70316	-1.780706E-010	0.04373	5
	48	68	15.83615	45754.61	-122981	1	131216.6	-69.59247	-1.648988E-009	0.0437259	5
	49	70	12.40079	57445.6	-147652	1	158433.3	-68.74094	5.470425E-010	0.0437222	5
	50	71	9.93114	70969.77	-176220.9	1	189975	-68.06378	-2.333388E-010	0.0437227	5
	51	73	7.944915	88983.84	-208456.5	1	226654.4	-66.88381	-2.689415E-010	0.0437189	5
	52	74	6.317385	112410.1	-243589.5	1	268275.8	-65.22794	-9.44007E-011	0.043715	5
	53	77	5.008013	141288.6	-284550.4	1	317697	-63.59409	-3.073296E-010	0.043735	5
	54	79	3.945707	176744.6	-331195.7	1	375405.4	-61.91312	-6.584391E-010	0.0437232	5
	55	82	3.158693	215521	-379529.7	1	436454	-60.40934	-2.329099E-010	0.0437437	5
	56	85	2.504006	262512	-434745.8	1	507854.8	-58.87522	-7.28374E-010	0.0437254	5
	57	88	1.998082	313564.2	-492063.4	1	583480	-57.49294	-5.799327E-010	0.043691	5
	58	91	1.584686	373531.5	-556662.4	1	670372.2	-56.13761	-2.577631E-010	0.043756	5
	59	95	1.266892	436832.9	-631399.9	1	767781.8	-55.32264	-4.776392E-010	0.0436953	5
	60	99	0.999041	513930.8	-717049.6	1	882204.6	-54.3697	-2.603954E-010	0.0437621	5
