EXPLAIN
TAG	EISPOT
TITLE	LABEL	Potentiostatic IDE	Test &Identifier
DATE	LABEL	9/12/2019	Date
TIME	LABEL	9:59:20	Time
NOTES	NOTES	1	&Notes...
	
PSTAT	PSTAT	REF600-11020	Potentiostat
VDC	POTEN	0.00000E+000	T	DC &Voltage (V)
FREQINIT	QUANT	1.00000E+006	Initial Fre&q. (Hz)
FREQFINAL	QUANT	1.00000E+000	Final Fre&q. (Hz)
PTSPERDEC	QUANT	1.00000E+001	Points/&decade
VAC	QUANT	2.50000E+001	AC &Voltage (mV rms)
AREA	QUANT	1.00000E-002	&Area (cm^2)
CONDIT	TWOPARAM	T	5.00000E+000	0.00000E+000	Conditionin&g	Time(s)	E(V)
DELAY	TWOPARAM	T	5.00000E+000	0.00000E+000	Init. De&lay	Time(s)	Stab.(mV/s)
SPEED	SELECTOR	1	&Optimize for:
ZGUESS	QUANT	1.00000E+007	E&stimated Z (ohms)
OCVCURVE	TABLE	19
	Pt	T	Vf	Vm	Ach	Over
	#	s	V vs. Ref.	V	V	bits
	0	0.258333	5.26203E-004	5.26203E-004	5.66899E-004	...........
	1	0.516667	5.15773E-004	-1.97715E-005	5.60699E-004	...........
	2	0.775	4.52208E-004	-5.12092E-004	5.65199E-004	...........
	3	1.03333	2.74215E-004	-9.72586E-004	5.64032E-004	...........
	4	1.29167	-3.94130E-005	-1.37634E-003	5.62932E-004	...........
	5	1.55	-4.47466E-004	-1.77618E-003	5.61699E-004	...........
	6	1.80833	-8.87814E-004	-2.14812E-003	5.60632E-004	...........
	7	2.06667	-1.31865E-003	-2.50273E-003	5.60132E-004	...........
	8	2.325	-1.72458E-003	-2.84010E-003	5.61032E-004	...........
	9	2.58333	-2.10478E-003	-3.15846E-003	5.63766E-004	...........
	10	2.84167	-2.46270E-003	-3.46626E-003	5.63032E-004	...........
	11	3.1	-2.80171E-003	-3.75832E-003	5.63666E-004	...........
	12	3.35833	-3.12436E-003	-4.04236E-003	5.62832E-004	...........
	13	3.61667	-3.43261E-003	-4.31094E-003	5.64466E-004	...........
	14	3.875	-3.72797E-003	-4.57834E-003	5.69266E-004	...........
	15	4.13333	-4.01185E-003	-4.83184E-003	5.63499E-004	...........
	16	4.39167	-4.28551E-003	-5.07293E-003	5.65899E-004	...........
	17	4.65	-4.54943E-003	-5.30694E-003	5.69666E-004	...........
	18	4.90833	-4.80353E-003	-5.53500E-003	5.68499E-004	...........
EOC	QUANT	-0.0048035	Open Circuit (V)
PSTATMODEL	IQUANT	4	Pstat Model
PSTATSECTION	LABEL	REF600-11020	Pstat Section
PSTATSERIALNO	LABEL	11020	Pstat Serial Number
CTRLMODE	IQUANT	1	Control Mode
IESTAB	IQUANT	0	I/E Stability
CASPEED	IQUANT	1	Control Amp Speed
CONVENTION	IQUANT	1	Current Convention
ICHRANGE	IQUANT	2	Ich Range
ICHRANGEMODE	TOGGLE	F	Ich Auto Range
ICHOFFSETENABLE	TOGGLE	T	Ich Offset Enable
ICHOFFSET	QUANT	0	Ich Offset (V)
ICHFILTER	IQUANT	3	Ich Filter
VCHRANGE	IQUANT	2	Vch Range
VCHRANGEMODE	TOGGLE	F	Vch Auto Range
VCHOFFSETENABLE	TOGGLE	T	Vch Offset Enable
VCHOFFSET	QUANT	0	Vch Offset (V)
VCHFILTER	IQUANT	3	Vch Filter
ACHRANGE	IQUANT	2	Ach Range
ACHOFFSETENABLE	TOGGLE	F	Ach Offset Enable
ACHOFFSET	QUANT	0	Ach Offset (V)
ACHFILTER	IQUANT	3	Ach Filter
IERANGELOWERLIMIT	IQUANT	1	I/E Range Lower Limit
IERANGEMODE	TOGGLE	F	I/E AutoRange
IERANGE	IQUANT	2	I/E Range
POSFEEDENABLE	TOGGLE	F	Positive Feedback IR Comp
POSFEEDRESISTANCE	QUANT	0	Positive Feedback Resistance (ohm)
ACHSELECT	IQUANT	0	Ach Select
CABLEID	IQUANT	14	Cable ID
DCCALDATE	LABEL	8/19/2019	DC Calibration Date
ACCALDATE	LABEL	8/19/2019	AC Calibration Date
THERMOSELECT	IQUANT	1	Thermo Select
FRAMEWORKVERSION	QUANT	6.33	Framework Version
INSTRUMENTVERSION	LABEL	3.50	Instrument Version
ZCURVE	TABLE
	Pt	Time	Freq	Zreal	Zimag	Zsig	Zmod	Zphz	Idc	Vdc	IERange
	#	s	Hz	ohm	ohm	V	ohm	°	A	V	#
	0	3	1000078	2545.681	-2033.611	1	3258.23	-38.61953	-6.167028E-006	-0.0012825	8
	1	4	794390.6	2962.176	-1966.654	1	3555.589	-33.58107	5.36397E-006	-0.0034216	8
	2	6	630984.4	3356.628	-1869.103	1	3841.939	-29.11079	-7.69079E-007	-0.0030995	8
	3	7	501234.4	3685.228	-1714.776	1	4064.648	-24.95307	5.416416E-007	-0.0031168	8
	4	9	398109.4	3958.065	-1517.836	1	4239.116	-20.98078	4.777567E-006	-0.0040108	8
	5	10	316265.6	4169.337	-1312.857	1	4371.151	-17.47837	-1.324538E-006	-0.0028467	8
	6	12	251203.1	4320.191	-1142.952	1	4468.825	-14.8187	2.582788E-006	-0.0038265	8
	7	13	199546.9	4450.35	-976.496	1	4556.222	-12.37572	-3.707018E-006	-0.0024148	8
	8	14	158578.1	4550.543	-855.6903	1	4630.297	-10.64962	-9.390699E-007	-0.0028784	8
	9	16	125953.1	4636.859	-707.1646	1	4690.474	-8.671327	6.934907E-007	-0.0050248	7
	10	17	100078.1	4688.249	-632.0912	1	4730.668	-7.678576	7.777076E-008	-0.0032034	7
	11	19	79453.13	4736.542	-584.1047	1	4772.421	-7.030154	3.369286E-008	-0.0032127	7
	12	20	63140.62	4782.358	-552.8945	1	4814.212	-6.594761	-4.260659E-008	-0.0030402	7
	13	21	50203.12	4824.404	-538.2995	1	4854.343	-6.36664	7.946004E-008	-0.003332	7
	14	23	39890.62	4868.639	-535.0245	1	4897.948	-6.271185	1.456065E-007	-0.0034089	7
	15	24	31640.63	4912.347	-549.418	1	4942.976	-6.381685	1.452643E-007	-0.0034058	7
	16	25	25171.88	4957.137	-577.2951	1	4990.639	-6.642594	8.202914E-008	-0.003334	7
	17	27	20015.62	5003.057	-616.7059	1	5040.923	-7.027164	-8.555076E-009	-0.0031384	7
	18	28	15890.62	5055.282	-674.5755	1	5100.091	-7.600633	-4.395054E-008	-0.0031555	7
	19	29	12609.37	5109.051	-749.6461	1	5163.756	-8.347389	-7.419685E-008	-0.0030783	7
	20	31	10078.13	5164.402	-843.5178	1	5232.836	-9.276384	-4.437559E-008	-0.0031556	7
	21	32	8015.625	5227.329	-960.692	1	5314.875	-10.41376	-7.368583E-008	-0.0030804	7
	22	33	6328.125	5300.928	-1114.202	1	5416.76	-11.87021	-5.575214E-008	-0.0030791	7
	23	35	5015.625	5380.462	-1300.309	1	5535.357	-13.5863	-1.601012E-009	-0.0032559	7
	24	36	3984.375	5469.44	-1526.008	1	5678.334	-15.58944	1.468083E-007	-0.0034083	7
	25	37	3170.956	5569.092	-1798.897	1	5852.42	-17.90121	3.638853E-008	-0.00322	7
	26	39	2527.573	5687.702	-2125.349	1	6071.826	-20.48943	-4.242219E-008	-0.0031506	7
	27	40	1976.103	5834.079	-2563.052	1	6372.261	-23.71704	1.462157E-007	-0.0034112	7
	28	41	1577.524	5991.142	-3043.463	1	6719.854	-26.93029	-4.049852E-008	-0.0031492	7
	29	43	1265.625	6156.299	-3596.642	1	7129.926	-30.29439	-4.001065E-008	-0.0031437	7
	30	44	998.264	6393.141	-4364.362	1	7740.795	-34.31991	-2.335884E-008	-0.0032131	7
	31	45	796.875	6639.812	-5221.796	1	8447.146	-38.18283	-2.542553E-009	-0.0032652	7
	32	47	627.7902	6949.745	-6328.257	1	9399.244	-42.32018	2.4323E-008	-0.0032957	7
	33	48	505.5147	7287.033	-7544.086	1	10488.76	-45.99295	-1.734039E-009	-0.0032458	6
	34	49	397.9953	7707.467	-9186.479	1	11991.52	-50.00331	5.411334E-010	-0.0032441	6
	35	51	315.5048	8204.319	-11136.33	1	13832.16	-53.6203	1.945535E-009	-0.0032459	6
	36	52	252.4038	8776.787	-13419.1	1	16034.47	-56.81324	1.113938E-009	-0.0032395	6
	37	53	198.6229	9515.25	-16405.93	1	18965.62	-59.88676	1.332316E-009	-0.0032438	6
	38	55	158.3615	10364.37	-19851.61	1	22394.35	-62.43129	9.479955E-010	-0.0032453	6
	39	56	125.558	11426.62	-24172.37	1	26737.08	-64.69924	9.769439E-010	-0.0032458	6
	40	57	100.4464	12672.43	-29174.67	1	31808.05	-66.5216	1.631533E-009	-0.0032482	6
	41	59	79.00281	14252	-35884.9	1	38611.47	-68.33907	1.585698E-009	-0.0032482	6
	42	60	63.3446	16803.36	-43332.48	1	46476.41	-68.80482	1.333371E-009	-0.0032484	6
	43	61	49.86702	18544.61	-53320.39	1	56453.23	-70.82254	1.168194E-009	-0.003252	6
	44	63	39.72458	22214.97	-64562.57	1	68277.6	-71.01246	1.04064E-009	-0.0032472	6
	45	64	31.6723	26114.74	-78429.91	1	82663.35	-71.58383	1.060325E-009	-0.0032484	6
	46	65	24.93351	32055.36	-95925.9	1	101140.1	-71.52202	6.561088E-010	-0.0032489	6
	47	67	19.86229	39355.7	-115741.4	1	122249.5	-71.22035	8.848587E-010	-0.0032382	5
	48	68	15.83615	50952.28	-139205.5	1	148237.3	-69.89626	2.539174E-009	-0.0032467	5
	49	69	12.40079	61385.67	-171628.4	1	182276	-70.3196	1.212379E-009	-0.0032426	5
	50	71	9.93114	78712.18	-202400.5	1	217167.2	-68.74928	6.767483E-010	-0.0032503	5
	51	72	7.944915	98711.5	-240209.7	1	259701.1	-67.66033	2.50285E-011	-0.0032409	5
	52	74	6.317385	126914	-281304.9	1	308609.2	-65.71693	3.238905E-010	-0.0032342	5
	53	76	5.008013	160722.1	-328726.1	1	365913.1	-63.94488	6.028318E-010	-0.0032384	5
	54	79	3.945707	202830	-383329	1	433683.2	-62.11545	1.537762E-010	-0.0032473	5
	55	81	3.158693	249680.6	-437298.7	1	503557.9	-60.27531	2.657808E-010	-0.0032547	5
	56	84	2.504006	304105.4	-498864.8	1	584248.3	-58.63373	5.16517E-010	-0.0032337	5
	57	87	1.998082	364890.8	-563800.8	1	671577.7	-57.08914	4.859879E-010	-0.0032093	5
	58	90	1.584686	431798.3	-635164.1	1	768038.5	-55.79129	3.888736E-010	-0.0032505	5
	59	94	1.266892	507626.6	-715875.5	1	877589.1	-54.65958	3.68952E-010	-0.0032047	5
	60	98	0.999041	590631.8	-806951.1	1	1000008	-53.79848	1.373337E-010	-0.0032867	5
