EXPLAIN
TAG	EISPOT
TITLE	LABEL	Potentiostatic EIS	Test &Identifier
DATE	LABEL	11/9/2019	Date
TIME	LABEL	10:57:27	Time
NOTES	NOTES	2	&Notes...
	
	
PSTAT	PSTAT	REF600-11020	Potentiostat
VDC	POTEN	0.00000E+000	T	DC &Voltage (V)
FREQINIT	QUANT	1.00000E+006	Initial Fre&q. (Hz)
FREQFINAL	QUANT	1.00000E+000	Final Fre&q. (Hz)
PTSPERDEC	QUANT	1.00000E+001	Points/&decade
VAC	QUANT	2.50000E+001	AC &Voltage (mV rms)
AREA	QUANT	1.00000E-002	&Area (cm^2)
CONDIT	TWOPARAM	T	5.00000E+000	0.00000E+000	Conditionin&g	Time(s)	E(V)
DELAY	TWOPARAM	T	5.00000E+000	0.00000E+000	Init. De&lay	Time(s)	Stab.(mV/s)
SPEED	SELECTOR	0	&Optimize for:
ZGUESS	QUANT	1.00000E+005	E&stimated Z (ohms)
OCVCURVE	TABLE	19
	Pt	T	Vf	Vm	Ach	Over
	#	s	V vs. Ref.	V	V	bits
	0	0.258333	1.95315E-002	1.95315E-002	5.69666E-004	...........
	1	0.516667	1.95470E-002	2.03433E-002	5.62766E-004	...........
	2	0.775	1.96439E-002	2.11995E-002	5.64199E-004	...........
	3	1.03333	1.99224E-002	2.19628E-002	5.64366E-004	...........
	4	1.29167	2.04264E-002	2.26951E-002	5.64799E-004	...........
	5	1.55	2.10950E-002	2.31336E-002	5.70332E-004	...........
	6	1.80833	2.18142E-002	2.37495E-002	5.64232E-004	...........
	7	2.06667	2.25007E-002	2.45193E-002	5.60799E-004	...........
	8	2.325	2.31524E-002	2.54955E-002	5.59599E-004	...........
	9	2.58333	2.38287E-002	2.63641E-002	5.64799E-004	...........
	10	2.84167	2.45799E-002	2.71943E-002	5.65132E-004	...........
	11	3.1	2.54008E-002	2.79438E-002	5.61932E-004	...........
	12	3.35833	2.62454E-002	2.86477E-002	5.58966E-004	...........
	13	3.61667	2.70669E-002	2.93154E-002	5.64566E-004	...........
	14	3.875	2.78409E-002	2.99635E-002	5.66199E-004	...........
	15	4.13333	2.85665E-002	3.06747E-002	5.63799E-004	...........
	16	4.39167	2.92578E-002	3.12859E-002	5.67366E-004	...........
	17	4.65	2.99309E-002	3.19707E-002	5.58999E-004	...........
	18	4.90833	3.05911E-002	3.24225E-002	5.58866E-004	...........
EOC	QUANT	0.0305911	Open Circuit (V)
PSTATMODEL	IQUANT	4	Pstat Model
PSTATSECTION	LABEL	REF600-11020	Pstat Section
PSTATSERIALNO	LABEL	11020	Pstat Serial Number
CTRLMODE	IQUANT	1	Control Mode
IESTAB	IQUANT	0	I/E Stability
CASPEED	IQUANT	1	Control Amp Speed
CONVENTION	IQUANT	1	Current Convention
ICHRANGE	IQUANT	2	Ich Range
ICHRANGEMODE	TOGGLE	F	Ich Auto Range
ICHOFFSETENABLE	TOGGLE	T	Ich Offset Enable
ICHOFFSET	QUANT	0	Ich Offset (V)
ICHFILTER	IQUANT	3	Ich Filter
VCHRANGE	IQUANT	2	Vch Range
VCHRANGEMODE	TOGGLE	F	Vch Auto Range
VCHOFFSETENABLE	TOGGLE	T	Vch Offset Enable
VCHOFFSET	QUANT	0	Vch Offset (V)
VCHFILTER	IQUANT	3	Vch Filter
ACHRANGE	IQUANT	2	Ach Range
ACHOFFSETENABLE	TOGGLE	F	Ach Offset Enable
ACHOFFSET	QUANT	0	Ach Offset (V)
ACHFILTER	IQUANT	3	Ach Filter
IERANGELOWERLIMIT	IQUANT	1	I/E Range Lower Limit
IERANGEMODE	TOGGLE	F	I/E AutoRange
IERANGE	IQUANT	5	I/E Range
POSFEEDENABLE	TOGGLE	F	Positive Feedback IR Comp
POSFEEDRESISTANCE	QUANT	0	Positive Feedback Resistance (ohm)
ACHSELECT	IQUANT	0	Ach Select
CABLEID	IQUANT	14	Cable ID
DCCALDATE	LABEL	8/19/2019	DC Calibration Date
ACCALDATE	LABEL	8/19/2019	AC Calibration Date
THERMOSELECT	IQUANT	1	Thermo Select
FRAMEWORKVERSION	QUANT	6.33	Framework Version
INSTRUMENTVERSION	LABEL	3.50	Instrument Version
ZCURVE	TABLE
	Pt	Time	Freq	Zreal	Zimag	Zsig	Zmod	Zphz	Idc	Vdc	IERange
	#	s	Hz	ohm	ohm	V	ohm	°	A	V	#
	0	2	1000078	2361.634	-1794.391	1	2966	-37.2279	-5.255386E-006	0.0333611	8
	1	2	794390.6	2621.887	-1812.173	1	3187.203	-34.65112	1.439689E-006	0.0319144	8
	2	3	630984.4	2983.093	-1828.76	1	3499.029	-31.51003	9.88844E-006	0.0310988	8
	3	3	501234.4	3282.551	-1757.771	1	3723.56	-28.16857	6.768945E-006	0.0305802	8
	4	3	398109.4	3560.436	-1712.862	1	3951.025	-25.69137	7.203748E-006	0.0305956	8
	5	3	316265.6	3840.986	-1701.142	1	4200.84	-23.88816	1.921425E-006	0.0324134	8
	6	4	251203.1	4111.05	-1597.265	1	4410.44	-21.23263	-2.562319E-006	0.0321902	8
	7	4	199546.9	4366.212	-1513.739	1	4621.17	-19.12112	-4.422466E-006	0.0327167	8
	8	4	158578.1	4575.39	-1394.504	1	4783.182	-16.95036	-1.743268E-008	0.0316496	8
	9	5	125953.1	4802.361	-1279.625	1	4969.921	-14.92023	-4.083495E-006	0.0371359	7
	10	5	100078.1	4984.429	-1193.946	1	5125.431	-13.47055	1.445861E-007	0.0301968	7
	11	5	79453.13	5144.714	-1145.092	1	5270.609	-12.54815	1.4581E-006	0.0304763	7
	12	6	63140.62	5258.61	-1091.759	1	5370.746	-11.72876	-1.465447E-006	0.0341357	7
	13	6	50203.12	5374.682	-1064.339	1	5479.053	-11.20127	9.695303E-008	0.0332566	7
	14	6	39890.62	5510.087	-1057.52	1	5610.652	-10.86435	1.101306E-006	0.0316888	7
	15	7	31640.63	5586.733	-1065.068	1	5687.351	-10.79348	-1.631303E-006	0.0339173	7
	16	7	25171.88	5696.062	-1109.133	1	5803.042	-11.01871	8.103534E-007	0.0322508	7
	17	7	20015.62	5840.502	-1155.383	1	5953.686	-11.18992	1.440208E-006	0.0300296	7
	18	8	15890.62	5913.75	-1238.719	1	6042.09	-11.83038	-1.609022E-006	0.0334171	7
	19	8	12609.37	6045.633	-1341.938	1	6192.776	-12.51494	-1.616365E-006	0.0339033	7
	20	8	10078.13	6183.381	-1482.647	1	6358.651	-13.48378	-4.129305E-007	0.0308506	7
	21	9	8015.625	6364.337	-1647.29	1	6574.067	-14.51148	1.447434E-006	0.0304726	7
	22	10	6328.125	6526.557	-1856.662	1	6785.51	-15.87989	1.442361E-007	0.0301626	7
	23	10	5015.625	6716.254	-2076.373	1	7029.893	-17.17933	1.381893E-007	0.0301647	7
	24	10	3984.375	6949.179	-2375.793	1	7344.078	-18.87459	6.312043E-007	0.0297644	7
	25	11	3170.956	7227.096	-2680.662	1	7708.234	-20.35074	8.074363E-007	0.0322513	7
	26	11	2527.573	7537.183	-3051.323	1	8131.402	-22.03988	8.075674E-007	0.0322438	7
	27	11	1976.103	7833.733	-3493.2	1	8577.285	-24.03294	1.351921E-007	0.0301668	7
	28	12	1577.524	8237.292	-3955.992	1	9137.989	-25.65283	-1.618301E-006	0.0338957	7
	29	12	1265.625	8644.22	-4464.382	1	9728.99	-27.31449	-1.456341E-006	0.034123	7
	30	13	998.264	9029.388	-5073.063	1	10356.92	-29.32898	-1.18082E-006	0.0341954	7
	31	13	796.875	9445.569	-5788.095	1	11077.94	-31.49931	-1.443628E-006	0.0341163	7
	32	13	627.7902	10011.69	-6704.049	1	12048.99	-33.80714	1.412597E-007	0.0301599	7
	33	14	505.5147	10435.08	-7712.981	1	12976.17	-36.46959	2.025809E-008	0.034108	6
	34	14	397.9953	10957.37	-9044.565	1	14208.03	-39.53736	-3.872382E-010	0.0319383	6
	35	14	315.5048	11477.23	-10676.97	1	15675.6	-42.93126	-2.017011E-009	0.0319397	6
	36	15	252.4038	12011.75	-12614.43	1	17418.55	-46.40193	7.89285E-010	0.0319229	6
	37	15	198.6229	12634.49	-15235.05	1	19792.35	-50.33095	-1.913147E-010	0.031924	6
	38	15	158.3615	13320.31	-18297.79	1	22632.71	-53.94635	-7.22308E-010	0.0319278	6
	39	16	125.558	14179.31	-22256.07	1	26389.12	-57.49884	-7.296936E-010	0.0319212	6
	40	16	100.4464	15186.89	-27033.73	1	31007.49	-60.67379	-2.553594E-009	0.0319359	6
	41	16	79.00281	16335.39	-33057.11	1	36872.98	-63.70342	-1.102666E-009	0.0319318	6
	42	17	63.3446	19139.51	-40526.87	1	44819.06	-64.72018	2.848017E-010	0.0319295	6
	43	17	49.86702	20970.62	-50281.7	1	54479.5	-67.36081	-1.747019E-009	0.0319283	6
	44	17	39.72458	23428.47	-60627.9	1	64997.2	-68.87195	-1.250079E-009	0.0319326	6
	45	18	31.6723	27021.54	-73610.44	1	78413.39	-69.8424	-7.544134E-010	0.0319256	6
	46	18	24.93351	32644.84	-90892.77	1	96577.3	-70.24386	-7.711035E-010	0.0319217	6
	47	18	19.86229	39905.93	-110742.3	1	117713	-70.1834	-1.55418E-009	0.0319427	5
	48	19	15.83615	45495.56	-131985.1	1	139606.3	-70.98081	-3.602108E-009	0.0319442	5
	49	19	12.40079	59252.05	-162810.7	1	173257.4	-70.00192	7.163981E-010	0.0319391	5
	50	19	9.93114	80090.65	-193159.7	1	209105.7	-67.47942	-5.642815E-010	0.0319354	5
	51	20	7.944915	101667.9	-228601.7	1	250190.1	-66.02346	-1.099306E-009	0.0319393	5
	52	21	6.317385	129961.3	-267699.9	1	297578.8	-64.10464	-1.046038E-009	0.0319322	5
	53	21	5.008013	165498.3	-311946.5	1	353129.3	-62.05252	-6.466747E-010	0.0319411	5
	54	22	3.945707	210800.5	-355944.7	1	413682.8	-59.36479	-1.062494E-009	0.0319329	5
	55	24	3.158693	262181.8	-402662.3	1	480495.8	-56.93102	-9.355783E-010	0.0319179	5
	56	25	2.504006	320136.3	-450299.6	1	552500.6	-54.58943	-7.683877E-010	0.0319233	5
	57	27	1.998082	382423.9	-495423.4	1	625853.4	-52.33497	-1.045182E-009	0.0318847	5
	58	28	1.584686	448972.7	-545685.2	1	706646.2	-50.55352	-1.058556E-009	0.0318858	5
	59	30	1.266892	514995.6	-595309.1	1	787155.3	-49.13726	-9.31853E-010	0.0319252	5
	60	33	0.999041	588458.8	-653920.9	1	879713.8	-48.01617	-8.241353E-010	0.0319494	5
