EXPLAIN
TAG	EISPOT
TITLE	LABEL	Potentiostatic EIS	Test &Identifier
DATE	LABEL	10/2/2019	Date
TIME	LABEL	9:31:21	Time
NOTES	NOTES	2	&Notes...
	
	
PSTAT	PSTAT	REF600-11020	Potentiostat
VDC	POTEN	0.00000E+000	T	DC &Voltage (V)
FREQINIT	QUANT	1.00000E+006	Initial Fre&q. (Hz)
FREQFINAL	QUANT	1.00000E+000	Final Fre&q. (Hz)
PTSPERDEC	QUANT	1.00000E+001	Points/&decade
VAC	QUANT	2.50000E+001	AC &Voltage (mV rms)
AREA	QUANT	1.00000E-002	&Area (cm^2)
CONDIT	TWOPARAM	T	5.00000E+000	0.00000E+000	Conditionin&g	Time(s)	E(V)
DELAY	TWOPARAM	T	5.00000E+000	0.00000E+000	Init. De&lay	Time(s)	Stab.(mV/s)
SPEED	SELECTOR	1	&Optimize for:
ZGUESS	QUANT	1.00000E+004	E&stimated Z (ohms)
OCVCURVE	TABLE	19
	Pt	T	Vf	Vm	Ach	Over
	#	s	V vs. Ref.	V	V	bits
	0	0.258333	1.54502E-002	1.54502E-002	6.27998E-004	...........
	1	0.516667	1.54527E-002	1.55848E-002	6.30698E-004	...........
	2	0.775	1.54711E-002	1.58453E-002	6.33365E-004	...........
	3	1.03333	1.55312E-002	1.60875E-002	6.30831E-004	...........
	4	1.29167	1.56550E-002	1.63428E-002	6.34198E-004	...........
	5	1.55	1.58415E-002	1.66224E-002	6.34798E-004	...........
	6	1.80833	1.60712E-002	1.68173E-002	6.34465E-004	...........
	7	2.06667	1.63189E-002	1.70264E-002	6.31565E-004	...........
	8	2.325	1.65631E-002	1.72353E-002	6.34065E-004	...........
	9	2.58333	1.67927E-002	1.74208E-002	6.34131E-004	...........
	10	2.84167	1.70077E-002	1.76306E-002	6.36131E-004	...........
	11	3.1	1.72138E-002	1.78761E-002	6.37465E-004	...........
	12	3.35833	1.74198E-002	1.81028E-002	6.28431E-004	...........
	13	3.61667	1.76326E-002	1.83050E-002	6.31098E-004	...........
	14	3.875	1.78537E-002	1.86053E-002	6.33365E-004	...........
	15	4.13333	1.80803E-002	1.87109E-002	6.30565E-004	...........
	16	4.39167	1.83045E-002	1.88668E-002	6.33731E-004	...........
	17	4.65	1.85101E-002	1.89121E-002	6.34231E-004	...........
	18	4.90833	1.86778E-002	1.88453E-002	6.35765E-004	...........
EOC	QUANT	0.0186778	Open Circuit (V)
PSTATMODEL	IQUANT	4	Pstat Model
PSTATSECTION	LABEL	REF600-11020	Pstat Section
PSTATSERIALNO	LABEL	11020	Pstat Serial Number
CTRLMODE	IQUANT	1	Control Mode
IESTAB	IQUANT	0	I/E Stability
CASPEED	IQUANT	1	Control Amp Speed
CONVENTION	IQUANT	1	Current Convention
ICHRANGE	IQUANT	2	Ich Range
ICHRANGEMODE	TOGGLE	F	Ich Auto Range
ICHOFFSETENABLE	TOGGLE	T	Ich Offset Enable
ICHOFFSET	QUANT	0	Ich Offset (V)
ICHFILTER	IQUANT	3	Ich Filter
VCHRANGE	IQUANT	2	Vch Range
VCHRANGEMODE	TOGGLE	F	Vch Auto Range
VCHOFFSETENABLE	TOGGLE	T	Vch Offset Enable
VCHOFFSET	QUANT	0	Vch Offset (V)
VCHFILTER	IQUANT	3	Vch Filter
ACHRANGE	IQUANT	2	Ach Range
ACHOFFSETENABLE	TOGGLE	F	Ach Offset Enable
ACHOFFSET	QUANT	0	Ach Offset (V)
ACHFILTER	IQUANT	3	Ach Filter
IERANGELOWERLIMIT	IQUANT	1	I/E Range Lower Limit
IERANGEMODE	TOGGLE	F	I/E AutoRange
IERANGE	IQUANT	6	I/E Range
POSFEEDENABLE	TOGGLE	F	Positive Feedback IR Comp
POSFEEDRESISTANCE	QUANT	0	Positive Feedback Resistance (ohm)
ACHSELECT	IQUANT	0	Ach Select
CABLEID	IQUANT	14	Cable ID
DCCALDATE	LABEL	8/19/2019	DC Calibration Date
ACCALDATE	LABEL	8/19/2019	AC Calibration Date
THERMOSELECT	IQUANT	1	Thermo Select
FRAMEWORKVERSION	QUANT	6.33	Framework Version
INSTRUMENTVERSION	LABEL	3.50	Instrument Version
ZCURVE	TABLE
	Pt	Time	Freq	Zreal	Zimag	Zsig	Zmod	Zphz	Idc	Vdc	IERange
	#	s	Hz	ohm	ohm	V	ohm	°	A	V	#
	0	2	1000078	2308.172	-1600.25	1	2808.64	-34.73347	-2.487654E-006	0.0215497	8
	1	3	794390.6	2619.921	-1530.433	1	3034.174	-30.29143	-2.562931E-007	0.0208499	8
	2	5	630984.4	2908.233	-1414.382	1	3233.929	-25.93538	-2.074982E-006	0.0209388	8
	3	6	501234.4	3132.13	-1288.385	1	3386.764	-22.35955	-4.442222E-006	0.0213321	8
	4	7	398109.4	3331.808	-1134.862	1	3519.78	-18.80958	5.674194E-006	0.0192393	8
	5	9	316265.6	3465.872	-1006.026	1	3608.927	-16.18623	2.266194E-006	0.0198493	8
	6	10	251203.1	3576.638	-886.2941	1	3684.814	-13.91759	-9.090129E-007	0.0202744	8
	7	11	199546.9	3650.391	-766.1079	1	3729.917	-11.85265	-8.592705E-007	0.0204664	8
	8	13	158578.1	3730.249	-683.6975	1	3792.387	-10.38616	-1.227355E-007	0.0202683	8
	9	14	125953.1	3797.42	-584.3849	1	3842.122	-8.748616	-8.187816E-007	0.0219526	7
	10	15	100078.1	3846.662	-541.2085	1	3884.548	-8.008697	-8.179944E-008	0.0205607	7
	11	17	79453.13	3891.97	-523.8236	1	3927.063	-7.665424	1.014433E-008	0.0204132	7
	12	18	63140.62	3937.492	-519.3077	1	3971.59	-7.513259	-1.25244E-008	0.0203115	7
	13	20	50203.12	3983.543	-527.5067	1	4018.318	-7.543304	-1.461373E-008	0.0203817	7
	14	21	39890.62	4032.739	-547.583	1	4069.746	-7.732581	5.206567E-008	0.0201672	7
	15	22	31640.63	4086.486	-578.5884	1	4127.243	-8.058704	1.215283E-007	0.0201224	7
	16	24	25171.88	4144.385	-622.2236	1	4190.834	-8.538416	-3.771375E-008	0.0203098	7
	17	25	20015.62	4208.485	-677.2521	1	4262.63	-9.141967	-4.466784E-008	0.0204039	7
	18	26	15890.62	4280.081	-746.8993	1	4344.761	-9.89877	1.445428E-008	0.0202659	7
	19	28	12609.37	4359.22	-830.6709	1	4437.659	-10.78865	8.391533E-008	0.0201435	7
	20	29	10078.13	4446.066	-924.7693	1	4541.222	-11.74983	3.995153E-008	0.0202687	7
	21	30	8015.625	4545.762	-1037.923	1	4662.75	-12.86172	-7.164279E-009	0.0203349	7
	22	32	6328.125	4659.025	-1174.557	1	4804.8	-14.14962	2.247883E-008	0.0202203	7
	23	33	5015.625	4785.945	-1331.396	1	4967.685	-15.54597	5.314082E-008	0.0201526	7
	24	34	3984.375	4926.775	-1512.334	1	5153.666	-17.06451	2.330862E-008	0.0202179	7
	25	36	3170.956	5084.519	-1717.871	1	5366.881	-18.66821	5.489012E-009	0.0202363	7
	26	37	2527.573	5258.333	-1954.537	1	5609.838	-20.39024	-8.032737E-008	0.0205422	7
	27	38	1976.103	5470.539	-2255.758	1	5917.368	-22.40863	1.489342E-008	0.0202656	7
	28	40	1577.524	5684.752	-2570.375	1	6238.849	-24.33022	-7.338395E-008	0.0204279	7
	29	41	1265.625	5919.822	-2924.548	1	6602.823	-26.29058	3.68703E-008	0.0202713	7
	30	42	998.264	6191.062	-3374.644	1	7051.062	-28.59406	-1.391207E-008	0.0203493	7
	31	44	796.875	6461.629	-3873.601	1	7533.753	-30.94174	-1.065633E-009	0.0203105	7
	32	45	627.7902	6759.791	-4502.134	1	8121.821	-33.66428	8.030079E-008	0.0201486	7
	33	47	505.5147	7058.652	-5219.006	1	8778.53	-36.47838	-4.450547E-008	0.0203301	7
	34	48	397.9953	7340.214	-6153.439	1	9578.29	-39.97374	4.96459E-009	0.0203258	7
	35	49	315.5048	7652.677	-7311.355	1	10583.92	-43.69334	6.917248E-010	0.0202684	6
	36	51	252.4038	7969.673	-8704.093	1	11801.56	-47.52205	1.129923E-009	0.0202639	6
	37	52	198.6229	8349.395	-10580.76	1	13478.31	-51.72264	6.865389E-010	0.0202652	6
	38	53	158.3615	8769.287	-12801.42	1	15516.98	-55.58789	8.096033E-010	0.0202614	6
	39	55	125.558	9282.088	-15637.1	1	18184.5	-59.30688	5.868274E-010	0.0202644	6
	40	56	100.4464	9889.74	-18997.05	1	21417.16	-62.49881	4.231595E-010	0.0202649	6
	41	57	79.00281	10714.74	-23521.61	1	25847.08	-65.50943	9.697458E-010	0.0202658	6
	42	59	63.3446	11807.06	-28703.81	1	31037.32	-67.64062	4.326321E-010	0.0202596	6
	43	60	49.86702	12983.44	-35373.82	1	37681.25	-69.84508	3.030153E-009	0.0202626	6
	44	62	39.72458	14827.36	-43256.55	1	45727.23	-71.07946	-7.363417E-010	0.0202619	6
	45	63	31.6723	17001.83	-52904.92	1	55569.71	-72.18437	2.205047E-009	0.0202623	6
	46	64	24.93351	20134.98	-65284.11	1	68318.61	-72.85915	6.192427E-009	0.0202592	6
	47	66	19.86229	24013.61	-79584.59	1	83128.57	-73.2095	-3.511598E-010	0.0202657	6
	48	67	15.83615	29193.44	-96481.7	1	100801.7	-73.16524	-1.487007E-009	0.0202629	6
	49	68	12.40079	35998.4	-119214.9	1	124531.4	-73.19766	-1.478708E-009	0.0202689	5
	50	70	9.93114	44294.36	-143168.1	1	149863.5	-72.8086	-1.647115E-009	0.0202672	5
	51	71	7.944915	54432.07	-172078.1	1	180481.9	-72.44669	3.208566E-010	0.0202606	5
	52	73	6.317385	68089.2	-206840.6	1	217759.4	-71.77914	2.865285E-010	0.0202518	5
	53	75	5.008013	85511.95	-248852.8	1	263134.9	-71.03602	1.021582E-010	0.0202678	5
	54	77	3.945707	107715.6	-299189.8	1	317989.2	-70.1999	7.797953E-011	0.020264	5
	55	80	3.158693	133210.3	-353961.8	1	378198.3	-69.37663	6.417356E-011	0.0202532	5
	56	83	2.504006	164857.8	-420836.6	1	451975.2	-68.60782	2.241988E-010	0.0202718	5
	57	86	1.998082	202085.3	-496001	1	535588.9	-67.83258	2.245033E-010	0.0202772	5
	58	89	1.584686	250068.8	-585819.3	1	636960.4	-66.8838	8.960237E-011	0.0202171	5
	59	93	1.266892	301792.2	-688104.9	1	751376.6	-66.31848	1.777289E-010	0.0202869	5
	60	97	0.999041	371833	-815800.3	1	896543.3	-65.49701	-4.247711E-011	0.0202303	5
