EXPLAIN
TAG	EISPOT
TITLE	LABEL	Potentiostatic EIS	Test &Identifier
DATE	LABEL	10/2/2019	Date
TIME	LABEL	9:29:08	Time
NOTES	NOTES	2	&Notes...
	
	
PSTAT	PSTAT	REF600-11020	Potentiostat
VDC	POTEN	0.00000E+000	T	DC &Voltage (V)
FREQINIT	QUANT	1.00000E+006	Initial Fre&q. (Hz)
FREQFINAL	QUANT	1.00000E+000	Final Fre&q. (Hz)
PTSPERDEC	QUANT	1.00000E+001	Points/&decade
VAC	QUANT	2.50000E+001	AC &Voltage (mV rms)
AREA	QUANT	1.00000E-002	&Area (cm^2)
CONDIT	TWOPARAM	T	5.00000E+000	0.00000E+000	Conditionin&g	Time(s)	E(V)
DELAY	TWOPARAM	T	5.00000E+000	0.00000E+000	Init. De&lay	Time(s)	Stab.(mV/s)
SPEED	SELECTOR	1	&Optimize for:
ZGUESS	QUANT	1.00000E+004	E&stimated Z (ohms)
OCVCURVE	TABLE	19
	Pt	T	Vf	Vm	Ach	Over
	#	s	V vs. Ref.	V	V	bits
	0	0.258333	7.79579E-003	7.79579E-003	5.70499E-004	...........
	1	0.516667	7.79798E-003	7.91066E-003	5.69166E-004	...........
	2	0.775	7.81237E-003	8.06732E-003	5.70266E-004	...........
	3	1.03333	7.85586E-003	8.20493E-003	5.70699E-004	...........
	4	1.29167	7.93760E-003	8.29018E-003	5.69699E-004	...........
	5	1.55	8.04763E-003	8.39656E-003	5.74132E-004	...........
	6	1.80833	8.16660E-003	8.52017E-003	5.72132E-004	...........
	7	2.06667	8.28237E-003	8.59768E-003	5.72899E-004	...........
	8	2.325	8.39232E-003	8.70638E-003	5.76166E-004	...........
	9	2.58333	8.49738E-003	8.82442E-003	5.74665E-004	...........
	10	2.84167	8.60017E-003	8.91177E-003	5.74499E-004	...........
	11	3.1	8.70290E-003	9.01050E-003	5.75632E-004	...........
	12	3.35833	8.80473E-003	9.09508E-003	5.67866E-004	...........
	13	3.61667	8.90331E-003	9.18236E-003	5.73232E-004	...........
	14	3.875	8.99768E-003	9.27782E-003	5.72266E-004	...........
	15	4.13333	9.08877E-003	9.35746E-003	5.76766E-004	...........
	16	4.39167	9.17777E-003	9.43595E-003	5.76599E-004	...........
	17	4.65	9.26447E-003	9.51090E-003	5.75932E-004	...........
	18	4.90833	9.34812E-003	9.60085E-003	5.73332E-004	...........
EOC	QUANT	0.0093481	Open Circuit (V)
PSTATMODEL	IQUANT	4	Pstat Model
PSTATSECTION	LABEL	REF600-11020	Pstat Section
PSTATSERIALNO	LABEL	11020	Pstat Serial Number
CTRLMODE	IQUANT	1	Control Mode
IESTAB	IQUANT	0	I/E Stability
CASPEED	IQUANT	1	Control Amp Speed
CONVENTION	IQUANT	1	Current Convention
ICHRANGE	IQUANT	2	Ich Range
ICHRANGEMODE	TOGGLE	F	Ich Auto Range
ICHOFFSETENABLE	TOGGLE	T	Ich Offset Enable
ICHOFFSET	QUANT	0	Ich Offset (V)
ICHFILTER	IQUANT	3	Ich Filter
VCHRANGE	IQUANT	2	Vch Range
VCHRANGEMODE	TOGGLE	F	Vch Auto Range
VCHOFFSETENABLE	TOGGLE	T	Vch Offset Enable
VCHOFFSET	QUANT	0	Vch Offset (V)
VCHFILTER	IQUANT	3	Vch Filter
ACHRANGE	IQUANT	2	Ach Range
ACHOFFSETENABLE	TOGGLE	F	Ach Offset Enable
ACHOFFSET	QUANT	0	Ach Offset (V)
ACHFILTER	IQUANT	3	Ach Filter
IERANGELOWERLIMIT	IQUANT	1	I/E Range Lower Limit
IERANGEMODE	TOGGLE	F	I/E AutoRange
IERANGE	IQUANT	6	I/E Range
POSFEEDENABLE	TOGGLE	F	Positive Feedback IR Comp
POSFEEDRESISTANCE	QUANT	0	Positive Feedback Resistance (ohm)
ACHSELECT	IQUANT	0	Ach Select
CABLEID	IQUANT	14	Cable ID
DCCALDATE	LABEL	8/19/2019	DC Calibration Date
ACCALDATE	LABEL	8/19/2019	AC Calibration Date
THERMOSELECT	IQUANT	1	Thermo Select
FRAMEWORKVERSION	QUANT	6.33	Framework Version
INSTRUMENTVERSION	LABEL	3.50	Instrument Version
ZCURVE	TABLE
	Pt	Time	Freq	Zreal	Zimag	Zsig	Zmod	Zphz	Idc	Vdc	IERange
	#	s	Hz	ohm	ohm	V	ohm	°	A	V	#
	0	1	1000078	2439.921	-1642.915	1	2941.494	-33.95425	4.155783E-006	0.0115085	8
	1	3	794390.6	2768.836	-1563.487	1	3179.771	-29.45224	-1.90895E-007	0.0111773	8
	2	4	630984.4	3060.385	-1438.373	1	3381.549	-25.1734	2.84517E-006	0.0104133	8
	3	6	501234.4	3301.36	-1294.695	1	3546.155	-21.41364	2.712254E-007	0.0109462	8
	4	7	398109.4	3479.902	-1133.066	1	3659.72	-18.03539	-9.119047E-007	0.0109903	8
	5	8	316265.6	3625.61	-989.169	1	3758.125	-15.26051	-2.192278E-006	0.0114567	8
	6	10	251203.1	3746.749	-830.7041	1	3837.733	-12.50102	-2.166E-006	0.0114427	8
	7	11	199546.9	3826.149	-715.4861	1	3892.471	-10.59192	-3.11892E-006	0.0114763	8
	8	13	158578.1	3892.493	-623.3029	1	3942.082	-9.097511	-8.218543E-007	0.0107755	8
	9	14	125953.1	3959.703	-493.1789	1	3990.297	-7.099598	1.460023E-006	0.0077638	7
	10	15	100078.1	3990.01	-434.6874	1	4013.618	-6.217507	2.154436E-008	0.0107125	7
	11	17	79453.13	4022.184	-394.1519	1	4041.45	-5.596803	-8.306838E-008	0.0109065	7
	12	18	63140.62	4050.709	-365.1138	1	4067.13	-5.150482	2.154122E-008	0.0107044	7
	13	20	50203.12	4078.884	-345.5765	1	4093.497	-4.842722	1.016619E-008	0.0108878	7
	14	21	39890.62	4105.946	-336.0264	1	4119.673	-4.678601	-2.553396E-008	0.0107726	7
	15	22	31640.63	4131.725	-335.7426	1	4145.344	-4.645628	-2.58715E-008	0.0107732	7
	16	24	25171.88	4158.814	-343.3362	1	4172.962	-4.719423	-4.037345E-008	0.0107948	7
	17	25	20015.62	4185.905	-359.287	1	4201.296	-4.90582	5.672413E-008	0.0106943	7
	18	26	15890.62	4214.206	-386.3575	1	4231.879	-5.238222	1.438554E-008	0.0107523	7
	19	28	12609.37	4242.576	-425.0208	1	4263.813	-5.720797	5.889787E-008	0.010697	7
	20	29	10078.13	4272.296	-471.4143	1	4298.226	-6.296666	-8.296368E-008	0.0110293	7
	21	30	8015.625	4303.336	-532.975	1	4336.216	-7.06022	8.342307E-008	0.0106181	7
	22	32	6328.125	4339.436	-617.1364	1	4383.099	-8.094089	5.371747E-008	0.0106393	7
	23	33	5015.625	4377.446	-720.7094	1	4436.379	-9.349389	-4.72713E-008	0.0108847	7
	24	35	3984.375	4420.273	-849.2708	1	4501.119	-10.87576	-6.838669E-008	0.0109157	7
	25	36	3170.956	4467.323	-1004.241	1	4578.807	-12.66931	5.347524E-008	0.0106374	7
	26	37	2527.573	4521.273	-1196.397	1	4676.888	-14.82162	-8.277613E-008	0.0110272	7
	27	39	1976.103	4588.266	-1451.365	1	4812.343	-17.55326	-2.452288E-008	0.0107735	7
	28	40	1577.524	4661.479	-1741.66	1	4976.22	-20.48711	4.090166E-008	0.0107444	7
	29	41	1265.625	4741.496	-2083.335	1	5179.002	-23.71989	4.546686E-009	0.0107189	7
	30	43	998.264	4841.021	-2536.437	1	5465.253	-27.65215	4.525845E-009	0.0107086	7
	31	44	796.875	4951.2	-3066.181	1	5823.731	-31.76912	1.24885E-007	0.0106021	7
	32	45	627.7902	5087.465	-3755.472	1	6323.438	-36.43406	-3.699542E-008	0.0107829	7
	33	47	505.5147	5228.25	-4525.016	1	6914.504	-40.87597	-8.258753E-008	0.0110265	7
	34	48	397.9953	5420.221	-5576.104	1	7776.357	-45.81217	5.569721E-009	0.0108155	7
	35	50	315.5048	5643.795	-6840.709	1	8868.355	-50.47633	5.043748E-009	0.0108114	7
	36	51	252.4038	5910.613	-8336.027	1	10218.84	-54.66167	1.064653E-009	0.0107483	6
	37	52	198.6229	6266.275	-10323.01	1	12076.04	-58.74141	1.182465E-009	0.0107478	6
	38	54	158.3615	6696.271	-12642.78	1	14306.64	-62.09198	1.26837E-009	0.0107402	6
	39	55	125.558	7256.237	-15563.64	1	17172.06	-65.00365	1.124228E-009	0.0107434	6
	40	56	100.4464	7948.217	-19009.9	1	20604.62	-67.30974	6.861376E-010	0.0107423	6
	41	58	79.00281	8957.195	-23562.24	1	25207.35	-69.18568	1.531021E-009	0.0107433	6
	42	59	63.3446	10223.64	-28554.48	1	30329.54	-70.30062	9.173819E-010	0.0107381	6
	43	61	49.86702	11847	-35492.73	1	37417.71	-71.54167	1.084984E-009	0.010737	6
	44	62	39.72458	13955.65	-43228.91	1	45425.75	-72.10829	2.969915E-010	0.0107454	6
	45	63	31.6723	16743.98	-52550.78	1	55153.83	-72.32684	7.979482E-010	0.010745	6
	46	65	24.93351	20700.18	-64554.82	1	67792.5	-72.22101	3.101172E-010	0.010748	6
	47	66	19.86229	25708.79	-78204.07	1	82321.44	-71.80225	2.306563E-009	0.010752	6
	48	68	15.83615	32408.51	-94303.76	1	99717.1	-71.03416	-1.244132E-010	0.0107452	6
	49	69	12.40079	41433.09	-114517.1	1	121782	-70.10951	6.798876E-010	0.0107511	5
	50	70	9.93114	52918.96	-135818	1	145763.3	-68.71255	6.648189E-010	0.0107469	5
	51	72	7.944915	67178.71	-160631.1	1	174113	-67.30447	1.090676E-010	0.0107461	5
	52	74	6.317385	85285.59	-188719.7	1	207096	-65.68098	1.655749E-010	0.0107351	5
	53	76	5.008013	108343.1	-220887.6	1	246027.5	-63.87252	-8.377159E-011	0.0107458	5
	54	78	3.945707	136296.9	-255362.9	1	289459.9	-61.90946	2.134813E-010	0.010747	5
	55	81	3.158693	168222.6	-291927.8	1	336928.3	-60.04742	-2.116988E-010	0.0107349	5
	56	84	2.504006	204483.4	-331976	1	389899.4	-58.36865	-2.928726E-010	0.0107546	5
	57	87	1.998082	244380.9	-373803.8	1	446599.8	-56.82463	4.058792E-010	0.0107253	5
	58	90	1.584686	289860	-421004.7	1	511139.7	-55.45275	-5.924376E-011	0.0106975	5
	59	94	1.266892	334405	-470570.4	1	577289.6	-54.60097	3.082548E-010	0.0107236	5
	60	98	0.999041	385998.3	-533080.3	1	658156	-54.09206	-1.760431E-010	0.0107469	5
