EXPLAIN
TAG	EISPOT
TITLE	LABEL	Potentiostatic EIS	Test &Identifier
DATE	LABEL	10/10/2019	Date
TIME	LABEL	8:11:46	Time
NOTES	NOTES	1	&Notes...
	
PSTAT	PSTAT	REF600-11020	Potentiostat
VDC	POTEN	0.00000E+000	T	DC &Voltage (V)
FREQINIT	QUANT	1.00000E+006	Initial Fre&q. (Hz)
FREQFINAL	QUANT	1.00000E+000	Final Fre&q. (Hz)
PTSPERDEC	QUANT	1.00000E+001	Points/&decade
VAC	QUANT	2.50000E+001	AC &Voltage (mV rms)
AREA	QUANT	1.00000E-002	&Area (cm^2)
CONDIT	TWOPARAM	T	5.00000E+000	0.00000E+000	Conditionin&g	Time(s)	E(V)
DELAY	TWOPARAM	T	5.00000E+000	0.00000E+000	Init. De&lay	Time(s)	Stab.(mV/s)
SPEED	SELECTOR	1	&Optimize for:
ZGUESS	QUANT	1.00000E+004	E&stimated Z (ohms)
OCVCURVE	TABLE	19
	Pt	T	Vf	Vm	Ach	Over
	#	s	V vs. Ref.	V	V	bits
	0	0.258333	5.31760E-003	5.31760E-003	5.66566E-004	...........
	1	0.516667	5.31601E-003	5.23443E-003	5.63732E-004	...........
	2	0.775	5.30767E-003	5.22978E-003	5.56599E-004	...........
	3	1.03333	5.28758E-003	5.16169E-003	5.61966E-004	...........
	4	1.29167	5.25650E-003	5.15176E-003	5.59566E-004	...........
	5	1.55	5.21983E-003	5.11067E-003	5.65599E-004	...........
	6	1.80833	5.18273E-003	5.07199E-003	5.64666E-004	...........
	7	2.06667	5.14694E-003	5.03470E-003	5.67066E-004	...........
	8	2.325	5.11158E-003	5.00929E-003	5.65466E-004	...........
	9	2.58333	5.07649E-003	4.97792E-003	5.68699E-004	...........
	10	2.84167	5.04329E-003	4.97700E-003	5.68832E-004	...........
	11	3.1	5.01449E-003	4.95879E-003	5.63032E-004	...........
	12	3.35833	4.99200E-003	4.95806E-003	5.62732E-004	...........
	13	3.61667	4.97605E-003	4.95689E-003	5.67666E-004	...........
	14	3.875	4.96585E-003	4.96112E-003	5.71332E-004	...........
	15	4.13333	4.96204E-003	5.03980E-003	5.67599E-004	...........
	16	4.39167	4.96607E-003	4.92672E-003	5.64732E-004	...........
	17	4.65	4.97275E-003	4.93578E-003	5.63166E-004	...........
	18	4.90833	4.97149E-003	4.93679E-003	5.68966E-004	...........
EOC	QUANT	0.0049715	Open Circuit (V)
PSTATMODEL	IQUANT	4	Pstat Model
PSTATSECTION	LABEL	REF600-11020	Pstat Section
PSTATSERIALNO	LABEL	11020	Pstat Serial Number
CTRLMODE	IQUANT	1	Control Mode
IESTAB	IQUANT	0	I/E Stability
CASPEED	IQUANT	1	Control Amp Speed
CONVENTION	IQUANT	1	Current Convention
ICHRANGE	IQUANT	2	Ich Range
ICHRANGEMODE	TOGGLE	F	Ich Auto Range
ICHOFFSETENABLE	TOGGLE	T	Ich Offset Enable
ICHOFFSET	QUANT	0	Ich Offset (V)
ICHFILTER	IQUANT	3	Ich Filter
VCHRANGE	IQUANT	2	Vch Range
VCHRANGEMODE	TOGGLE	F	Vch Auto Range
VCHOFFSETENABLE	TOGGLE	T	Vch Offset Enable
VCHOFFSET	QUANT	0	Vch Offset (V)
VCHFILTER	IQUANT	3	Vch Filter
ACHRANGE	IQUANT	2	Ach Range
ACHOFFSETENABLE	TOGGLE	F	Ach Offset Enable
ACHOFFSET	QUANT	0	Ach Offset (V)
ACHFILTER	IQUANT	3	Ach Filter
IERANGELOWERLIMIT	IQUANT	1	I/E Range Lower Limit
IERANGEMODE	TOGGLE	F	I/E AutoRange
IERANGE	IQUANT	5	I/E Range
POSFEEDENABLE	TOGGLE	F	Positive Feedback IR Comp
POSFEEDRESISTANCE	QUANT	0	Positive Feedback Resistance (ohm)
ACHSELECT	IQUANT	0	Ach Select
CABLEID	IQUANT	14	Cable ID
DCCALDATE	LABEL	8/19/2019	DC Calibration Date
ACCALDATE	LABEL	8/19/2019	AC Calibration Date
THERMOSELECT	IQUANT	1	Thermo Select
FRAMEWORKVERSION	QUANT	6.33	Framework Version
INSTRUMENTVERSION	LABEL	3.50	Instrument Version
ZCURVE	TABLE
	Pt	Time	Freq	Zreal	Zimag	Zsig	Zmod	Zphz	Idc	Vdc	IERange
	#	s	Hz	ohm	ohm	V	ohm	°	A	V	#
	0	1	1000078	2541.186	-1489.346	1	2945.467	-30.37384	4.514502E-006	0.0068298	8
	1	3	794390.6	2821.804	-1390.363	1	3145.741	-26.23046	-2.571353E-006	0.0071618	8
	2	4	630984.4	3046.861	-1249.843	1	3293.246	-22.30376	-3.314678E-006	0.0077671	8
	3	5	501234.4	3243.808	-1104.253	1	3426.611	-18.79953	1.778559E-006	0.0064107	8
	4	7	398109.4	3387.857	-966.273	1	3522.961	-15.91903	8.325283E-007	0.0064843	8
	5	8	316265.6	3490.27	-830.0486	1	3587.613	-13.37746	9.331306E-007	0.0064505	8
	6	10	251203.1	3573.138	-704.595	1	3641.946	-11.15516	4.194176E-006	0.0058796	8
	7	11	199546.9	3643.822	-632.5909	1	3698.325	-9.84875	2.135645E-007	0.0063589	8
	8	13	158578.1	3713.232	-552.5296	1	3754.115	-8.463522	3.755313E-006	0.00589	8
	9	14	125953.1	3765.355	-453.6744	1	3792.587	-6.87025	-1.174457E-006	0.0091511	7
	10	15	100078.1	3793.478	-417.256	1	3816.357	-6.276902	-3.445079E-008	0.0066122	7
	11	17	79453.13	3828.408	-399.7373	1	3849.22	-5.960852	4.099072E-008	0.0064127	7
	12	18	63140.62	3862.732	-391.5295	1	3882.524	-5.787778	-5.677104E-008	0.0067279	7
	13	19	50203.12	3897.71	-391.9325	1	3917.365	-5.742051	-6.416266E-008	0.0066414	7
	14	21	39890.62	3933.876	-399.7675	1	3954.136	-5.802581	6.453238E-009	0.0064858	7
	15	22	31640.63	3973.462	-419.4316	1	3995.538	-6.025726	-6.077781E-008	0.0066379	7
	16	23	25171.88	4015.866	-445.0291	1	4040.45	-6.323585	-5.916512E-008	0.0066006	7
	17	25	20015.62	4057.479	-474.7165	1	4085.155	-6.673147	-5.650848E-008	0.0067222	7
	18	26	15890.62	4108.3	-523.8912	1	4141.568	-7.267147	7.111983E-008	0.0064255	7
	19	28	12609.37	4166.378	-581.2269	1	4206.724	-7.941742	8.782057E-008	0.0064836	7
	20	29	10078.13	4224.967	-645.4553	1	4273.986	-8.686014	8.361996E-008	0.0063617	7
	21	30	8015.625	4300.623	-728.1256	1	4361.826	-9.60945	-2.981425E-008	0.006622	7
	22	32	6328.125	4367.682	-815.0927	1	4443.086	-10.57089	-3.567441E-008	0.0065445	7
	23	33	5015.625	4450.408	-922.0139	1	4544.914	-11.70467	4.195083E-009	0.0064689	7
	24	34	3984.375	4541.44	-1045.627	1	4660.259	-12.96589	-2.565428E-008	0.0065304	7
	25	36	3170.956	4632.373	-1193.367	1	4783.618	-14.44612	5.726549E-009	0.0066422	7
	26	37	2527.573	4733.209	-1363.57	1	4925.708	-16.07094	-3.343661E-008	0.0066265	7
	27	39	1976.103	4845.846	-1593.955	1	5101.266	-18.2077	8.99599E-008	0.0064774	7
	28	40	1577.524	4958.253	-1843.314	1	5289.809	-20.39346	-3.06409E-008	0.0065955	7
	29	41	1265.625	5077.538	-2141.794	1	5510.777	-22.87086	9.088035E-008	0.0064741	7
	30	43	998.264	5208.456	-2534.04	1	5792.182	-25.94404	-3.10571E-008	0.0066003	7
	31	44	796.875	5342.609	-2996.223	1	6125.424	-29.28443	-3.4157E-008	0.0065434	7
	32	45	627.7902	5492.072	-3601.817	1	6567.796	-33.25771	4.143975E-008	0.0063934	7
	33	47	505.5147	5656.084	-4285.491	1	7096.247	-37.15041	-4.627842E-009	0.0065744	7
	34	48	397.9953	5844.815	-5221.566	1	7837.514	-41.77656	3.347529E-009	0.0065457	7
	35	49	315.5048	6065.511	-6355.096	1	8785.082	-46.33561	3.862197E-009	0.0065483	7
	36	51	252.4038	6322.263	-7702.027	1	9964.55	-50.6189	1.485197E-009	0.0064908	6
	37	52	198.6229	6657.345	-9497.691	1	11598.55	-54.97172	1.141626E-009	0.0064855	6
	38	54	158.3615	7059.534	-11597.76	1	13577.38	-58.67122	3.87676E-010	0.0064862	6
	39	55	125.558	7577.043	-14252.31	1	16141.25	-62.00327	8.552755E-010	0.0064841	6
	40	56	100.4464	8217.191	-17387.94	1	19231.82	-64.70552	-1.179796E-010	0.0064847	6
	41	58	79.00281	9145.918	-21543.99	1	23404.94	-66.99766	2.191473E-010	0.006481	6
	42	59	63.3446	10081.98	-26312.99	1	28178.36	-69.03536	6.285963E-010	0.0064844	6
	43	60	49.86702	11796.51	-32137.33	1	34233.98	-69.84354	6.626607E-010	0.0064814	6
	44	62	39.72458	13716.51	-39322.39	1	41646.05	-70.77011	6.712561E-010	0.0064877	6
	45	63	31.6723	16197.56	-47808.32	1	50477.68	-71.28352	7.662456E-010	0.0064873	6
	46	65	24.93351	19786.04	-58657.03	1	61904.23	-71.35985	6.3672E-010	0.006485	6
	47	66	19.86229	24225.05	-70975.96	1	74996.27	-71.15453	6.896762E-010	0.0064814	6
	48	67	15.83615	29994.71	-85189.77	1	90315.99	-70.6032	6.114611E-010	0.0064846	6
	49	69	12.40079	38326.88	-103157.9	1	110047.8	-69.61816	-5.72471E-010	0.006498	5
	50	70	9.93114	47088.95	-123422.1	1	132099.9	-69.11677	3.562692E-010	0.0064867	5
	51	72	7.944915	59034.72	-145762.4	1	157263.4	-67.95174	-7.845501E-011	0.0064939	5
	52	73	6.317385	73391.86	-172118.9	1	187113	-66.90649	-2.435094E-010	0.0064828	5
	53	76	5.008013	91358.11	-202947.7	1	222562.5	-65.76482	-2.35681E-010	0.0064859	5
	54	78	3.945707	113841.4	-238294.6	1	264091.2	-64.46461	3.69408E-010	0.0064938	5
	55	81	3.158693	138374.3	-275985.5	1	308732	-63.37162	-1.066484E-010	0.006475	5
	56	84	2.504006	167891.1	-320317	1	361649.5	-62.33915	4.255337E-010	0.0064986	5
	57	87	1.998082	200310.6	-368709.8	1	419608.4	-61.4859	3.137517E-010	0.0064931	5
	58	90	1.584686	239537.4	-425987	1	488715.8	-60.65045	5.863403E-011	0.0064366	5
	59	94	1.266892	278679.2	-490461	1	564104.7	-60.39483	2.372445E-010	0.0064917	5
	60	98	0.999041	329606.1	-569967.5	1	658409.6	-59.95967	-1.483723E-010	0.0064679	5
