EXPLAIN
TAG	EISPOT
TITLE	LABEL	Potentiostatic IDE	Test &Identifier
DATE	LABEL	9/10/2019	Date
TIME	LABEL	8:31:38	Time
NOTES	NOTES	1	&Notes...
	
PSTAT	PSTAT	REF600-11020	Potentiostat
VDC	POTEN	0.00000E+000	T	DC &Voltage (V)
FREQINIT	QUANT	1.00000E+006	Initial Fre&q. (Hz)
FREQFINAL	QUANT	1.00000E+000	Final Fre&q. (Hz)
PTSPERDEC	QUANT	1.00000E+001	Points/&decade
VAC	QUANT	2.50000E+001	AC &Voltage (mV rms)
AREA	QUANT	1.00000E-002	&Area (cm^2)
CONDIT	TWOPARAM	T	5.00000E+000	0.00000E+000	Conditionin&g	Time(s)	E(V)
DELAY	TWOPARAM	T	5.00000E+000	0.00000E+000	Init. De&lay	Time(s)	Stab.(mV/s)
SPEED	SELECTOR	1	&Optimize for:
ZGUESS	QUANT	1.00000E+007	E&stimated Z (ohms)
OCVCURVE	TABLE	19
	Pt	T	Vf	Vm	Ach	Over
	#	s	V vs. Ref.	V	V	bits
	0	0.258333	5.81560E-003	5.81560E-003	5.63799E-004	...........
	1	0.516667	5.81321E-003	5.69042E-003	5.67899E-004	...........
	2	0.775	5.79882E-003	5.58743E-003	5.64732E-004	...........
	3	1.03333	5.75936E-003	5.50084E-003	5.65399E-004	...........
	4	1.29167	5.69191E-003	5.42892E-003	5.66532E-004	...........
	5	1.55	5.60784E-003	5.36377E-003	5.65966E-004	...........
	6	1.80833	5.52203E-003	5.30337E-003	5.63066E-004	...........
	7	2.06667	5.44331E-003	5.25142E-003	5.61666E-004	...........
	8	2.325	5.37395E-003	5.20437E-003	5.63999E-004	...........
	9	2.58333	5.31305E-003	5.16008E-003	5.62732E-004	...........
	10	2.84167	5.25902E-003	5.12006E-003	5.68166E-004	...........
	11	3.1	5.21038E-003	5.08231E-003	5.70866E-004	...........
	12	3.35833	5.16595E-003	5.04580E-003	5.64866E-004	...........
	13	3.61667	5.12480E-003	5.00954E-003	5.67966E-004	...........
	14	3.875	5.08611E-003	4.97707E-003	5.65666E-004	...........
	15	4.13333	5.04934E-003	4.94790E-003	5.67299E-004	...........
	16	4.39167	5.01446E-003	4.91752E-003	5.66166E-004	...........
	17	4.65	4.98154E-003	4.88795E-003	5.65866E-004	...........
	18	4.90833	4.95025E-003	4.85893E-003	5.62599E-004	...........
EOC	QUANT	0.0049503	Open Circuit (V)
PSTATMODEL	IQUANT	4	Pstat Model
PSTATSECTION	LABEL	REF600-11020	Pstat Section
PSTATSERIALNO	LABEL	11020	Pstat Serial Number
CTRLMODE	IQUANT	1	Control Mode
IESTAB	IQUANT	0	I/E Stability
CASPEED	IQUANT	1	Control Amp Speed
CONVENTION	IQUANT	1	Current Convention
ICHRANGE	IQUANT	2	Ich Range
ICHRANGEMODE	TOGGLE	F	Ich Auto Range
ICHOFFSETENABLE	TOGGLE	T	Ich Offset Enable
ICHOFFSET	QUANT	0	Ich Offset (V)
ICHFILTER	IQUANT	3	Ich Filter
VCHRANGE	IQUANT	2	Vch Range
VCHRANGEMODE	TOGGLE	F	Vch Auto Range
VCHOFFSETENABLE	TOGGLE	T	Vch Offset Enable
VCHOFFSET	QUANT	0	Vch Offset (V)
VCHFILTER	IQUANT	3	Vch Filter
ACHRANGE	IQUANT	2	Ach Range
ACHOFFSETENABLE	TOGGLE	F	Ach Offset Enable
ACHOFFSET	QUANT	0	Ach Offset (V)
ACHFILTER	IQUANT	3	Ach Filter
IERANGELOWERLIMIT	IQUANT	1	I/E Range Lower Limit
IERANGEMODE	TOGGLE	F	I/E AutoRange
IERANGE	IQUANT	2	I/E Range
POSFEEDENABLE	TOGGLE	F	Positive Feedback IR Comp
POSFEEDRESISTANCE	QUANT	0	Positive Feedback Resistance (ohm)
ACHSELECT	IQUANT	0	Ach Select
CABLEID	IQUANT	14	Cable ID
DCCALDATE	LABEL	8/19/2019	DC Calibration Date
ACCALDATE	LABEL	8/19/2019	AC Calibration Date
THERMOSELECT	IQUANT	1	Thermo Select
FRAMEWORKVERSION	QUANT	6.33	Framework Version
INSTRUMENTVERSION	LABEL	3.50	Instrument Version
ZCURVE	TABLE
	Pt	Time	Freq	Zreal	Zimag	Zsig	Zmod	Zphz	Idc	Vdc	IERange
	#	s	Hz	ohm	ohm	V	ohm	°	A	V	#
	0	2	1000078	2436.005	-1601.738	1	2915.422	-33.32598	-4.601419E-006	0.0084346	8
	1	4	794390.6	2760.604	-1525.77	1	3154.189	-28.92917	1.737361E-006	0.006951	8
	2	5	630984.4	3043.238	-1395.002	1	3347.734	-24.62644	-2.80126E-007	0.006975	8
	3	6	501234.4	3262.254	-1245.131	1	3491.798	-20.89075	-5.792865E-007	0.0068408	8
	4	8	398109.4	3436.817	-1093.344	1	3606.537	-17.64727	-2.197265E-007	0.006911	8
	5	9	316265.6	3562.072	-941.2108	1	3684.322	-14.80107	-3.467336E-006	0.0073188	8
	6	10	251203.1	3674.44	-815.3246	1	3763.81	-12.51071	-4.485159E-007	0.0068845	8
	7	12	199546.9	3760.501	-706.7257	1	3826.334	-10.64367	-5.876361E-007	0.0068924	8
	8	13	158578.1	3820.697	-627.0659	1	3871.813	-9.320486	3.494252E-006	0.0060292	8
	9	14	125953.1	3876.47	-520.5666	1	3911.267	-7.648427	-1.162603E-006	0.0090994	7
	10	16	100078.1	3909.862	-474.1569	1	3938.508	-6.914611	4.429502E-009	0.006593	7
	11	17	79453.13	3947.837	-443.3994	1	3972.659	-6.408291	-7.851848E-009	0.0065965	7
	12	18	63140.62	3981.634	-427.4222	1	4004.509	-6.12715	-4.386772E-008	0.0066577	7
	13	20	50203.12	4016.261	-425.1636	1	4038.703	-6.042857	5.269548E-008	0.0065066	7
	14	21	39890.62	4050.812	-433.9061	1	4073.985	-6.113973	-4.40896E-008	0.0066501	7
	15	22	31640.63	4088.81	-454.7508	1	4114.02	-6.346263	-3.03088E-009	0.0065515	7
	16	24	25171.88	4126.059	-487.985	1	4154.815	-6.744984	-8.30504E-009	0.0065877	7
	17	25	20015.62	4167.52	-530.5027	1	4201.149	-7.254427	9.232119E-008	0.0064629	7
	18	26	15890.62	4218.538	-586.5671	1	4259.122	-7.915945	9.223368E-008	0.0064618	7
	19	28	12609.37	4271.332	-657.2293	1	4321.6	-8.747491	-4.473814E-008	0.0066439	7
	20	29	10078.13	4329.258	-742.9643	1	4392.547	-9.73794	5.3108E-008	0.0065004	7
	21	30	8015.625	4393.025	-847.3526	1	4474	-10.91747	-1.393238E-008	0.006621	7
	22	32	6328.125	4466.739	-977.481	1	4572.442	-12.34376	-5.768678E-008	0.0066664	7
	23	33	5015.625	4548.352	-1133.737	1	4687.522	-13.99651	-8.098795E-009	0.0065787	7
	24	35	3984.375	4637.439	-1318.247	1	4821.164	-15.86843	-2.556833E-008	0.0065828	7
	25	36	3170.956	4737.487	-1538.981	1	4981.189	-17.99648	-5.876193E-008	0.0066597	7
	26	37	2527.573	4850.32	-1797.499	1	5172.679	-20.3344	-7.364292E-009	0.0065765	7
	27	39	1976.103	4983.492	-2144.788	1	5425.432	-23.28601	-4.629617E-008	0.0066365	7
	28	40	1577.524	5125.625	-2532.036	1	5716.925	-26.28917	1.937375E-008	0.0065113	7
	29	41	1265.625	5279.833	-2982.597	1	6064.036	-29.46226	-4.975446E-008	0.0066797	7
	30	43	998.264	5468.186	-3572.91	1	6531.979	-33.16058	9.648267E-008	0.0064641	7
	31	44	796.875	5675.44	-4260.955	1	7096.926	-36.89815	-4.989917E-008	0.0066767	7
	32	45	627.7902	5917.272	-5143.917	1	7840.535	-41.00061	-5.679517E-008	0.006664	7
	33	47	505.5147	6187.656	-6118.662	1	8702.018	-44.67878	6.534576E-008	0.0064537	7
	34	48	397.9953	6511.972	-7441.452	1	9888.43	-48.81102	5.67057E-009	0.0066077	7
	35	49	315.5048	6893.438	-9017.859	1	11350.83	-52.60496	7.131378E-010	0.0065489	6
	36	51	252.4038	7323.236	-10869.08	1	13105.98	-56.02919	1.241674E-009	0.006548	6
	37	52	198.6229	7877.014	-13309.79	1	15466.02	-59.38205	1.203404E-009	0.006551	6
	38	53	158.3615	8508.849	-16142.42	1	18247.69	-62.20579	1.164556E-009	0.0065514	6
	39	55	125.558	9295.396	-19700.21	1	21783.09	-64.74007	1.118478E-009	0.0065482	6
	40	56	100.4464	10230.72	-23875.7	1	25975.31	-66.80491	4.38762E-010	0.0065521	6
	41	58	79.00281	11431.54	-29402.16	1	31546.27	-68.75395	1.185648E-009	0.0065478	6
	42	59	63.3446	13008.04	-35466.32	1	37776.56	-69.8584	8.539354E-010	0.006542	6
	43	60	49.86702	14851.28	-43983.07	1	46422.74	-71.34229	4.282571E-010	0.0065407	6
	44	62	39.72458	17211.02	-53400.88	1	56105.91	-72.13595	1.272897E-009	0.0065446	6
	45	63	31.6723	20346.63	-65002.86	1	68112.83	-72.61929	8.568817E-010	0.0065445	6
	46	64	24.93351	24563.46	-79975.95	1	83663.11	-72.92641	9.160162E-010	0.0065395	6
	47	66	19.86229	29852.46	-97055.5	1	101542.8	-72.90308	1.21611E-009	0.0065491	6
	48	67	15.83615	36823.09	-117708.9	1	123334.2	-72.62865	9.265386E-010	0.0065516	5
	49	68	12.40079	46473.2	-144031.9	1	151343.8	-72.11723	3.52268E-010	0.0065577	5
	50	70	9.93114	58327.82	-172565.1	1	182156.1	-71.3245	4.361922E-010	0.0065482	5
	51	71	7.944915	73715.48	-205862.1	1	218662.2	-70.29848	4.244236E-010	0.006552	5
	52	73	6.317385	93181.54	-245904.1	1	262967	-69.24657	4.451642E-011	0.0065638	5
	53	75	5.008013	118988.1	-292406.6	1	315689.3	-67.85728	4.093351E-010	0.0065564	5
	54	77	3.945707	151710.6	-347365.8	1	379050.3	-66.40691	4.488775E-010	0.0065486	5
	55	80	3.158693	189429.6	-404630.3	1	446776.5	-64.91313	3.505106E-010	0.0065656	5
	56	83	2.504006	237219.6	-472630.8	1	528822.3	-63.34732	6.566405E-011	0.006535	5
	57	86	1.998082	292893.2	-545395.1	1	619065.6	-61.7629	6.940748E-011	0.0065114	5
	58	89	1.584686	358783.9	-627342.3	1	722692.4	-60.23429	1.588899E-010	0.0065676	5
	59	93	1.266892	436030.6	-712984.2	1	835744.6	-58.55183	7.688416E-011	0.0065086	5
	60	97	0.999041	528976.9	-810765.4	1	968069	-56.87791	3.09239E-010	0.0065873	5
