EXPLAIN
TAG	EISPOT
TITLE	LABEL	Potentiostatic EIS	Test &Identifier
DATE	LABEL	11/22/2019	Date
TIME	LABEL	10:11:08	Time
NOTES	NOTES	4	&Notes...
	
	
	
	
PSTAT	PSTAT	REF600-11020	Potentiostat
VDC	POTEN	0.00000E+000	T	DC &Voltage (V)
FREQINIT	QUANT	1.00000E+006	Initial Fre&q. (Hz)
FREQFINAL	QUANT	1.00000E+000	Final Fre&q. (Hz)
PTSPERDEC	QUANT	1.00000E+001	Points/&decade
VAC	QUANT	2.50000E+001	AC &Voltage (mV rms)
AREA	QUANT	1.00000E-002	&Area (cm^2)
CONDIT	TWOPARAM	T	5.00000E+000	0.00000E+000	Conditionin&g	Time(s)	E(V)
DELAY	TWOPARAM	T	5.00000E+000	0.00000E+000	Init. De&lay	Time(s)	Stab.(mV/s)
SPEED	SELECTOR	0	&Optimize for:
ZGUESS	QUANT	1.00000E+005	E&stimated Z (ohms)
OCVCURVE	TABLE	19
	Pt	T	Vf	Vm	Ach	Over
	#	s	V vs. Ref.	V	V	bits
	0	0.258333	1.72412E-003	1.72412E-003	5.47166E-004	...........
	1	0.516667	1.71661E-003	1.33145E-003	5.52799E-004	...........
	2	0.775	1.67100E-003	9.82679E-004	5.54966E-004	...........
	3	1.03333	1.54407E-003	6.80571E-004	5.52699E-004	...........
	4	1.29167	1.32275E-003	4.00363E-004	5.55433E-004	...........
	5	1.55	1.03882E-003	1.46492E-004	5.50333E-004	...........
	6	1.80833	7.37599E-004	-8.82877E-005	5.52033E-004	...........
	7	2.06667	4.49267E-004	-2.97243E-004	5.50466E-004	...........
	8	2.325	1.85394E-004	-4.94242E-004	5.50699E-004	...........
	9	2.58333	-5.34098E-005	-6.82063E-004	5.47399E-004	...........
	10	2.84167	-2.70871E-004	-8.51552E-004	5.46033E-004	...........
	11	3.1	-4.71232E-004	-1.01491E-003	5.48433E-004	...........
	12	3.35833	-6.57533E-004	-1.16743E-003	5.48199E-004	...........
	13	3.61667	-8.31909E-004	-1.32030E-003	5.46166E-004	...........
	14	3.875	-9.96300E-004	-1.45458E-003	5.49666E-004	...........
	15	4.13333	-1.15223E-003	-1.59366E-003	5.49666E-004	...........
	16	4.39167	-1.30052E-003	-1.71618E-003	5.47166E-004	...........
	17	4.65	-1.44172E-003	-1.84510E-003	5.47699E-004	...........
	18	4.90833	-1.57641E-003	-1.95415E-003	5.51566E-004	...........
EOC	QUANT	-0.0015764	Open Circuit (V)
PSTATMODEL	IQUANT	4	Pstat Model
PSTATSECTION	LABEL	REF600-11020	Pstat Section
PSTATSERIALNO	LABEL	11020	Pstat Serial Number
CTRLMODE	IQUANT	1	Control Mode
IESTAB	IQUANT	0	I/E Stability
CASPEED	IQUANT	1	Control Amp Speed
CONVENTION	IQUANT	1	Current Convention
ICHRANGE	IQUANT	2	Ich Range
ICHRANGEMODE	TOGGLE	F	Ich Auto Range
ICHOFFSETENABLE	TOGGLE	T	Ich Offset Enable
ICHOFFSET	QUANT	0	Ich Offset (V)
ICHFILTER	IQUANT	3	Ich Filter
VCHRANGE	IQUANT	2	Vch Range
VCHRANGEMODE	TOGGLE	F	Vch Auto Range
VCHOFFSETENABLE	TOGGLE	T	Vch Offset Enable
VCHOFFSET	QUANT	0	Vch Offset (V)
VCHFILTER	IQUANT	3	Vch Filter
ACHRANGE	IQUANT	2	Ach Range
ACHOFFSETENABLE	TOGGLE	F	Ach Offset Enable
ACHOFFSET	QUANT	0	Ach Offset (V)
ACHFILTER	IQUANT	3	Ach Filter
IERANGELOWERLIMIT	IQUANT	1	I/E Range Lower Limit
IERANGEMODE	TOGGLE	F	I/E AutoRange
IERANGE	IQUANT	4	I/E Range
POSFEEDENABLE	TOGGLE	F	Positive Feedback IR Comp
POSFEEDRESISTANCE	QUANT	0	Positive Feedback Resistance (ohm)
ACHSELECT	IQUANT	0	Ach Select
CABLEID	IQUANT	14	Cable ID
DCCALDATE	LABEL	8/19/2019	DC Calibration Date
ACCALDATE	LABEL	8/19/2019	AC Calibration Date
THERMOSELECT	IQUANT	1	Thermo Select
FRAMEWORKVERSION	QUANT	6.33	Framework Version
INSTRUMENTVERSION	LABEL	3.50	Instrument Version
ZCURVE	TABLE
	Pt	Time	Freq	Zreal	Zimag	Zsig	Zmod	Zphz	Idc	Vdc	IERange
	#	s	Hz	ohm	ohm	V	ohm	°	A	V	#
	0	1	1000078	2380.543	-1343.966	1	2733.721	-29.44746	2.706508E-006	0.0002288	8
	1	2	794390.6	2626.69	-1244.728	1	2906.69	-25.35521	-6.957307E-006	0.0008279	8
	2	2	630984.4	2831.465	-1115.414	1	3043.246	-21.50123	1.480283E-006	-0.0001589	8
	3	2	501234.4	2999.292	-977.843	1	3154.668	-18.05725	6.259198E-006	-0.0006781	8
	4	3	398109.4	3103.75	-848.613	1	3217.671	-15.29181	-6.417644E-007	-0.0002681	8
	5	3	316265.6	3209.864	-740.5573	1	3294.185	-12.99156	-3.692853E-006	0.000599	8
	6	3	251203.1	3277.127	-644.8184	1	3339.963	-11.13151	-6.858153E-007	0.0004334	8
	7	4	199546.9	3319.929	-574.6128	1	3369.29	-9.81946	5.817511E-006	-0.0006913	8
	8	4	158578.1	3382.152	-520.1411	1	3421.914	-8.743018	-7.249369E-007	-0.0002755	8
	9	4	125953.1	3451.667	-412.757	1	3476.259	-6.819157	2.764058E-006	-0.0016415	7
	10	5	100078.1	3471.866	-385.5616	1	3493.209	-6.336911	1.287277E-007	-0.0013759	7
	11	5	79453.13	3501.926	-380.4575	1	3522.532	-6.200431	9.611067E-007	-0.0016722	7
	12	5	63140.62	3533.642	-382.1059	1	3554.241	-6.171627	-2.956426E-007	0.0013071	7
	13	5	50203.12	3568.316	-392.5491	1	3589.844	-6.277843	-1.080417E-006	0.0015539	7
	14	6	39890.62	3605.176	-415.3105	1	3629.019	-6.571415	1.076702E-006	-0.0011323	7
	15	6	31640.63	3644.499	-444.5604	1	3671.513	-6.95465	1.064547E-006	-0.0014538	7
	16	6	25171.88	3686.164	-483.2243	1	3717.702	-7.468396	-1.207753E-006	0.0013907	7
	17	7	20015.62	3734.475	-533.7179	1	3772.421	-8.133431	-8.886266E-007	0.0016168	7
	18	7	15890.62	3784.938	-593.2181	1	3831.144	-8.907575	3.749472E-007	0.0004936	7
	19	7	12609.37	3843.853	-668.0472	1	3901.473	-9.85931	-8.883015E-007	0.0016127	7
	20	8	10078.13	3905.938	-750.0158	1	3977.294	-10.8696	-1.208148E-006	0.0013901	7
	21	8	8015.625	3975.039	-856.1495	1	4066.194	-12.15477	1.07758E-006	-0.001134	7
	22	8	6328.125	4052.071	-978.834	1	4168.62	-13.58043	-1.020477E-006	0.0004545	7
	23	9	5015.625	4137.505	-1126.645	1	4288.156	-15.23236	5.899062E-007	0.0001789	7
	24	9	3984.375	4230.715	-1307.059	1	4428.02	-17.16828	-2.837191E-007	-0.0008934	7
	25	9	3170.956	4330.563	-1515.49	1	4588.081	-19.2876	9.881917E-007	-0.0007235	7
	26	10	2527.573	4439.713	-1766.079	1	4778.084	-21.69223	5.917126E-007	0.0001726	7
	27	10	1976.103	4570.283	-2097.466	1	5028.603	-24.65208	-1.208195E-006	0.0013816	7
	28	10	1577.524	4714.148	-2469.271	1	5321.7	-27.64555	-1.20757E-006	0.0013846	7
	29	11	1265.625	4860.368	-2911.573	1	5665.724	-30.92345	-2.844911E-007	-0.0008948	7
	30	11	998.264	5036.781	-3486.989	1	6126.031	-34.69505	-2.849059E-007	-0.0008964	7
	31	11	796.875	5243.581	-4150.001	1	6687.125	-38.35965	-1.018949E-006	0.0004468	7
	32	12	627.7902	5487.359	-5008.059	1	7429.116	-42.38526	-8.870401E-007	0.0016088	7
	33	12	505.5147	5728.246	-5963.888	1	8269.267	-46.15458	1.076738E-006	-0.0011393	7
	34	13	397.9953	6051.732	-7240.42	1	9436.479	-50.11024	2.10533E-009	-1.921282E-005	7
	35	13	315.5048	6413.839	-8772.948	1	10867.47	-53.82973	1.094909E-009	-7.282975E-005	6
	36	13	252.4038	6816.737	-10579.73	1	12585.65	-57.20549	1.688979E-009	-8.315969E-005	6
	37	14	198.6229	7335.284	-12976.53	1	14906.27	-60.5217	4.226466E-010	-8.346244E-005	6
	38	14	158.3615	7930.559	-15771.96	1	17653.57	-63.30555	7.35475E-010	-8.160972E-005	6
	39	14	125.558	8701.109	-19297.54	1	21168.47	-65.72976	7.33019E-010	-8.119672E-005	6
	40	15	100.4464	9648	-23427.54	1	25336.41	-67.61702	1.406527E-009	-8.1219E-005	6
	41	15	79.00281	10994.44	-28872.84	1	30895.28	-69.15376	-7.33654E-011	-8.67436E-005	6
	42	15	63.3446	12374.36	-35403.8	1	37504.05	-70.73442	2.735532E-010	-8.674368E-005	6
	43	16	49.86702	14550.91	-43348.37	1	45725.38	-71.44446	5.984942E-011	-0.0000976	6
	44	16	39.72458	17506.28	-52509.04	1	55350.42	-71.56184	-2.110836E-010	-7.878461E-005	6
	45	16	31.6723	21259.95	-63619.11	1	67077.4	-71.52164	-1.416788E-010	-7.937758E-005	6
	46	17	24.93351	26190.19	-77487.66	1	81794.03	-71.32517	9.11955E-010	-8.796223E-005	6
	47	17	19.86229	32239.98	-93125.4	1	98548.2	-70.90417	1.350933E-009	-7.705609E-005	6
	48	17	15.83615	39412.59	-111753.4	1	118499.7	-70.57355	4.114435E-010	-8.881402E-005	5
	49	18	12.40079	51236.87	-134150.7	1	143602.3	-69.09637	1.601015E-009	-7.773351E-005	5
	50	18	9.93114	62348.66	-159962.9	1	171684.3	-68.70568	-1.335427E-010	-8.276937E-005	5
	51	18	7.944915	76761.16	-188500.8	1	203530.9	-67.8429	-4.491724E-010	-7.676741E-005	5
	52	19	6.317385	95656.6	-222987.5	1	242638.9	-66.78176	-1.011594E-010	-7.317259E-005	5
	53	20	5.008013	118648.1	-263335.8	1	288830.6	-65.74566	1.587496E-012	-8.72928E-005	5
	54	21	3.945707	146680.7	-310226.2	1	343155.2	-64.69435	2.314494E-010	-8.222872E-005	5
	55	22	3.158693	179166.1	-360745.6	1	402787.6	-63.58848	3.240893E-010	-5.484959E-005	5
	56	24	2.504006	219885.8	-420645.2	1	474649.5	-62.40237	1.546797E-010	-7.465553E-005	5
	57	25	1.998082	265600.1	-485809.1	1	553673.1	-61.33382	1.804922E-010	-9.134964E-005	5
	58	27	1.584686	323466.5	-560008.1	1	646714.5	-59.98882	2.924909E-010	-4.102823E-005	5
	59	29	1.266892	387515.7	-641768.8	1	749690.3	-58.87539	2.995617E-010	-4.411488E-005	5
	60	31	0.999041	464545.7	-737336.8	1	871474.8	-57.78776	3.135087E-010	-5.843238E-005	5
