EXPLAIN
TAG	EISPOT
TITLE	LABEL	Potentiostatic EIS	Test &Identifier
DATE	LABEL	8/14/2018	Date
TIME	LABEL	5:33:39	Time
NOTES	NOTES	1	&Notes...
	
PSTAT	PSTAT	REF600-11020	Potentiostat
VDC	POTEN	0.00000E+000	T	DC &Voltage (V)
FREQINIT	QUANT	1.00000E+006	Initial Fre&q. (Hz)
FREQFINAL	QUANT	1.00000E+000	Final Fre&q. (Hz)
PTSPERDEC	QUANT	1.00000E+001	Points/&decade
VAC	QUANT	2.50000E+001	AC &Voltage (mV rms)
AREA	QUANT	1.00000E-002	&Area (cm^2)
CONDIT	TWOPARAM	T	5.00000E+000	0.00000E+000	Conditionin&g	Time(s)	E(V)
DELAY	TWOPARAM	T	5.00000E+000	0.00000E+000	Init. De&lay	Time(s)	Stab.(mV/s)
SPEED	SELECTOR	0	&Optimize for:
ZGUESS	QUANT	1.00000E+005	E&stimated Z (ohms)
OCVCURVE	TABLE	19
	Pt	T	Vf	Vm	Ach	Over
	#	s	V vs. Ref.	V	V	bits
	0	0.258333	5.73986E-002	5.73986E-002	5.52733E-004	...........
	1	0.516667	5.74674E-002	6.10045E-002	5.61632E-004	...........
	2	0.775	5.78902E-002	6.44120E-002	5.56832E-004	...........
	3	1.03333	5.90824E-002	6.75144E-002	5.51499E-004	...........
	4	1.29167	6.11978E-002	7.03640E-002	5.52932E-004	...........
	5	1.55	6.39680E-002	7.30189E-002	5.55899E-004	...........
	6	1.80833	6.69710E-002	7.55346E-002	5.56566E-004	...........
	7	2.06667	6.99084E-002	7.78476E-002	5.59232E-004	...........
	8	2.325	7.26596E-002	8.01253E-002	5.54033E-004	...........
	9	2.58333	7.52136E-002	8.21697E-002	5.53666E-004	...........
	10	2.84167	7.75969E-002	8.41888E-002	5.54499E-004	...........
	11	3.1	7.98346E-002	8.59987E-002	5.55266E-004	...........
	12	3.35833	8.19418E-002	8.77946E-002	5.54633E-004	...........
	13	3.61667	8.39288E-002	8.94752E-002	5.58466E-004	...........
	14	3.875	8.58074E-002	9.10718E-002	5.52166E-004	...........
	15	4.13333	8.75894E-002	9.26163E-002	5.56233E-004	...........
	16	4.39167	8.92850E-002	9.41039E-002	5.58032E-004	...........
	17	4.65	9.09038E-002	9.55222E-002	5.61466E-004	...........
	18	4.90833	9.24545E-002	9.68919E-002	5.59532E-004	...........
EOC	QUANT	0.0924545	Open Circuit (V)
PSTATMODEL	IQUANT	4	Pstat Model
PSTATSECTION	LABEL	REF600-11020	Pstat Section
PSTATSERIALNO	LABEL	11020	Pstat Serial Number
CTRLMODE	IQUANT	1	Control Mode
IESTAB	IQUANT	0	I/E Stability
CASPEED	IQUANT	1	Control Amp Speed
CONVENTION	IQUANT	1	Current Convention
ICHRANGE	IQUANT	2	Ich Range
ICHRANGEMODE	TOGGLE	F	Ich Auto Range
ICHOFFSETENABLE	TOGGLE	T	Ich Offset Enable
ICHOFFSET	QUANT	0	Ich Offset (V)
ICHFILTER	IQUANT	3	Ich Filter
VCHRANGE	IQUANT	2	Vch Range
VCHRANGEMODE	TOGGLE	F	Vch Auto Range
VCHOFFSETENABLE	TOGGLE	T	Vch Offset Enable
VCHOFFSET	QUANT	0	Vch Offset (V)
VCHFILTER	IQUANT	3	Vch Filter
ACHRANGE	IQUANT	2	Ach Range
ACHOFFSETENABLE	TOGGLE	F	Ach Offset Enable
ACHOFFSET	QUANT	0	Ach Offset (V)
ACHFILTER	IQUANT	3	Ach Filter
IERANGELOWERLIMIT	IQUANT	1	I/E Range Lower Limit
IERANGEMODE	TOGGLE	F	I/E AutoRange
IERANGE	IQUANT	6	I/E Range
POSFEEDENABLE	TOGGLE	F	Positive Feedback IR Comp
POSFEEDRESISTANCE	QUANT	0	Positive Feedback Resistance (ohm)
ACHSELECT	IQUANT	0	Ach Select
CABLEID	IQUANT	14	Cable ID
DCCALDATE	LABEL	8/19/2019	DC Calibration Date
ACCALDATE	LABEL	8/19/2019	AC Calibration Date
THERMOSELECT	IQUANT	1	Thermo Select
FRAMEWORKVERSION	QUANT	6.33	Framework Version
INSTRUMENTVERSION	LABEL	3.50	Instrument Version
ZCURVE	TABLE
	Pt	Time	Freq	Zreal	Zimag	Zsig	Zmod	Zphz	Idc	Vdc	IERange
	#	s	Hz	ohm	ohm	V	ohm	°	A	V	#
	0	1	1000078	2363.322	-1717.028	1	2921.212	-35.99959	-3.479875E-006	0.0949704	8
	1	1	794390.6	2715.101	-1698.431	1	3202.568	-32.02803	6.208838E-006	0.0933295	8
	2	2	630984.4	3019.422	-1652.632	1	3442.107	-28.69338	-2.353021E-006	0.0946346	8
	3	2	501234.4	3323.115	-1569.145	1	3674.957	-25.27626	1.903563E-006	0.0937564	8
	4	2	398109.4	3573.646	-1512.54	1	3880.557	-22.94043	-2.141522E-006	0.0946227	8
	5	3	316265.6	3779.216	-1357.192	1	4015.525	-19.75423	-4.1118E-008	0.0941662	8
	6	3	251203.1	3974.341	-1257.745	1	4168.61	-17.56082	-1.513931E-007	0.0941972	8
	7	3	199546.9	4119.583	-1143.573	1	4275.363	-15.51435	1.422173E-006	0.09369	8
	8	4	158578.1	4261.616	-1109.231	1	4403.608	-14.58947	-7.613019E-007	0.0941826	8
	9	4	125953.1	4428.826	-907.682	1	4520.883	-11.5823	2.487415E-007	0.0937087	7
	10	4	100078.1	4512.784	-863.7449	1	4594.7	-10.83534	-6.638953E-008	0.0942264	7
	11	5	79453.13	4605.26	-843.2195	1	4681.82	-10.37588	3.187232E-008	0.0938921	7
	12	5	63140.62	4693.371	-839.7727	1	4767.908	-10.14444	1.155524E-007	0.0938452	7
	13	5	50203.12	4780.551	-849.7834	1	4855.492	-10.07953	4.121109E-008	0.0939542	7
	14	6	39890.62	4868.583	-877.5496	1	4947.039	-10.21771	-6.834134E-008	0.0942171	7
	15	6	31640.63	4965.496	-922.2375	1	5050.413	-10.52161	8.853001E-008	0.0939352	7
	16	6	25171.88	5062.917	-985.171	1	5157.876	-11.01133	8.936295E-008	0.0939341	7
	17	6	20015.62	5169.915	-1064.176	1	5278.303	-11.63131	-1.55326E-008	0.0940332	7
	18	7	15890.62	5289.515	-1160.589	1	5415.343	-12.37534	-5.584435E-008	0.0940637	7
	19	7	12609.37	5414.744	-1282.508	1	5564.555	-13.32522	-3.717617E-008	0.0940046	7
	20	7	10078.13	5545.994	-1401.579	1	5720.355	-14.18278	9.057718E-008	0.0939313	7
	21	8	8015.625	5727.044	-1576.936	1	5940.182	-15.39484	1.166307E-007	0.0938357	7
	22	8	6328.125	5902.627	-1790.224	1	6168.136	-16.87217	1.357448E-008	0.0940854	7
	23	9	5015.625	6104.251	-2018.837	1	6429.431	-18.30041	7.245216E-008	0.0938358	7
	24	9	3984.375	6323.584	-2275.048	1	6720.384	-19.7873	-3.578617E-008	0.0940647	7
	25	9	3170.956	6588.697	-2577.469	1	7074.904	-21.36522	-3.466341E-010	0.0939312	7
	26	10	2527.573	6872.673	-2912.472	1	7464.324	-22.96605	-1.553778E-008	0.0940168	7
	27	10	1976.103	7219.817	-3322.453	1	7947.606	-24.71119	4.198351E-008	0.0939358	7
	28	10	1577.524	7543.762	-3750.558	1	8424.668	-26.43534	-6.757268E-008	0.0941022	7
	29	11	1265.625	7928.501	-4223.263	1	8983.155	-28.04282	3.826721E-008	0.0939448	7
	30	11	998.264	8351.177	-4799.566	1	9632.13	-29.88673	-4.108433E-009	0.0939275	6
	31	11	796.875	8756.2	-5465.081	1	10321.73	-31.96987	-9.92352E-009	0.0940982	6
	32	12	627.7902	9189.451	-6308.514	1	11146.45	-34.46941	-1.055354E-008	0.0940407	6
	33	12	505.5147	9591.96	-7249.195	1	12023.17	-37.08044	-9.544895E-009	0.0939961	6
	34	12	397.9953	10038.89	-8535.296	1	13176.9	-40.37195	-2.853896E-009	0.0939541	6
	35	13	315.5048	10491.93	-10110.1	1	14570.33	-43.93822	-1.548976E-009	0.093952	6
	36	13	252.4038	10957.62	-12002.6	1	16252.14	-47.60588	-1.424084E-009	0.0939525	6
	37	13	198.6229	11520.16	-14552.51	1	18560.43	-51.63393	-2.326543E-009	0.0939542	6
	38	13	158.3615	12152.67	-17571.96	1	21364.95	-55.33249	-1.440478E-009	0.0939489	6
	39	14	125.558	12934.42	-21421.92	1	25023.95	-58.87667	-1.911952E-009	0.093953	6
	40	14	100.4464	13812.4	-26002.15	1	29443.07	-62.02266	-2.347991E-009	0.0939481	6
	41	14	79.00281	15198.69	-31972.34	1	35401	-64.575	-3.099274E-009	0.0939444	6
	42	15	63.3446	16768.7	-39504.89	1	42916.49	-67.00017	-2.639008E-009	0.0939434	6
	43	15	49.86702	18765.3	-48436.57	1	51944.57	-68.82264	-2.29709E-009	0.0939437	6
	44	16	39.72458	21627.18	-58632.34	1	62493.89	-69.75294	-2.399446E-009	0.0939511	6
	45	16	31.6723	25191.46	-71052.34	1	75385.98	-70.47814	-2.885466E-009	0.0939516	6
	46	16	24.93351	29788.6	-87606.55	1	92532.52	-71.22058	-2.209912E-009	0.0939482	6
	47	17	19.86229	35957.16	-106171.5	1	112095.1	-71.29028	-2.107009E-009	0.0939583	5
	48	17	15.83615	44289.63	-129078.2	1	136465.3	-71.06176	-3.277058E-009	0.0939536	5
	49	17	12.40079	55937.61	-157847.9	1	167466.3	-70.48685	-9.535348E-010	0.0939516	5
	50	18	9.93114	66416.29	-187788.6	1	199187.6	-70.52254	-2.337552E-009	0.0939593	5
	51	18	7.944915	82402.46	-223533.3	1	238237.9	-69.76428	-2.04781E-009	0.0939468	5
	52	19	6.317385	102839.3	-267223.1	1	286328.7	-68.95106	-1.954833E-009	0.093947	5
	53	19	5.008013	129896	-318832.8	1	344277.9	-67.83348	-1.967712E-009	0.0939461	5
	54	21	3.945707	163443.8	-380487	1	414106.5	-66.75335	-1.82618E-009	0.0939548	5
	55	22	3.158693	203152.8	-445700.5	1	489816.3	-65.49623	-1.917694E-009	0.0939594	5
	56	24	2.504006	254503.7	-523271.5	1	581880.7	-64.06309	-1.894332E-009	0.0939473	5
	57	25	1.998082	315486.8	-605954.4	1	683163.7	-62.49651	-1.637269E-009	0.0939903	5
	58	26	1.584686	388475.4	-701385.4	1	801782.2	-61.01931	-1.579563E-009	0.0939828	5
	59	28	1.266892	473281.4	-800179.1	1	929667.6	-59.39698	-1.519903E-009	0.0939395	5
	60	31	0.999041	579985.2	-916829.8	1	1084878	-57.68261	-1.434606E-009	0.0939224	4
