EXPLAIN
TAG	EISPOT
TITLE	LABEL	Potentiostatic EIS	Test &Identifier
DATE	LABEL	10/31/2019	Date
TIME	LABEL	23:44:24	Time
NOTES	NOTES	1	&Notes...
	
PSTAT	PSTAT	REF600-11020	Potentiostat
VDC	POTEN	0.00000E+000	T	DC &Voltage (V)
FREQINIT	QUANT	1.00000E+006	Initial Fre&q. (Hz)
FREQFINAL	QUANT	1.00000E+000	Final Fre&q. (Hz)
PTSPERDEC	QUANT	1.00000E+001	Points/&decade
VAC	QUANT	2.50000E+001	AC &Voltage (mV rms)
AREA	QUANT	1.00000E-002	&Area (cm^2)
CONDIT	TWOPARAM	T	5.00000E+000	0.00000E+000	Conditionin&g	Time(s)	E(V)
DELAY	TWOPARAM	T	5.00000E+000	0.00000E+000	Init. De&lay	Time(s)	Stab.(mV/s)
SPEED	SELECTOR	0	&Optimize for:
ZGUESS	QUANT	1.00000E+005	E&stimated Z (ohms)
OCVCURVE	TABLE	19
	Pt	T	Vf	Vm	Ach	Over
	#	s	V vs. Ref.	V	V	bits
	0	0.258333	9.10498E-003	9.10498E-003	5.47166E-004	...........
	1	0.516667	9.11914E-003	9.84623E-003	5.50999E-004	...........
	2	0.775	9.19617E-003	1.00291E-002	5.52266E-004	...........
	3	1.03333	9.38142E-003	1.02231E-002	5.49999E-004	...........
	4	1.29167	9.65171E-003	1.04728E-002	5.51166E-004	...........
	5	1.55	9.94399E-003	1.09032E-002	5.53399E-004	...........
	6	1.80833	1.02330E-002	1.12206E-002	5.52733E-004	...........
	7	2.06667	1.05356E-002	1.16816E-002	5.51133E-004	...........
	8	2.325	1.08702E-002	1.20683E-002	5.49799E-004	...........
	9	2.58333	1.12347E-002	1.22545E-002	5.51133E-004	...........
	10	2.84167	1.16023E-002	1.24892E-002	5.55299E-004	...........
	11	3.1	1.19339E-002	1.25460E-002	5.54566E-004	...........
	12	3.35833	1.22026E-002	1.27243E-002	5.56533E-004	...........
	13	3.61667	1.24075E-002	1.28454E-002	5.54533E-004	...........
	14	3.875	1.25685E-002	1.30071E-002	5.55699E-004	...........
	15	4.13333	1.27120E-002	1.32176E-002	5.54899E-004	...........
	16	4.39167	1.28580E-002	1.33483E-002	5.56432E-004	...........
	17	4.65	1.30144E-002	1.35159E-002	5.54733E-004	...........
	18	4.90833	1.31782E-002	1.37117E-002	5.49833E-004	...........
EOC	QUANT	0.0131782	Open Circuit (V)
PSTATMODEL	IQUANT	4	Pstat Model
PSTATSECTION	LABEL	REF600-11020	Pstat Section
PSTATSERIALNO	LABEL	11020	Pstat Serial Number
CTRLMODE	IQUANT	1	Control Mode
IESTAB	IQUANT	0	I/E Stability
CASPEED	IQUANT	1	Control Amp Speed
CONVENTION	IQUANT	1	Current Convention
ICHRANGE	IQUANT	2	Ich Range
ICHRANGEMODE	TOGGLE	F	Ich Auto Range
ICHOFFSETENABLE	TOGGLE	T	Ich Offset Enable
ICHOFFSET	QUANT	0	Ich Offset (V)
ICHFILTER	IQUANT	3	Ich Filter
VCHRANGE	IQUANT	2	Vch Range
VCHRANGEMODE	TOGGLE	F	Vch Auto Range
VCHOFFSETENABLE	TOGGLE	T	Vch Offset Enable
VCHOFFSET	QUANT	0	Vch Offset (V)
VCHFILTER	IQUANT	3	Vch Filter
ACHRANGE	IQUANT	2	Ach Range
ACHOFFSETENABLE	TOGGLE	F	Ach Offset Enable
ACHOFFSET	QUANT	0	Ach Offset (V)
ACHFILTER	IQUANT	3	Ach Filter
IERANGELOWERLIMIT	IQUANT	1	I/E Range Lower Limit
IERANGEMODE	TOGGLE	F	I/E AutoRange
IERANGE	IQUANT	5	I/E Range
POSFEEDENABLE	TOGGLE	F	Positive Feedback IR Comp
POSFEEDRESISTANCE	QUANT	0	Positive Feedback Resistance (ohm)
ACHSELECT	IQUANT	0	Ach Select
CABLEID	IQUANT	14	Cable ID
DCCALDATE	LABEL	8/19/2019	DC Calibration Date
ACCALDATE	LABEL	8/19/2019	AC Calibration Date
THERMOSELECT	IQUANT	1	Thermo Select
FRAMEWORKVERSION	QUANT	6.33	Framework Version
INSTRUMENTVERSION	LABEL	3.50	Instrument Version
ZCURVE	TABLE
	Pt	Time	Freq	Zreal	Zimag	Zsig	Zmod	Zphz	Idc	Vdc	IERange
	#	s	Hz	ohm	ohm	V	ohm	°	A	V	#
	0	1	1000078	1603.472	-586.911	1	1707.509	-20.1039	7.048735E-006	0.0154479	8
	1	1	794390.6	1689.294	-515.8377	1	1766.297	-16.98042	-4.640212E-006	0.0149508	8
	2	2	630984.4	1754.319	-447.3319	1	1810.454	-14.30495	7.234283E-007	0.0155465	8
	3	2	501234.4	1807.444	-387.0925	1	1848.43	-12.08819	-2.229294E-006	0.0150988	8
	4	2	398109.4	1839.412	-333.9348	1	1869.479	-10.28965	-1.701758E-007	0.0146393	8
	5	3	316265.6	1873.919	-290.5433	1	1896.309	-8.813294	-2.888692E-007	0.01529	8
	6	3	251203.1	1897.024	-258.4993	1	1914.555	-7.759658	3.763603E-006	0.0147904	8
	7	3	199546.9	1918.593	-228.396	1	1932.14	-6.78874	-3.54015E-006	0.0153896	8
	8	4	158578.1	1936.76	-208.618	1	1947.964	-6.147907	-3.3721E-006	0.0153856	8
	9	4	125953.1	1966.687	-170.2092	1	1974.039	-4.946403	2.191518E-006	0.0135683	7
	10	4	100078.1	1978.057	-162.6049	1	1984.729	-4.699396	5.936095E-007	0.013431	7
	11	5	79453.13	1991.615	-167.4057	1	1998.638	-4.804717	5.022907E-007	0.0149171	7
	12	5	63140.62	2007.404	-176.0182	1	2015.106	-5.011134	8.62746E-007	0.0138954	7
	13	5	50203.12	2025.333	-187.0489	1	2033.952	-5.276563	7.937996E-008	0.0137452	7
	14	6	39890.62	2044.055	-201.5473	1	2053.967	-5.631261	8.60874E-007	0.0138902	7
	15	6	31640.63	2065.303	-219.484	1	2076.933	-6.066171	8.415042E-007	0.013648	7
	16	6	25171.88	2088.201	-241.0547	1	2102.068	-6.584882	7.527328E-007	0.0134908	7
	17	7	20015.62	2111.307	-267.2903	1	2128.159	-7.21523	-2.130755E-007	0.0158572	7
	18	7	15890.62	2139.564	-298.6555	1	2160.308	-7.946406	5.032222E-007	0.0149183	7
	19	7	12609.37	2169.721	-335.3674	1	2195.486	-8.786509	-9.776671E-007	0.0156874	7
	20	8	10078.13	2202.096	-378.0995	1	2234.321	-9.74267	-2.511166E-007	0.0141454	7
	21	8	8015.625	2236.616	-430.1869	1	2277.611	-10.88722	6.643754E-007	0.0145939	7
	22	8	6328.125	2275.015	-493.6824	1	2327.964	-12.24346	-9.762091E-007	0.0156855	7
	23	8	5015.625	2317.657	-569.3728	1	2386.57	-13.80237	3.641501E-007	0.0135126	7
	24	9	3984.375	2361.281	-656.7056	1	2450.9	-15.542	-9.742572E-007	0.0156863	7
	25	9	3170.956	2410.48	-765.6055	1	2529.144	-17.62065	7.722205E-008	0.0137381	7
	26	9	2527.573	2461.042	-892.5834	1	2617.906	-19.93496	-7.017903E-007	0.0161242	7
	27	10	1976.103	2520.167	-1064.663	1	2735.827	-22.90199	6.659711E-007	0.0145924	7
	28	10	1577.524	2573.571	-1253.974	1	2862.816	-25.9777	-4.763454E-007	0.0160502	7
	29	10	1265.625	2639.396	-1489.671	1	3030.764	-29.44032	5.938364E-007	0.0134197	7
	30	11	998.264	2710.137	-1798.592	1	3252.657	-33.57038	8.010962E-007	0.0142077	7
	31	11	796.875	2786.294	-2163.454	1	3527.6	-37.82801	5.002158E-007	0.0149074	7
	32	11	627.7902	2880.127	-2642.574	1	3908.75	-42.537	-6.995979E-007	0.016128	7
	33	12	505.5147	2976.267	-3188.347	1	4361.619	-46.97036	5.954038E-007	0.0134193	7
	34	12	397.9953	3112.576	-3925.051	1	5009.407	-51.58548	1.362465E-009	0.0148219	7
	35	12	315.5048	3273.811	-4817.571	1	5824.674	-55.80168	3.84043E-009	0.0148164	7
	36	13	252.4038	3468.604	-5872.269	1	6820.172	-59.43071	2.640672E-009	0.0148182	7
	37	13	198.6229	3735.149	-7267.513	1	8171.174	-62.79904	1.874814E-009	0.014818	7
	38	13	158.3615	4060.944	-8893.402	1	9776.7	-65.45741	2.102559E-009	0.0148164	7
	39	14	125.558	4490.997	-10931.62	1	11818.18	-67.66585	3.151307E-011	0.0147561	6
	40	14	100.4464	5035.166	-13317.21	1	14237.3	-69.28866	2.173392E-010	0.0147544	6
	41	14	79.00281	5786.753	-16468.01	1	17455.14	-70.63885	-1.308894E-009	0.0147606	6
	42	15	63.3446	6510.192	-19943.21	1	20978.9	-71.92142	-1.849101E-010	0.0147572	6
	43	15	49.86702	7786.892	-24512.55	1	25719.66	-72.37653	-4.20208E-012	0.0147502	6
	44	15	39.72458	9414.074	-29879.19	1	31327.15	-72.51186	2.145596E-010	0.0147503	6
	45	16	31.6723	11447.67	-36195.82	1	37962.96	-72.44938	6.805214E-010	0.0147539	6
	46	16	24.93351	14013.04	-44169.54	1	46339.11	-72.39807	-8.759717E-010	0.0147521	6
	47	16	19.86229	17211.04	-53288.72	1	55999.17	-72.10073	-1.944703E-009	0.0147574	6
	48	17	15.83615	21683.39	-64415.31	1	67966.91	-71.39581	2.771526E-009	0.0147549	6
	49	17	12.40079	26451.02	-77870.81	1	82240.63	-71.23849	-1.025282E-009	0.0147482	6
	50	17	9.93114	33238.41	-92546.22	1	98334.1	-70.24401	-1.406371E-009	0.0147569	6
	51	18	7.944915	41127.91	-109696.9	1	117153.4	-69.44782	-6.564888E-010	0.0147481	5
	52	18	6.317385	50976.51	-130479	1	140083.5	-68.66004	-2.404948E-010	0.0147556	5
	53	19	5.008013	63432.88	-154927.5	1	167410.5	-67.73405	-4.684984E-010	0.0147521	5
	54	20	3.945707	78697.77	-184185.5	1	200293.9	-66.86421	-2.455031E-011	0.0147554	5
	55	22	3.158693	96226.8	-215532.3	1	236037.6	-65.94109	-5.792326E-010	0.0147657	5
	56	23	2.504006	117565.7	-253256.4	1	279214.1	-65.09851	-4.490201E-010	0.0147489	5
	57	25	1.998082	142368.5	-294993.1	1	327551.1	-64.23728	-1.825266E-010	0.0147935	5
	58	26	1.584686	170891.8	-344738.2	1	384770.6	-63.63171	-2.575666E-010	0.0147753	5
	59	28	1.266892	204168.2	-399433.3	1	448588.5	-62.9264	-3.451809E-010	0.014732	5
	60	31	0.999041	245603	-467800.5	1	528354.2	-62.29979	-3.526568E-010	0.0147108	5
