EXPLAIN
TAG	EISPOT
TITLE	LABEL	Potentiostatic EIS	Test &Identifier
DATE	LABEL	10/6/2019	Date
TIME	LABEL	10:25:45	Time
NOTES	NOTES	2	&Notes...
	
	
PSTAT	PSTAT	REF600-11020	Potentiostat
VDC	POTEN	0.00000E+000	T	DC &Voltage (V)
FREQINIT	QUANT	1.00000E+006	Initial Fre&q. (Hz)
FREQFINAL	QUANT	1.00000E+000	Final Fre&q. (Hz)
PTSPERDEC	QUANT	1.00000E+001	Points/&decade
VAC	QUANT	2.50000E+001	AC &Voltage (mV rms)
AREA	QUANT	1.00000E-002	&Area (cm^2)
CONDIT	TWOPARAM	T	5.00000E+000	0.00000E+000	Conditionin&g	Time(s)	E(V)
DELAY	TWOPARAM	T	5.00000E+000	0.00000E+000	Init. De&lay	Time(s)	Stab.(mV/s)
SPEED	SELECTOR	1	&Optimize for:
ZGUESS	QUANT	1.00000E+004	E&stimated Z (ohms)
OCVCURVE	TABLE	19
	Pt	T	Vf	Vm	Ach	Over
	#	s	V vs. Ref.	V	V	bits
	0	0.258333	4.35346E-003	4.35346E-003	5.41766E-004	...........
	1	0.516667	4.35089E-003	4.21896E-003	5.38866E-004	...........
	2	0.775	4.33592E-003	4.13402E-003	5.37333E-004	...........
	3	1.03333	4.29668E-003	4.07289E-003	5.37299E-004	...........
	4	1.29167	4.23358E-003	4.02363E-003	5.42766E-004	...........
	5	1.55	4.16057E-003	3.97234E-003	5.35033E-004	...........
	6	1.80833	4.09160E-003	3.93828E-003	5.47799E-004	...........
	7	2.06667	4.03266E-003	3.90374E-003	5.45799E-004	...........
	8	2.325	3.98409E-003	3.88303E-003	5.50399E-004	...........
	9	2.58333	3.94459E-003	3.86469E-003	5.43399E-004	...........
	10	2.84167	3.91297E-003	3.85125E-003	5.43599E-004	...........
	11	3.1	3.88818E-003	3.84054E-003	5.40733E-004	...........
	12	3.35833	3.86899E-003	3.82968E-003	5.45399E-004	...........
	13	3.61667	3.85397E-003	3.82184E-003	5.44533E-004	...........
	14	3.875	3.84183E-003	3.81328E-003	5.40466E-004	...........
	15	4.13333	3.83168E-003	3.81111E-003	5.37066E-004	...........
	16	4.39167	3.82323E-003	3.80702E-003	5.35533E-004	...........
	17	4.65	3.81664E-003	3.80848E-003	5.48433E-004	...........
	18	4.90833	3.81199E-003	3.80416E-003	5.41699E-004	...........
EOC	QUANT	0.003812	Open Circuit (V)
PSTATMODEL	IQUANT	4	Pstat Model
PSTATSECTION	LABEL	REF600-11020	Pstat Section
PSTATSERIALNO	LABEL	11020	Pstat Serial Number
CTRLMODE	IQUANT	1	Control Mode
IESTAB	IQUANT	0	I/E Stability
CASPEED	IQUANT	1	Control Amp Speed
CONVENTION	IQUANT	1	Current Convention
ICHRANGE	IQUANT	2	Ich Range
ICHRANGEMODE	TOGGLE	F	Ich Auto Range
ICHOFFSETENABLE	TOGGLE	T	Ich Offset Enable
ICHOFFSET	QUANT	0	Ich Offset (V)
ICHFILTER	IQUANT	3	Ich Filter
VCHRANGE	IQUANT	2	Vch Range
VCHRANGEMODE	TOGGLE	F	Vch Auto Range
VCHOFFSETENABLE	TOGGLE	T	Vch Offset Enable
VCHOFFSET	QUANT	0	Vch Offset (V)
VCHFILTER	IQUANT	3	Vch Filter
ACHRANGE	IQUANT	2	Ach Range
ACHOFFSETENABLE	TOGGLE	F	Ach Offset Enable
ACHOFFSET	QUANT	0	Ach Offset (V)
ACHFILTER	IQUANT	3	Ach Filter
IERANGELOWERLIMIT	IQUANT	1	I/E Range Lower Limit
IERANGEMODE	TOGGLE	F	I/E AutoRange
IERANGE	IQUANT	5	I/E Range
POSFEEDENABLE	TOGGLE	F	Positive Feedback IR Comp
POSFEEDRESISTANCE	QUANT	0	Positive Feedback Resistance (ohm)
ACHSELECT	IQUANT	0	Ach Select
CABLEID	IQUANT	14	Cable ID
DCCALDATE	LABEL	8/19/2019	DC Calibration Date
ACCALDATE	LABEL	8/19/2019	AC Calibration Date
THERMOSELECT	IQUANT	1	Thermo Select
FRAMEWORKVERSION	QUANT	6.33	Framework Version
INSTRUMENTVERSION	LABEL	3.50	Instrument Version
ZCURVE	TABLE
	Pt	Time	Freq	Zreal	Zimag	Zsig	Zmod	Zphz	Idc	Vdc	IERange
	#	s	Hz	ohm	ohm	V	ohm	°	A	V	#
	0	2	1000078	2368.742	-1620.723	1	2870.136	-34.38042	3.84819E-006	0.0056713	8
	1	3	794390.6	2674.5	-1548.508	1	3090.442	-30.07039	-4.332585E-006	0.0062117	8
	2	4	630984.4	2961.808	-1450.15	1	3297.763	-26.08713	4.295611E-007	0.0054954	8
	3	6	501234.4	3193.674	-1317.782	1	3454.866	-22.42215	-4.96079E-006	0.0062791	8
	4	7	398109.4	3404.844	-1192.619	1	3607.673	-19.30389	2.984942E-006	0.0048462	8
	5	9	316265.6	3561.443	-1057.556	1	3715.145	-16.53857	-2.30855E-006	0.0057156	8
	6	10	251203.1	3702.752	-926.8344	1	3816.987	-14.05294	2.457725E-006	0.0048444	8
	7	11	199546.9	3808.961	-810.7844	1	3894.298	-12.01676	-1.162981E-006	0.0057242	8
	8	13	158578.1	3882.441	-715.9628	1	3947.905	-10.44855	4.100722E-007	0.005359	8
	9	14	125953.1	3963.523	-595.8988	1	4008.069	-8.550138	1.061306E-006	0.0028596	7
	10	15	100078.1	4023.223	-520.0057	1	4056.689	-7.364709	1.053214E-007	0.0051982	7
	11	17	79453.13	4068.423	-478.5089	1	4096.466	-6.708043	4.857769E-008	0.005134	7
	12	18	63140.62	4110.192	-447.2086	1	4134.45	-6.209628	4.41771E-008	0.0051345	7
	13	19	50203.12	4149.365	-426.6862	1	4171.246	-5.871185	-8.408256E-008	0.0053886	7
	14	21	39890.62	4186.366	-416.6038	1	4207.044	-5.683046	1.281971E-008	0.0052063	7
	15	22	31640.63	4224.119	-414.2338	1	4244.381	-5.600744	1.104236E-007	0.0051788	7
	16	24	25171.88	4260.345	-422.4532	1	4281.239	-5.662903	-1.203996E-008	0.0052653	7
	17	25	20015.62	4301.668	-441.7272	1	4324.289	-5.863006	7.683064E-009	0.0052636	7
	18	26	15890.62	4332.748	-469.381	1	4358.099	-6.18293	8.238387E-008	0.0051149	7
	19	28	12609.37	4369.633	-508.9377	1	4399.171	-6.643392	4.724315E-008	0.0052234	7
	20	29	10078.13	4406.339	-560.7675	1	4441.879	-7.252691	-5.845875E-008	0.0053561	7
	21	30	8015.625	4443.202	-631.3068	1	4487.827	-8.086671	1.094829E-007	0.0051832	7
	22	32	6328.125	4485.639	-727.8289	1	4544.303	-9.216352	1.090422E-007	0.0051835	7
	23	33	5015.625	4528.404	-846.1526	1	4606.78	-10.58392	1.496532E-008	0.0052049	7
	24	35	3984.375	4583.728	-991.969	1	4689.836	-12.21112	-4.761195E-008	0.0053918	7
	25	36	3170.956	4629.746	-1178.939	1	4777.493	-14.28642	-1.339637E-008	0.0053132	7
	26	37	2527.573	4687.86	-1404.604	1	4893.766	-16.67958	1.424647E-008	0.005203	7
	27	39	1976.103	4765.669	-1707.706	1	5062.397	-19.71438	6.021367E-008	0.0051845	7
	28	40	1577.524	4853.438	-2055.053	1	5270.588	-22.94888	-8.134001E-008	0.0055297	7
	29	41	1265.625	4940.652	-2463.008	1	5520.548	-26.49712	5.057642E-008	0.0051335	7
	30	43	998.264	5060.597	-3009.296	1	5887.742	-30.73794	6.176802E-008	0.0051819	7
	31	44	796.875	5197.183	-3645.792	1	6348.426	-35.04943	-5.652413E-008	0.0053559	7
	32	45	627.7902	5370.754	-4481.084	1	6994.649	-39.8399	1.112361E-007	0.0051804	7
	33	47	505.5147	5565.367	-5393.158	1	7749.804	-44.09969	5.912959E-008	0.0051794	7
	34	48	397.9953	5834.775	-6652.744	1	8848.933	-48.74768	5.452153E-009	0.0053034	7
	35	50	315.5048	6169.197	-8151.447	1	10222.77	-52.88075	3.13391E-010	0.0052369	6
	36	51	252.4038	6576.333	-9914.78	1	11897.52	-56.44425	1.005486E-009	0.0052398	6
	37	52	198.6229	7141.697	-12229.87	1	14162.4	-59.71699	9.756422E-010	0.0052407	6
	38	54	158.3615	7843.138	-14904.66	1	16842.32	-62.24573	1.325291E-009	0.0052378	6
	39	55	125.558	8782.526	-18232.96	1	20237.93	-64.28063	1.068304E-009	0.0052347	6
	40	56	100.4464	9959.29	-22085.44	1	24227.13	-65.72731	9.616077E-010	0.0052357	6
	41	58	79.00281	11647.65	-27109.21	1	29505.54	-66.7489	-1.789213E-011	0.0052328	6
	42	59	63.3446	13690.4	-32375.96	1	35151.52	-67.07859	5.023313E-010	0.0052352	6
	43	61	49.86702	16881.59	-39744.08	1	43180.79	-66.98628	2.137811E-010	0.0052295	6
	44	62	39.72458	20535.86	-47482.8	1	51733.33	-66.61198	8.497945E-010	0.0052408	6
	45	63	31.6723	25413.67	-56542.33	1	61991.04	-65.79786	5.615334E-010	0.005238	6
	46	65	24.93351	31847.89	-67226	1	74388.33	-64.65105	-3.090751E-010	0.0052325	6
	47	66	19.86229	39582.85	-78611.63	1	88014.71	-63.27364	9.112683E-010	0.0052402	6
	48	68	15.83615	49620.23	-91270.96	1	103887.2	-61.46891	1.726727E-009	0.0052354	5
	49	69	12.40079	61252.91	-105911.2	1	122348.3	-59.95741	1.552864E-009	0.0052384	5
	50	70	9.93114	73972.06	-120680	1	141546.9	-58.49336	-3.165058E-010	0.0052467	5
	51	72	7.944915	88590.19	-136499.7	1	162727.9	-57.01587	9.464887E-010	0.0052404	5
	52	74	6.317385	104822.6	-153979.3	1	186272.4	-55.75462	-4.292519E-010	0.005251	5
	53	76	5.008013	123229.2	-173691	1	212964.8	-54.64531	5.844391E-011	0.0052364	5
	54	78	3.945707	143371.8	-196231.1	1	243026.9	-53.84712	5.113003E-010	0.0052456	5
	55	81	3.158693	163801.3	-220891.4	1	274997.9	-53.44134	-2.537075E-010	0.0052257	5
	56	84	2.504006	186409	-250500.2	1	312247.8	-53.34533	5.954846E-010	0.0052431	5
	57	87	1.998082	210712.3	-284142.3	1	353746.4	-53.44036	3.279159E-010	0.0052572	5
	58	90	1.584686	238028.6	-324253.4	1	402241.1	-53.71828	3.964921E-011	0.0051892	5
	59	94	1.266892	266309.6	-371958.6	1	457464.7	-54.39863	2.51754E-010	0.005237	5
	60	98	0.999041	301464.9	-431960	1	526754.7	-55.08881	-3.176897E-010	0.0052214	5
