EXPLAIN
TAG	EISPOT
TITLE	LABEL	Potentiostatic EIS	Test &Identifier
DATE	LABEL	9/24/2019	Date
TIME	LABEL	9:53:22	Time
NOTES	NOTES	1	&Notes...
	
PSTAT	PSTAT	REF600-11020	Potentiostat
VDC	POTEN	0.00000E+000	T	DC &Voltage (V)
FREQINIT	QUANT	1.00000E+006	Initial Fre&q. (Hz)
FREQFINAL	QUANT	1.00000E+000	Final Fre&q. (Hz)
PTSPERDEC	QUANT	1.00000E+001	Points/&decade
VAC	QUANT	2.50000E+001	AC &Voltage (mV rms)
AREA	QUANT	1.00000E-002	&Area (cm^2)
CONDIT	TWOPARAM	T	5.00000E+000	0.00000E+000	Conditionin&g	Time(s)	E(V)
DELAY	TWOPARAM	T	5.00000E+000	0.00000E+000	Init. De&lay	Time(s)	Stab.(mV/s)
SPEED	SELECTOR	1	&Optimize for:
ZGUESS	QUANT	1.00000E+004	E&stimated Z (ohms)
OCVCURVE	TABLE	19
	Pt	T	Vf	Vm	Ach	Over
	#	s	V vs. Ref.	V	V	bits
	0	0.258333	-3.62618E-003	-3.62618E-003	5.66799E-004	...........
	1	0.516667	-3.64149E-003	-4.42756E-003	5.68532E-004	...........
	2	0.775	-3.73531E-003	-5.17751E-003	5.67032E-004	...........
	3	1.03333	-3.99961E-003	-5.87084E-003	5.68599E-004	...........
	4	1.29167	-4.46879E-003	-6.52022E-003	5.66266E-004	...........
	5	1.55	-5.08533E-003	-7.13563E-003	5.68799E-004	...........
	6	1.80833	-5.75865E-003	-7.71767E-003	5.66032E-004	...........
	7	2.06667	-6.42447E-003	-8.26815E-003	5.69166E-004	...........
	8	2.325	-7.05573E-003	-8.79345E-003	5.68199E-004	...........
	9	2.58333	-7.64834E-003	-9.29712E-003	5.69199E-004	...........
	10	2.84167	-8.20685E-003	-9.77878E-003	5.70866E-004	...........
	11	3.1	-8.73681E-003	-1.02348E-002	5.71966E-004	...........
	12	3.35833	-9.24201E-003	-1.06764E-002	5.65332E-004	...........
	13	3.61667	-9.72468E-003	-1.10997E-002	5.65899E-004	...........
	14	3.875	-1.01866E-002	-1.15098E-002	5.66832E-004	...........
	15	4.13333	-1.06298E-002	-1.19015E-002	5.63499E-004	...........
	16	4.39167	-1.10559E-002	-1.22808E-002	5.68032E-004	...........
	17	4.65	-1.14659E-002	-1.26438E-002	5.69032E-004	...........
	18	4.90833	-1.18606E-002	-1.29972E-002	5.64699E-004	...........
EOC	QUANT	-0.0118606	Open Circuit (V)
PSTATMODEL	IQUANT	4	Pstat Model
PSTATSECTION	LABEL	REF600-11020	Pstat Section
PSTATSERIALNO	LABEL	11020	Pstat Serial Number
CTRLMODE	IQUANT	1	Control Mode
IESTAB	IQUANT	0	I/E Stability
CASPEED	IQUANT	1	Control Amp Speed
CONVENTION	IQUANT	1	Current Convention
ICHRANGE	IQUANT	2	Ich Range
ICHRANGEMODE	TOGGLE	F	Ich Auto Range
ICHOFFSETENABLE	TOGGLE	T	Ich Offset Enable
ICHOFFSET	QUANT	0	Ich Offset (V)
ICHFILTER	IQUANT	3	Ich Filter
VCHRANGE	IQUANT	2	Vch Range
VCHRANGEMODE	TOGGLE	F	Vch Auto Range
VCHOFFSETENABLE	TOGGLE	T	Vch Offset Enable
VCHOFFSET	QUANT	0	Vch Offset (V)
VCHFILTER	IQUANT	3	Vch Filter
ACHRANGE	IQUANT	2	Ach Range
ACHOFFSETENABLE	TOGGLE	F	Ach Offset Enable
ACHOFFSET	QUANT	0	Ach Offset (V)
ACHFILTER	IQUANT	3	Ach Filter
IERANGELOWERLIMIT	IQUANT	1	I/E Range Lower Limit
IERANGEMODE	TOGGLE	F	I/E AutoRange
IERANGE	IQUANT	6	I/E Range
POSFEEDENABLE	TOGGLE	F	Positive Feedback IR Comp
POSFEEDRESISTANCE	QUANT	0	Positive Feedback Resistance (ohm)
ACHSELECT	IQUANT	0	Ach Select
CABLEID	IQUANT	14	Cable ID
DCCALDATE	LABEL	8/19/2019	DC Calibration Date
ACCALDATE	LABEL	8/19/2019	AC Calibration Date
THERMOSELECT	IQUANT	1	Thermo Select
FRAMEWORKVERSION	QUANT	6.33	Framework Version
INSTRUMENTVERSION	LABEL	3.50	Instrument Version
ZCURVE	TABLE
	Pt	Time	Freq	Zreal	Zimag	Zsig	Zmod	Zphz	Idc	Vdc	IERange
	#	s	Hz	ohm	ohm	V	ohm	°	A	V	#
	0	2	1000078	2075.187	-2121.274	1	2967.525	-45.62922	-1.629828E-006	-0.0094292	8
	1	3	794390.6	2486.325	-2196.865	1	3317.834	-41.46314	1.430772E-006	-0.0097508	8
	2	5	630984.4	2941.656	-2239.617	1	3697.192	-37.28367	-2.820549E-006	-0.0095007	8
	3	6	501234.4	3365.984	-2182.58	1	4011.671	-32.96029	-1.749582E-006	-0.009473	8
	4	7	398109.4	3783.901	-2083.027	1	4319.364	-28.83265	-1.250959E-006	-0.0098599	8
	5	9	316265.6	4179.598	-1939.282	1	4607.587	-24.89072	3.352755E-006	-0.0107466	8
	6	10	251203.1	4497.72	-1773.074	1	4834.591	-21.51517	4.171114E-007	-0.0101996	8
	7	11	199546.9	4766.998	-1573.38	1	5019.94	-18.26582	1.887705E-007	-0.0101467	8
	8	13	158578.1	4998.07	-1366.419	1	5181.486	-15.29042	-7.804554E-007	-0.0100448	8
	9	14	125953.1	5165.843	-1144.898	1	5291.193	-12.49639	1.464508E-007	-0.0103511	7
	10	16	100078.1	5282.882	-999.485	1	5376.599	-10.71334	-4.538923E-009	-0.0101792	7
	11	17	79453.13	5376.375	-877.1587	1	5447.459	-9.2662	-6.414078E-008	-0.0100196	7
	12	18	63140.62	5454.524	-781.5472	1	5510.231	-8.15408	-6.394232E-008	-0.0100195	7
	13	20	50203.12	5513.926	-704.5835	1	5558.761	-7.281937	-1.441995E-008	-0.0102643	7
	14	21	39890.62	5566.158	-638.8257	1	5602.697	-6.547167	-7.253568E-008	-0.0101341	7
	15	22	31640.63	5615.777	-609.7474	1	5648.782	-6.196761	2.051138E-008	-0.0101535	7
	16	24	25171.88	5660.086	-591.2478	1	5690.883	-5.963441	-5.841502E-008	-0.0101305	7
	17	25	20015.62	5700.415	-590.7457	1	5730.943	-5.916559	-2.964547E-008	-0.0102397	7
	18	26	15890.62	5731.391	-617.1453	1	5764.521	-6.145821	-5.383001E-008	-0.0101593	7
	19	28	12609.37	5781.054	-641.348	1	5816.521	-6.330487	4.332698E-008	-0.0103731	7
	20	29	10078.13	5821.614	-694.7458	1	5862.922	-6.805438	-2.769052E-008	-0.0102391	7
	21	30	8015.625	5866.752	-774.4772	1	5917.651	-7.520203	1.931902E-008	-0.010155	7
	22	32	6328.125	5907.066	-884.1227	1	5972.864	-8.512388	-2.47338E-008	-0.0102219	8
	23	33	5015.625	5962.552	-1022.366	1	6049.567	-9.72958	-4.277383E-008	-0.0102164	7
	24	35	3984.375	6020.718	-1196.869	1	6138.529	-11.24335	-5.401021E-008	-0.0101688	7
	25	36	3170.956	6086.447	-1412.17	1	6248.125	-13.06257	-3.790079E-009	-0.0101911	7
	26	38	2527.573	6163.806	-1677.416	1	6387.976	-15.22377	-7.26398E-008	-0.0101346	7
	27	39	1976.103	6264.5	-2032.352	1	6585.926	-17.97429	6.273132E-008	-0.0103453	7
	28	41	1577.524	6373.251	-2434.868	1	6822.53	-20.9091	-3.400846E-010	-0.010257	7
	29	42	1265.625	6473.832	-2888.142	1	7088.854	-24.04288	1.007368E-007	-0.0103189	7
	30	43	998.264	6657.429	-3524.012	1	7532.597	-27.89385	-2.234434E-009	-0.0102679	7
	31	45	796.875	6836.791	-4236.315	1	8042.89	-31.78381	-6.002759E-008	-0.0101317	7
	32	46	627.7902	7052.512	-5155.638	1	8736.047	-36.16814	-2.797961E-008	-0.0102517	7
	33	47	505.5147	7285.857	-6174.872	1	9550.54	-40.28177	-4.363192E-008	-0.010219	7
	34	49	397.9953	7577.106	-7555.238	1	10700.19	-44.9172	1.307357E-009	-0.0102824	6
	35	50	315.5048	7904.603	-9207.514	1	12135.12	-49.35408	1.708591E-009	-0.0102771	6
	36	51	252.4038	8271.104	-11158.81	1	13889.93	-53.45352	9.512279E-010	-0.0102808	6
	37	53	198.6229	8740.767	-13754.59	1	16296.93	-57.56487	1.085225E-009	-0.0102772	6
	38	54	158.3615	9283.945	-16791.83	1	19187.42	-61.06247	9.62292E-010	-0.0102772	6
	39	55	125.558	9977.15	-20641.89	1	22926.65	-64.20344	1.55916E-009	-0.0102751	6
	40	57	100.4464	10829.62	-25177.64	1	27407.93	-66.72607	2.322559E-010	-0.0102815	6
	41	58	79.00281	11977.75	-31182.04	1	33403.39	-68.98706	4.673245E-010	-0.0102812	6
	42	60	63.3446	13302.99	-37651.22	1	39932.24	-70.54059	9.73324E-010	-0.0102828	6
	43	61	49.86702	15690.12	-47368	1	49898.97	-71.67313	1.094358E-009	-0.0102916	6
	44	62	39.72458	17934.71	-57852.62	1	60568.8	-72.7762	1.331497E-009	-0.0102842	6
	45	64	31.6723	21550.9	-70599.45	1	73815.47	-73.02488	1.499467E-009	-0.0102865	6
	46	65	24.93351	26236.33	-87033.58	1	90902.09	-73.22453	1.266092E-009	-0.0102855	6
	47	67	19.86229	32302.7	-105732.2	1	110556.6	-73.01134	1.364525E-009	-0.0102786	5
	48	68	15.83615	39243.64	-129049	1	134884.1	-73.08555	-9.222813E-010	-0.010279	5
	49	69	12.40079	53909.54	-156427.5	1	165456.4	-70.98454	1.968788E-009	-0.0102803	5
	50	71	9.93114	67061.3	-187726.1	1	199344.7	-70.34177	9.980881E-010	-0.0102832	5
	51	72	7.944915	85802.26	-222795.3	1	238746.2	-68.93745	2.30182E-010	-0.0102763	5
	52	74	6.317385	110626	-264239.9	1	286462.6	-67.28302	4.067617E-010	-0.01029	5
	53	76	5.008013	142601.8	-311204.1	1	342320.4	-65.38152	2.200196E-010	-0.0102877	5
	54	79	3.945707	183218.6	-363620.3	1	407171.7	-63.25769	5.811188E-010	-0.0102752	5
	55	81	3.158693	229085.8	-416654.3	1	475479.9	-61.19703	2.641901E-010	-0.0102907	5
	56	85	2.504006	284595.3	-475301.3	1	553990.8	-59.08817	7.648714E-010	-0.0102757	5
	57	87	1.998082	346393.6	-535215.1	1	637529.4	-57.08887	6.290458E-010	-0.0102545	5
	58	90	1.584686	415616	-597936.5	1	728192.8	-55.19746	4.923965E-010	-0.0103192	5
	59	94	1.266892	489034	-666608.8	1	826753.6	-53.73568	5.44553E-010	-0.0102597	5
	60	98	0.999041	576658.1	-742257.6	1	939936.7	-52.15645	4.956167E-010	-0.0103237	5
