EXPLAIN
TAG	EISPOT
TITLE	LABEL	Potentiostatic EIS	Test &Identifier
DATE	LABEL	11/22/2019	Date
TIME	LABEL	1:52:13	Time
NOTES	NOTES	4	&Notes...
	
	
	
	
PSTAT	PSTAT	REF600-11020	Potentiostat
VDC	POTEN	0.00000E+000	T	DC &Voltage (V)
FREQINIT	QUANT	1.00000E+006	Initial Fre&q. (Hz)
FREQFINAL	QUANT	1.00000E+000	Final Fre&q. (Hz)
PTSPERDEC	QUANT	1.00000E+001	Points/&decade
VAC	QUANT	2.50000E+001	AC &Voltage (mV rms)
AREA	QUANT	1.00000E-002	&Area (cm^2)
CONDIT	TWOPARAM	T	5.00000E+000	0.00000E+000	Conditionin&g	Time(s)	E(V)
DELAY	TWOPARAM	T	5.00000E+000	0.00000E+000	Init. De&lay	Time(s)	Stab.(mV/s)
SPEED	SELECTOR	1	&Optimize for:
ZGUESS	QUANT	1.00000E+005	E&stimated Z (ohms)
OCVCURVE	TABLE	19
	Pt	T	Vf	Vm	Ach	Over
	#	s	V vs. Ref.	V	V	bits
	0	0.258333	3.53925E-003	3.53925E-003	5.68566E-004	...........
	1	0.516667	3.53783E-003	3.46488E-003	5.62799E-004	...........
	2	0.775	3.52872E-003	3.37380E-003	5.71966E-004	...........
	3	1.03333	3.50190E-003	3.30125E-003	5.66432E-004	...........
	4	1.29167	3.45279E-003	3.23995E-003	5.67966E-004	...........
	5	1.55	3.38746E-003	3.17080E-003	5.64866E-004	...........
	6	1.80833	3.31636E-003	3.11116E-003	5.59566E-004	...........
	7	2.06667	3.24701E-003	3.08086E-003	5.58632E-004	...........
	8	2.325	3.18471E-003	3.08308E-003	5.62199E-004	...........
	9	2.58333	3.13472E-003	3.04842E-003	5.64332E-004	...........
	10	2.84167	3.09899E-003	3.03596E-003	5.63466E-004	...........
	11	3.1	3.07383E-003	3.01646E-003	5.67666E-004	...........
	12	3.35833	3.05405E-003	3.01077E-003	5.67599E-004	...........
	13	3.61667	3.03735E-003	3.00905E-003	5.61799E-004	...........
	14	3.875	3.02551E-003	3.07928E-003	5.59032E-004	...........
	15	4.13333	3.02163E-003	2.96971E-003	5.60166E-004	...........
	16	4.39167	3.02174E-003	2.97451E-003	5.65199E-004	...........
	17	4.65	3.01558E-003	2.96257E-003	5.66432E-004	...........
	18	4.90833	3.00032E-003	2.96099E-003	5.64132E-004	...........
EOC	QUANT	0.0030003	Open Circuit (V)
PSTATMODEL	IQUANT	4	Pstat Model
PSTATSECTION	LABEL	REF600-11020	Pstat Section
PSTATSERIALNO	LABEL	11020	Pstat Serial Number
CTRLMODE	IQUANT	1	Control Mode
IESTAB	IQUANT	0	I/E Stability
CASPEED	IQUANT	1	Control Amp Speed
CONVENTION	IQUANT	1	Current Convention
ICHRANGE	IQUANT	2	Ich Range
ICHRANGEMODE	TOGGLE	F	Ich Auto Range
ICHOFFSETENABLE	TOGGLE	T	Ich Offset Enable
ICHOFFSET	QUANT	0	Ich Offset (V)
ICHFILTER	IQUANT	3	Ich Filter
VCHRANGE	IQUANT	2	Vch Range
VCHRANGEMODE	TOGGLE	F	Vch Auto Range
VCHOFFSETENABLE	TOGGLE	T	Vch Offset Enable
VCHOFFSET	QUANT	0	Vch Offset (V)
VCHFILTER	IQUANT	3	Vch Filter
ACHRANGE	IQUANT	2	Ach Range
ACHOFFSETENABLE	TOGGLE	F	Ach Offset Enable
ACHOFFSET	QUANT	0	Ach Offset (V)
ACHFILTER	IQUANT	3	Ach Filter
IERANGELOWERLIMIT	IQUANT	1	I/E Range Lower Limit
IERANGEMODE	TOGGLE	F	I/E AutoRange
IERANGE	IQUANT	4	I/E Range
POSFEEDENABLE	TOGGLE	F	Positive Feedback IR Comp
POSFEEDRESISTANCE	QUANT	0	Positive Feedback Resistance (ohm)
ACHSELECT	IQUANT	0	Ach Select
CABLEID	IQUANT	14	Cable ID
DCCALDATE	LABEL	8/19/2019	DC Calibration Date
ACCALDATE	LABEL	8/19/2019	AC Calibration Date
THERMOSELECT	IQUANT	1	Thermo Select
FRAMEWORKVERSION	QUANT	6.33	Framework Version
INSTRUMENTVERSION	LABEL	3.50	Instrument Version
ZCURVE	TABLE
	Pt	Time	Freq	Zreal	Zimag	Zsig	Zmod	Zphz	Idc	Vdc	IERange
	#	s	Hz	ohm	ohm	V	ohm	°	A	V	#
	0	1	1000078	1301.738	-3053.939	1	3319.799	-66.91393	6.510348E-008	0.0046017	8
	1	3	794390.6	1486.642	-3672.898	1	3962.359	-67.96387	9.420311E-006	0.0037773	8
	2	4	630984.4	1712.612	-4412.857	1	4733.535	-68.78897	-2.069822E-006	0.0042946	8
	3	5	501234.4	1995.434	-5317.78	1	5679.836	-69.43198	-8.001741E-007	0.0051209	8
	4	7	398109.4	2329.024	-6434.3	1	6842.848	-70.10126	6.643958E-006	0.0033649	8
	5	8	316265.6	2853.127	-7738.918	1	8248.103	-69.76245	6.207886E-006	0.0038151	8
	6	10	251203.1	3380.446	-9357.961	1	9949.82	-70.13838	-4.556697E-007	0.0050116	8
	7	12	199546.9	4113.958	-11278.63	1	12005.5	-69.96021	-4.511099E-007	0.0049969	8
	8	14	158578.1	5050.62	-13625.96	1	14531.88	-69.66219	6.667688E-007	0.004929	8
	9	16	125953.1	6665.636	-15973.94	1	17308.88	-67.3501	1.80724E-006	0.0062803	7
	10	17	100078.1	8049.571	-19116.66	1	20742.29	-67.1652	8.061262E-007	0.0048162	7
	11	19	79453.13	10209.08	-22734.18	1	24921.24	-65.81691	8.080212E-007	0.0048044	7
	12	20	63140.62	13004.71	-26792.99	1	29782.32	-64.10912	-1.604088E-006	0.0063749	7
	13	22	50203.12	15981.7	-31975.02	1	35746.55	-63.44328	1.315769E-006	0.0022027	7
	14	23	39890.62	20070.41	-36747.05	1	41870.84	-61.35763	1.479376E-006	0.0029552	7
	15	25	31640.63	24994.16	-42642.54	1	49427.66	-59.62407	1.316798E-006	0.0021928	7
	16	26	25171.88	30849.39	-48308.34	1	57318.25	-57.43796	1.463971E-006	0.0025012	7
	17	28	20015.62	38295.89	-52796.08	1	65222.7	-54.04457	-3.887637E-007	0.0062924	7
	18	30	15890.62	45864.7	-57944.18	1	73899.25	-51.63725	-3.888394E-007	0.0062873	7
	19	31	12609.37	55669.12	-66159.66	1	86464.73	-49.92154	1.667003E-007	0.0005456	6
	20	33	10078.13	65495.79	-72957.4	1	98043.3	-48.08484	1.607041E-007	0.004708	6
	21	35	8015.625	77247.54	-80244.61	1	111383.9	-46.09021	2.161403E-007	0.000623	6
	22	36	6328.125	91125.77	-86198.93	1	125435.9	-43.40849	9.786099E-008	0.0008655	6
	23	38	5015.625	105268.9	-89198.55	1	137978	-40.27595	-2.765712E-007	0.0084202	6
	24	40	3984.375	122757.1	-95666.1	1	155632	-37.92972	-1.401481E-007	0.0036324	6
	25	41	3170.956	138090.1	-95213.7	1	167733.5	-34.58643	-2.623977E-007	0.0063764	6
	26	43	2527.573	157924.9	-99510.5	1	186661.8	-32.21556	2.166336E-007	0.0034863	6
	27	44	1976.103	174747.3	-98163	1	200431	-29.32479	1.647349E-007	0.000571	6
	28	46	1577.524	188774.5	-104277.1	1	215660.6	-28.91581	6.646767E-009	0.006981	6
	29	47	1265.625	204525.7	-88980.56	1	223043.3	-23.51184	-9.879337E-009	0.002947	5
	30	49	998.264	217750.3	-86803.89	1	234414.4	-21.73418	2.352188E-008	0.0008361	5
	31	50	796.875	229510.8	-84913.34	1	244715.1	-20.30323	1.952603E-008	0.0041455	5
	32	52	627.7902	239928	-83743.61	1	254122.8	-19.24085	-2.08472E-008	0.0087612	5
	33	53	505.5147	249680.6	-84175.92	1	263488.1	-18.63073	-2.651189E-008	0.0086418	5
	34	54	397.9953	261464.6	-84572.75	1	274802.3	-17.9242	5.375193E-010	0.0044501	5
	35	56	315.5048	272036.8	-86274.09	1	285389.6	-17.59597	-5.112055E-010	0.0044507	5
	36	57	252.4038	282614.3	-88113.46	1	296031.8	-17.31643	-1.40047E-010	0.0044453	5
	37	59	198.6229	293121.8	-92168.09	1	307270.8	-17.45503	3.278217E-010	0.0044541	5
	38	60	158.3615	303219.3	-95760.6	1	317981.2	-17.52679	-1.163378E-010	0.0044386	5
	39	61	125.558	315911.3	-102662.2	1	332173.9	-18.0027	1.589293E-010	0.0044426	5
	40	63	100.4464	327295.4	-108835.2	1	344916.5	-18.39347	8.47971E-011	0.0044474	5
	41	64	79.00281	340157.1	-115782.5	1	359322.2	-18.79752	4.449426E-010	0.0044503	5
	42	66	63.3446	342712.1	-109001.7	1	359628.9	-17.64358	-8.10478E-011	0.0044411	5
	43	68	49.86702	367630.6	-140916.1	1	393712.6	-20.97227	1.195726E-010	0.0044421	5
	44	69	39.72458	381500.8	-158788.2	1	413227	-22.59804	-2.387024E-010	0.00446	5
	45	71	31.6723	406932.8	-182261.3	1	445885.1	-24.12714	-3.927984E-010	0.0044469	5
	46	72	24.93351	428246.8	-197632	1	471649.9	-24.77289	-2.576481E-010	0.0044532	5
	47	74	19.86229	452198.1	-221137.2	1	503373.4	-26.05989	4.289012E-010	0.0044382	5
	48	75	15.83615	479326.3	-236024.9	1	534285.9	-26.21608	3.09717E-010	0.0044478	5
	49	76	12.40079	529621.3	-268908.3	1	593978.5	-26.91859	-8.020171E-010	0.0044484	5
	50	78	9.93114	557065.1	-303512.7	1	634382.8	-28.58342	6.909879E-010	0.0044373	6
	51	80	7.944915	599159.6	-337242.6	1	687549.8	-29.3734	1.362206E-009	0.0044369	6
	52	82	6.317385	641111.4	-357227	1	733917.6	-29.12654	8.17881E-010	0.0044377	6
	53	84	5.008013	691672.3	-391295.4	1	794683.9	-29.49787	3.976938E-010	0.00446	6
	54	87	3.945707	746316.7	-424051.4	1	858375.3	-29.60491	7.985431E-010	0.0044317	6
	55	90	3.158693	796524.7	-461970.4	1	920797.6	-30.11298	3.832571E-010	0.0044283	6
	56	94	2.504006	856859.1	-504233.9	1	994213	-30.47544	3.313501E-010	0.004441	4
	57	96	1.998082	911575.9	-550554.3	1	1064932	-31.13024	-9.312176E-011	0.0044908	4
	58	100	1.584686	973965	-606170.1	1	1147192	-31.89704	1.887707E-010	0.0044766	4
	59	103	1.266892	1032804	-669318.5	1	1230720	-32.94564	-8.474337E-011	0.0044892	4
	60	107	0.999041	1100333	-753208.6	1	1333438	-34.39272	1.550734E-010	0.0044203	4
