EXPLAIN
TAG	EISPOT
TITLE	LABEL	Potentiostatic IDE	Test &Identifier
DATE	LABEL	9/6/2019	Date
TIME	LABEL	7:40:46	Time
NOTES	NOTES	1	&Notes...
	
PSTAT	PSTAT	REF600-11020	Potentiostat
VDC	POTEN	0.00000E+000	T	DC &Voltage (V)
FREQINIT	QUANT	1.00000E+006	Initial Fre&q. (Hz)
FREQFINAL	QUANT	1.00000E+000	Final Fre&q. (Hz)
PTSPERDEC	QUANT	1.00000E+001	Points/&decade
VAC	QUANT	2.50000E+001	AC &Voltage (mV rms)
AREA	QUANT	1.00000E-002	&Area (cm^2)
CONDIT	TWOPARAM	T	5.00000E+000	0.00000E+000	Conditionin&g	Time(s)	E(V)
DELAY	TWOPARAM	T	5.00000E+000	0.00000E+000	Init. De&lay	Time(s)	Stab.(mV/s)
SPEED	SELECTOR	1	&Optimize for:
ZGUESS	QUANT	1.00000E+007	E&stimated Z (ohms)
OCVCURVE	TABLE	19
	Pt	T	Vf	Vm	Ach	Over
	#	s	V vs. Ref.	V	V	bits
	0	0.258333	7.97552E-003	7.97552E-003	6.28465E-004	...........
	1	0.516667	7.97484E-003	7.93977E-003	6.33665E-004	...........
	2	0.775	7.97120E-003	7.93472E-003	6.29298E-004	...........
	3	1.03333	7.96305E-003	7.94694E-003	6.28865E-004	...........
	4	1.29167	7.95359E-003	7.96688E-003	6.30131E-004	...........
	5	1.55	7.94944E-003	7.99677E-003	6.29931E-004	...........
	6	1.80833	7.95526E-003	8.02575E-003	6.30431E-004	...........
	7	2.06667	7.97153E-003	8.06290E-003	6.26531E-004	...........
	8	2.325	7.99925E-003	8.26330E-003	6.31365E-004	...........
	9	2.58333	8.04556E-003	8.28436E-003	6.31865E-004	...........
	10	2.84167	8.11318E-003	8.27280E-003	6.35865E-004	...........
	11	3.1	8.18623E-003	8.30232E-003	6.28765E-004	...........
	12	3.35833	8.24370E-003	8.33285E-003	6.35498E-004	...........
	13	3.61667	8.28130E-003	8.36374E-003	6.34231E-004	...........
	14	3.875	8.30877E-003	8.40698E-003	6.31631E-004	...........
	15	4.13333	8.33606E-003	8.44731E-003	6.31565E-004	...........
	16	4.39167	8.36790E-003	8.49329E-003	6.33631E-004	...........
	17	4.65	8.40485E-003	8.53151E-003	6.30231E-004	...........
	18	4.90833	8.44523E-003	8.57288E-003	6.29931E-004	...........
EOC	QUANT	0.0084452	Open Circuit (V)
PSTATMODEL	IQUANT	4	Pstat Model
PSTATSECTION	LABEL	REF600-11020	Pstat Section
PSTATSERIALNO	LABEL	11020	Pstat Serial Number
CTRLMODE	IQUANT	1	Control Mode
IESTAB	IQUANT	0	I/E Stability
CASPEED	IQUANT	1	Control Amp Speed
CONVENTION	IQUANT	1	Current Convention
ICHRANGE	IQUANT	2	Ich Range
ICHRANGEMODE	TOGGLE	F	Ich Auto Range
ICHOFFSETENABLE	TOGGLE	T	Ich Offset Enable
ICHOFFSET	QUANT	0	Ich Offset (V)
ICHFILTER	IQUANT	3	Ich Filter
VCHRANGE	IQUANT	2	Vch Range
VCHRANGEMODE	TOGGLE	F	Vch Auto Range
VCHOFFSETENABLE	TOGGLE	T	Vch Offset Enable
VCHOFFSET	QUANT	0	Vch Offset (V)
VCHFILTER	IQUANT	3	Vch Filter
ACHRANGE	IQUANT	2	Ach Range
ACHOFFSETENABLE	TOGGLE	F	Ach Offset Enable
ACHOFFSET	QUANT	0	Ach Offset (V)
ACHFILTER	IQUANT	3	Ach Filter
IERANGELOWERLIMIT	IQUANT	1	I/E Range Lower Limit
IERANGEMODE	TOGGLE	F	I/E AutoRange
IERANGE	IQUANT	3	I/E Range
POSFEEDENABLE	TOGGLE	F	Positive Feedback IR Comp
POSFEEDRESISTANCE	QUANT	0	Positive Feedback Resistance (ohm)
ACHSELECT	IQUANT	0	Ach Select
CABLEID	IQUANT	14	Cable ID
DCCALDATE	LABEL	8/19/2019	DC Calibration Date
ACCALDATE	LABEL	8/19/2019	AC Calibration Date
THERMOSELECT	IQUANT	1	Thermo Select
FRAMEWORKVERSION	QUANT	6.33	Framework Version
INSTRUMENTVERSION	LABEL	3.50	Instrument Version
ZCURVE	TABLE
	Pt	Time	Freq	Zreal	Zimag	Zsig	Zmod	Zphz	Idc	Vdc	IERange
	#	s	Hz	ohm	ohm	V	ohm	°	A	V	#
	0	2	1000078	2580.311	-1503.696	1	2986.488	-30.23182	-2.033639E-006	0.0112704	8
	1	3	794390.6	2845.661	-1369.318	1	3157.977	-25.69663	2.191839E-006	0.0102815	8
	2	5	630984.4	3076.658	-1210.788	1	3306.332	-21.48163	-1.296622E-006	0.0105923	8
	3	6	501234.4	3243.614	-1062.764	1	3413.283	-18.14129	-1.023851E-006	0.0104125	8
	4	7	398109.4	3368.838	-912.405	1	3490.208	-15.15425	6.723734E-007	0.0100608	8
	5	9	316265.6	3484.655	-787.1255	1	3572.448	-12.72855	1.211708E-006	0.0099547	8
	6	10	251203.1	3535.886	-681.4489	1	3600.953	-10.90851	-6.056353E-007	0.0104086	8
	7	12	199546.9	3603.773	-579.697	1	3650.1	-9.138224	-2.137587E-006	0.0106046	8
	8	13	158578.1	3636.864	-522.2459	1	3674.169	-8.17169	-2.132268E-006	0.0106019	8
	9	14	125953.1	3695.5	-435.9403	1	3721.124	-6.727815	4.778987E-007	0.0092281	7
	10	16	100078.1	3721.892	-406.6324	1	3744.039	-6.235076	3.240674E-008	0.0100241	7
	11	17	79453.13	3752.573	-388.07	1	3772.585	-5.90422	3.088309E-008	0.0100213	7
	12	18	63140.62	3785.16	-380.2077	1	3804.207	-5.735947	5.093114E-008	0.0100064	7
	13	20	50203.12	3817.46	-381.4366	1	3836.469	-5.705994	1.287287E-008	0.010056	7
	14	21	39890.62	3849.657	-392.6726	1	3869.632	-5.824139	4.987007E-008	0.0100233	7
	15	22	31640.63	3882.942	-408.8118	1	3904.403	-6.010189	-3.140195E-008	0.0101523	7
	16	24	25171.88	3919.012	-438.3079	1	3943.447	-6.381522	-4.388959E-008	0.0101709	7
	17	25	20015.62	3955.482	-480.9466	1	3984.614	-6.932557	1.56701E-008	0.0100429	7
	18	27	15890.62	3994.324	-537.2452	1	4030.292	-7.660432	-3.367724E-008	0.0101705	7
	19	28	12609.37	4036.805	-604.722	1	4081.848	-8.519679	1.395111E-008	0.0100961	7
	20	29	10078.13	4083.663	-688.4594	1	4141.29	-9.56944	-1.208213E-008	0.0101021	7
	21	31	8015.625	4135.018	-790.6327	1	4209.925	-10.82454	-1.484812E-008	0.0101976	7
	22	32	6328.125	4194.375	-924.5551	1	4295.065	-12.43077	2.398578E-010	0.0101241	7
	23	33	5015.625	4259.688	-1083.059	1	4395.22	-14.26561	-1.349481E-008	0.0101026	7
	24	35	3984.375	4334.546	-1275.713	1	4518.377	-16.39984	1.542161E-008	0.0100934	7
	25	36	3170.956	4419.538	-1509.359	1	4670.169	-18.85605	-8.181583E-009	0.0101212	7
	26	38	2527.573	4516.071	-1789.081	1	4857.542	-21.61142	3.182071E-008	0.0100012	7
	27	39	1976.103	4641.232	-2160.96	1	5119.646	-24.96671	-1.536225E-008	0.010194	7
	28	40	1577.524	4777.987	-2574.546	1	5427.471	-28.31734	-2.080676E-008	0.0101693	7
	29	42	1265.625	4932.303	-3054.8	1	5801.674	-31.77182	3.46461E-008	0.0100037	7
	30	43	998.264	5135.699	-3686.365	1	6321.763	-35.67049	-2.520564E-008	0.0101221	7
	31	44	796.875	5356.335	-4409.689	1	6937.989	-39.46347	8.810822E-008	0.009976	7
	32	46	627.7902	5640.627	-5332.897	1	7762.504	-43.39368	-2.658515E-008	0.0101155	7
	33	47	505.5147	5939	-6345.429	1	8691.155	-46.89494	-3.21313E-008	0.010171	7
	34	49	397.9953	6331.785	-7701.481	1	9970.17	-50.57461	4.699256E-009	0.0101151	7
	35	50	315.5048	6790.097	-9299.522	1	11514.62	-53.86475	7.990953E-010	0.0100531	6
	36	51	252.4038	7310.646	-11158.62	1	13340.18	-56.76892	6.898511E-010	0.0100463	6
	37	53	198.6229	7979.442	-13581.01	1	15751.68	-59.56389	7.293212E-010	0.0100527	6
	38	54	158.3615	8737.255	-16364.89	1	18551.26	-61.90214	8.863873E-010	0.0100549	6
	39	55	125.558	9666.74	-19830.06	1	22060.76	-64.01173	8.087166E-010	0.0100461	6
	40	57	100.4464	10736.12	-23865.31	1	26169.01	-65.77877	5.800743E-010	0.0100488	6
	41	58	79.00281	12146.04	-29146.2	1	31575.74	-67.37714	6.465148E-010	0.010045	6
	42	59	63.3446	13767.89	-35146.8	1	37747.22	-68.60847	6.642266E-010	0.0100448	6
	43	61	49.86702	15694.84	-42867.11	1	45649.94	-69.89091	7.072016E-010	0.0100484	6
	44	62	39.72458	18222.64	-52002.43	1	55102.79	-70.68857	5.827693E-010	0.0100567	6
	45	64	31.6723	21295.92	-63048.66	1	66548.1	-71.33659	5.311721E-010	0.0100507	6
	46	65	24.93351	25507.46	-77127.13	1	81235.61	-71.69994	8.877953E-010	0.0100516	6
	47	66	19.86229	30692.15	-93345.18	1	98261.5	-71.799	1.009873E-009	0.0100583	6
	48	68	15.83615	37005.39	-112722.1	1	118640.9	-71.82557	6.704748E-010	0.0100562	5
	49	69	12.40079	46652.45	-138046.4	1	145716.4	-71.32745	6.076429E-010	0.0100612	5
	50	71	9.93114	57405.43	-165099.6	1	174794.9	-70.82735	6.376828E-010	0.0100581	5
	51	72	7.944915	71541.88	-197286.8	1	209857.8	-70.06789	-1.0593E-011	0.0100586	5
	52	74	6.317385	89847.03	-235499.7	1	252056.7	-69.11732	2.230884E-010	0.0100428	5
	53	76	5.008013	113533.6	-280682.4	1	302774.7	-67.9771	-1.206427E-011	0.0100513	5
	54	78	3.945707	144115.8	-333828	1	363607.6	-66.64982	3.657746E-011	0.0100573	5
	55	81	3.158693	179233.9	-389530.1	1	428787.2	-65.2915	1.254443E-010	0.010043	5
	56	84	2.504006	222979.2	-455187.3	1	506868	-63.9015	4.278018E-011	0.0100624	5
	57	87	1.998082	272947.3	-524761.3	1	591501.9	-62.51943	3.027384E-010	0.0100249	5
	58	90	1.584686	333364.9	-608042.2	1	693431.6	-61.26583	-3.917832E-011	0.0100168	5
	59	94	1.266892	400518.7	-692920.1	1	800345.8	-59.97141	1.556643E-010	0.0100156	5
	60	98	0.999041	480427.2	-798216	1	931643.2	-58.95727	-4.853253E-011	0.010076	5
