EXPLAIN
TAG	EISPOT
TITLE	LABEL	Potentiostatic EIS	Test &Identifier
DATE	LABEL	10/26/2019	Date
TIME	LABEL	10:57:11	Time
NOTES	NOTES	1	&Notes...
	
PSTAT	PSTAT	REF600-11020	Potentiostat
VDC	POTEN	0.00000E+000	T	DC &Voltage (V)
FREQINIT	QUANT	1.00000E+006	Initial Fre&q. (Hz)
FREQFINAL	QUANT	1.00000E+000	Final Fre&q. (Hz)
PTSPERDEC	QUANT	1.00000E+001	Points/&decade
VAC	QUANT	2.50000E+001	AC &Voltage (mV rms)
AREA	QUANT	1.00000E-002	&Area (cm^2)
CONDIT	TWOPARAM	T	5.00000E+000	0.00000E+000	Conditionin&g	Time(s)	E(V)
DELAY	TWOPARAM	T	5.00000E+000	0.00000E+000	Init. De&lay	Time(s)	Stab.(mV/s)
SPEED	SELECTOR	0	&Optimize for:
ZGUESS	QUANT	1.00000E+005	E&stimated Z (ohms)
OCVCURVE	TABLE	19
	Pt	T	Vf	Vm	Ach	Over
	#	s	V vs. Ref.	V	V	bits
	0	0.258333	-6.46283E-004	-6.46283E-004	5.14133E-004	...........
	1	0.516667	-6.55433E-004	-1.12527E-003	5.10433E-004	...........
	2	0.775	-7.11015E-004	-1.54747E-003	5.08033E-004	...........
	3	1.03333	-8.66014E-004	-1.94144E-003	5.07900E-004	...........
	4	1.29167	-1.13816E-003	-2.30249E-003	5.10200E-004	...........
	5	1.55	-1.49122E-003	-2.61711E-003	5.11267E-004	...........
	6	1.80833	-1.86970E-003	-2.90126E-003	5.12800E-004	...........
	7	2.06667	-2.23287E-003	-3.15355E-003	5.11633E-004	...........
	8	2.325	-2.56356E-003	-3.44239E-003	5.13133E-004	...........
	9	2.58333	-2.86425E-003	-3.73549E-003	5.14200E-004	...........
	10	2.84167	-3.14755E-003	-3.97379E-003	5.09200E-004	...........
	11	3.1	-3.42307E-003	-4.22652E-003	5.15933E-004	...........
	12	3.35833	-3.69178E-003	-4.47276E-003	5.13033E-004	...........
	13	3.61667	-3.95183E-003	-4.70528E-003	5.16200E-004	...........
	14	3.875	-4.20304E-003	-4.92682E-003	5.15733E-004	...........
	15	4.13333	-4.44512E-003	-5.11631E-003	5.16766E-004	...........
	16	4.39167	-4.67587E-003	-5.30994E-003	5.15800E-004	...........
	17	4.65	-4.89319E-003	-5.49995E-003	5.08433E-004	...........
	18	4.90833	-5.09773E-003	-5.67535E-003	5.07267E-004	...........
EOC	QUANT	-0.0050977	Open Circuit (V)
PSTATMODEL	IQUANT	4	Pstat Model
PSTATSECTION	LABEL	REF600-11020	Pstat Section
PSTATSERIALNO	LABEL	11020	Pstat Serial Number
CTRLMODE	IQUANT	1	Control Mode
IESTAB	IQUANT	0	I/E Stability
CASPEED	IQUANT	1	Control Amp Speed
CONVENTION	IQUANT	1	Current Convention
ICHRANGE	IQUANT	2	Ich Range
ICHRANGEMODE	TOGGLE	F	Ich Auto Range
ICHOFFSETENABLE	TOGGLE	T	Ich Offset Enable
ICHOFFSET	QUANT	0	Ich Offset (V)
ICHFILTER	IQUANT	3	Ich Filter
VCHRANGE	IQUANT	2	Vch Range
VCHRANGEMODE	TOGGLE	F	Vch Auto Range
VCHOFFSETENABLE	TOGGLE	T	Vch Offset Enable
VCHOFFSET	QUANT	0	Vch Offset (V)
VCHFILTER	IQUANT	3	Vch Filter
ACHRANGE	IQUANT	2	Ach Range
ACHOFFSETENABLE	TOGGLE	F	Ach Offset Enable
ACHOFFSET	QUANT	0	Ach Offset (V)
ACHFILTER	IQUANT	3	Ach Filter
IERANGELOWERLIMIT	IQUANT	1	I/E Range Lower Limit
IERANGEMODE	TOGGLE	F	I/E AutoRange
IERANGE	IQUANT	4	I/E Range
POSFEEDENABLE	TOGGLE	F	Positive Feedback IR Comp
POSFEEDRESISTANCE	QUANT	0	Positive Feedback Resistance (ohm)
ACHSELECT	IQUANT	0	Ach Select
CABLEID	IQUANT	14	Cable ID
DCCALDATE	LABEL	8/19/2019	DC Calibration Date
ACCALDATE	LABEL	8/19/2019	AC Calibration Date
THERMOSELECT	IQUANT	1	Thermo Select
FRAMEWORKVERSION	QUANT	6.33	Framework Version
INSTRUMENTVERSION	LABEL	3.50	Instrument Version
ZCURVE	TABLE
	Pt	Time	Freq	Zreal	Zimag	Zsig	Zmod	Zphz	Idc	Vdc	IERange
	#	s	Hz	ohm	ohm	V	ohm	°	A	V	#
	0	1	1000078	2170.722	-1597.938	1	2695.448	-36.35798	2.61796E-006	-0.0030267	8
	1	1	794390.6	2460.001	-1602.567	1	2935.954	-33.08222	-7.10758E-007	-0.0030057	8
	2	2	630984.4	2737.345	-1581.827	1	3161.524	-30.02229	-5.475839E-007	-0.003114	8
	3	2	501234.4	3010.187	-1543.726	1	3382.945	-27.1503	1.345853E-006	-0.0036548	8
	4	2	398109.4	3268.526	-1493.732	1	3593.675	-24.56063	1.110992E-006	-0.0037071	8
	5	3	316265.6	3500.469	-1435.109	1	3783.229	-22.29246	1.275829E-006	-0.0037212	8
	6	3	251203.1	3737.201	-1337.878	1	3969.457	-19.69683	-2.988549E-006	-0.0027311	8
	7	3	199546.9	3953.539	-1250.782	1	4146.677	-17.55582	-2.379898E-006	-0.0029087	8
	8	4	158578.1	4134.307	-1152.805	1	4292.022	-15.58053	1.174586E-006	-0.0037314	8
	9	4	125953.1	4332.253	-999.153	1	4445.979	-12.98711	1.049971E-007	-0.0039212	7
	10	4	100078.1	4464.982	-899.8077	1	4554.747	-11.39395	6.375321E-008	-0.0036179	7
	11	5	79453.13	4578.264	-807.8205	1	4648.987	-10.00666	4.611253E-011	-0.0033913	7
	12	5	63140.62	4670.07	-725.6412	1	4726.109	-8.832062	6.401262E-008	-0.0036285	7
	13	5	50203.12	4743.864	-653.4679	1	4788.66	-7.843141	5.520048E-008	-0.0035772	7
	14	6	39890.62	4806.326	-596.2761	1	4843.172	-7.07202	7.352642E-008	-0.0035416	7
	15	6	31640.63	4856.602	-551.9316	1	4887.863	-6.483598	-4.638055E-008	-0.0034466	7
	16	6	25171.88	4902.676	-523.9671	1	4930.596	-6.100256	-4.670561E-008	-0.0033425	7
	17	7	20015.62	4950.047	-501.3015	1	4975.366	-5.782746	3.259271E-008	-0.0035316	7
	18	7	15890.62	4979.1	-512.3578	1	5005.392	-5.875154	1.058168E-007	-0.0036439	7
	19	7	12609.37	5016.731	-527.7956	1	5044.418	-6.005828	-4.70697E-008	-0.0033463	7
	20	8	10078.13	5053.39	-559.6506	1	5084.286	-6.319615	-5.708513E-008	-0.0034023	7
	21	8	8015.625	5086.965	-608.8701	1	5123.274	-6.825388	-3.124256E-008	-0.0034344	7
	22	8	6328.125	5125.28	-681.9744	1	5170.453	-7.579306	-9.144234E-009	-0.0034723	7
	23	8	5015.625	5163.142	-776.0914	1	5221.145	-8.548348	5.723668E-008	-0.0035867	7
	24	9	3984.375	5199.5	-903.0984	1	5277.347	-9.85337	-3.136132E-008	-0.0034811	7
	25	9	3170.956	5246.611	-1054.15	1	5351.463	-11.36061	-3.694802E-008	-0.0034556	7
	26	9	2527.573	5290.969	-1248.859	1	5436.359	-13.28078	5.407533E-008	-0.0035901	7
	27	10	1976.103	5350.497	-1515.102	1	5560.877	-15.81055	5.07645E-009	-0.0035495	7
	28	10	1577.524	5420.23	-1828.548	1	5720.357	-18.64214	-3.373198E-008	-0.0034901	7
	29	10	1265.625	5477.238	-2194.098	1	5900.356	-21.83029	-3.167855E-008	-0.0034386	7
	30	11	998.264	5565.765	-2687.625	1	6180.702	-25.77521	-1.022179E-008	-0.0034751	7
	31	11	796.875	5668.288	-3271.738	1	6544.75	-29.99356	6.649621E-008	-0.0036418	7
	32	11	627.7902	5800.926	-4031.834	1	7064.448	-34.80057	-4.098919E-009	-0.0035549	7
	33	12	505.5147	5952.514	-4887.028	1	7701.654	-39.38608	4.996423E-009	-0.0035562	7
	34	12	397.9953	6163.973	-6047.037	1	8634.884	-44.45134	2.131574E-009	-0.0034828	7
	35	12	315.5048	6420.12	-7437.172	1	9824.94	-49.19768	2.159591E-009	-0.0034808	7
	36	13	252.4038	6736.089	-9076.071	1	11302.65	-53.41789	1.111941E-009	-0.0035408	6
	37	13	198.6229	7170.055	-11243.54	1	13335.18	-57.47417	1.05201E-009	-0.0035375	6
	38	13	158.3615	7702.188	-13764.17	1	15772.64	-60.76939	1.214563E-009	-0.003539	6
	39	14	125.558	8419.338	-16916.3	1	18895.68	-63.54022	4.51739E-010	-0.0035405	6
	40	14	100.4464	9288.095	-20617.98	1	22613.48	-65.74914	4.298502E-010	-0.0035403	6
	41	14	79.00281	10529.12	-25420.26	1	27514.58	-67.50056	-3.442382E-010	-0.0035427	6
	42	15	63.3446	12477.56	-30782.2	1	33214.96	-67.93483	8.448727E-010	-0.0035446	6
	43	15	49.86702	14558.84	-37893.8	1	40594.33	-68.98316	1.063496E-009	-0.0035437	6
	44	15	39.72458	17082.3	-45752.93	1	48837.85	-69.5264	9.408209E-010	-0.0035407	6
	45	16	31.6723	20432.38	-55186.09	1	58847.15	-69.68317	1.038828E-009	-0.0035442	6
	46	16	24.93351	25500.72	-67172.88	1	71850.42	-69.21183	1.057401E-009	-0.0035438	6
	47	16	19.86229	31581.79	-80329.84	1	86315.09	-68.53766	1.566115E-009	-0.0035372	6
	48	17	15.83615	38806.04	-94702.91	1	102345.2	-67.71785	2.023245E-009	-0.0035437	6
	49	17	12.40079	49291.6	-114834.2	1	124966.2	-66.76897	-8.397256E-010	-0.0035369	5
	50	17	9.93114	61801.61	-134709.9	1	148210	-65.35551	8.449311E-011	-0.0035346	5
	51	18	7.944915	76719.73	-157243	1	174960.8	-63.992	1.236968E-009	-0.0035449	5
	52	18	6.317385	95149.8	-183202.5	1	206438	-62.554	1.157615E-009	-0.0035523	5
	53	19	5.008013	118226.5	-212106.5	1	242830.5	-60.86504	4.994925E-010	-0.0035413	5
	54	20	3.945707	146837.2	-243576.6	1	284413	-58.91684	2.328696E-010	-0.0035351	5
	55	22	3.158693	176520.9	-276136.9	1	327736.5	-57.41121	-1.478772E-011	-0.003552	5
	56	23	2.504006	211681.8	-311190.9	1	376362.8	-55.77524	2.914848E-010	-0.0035566	5
	57	25	1.998082	248324.3	-348718.6	1	428100	-54.54514	4.276564E-010	-0.0035188	5
	58	26	1.584686	288323.9	-389555.1	1	484648.2	-53.49351	1.868069E-010	-0.0035616	5
	59	28	1.266892	330186.6	-435270.4	1	546336.4	-52.81684	9.848591E-011	-0.0035881	5
	60	31	0.999041	375577.7	-492683.1	1	619512.1	-52.68134	3.917544E-011	-0.003583	5
