EXPLAIN
TAG	EISPOT
TITLE	LABEL	Potentiostatic EIS	Test &Identifier
DATE	LABEL	11/22/2019	Date
TIME	LABEL	11:00:48	Time
NOTES	NOTES	4	&Notes...
	
	
	
	
PSTAT	PSTAT	REF600-11020	Potentiostat
VDC	POTEN	0.00000E+000	T	DC &Voltage (V)
FREQINIT	QUANT	1.00000E+006	Initial Fre&q. (Hz)
FREQFINAL	QUANT	1.00000E+000	Final Fre&q. (Hz)
PTSPERDEC	QUANT	1.00000E+001	Points/&decade
VAC	QUANT	2.50000E+001	AC &Voltage (mV rms)
AREA	QUANT	1.00000E-002	&Area (cm^2)
CONDIT	TWOPARAM	T	5.00000E+000	0.00000E+000	Conditionin&g	Time(s)	E(V)
DELAY	TWOPARAM	T	5.00000E+000	0.00000E+000	Init. De&lay	Time(s)	Stab.(mV/s)
SPEED	SELECTOR	0	&Optimize for:
ZGUESS	QUANT	1.00000E+005	E&stimated Z (ohms)
OCVCURVE	TABLE	19
	Pt	T	Vf	Vm	Ach	Over
	#	s	V vs. Ref.	V	V	bits
	0	0.258333	3.15287E-002	3.15287E-002	5.65632E-004	...........
	1	0.516667	3.15619E-002	3.32677E-002	5.57766E-004	...........
	2	0.775	3.17649E-002	3.48638E-002	5.64766E-004	...........
	3	1.03333	3.23352E-002	3.63615E-002	5.65199E-004	...........
	4	1.29167	3.33452E-002	3.77425E-002	5.59566E-004	...........
	5	1.55	3.46695E-002	3.90467E-002	5.62899E-004	...........
	6	1.80833	3.61117E-002	4.02704E-002	5.65566E-004	...........
	7	2.06667	3.75317E-002	4.14200E-002	5.67599E-004	...........
	8	2.325	3.88702E-002	4.25056E-002	5.67766E-004	...........
	9	2.58333	4.01183E-002	4.35611E-002	5.63699E-004	...........
	10	2.84167	4.12872E-002	4.45438E-002	5.59032E-004	...........
	11	3.1	4.23903E-002	4.54753E-002	5.63532E-004	...........
	12	3.35833	4.34362E-002	4.63717E-002	5.61466E-004	...........
	13	3.61667	4.44289E-002	4.72113E-002	5.62299E-004	...........
	14	3.875	4.53715E-002	4.80245E-002	5.62366E-004	...........
	15	4.13333	4.62682E-002	4.88365E-002	5.59732E-004	...........
	16	4.39167	4.71255E-002	4.95916E-002	5.64199E-004	...........
	17	4.65	4.79502E-002	5.03229E-002	5.58766E-004	...........
	18	4.90833	4.87450E-002	5.10286E-002	5.58632E-004	...........
EOC	QUANT	0.048745	Open Circuit (V)
PSTATMODEL	IQUANT	4	Pstat Model
PSTATSECTION	LABEL	REF600-11020	Pstat Section
PSTATSERIALNO	LABEL	11020	Pstat Serial Number
CTRLMODE	IQUANT	1	Control Mode
IESTAB	IQUANT	0	I/E Stability
CASPEED	IQUANT	1	Control Amp Speed
CONVENTION	IQUANT	1	Current Convention
ICHRANGE	IQUANT	2	Ich Range
ICHRANGEMODE	TOGGLE	F	Ich Auto Range
ICHOFFSETENABLE	TOGGLE	T	Ich Offset Enable
ICHOFFSET	QUANT	0	Ich Offset (V)
ICHFILTER	IQUANT	3	Ich Filter
VCHRANGE	IQUANT	2	Vch Range
VCHRANGEMODE	TOGGLE	F	Vch Auto Range
VCHOFFSETENABLE	TOGGLE	T	Vch Offset Enable
VCHOFFSET	QUANT	0	Vch Offset (V)
VCHFILTER	IQUANT	3	Vch Filter
ACHRANGE	IQUANT	2	Ach Range
ACHOFFSETENABLE	TOGGLE	F	Ach Offset Enable
ACHOFFSET	QUANT	0	Ach Offset (V)
ACHFILTER	IQUANT	3	Ach Filter
IERANGELOWERLIMIT	IQUANT	1	I/E Range Lower Limit
IERANGEMODE	TOGGLE	F	I/E AutoRange
IERANGE	IQUANT	5	I/E Range
POSFEEDENABLE	TOGGLE	F	Positive Feedback IR Comp
POSFEEDRESISTANCE	QUANT	0	Positive Feedback Resistance (ohm)
ACHSELECT	IQUANT	0	Ach Select
CABLEID	IQUANT	14	Cable ID
DCCALDATE	LABEL	8/19/2019	DC Calibration Date
ACCALDATE	LABEL	8/19/2019	AC Calibration Date
THERMOSELECT	IQUANT	1	Thermo Select
FRAMEWORKVERSION	QUANT	6.33	Framework Version
INSTRUMENTVERSION	LABEL	3.50	Instrument Version
ZCURVE	TABLE
	Pt	Time	Freq	Zreal	Zimag	Zsig	Zmod	Zphz	Idc	Vdc	IERange
	#	s	Hz	ohm	ohm	V	ohm	°	A	V	#
	0	2	1000078	2325.468	-2353.041	1	3308.262	-45.33767	-7.437808E-006	0.0514822	8
	1	2	794390.6	2794.342	-2468.912	1	3728.79	-41.46186	7.931799E-006	0.0505279	8
	2	3	630984.4	3291.747	-2509.858	1	4139.443	-37.32443	-9.166657E-007	0.0509169	8
	3	3	501234.4	3776.529	-2492.848	1	4525.093	-33.4284	-6.555729E-006	0.0513442	8
	4	3	398109.4	4232.533	-2369.867	1	4850.836	-29.2452	5.303128E-007	0.0499869	8
	5	3	316265.6	4616.456	-2288.033	1	5152.355	-26.36419	2.104518E-006	0.0497998	8
	6	4	251203.1	5025.606	-2105.419	1	5448.808	-22.73068	-6.148749E-006	0.0511752	8
	7	4	199546.9	5310.035	-1945.211	1	5655.115	-20.11917	-3.557617E-006	0.050859	8
	8	4	158578.1	5560.893	-1686.881	1	5811.119	-16.87502	5.830642E-006	0.0495809	8
	9	5	125953.1	5825.907	-1522.577	1	6021.58	-14.64642	-1.995925E-006	0.0540113	7
	10	5	100078.1	6052.581	-1422.292	1	6217.447	-13.22397	5.44986E-007	0.0483762	7
	11	5	79453.13	6194.21	-1335.491	1	6336.543	-12.1669	5.465393E-007	0.0483732	7
	12	6	63140.62	6342.477	-1281.778	1	6470.701	-11.42526	1.135165E-006	0.0494591	7
	13	6	50203.12	6476.968	-1241.59	1	6594.896	-10.85157	1.222774E-006	0.0485979	7
	14	7	39890.62	6588.855	-1227.192	1	6702.165	-10.5506	4.207112E-007	0.0508657	7
	15	7	31640.63	6731.777	-1233.765	1	6843.902	-10.38561	1.223275E-006	0.0485964	7
	16	8	25171.88	6856.146	-1265.914	1	6972.036	-10.46124	8.733912E-007	0.0482371	7
	17	8	20015.62	6992.134	-1332.676	1	7118.003	-10.79095	5.46333E-007	0.0483596	7
	18	8	15890.62	7098.003	-1402.103	1	7235.16	-11.17406	-1.364027E-006	0.0514375	7
	19	9	12609.37	7253.908	-1507.41	1	7408.877	-11.73936	-1.008109E-006	0.0521178	7
	20	9	10078.13	7401.87	-1649.684	1	7583.478	-12.56439	-1.17496E-006	0.0508051	7
	21	9	8015.625	7584.047	-1812.021	1	7797.512	-13.4375	-8.268782E-007	0.0500548	7
	22	10	6328.125	7784.696	-2023.515	1	8043.389	-14.57073	-1.009832E-006	0.0521128	7
	23	10	5015.625	8026.203	-2273.44	1	8341.97	-15.81489	5.407773E-007	0.0483538	7
	24	10	3984.375	8302.614	-2567.946	1	8690.67	-17.1865	1.223241E-006	0.0485885	7
	25	11	3170.956	8531.354	-2885.468	1	9006.105	-18.68652	-1.169368E-006	0.0508023	7
	26	11	2527.573	8838.343	-3263.149	1	9421.488	-20.26433	-8.254584E-007	0.0500506	7
	27	11	1976.103	9238.8	-3738	1	9966.35	-22.02816	6.763941E-007	0.0504884	7
	28	12	1577.524	9693.01	-4241.833	1	10580.52	-23.63505	1.138879E-006	0.0494469	7
	29	12	1265.625	10065.21	-4793.254	1	11148.26	-25.46473	1.10281E-006	0.0483279	7
	30	12	998.264	10574.54	-5476.275	1	11908.42	-27.37844	1.140571E-006	0.0494406	7
	31	13	796.875	11048.17	-6205.141	1	12671.45	-29.32051	-1.363819E-006	0.0514341	7
	32	13	627.7902	11652.99	-7129.133	1	13660.77	-31.4577	-8.249175E-007	0.0500518	7
	33	13	505.5147	12251.57	-8132.942	1	14705.3	-33.57734	2.517947E-008	0.0520024	6
	34	14	397.9953	12905.21	-9442.199	1	15990.61	-36.19137	-8.61443E-010	0.0501864	6
	35	14	315.5048	13583.2	-10992.01	1	17473.63	-38.98103	-1.701029E-009	0.0501972	6
	36	14	252.4038	14264.51	-12821.07	1	19179.58	-41.9495	-1.993495E-009	0.0501966	6
	37	15	198.6229	15046.74	-15250.43	1	21423.82	-45.3852	-4.948736E-010	0.050184	6
	38	15	158.3615	15867.9	-18106.76	1	24075.82	-48.77022	-5.227331E-010	0.0501877	6
	39	15	125.558	16811.5	-21752.63	1	27491.88	-52.3014	-4.032683E-010	0.0501856	6
	40	16	100.4464	17857.77	-26060.68	1	31592.07	-55.57957	-8.587064E-011	0.0501774	6
	41	16	79.00281	19189.96	-31829.59	1	37166.89	-58.91436	-1.439168E-009	0.0501927	6
	42	16	63.3446	20973.12	-38909.16	1	44201.75	-61.6741	-7.581427E-010	0.0501759	6
	43	17	49.86702	22997.19	-47516.95	1	52789.5	-64.174	-2.021663E-009	0.0501846	6
	44	17	39.72458	25907.3	-57362.53	1	62941.62	-65.69409	-1.302041E-009	0.0502003	6
	45	17	31.6723	29550.53	-69469.05	1	75492.93	-66.95621	-4.151523E-010	0.0501799	6
	46	18	24.93351	34336.57	-85135.66	1	91799.14	-68.03499	-1.521824E-009	0.0501819	6
	47	18	19.86229	40634.57	-103103.5	1	110822	-68.4899	-2.324907E-009	0.0501972	5
	48	18	15.83615	47333.93	-124584	1	133273	-69.19643	-1.844229E-009	0.0501822	5
	49	19	12.40079	58445.93	-152236.3	1	163070	-68.99741	-7.791269E-010	0.0501886	5
	50	19	9.93114	71873.27	-180379.1	1	194171	-68.27485	-1.147253E-009	0.0501991	5
	51	19	7.944915	88199.43	-214319.7	1	231758.7	-67.63126	-7.693871E-010	0.0501847	5
	52	20	6.317385	109451.2	-253648.1	1	276255.2	-66.65942	-1.120617E-009	0.0501883	5
	53	21	5.008013	135949.4	-300004.2	1	329370.3	-65.62194	-1.091096E-009	0.0501694	5
	54	22	3.945707	168489.2	-354768.4	1	392745.8	-64.59567	-9.176512E-010	0.0501975	5
	55	23	3.158693	205494.5	-411573.3	1	460022.4	-63.4675	-1.144118E-009	0.0501995	5
	56	25	2.504006	249970.1	-478954.2	1	540261.2	-62.43958	-1.115384E-009	0.0501873	5
	57	26	1.998082	300155.5	-552148.4	1	628459.4	-61.47088	-9.045554E-010	0.0502311	5
	58	28	1.584686	356831	-638843.5	1	731744.1	-60.81412	-9.154952E-010	0.050211	5
	59	30	1.266892	420650.2	-732978.1	1	845105.6	-60.14884	-9.252435E-010	0.0501737	5
	60	32	0.999041	499366.3	-851773.2	1	987362	-59.61832	-8.937143E-010	0.0501499	5
