EXPLAIN
TAG	EISPOT
TITLE	LABEL	Potentiostatic EIS	Test &Identifier
DATE	LABEL	10/28/2019	Date
TIME	LABEL	8:53:34	Time
NOTES	NOTES	1	&Notes...
	
PSTAT	PSTAT	REF600-11020	Potentiostat
VDC	POTEN	0.00000E+000	T	DC &Voltage (V)
FREQINIT	QUANT	1.00000E+006	Initial Fre&q. (Hz)
FREQFINAL	QUANT	1.00000E+000	Final Fre&q. (Hz)
PTSPERDEC	QUANT	1.00000E+001	Points/&decade
VAC	QUANT	2.50000E+001	AC &Voltage (mV rms)
AREA	QUANT	1.00000E-002	&Area (cm^2)
CONDIT	TWOPARAM	T	5.00000E+000	0.00000E+000	Conditionin&g	Time(s)	E(V)
DELAY	TWOPARAM	T	5.00000E+000	0.00000E+000	Init. De&lay	Time(s)	Stab.(mV/s)
SPEED	SELECTOR	1	&Optimize for:
ZGUESS	QUANT	1.00000E+005	E&stimated Z (ohms)
OCVCURVE	TABLE	19
	Pt	T	Vf	Vm	Ach	Over
	#	s	V vs. Ref.	V	V	bits
	0	0.258333	6.74696E-003	6.74696E-003	5.61899E-004	...........
	1	0.516667	6.75002E-003	6.90727E-003	5.53699E-004	...........
	2	0.775	6.76775E-003	7.00290E-003	5.47699E-004	...........
	3	1.03333	6.81421E-003	7.08812E-003	5.54866E-004	...........
	4	1.29167	6.89123E-003	7.24235E-003	5.56199E-004	...........
	5	1.55	6.99265E-003	7.50013E-003	5.49599E-004	...........
	6	1.80833	7.11931E-003	7.63009E-003	5.54966E-004	...........
	7	2.06667	7.27039E-003	7.67150E-003	5.54666E-004	...........
	8	2.325	7.42689E-003	7.78167E-003	5.53399E-004	...........
	9	2.58333	7.56453E-003	7.85997E-003	5.52832E-004	...........
	10	2.84167	7.67642E-003	7.95200E-003	5.56866E-004	...........
	11	3.1	7.77155E-003	8.05693E-003	5.61799E-004	...........
	12	3.35833	7.86253E-003	8.21572E-003	5.64832E-004	...........
	13	3.61667	7.96079E-003	8.34283E-003	5.56599E-004	...........
	14	3.875	8.07244E-003	8.43912E-003	5.60466E-004	...........
	15	4.13333	8.19322E-003	8.53013E-003	5.57366E-004	...........
	16	4.39167	8.31242E-003	8.63364E-003	5.61532E-004	...........
	17	4.65	8.42487E-003	8.81504E-003	5.63366E-004	...........
	18	4.90833	8.53661E-003	8.92235E-003	5.68599E-004	...........
EOC	QUANT	0.0085366	Open Circuit (V)
PSTATMODEL	IQUANT	4	Pstat Model
PSTATSECTION	LABEL	REF600-11020	Pstat Section
PSTATSERIALNO	LABEL	11020	Pstat Serial Number
CTRLMODE	IQUANT	1	Control Mode
IESTAB	IQUANT	0	I/E Stability
CASPEED	IQUANT	1	Control Amp Speed
CONVENTION	IQUANT	1	Current Convention
ICHRANGE	IQUANT	2	Ich Range
ICHRANGEMODE	TOGGLE	F	Ich Auto Range
ICHOFFSETENABLE	TOGGLE	T	Ich Offset Enable
ICHOFFSET	QUANT	0	Ich Offset (V)
ICHFILTER	IQUANT	3	Ich Filter
VCHRANGE	IQUANT	2	Vch Range
VCHRANGEMODE	TOGGLE	F	Vch Auto Range
VCHOFFSETENABLE	TOGGLE	T	Vch Offset Enable
VCHOFFSET	QUANT	0	Vch Offset (V)
VCHFILTER	IQUANT	3	Vch Filter
ACHRANGE	IQUANT	2	Ach Range
ACHOFFSETENABLE	TOGGLE	F	Ach Offset Enable
ACHOFFSET	QUANT	0	Ach Offset (V)
ACHFILTER	IQUANT	3	Ach Filter
IERANGELOWERLIMIT	IQUANT	1	I/E Range Lower Limit
IERANGEMODE	TOGGLE	F	I/E AutoRange
IERANGE	IQUANT	5	I/E Range
POSFEEDENABLE	TOGGLE	F	Positive Feedback IR Comp
POSFEEDRESISTANCE	QUANT	0	Positive Feedback Resistance (ohm)
ACHSELECT	IQUANT	0	Ach Select
CABLEID	IQUANT	14	Cable ID
DCCALDATE	LABEL	8/19/2019	DC Calibration Date
ACCALDATE	LABEL	8/19/2019	AC Calibration Date
THERMOSELECT	IQUANT	1	Thermo Select
FRAMEWORKVERSION	QUANT	6.33	Framework Version
INSTRUMENTVERSION	LABEL	3.50	Instrument Version
ZCURVE	TABLE
	Pt	Time	Freq	Zreal	Zimag	Zsig	Zmod	Zphz	Idc	Vdc	IERange
	#	s	Hz	ohm	ohm	V	ohm	°	A	V	#
	0	2	1000078	1369.832	-2174.168	1	2569.717	-57.78707	5.518272E-006	0.0097541	8
	1	3	794390.6	1569.223	-2558.311	1	3001.236	-58.47577	-1.025374E-006	0.0104552	8
	2	5	630984.4	1788.828	-3043.395	1	3530.178	-59.5541	4.493264E-006	0.0094909	8
	3	6	501234.4	2065.71	-3604.813	1	4154.737	-60.18548	3.434697E-006	0.0094127	8
	4	8	398109.4	2434.555	-4275.547	1	4920.098	-60.34222	3.908069E-007	0.0101125	8
	5	9	316265.6	2898.481	-5007.049	1	5785.477	-59.9343	-4.668198E-006	0.0109073	8
	6	11	251203.1	3507.717	-5862.715	1	6831.948	-59.10752	1.313477E-006	0.0099665	8
	7	12	199546.9	4206.83	-6918.58	1	8097.17	-58.69838	5.034849E-006	0.0089574	8
	8	14	158578.1	5205.402	-7848.45	1	9417.769	-56.44609	-1.854611E-006	0.0103609	8
	9	16	125953.1	6368.778	-8921.676	1	10961.64	-54.47869	1.357139E-006	0.0070977	7
	10	18	100078.1	7542.215	-10099.87	1	12605.25	-53.24897	1.455602E-007	0.0098046	7
	11	19	79453.13	8947.494	-11410.66	1	14500.37	-51.89878	1.30735E-007	0.0098819	7
	12	21	63140.62	10527.19	-12814.28	1	16583.96	-50.59621	3.632179E-008	0.010084	7
	13	22	50203.12	12395.83	-14291.82	1	18918.59	-49.06368	-9.955272E-008	0.0101323	7
	14	24	39890.62	14610.87	-15953.03	1	21632.77	-47.51442	6.134687E-008	0.0099164	7
	15	25	31640.63	17248.99	-17568.26	1	24620.54	-45.52538	-3.06766E-008	0.0099764	7
	16	27	25171.88	20303.5	-19157.76	1	27915.08	-43.33691	8.90973E-008	0.0098051	7
	17	28	20015.62	23772.39	-20233.96	1	31217.62	-40.40288	-1.425165E-008	0.0099736	7
	18	30	15890.62	27792.5	-21454.19	1	35109.9	-37.66604	9.135229E-009	0.0100263	7
	19	32	12609.37	32364.79	-21455.98	1	38830.9	-33.54207	3.103502E-009	0.0097984	6
	20	33	10078.13	36384.5	-21255.53	1	42138.21	-30.29312	1.903678E-008	0.0095957	6
	21	35	8015.625	40346.47	-20608.75	1	45305.16	-27.05769	2.277819E-008	0.0096147	6
	22	36	6328.125	44013.14	-19573.83	1	48169.41	-23.976	-1.068834E-008	0.0101681	6
	23	38	5015.625	47065	-18238.96	1	50475.48	-21.1827	3.455337E-009	0.0100315	6
	24	39	3984.375	49530.06	-16592.52	1	52235.41	-18.5208	-1.069545E-008	0.0101693	6
	25	41	3170.956	51730.01	-15495.62	1	54001	-16.67548	3.096069E-009	0.0100244	6
	26	42	2527.573	53512.39	-14358.89	1	55405.36	-15.02026	-4.838455E-009	0.0099511	6
	27	44	1976.103	55137.58	-13621.42	1	56795.21	-13.87674	2.911281E-009	0.009793	6
	28	46	1577.524	56309.84	-12236.29	1	57624	-12.25993	6.944217E-009	0.0097446	6
	29	47	1265.625	57695.58	-12639.81	1	59063.91	-12.357	-7.060223E-009	0.0100024	6
	30	49	998.264	58778.92	-12966.39	1	60192.1	-12.43998	-5.311269E-008	0.0101228	7
	31	50	796.875	60331.62	-13312.95	1	61783	-12.44364	8.801387E-008	0.0097907	7
	32	52	627.7902	61110.23	-13869.15	1	62664.29	-12.78685	-6.020856E-009	0.0100062	7
	33	53	505.5147	62128.82	-15245.6	1	63972.01	-13.78721	-6.02654E-008	0.0100426	7
	34	55	397.9953	63630.26	-16723.98	1	65791.35	-14.72602	9.474211E-010	0.0099461	6
	35	56	315.5048	65127.41	-18849.76	1	67800.39	-16.14198	1.487731E-009	0.0099454	6
	36	58	252.4038	66715.48	-21338.25	1	70044.82	-17.73633	1.438483E-009	0.0099442	6
	37	59	198.6229	68833.41	-24714.82	1	73135.91	-19.75081	2.853086E-010	0.0099457	6
	38	60	158.3615	71114.44	-28513.21	1	76617.66	-21.84823	-9.789155E-011	0.009942	6
	39	62	125.558	73891.76	-32996.98	1	80924.61	-24.06355	3.291439E-010	0.0099428	6
	40	63	100.4464	77263.57	-37905.81	1	86061.08	-26.13275	-7.517575E-010	0.009949	6
	41	65	79.00281	81379.52	-45239.87	1	93108.92	-29.07022	1.152522E-009	0.0099453	6
	42	66	63.3446	89558.94	-51962.48	1	103541.8	-30.12249	1.387152E-010	0.0099456	5
	43	67	49.86702	92159.42	-59932.18	1	109932.8	-33.03635	-1.193191E-010	0.009944	5
	44	69	39.72458	98813.4	-69111.05	1	120583.7	-34.96933	1.670774E-010	0.0099516	5
	45	70	31.6723	105841.1	-78655.82	1	131867.7	-36.61789	-5.76294E-011	0.0099493	5
	46	72	24.93351	115754	-90978.01	1	147227.7	-38.16593	-1.851457E-010	0.0099496	5
	47	73	19.86229	125493	-104265.2	1	163155.5	-39.72133	1.008765E-009	0.0099515	5
	48	75	15.83615	137435.3	-117743.3	1	180975	-40.58726	-4.002716E-010	0.0099496	5
	49	76	12.40079	153181.3	-134331.6	1	203738.7	-41.24898	-1.550797E-009	0.0099567	5
	50	77	9.93114	167138.6	-155294.1	1	228148.2	-42.89619	-3.618198E-010	0.0099613	5
	51	79	7.944915	184675.6	-174971.6	1	254401.5	-43.45442	1.561362E-010	0.0099569	5
	52	81	6.317385	202728.1	-200038.9	1	284805.6	-44.61746	4.03776E-010	0.0099497	5
	53	83	5.008013	225226.2	-229117.3	1	321281.1	-45.49068	1.134802E-011	0.0099496	5
	54	85	3.945707	250494.6	-262602.7	1	362915.6	-46.35182	-1.984727E-010	0.0099415	5
	55	88	3.158693	278459.6	-299408.4	1	408882.8	-47.07617	-1.110452E-010	0.0099389	5
	56	91	2.504006	310872	-343430.8	1	463234.4	-47.84875	-1.125123E-010	0.0099577	5
	57	94	1.998082	345841.5	-392464.9	1	523101.4	-48.61338	2.420378E-010	0.0099355	5
	58	97	1.584686	388931.3	-450365	1	595059.8	-49.1864	-1.10069E-010	0.0099007	5
	59	101	1.266892	433716.8	-515620.9	1	673776.8	-49.93098	1.560102E-010	0.0099509	5
	60	105	0.999041	490945.2	-596243.4	1	772355.7	-50.53205	-3.956812E-010	0.0099376	5
