EXPLAIN
TAG	EISPOT
TITLE	LABEL	Potentiostatic EIS	Test &Identifier
DATE	LABEL	9/20/2019	Date
TIME	LABEL	11:46:31	Time
NOTES	NOTES	1	&Notes...
	
PSTAT	PSTAT	REF600-11020	Potentiostat
VDC	POTEN	0.00000E+000	T	DC &Voltage (V)
FREQINIT	QUANT	1.00000E+006	Initial Fre&q. (Hz)
FREQFINAL	QUANT	1.00000E+000	Final Fre&q. (Hz)
PTSPERDEC	QUANT	1.00000E+001	Points/&decade
VAC	QUANT	2.50000E+001	AC &Voltage (mV rms)
AREA	QUANT	1.00000E-002	&Area (cm^2)
CONDIT	TWOPARAM	T	5.00000E+000	0.00000E+000	Conditionin&g	Time(s)	E(V)
DELAY	TWOPARAM	T	5.00000E+000	0.00000E+000	Init. De&lay	Time(s)	Stab.(mV/s)
SPEED	SELECTOR	1	&Optimize for:
ZGUESS	QUANT	1.00000E+004	E&stimated Z (ohms)
OCVCURVE	TABLE	19
	Pt	T	Vf	Vm	Ach	Over
	#	s	V vs. Ref.	V	V	bits
	0	0.258333	4.54076E-003	4.54076E-003	5.66066E-004	...........
	1	0.516667	4.53615E-003	4.29990E-003	5.78232E-004	...........
	2	0.775	4.50845E-003	4.10058E-003	5.78699E-004	...........
	3	1.03333	4.43202E-003	3.91376E-003	5.67432E-004	...........
	4	1.29167	4.29952E-003	3.75119E-003	5.73166E-004	...........
	5	1.55	4.12896E-003	3.54096E-003	5.87032E-004	...........
	6	1.80833	3.94262E-003	3.34130E-003	5.85532E-004	...........
	7	2.06667	3.75328E-003	3.26649E-003	5.70899E-004	...........
	8	2.325	3.57261E-003	3.18624E-003	5.76666E-004	...........
	9	2.58333	3.41526E-003	3.06190E-003	5.85632E-004	...........
	10	2.84167	3.28596E-003	2.95688E-003	5.80499E-004	...........
	11	3.1	3.17565E-003	2.89179E-003	5.73299E-004	...........
	12	3.35833	3.07597E-003	2.85752E-003	5.83399E-004	...........
	13	3.61667	2.98790E-003	2.78717E-003	5.87432E-004	...........
	14	3.875	2.91401E-003	2.73424E-003	5.80299E-004	...........
	15	4.13333	2.85108E-003	2.67455E-003	5.83399E-004	...........
	16	4.39167	2.79169E-003	2.54035E-003	5.93432E-004	...........
	17	4.65	2.72576E-003	2.40573E-003	5.90765E-004	...........
	18	4.90833	2.64274E-003	2.27806E-003	5.80965E-004	...........
EOC	QUANT	0.0026427	Open Circuit (V)
PSTATMODEL	IQUANT	4	Pstat Model
PSTATSECTION	LABEL	REF600-11020	Pstat Section
PSTATSERIALNO	LABEL	11020	Pstat Serial Number
CTRLMODE	IQUANT	1	Control Mode
IESTAB	IQUANT	0	I/E Stability
CASPEED	IQUANT	1	Control Amp Speed
CONVENTION	IQUANT	1	Current Convention
ICHRANGE	IQUANT	2	Ich Range
ICHRANGEMODE	TOGGLE	F	Ich Auto Range
ICHOFFSETENABLE	TOGGLE	T	Ich Offset Enable
ICHOFFSET	QUANT	0	Ich Offset (V)
ICHFILTER	IQUANT	3	Ich Filter
VCHRANGE	IQUANT	2	Vch Range
VCHRANGEMODE	TOGGLE	F	Vch Auto Range
VCHOFFSETENABLE	TOGGLE	T	Vch Offset Enable
VCHOFFSET	QUANT	0	Vch Offset (V)
VCHFILTER	IQUANT	3	Vch Filter
ACHRANGE	IQUANT	2	Ach Range
ACHOFFSETENABLE	TOGGLE	F	Ach Offset Enable
ACHOFFSET	QUANT	0	Ach Offset (V)
ACHFILTER	IQUANT	3	Ach Filter
IERANGELOWERLIMIT	IQUANT	1	I/E Range Lower Limit
IERANGEMODE	TOGGLE	F	I/E AutoRange
IERANGE	IQUANT	5	I/E Range
POSFEEDENABLE	TOGGLE	F	Positive Feedback IR Comp
POSFEEDRESISTANCE	QUANT	0	Positive Feedback Resistance (ohm)
ACHSELECT	IQUANT	0	Ach Select
CABLEID	IQUANT	14	Cable ID
DCCALDATE	LABEL	8/19/2019	DC Calibration Date
ACCALDATE	LABEL	8/19/2019	AC Calibration Date
THERMOSELECT	IQUANT	1	Thermo Select
FRAMEWORKVERSION	QUANT	6.33	Framework Version
INSTRUMENTVERSION	LABEL	3.50	Instrument Version
ZCURVE	TABLE
	Pt	Time	Freq	Zreal	Zimag	Zsig	Zmod	Zphz	Idc	Vdc	IERange
	#	s	Hz	ohm	ohm	V	ohm	°	A	V	#
	0	2	1000078	2460.953	-1915.584	1	3118.614	-37.89687	-2.838421E-006	0.0064272	8
	1	3	794390.6	2869.383	-1853.371	1	3415.896	-32.85893	4.875891E-006	0.0038872	8
	2	5	630984.4	3206.119	-1728.509	1	3642.381	-28.33035	-5.074052E-006	0.0054162	8
	3	6	501234.4	3519.292	-1567.288	1	3852.507	-24.00542	2.743558E-006	0.0039474	8
	4	8	398109.4	3761.693	-1390.967	1	4010.626	-20.29296	-9.982864E-007	0.0047563	8
	5	9	316265.6	3964.493	-1207.305	1	4144.248	-16.93703	3.043935E-006	0.0037446	8
	6	10	251203.1	4083.233	-1076.741	1	4222.815	-14.77251	-3.214236E-007	0.0043241	8
	7	12	199546.9	4191.722	-932.2474	1	4294.137	-12.53862	-4.403229E-007	0.0044977	8
	8	13	158578.1	4287.345	-816.6468	1	4364.429	-10.78442	3.383396E-006	0.0037773	8
	9	14	125953.1	4377.295	-680.0839	1	4429.812	-8.831223	1.289387E-007	0.0037712	7
	10	16	100078.1	4424.104	-615.4714	1	4466.71	-7.920028	-1.232277E-008	0.0043779	7
	11	17	79453.13	4473.966	-574.2144	1	4510.664	-7.313685	-3.805599E-008	0.0044201	7
	12	18	63140.62	4521.233	-550.1	1	4554.575	-6.9371	-3.222393E-008	0.0043394	7
	13	20	50203.12	4567.324	-536.8936	1	4598.772	-6.704409	-5.805438E-010	0.0044593	7
	14	21	39890.62	4613.566	-539.8119	1	4645.039	-6.673569	-3.136914E-008	0.0043412	7
	15	22	31640.63	4659.969	-554.5593	1	4692.851	-6.786563	1.271033E-008	0.0042686	7
	16	24	25171.88	4709.208	-583.438	1	4745.212	-7.062559	-1.089602E-008	0.004365	7
	17	25	20015.62	4760.42	-624.8972	1	4801.26	-7.478418	4.416773E-008	0.0042018	7
	18	27	15890.62	4816.752	-681.8837	1	4864.778	-8.057538	-2.015124E-009	0.0042778	7
	19	28	12609.37	4876.711	-756.0776	1	4934.974	-8.812882	7.103701E-008	0.0042253	7
	20	29	10078.13	4938.292	-842.9424	1	5009.718	-9.68675	7.151986E-008	0.0042227	7
	21	31	8015.625	5006.52	-955.446	1	5096.873	-10.80444	7.212311E-008	0.004221	7
	22	32	6328.125	5085.598	-1097.58	1	5202.69	-12.17885	-4.219718E-008	0.0043887	7
	23	33	5015.625	5170.401	-1268.932	1	5323.837	-13.78913	-9.102036E-009	0.0043648	7
	24	35	3984.375	5263.779	-1475.911	1	5466.78	-15.66296	1.295887E-007	0.0041435	7
	25	36	3170.956	5364.07	-1725.578	1	5634.791	-17.83256	-1.243155E-009	0.0042761	7
	26	37	2527.573	5479.457	-2029.693	1	5843.296	-20.32557	-6.472055E-008	0.0044472	7
	27	39	1976.103	5617.601	-2429.821	1	6120.577	-23.39027	1.307389E-007	0.0041417	7
	28	40	1577.524	5759.752	-2875.665	1	6437.716	-26.53153	4.213195E-008	0.0041975	7
	29	41	1265.625	5921.258	-3414.929	1	6835.425	-29.97306	-2.688046E-009	0.0043766	7
	30	43	998.264	6122.27	-4105.947	1	7371.634	-33.84809	-2.274012E-009	0.004274	7
	31	44	796.875	6338.087	-4922.802	1	8025.293	-37.83654	-2.525254E-008	0.0044075	7
	32	46	627.7902	6604.259	-5966.333	1	8900.188	-42.09488	1.49516E-008	0.0042577	7
	33	47	505.5147	6890.479	-7128.72	1	9914.5	-45.97359	-9.595975E-009	0.0043458	6
	34	48	397.9953	7252.279	-8699.289	1	11325.78	-50.18327	1.416918E-009	0.0042923	6
	35	50	315.5048	7666.69	-10578.3	1	13064.4	-54.06704	4.895455E-010	0.0042919	6
	36	51	252.4038	8138.871	-12789.13	1	15159.25	-57.52774	1.388392E-009	0.0042919	6
	37	52	198.6229	8748.773	-15710.36	1	17982.11	-60.88747	9.685969E-010	0.0042901	6
	38	54	158.3615	9451.272	-19110.56	1	21319.95	-63.68496	1.33332E-009	0.0042898	6
	39	55	125.558	10342.82	-23397.68	1	25581.74	-66.15243	8.529807E-010	0.0042859	6
	40	56	100.4464	11428.46	-28438.25	1	30648.72	-68.10632	1.608986E-009	0.0042873	6
	41	58	79.00281	12879.85	-35072.86	1	37363.03	-69.83519	1.301808E-009	0.0042854	6
	42	59	63.3446	14615.02	-42280.11	1	44734.84	-70.93121	7.389254E-010	0.0042877	6
	43	61	49.86702	17165.33	-52926.11	1	55640.11	-72.03075	3.645772E-010	0.0042865	6
	44	62	39.72458	20056.21	-64300.61	1	67355.92	-72.67661	8.896464E-010	0.0042923	6
	45	63	31.6723	24263.94	-78453.2	1	82119.69	-72.81425	1.609934E-010	0.0042917	6
	46	65	24.93351	29729.45	-96169.1	1	100659.5	-72.82166	6.186663E-010	0.0042855	6
	47	66	19.86229	36877.04	-116633.2	1	122324.3	-72.45411	1.177447E-009	0.0042975	5
	48	67	15.83615	47463.64	-140605.8	1	148400.7	-71.3471	8.696974E-010	0.0042926	5
	49	69	12.40079	60891.08	-171098	1	181610.2	-70.41016	1.135059E-009	0.0042975	5
	50	70	9.93114	77439.84	-204527.3	1	218696.9	-69.26191	8.686301E-010	0.0042899	5
	51	72	7.944915	98700.5	-241573.5	1	260958.9	-67.77637	-2.825565E-010	0.0042932	5
	52	74	6.317385	127312.3	-285733.5	1	312813.1	-65.984	3.970848E-010	0.0042779	5
	53	76	5.008013	163814.8	-334377.3	1	372348.6	-63.89931	3.64537E-011	0.0042888	5
	54	78	3.945707	209457.7	-387903.5	1	440841.9	-61.63212	1.467758E-010	0.0042903	5
	55	81	3.158693	260210	-440427.8	1	511552.4	-59.4249	2.186009E-010	0.0042807	5
	56	84	2.504006	320463.2	-497766.1	1	592003.2	-57.22646	1.164241E-010	0.0042966	5
	57	87	1.998082	383288.6	-554518.1	1	674092.4	-55.34737	4.706768E-010	0.0042601	5
	58	90	1.584686	456618.8	-618911.4	1	769124.3	-53.58094	1.119679E-010	0.0042451	5
	59	94	1.266892	527458.4	-683799.8	1	863593.9	-52.35471	3.760301E-010	0.004262	5
	60	98	0.999041	608447.9	-764643.6	1	977184	-51.48977	-6.339795E-011	0.004299	5
