EXPLAIN
TAG	EISPOT
TITLE	LABEL	Potentiostatic EIS	Test &Identifier
DATE	LABEL	10/28/2019	Date
TIME	LABEL	10:09:56	Time
NOTES	NOTES	1	&Notes...
	
PSTAT	PSTAT	REF600-11020	Potentiostat
VDC	POTEN	0.00000E+000	T	DC &Voltage (V)
FREQINIT	QUANT	1.00000E+006	Initial Fre&q. (Hz)
FREQFINAL	QUANT	1.00000E+000	Final Fre&q. (Hz)
PTSPERDEC	QUANT	1.00000E+001	Points/&decade
VAC	QUANT	2.50000E+001	AC &Voltage (mV rms)
AREA	QUANT	1.00000E-002	&Area (cm^2)
CONDIT	TWOPARAM	T	5.00000E+000	0.00000E+000	Conditionin&g	Time(s)	E(V)
DELAY	TWOPARAM	T	5.00000E+000	0.00000E+000	Init. De&lay	Time(s)	Stab.(mV/s)
SPEED	SELECTOR	1	&Optimize for:
ZGUESS	QUANT	1.00000E+005	E&stimated Z (ohms)
OCVCURVE	TABLE	19
	Pt	T	Vf	Vm	Ach	Over
	#	s	V vs. Ref.	V	V	bits
	0	0.258333	7.53305E-003	7.53305E-003	5.55299E-004	...........
	1	0.516667	7.53473E-003	7.62136E-003	5.45366E-004	...........
	2	0.775	7.54441E-003	7.66948E-003	5.52532E-004	...........
	3	1.03333	7.56979E-003	7.72903E-003	5.54233E-004	...........
	4	1.29167	7.61202E-003	7.79072E-003	5.55666E-004	...........
	5	1.55	7.66584E-003	7.86685E-003	5.54733E-004	...........
	6	1.80833	7.72651E-003	7.94260E-003	5.57233E-004	...........
	7	2.06667	7.79283E-003	8.03928E-003	5.58099E-004	...........
	8	2.325	7.86553E-003	8.12121E-003	5.55466E-004	...........
	9	2.58333	7.94524E-003	8.23651E-003	5.56199E-004	...........
	10	2.84167	8.03253E-003	8.35627E-003	5.55666E-004	...........
	11	3.1	8.12711E-003	8.39015E-003	5.59899E-004	...........
	12	3.35833	8.22170E-003	8.37144E-003	5.64499E-004	...........
	13	3.61667	8.30025E-003	8.37172E-003	5.60266E-004	...........
	14	3.875	8.35200E-003	8.49253E-003	5.62732E-004	...........
	15	4.13333	8.38759E-003	8.59816E-003	5.59299E-004	...........
	16	4.39167	8.43201E-003	8.72271E-003	5.59032E-004	...........
	17	4.65	8.50125E-003	8.78532E-003	5.56866E-004	...........
	18	4.90833	8.59047E-003	8.84239E-003	5.58799E-004	...........
EOC	QUANT	0.0085905	Open Circuit (V)
PSTATMODEL	IQUANT	4	Pstat Model
PSTATSECTION	LABEL	REF600-11020	Pstat Section
PSTATSERIALNO	LABEL	11020	Pstat Serial Number
CTRLMODE	IQUANT	1	Control Mode
IESTAB	IQUANT	0	I/E Stability
CASPEED	IQUANT	1	Control Amp Speed
CONVENTION	IQUANT	1	Current Convention
ICHRANGE	IQUANT	2	Ich Range
ICHRANGEMODE	TOGGLE	F	Ich Auto Range
ICHOFFSETENABLE	TOGGLE	T	Ich Offset Enable
ICHOFFSET	QUANT	0	Ich Offset (V)
ICHFILTER	IQUANT	3	Ich Filter
VCHRANGE	IQUANT	2	Vch Range
VCHRANGEMODE	TOGGLE	F	Vch Auto Range
VCHOFFSETENABLE	TOGGLE	T	Vch Offset Enable
VCHOFFSET	QUANT	0	Vch Offset (V)
VCHFILTER	IQUANT	3	Vch Filter
ACHRANGE	IQUANT	2	Ach Range
ACHOFFSETENABLE	TOGGLE	F	Ach Offset Enable
ACHOFFSET	QUANT	0	Ach Offset (V)
ACHFILTER	IQUANT	3	Ach Filter
IERANGELOWERLIMIT	IQUANT	1	I/E Range Lower Limit
IERANGEMODE	TOGGLE	F	I/E AutoRange
IERANGE	IQUANT	5	I/E Range
POSFEEDENABLE	TOGGLE	F	Positive Feedback IR Comp
POSFEEDRESISTANCE	QUANT	0	Positive Feedback Resistance (ohm)
ACHSELECT	IQUANT	0	Ach Select
CABLEID	IQUANT	14	Cable ID
DCCALDATE	LABEL	8/19/2019	DC Calibration Date
ACCALDATE	LABEL	8/19/2019	AC Calibration Date
THERMOSELECT	IQUANT	1	Thermo Select
FRAMEWORKVERSION	QUANT	6.33	Framework Version
INSTRUMENTVERSION	LABEL	3.50	Instrument Version
ZCURVE	TABLE
	Pt	Time	Freq	Zreal	Zimag	Zsig	Zmod	Zphz	Idc	Vdc	IERange
	#	s	Hz	ohm	ohm	V	ohm	°	A	V	#
	0	2	1000078	2371.767	-1501.398	1	2807.041	-32.33501	6.412145E-006	0.0107305	8
	1	4	794390.6	2653.305	-1415.359	1	3007.203	-28.0769	-1.064482E-006	0.0100833	8
	2	5	630984.4	2913.165	-1282.583	1	3183.009	-23.76252	-6.648196E-006	0.0118339	8
	3	7	501234.4	3115.977	-1159.063	1	3324.566	-20.4039	3.185232E-006	0.0095182	8
	4	8	398109.4	3290.286	-1009.631	1	3441.705	-17.05874	9.773381E-007	0.0098667	8
	5	10	316265.6	3417.18	-879.6366	1	3528.581	-14.43545	-6.120831E-006	0.0114501	8
	6	11	251203.1	3511.396	-754.5454	1	3591.552	-12.12757	1.14138E-006	0.0097846	8
	7	13	199546.9	3585	-659.7667	1	3645.204	-10.42777	-5.803859E-006	0.0113701	8
	8	14	158578.1	3628.54	-568.8896	1	3672.865	-8.910409	2.358403E-006	0.0095948	8
	9	16	125953.1	3713.989	-423.7119	1	3738.08	-6.508472	-8.640729E-007	0.0123815	7
	10	17	100078.1	3733.133	-378.3087	1	3752.253	-5.786493	-5.464418E-008	0.0100563	7
	11	18	79453.13	3761.334	-350.8751	1	3777.665	-5.329399	-6.667862E-008	0.0101408	7
	12	20	63140.62	3786.474	-333.739	1	3801.153	-5.037022	-4.901376E-008	0.0100638	7
	13	21	50203.12	3813.115	-325.317	1	3826.967	-4.876397	-7.835052E-008	0.0101249	7
	14	23	39890.62	3838.533	-323.2639	1	3852.121	-4.813833	-1.50263E-008	0.010049	7
	15	24	31640.63	3865.56	-332.3021	1	3879.817	-4.913341	-5.126559E-008	0.0100373	7
	16	25	25171.88	3893.025	-347.5765	1	3908.511	-5.101946	-9.167662E-009	0.0100484	7
	17	27	20015.62	3921.571	-379.2556	1	3939.867	-5.523903	2.043168E-008	0.0098961	7
	18	28	15890.62	3951.379	-406.8818	1	3972.272	-5.879147	2.243354E-008	0.0098935	7
	19	29	12609.37	3984.59	-453.7706	1	4010.345	-6.496933	-1.19243E-008	0.0100502	7
	20	31	10078.13	4000.975	-512.9151	1	4033.718	-7.305331	-4.675094E-008	0.0100285	7
	21	32	8015.625	4051.203	-578.0264	1	4092.232	-8.120166	4.442248E-008	0.0099478	7
	22	33	6328.125	4090.752	-676.4991	1	4146.312	-9.390179	1.574769E-007	0.0097593	7
	23	35	5015.625	4132.839	-793.3542	1	4208.298	-10.86651	8.773618E-008	0.0099537	7
	24	36	3984.375	4183.284	-950.828	1	4289.981	-12.80533	-4.589143E-008	0.0100461	7
	25	38	3170.956	4229.883	-1110.148	1	4373.138	-14.70582	-1.447778E-008	0.0100494	7
	26	39	2527.573	4290.329	-1323.339	1	4489.782	-17.14222	-4.935281E-008	0.0100318	7
	27	40	1976.103	4364.451	-1612.02	1	4652.638	-20.27183	9.13851E-008	0.0099474	7
	28	42	1577.524	4442.454	-1955.617	1	4853.847	-23.75962	9.40464E-008	0.0097982	7
	29	43	1265.625	4531.089	-2324.215	1	5092.42	-27.15548	-7.617835E-008	0.0101146	7
	30	44	998.264	4642.07	-2831.837	1	5437.657	-31.38476	-7.711914E-009	0.0100408	7
	31	46	796.875	4770.771	-3419.241	1	5869.538	-35.6294	4.446463E-008	0.0099462	7
	32	47	627.7902	4928.34	-4196.614	1	6473.029	-40.41528	8.683048E-008	0.0099616	7
	33	48	505.5147	5102.67	-5047.816	1	7177.583	-44.69037	-7.702272E-008	0.0101073	7
	34	50	397.9953	5319.441	-6215.188	1	8180.771	-49.44051	3.384359E-009	0.0100172	7
	35	51	315.5048	5579.883	-7616.098	1	9441.4	-53.77188	4.121743E-009	0.0100176	7
	36	53	252.4038	5891.822	-9268.675	1	10982.8	-57.55709	1.466476E-009	0.00995	6
	37	54	198.6229	6305.355	-11464.38	1	13083.94	-61.18942	4.986058E-010	0.0099506	6
	38	55	158.3615	6800.625	-14032.36	1	15593.45	-64.14338	1.105402E-009	0.0099522	6
	39	57	125.558	7449.413	-17254.69	1	18794.09	-66.64856	1.026986E-009	0.0099532	6
	40	58	100.4464	8243.787	-21066.83	1	22622.37	-68.62881	-1.563874E-010	0.0099505	6
	41	59	79.00281	9468.287	-26029.32	1	27697.91	-70.01091	-3.322559E-010	0.0099495	6
	42	61	63.3446	11030.49	-31987.47	1	33835.93	-70.97386	1.583718E-009	0.0099454	6
	43	62	49.86702	12467.44	-39075.63	1	41016.37	-72.30424	-1.264997E-010	0.0099431	6
	44	64	39.72458	15221.44	-47585.28	1	49960.5	-72.26171	9.230468E-010	0.0099507	6
	45	65	31.6723	18613.6	-57752.01	1	60677.52	-72.13576	2.267817E-010	0.0099504	6
	46	67	24.93351	23283.8	-70823.39	1	74552.59	-71.80128	1.695168E-010	0.0099446	6
	47	68	19.86229	29081.03	-85491.48	1	90302.27	-71.2136	1.099886E-009	0.0099546	6
	48	69	15.83615	37454.32	-103800.1	1	110350.8	-70.15897	-2.139433E-009	0.0099511	5
	49	71	12.40079	49034	-124564.2	1	133867.8	-68.51321	-1.660511E-009	0.0099536	5
	50	72	9.93114	60828.21	-145852.3	1	158028.4	-67.36125	1.137533E-009	0.0099462	5
	51	74	7.944915	76103.34	-171504.8	1	187631.6	-66.07127	-6.095469E-011	0.0099527	5
	52	75	6.317385	96190.3	-199893.7	1	221833.4	-64.30281	6.368038E-010	0.0099444	5
	53	78	5.008013	120716.6	-232373.5	1	261858.6	-62.5484	3.002242E-010	0.0099602	5
	54	80	3.945707	150162.8	-268083.8	1	307274.8	-60.74533	-2.501652E-010	0.0099455	5
	55	83	3.158693	181721.8	-304251.1	1	354389	-59.15115	2.771499E-010	0.0099602	5
	56	86	2.504006	218711.9	-345961.3	1	409297.1	-57.6995	-3.678088E-010	0.0099486	5
	57	89	1.998082	257700.4	-389402.9	1	466952	-56.50406	-5.016141E-011	0.0099153	5
	58	92	1.584686	299891.8	-438994.3	1	531649.4	-55.6617	-4.268396E-011	0.0099831	5
	59	96	1.266892	344186.8	-496161.4	1	603854.8	-55.25098	-1.168483E-010	0.0099228	5
	60	100	0.999041	393970.1	-565733.7	1	689396.1	-55.14712	1.850565E-010	0.0099869	5
