EXPLAIN
TAG	EISPOT
TITLE	LABEL	Potentiostatic EIS	Test &Identifier
DATE	LABEL	10/2/2019	Date
TIME	LABEL	9:08:14	Time
NOTES	NOTES	2	&Notes...
	
	
PSTAT	PSTAT	REF600-11020	Potentiostat
VDC	POTEN	0.00000E+000	T	DC &Voltage (V)
FREQINIT	QUANT	1.00000E+006	Initial Fre&q. (Hz)
FREQFINAL	QUANT	1.00000E+000	Final Fre&q. (Hz)
PTSPERDEC	QUANT	1.00000E+001	Points/&decade
VAC	QUANT	2.50000E+001	AC &Voltage (mV rms)
AREA	QUANT	1.00000E-002	&Area (cm^2)
CONDIT	TWOPARAM	T	5.00000E+000	0.00000E+000	Conditionin&g	Time(s)	E(V)
DELAY	TWOPARAM	T	5.00000E+000	0.00000E+000	Init. De&lay	Time(s)	Stab.(mV/s)
SPEED	SELECTOR	1	&Optimize for:
ZGUESS	QUANT	1.00000E+004	E&stimated Z (ohms)
OCVCURVE	TABLE	19
	Pt	T	Vf	Vm	Ach	Over
	#	s	V vs. Ref.	V	V	bits
	0	0.258333	3.75216E-004	3.75216E-004	5.69532E-004	...........
	1	0.516667	3.61005E-004	-3.68688E-004	5.66932E-004	...........
	2	0.775	2.74435E-004	-1.03740E-003	5.66699E-004	...........
	3	1.03333	3.62260E-005	-1.45003E-003	5.66532E-004	...........
	4	1.29167	-3.62654E-004	-1.65061E-003	5.69499E-004	...........
	5	1.55	-8.29730E-004	-1.86567E-003	5.69132E-004	...........
	6	1.80833	-1.25593E-003	-2.17019E-003	5.69166E-004	...........
	7	2.06667	-1.60168E-003	-2.48930E-003	5.63166E-004	...........
	8	2.325	-1.89521E-003	-2.81024E-003	5.67499E-004	...........
	9	2.58333	-2.17887E-003	-3.11184E-003	5.64699E-004	...........
	10	2.84167	-2.47273E-003	-3.39752E-003	5.64466E-004	...........
	11	3.1	-2.77448E-003	-3.67124E-003	5.67066E-004	...........
	12	3.35833	-3.07377E-003	-3.92294E-003	5.67766E-004	...........
	13	3.61667	-3.36235E-003	-4.17416E-003	5.67232E-004	...........
	14	3.875	-3.63689E-003	-4.41116E-003	5.72066E-004	...........
	15	4.13333	-3.89771E-003	-4.63168E-003	5.66032E-004	...........
	16	4.39167	-4.14625E-003	-4.85686E-003	5.72699E-004	...........
	17	4.65	-4.38410E-003	-5.07659E-003	5.68166E-004	...........
	18	4.90833	-4.61347E-003	-5.28336E-003	5.68866E-004	...........
EOC	QUANT	-0.0046135	Open Circuit (V)
PSTATMODEL	IQUANT	4	Pstat Model
PSTATSECTION	LABEL	REF600-11020	Pstat Section
PSTATSERIALNO	LABEL	11020	Pstat Serial Number
CTRLMODE	IQUANT	1	Control Mode
IESTAB	IQUANT	0	I/E Stability
CASPEED	IQUANT	1	Control Amp Speed
CONVENTION	IQUANT	1	Current Convention
ICHRANGE	IQUANT	2	Ich Range
ICHRANGEMODE	TOGGLE	F	Ich Auto Range
ICHOFFSETENABLE	TOGGLE	T	Ich Offset Enable
ICHOFFSET	QUANT	0	Ich Offset (V)
ICHFILTER	IQUANT	3	Ich Filter
VCHRANGE	IQUANT	2	Vch Range
VCHRANGEMODE	TOGGLE	F	Vch Auto Range
VCHOFFSETENABLE	TOGGLE	T	Vch Offset Enable
VCHOFFSET	QUANT	0	Vch Offset (V)
VCHFILTER	IQUANT	3	Vch Filter
ACHRANGE	IQUANT	2	Ach Range
ACHOFFSETENABLE	TOGGLE	F	Ach Offset Enable
ACHOFFSET	QUANT	0	Ach Offset (V)
ACHFILTER	IQUANT	3	Ach Filter
IERANGELOWERLIMIT	IQUANT	1	I/E Range Lower Limit
IERANGEMODE	TOGGLE	F	I/E AutoRange
IERANGE	IQUANT	5	I/E Range
POSFEEDENABLE	TOGGLE	F	Positive Feedback IR Comp
POSFEEDRESISTANCE	QUANT	0	Positive Feedback Resistance (ohm)
ACHSELECT	IQUANT	0	Ach Select
CABLEID	IQUANT	14	Cable ID
DCCALDATE	LABEL	8/19/2019	DC Calibration Date
ACCALDATE	LABEL	8/19/2019	AC Calibration Date
THERMOSELECT	IQUANT	1	Thermo Select
FRAMEWORKVERSION	QUANT	6.33	Framework Version
INSTRUMENTVERSION	LABEL	3.50	Instrument Version
ZCURVE	TABLE
	Pt	Time	Freq	Zreal	Zimag	Zsig	Zmod	Zphz	Idc	Vdc	IERange
	#	s	Hz	ohm	ohm	V	ohm	°	A	V	#
	0	2	1000078	2475.348	-1948.41	1	3150.182	-38.20718	2.143612E-006	-0.0021021	8
	1	3	794390.6	2878.134	-1892.435	1	3444.556	-33.32578	3.287724E-007	-0.0024874	8
	2	5	630984.4	3239.968	-1765.776	1	3689.899	-28.5903	-3.378459E-006	-0.0020154	8
	3	6	501234.4	3548.23	-1584.863	1	3886.094	-24.06855	-1.730985E-006	-0.0023981	8
	4	8	398109.4	3792.231	-1419.287	1	4049.122	-20.51895	1.509098E-006	-0.003162	8
	5	9	316265.6	4006.315	-1232.13	1	4191.504	-17.09512	4.369531E-006	-0.0037464	8
	6	11	251203.1	4112.827	-1049.071	1	4244.513	-14.30947	1.227396E-006	-0.00329	8
	7	12	199546.9	4233.818	-920.3764	1	4332.702	-12.26453	2.761446E-006	-0.0034976	8
	8	14	158578.1	4323.8	-767.0928	1	4391.319	-10.06027	-3.042986E-006	-0.0023431	8
	9	15	125953.1	4406.053	-629.8076	1	4450.838	-8.134836	-7.228141E-007	-0.0009152	7
	10	16	100078.1	4445.646	-546.1848	1	4479.072	-7.004165	-7.245544E-009	-0.0029507	7
	11	18	79453.13	4488.421	-494.6341	1	4515.594	-6.288748	7.974134E-008	-0.0030422	7
	12	19	63140.62	4524.567	-456.6805	1	4547.556	-5.763546	1.332361E-007	-0.0031969	7
	13	20	50203.12	4559.943	-431.6025	1	4580.323	-5.406986	-2.99752E-008	-0.0029998	7
	14	22	39890.62	4593.295	-417.8987	1	4612.266	-5.198468	1.335002E-007	-0.0032034	7
	15	23	31640.63	4627.171	-417.2114	1	4645.942	-5.152174	-4.854566E-009	-0.0030582	7
	16	24	25171.88	4659.647	-424.981	1	4678.987	-5.211218	-5.4316E-008	-0.002844	7
	17	26	20015.62	4693.49	-444.5327	1	4714.495	-5.410493	-3.035493E-008	-0.0030041	7
	18	27	15890.62	4731.408	-475.644	1	4755.256	-5.740604	3.537122E-008	-0.0030474	7
	19	29	12609.37	4765.409	-520.9871	1	4793.804	-6.239187	1.342238E-007	-0.0032013	7
	20	30	10078.13	4801.736	-575.0801	1	4836.05	-6.829502	8.121184E-008	-0.0030476	7
	21	31	8015.625	4838.852	-652.8802	1	4882.698	-7.684206	-1.626551E-008	-0.0028642	7
	22	33	6328.125	4883.127	-751.4335	1	4940.605	-8.748262	4.579919E-008	-0.0031492	7
	23	34	5015.625	4927.766	-875.6931	1	5004.969	-10.07661	3.700893E-008	-0.0030466	7
	24	35	3984.375	4975.381	-1030.635	1	5081.006	-11.70312	-1.836582E-008	-0.0030431	7
	25	37	3170.956	5033.41	-1222.517	1	5179.745	-13.65168	-7.719412E-008	-0.0028911	7
	26	38	2527.573	5096.397	-1455.586	1	5300.188	-15.93992	-7.644558E-008	-0.0028885	7
	27	39	1976.103	5173.864	-1769.083	1	5467.955	-18.87694	-1.790949E-008	-0.0030377	7
	28	41	1577.524	5258.224	-2124.897	1	5671.341	-22.00409	-4.55445E-008	-0.0029858	7
	29	42	1265.625	5351.434	-2550.621	1	5928.196	-25.48358	-7.665812E-008	-0.0028855	7
	30	43	998.264	5469.865	-3114.202	1	6294.257	-29.6545	-9.229681E-010	-0.003003	7
	31	45	796.875	5600.712	-3772.093	1	6752.53	-33.96036	-9.783285E-013	-0.0029954	7
	32	46	627.7902	5766.137	-4632.899	1	7396.762	-38.78072	-1.491653E-008	-0.0028692	7
	33	47	505.5147	5936.267	-5590.695	1	8154.455	-43.28282	-1.749945E-008	-0.0030359	7
	34	49	397.9953	6190.674	-6891.026	1	9263.405	-48.06451	6.189232E-009	-0.002993	7
	35	50	315.5048	6484.938	-8457.639	1	10657.68	-52.52063	9.042447E-010	-0.0030504	6
	36	51	252.4038	6833.224	-10310.39	1	12369.2	-56.46553	9.927938E-010	-0.0030492	6
	37	53	198.6229	7311.461	-12763.4	1	14709.24	-60.19394	1.279783E-009	-0.0030559	6
	38	54	158.3615	7894.77	-15621.11	1	17502.76	-63.18838	9.035823E-010	-0.0030581	6
	39	55	125.558	8669.873	-19212.61	1	21078.22	-65.71227	1.129079E-009	-0.0030555	6
	40	57	100.4464	9662.23	-23430.48	1	25344.54	-67.58979	9.77895E-010	-0.0030572	6
	41	58	79.00281	11009.19	-28950.05	1	30972.7	-69.17908	8.410697E-010	-0.0030566	6
	42	60	63.3446	12572	-35280.69	1	37453.73	-70.38688	8.342467E-010	-0.0030548	6
	43	61	49.86702	15230.06	-43129.23	1	45739.32	-70.55054	2.727684E-010	-0.0030552	6
	44	62	39.72458	18420.43	-52584.27	1	55717.3	-70.69449	7.755671E-010	-0.0030509	6
	45	64	31.6723	22605.26	-63490.43	1	67394.6	-70.40213	8.81218E-010	-0.0030547	6
	46	65	24.93351	28419.29	-77308.61	1	82366.73	-69.81615	6.558913E-010	-0.0030596	6
	47	66	19.86229	35773.23	-92422.63	1	99104.3	-68.84051	7.325725E-010	-0.0030602	6
	48	68	15.83615	44937.79	-109288.8	1	118167.1	-67.64833	5.571896E-010	-0.0030476	5
	49	69	12.40079	57271.92	-131512.1	1	143441.6	-66.46746	5.505582E-010	-0.0030433	5
	50	71	9.93114	72045.55	-152894.9	1	169019	-64.76973	3.001969E-010	-0.0030463	5
	51	72	7.944915	89061.8	-176412.5	1	197619.3	-63.21309	6.447126E-010	-0.0030489	5
	52	74	6.317385	109149.3	-203584.1	1	230997.9	-61.80253	8.772867E-010	-0.0030489	5
	53	76	5.008013	132630.3	-234273.2	1	269211.3	-60.48427	5.996518E-010	-0.0030414	5
	54	78	3.945707	160077.7	-270048.9	1	313928.8	-59.34168	7.278362E-010	-0.0030579	5
	55	81	3.158693	188090.1	-306725.8	1	359803.6	-58.48258	7.317628E-010	-0.0030469	5
	56	84	2.504006	221318.5	-351071.7	1	415009.9	-57.77232	5.5439E-011	-0.0030489	5
	57	87	1.998082	256705.1	-400243.4	1	475491.6	-57.325	5.017911E-010	-0.0030902	5
	58	90	1.584686	297003.5	-461208.3	1	548565.6	-57.21975	1.622721E-010	-0.0030853	5
	59	94	1.266892	341626.4	-526724	1	627811.1	-57.03308	4.326192E-010	-0.003088	5
	60	98	0.999041	395020.3	-610757.6	1	727369.1	-57.10638	1.254258E-010	-0.0030364	5
