EXPLAIN
TAG	EISPOT
TITLE	LABEL	Potentiostatic EIS	Test &Identifier
DATE	LABEL	10/22/2019	Date
TIME	LABEL	9:38:53	Time
NOTES	NOTES	1	&Notes...
	
PSTAT	PSTAT	REF600-11020	Potentiostat
VDC	POTEN	0.00000E+000	T	DC &Voltage (V)
FREQINIT	QUANT	1.00000E+006	Initial Fre&q. (Hz)
FREQFINAL	QUANT	1.00000E+000	Final Fre&q. (Hz)
PTSPERDEC	QUANT	1.00000E+001	Points/&decade
VAC	QUANT	2.50000E+001	AC &Voltage (mV rms)
AREA	QUANT	1.00000E-002	&Area (cm^2)
CONDIT	TWOPARAM	T	5.00000E+000	0.00000E+000	Conditionin&g	Time(s)	E(V)
DELAY	TWOPARAM	T	5.00000E+000	0.00000E+000	Init. De&lay	Time(s)	Stab.(mV/s)
SPEED	SELECTOR	1	&Optimize for:
ZGUESS	QUANT	1.00000E+005	E&stimated Z (ohms)
OCVCURVE	TABLE	19
	Pt	T	Vf	Vm	Ach	Over
	#	s	V vs. Ref.	V	V	bits
	0	0.258333	7.86267E-003	7.86267E-003	5.53866E-004	...........
	1	0.516667	7.85997E-003	7.72089E-003	5.56766E-004	...........
	2	0.775	7.84420E-003	7.63200E-003	5.52232E-004	...........
	3	1.03333	7.80251E-003	7.54706E-003	5.55199E-004	...........
	4	1.29167	7.73335E-003	7.45597E-003	5.52932E-004	...........
	5	1.55	7.64913E-003	7.45286E-003	5.59366E-004	...........
	6	1.80833	7.56530E-003	7.31248E-003	5.59732E-004	...........
	7	2.06667	7.48999E-003	7.34534E-003	5.58132E-004	...........
	8	2.325	7.42901E-003	7.50419E-003	5.52466E-004	...........
	9	2.58333	7.39512E-003	7.37310E-003	5.59832E-004	...........
	10	2.84167	7.39145E-003	7.39338E-003	5.61066E-004	...........
	11	3.1	7.39953E-003	7.40247E-003	5.57099E-004	...........
	12	3.35833	7.40022E-003	7.26049E-003	5.56766E-004	...........
	13	3.61667	7.38202E-003	7.09980E-003	5.53533E-004	...........
	14	3.875	7.33456E-003	7.13338E-003	5.54166E-004	...........
	15	4.13333	7.26263E-003	7.10002E-003	5.53866E-004	...........
	16	4.39167	7.19076E-003	7.09068E-003	5.57866E-004	...........
	17	4.65	7.13987E-003	7.13608E-003	5.57766E-004	...........
	18	4.90833	7.11416E-003	7.09595E-003	5.57366E-004	...........
EOC	QUANT	0.0071142	Open Circuit (V)
PSTATMODEL	IQUANT	4	Pstat Model
PSTATSECTION	LABEL	REF600-11020	Pstat Section
PSTATSERIALNO	LABEL	11020	Pstat Serial Number
CTRLMODE	IQUANT	1	Control Mode
IESTAB	IQUANT	0	I/E Stability
CASPEED	IQUANT	1	Control Amp Speed
CONVENTION	IQUANT	1	Current Convention
ICHRANGE	IQUANT	2	Ich Range
ICHRANGEMODE	TOGGLE	F	Ich Auto Range
ICHOFFSETENABLE	TOGGLE	T	Ich Offset Enable
ICHOFFSET	QUANT	0	Ich Offset (V)
ICHFILTER	IQUANT	3	Ich Filter
VCHRANGE	IQUANT	2	Vch Range
VCHRANGEMODE	TOGGLE	F	Vch Auto Range
VCHOFFSETENABLE	TOGGLE	T	Vch Offset Enable
VCHOFFSET	QUANT	0	Vch Offset (V)
VCHFILTER	IQUANT	3	Vch Filter
ACHRANGE	IQUANT	2	Ach Range
ACHOFFSETENABLE	TOGGLE	F	Ach Offset Enable
ACHOFFSET	QUANT	0	Ach Offset (V)
ACHFILTER	IQUANT	3	Ach Filter
IERANGELOWERLIMIT	IQUANT	1	I/E Range Lower Limit
IERANGEMODE	TOGGLE	F	I/E AutoRange
IERANGE	IQUANT	5	I/E Range
POSFEEDENABLE	TOGGLE	F	Positive Feedback IR Comp
POSFEEDRESISTANCE	QUANT	0	Positive Feedback Resistance (ohm)
ACHSELECT	IQUANT	0	Ach Select
CABLEID	IQUANT	14	Cable ID
DCCALDATE	LABEL	8/19/2019	DC Calibration Date
ACCALDATE	LABEL	8/19/2019	AC Calibration Date
THERMOSELECT	IQUANT	1	Thermo Select
FRAMEWORKVERSION	QUANT	6.33	Framework Version
INSTRUMENTVERSION	LABEL	3.50	Instrument Version
ZCURVE	TABLE
	Pt	Time	Freq	Zreal	Zimag	Zsig	Zmod	Zphz	Idc	Vdc	IERange
	#	s	Hz	ohm	ohm	V	ohm	°	A	V	#
	0	2	1000078	2618.285	-2105.25	1	3359.686	-38.80125	-4.138551E-006	0.0092143	8
	1	3	794390.6	3046.61	-2101.131	1	3700.89	-34.59254	3.275477E-006	0.0082204	8
	2	5	630984.4	3422.609	-2014.828	1	3971.622	-30.48455	-7.794383E-007	0.008833	8
	3	6	501234.4	3809.146	-1919.429	1	4265.42	-26.74354	-3.17691E-006	0.0093683	8
	4	8	398109.4	4110.322	-1741.847	1	4464.166	-22.96596	4.350251E-006	0.0078018	8
	5	9	316265.6	4361.549	-1569.631	1	4635.392	-19.79275	4.903307E-007	0.0083246	8
	6	11	251203.1	4590.355	-1424.237	1	4806.226	-17.23741	-2.97392E-006	0.0092222	8
	7	12	199546.9	4746.404	-1268.34	1	4912.946	-14.96108	1.367469E-007	0.0086282	8
	8	14	158578.1	4885.574	-1150.23	1	5019.15	-13.24811	-3.085037E-006	0.0090233	8
	9	15	125953.1	5033.453	-984.518	1	5128.833	-11.06704	-4.229885E-008	0.0087545	7
	10	17	100078.1	5127.639	-933.0591	1	5211.84	-10.31308	-1.97113E-008	0.0084954	7
	11	18	79453.13	5214.925	-895.0668	1	5291.181	-9.7391	-8.873887E-009	0.0086618	7
	12	20	63140.62	5297.358	-878.5975	1	5369.724	-9.417112	-4.19824E-009	0.0085422	7
	13	21	50203.12	5380.501	-880.0844	1	5452.003	-9.289562	-3.103158E-008	0.0085269	7
	14	22	39890.62	5464.214	-902.7197	1	5538.279	-9.380862	-3.959369E-008	0.0085379	7
	15	24	31640.63	5554.142	-943.2812	1	5633.673	-9.63879	-8.107435E-008	0.0086563	7
	16	25	25171.88	5647.613	-1006.743	1	5736.642	-10.10737	3.947957E-008	0.0083893	7
	17	26	20015.62	5760.673	-1097.008	1	5864.195	-10.78178	6.354848E-008	0.0084162	7
	18	28	15890.62	5863.604	-1191.156	1	5983.369	-11.48303	4.111575E-008	0.0083874	7
	19	29	12609.37	5992.73	-1317.642	1	6135.877	-12.4005	3.794733E-008	0.0083857	7
	20	30	10078.13	6129.255	-1461.89	1	6301.182	-13.41499	3.796296E-008	0.0083896	7
	21	32	8015.625	6260.776	-1625.741	1	6468.412	-14.55655	-2.29741E-008	0.0085797	7
	22	33	6328.125	6462.844	-1847.961	1	6721.853	-15.95715	-1.787967E-008	0.008486	7
	23	35	5015.625	6663.087	-2089.653	1	6983.079	-17.41228	8.36745E-008	0.0083464	7
	24	36	3984.375	6840.465	-2352.877	1	7233.809	-18.9814	-3.924742E-008	0.008599	7
	25	37	3170.956	7136.808	-2689.948	1	7626.916	-20.65202	8.461196E-008	0.0083387	7
	26	39	2527.573	7414.357	-3056.602	1	8019.695	-22.40413	-3.876109E-008	0.008536	7
	27	40	1976.103	7763.784	-3527.88	1	8527.736	-24.43715	-1.5207E-009	0.0085272	7
	28	41	1577.524	8045.522	-4106.183	1	9032.782	-27.03834	-1.150421E-010	0.0085244	7
	29	43	1265.625	8518.198	-4548.959	1	9656.75	-28.10348	-8.629286E-009	0.0085992	6
	30	44	998.264	8982.163	-5226.596	1	10392.14	-30.19453	7.625689E-009	0.0083153	6
	31	45	796.875	9470.59	-5971.408	1	11195.97	-32.2323	-2.180676E-009	0.0083585	6
	32	47	627.7902	10016.83	-6891.041	1	12158.27	-34.52587	-8.358995E-009	0.0085967	6
	33	48	505.5147	10535.72	-7870.404	1	13150.84	-36.7605	8.26109E-009	0.0084735	6
	34	50	397.9953	11135.3	-9171.833	1	14426.28	-39.47731	8.555383E-011	0.0084801	6
	35	51	315.5048	11726.06	-10724.94	1	15891.03	-42.4468	9.975966E-010	0.0084744	6
	36	52	252.4038	12311.84	-12569.51	1	17594.71	-45.59333	4.521352E-010	0.0084684	6
	37	54	198.6229	12972.65	-15043.41	1	19864.38	-49.22723	6.726644E-010	0.0084725	6
	38	55	158.3615	13651.32	-17986.59	1	22580.43	-52.80252	4.296713E-011	0.0084731	6
	39	56	125.558	14455.62	-21755.19	1	26119.97	-56.39724	4.944208E-010	0.008476	6
	40	58	100.4464	15379.66	-26223.4	1	30400.67	-59.60897	9.473033E-011	0.0084703	6
	41	59	79.00281	16580.9	-32346.24	1	36348.39	-62.86002	-1.455158E-010	0.0084658	6
	42	61	63.3446	17625.18	-39022.47	1	42818.23	-65.69286	-9.212242E-011	0.0084619	6
	43	62	49.86702	20268.33	-48216.7	1	52303.49	-67.2001	-2.804266E-010	0.0084651	6
	44	63	39.72458	22492.12	-59064.54	1	63202.18	-69.15287	6.823937E-010	0.0084736	6
	45	65	31.6723	25517.63	-72200.53	1	76577.19	-70.53521	7.540145E-010	0.0084698	6
	46	66	24.93351	30259.99	-88959.29	1	93965.01	-71.21398	5.274368E-010	0.0084689	6
	47	68	19.86229	36144.2	-108237.9	1	114113.3	-71.53413	8.908495E-011	0.0084691	5
	48	69	15.83615	43592.5	-130098.9	1	137208	-71.47545	-8.079428E-010	0.0084737	5
	49	70	12.40079	54862.78	-161212.8	1	170292.3	-71.2059	3.978688E-010	0.0084803	5
	50	72	9.93114	68189.5	-193636.9	1	205292.6	-70.60021	-2.235596E-010	0.0084742	5
	51	73	7.944915	86628.91	-232918.2	1	248506.5	-69.5984	1.913155E-010	0.0084764	5
	52	75	6.317385	110070.4	-276476.5	1	297581.5	-68.29158	-8.651546E-011	0.0084956	5
	53	77	5.008013	140634.8	-327803.7	1	356697.9	-66.77962	-1.200885E-011	0.0084764	5
	54	80	3.945707	180305.1	-386613	1	426590.6	-64.99702	2.749564E-010	0.0084821	5
	55	82	3.158693	225529.7	-446841.6	1	500530.8	-63.21903	-9.323516E-011	0.0084676	5
	56	86	2.504006	280358.2	-515235.8	1	586573.7	-61.44781	3.401359E-010	0.0084828	5
	57	89	1.998082	340904.4	-586551.4	1	678423.4	-59.83479	2.399077E-010	0.0084988	5
	58	92	1.584686	411042.3	-664780.3	1	781593.6	-58.27096	9.564478E-011	0.0084353	5
	59	95	1.266892	482039.6	-751640.8	1	892931.2	-57.32728	1.830218E-010	0.0084929	5
	60	100	0.999041	566809.8	-857678.8	1	1028050	-56.54068	-1.257779E-010	0.0084517	4
