EXPLAIN
TAG	EISPOT
TITLE	LABEL	Potentiostatic EIS	Test &Identifier
DATE	LABEL	11/3/2019	Date
TIME	LABEL	9:47:45	Time
NOTES	NOTES	1	&Notes...
	
PSTAT	PSTAT	REF600-11020	Potentiostat
VDC	POTEN	0.00000E+000	T	DC &Voltage (V)
FREQINIT	QUANT	1.00000E+006	Initial Fre&q. (Hz)
FREQFINAL	QUANT	1.00000E+000	Final Fre&q. (Hz)
PTSPERDEC	QUANT	1.00000E+001	Points/&decade
VAC	QUANT	2.50000E+001	AC &Voltage (mV rms)
AREA	QUANT	1.00000E-002	&Area (cm^2)
CONDIT	TWOPARAM	T	5.00000E+000	0.00000E+000	Conditionin&g	Time(s)	E(V)
DELAY	TWOPARAM	T	5.00000E+000	0.00000E+000	Init. De&lay	Time(s)	Stab.(mV/s)
SPEED	SELECTOR	1	&Optimize for:
ZGUESS	QUANT	1.00000E+005	E&stimated Z (ohms)
OCVCURVE	TABLE	19
	Pt	T	Vf	Vm	Ach	Over
	#	s	V vs. Ref.	V	V	bits
	0	0.258333	2.98504E-003	2.98504E-003	5.62099E-004	...........
	1	0.516667	2.97985E-003	2.71354E-003	5.56866E-004	...........
	2	0.775	2.94755E-003	2.43232E-003	5.58599E-004	...........
	3	1.03333	2.85506E-003	2.18410E-003	5.62466E-004	...........
	4	1.29167	2.68830E-003	1.93803E-003	5.60932E-004	...........
	5	1.55	2.46768E-003	1.79890E-003	5.58533E-004	...........
	6	1.80833	2.23147E-003	1.62977E-003	5.62866E-004	...........
	7	2.06667	2.01083E-003	1.46399E-003	5.55666E-004	...........
	8	2.325	1.81608E-003	1.29857E-003	5.56133E-004	...........
	9	2.58333	1.64077E-003	1.14170E-003	5.58866E-004	...........
	10	2.84167	1.47519E-003	9.84838E-004	5.58599E-004	...........
	11	3.1	1.31421E-003	8.45991E-004	5.58299E-004	...........
	12	3.35833	1.15727E-003	7.08286E-004	5.63566E-004	...........
	13	3.61667	1.00596E-003	5.81123E-004	5.56333E-004	...........
	14	3.875	8.61531E-004	4.47719E-004	5.55066E-004	...........
	15	4.13333	7.23702E-004	3.30564E-004	5.54766E-004	...........
	16	4.39167	5.91540E-004	2.14587E-004	5.49966E-004	...........
	17	4.65	4.64962E-004	1.17887E-004	5.53032E-004	...........
	18	4.90833	3.44965E-004	1.46097E-005	5.60599E-004	...........
EOC	QUANT	0.000345	Open Circuit (V)
PSTATMODEL	IQUANT	4	Pstat Model
PSTATSECTION	LABEL	REF600-11020	Pstat Section
PSTATSERIALNO	LABEL	11020	Pstat Serial Number
CTRLMODE	IQUANT	1	Control Mode
IESTAB	IQUANT	0	I/E Stability
CASPEED	IQUANT	1	Control Amp Speed
CONVENTION	IQUANT	1	Current Convention
ICHRANGE	IQUANT	2	Ich Range
ICHRANGEMODE	TOGGLE	F	Ich Auto Range
ICHOFFSETENABLE	TOGGLE	T	Ich Offset Enable
ICHOFFSET	QUANT	0	Ich Offset (V)
ICHFILTER	IQUANT	3	Ich Filter
VCHRANGE	IQUANT	2	Vch Range
VCHRANGEMODE	TOGGLE	F	Vch Auto Range
VCHOFFSETENABLE	TOGGLE	T	Vch Offset Enable
VCHOFFSET	QUANT	0	Vch Offset (V)
VCHFILTER	IQUANT	3	Vch Filter
ACHRANGE	IQUANT	2	Ach Range
ACHOFFSETENABLE	TOGGLE	F	Ach Offset Enable
ACHOFFSET	QUANT	0	Ach Offset (V)
ACHFILTER	IQUANT	3	Ach Filter
IERANGELOWERLIMIT	IQUANT	1	I/E Range Lower Limit
IERANGEMODE	TOGGLE	F	I/E AutoRange
IERANGE	IQUANT	3	I/E Range
POSFEEDENABLE	TOGGLE	F	Positive Feedback IR Comp
POSFEEDRESISTANCE	QUANT	0	Positive Feedback Resistance (ohm)
ACHSELECT	IQUANT	0	Ach Select
CABLEID	IQUANT	14	Cable ID
DCCALDATE	LABEL	8/19/2019	DC Calibration Date
ACCALDATE	LABEL	8/19/2019	AC Calibration Date
THERMOSELECT	IQUANT	1	Thermo Select
FRAMEWORKVERSION	QUANT	6.33	Framework Version
INSTRUMENTVERSION	LABEL	3.50	Instrument Version
ZCURVE	TABLE
	Pt	Time	Freq	Zreal	Zimag	Zsig	Zmod	Zphz	Idc	Vdc	IERange
	#	s	Hz	ohm	ohm	V	ohm	°	A	V	#
	0	1	1000078	1797.968	-755.3173	1	1950.178	-22.78703	1.403976E-005	0.0012976	8
	1	3	794390.6	1917.08	-662.8531	1	2028.44	-19.07343	2.82425E-006	0.0011416	8
	2	4	630984.4	2010.036	-584.9316	1	2093.416	-16.22529	-3.632568E-006	0.0018956	8
	3	6	501234.4	2082.32	-508.5372	1	2143.518	-13.72395	-4.513997E-006	0.0022787	8
	4	7	398109.4	2134.424	-441.7927	1	2179.667	-11.6942	2.410203E-006	0.0021329	8
	5	8	316265.6	2176.802	-385.1491	1	2210.612	-10.0337	-2.740979E-006	0.0017358	8
	6	10	251203.1	2211.303	-340.5308	1	2237.37	-8.754522	-2.60438E-006	0.0023536	8
	7	11	199546.9	2238.44	-310.795	1	2259.913	-7.904667	-2.303162E-007	0.0015638	8
	8	12	158578.1	2264.369	-287.3854	1	2282.533	-7.233099	-1.323636E-006	0.0022213	8
	9	14	125953.1	2298.084	-230.3273	1	2309.598	-5.723402	5.590176E-007	0.0036013	7
	10	15	100078.1	2319.166	-229.762	1	2330.52	-5.657884	-5.334972E-007	0.0031755	7
	11	16	79453.13	2339.418	-236.4386	1	2351.336	-5.77113	7.713284E-008	0.0025974	7
	12	18	63140.62	2361.878	-249.0671	1	2374.974	-6.019762	7.334098E-007	0.0015619	7
	13	19	50203.12	2387.014	-265.6347	1	2401.749	-6.349933	-2.709833E-007	0.0010383	7
	14	21	39890.62	2413.471	-287.9619	1	2430.589	-6.804048	-5.354662E-007	0.003168	7
	15	22	31640.63	2443.764	-316.0241	1	2464.113	-7.368517	8.924831E-007	0.0011305	7
	16	23	25171.88	2474.333	-348.7911	1	2498.795	-8.023759	-2.415855E-007	0.0029541	7
	17	25	20015.62	2506.018	-386.0062	1	2535.573	-8.756547	-5.352879E-007	0.003166	7
	18	26	15890.62	2544.552	-439.084	1	2582.157	-9.79046	-1.078846E-006	0.0027479	7
	19	27	12609.37	2584.968	-499.4561	1	2632.778	-10.93568	4.17131E-007	0.0003297	7
	20	29	10078.13	2624.314	-568.9227	1	2685.274	-12.23182	-2.724582E-007	0.0010321	7
	21	30	8015.625	2670.649	-656.0783	1	2750.056	-13.8021	-1.082078E-006	0.0027466	7
	22	31	6328.125	2716.611	-765.5445	1	2822.416	-15.7379	5.542919E-007	0.0019179	7
	23	33	5015.625	2766.609	-899.1227	1	2909.046	-18.00369	-9.624148E-007	0.0032032	7
	24	34	3984.375	2818.969	-1063.002	1	3012.733	-20.66091	8.939757E-007	0.0011279	7
	25	36	3170.956	2885.546	-1257.985	1	3147.841	-23.55532	-1.086268E-006	0.0030734	7
	26	37	2527.573	2954.912	-1496.864	1	3312.417	-26.86531	-7.808634E-007	0.0032524	7
	27	38	1976.103	3040.804	-1817.413	1	3542.524	-30.86571	-2.703705E-007	0.0010213	7
	28	40	1577.524	3131.412	-2188.234	1	3820.224	-34.94589	-5.349987E-007	0.0031652	7
	29	41	1265.625	3223.578	-2615.372	1	4151.099	-39.05331	4.177436E-007	0.0003221	7
	30	42	998.264	3342.5	-3188.976	1	4619.727	-43.6535	6.747509E-007	0.0002299	7
	31	44	796.875	3478.631	-3857.838	1	5194.592	-47.95887	-2.403132E-007	0.0029412	7
	32	45	627.7902	3636.157	-4747.82	1	5980.254	-52.553	8.947566E-007	0.0011231	7
	33	47	505.5147	3829.339	-5735.131	1	6896.054	-56.26902	3.700974E-007	0.0021945	7
	34	48	397.9953	4084.105	-7083.958	1	8176.941	-60.03531	2.443421E-009	0.0017942	7
	35	49	315.5048	4397.591	-8706.843	1	9754.38	-63.20289	5.723682E-009	0.001789	7
	36	51	252.4038	4786.278	-10620.71	1	11649.37	-65.74104	-2.091245E-010	0.0017329	6
	37	52	198.6229	5322.331	-13147.89	1	14184.29	-67.96165	1.236997E-009	0.001725	6
	38	53	158.3615	5989.154	-16081.54	1	17160.59	-69.57345	1.021678E-009	0.0017255	6
	39	55	125.558	6876.312	-19757.31	1	20919.72	-70.81011	5.225744E-010	0.0017286	6
	40	56	100.4464	8020.551	-24055.65	1	25357.51	-71.56076	1.474166E-009	0.0017258	6
	41	58	79.00281	9614.85	-29582.38	1	31105.66	-71.99483	5.084752E-010	0.0017154	6
	42	59	63.3446	11749	-35578.59	1	37468.32	-71.72541	-2.737241E-012	0.0017251	6
	43	60	49.86702	14445.68	-44212.41	1	46512.52	-71.90604	4.001283E-010	0.0017147	6
	44	62	39.72458	17979.8	-53187.99	1	56144.77	-71.32256	2.837088E-010	0.001723	6
	45	63	31.6723	22583.7	-63770.15	1	67650.98	-70.49879	1.215232E-010	0.0017269	6
	46	64	24.93351	29178.98	-77094.31	1	82431.46	-69.26913	1.040689E-009	0.0017176	6
	47	66	19.86229	37016.29	-91680.57	1	98871.3	-68.01347	7.841806E-010	0.0017196	6
	48	67	15.83615	47736.55	-106812.4	1	116994.3	-65.9192	-1.081472E-010	0.0017192	5
	49	69	12.40079	60028.33	-128380.9	1	141721.7	-64.94015	9.124997E-010	0.0017338	5
	50	70	9.93114	75481.84	-147196.7	1	165421.8	-62.85144	5.557134E-010	0.0017281	5
	51	72	7.944915	92493.78	-168278	1	192022.4	-61.20466	-5.198572E-010	0.0017292	5
	52	73	6.317385	114101.9	-192562.5	1	223829.3	-59.35137	3.055193E-010	0.0017137	5
	53	75	5.008013	138102.5	-219010.4	1	258916.7	-57.76549	1.700542E-010	0.0017264	5
	54	78	3.945707	164632.9	-248743.6	1	298290.8	-56.50111	-9.043302E-012	0.0017321	5
	55	81	3.158693	191847.7	-279761.1	1	339222.3	-55.55941	2.922045E-010	0.0017353	5
	56	84	2.504006	222234.7	-316950.3	1	387099.1	-54.96317	-3.326774E-011	0.0017378	5
	57	87	1.998082	253507.1	-358198.7	1	438830.4	-54.71191	3.335599E-010	0.0016902	5
	58	90	1.584686	288227.1	-409598.1	1	500844.7	-54.86661	3.697387E-011	0.0017237	5
	59	93	1.266892	326467	-467691.8	1	570365.1	-55.08347	1.800436E-010	0.0016849	5
	60	98	0.999041	370691.9	-540964.4	1	655785.8	-55.5794	1.80341E-010	0.0017682	5
