EXPLAIN
TAG	EISPOT
TITLE	LABEL	Potentiostatic IDE	Test &Identifier
DATE	LABEL	9/14/2019	Date
TIME	LABEL	12:48:10	Time
NOTES	NOTES	1	&Notes...
	
PSTAT	PSTAT	REF600-11020	Potentiostat
VDC	POTEN	0.00000E+000	T	DC &Voltage (V)
FREQINIT	QUANT	1.00000E+006	Initial Fre&q. (Hz)
FREQFINAL	QUANT	1.00000E+000	Final Fre&q. (Hz)
PTSPERDEC	QUANT	1.00000E+001	Points/&decade
VAC	QUANT	2.50000E+001	AC &Voltage (mV rms)
AREA	QUANT	1.00000E-002	&Area (cm^2)
CONDIT	TWOPARAM	T	5.00000E+000	0.00000E+000	Conditionin&g	Time(s)	E(V)
DELAY	TWOPARAM	T	5.00000E+000	0.00000E+000	Init. De&lay	Time(s)	Stab.(mV/s)
SPEED	SELECTOR	1	&Optimize for:
ZGUESS	QUANT	1.00000E+007	E&stimated Z (ohms)
OCVCURVE	TABLE	19
	Pt	T	Vf	Vm	Ach	Over
	#	s	V vs. Ref.	V	V	bits
	0	0.258333	-1.03993E-003	-1.03993E-003	5.63666E-004	...........
	1	0.516667	-1.04943E-003	-1.53721E-003	5.71932E-004	...........
	2	0.775	-1.10817E-003	-2.03009E-003	5.67632E-004	...........
	3	1.03333	-1.27489E-003	-2.45931E-003	5.67899E-004	...........
	4	1.29167	-1.57229E-003	-2.87744E-003	5.68899E-004	...........
	5	1.55	-1.96320E-003	-3.22822E-003	5.70366E-004	...........
	6	1.80833	-2.38562E-003	-3.50967E-003	5.70366E-004	...........
	7	2.06667	-2.79246E-003	-3.90883E-003	5.70599E-004	...........
	8	2.325	-3.16873E-003	-4.26552E-003	5.65432E-004	...........
	9	2.58333	-3.52610E-003	-4.63193E-003	5.67199E-004	...........
	10	2.84167	-3.88144E-003	-5.02243E-003	5.70999E-004	...........
	11	3.1	-4.25002E-003	-5.74830E-003	5.68732E-004	...........
	12	3.35833	-4.65452E-003	-6.11718E-003	5.68632E-004	...........
	13	3.61667	-5.09795E-003	-6.04181E-003	5.68866E-004	...........
	14	3.875	-5.51885E-003	-6.01236E-003	5.69532E-004	...........
	15	4.13333	-5.83103E-003	-6.28803E-003	5.72566E-004	...........
	16	4.39167	-6.01981E-003	-6.43716E-003	5.71599E-004	...........
	17	4.65	-6.14884E-003	-6.63232E-003	5.69866E-004	...........
	18	4.90833	-6.28226E-003	-6.85712E-003	5.69566E-004	...........
EOC	QUANT	-0.0062823	Open Circuit (V)
PSTATMODEL	IQUANT	4	Pstat Model
PSTATSECTION	LABEL	REF600-11020	Pstat Section
PSTATSERIALNO	LABEL	11020	Pstat Serial Number
CTRLMODE	IQUANT	1	Control Mode
IESTAB	IQUANT	0	I/E Stability
CASPEED	IQUANT	1	Control Amp Speed
CONVENTION	IQUANT	1	Current Convention
ICHRANGE	IQUANT	2	Ich Range
ICHRANGEMODE	TOGGLE	F	Ich Auto Range
ICHOFFSETENABLE	TOGGLE	T	Ich Offset Enable
ICHOFFSET	QUANT	0	Ich Offset (V)
ICHFILTER	IQUANT	3	Ich Filter
VCHRANGE	IQUANT	2	Vch Range
VCHRANGEMODE	TOGGLE	F	Vch Auto Range
VCHOFFSETENABLE	TOGGLE	T	Vch Offset Enable
VCHOFFSET	QUANT	0	Vch Offset (V)
VCHFILTER	IQUANT	3	Vch Filter
ACHRANGE	IQUANT	2	Ach Range
ACHOFFSETENABLE	TOGGLE	F	Ach Offset Enable
ACHOFFSET	QUANT	0	Ach Offset (V)
ACHFILTER	IQUANT	3	Ach Filter
IERANGELOWERLIMIT	IQUANT	1	I/E Range Lower Limit
IERANGEMODE	TOGGLE	F	I/E AutoRange
IERANGE	IQUANT	3	I/E Range
POSFEEDENABLE	TOGGLE	F	Positive Feedback IR Comp
POSFEEDRESISTANCE	QUANT	0	Positive Feedback Resistance (ohm)
ACHSELECT	IQUANT	0	Ach Select
CABLEID	IQUANT	14	Cable ID
DCCALDATE	LABEL	8/19/2019	DC Calibration Date
ACCALDATE	LABEL	8/19/2019	AC Calibration Date
THERMOSELECT	IQUANT	1	Thermo Select
FRAMEWORKVERSION	QUANT	6.33	Framework Version
INSTRUMENTVERSION	LABEL	3.50	Instrument Version
ZCURVE	TABLE
	Pt	Time	Freq	Zreal	Zimag	Zsig	Zmod	Zphz	Idc	Vdc	IERange
	#	s	Hz	ohm	ohm	V	ohm	°	A	V	#
	0	2	1000078	2304.566	-2002.742	1	3053.195	-40.99169	-2.258745E-006	-0.0035056	8
	1	3	794390.6	2726.438	-1996.688	1	3379.383	-36.21692	3.847619E-006	-0.004939	8
	2	5	630984.4	3122.914	-1938.531	1	3675.662	-31.8297	-2.844118E-007	-0.0044799	8
	3	6	501234.4	3481.399	-1777.671	1	3908.996	-27.04976	1.255887E-006	-0.0048221	8
	4	8	398109.4	3780.949	-1635.549	1	4119.539	-23.39216	2.354888E-006	-0.0051598	8
	5	9	316265.6	4007.483	-1441.932	1	4259.001	-19.78922	1.013312E-006	-0.0049146	8
	6	10	251203.1	4231.88	-1268.714	1	4417.968	-16.68869	1.117733E-006	-0.0049451	8
	7	12	199546.9	4350.225	-1115.301	1	4490.919	-14.37965	-6.507272E-007	-0.0045737	8
	8	13	158578.1	4462.977	-974.614	1	4568.155	-12.31872	5.505483E-008	-0.0046843	8
	9	15	125953.1	4587.434	-808.9752	1	4658.217	-10.00105	-2.799196E-007	-0.0043172	7
	10	16	100078.1	4651.816	-737.5105	1	4709.917	-9.008834	-4.165333E-008	-0.0046339	7
	11	17	79453.13	4713.904	-683.677	1	4763.224	-8.252303	4.417397E-008	-0.0048236	7
	12	19	63140.62	4773.136	-648.0593	1	4816.93	-7.731896	1.327601E-008	-0.0047732	7
	13	20	50203.12	4828.154	-629.3598	1	4869	-7.426747	5.039827E-008	-0.004801	7
	14	21	39890.62	4884.205	-632.5185	1	4924.991	-7.3789	9.987063E-008	-0.0048675	7
	15	23	31640.63	4939.911	-642.1765	1	4981.477	-7.406775	-3.552124E-008	-0.0046032	7
	16	24	25171.88	4998.045	-669.4949	1	5042.686	-7.629432	-1.78829E-008	-0.0046099	7
	17	25	20015.62	5061.133	-711.2825	1	5110.87	-7.999852	-5.053892E-008	-0.0046477	7
	18	27	15890.62	5126.589	-767.0399	1	5183.654	-8.509467	1.818918E-008	-0.0047159	7
	19	28	12609.37	5202.25	-844.9796	1	5270.426	-9.225744	1.479497E-008	-0.0047081	7
	20	29	10078.13	5279.661	-931.8425	1	5361.264	-10.00943	-5.335182E-008	-0.0046326	7
	21	31	8015.625	5371.415	-1044.932	1	5472.109	-11.00858	-1.914596E-010	-0.0046239	7
	22	32	6328.125	5469.259	-1185.835	1	5596.338	-12.23341	1.843454E-008	-0.0047111	7
	23	33	5015.625	5578.098	-1352.501	1	5739.725	-13.62927	-3.358818E-008	-0.0046874	7
	24	35	3984.375	5698.775	-1547.949	1	5905.267	-15.1965	4.724E-008	-0.0048254	7
	25	36	3170.956	5832.188	-1782.289	1	6098.44	-16.9929	-3.174732E-008	-0.0046848	7
	26	38	2527.573	5977.084	-2057.062	1	6321.158	-18.99131	-4.253145E-008	-0.0046599	7
	27	39	1976.103	6154.101	-2418.243	1	6612.175	-21.45225	3.137081E-008	-0.0046817	7
	28	40	1577.524	6338.947	-2813.712	1	6935.36	-23.93533	-4.842101E-008	-0.0046505	7
	29	41	1265.625	6536.927	-3264.523	1	7306.745	-26.53742	-1.719986E-008	-0.004729	7
	30	43	998.264	6773.101	-3873.177	1	7802.333	-29.76295	4.057731E-008	-0.0046813	7
	31	44	796.875	7014.637	-4557.083	1	8364.935	-33.00991	4.644787E-008	-0.0048424	7
	32	45	627.7902	7310.107	-5446.545	1	9116.059	-36.68871	-4.015818E-008	-0.0046595	7
	33	47	505.5147	7607.524	-6424.605	1	9957.41	-40.18132	3.218469E-009	-0.0048991	6
	34	48	397.9953	7987.829	-7748.921	1	11128.84	-44.13023	1.629448E-009	-0.0047462	6
	35	49	315.5048	8405.509	-9333.933	1	12560.85	-47.99594	1.869861E-009	-0.0047461	6
	36	51	252.4038	8875.383	-11195.87	1	14287.05	-51.59482	7.82456E-010	-0.0047487	6
	37	52	198.6229	9466.641	-13654.11	1	16614.81	-55.26573	9.119597E-010	-0.0047452	6
	38	53	158.3615	10133.06	-16512.72	1	19373.92	-58.46456	7.209666E-010	-0.0047439	6
	39	55	125.558	10972.04	-20102.97	1	22902.29	-61.37466	1.315026E-009	-0.004745	6
	40	56	100.4464	11922.02	-24300.49	1	27067.48	-63.86705	6.385574E-010	-0.0047501	6
	41	58	79.00281	13226.15	-29836.04	1	32636.18	-66.09256	4.316455E-010	-0.0047536	6
	42	59	63.3446	14500.63	-36453.93	1	39232.1	-68.30835	1.19648E-009	-0.0047532	6
	43	60	49.86702	17043.53	-44174.9	1	47348.75	-68.90242	1.511989E-009	-0.0047566	6
	44	62	39.72458	19499.45	-54155.32	1	57558.9	-70.19781	1.149054E-009	-0.0047485	6
	45	63	31.6723	22892.37	-65636.21	1	69513.84	-70.77242	7.723861E-010	-0.0047534	6
	46	65	24.93351	27619.39	-80538.11	1	85142.34	-71.07133	1.217524E-009	-0.0047504	6
	47	66	19.86229	33466.8	-97363.6	1	102954.8	-71.0306	9.237294E-010	-0.0047566	6
	48	67	15.83615	42118.39	-117237.9	1	124574	-70.23888	-5.649241E-010	-0.0047483	5
	49	69	12.40079	52676.05	-143231.8	1	152611	-69.80811	1.680704E-009	-0.0047516	5
	50	70	9.93114	64349.43	-170523	1	182260.7	-69.32525	1.072609E-009	-0.004751	5
	51	72	7.944915	80562.77	-202971.9	1	218375.7	-68.35108	-1.359165E-010	-0.004738	5
	52	73	6.317385	101277.7	-240272.6	1	260745.3	-67.14402	4.415675E-010	-0.0047298	5
	53	75	5.008013	127783.9	-283748.1	1	311194	-65.75594	6.411408E-010	-0.004734	5
	54	78	3.945707	161551.9	-335299.6	1	372189.3	-64.2746	1.856748E-010	-0.0047488	5
	55	80	3.158693	200719.5	-388254.8	1	437070	-62.66199	3.855194E-010	-0.0047485	5
	56	84	2.504006	249484.1	-449082.9	1	513729.3	-60.94602	3.670921E-010	-0.0047368	5
	57	86	1.998082	305244.6	-513553.2	1	597420.4	-59.27369	6.826799E-010	-0.0047357	5
	58	89	1.584686	373623.4	-583029	1	692471.9	-57.34697	3.928083E-010	-0.0047893	5
	59	93	1.266892	448197.8	-657540.1	1	795764	-55.72056	5.124922E-010	-0.0047204	5
	60	97	0.999041	538475.1	-739265.1	1	914586.4	-53.93069	1.260655E-010	-0.0047888	5
