EXPLAIN
TAG	EISPOT
TITLE	LABEL	Potentiostatic EIS	Test &Identifier
DATE	LABEL	11/9/2019	Date
TIME	LABEL	9:38:18	Time
NOTES	NOTES	2	&Notes...
	
	
PSTAT	PSTAT	REF600-11020	Potentiostat
VDC	POTEN	0.00000E+000	T	DC &Voltage (V)
FREQINIT	QUANT	1.00000E+006	Initial Fre&q. (Hz)
FREQFINAL	QUANT	1.00000E+000	Final Fre&q. (Hz)
PTSPERDEC	QUANT	1.00000E+001	Points/&decade
VAC	QUANT	2.50000E+001	AC &Voltage (mV rms)
AREA	QUANT	1.00000E-002	&Area (cm^2)
CONDIT	TWOPARAM	T	5.00000E+000	0.00000E+000	Conditionin&g	Time(s)	E(V)
DELAY	TWOPARAM	T	5.00000E+000	0.00000E+000	Init. De&lay	Time(s)	Stab.(mV/s)
SPEED	SELECTOR	0	&Optimize for:
ZGUESS	QUANT	1.00000E+005	E&stimated Z (ohms)
OCVCURVE	TABLE	19
	Pt	T	Vf	Vm	Ach	Over
	#	s	V vs. Ref.	V	V	bits
	0	0.258333	3.54487E-003	3.54487E-003	5.69199E-004	...........
	1	0.516667	3.53976E-003	3.27710E-003	5.67399E-004	...........
	2	0.775	3.50776E-003	2.99239E-003	5.70732E-004	...........
	3	1.03333	3.41824E-003	2.87495E-003	5.69932E-004	...........
	4	1.29167	3.26930E-003	2.86821E-003	5.66466E-004	...........
	5	1.55	3.09774E-003	2.55275E-003	5.66299E-004	...........
	6	1.80833	2.93253E-003	2.36900E-003	5.69399E-004	...........
	7	2.06667	2.76896E-003	2.30357E-003	5.75465E-004	...........
	8	2.325	2.60590E-003	2.38074E-003	5.73466E-004	...........
	9	2.58333	2.46519E-003	2.06914E-003	5.68399E-004	...........
	10	2.84167	2.35250E-003	1.93204E-003	5.70732E-004	...........
	11	3.1	2.24200E-003	1.86972E-003	5.73599E-004	...........
	12	3.35833	2.11772E-003	1.76588E-003	5.69332E-004	...........
	13	3.61667	1.99229E-003	1.71193E-003	5.65266E-004	...........
	14	3.875	1.88147E-003	1.60951E-003	5.65332E-004	...........
	15	4.13333	1.78777E-003	1.56929E-003	5.63266E-004	...........
	16	4.39167	1.70600E-003	1.46400E-003	5.64999E-004	...........
	17	4.65	1.63150E-003	1.47255E-003	5.65632E-004	...........
	18	4.90833	1.56359E-003	1.37495E-003	5.64432E-004	...........
EOC	QUANT	0.0015636	Open Circuit (V)
PSTATMODEL	IQUANT	4	Pstat Model
PSTATSECTION	LABEL	REF600-11020	Pstat Section
PSTATSERIALNO	LABEL	11020	Pstat Serial Number
CTRLMODE	IQUANT	1	Control Mode
IESTAB	IQUANT	0	I/E Stability
CASPEED	IQUANT	1	Control Amp Speed
CONVENTION	IQUANT	1	Current Convention
ICHRANGE	IQUANT	2	Ich Range
ICHRANGEMODE	TOGGLE	F	Ich Auto Range
ICHOFFSETENABLE	TOGGLE	T	Ich Offset Enable
ICHOFFSET	QUANT	0	Ich Offset (V)
ICHFILTER	IQUANT	3	Ich Filter
VCHRANGE	IQUANT	2	Vch Range
VCHRANGEMODE	TOGGLE	F	Vch Auto Range
VCHOFFSETENABLE	TOGGLE	T	Vch Offset Enable
VCHOFFSET	QUANT	0	Vch Offset (V)
VCHFILTER	IQUANT	3	Vch Filter
ACHRANGE	IQUANT	2	Ach Range
ACHOFFSETENABLE	TOGGLE	F	Ach Offset Enable
ACHOFFSET	QUANT	0	Ach Offset (V)
ACHFILTER	IQUANT	3	Ach Filter
IERANGELOWERLIMIT	IQUANT	1	I/E Range Lower Limit
IERANGEMODE	TOGGLE	F	I/E AutoRange
IERANGE	IQUANT	4	I/E Range
POSFEEDENABLE	TOGGLE	F	Positive Feedback IR Comp
POSFEEDRESISTANCE	QUANT	0	Positive Feedback Resistance (ohm)
ACHSELECT	IQUANT	0	Ach Select
CABLEID	IQUANT	14	Cable ID
DCCALDATE	LABEL	8/19/2019	DC Calibration Date
ACCALDATE	LABEL	8/19/2019	AC Calibration Date
THERMOSELECT	IQUANT	1	Thermo Select
FRAMEWORKVERSION	QUANT	6.33	Framework Version
INSTRUMENTVERSION	LABEL	3.50	Instrument Version
ZCURVE	TABLE
	Pt	Time	Freq	Zreal	Zimag	Zsig	Zmod	Zphz	Idc	Vdc	IERange
	#	s	Hz	ohm	ohm	V	ohm	°	A	V	#
	0	1	1000078	2240.4	-1652.568	1	2783.949	-36.41329	1.15921E-005	0.0016124	8
	1	1	794390.6	2588.178	-1661.303	1	3075.483	-32.69564	5.622905E-006	0.0022074	8
	2	2	630984.4	2898.348	-1594.354	1	3307.928	-28.81478	-7.870129E-006	0.0037633	8
	3	2	501234.4	3169.354	-1509.003	1	3510.256	-25.46019	2.081696E-007	0.0027718	8
	4	2	398109.4	3438.608	-1403.871	1	3714.146	-22.20859	7.763346E-006	0.0016639	8
	5	3	316265.6	3644.103	-1262.474	1	3856.595	-19.10829	-7.944195E-007	0.0027527	8
	6	3	251203.1	3818.192	-1131.049	1	3982.193	-16.50068	-1.900304E-006	0.002815	8
	7	3	199546.9	3942.806	-1029.768	1	4075.063	-14.63733	-5.030949E-008	0.0027196	8
	8	3	158578.1	4061.935	-879.1495	1	4155.986	-12.21251	-1.734875E-006	0.0036046	8
	9	4	125953.1	4186.017	-740.2274	1	4250.961	-10.02814	-3.947107E-006	0.0080369	7
	10	4	100078.1	4268.943	-670.4767	1	4321.275	-8.925911	-3.761942E-007	0.0019471	7
	11	4	79453.13	4322.35	-614.2147	1	4365.772	-8.087699	-9.219983E-007	0.0028348	7
	12	5	63140.62	4394.537	-575.3113	1	4432.036	-7.458467	1.292879E-006	0.0021546	7
	13	5	50203.12	4443.199	-561.4667	1	4478.534	-7.202033	6.289959E-007	0.0009168	7
	14	5	39890.62	4489.389	-543.9399	1	4522.221	-6.908354	-1.405383E-006	0.0051207	7
	15	6	31640.63	4526.295	-548.6614	1	4559.428	-6.911471	-1.561617E-006	0.0044189	7
	16	6	25171.88	4575.458	-565.8427	1	4610.314	-7.04992	-1.330202E-006	0.0036895	7
	17	6	20015.62	4622.172	-593.0322	1	4660.06	-7.3112	-1.583321E-006	0.0049153	7
	18	6	15890.62	4677.389	-642.4598	1	4721.305	-7.820887	-1.328119E-006	0.0036894	7
	19	7	12609.37	4725.986	-698.4005	1	4777.312	-8.40626	-3.822029E-007	0.0048035	7
	20	7	10078.13	4780.484	-783.1443	1	4844.207	-9.303618	-1.405567E-006	0.0051097	7
	21	7	8015.625	4824.771	-882.4665	1	4904.81	-10.36502	-8.072749E-007	0.0050991	7
	22	8	6328.125	4914.871	-1020.476	1	5019.694	-11.72968	1.400992E-006	0.0016084	7
	23	8	5015.625	4963.446	-1176.968	1	5101.083	-13.33999	-1.555936E-006	0.0044154	7
	24	8	3984.375	5061.702	-1372.047	1	5244.363	-15.1664	7.758362E-007	0.0033222	7
	25	9	3170.956	5150.504	-1616.803	1	5398.31	-17.42768	1.05676E-006	0.002783	7
	26	9	2527.573	5237.47	-1902.183	1	5572.198	-19.96038	-7.937371E-007	0.0050795	7
	27	9	1976.103	5351.903	-2311.645	1	5829.8	-23.36094	7.806384E-007	0.0033149	7
	28	9	1577.524	5477.562	-2763.904	1	6135.377	-26.77489	6.378111E-007	0.0008992	7
	29	10	1265.625	5612.337	-3291.163	1	6506.157	-30.38803	-1.406103E-006	0.0051104	7
	30	10	998.264	5777.753	-4001.229	1	7027.963	-34.70351	-1.331064E-006	0.0036795	7
	31	10	796.875	5992.823	-4809.216	1	7683.911	-38.7469	-1.563952E-006	0.0044176	7
	32	11	627.7902	6280.694	-5842.29	1	8577.848	-42.92891	-9.289118E-007	0.0028132	7
	33	11	505.5147	6580.491	-7020.029	1	9622.04	-46.85103	7.557966E-008	0.004295	7
	34	11	397.9953	6954.56	-8596.661	1	11057.51	-51.0277	2.22883E-009	0.0030056	6
	35	12	315.5048	7417.782	-10467.32	1	12829.19	-54.67627	-6.996739E-010	0.0030069	6
	36	12	252.4038	7966.696	-12665.51	1	14962.73	-57.82981	-6.493671E-010	0.0029991	6
	37	12	198.6229	8707.105	-15545.79	1	17818.12	-60.74707	1.054357E-009	0.0030028	6
	38	13	158.3615	9609.09	-18912.42	1	21213.54	-63.06563	1.936519E-009	0.0029976	6
	39	13	125.558	10824.44	-23080.86	1	25493.03	-64.87441	1.34332E-009	0.0030041	6
	40	13	100.4464	12354.89	-27852.61	1	30469.84	-66.07883	-1.158106E-009	0.0030033	6
	41	13	79.00281	14464.84	-34432.43	1	37347.34	-67.21304	3.433534E-010	0.0029962	6
	42	14	63.3446	16234.11	-41549.69	1	44608.55	-68.65864	-1.216953E-009	0.0030029	6
	43	14	49.86702	20191.27	-49877.21	1	53809.14	-67.96094	-1.466905E-009	0.0030014	6
	44	15	39.72458	25752.58	-59736.23	1	65050.85	-66.67889	-5.132675E-010	0.0029922	6
	45	15	31.6723	31961.95	-70530.97	1	77435.03	-65.62177	7.237446E-010	0.002997	6
	46	15	24.93351	40459.78	-84109.7	1	93335.07	-64.31078	4.420513E-010	0.002994	6
	47	15	19.86229	50331.11	-98447.6	1	110567.4	-62.92171	1.689381E-009	0.0029886	5
	48	16	15.83615	59189.2	-113937	1	128394	-62.54856	-1.943256E-009	0.0029974	5
	49	16	12.40079	76669.74	-131678.9	1	152373.2	-59.79	-1.092445E-009	0.0029995	5
	50	16	9.93114	93087.46	-148852.4	1	175562.8	-57.97947	-7.967318E-010	0.0029879	5
	51	17	7.944915	112864	-167898.7	1	202307.4	-56.09041	1.698043E-010	0.0030011	5
	52	18	6.317385	132102.9	-189748.4	1	231204.8	-55.15435	-2.911994E-010	0.0029995	5
	53	18	5.008013	155245.3	-213349.3	1	263854.2	-53.9582	4.898125E-011	0.0030126	5
	54	19	3.945707	180974.6	-241571.1	1	301841.7	-53.16103	-2.38153E-010	0.002998	5
	55	21	3.158693	205777.1	-269859.6	1	339364.7	-52.67325	7.853863E-011	0.0029767	5
	56	22	2.504006	234385.6	-305201.8	1	384817.8	-52.47685	2.647741E-010	0.0029855	5
	57	24	1.998082	263111.1	-344893.2	1	433795.8	-52.66082	1.591684E-010	0.0029896	5
	58	25	1.584686	296591.3	-393009.7	1	492364.8	-52.95937	3.852571E-011	0.0029506	5
	59	27	1.266892	331712.7	-449861.3	1	558935.1	-53.59617	2.597311E-011	0.0029437	5
	60	30	0.999041	372402.8	-522236.3	1	641416.1	-54.50761	1.788391E-011	0.0029471	5
