EXPLAIN
TAG	EISPOT
TITLE	LABEL	Potentiostatic EIS	Test &Identifier
DATE	LABEL	10/18/2019	Date
TIME	LABEL	9:14:17	Time
NOTES	NOTES	1	&Notes...
	
PSTAT	PSTAT	REF600-11020	Potentiostat
VDC	POTEN	0.00000E+000	T	DC &Voltage (V)
FREQINIT	QUANT	1.00000E+006	Initial Fre&q. (Hz)
FREQFINAL	QUANT	1.00000E+000	Final Fre&q. (Hz)
PTSPERDEC	QUANT	1.00000E+001	Points/&decade
VAC	QUANT	2.50000E+001	AC &Voltage (mV rms)
AREA	QUANT	1.00000E-002	&Area (cm^2)
CONDIT	TWOPARAM	T	5.00000E+000	0.00000E+000	Conditionin&g	Time(s)	E(V)
DELAY	TWOPARAM	T	5.00000E+000	0.00000E+000	Init. De&lay	Time(s)	Stab.(mV/s)
SPEED	SELECTOR	0	&Optimize for:
ZGUESS	QUANT	1.00000E+005	E&stimated Z (ohms)
OCVCURVE	TABLE	19
	Pt	T	Vf	Vm	Ach	Over
	#	s	V vs. Ref.	V	V	bits
	0	0.258333	6.78800E-003	6.78800E-003	5.40433E-004	...........
	1	0.516667	6.79302E-003	7.05092E-003	5.43299E-004	...........
	2	0.775	6.82061E-003	7.13001E-003	5.47333E-004	...........
	3	1.03333	6.89110E-003	7.37476E-003	5.44333E-004	...........
	4	1.29167	7.00691E-003	7.42934E-003	5.45099E-004	...........
	5	1.55	7.14816E-003	7.48862E-003	5.44266E-004	...........
	6	1.80833	7.28622E-003	7.61446E-003	5.45599E-004	...........
	7	2.06667	7.40222E-003	7.58478E-003	5.41566E-004	...........
	8	2.325	7.49115E-003	7.61503E-003	5.40699E-004	...........
	9	2.58333	7.55343E-003	7.66822E-003	5.38999E-004	...........
	10	2.84167	7.59487E-003	7.67189E-003	5.41299E-004	...........
	11	3.1	7.62518E-003	7.68586E-003	5.44433E-004	...........
	12	3.35833	7.65017E-003	7.72289E-003	5.49333E-004	...........
	13	3.61667	7.67275E-003	7.76873E-003	5.43999E-004	...........
	14	3.875	7.69690E-003	7.78019E-003	5.44266E-004	...........
	15	4.13333	7.72501E-003	7.83576E-003	5.44599E-004	...........
	16	4.39167	7.75562E-003	7.81807E-003	5.45433E-004	...........
	17	4.65	7.78322E-003	7.76051E-003	5.39066E-004	...........
	18	4.90833	7.80030E-003	7.84878E-003	5.43599E-004	...........
EOC	QUANT	0.0078003	Open Circuit (V)
PSTATMODEL	IQUANT	4	Pstat Model
PSTATSECTION	LABEL	REF600-11020	Pstat Section
PSTATSERIALNO	LABEL	11020	Pstat Serial Number
CTRLMODE	IQUANT	1	Control Mode
IESTAB	IQUANT	0	I/E Stability
CASPEED	IQUANT	1	Control Amp Speed
CONVENTION	IQUANT	1	Current Convention
ICHRANGE	IQUANT	2	Ich Range
ICHRANGEMODE	TOGGLE	F	Ich Auto Range
ICHOFFSETENABLE	TOGGLE	T	Ich Offset Enable
ICHOFFSET	QUANT	0	Ich Offset (V)
ICHFILTER	IQUANT	3	Ich Filter
VCHRANGE	IQUANT	2	Vch Range
VCHRANGEMODE	TOGGLE	F	Vch Auto Range
VCHOFFSETENABLE	TOGGLE	T	Vch Offset Enable
VCHOFFSET	QUANT	0	Vch Offset (V)
VCHFILTER	IQUANT	3	Vch Filter
ACHRANGE	IQUANT	2	Ach Range
ACHOFFSETENABLE	TOGGLE	F	Ach Offset Enable
ACHOFFSET	QUANT	0	Ach Offset (V)
ACHFILTER	IQUANT	3	Ach Filter
IERANGELOWERLIMIT	IQUANT	1	I/E Range Lower Limit
IERANGEMODE	TOGGLE	F	I/E AutoRange
IERANGE	IQUANT	5	I/E Range
POSFEEDENABLE	TOGGLE	F	Positive Feedback IR Comp
POSFEEDRESISTANCE	QUANT	0	Positive Feedback Resistance (ohm)
ACHSELECT	IQUANT	0	Ach Select
CABLEID	IQUANT	14	Cable ID
DCCALDATE	LABEL	8/19/2019	DC Calibration Date
ACCALDATE	LABEL	8/19/2019	AC Calibration Date
THERMOSELECT	IQUANT	1	Thermo Select
FRAMEWORKVERSION	QUANT	6.33	Framework Version
INSTRUMENTVERSION	LABEL	3.50	Instrument Version
ZCURVE	TABLE
	Pt	Time	Freq	Zreal	Zimag	Zsig	Zmod	Zphz	Idc	Vdc	IERange
	#	s	Hz	ohm	ohm	V	ohm	°	A	V	#
	0	1	1000078	2126.193	-788.7912	1	2267.794	-20.35423	2.27212E-006	0.0095395	8
	1	2	794390.6	2235.027	-700.0103	1	2342.085	-17.39055	3.305698E-006	0.0087162	8
	2	2	630984.4	2323.464	-597.1084	1	2398.963	-14.41259	-4.119318E-006	0.0101704	8
	3	2	501234.4	2387.445	-514.0762	1	2442.165	-12.15167	-6.935167E-007	0.0096373	8
	4	3	398109.4	2436.217	-447.1729	1	2476.916	-10.40099	6.920901E-007	0.0093356	8
	5	3	316265.6	2474.819	-386.3512	1	2504.794	-8.872993	-3.087408E-006	0.0098801	8
	6	3	251203.1	2506.584	-337.8436	1	2529.249	-7.676209	2.503706E-007	0.009374	8
	7	4	199546.9	2530.268	-308.6079	1	2549.018	-6.953822	3.790851E-006	0.0087454	8
	8	4	158578.1	2552.762	-278.3115	1	2567.888	-6.222022	-1.248714E-006	0.0096267	8
	9	4	125953.1	2593.762	-224.3993	1	2603.451	-4.944633	-1.027016E-006	0.011636	7
	10	5	100078.1	2604.872	-219.6904	1	2614.12	-4.820817	-2.173514E-008	0.0093808	7
	11	5	79453.13	2623.047	-227.8429	1	2632.924	-4.964361	-5.333484E-008	0.0093988	7
	12	5	63140.62	2643.522	-240.9237	1	2654.478	-5.207402	-7.89419E-009	0.0093737	7
	13	6	50203.12	2667.587	-258.2268	1	2680.056	-5.529098	-3.333675E-008	0.0093297	7
	14	6	39890.62	2693.293	-279.3648	1	2707.743	-5.921892	-9.706866E-009	0.0093682	7
	15	6	31640.63	2721.787	-306.257	1	2738.963	-6.419949	-9.200501E-009	0.0093686	7
	16	6	25171.88	2752.607	-338.6844	1	2773.365	-7.014493	-6.428272E-009	0.0093288	7
	17	7	20015.62	2776.594	-373.6006	1	2801.616	-7.663326	-5.251502E-009	0.0093263	7
	18	7	15890.62	2820.732	-424.8787	1	2852.552	-8.565903	-3.361476E-008	0.0093252	7
	19	7	12609.37	2861.336	-481.5625	1	2901.576	-9.55335	-5.707845E-009	0.0093302	7
	20	8	10078.13	2898.669	-547.4846	1	2949.919	-10.69571	8.481625E-009	0.0092525	7
	21	8	8015.625	2937.469	-636.0425	1	3005.54	-12.2175	1.110292E-009	0.009412	7
	22	8	6328.125	2989.301	-733.4594	1	3077.968	-13.78584	3.573534E-008	0.0092797	7
	23	9	5015.625	3040.598	-859.4785	1	3159.737	-15.78388	-5.632253E-008	0.0094955	7
	24	9	3984.375	3092.468	-1025.306	1	3258.007	-18.34291	-5.299238E-008	0.0093867	7
	25	9	3170.956	3156.722	-1196.183	1	3375.759	-20.75331	8.032578E-008	0.0092593	7
	26	10	2527.573	3223.44	-1420.378	1	3522.504	-23.78023	-3.358346E-008	0.0093931	7
	27	10	1976.103	3303.425	-1721.425	1	3725.039	-27.52416	1.116691E-007	0.009155	7
	28	10	1577.524	3379.965	-2036.57	1	3946.109	-31.07072	-5.19684E-009	0.0093235	7
	29	11	1265.625	3478.659	-2465.148	1	4263.569	-35.32325	6.155761E-008	0.0092163	7
	30	11	998.264	3590.363	-3004.55	1	4681.669	-39.92385	3.320164E-008	0.0092805	7
	31	11	796.875	3715.03	-3641.307	1	5201.977	-44.42582	-5.744145E-008	0.0094922	7
	32	12	627.7902	3875.325	-4479.965	1	5923.532	-49.13906	-2.169126E-008	0.0093603	7
	33	12	505.5147	4050.422	-5412.982	1	6760.643	-53.19326	-3.679277E-009	0.009325	7
	34	12	397.9953	4300.958	-6679.408	1	7944.352	-57.22199	2.457477E-009	0.0093357	7
	35	13	315.5048	4607.619	-8205.905	1	9411.006	-60.68578	1.417637E-009	0.0093346	7
	36	13	252.4038	4988.618	-10004.52	1	11179.3	-63.49749	-3.593451E-010	0.0092727	6
	37	13	198.6229	5518.197	-12371.42	1	13546.31	-65.96104	6.927192E-011	0.0092742	6
	38	14	158.3615	6166.038	-15109.96	1	16319.65	-67.80072	8.164816E-012	0.0092716	6
	39	14	125.558	7050.214	-18517.69	1	19814.39	-69.15674	1.725304E-010	0.0092712	6
	40	14	100.4464	8201.508	-22507.85	1	23955.54	-69.97905	1.503462E-010	0.009273	6
	41	15	79.00281	9751.59	-27735.39	1	29399.75	-70.62864	-1.167516E-009	0.0092719	6
	42	15	63.3446	11380.47	-32914.79	1	34826.69	-70.9269	2.435435E-010	0.0092693	6
	43	15	49.86702	14251.97	-40347.79	1	42790.91	-70.54536	6.290634E-010	0.0092612	6
	44	16	39.72458	17520.48	-49065.3	1	52099.63	-70.34911	7.085683E-010	0.0092677	6
	45	16	31.6723	21878.79	-59101.34	1	63021.03	-69.6859	1.342658E-009	0.0092619	6
	46	16	24.93351	27757.1	-70801.55	1	76048.12	-68.59279	-8.298418E-011	0.0092586	6
	47	17	19.86229	34597.39	-84159.91	1	90993.8	-67.65287	-8.748997E-010	0.0092557	6
	48	17	15.83615	44781.73	-99100.8	1	108749.1	-65.68272	2.961265E-009	0.0092622	5
	49	17	12.40079	56023.52	-117048.2	1	129764.9	-64.42254	-1.552097E-009	0.0092717	5
	50	18	9.93114	68238.65	-135962.2	1	152125.7	-63.34819	4.384325E-010	0.0092694	5
	51	18	7.944915	83658.32	-156591.4	1	177537.5	-61.88681	3.462635E-010	0.0092628	5
	52	19	6.317385	101286.5	-180599.1	1	207062.8	-60.71472	6.563468E-010	0.0092546	5
	53	19	5.008013	122929.7	-207724	1	241373.1	-59.38324	2.268352E-010	0.009265	5
	54	21	3.945707	147565.3	-238210.6	1	280213.9	-58.22285	4.109121E-011	0.0092696	5
	55	22	3.158693	173820.2	-270819.6	1	321802.3	-57.30643	-3.27637E-010	0.0092536	5
	56	24	2.504006	203946.4	-308238.9	1	369601.6	-56.50937	-2.798445E-011	0.0092531	5
	57	25	1.998082	235861.7	-350569.3	1	422527.6	-56.06748	6.279578E-011	0.0092838	5
	58	26	1.584686	272585.8	-399269.8	1	483445.3	-55.67822	-1.173019E-010	0.0092312	5
	59	28	1.266892	313066.7	-455611.6	1	552804.4	-55.50568	-1.49604E-010	0.0092102	5
	60	31	0.999041	359629.9	-525870.2	1	637081.7	-55.63272	-1.868723E-010	0.0092174	5
