EXPLAIN
TAG	EISPOT
TITLE	LABEL	Potentiostatic EIS	Test &Identifier
DATE	LABEL	9/24/2019	Date
TIME	LABEL	10:20:41	Time
NOTES	NOTES	1	&Notes...
	
PSTAT	PSTAT	REF600-11020	Potentiostat
VDC	POTEN	0.00000E+000	T	DC &Voltage (V)
FREQINIT	QUANT	1.00000E+006	Initial Fre&q. (Hz)
FREQFINAL	QUANT	1.00000E+000	Final Fre&q. (Hz)
PTSPERDEC	QUANT	1.00000E+001	Points/&decade
VAC	QUANT	2.50000E+001	AC &Voltage (mV rms)
AREA	QUANT	1.00000E-002	&Area (cm^2)
CONDIT	TWOPARAM	T	5.00000E+000	0.00000E+000	Conditionin&g	Time(s)	E(V)
DELAY	TWOPARAM	T	5.00000E+000	0.00000E+000	Init. De&lay	Time(s)	Stab.(mV/s)
SPEED	SELECTOR	1	&Optimize for:
ZGUESS	QUANT	1.00000E+004	E&stimated Z (ohms)
OCVCURVE	TABLE	19
	Pt	T	Vf	Vm	Ach	Over
	#	s	V vs. Ref.	V	V	bits
	0	0.258333	2.86323E-003	2.86323E-003	5.80399E-004	...........
	1	0.516667	2.85742E-003	2.55909E-003	5.75666E-004	...........
	2	0.775	2.82238E-003	2.30420E-003	5.78266E-004	...........
	3	1.03333	2.72559E-003	2.07066E-003	5.81332E-004	...........
	4	1.29167	2.55731E-003	1.83966E-003	5.73999E-004	...........
	5	1.55	2.34046E-003	1.64890E-003	5.75932E-004	...........
	6	1.80833	2.10792E-003	1.45306E-003	5.75666E-004	...........
	7	2.06667	1.88237E-003	1.28051E-003	5.76566E-004	...........
	8	2.325	1.67281E-003	1.11372E-003	5.78666E-004	...........
	9	2.58333	1.47970E-003	9.57524E-004	5.74066E-004	...........
	10	2.84167	1.30068E-003	8.09094E-004	5.74699E-004	...........
	11	3.1	1.13308E-003	6.61281E-004	5.73299E-004	...........
	12	3.35833	9.74498E-004	5.23107E-004	5.76999E-004	...........
	13	3.61667	8.22995E-004	3.87031E-004	5.75232E-004	...........
	14	3.875	6.77638E-004	2.73303E-004	5.75499E-004	...........
	15	4.13333	5.38807E-004	1.47930E-004	5.74966E-004	...........
	16	4.39167	4.06801E-004	2.18516E-005	5.73199E-004	...........
	17	4.65	2.80176E-004	-9.30827E-005	5.71766E-004	...........
	18	4.90833	1.57104E-004	-1.94041E-004	5.76499E-004	...........
EOC	QUANT	0.0001571	Open Circuit (V)
PSTATMODEL	IQUANT	4	Pstat Model
PSTATSECTION	LABEL	REF600-11020	Pstat Section
PSTATSERIALNO	LABEL	11020	Pstat Serial Number
CTRLMODE	IQUANT	1	Control Mode
IESTAB	IQUANT	0	I/E Stability
CASPEED	IQUANT	1	Control Amp Speed
CONVENTION	IQUANT	1	Current Convention
ICHRANGE	IQUANT	2	Ich Range
ICHRANGEMODE	TOGGLE	F	Ich Auto Range
ICHOFFSETENABLE	TOGGLE	T	Ich Offset Enable
ICHOFFSET	QUANT	0	Ich Offset (V)
ICHFILTER	IQUANT	3	Ich Filter
VCHRANGE	IQUANT	2	Vch Range
VCHRANGEMODE	TOGGLE	F	Vch Auto Range
VCHOFFSETENABLE	TOGGLE	T	Vch Offset Enable
VCHOFFSET	QUANT	0	Vch Offset (V)
VCHFILTER	IQUANT	3	Vch Filter
ACHRANGE	IQUANT	2	Ach Range
ACHOFFSETENABLE	TOGGLE	F	Ach Offset Enable
ACHOFFSET	QUANT	0	Ach Offset (V)
ACHFILTER	IQUANT	3	Ach Filter
IERANGELOWERLIMIT	IQUANT	1	I/E Range Lower Limit
IERANGEMODE	TOGGLE	F	I/E AutoRange
IERANGE	IQUANT	4	I/E Range
POSFEEDENABLE	TOGGLE	F	Positive Feedback IR Comp
POSFEEDRESISTANCE	QUANT	0	Positive Feedback Resistance (ohm)
ACHSELECT	IQUANT	0	Ach Select
CABLEID	IQUANT	14	Cable ID
DCCALDATE	LABEL	8/19/2019	DC Calibration Date
ACCALDATE	LABEL	8/19/2019	AC Calibration Date
THERMOSELECT	IQUANT	1	Thermo Select
FRAMEWORKVERSION	QUANT	6.33	Framework Version
INSTRUMENTVERSION	LABEL	3.50	Instrument Version
ZCURVE	TABLE
	Pt	Time	Freq	Zreal	Zimag	Zsig	Zmod	Zphz	Idc	Vdc	IERange
	#	s	Hz	ohm	ohm	V	ohm	°	A	V	#
	0	1	1000078	2126.96	-2070.204	1	2968.115	-44.22527	5.696889E-006	0.0014584	8
	1	3	794390.6	2549.832	-2130.555	1	3322.786	-39.88102	-4.323192E-008	0.0017011	8
	2	4	630984.4	2956.714	-2165.826	1	3665.1	-36.22319	-4.862964E-006	0.003299	8
	3	6	501234.4	3399.394	-2097.189	1	3994.256	-31.6717	4.652627E-006	0.0012794	8
	4	7	398109.4	3776.701	-1974.638	1	4261.768	-27.6027	9.931134E-007	0.001657	8
	5	9	316265.6	4124.909	-1845.532	1	4518.945	-24.10429	2.204213E-006	0.0014437	8
	6	10	251203.1	4415.769	-1677.105	1	4723.526	-20.79674	2.764623E-006	0.0013248	8
	7	12	199546.9	4638.777	-1472.523	1	4866.886	-17.61141	2.745117E-006	0.0013193	8
	8	13	158578.1	4857.337	-1300.777	1	5028.493	-14.99183	-6.210122E-007	0.0021612	8
	9	15	125953.1	5029.185	-1081.754	1	5144.209	-12.1391	4.932023E-007	0.0008336	7
	10	16	100078.1	5130.229	-956.612	1	5218.654	-10.5624	-2.112085E-008	0.0018307	7
	11	18	79453.13	5222.078	-853.3612	1	5291.344	-9.280906	-3.002752E-009	0.0018824	7
	12	19	63140.62	5295.739	-770.2414	1	5351.46	-8.275385	-4.65509E-008	0.0019365	7
	13	20	50203.12	5358.605	-706.1693	1	5404.936	-7.50731	4.203774E-008	0.0017876	7
	14	22	39890.62	5413.434	-663.2286	1	5453.91	-6.984803	-3.419608E-008	0.0018745	7
	15	23	31640.63	5466.87	-637.5032	1	5503.915	-6.65134	-3.501495E-008	0.0018544	7
	16	25	25171.88	5517.99	-632.4161	1	5554.113	-6.538134	1.337268E-007	0.0016424	7
	17	26	20015.62	5566.758	-640.6877	1	5603.505	-6.565383	8.053675E-008	0.0016736	7
	18	27	15890.62	5617.054	-670.5303	1	5656.934	-6.807415	-1.374642E-008	0.0018961	7
	19	29	12609.37	5668.75	-711.995	1	5713.288	-7.158863	7.302164E-008	0.0017238	7
	20	30	10078.13	5718.583	-775.8131	1	5770.969	-7.725879	8.69626E-008	0.0017887	7
	21	31	8015.625	5775.73	-861.2267	1	5839.586	-8.480962	4.319103E-008	0.0017025	7
	22	33	6328.125	5838.896	-974.991	1	5919.74	-9.4799	8.30949E-008	0.0016658	7
	23	34	5015.625	5905.825	-1119.63	1	6011.019	-10.73478	-8.880127E-009	0.0017884	7
	24	36	3984.375	5978.322	-1298.175	1	6117.646	-12.25141	-1.890293E-009	0.0018759	7
	25	37	3170.956	6058.632	-1516.659	1	6245.58	-14.05405	-1.958551E-008	0.0018187	7
	26	39	2527.573	6150.856	-1785.127	1	6404.663	-16.184	-4.484412E-008	0.0019335	7
	27	40	1976.103	6268.688	-2140.911	1	6624.194	-18.8563	8.139341E-008	0.0016621	7
	28	41	1577.524	6394.089	-2545.294	1	6882.071	-21.70601	4.499785E-008	0.0017813	7
	29	43	1265.625	6558.906	-3024.217	1	7222.543	-24.75374	4.521209E-008	0.0017778	7
	30	44	998.264	6713.811	-3645.89	1	7639.88	-28.50387	6.942793E-008	0.0017202	7
	31	45	796.875	6912.488	-4365.891	1	8175.787	-32.27629	6.927535E-008	0.0017286	7
	32	47	627.7902	7162.714	-5291.871	1	8905.524	-36.45729	-4.370674E-008	0.001934	7
	33	48	505.5147	7426.323	-6311.065	1	9745.76	-40.35867	1.678848E-008	0.001578	6
	34	49	397.9953	7765.459	-7686.306	1	10926.19	-44.7065	1.685705E-009	0.0018007	6
	35	51	315.5048	8149.221	-9330.007	1	12387.85	-48.86467	4.632736E-010	0.0017965	6
	36	52	252.4038	8583.081	-11261.98	1	14159.86	-52.68793	1.977719E-009	0.0017938	6
	37	54	198.6229	9149.934	-13817.18	1	16572.14	-56.48692	1.542709E-009	0.0017926	6
	38	55	158.3615	9806.86	-16785.37	1	19440.24	-59.70436	1.882948E-009	0.0017925	6
	39	56	125.558	10649.1	-20523.08	1	23121.42	-62.57591	1.035307E-009	0.0017926	6
	40	58	100.4464	11648.79	-24905.59	1	27495.14	-64.93367	2.06262E-009	0.0017942	6
	41	59	79.00281	13013.04	-30721.92	1	33364.29	-67.0437	1.608875E-009	0.0017945	6
	42	60	63.3446	14547.29	-37576.64	1	40294.26	-68.83677	7.658006E-010	0.0017899	6
	43	62	49.86702	16984.35	-45393.49	1	48466.87	-69.48624	1.039273E-009	0.0017866	6
	44	63	39.72458	20017.49	-55357.69	1	58865.73	-70.11987	1.008605E-009	0.0017906	6
	45	65	31.6723	24080.13	-67170.55	1	71356.4	-70.27763	6.220317E-010	0.001792	6
	46	66	24.93351	28897.43	-81885.79	1	86835.16	-70.5621	1.156549E-009	0.0017911	6
	47	67	19.86229	35298.73	-98882.8	1	104994.4	-70.35469	1.152782E-009	0.0017982	6
	48	69	15.83615	43969.61	-118577.1	1	126466.8	-69.65469	-8.998424E-011	0.001798	5
	49	70	12.40079	53443.47	-143475.3	1	153105.8	-69.57002	1.098677E-009	0.0018042	5
	50	72	9.93114	67511.34	-170799.6	1	183658.1	-68.43279	7.349252E-010	0.0017969	5
	51	73	7.944915	83191.63	-202552	1	218970.7	-67.67119	-2.033236E-010	0.0018002	5
	52	75	6.317385	106094.9	-238940.2	1	261435.5	-66.05769	1.746883E-010	0.0018124	5
	53	77	5.008013	133592.2	-280689	1	310858.8	-64.54817	6.138913E-010	0.0018006	5
	54	79	3.945707	168164.6	-329014.6	1	369499.5	-62.9277	2.512598E-010	0.0017909	5
	55	82	3.158693	206472.8	-378681.6	1	431312.8	-61.39896	5.577562E-010	0.0018075	5
	56	85	2.504006	254487.6	-435362.2	1	504285.8	-59.69191	2.015477E-011	0.001801	5
	57	88	1.998082	306843.3	-493197.8	1	580858.8	-58.11216	5.24248E-010	0.0017568	5
	58	91	1.584686	367659.9	-560831.1	1	670600.7	-56.75265	1.574894E-010	0.0017858	5
	59	95	1.266892	435375.3	-630224.9	1	765986.4	-55.3623	3.005321E-010	0.0017494	5
	60	99	0.999041	514165.4	-711239.3	1	877626.1	-54.13628	3.465123E-010	0.0018386	5
