EXPLAIN
TAG	EISPOT
TITLE	LABEL	Potentiostatic EIS	Test &Identifier
DATE	LABEL	9/22/2019	Date
TIME	LABEL	10:26:25	Time
NOTES	NOTES	1	&Notes...
	
PSTAT	PSTAT	REF600-11020	Potentiostat
VDC	POTEN	0.00000E+000	T	DC &Voltage (V)
FREQINIT	QUANT	1.00000E+006	Initial Fre&q. (Hz)
FREQFINAL	QUANT	1.00000E+000	Final Fre&q. (Hz)
PTSPERDEC	QUANT	1.00000E+001	Points/&decade
VAC	QUANT	2.50000E+001	AC &Voltage (mV rms)
AREA	QUANT	1.00000E-002	&Area (cm^2)
CONDIT	TWOPARAM	T	5.00000E+000	0.00000E+000	Conditionin&g	Time(s)	E(V)
DELAY	TWOPARAM	T	5.00000E+000	0.00000E+000	Init. De&lay	Time(s)	Stab.(mV/s)
SPEED	SELECTOR	1	&Optimize for:
ZGUESS	QUANT	1.00000E+004	E&stimated Z (ohms)
OCVCURVE	TABLE	19
	Pt	T	Vf	Vm	Ach	Over
	#	s	V vs. Ref.	V	V	bits
	0	0.258333	-2.58987E-003	-2.58987E-003	5.68232E-004	...........
	1	0.516667	-2.60527E-003	-3.39622E-003	5.64099E-004	...........
	2	0.775	-2.69830E-003	-4.07883E-003	5.63899E-004	...........
	3	1.03333	-2.95694E-003	-4.76799E-003	5.65332E-004	...........
	4	1.29167	-3.41189E-003	-5.39898E-003	5.64966E-004	...........
	5	1.55	-4.00803E-003	-6.01101E-003	5.65899E-004	...........
	6	1.80833	-4.66130E-003	-6.59054E-003	5.69199E-004	...........
	7	2.06667	-5.31253E-003	-7.16389E-003	5.66932E-004	...........
	8	2.325	-5.93693E-003	-7.68370E-003	5.63266E-004	...........
	9	2.58333	-6.52936E-003	-8.16836E-003	5.61999E-004	...........
	10	2.84167	-7.08996E-003	-8.66753E-003	5.63832E-004	...........
	11	3.1	-7.62156E-003	-9.16366E-003	5.69899E-004	...........
	12	3.35833	-8.13073E-003	-9.59123E-003	5.64366E-004	...........
	13	3.61667	-8.61820E-003	-9.81965E-003	5.64366E-004	...........
	14	3.875	-9.06496E-003	-9.94238E-003	5.69432E-004	...........
	15	4.13333	-9.43907E-003	-1.01310E-002	5.65832E-004	...........
	16	4.39167	-9.72956E-003	-1.04966E-002	5.65566E-004	...........
	17	4.65	-9.97086E-003	-1.08924E-002	5.67799E-004	...........
	18	4.90833	-1.02234E-002	-1.13723E-002	5.66232E-004	...........
EOC	QUANT	-0.0102234	Open Circuit (V)
PSTATMODEL	IQUANT	4	Pstat Model
PSTATSECTION	LABEL	REF600-11020	Pstat Section
PSTATSERIALNO	LABEL	11020	Pstat Serial Number
CTRLMODE	IQUANT	1	Control Mode
IESTAB	IQUANT	0	I/E Stability
CASPEED	IQUANT	1	Control Amp Speed
CONVENTION	IQUANT	1	Current Convention
ICHRANGE	IQUANT	2	Ich Range
ICHRANGEMODE	TOGGLE	F	Ich Auto Range
ICHOFFSETENABLE	TOGGLE	T	Ich Offset Enable
ICHOFFSET	QUANT	0	Ich Offset (V)
ICHFILTER	IQUANT	3	Ich Filter
VCHRANGE	IQUANT	2	Vch Range
VCHRANGEMODE	TOGGLE	F	Vch Auto Range
VCHOFFSETENABLE	TOGGLE	T	Vch Offset Enable
VCHOFFSET	QUANT	0	Vch Offset (V)
VCHFILTER	IQUANT	3	Vch Filter
ACHRANGE	IQUANT	2	Ach Range
ACHOFFSETENABLE	TOGGLE	F	Ach Offset Enable
ACHOFFSET	QUANT	0	Ach Offset (V)
ACHFILTER	IQUANT	3	Ach Filter
IERANGELOWERLIMIT	IQUANT	1	I/E Range Lower Limit
IERANGEMODE	TOGGLE	F	I/E AutoRange
IERANGE	IQUANT	6	I/E Range
POSFEEDENABLE	TOGGLE	F	Positive Feedback IR Comp
POSFEEDRESISTANCE	QUANT	0	Positive Feedback Resistance (ohm)
ACHSELECT	IQUANT	0	Ach Select
CABLEID	IQUANT	14	Cable ID
DCCALDATE	LABEL	8/19/2019	DC Calibration Date
ACCALDATE	LABEL	8/19/2019	AC Calibration Date
THERMOSELECT	IQUANT	1	Thermo Select
FRAMEWORKVERSION	QUANT	6.33	Framework Version
INSTRUMENTVERSION	LABEL	3.50	Instrument Version
ZCURVE	TABLE
	Pt	Time	Freq	Zreal	Zimag	Zsig	Zmod	Zphz	Idc	Vdc	IERange
	#	s	Hz	ohm	ohm	V	ohm	°	A	V	#
	0	2	1000078	2412.231	-2225.327	1	3281.911	-42.6921	-2.140982E-006	-0.0081702	8
	1	3	794390.6	2865.772	-2296.078	1	3672.142	-38.70196	6.306958E-006	-0.0093225	8
	2	5	630984.4	3324.572	-2251.102	1	4015.002	-34.10233	-5.53082E-007	-0.0085475	8
	3	6	501234.4	3762.638	-2168.546	1	4342.814	-29.95642	2.655737E-006	-0.0091925	8
	4	7	398109.4	4151.589	-1997.948	1	4607.33	-25.69914	-3.298148E-006	-0.0078584	8
	5	9	316265.6	4478.658	-1807.395	1	4829.602	-21.9769	9.017971E-007	-0.0086909	8
	6	10	251203.1	4745.075	-1609.633	1	5010.654	-18.73806	-3.020183E-007	-0.0087136	8
	7	12	199546.9	4947.917	-1407.937	1	5144.333	-15.88378	-8.134882E-007	-0.00834	8
	8	13	158578.1	5122.363	-1252.381	1	5273.24	-13.73888	-2.949201E-006	-0.0081025	8
	9	14	125953.1	5293.259	-1042.542	1	5394.95	-11.14216	-7.82949E-007	-0.0070357	7
	10	16	100078.1	5375.793	-934.5854	1	5456.427	-9.86234	6.99855E-009	-0.0087608	7
	11	17	79453.13	5456.836	-853.7687	1	5523.222	-8.892323	8.566557E-008	-0.0088835	7
	12	19	63140.62	5526.319	-795.0112	1	5583.211	-8.186354	-6.902114E-008	-0.0086306	7
	13	20	50203.12	5589.7	-758.4118	1	5640.916	-7.726722	1.083974E-008	-0.0088103	7
	14	21	39890.62	5653.014	-740.9999	1	5701.372	-7.467783	6.924456E-008	-0.0088328	7
	15	23	31640.63	5714.345	-746.7958	1	5762.937	-7.445668	9.632326E-008	-0.008792	7
	16	24	25171.88	5777.729	-768.7673	1	5828.649	-7.579086	6.990768E-009	-0.0087771	7
	17	25	20015.62	5844.726	-810.5937	1	5900.668	-7.895873	9.097324E-009	-0.0087707	7
	18	27	15890.62	5914.27	-871.9703	1	5978.204	-8.386981	-4.5718E-008	-0.0086044	7
	19	28	12609.37	5994.979	-951.846	1	6070.073	-9.021767	-5.527394E-008	-0.0086489	7
	20	30	10078.13	6079.576	-1053.384	1	6170.159	-9.82982	8.20609E-009	-0.0087753	7
	21	31	8015.625	6173.611	-1179.828	1	6285.337	-10.81924	-6.001837E-008	-0.0085188	7
	22	33	6328.125	6276.52	-1337.846	1	6417.518	-12.03258	-4.6319E-008	-0.0086043	7
	23	34	5015.625	6389.731	-1528.721	1	6570.057	-13.45491	-3.344703E-009	-0.0086712	7
	24	35	3984.375	6516.197	-1754.579	1	6748.287	-15.07028	-3.770267E-008	-0.0087188	7
	25	37	3170.956	6650.374	-2026.507	1	6952.28	-16.94707	4.501203E-008	-0.0088737	7
	26	38	2527.573	6797.427	-2354.064	1	7193.514	-19.10184	1.209115E-008	-0.0088109	7
	27	39	1976.103	6971.298	-2786.594	1	7507.603	-21.78777	-3.867983E-008	-0.0087192	7
	28	41	1577.524	7145.236	-3271.84	1	7858.711	-24.60329	-6.340773E-008	-0.0086204	7
	29	42	1265.625	7329.933	-3843.49	1	8276.492	-27.67051	-2.826513E-008	-0.0086725	7
	30	43	998.264	7568.596	-4597.01	1	8855.289	-31.27364	6.769888E-008	-0.0088349	7
	31	45	796.875	7812.023	-5463.994	1	9533.25	-34.97025	7.666854E-009	-0.0089509	6
	32	46	627.7902	8099.001	-6605.921	1	10451.41	-39.20228	1.145308E-008	-0.0088226	6
	33	48	505.5147	8395.607	-7870.663	1	11507.98	-43.15159	-3.902765E-009	-0.0088067	6
	34	49	397.9953	8763.671	-9599.55	1	12998.2	-47.60625	4.749962E-010	-0.0087641	6
	35	50	315.5048	9179.519	-11676.53	1	14852.77	-51.82729	1.496255E-009	-0.0087654	6
	36	52	252.4038	9647.16	-14139.32	1	17116.89	-55.69456	1.311614E-009	-0.0087685	6
	37	53	198.6229	10253.63	-17412.3	1	20207.05	-59.50733	1.054154E-009	-0.0087703	6
	38	54	158.3615	10959	-21240.07	1	23900.63	-62.70814	7.647067E-010	-0.0087625	6
	39	56	125.558	11866.69	-26095.38	1	28666.82	-65.54667	1.140502E-009	-0.0087666	6
	40	57	100.4464	12949.24	-31795.56	1	34331.34	-67.84061	5.778272E-010	-0.0087645	6
	41	58	79.00281	14591.42	-39460.66	1	42072	-69.70705	3.024595E-010	-0.0087733	6
	42	60	63.3446	16152.76	-48432.2	1	51054.77	-71.55579	1.066151E-009	-0.0087663	6
	43	61	49.86702	18829.07	-59009.2	1	61940.45	-72.3028	2.770666E-010	-0.0087704	6
	44	63	39.72458	22347.31	-72433.3	1	75802.28	-72.85383	9.568787E-010	-0.0087728	6
	45	64	31.6723	26649.85	-88618.85	1	92539.27	-73.26269	3.943481E-010	-0.0087652	6
	46	66	24.93351	32819.81	-108641.4	1	113490.5	-73.1908	7.321118E-010	-0.0087646	5
	47	67	19.86229	40366.31	-131760.1	1	137804.8	-72.96691	1.145761E-009	-0.0087576	5
	48	68	15.83615	51582.35	-159723.7	1	167846.3	-72.10227	1.496128E-009	-0.0087675	5
	49	70	12.40079	63954.4	-194389.6	1	204639.9	-71.78873	5.305831E-010	-0.0087588	5
	50	71	9.93114	81632.45	-232548	1	246459.8	-70.65714	2.72462E-010	-0.0087569	5
	51	73	7.944915	103955.9	-276365.9	1	295271	-69.38606	9.258012E-010	-0.0087563	5
	52	75	6.317385	131451.8	-329339.5	1	354604.1	-68.2412	2.853903E-010	-0.0087488	5
	53	77	5.008013	168012.3	-389600.7	1	424283.9	-66.67225	4.013753E-010	-0.0087718	5
	54	79	3.945707	214706.3	-459783.6	1	507444.4	-64.96872	6.630938E-010	-0.0087641	5
	55	82	3.158693	268501.3	-533596.5	1	597342.6	-63.28884	2.265777E-010	-0.008783	5
	56	85	2.504006	336231.7	-616457.2	1	702190.3	-61.39081	6.857626E-010	-0.0087672	5
	57	88	1.998082	413931.2	-703545.4	1	816281.3	-59.52956	5.160833E-010	-0.0087362	5
	58	91	1.584686	505339.7	-796615.7	1	943379.4	-57.61066	4.327277E-010	-0.0088051	5
	59	95	1.266892	606933.8	-898191.8	1	1084028	-55.95198	4.396679E-010	-0.0087463	4
	60	99	0.999041	725963.6	-1011306	1	1244895	-54.32743	1.510386E-010	-0.0088041	4
