EXPLAIN
TAG	EISPOT
TITLE	LABEL	Potentiostatic EIS	Test &Identifier
DATE	LABEL	9/24/2019	Date
TIME	LABEL	9:37:25	Time
NOTES	NOTES	1	&Notes...
	
PSTAT	PSTAT	REF600-11020	Potentiostat
VDC	POTEN	0.00000E+000	T	DC &Voltage (V)
FREQINIT	QUANT	1.00000E+006	Initial Fre&q. (Hz)
FREQFINAL	QUANT	1.00000E+000	Final Fre&q. (Hz)
PTSPERDEC	QUANT	1.00000E+001	Points/&decade
VAC	QUANT	2.50000E+001	AC &Voltage (mV rms)
AREA	QUANT	1.00000E-002	&Area (cm^2)
CONDIT	TWOPARAM	T	5.00000E+000	0.00000E+000	Conditionin&g	Time(s)	E(V)
DELAY	TWOPARAM	T	5.00000E+000	0.00000E+000	Init. De&lay	Time(s)	Stab.(mV/s)
SPEED	SELECTOR	1	&Optimize for:
ZGUESS	QUANT	1.00000E+004	E&stimated Z (ohms)
OCVCURVE	TABLE	19
	Pt	T	Vf	Vm	Ach	Over
	#	s	V vs. Ref.	V	V	bits
	0	0.258333	1.10310E-002	1.10310E-002	5.95232E-004	...........
	1	0.516667	1.10351E-002	1.12483E-002	5.91765E-004	...........
	2	0.775	1.10608E-002	1.14628E-002	5.96032E-004	...........
	3	1.03333	1.11339E-002	1.16677E-002	5.90032E-004	...........
	4	1.29167	1.12655E-002	1.18585E-002	5.94332E-004	...........
	5	1.55	1.14414E-002	1.20488E-002	5.95032E-004	...........
	6	1.80833	1.16371E-002	1.22221E-002	5.93465E-004	...........
	7	2.06667	1.18339E-002	1.23910E-002	5.92499E-004	...........
	8	2.325	1.20232E-002	1.25547E-002	5.92265E-004	...........
	9	2.58333	1.22027E-002	1.27025E-002	5.88999E-004	...........
	10	2.84167	1.23726E-002	1.28461E-002	5.88799E-004	...........
	11	3.1	1.25335E-002	1.29802E-002	5.89032E-004	...........
	12	3.35833	1.26854E-002	1.31074E-002	5.88932E-004	...........
	13	3.61667	1.28289E-002	1.32280E-002	5.89665E-004	...........
	14	3.875	1.29645E-002	1.33426E-002	5.90299E-004	...........
	15	4.13333	1.30926E-002	1.34493E-002	5.90465E-004	...........
	16	4.39167	1.32139E-002	1.35490E-002	5.92799E-004	...........
	17	4.65	1.33283E-002	1.36455E-002	5.89532E-004	...........
	18	4.90833	1.34361E-002	1.37350E-002	5.87732E-004	...........
EOC	QUANT	0.0134361	Open Circuit (V)
PSTATMODEL	IQUANT	4	Pstat Model
PSTATSECTION	LABEL	REF600-11020	Pstat Section
PSTATSERIALNO	LABEL	11020	Pstat Serial Number
CTRLMODE	IQUANT	1	Control Mode
IESTAB	IQUANT	0	I/E Stability
CASPEED	IQUANT	1	Control Amp Speed
CONVENTION	IQUANT	1	Current Convention
ICHRANGE	IQUANT	2	Ich Range
ICHRANGEMODE	TOGGLE	F	Ich Auto Range
ICHOFFSETENABLE	TOGGLE	T	Ich Offset Enable
ICHOFFSET	QUANT	0	Ich Offset (V)
ICHFILTER	IQUANT	3	Ich Filter
VCHRANGE	IQUANT	2	Vch Range
VCHRANGEMODE	TOGGLE	F	Vch Auto Range
VCHOFFSETENABLE	TOGGLE	T	Vch Offset Enable
VCHOFFSET	QUANT	0	Vch Offset (V)
VCHFILTER	IQUANT	3	Vch Filter
ACHRANGE	IQUANT	2	Ach Range
ACHOFFSETENABLE	TOGGLE	F	Ach Offset Enable
ACHOFFSET	QUANT	0	Ach Offset (V)
ACHFILTER	IQUANT	3	Ach Filter
IERANGELOWERLIMIT	IQUANT	1	I/E Range Lower Limit
IERANGEMODE	TOGGLE	F	I/E AutoRange
IERANGE	IQUANT	6	I/E Range
POSFEEDENABLE	TOGGLE	F	Positive Feedback IR Comp
POSFEEDRESISTANCE	QUANT	0	Positive Feedback Resistance (ohm)
ACHSELECT	IQUANT	0	Ach Select
CABLEID	IQUANT	14	Cable ID
DCCALDATE	LABEL	8/19/2019	DC Calibration Date
ACCALDATE	LABEL	8/19/2019	AC Calibration Date
THERMOSELECT	IQUANT	1	Thermo Select
FRAMEWORKVERSION	QUANT	6.33	Framework Version
INSTRUMENTVERSION	LABEL	3.50	Instrument Version
ZCURVE	TABLE
	Pt	Time	Freq	Zreal	Zimag	Zsig	Zmod	Zphz	Idc	Vdc	IERange
	#	s	Hz	ohm	ohm	V	ohm	°	A	V	#
	0	2	1000078	2258.611	-2086.302	1	3074.732	-42.72897	-6.533126E-006	0.0172642	8
	1	3	794390.6	2672.944	-2120.109	1	3411.67	-38.42052	2.800927E-006	0.0152364	8
	2	4	630984.4	3094.24	-2114.865	1	3747.929	-34.352	-1.640796E-006	0.0156808	8
	3	6	501234.4	3487.733	-1991.435	1	4016.229	-29.72562	-7.355866E-007	0.0155646	8
	4	7	398109.4	3879.702	-1901.081	1	4320.439	-26.10518	1.778821E-006	0.0147845	8
	5	9	316265.6	4178.022	-1706.273	1	4513.008	-22.21473	-8.50153E-007	0.0153728	8
	6	10	251203.1	4435.548	-1519.751	1	4688.681	-18.91299	-4.294593E-006	0.0161108	8
	7	12	199546.9	4644.727	-1332.346	1	4832.042	-16.00561	1.710307E-006	0.0147791	8
	8	13	158578.1	4799.658	-1187.553	1	4944.391	-13.89728	-4.910676E-007	0.0152824	8
	9	15	125953.1	4956.259	-970.688	1	5050.42	-11.08117	-1.394565E-006	0.0179272	7
	10	16	100078.1	5049.986	-872.0658	1	5124.73	-9.7976	7.800828E-008	0.0150409	7
	11	18	79453.13	5127.788	-782.4579	1	5187.143	-8.675937	-4.251283E-008	0.0150963	7
	12	19	63140.62	5197.327	-713.2932	1	5246.045	-7.814586	7.626117E-008	0.0150318	7
	13	20	50203.12	5252.958	-659.903	1	5294.246	-7.160274	-5.049205E-008	0.0151588	7
	14	22	39890.62	5306.274	-628.5315	1	5343.37	-6.755245	-3.69699E-008	0.0150834	7
	15	23	31640.63	5358.492	-610.8441	1	5393.197	-6.503389	1.34902E-007	0.0148648	7
	16	24	25171.88	5406.027	-611.3365	1	5440.483	-6.451842	-3.646359E-008	0.0150847	7
	17	26	20015.62	5455.066	-626.7084	1	5490.948	-6.553726	-4.124392E-008	0.015087	7
	18	27	15890.62	5506.505	-662.0701	1	5546.164	-6.856	-1.035064E-008	0.0150913	7
	19	28	12609.37	5558.28	-707.6982	1	5603.152	-7.256042	-7.0662E-008	0.0151706	7
	20	30	10078.13	5614.026	-775.434	1	5667.326	-7.864185	-3.514933E-008	0.0150814	7
	21	31	8015.625	5672.567	-863.9849	1	5737.986	-8.660125	-3.205908E-009	0.0151019	7
	22	32	6328.125	5739.845	-980.209	1	5822.94	-9.69107	7.698939E-008	0.0149256	7
	23	34	5015.625	5811.76	-1124.763	1	5919.598	-10.95317	-4.736506E-008	0.0151547	7
	24	35	3984.375	5885.255	-1300.436	1	6027.218	-12.46015	-3.618854E-008	0.0150727	7
	25	37	3170.956	5971.139	-1518.203	1	6161.124	-14.26556	-7.189876E-008	0.0151658	7
	26	38	2527.573	6067.301	-1780.788	1	6323.239	-16.35727	-7.051261E-008	0.0151674	7
	27	39	1976.103	6183.051	-2133.184	1	6540.688	-19.0347	4.410738E-008	0.0149109	7
	28	41	1577.524	6303.045	-2536.436	1	6794.254	-21.92056	-7.071171E-008	0.015164	7
	29	42	1265.625	6453.21	-3009.087	1	7120.29	-24.99931	1.30943E-007	0.0148716	7
	30	44	998.264	6609.204	-3623.974	1	7537.557	-28.73694	-3.069873E-008	0.0150566	7
	31	45	796.875	6798.889	-4345.753	1	8069.105	-32.58614	1.162639E-008	0.0150028	7
	32	46	627.7902	7023.919	-5274.592	1	8783.893	-36.90461	7.340973E-008	0.0149351	7
	33	48	505.5147	7265.786	-6308.875	1	9622.55	-40.96775	-5.891774E-008	0.0151424	7
	34	49	397.9953	7585.027	-7700.409	1	10808.74	-45.43249	1.74821E-009	0.0150146	6
	35	50	315.5048	7940.727	-9371.514	1	12283.34	-49.72453	2.12152E-010	0.0150101	6
	36	52	252.4038	8342.877	-11341.23	1	14079.32	-53.66093	6.308796E-010	0.0150061	6
	37	53	198.6229	8866.565	-13947.64	1	16527.33	-57.55574	7.908467E-010	0.0150082	6
	38	54	158.3615	9467.685	-16988.73	1	19448.76	-60.86943	4.267327E-010	0.0150046	6
	39	56	125.558	10241.4	-20829.4	1	23210.99	-63.81758	7.713804E-010	0.0150065	6
	40	57	100.4464	11179.51	-25336.76	1	27693.55	-66.19118	1.951892E-009	0.0150021	6
	41	59	79.00281	12419.36	-31315.87	1	33688.64	-68.36753	1.641432E-009	0.015003	6
	42	60	63.3446	13594.18	-37942.52	1	40304.3	-70.28823	1.321496E-009	0.0149989	6
	43	61	49.86702	16531.53	-46875	1	49704.7	-70.57365	1.065839E-009	0.014997	6
	44	63	39.72458	19094.25	-57359.75	1	60454.37	-71.58813	7.802539E-010	0.0150008	6
	45	64	31.6723	22688.03	-69902.13	1	73491.87	-72.0182	7.097683E-010	0.0150026	6
	46	66	24.93351	27746.03	-85619.55	1	90003.05	-72.04447	2.914074E-010	0.0150024	6
	47	67	19.86229	34047.93	-103479	1	108936.5	-71.78712	3.322212E-010	0.0150117	5
	48	68	15.83615	41611.5	-124809.7	1	131563.5	-71.56163	7.88407E-010	0.0150022	5
	49	70	12.40079	54019.2	-152688.6	1	161962.6	-70.5169	-9.308584E-011	0.0150062	5
	50	71	9.93114	67683.98	-181410.6	1	193625.8	-69.53954	3.197412E-010	0.015011	5
	51	73	7.944915	85030.06	-215451.9	1	231623.9	-68.46288	3.276633E-010	0.0150093	5
	52	75	6.317385	106936	-254675.7	1	276215.5	-67.2229	2.649486E-010	0.0149985	5
	53	77	5.008013	134830.1	-300269.8	1	329152.1	-65.81849	9.679682E-011	0.0150056	5
	54	79	3.945707	170693.3	-353105.1	1	392198.2	-64.20058	4.475079E-010	0.0150138	5
	55	82	3.158693	211308.6	-409838.9	1	461106.6	-62.72485	7.039807E-012	0.0149993	5
	56	85	2.504006	262897.7	-473939.8	1	541972.4	-60.98256	6.086298E-010	0.0150034	5
	57	88	1.998082	321952.9	-541136.6	1	629668.6	-59.24918	7.509152E-011	0.0150427	5
	58	91	1.584686	391789.5	-616576.8	1	730524.4	-57.56702	3.630587E-010	0.0150213	5
	59	95	1.266892	471973.1	-693114.3	1	838549.9	-55.74726	1.220193E-010	0.0150508	5
	60	99	0.999041	563955.9	-777914.7	1	960832	-54.05944	2.856774E-010	0.0149807	5
