EXPLAIN
TAG	EISPOT
TITLE	LABEL	Potentiostatic EIS	Test &Identifier
DATE	LABEL	10/10/2019	Date
TIME	LABEL	10:05:22	Time
NOTES	NOTES	1	&Notes...
	
PSTAT	PSTAT	REF600-11020	Potentiostat
VDC	POTEN	0.00000E+000	T	DC &Voltage (V)
FREQINIT	QUANT	1.00000E+006	Initial Fre&q. (Hz)
FREQFINAL	QUANT	1.00000E+000	Final Fre&q. (Hz)
PTSPERDEC	QUANT	1.00000E+001	Points/&decade
VAC	QUANT	2.50000E+001	AC &Voltage (mV rms)
AREA	QUANT	1.00000E-002	&Area (cm^2)
CONDIT	TWOPARAM	T	5.00000E+000	0.00000E+000	Conditionin&g	Time(s)	E(V)
DELAY	TWOPARAM	T	5.00000E+000	0.00000E+000	Init. De&lay	Time(s)	Stab.(mV/s)
SPEED	SELECTOR	1	&Optimize for:
ZGUESS	QUANT	1.00000E+004	E&stimated Z (ohms)
OCVCURVE	TABLE	19
	Pt	T	Vf	Vm	Ach	Over
	#	s	V vs. Ref.	V	V	bits
	0	0.258333	4.93469E-003	4.93469E-003	5.71599E-004	...........
	1	0.516667	4.93084E-003	4.73337E-003	5.70799E-004	...........
	2	0.775	4.90785E-003	4.57556E-003	5.69232E-004	...........
	3	1.03333	4.84535E-003	4.44641E-003	5.62432E-004	...........
	4	1.29167	4.73961E-003	4.33094E-003	5.65599E-004	...........
	5	1.55	4.61433E-003	4.51413E-003	5.69199E-004	...........
	6	1.80833	4.50317E-003	4.08656E-003	5.64932E-004	...........
	7	2.06667	4.41184E-003	4.07078E-003	5.71766E-004	...........
	8	2.325	4.31613E-003	4.01196E-003	5.69766E-004	...........
	9	2.58333	4.20839E-003	3.96743E-003	5.70232E-004	...........
	10	2.84167	4.10785E-003	3.89752E-003	5.68032E-004	...........
	11	3.1	4.02683E-003	3.82734E-003	5.65932E-004	...........
	12	3.35833	3.95938E-003	3.74216E-003	5.71732E-004	...........
	13	3.61667	3.89512E-003	3.71253E-003	5.68232E-004	...........
	14	3.875	3.83102E-003	3.67796E-003	5.70599E-004	...........
	15	4.13333	3.77173E-003	3.63678E-003	5.64299E-004	...........
	16	4.39167	3.72150E-003	3.61030E-003	5.67032E-004	...........
	17	4.65	3.67965E-003	3.56907E-003	5.72199E-004	...........
	18	4.90833	3.64259E-003	3.52253E-003	5.73999E-004	...........
EOC	QUANT	0.0036426	Open Circuit (V)
PSTATMODEL	IQUANT	4	Pstat Model
PSTATSECTION	LABEL	REF600-11020	Pstat Section
PSTATSERIALNO	LABEL	11020	Pstat Serial Number
CTRLMODE	IQUANT	1	Control Mode
IESTAB	IQUANT	0	I/E Stability
CASPEED	IQUANT	1	Control Amp Speed
CONVENTION	IQUANT	1	Current Convention
ICHRANGE	IQUANT	2	Ich Range
ICHRANGEMODE	TOGGLE	F	Ich Auto Range
ICHOFFSETENABLE	TOGGLE	T	Ich Offset Enable
ICHOFFSET	QUANT	0	Ich Offset (V)
ICHFILTER	IQUANT	3	Ich Filter
VCHRANGE	IQUANT	2	Vch Range
VCHRANGEMODE	TOGGLE	F	Vch Auto Range
VCHOFFSETENABLE	TOGGLE	T	Vch Offset Enable
VCHOFFSET	QUANT	0	Vch Offset (V)
VCHFILTER	IQUANT	3	Vch Filter
ACHRANGE	IQUANT	2	Ach Range
ACHOFFSETENABLE	TOGGLE	F	Ach Offset Enable
ACHOFFSET	QUANT	0	Ach Offset (V)
ACHFILTER	IQUANT	3	Ach Filter
IERANGELOWERLIMIT	IQUANT	1	I/E Range Lower Limit
IERANGEMODE	TOGGLE	F	I/E AutoRange
IERANGE	IQUANT	5	I/E Range
POSFEEDENABLE	TOGGLE	F	Positive Feedback IR Comp
POSFEEDRESISTANCE	QUANT	0	Positive Feedback Resistance (ohm)
ACHSELECT	IQUANT	0	Ach Select
CABLEID	IQUANT	14	Cable ID
DCCALDATE	LABEL	8/19/2019	DC Calibration Date
ACCALDATE	LABEL	8/19/2019	AC Calibration Date
THERMOSELECT	IQUANT	1	Thermo Select
FRAMEWORKVERSION	QUANT	6.33	Framework Version
INSTRUMENTVERSION	LABEL	3.50	Instrument Version
ZCURVE	TABLE
	Pt	Time	Freq	Zreal	Zimag	Zsig	Zmod	Zphz	Idc	Vdc	IERange
	#	s	Hz	ohm	ohm	V	ohm	°	A	V	#
	0	1	1000078	2678.039	-2062.367	1	3380.126	-37.59999	4.906034E-007	0.0060865	8
	1	3	794390.6	3095.076	-1995.523	1	3682.609	-32.81155	-4.028255E-006	0.0065332	8
	2	4	630984.4	3477.343	-1883.473	1	3954.666	-28.44181	-5.394577E-007	0.005889	8
	3	5	501234.4	3835.606	-1703.711	1	4196.963	-23.94998	4.227292E-006	0.0046988	8
	4	7	398109.4	4080.763	-1532.596	1	4359.068	-20.58447	-7.834136E-007	0.0053776	8
	5	8	316265.6	4323.517	-1334.668	1	4524.835	-17.15544	-1.286142E-006	0.0056511	8
	6	10	251203.1	4469.532	-1144.613	1	4613.768	-14.3643	-2.644484E-006	0.006034	8
	7	11	199546.9	4602.229	-1005.142	1	4710.714	-12.32012	6.048189E-007	0.0053193	8
	8	12	158578.1	4695.582	-846.8137	1	4771.33	-10.22299	-2.648196E-006	0.0060115	8
	9	14	125953.1	4781.663	-700.0618	1	4832.637	-8.329244	3.219898E-007	0.0045133	7
	10	15	100078.1	4838.205	-605.6699	1	4875.968	-7.135443	-4.517727E-008	0.0053218	7
	11	17	79453.13	4884.28	-545.97	1	4914.7	-6.378107	5.128275E-008	0.0052362	7
	12	18	63140.62	4924.137	-507.4911	1	4950.22	-5.884239	4.358484E-008	0.0051502	7
	13	19	50203.12	4961.598	-480.7544	1	4984.834	-5.534402	-6.570504E-008	0.005372	7
	14	21	39890.62	4997.912	-470.3529	1	5019.996	-5.376264	8.097182E-009	0.0052115	7
	15	22	31640.63	5033.007	-471.9138	1	5055.083	-5.356609	4.960286E-008	0.0052336	7
	16	23	25171.88	5070.625	-484.7676	1	5093.745	-5.461059	-1.030689E-008	0.0053151	7
	17	25	20015.62	5105.608	-498.8298	1	5129.919	-5.58022	9.725535E-009	0.0052123	7
	18	26	15890.62	5151.303	-556.7901	1	5181.307	-6.168993	7.174181E-008	0.0051865	7
	19	27	12609.37	5196.61	-606.0747	1	5231.833	-6.652288	1.060377E-008	0.0052091	7
	20	29	10078.13	5242.167	-675.4406	1	5285.503	-7.34197	5.091708E-008	0.0052289	7
	21	30	8015.625	5289.592	-770.1863	1	5345.369	-8.284285	1.066782E-008	0.0053909	7
	22	31	6328.125	5352.352	-882.2143	1	5424.571	-9.359758	4.76557E-008	0.0051405	7
	23	33	5015.625	5414.578	-1022.318	1	5510.244	-10.69206	1.358708E-007	0.0051039	7
	24	34	3984.375	5490.803	-1185.405	1	5617.304	-12.18257	-4.632586E-008	0.0053474	7
	25	35	3170.956	5557.66	-1399.59	1	5731.181	-14.13493	-4.708376E-008	0.005349	7
	26	37	2527.573	5639.734	-1655.88	1	5877.8	-16.36275	-2.799366E-008	0.00535	7
	27	38	1976.103	5746.163	-1991.943	1	6081.63	-19.11919	1.421366E-008	0.0053908	7
	28	40	1577.524	5855.055	-2366.357	1	6315.166	-22.0064	-6.503717E-008	0.0055037	7
	29	41	1265.625	5975.035	-2828.78	1	6610.827	-25.33443	1.525097E-008	0.0053915	7
	30	42	998.264	6124.688	-3414.77	1	7012.308	-29.14149	-2.462975E-010	0.0053319	7
	31	44	796.875	6296.334	-4124.141	1	7526.776	-33.22506	1.070991E-007	0.0052062	7
	32	45	627.7902	6494.809	-5025.156	1	8211.865	-37.72979	-9.102374E-009	0.0053102	7
	33	46	505.5147	6714.816	-6023.751	1	9020.772	-41.89476	-6.657801E-008	0.0055075	7
	34	48	397.9953	7005.535	-7368.385	1	10167.13	-46.44605	1.559293E-009	0.0052485	6
	35	49	315.5048	7327.381	-8989.792	1	11597.71	-50.81728	1.753268E-009	0.0052448	6
	36	51	252.4038	7694.277	-10904.05	1	13345.42	-54.79189	1.477421E-011	0.0052409	6
	37	52	198.6229	8169.591	-13439.06	1	15727.38	-58.70463	1.155928E-009	0.0052403	6
	38	53	158.3615	8718.741	-16404.81	1	18577.79	-62.01049	1.381094E-009	0.0052411	6
	39	55	125.558	9423.794	-20158.38	1	22252.37	-64.94449	1.045034E-009	0.005241	6
	40	56	100.4464	10266.3	-24609.4	1	26664.95	-67.35557	1.780667E-009	0.0052411	6
	41	57	79.00281	11398.97	-30439.1	1	32503.46	-69.46985	1.58804E-009	0.0052415	6
	42	59	63.3446	12832.92	-37520.63	1	39654.53	-71.11813	1.25305E-009	0.0052405	6
	43	60	49.86702	14658.87	-45677.48	1	47972.02	-72.20746	1.660055E-009	0.0052364	6
	44	61	39.72458	17585.63	-56104.82	1	58796.3	-72.59679	1.298288E-009	0.0052428	6
	45	63	31.6723	20887.38	-68246.9	1	71371.72	-72.98295	8.999698E-010	0.0052416	6
	46	64	24.93351	25589.83	-84228.52	1	88030.01	-73.10047	5.314699E-010	0.0052393	6
	47	66	19.86229	31503.6	-102284.2	1	107025.8	-72.88113	1.21913E-009	0.0052456	5
	48	67	15.83615	40765.38	-123367.6	1	129928.4	-71.71447	-6.89499E-010	0.005244	5
	49	68	12.40079	52290.18	-150942.9	1	159743.6	-70.8927	1.747817E-009	0.0052441	5
	50	70	9.93114	64971.41	-180073.7	1	191436.2	-70.16032	9.219909E-010	0.0052404	5
	51	71	7.944915	82269	-214586.4	1	229816.2	-69.02397	4.245653E-011	0.0052498	5
	52	73	6.317385	105678	-254588.4	1	275650.3	-67.45697	5.809497E-012	0.0052694	5
	53	75	5.008013	135408.8	-299783.3	1	328946.2	-65.69183	4.742967E-010	0.005258	5
	54	77	3.945707	173746	-351830.2	1	392392.8	-63.71824	-3.910906E-011	0.0052456	5
	55	80	3.158693	216722.3	-404321.8	1	458742.5	-61.80806	3.512379E-010	0.0052637	5
	56	83	2.504006	270039.3	-463556.8	1	536475.6	-59.7776	-2.068459E-010	0.0052415	5
	57	86	1.998082	329052.8	-524306.8	1	619009.9	-57.88779	-4.752843E-011	0.0052203	5
	58	89	1.584686	395124.2	-589390.9	1	709580.7	-56.16233	5.759987E-011	0.0052933	5
	59	93	1.266892	466954.2	-657802.4	1	806690.9	-54.6302	-5.392951E-011	0.0052369	5
	60	97	0.999041	549860.2	-737112.8	1	919609.4	-53.27836	3.651008E-010	0.0052746	5
