EXPLAIN
TAG	EISPOT
TITLE	LABEL	Potentiostatic IDE	Test &Identifier
DATE	LABEL	9/6/2019	Date
TIME	LABEL	8:47:36	Time
NOTES	NOTES	1	&Notes...
	
PSTAT	PSTAT	REF600-11020	Potentiostat
VDC	POTEN	0.00000E+000	T	DC &Voltage (V)
FREQINIT	QUANT	1.00000E+006	Initial Fre&q. (Hz)
FREQFINAL	QUANT	1.00000E+000	Final Fre&q. (Hz)
PTSPERDEC	QUANT	1.00000E+001	Points/&decade
VAC	QUANT	2.50000E+001	AC &Voltage (mV rms)
AREA	QUANT	1.00000E-002	&Area (cm^2)
CONDIT	TWOPARAM	T	5.00000E+000	0.00000E+000	Conditionin&g	Time(s)	E(V)
DELAY	TWOPARAM	T	5.00000E+000	0.00000E+000	Init. De&lay	Time(s)	Stab.(mV/s)
SPEED	SELECTOR	1	&Optimize for:
ZGUESS	QUANT	1.00000E+007	E&stimated Z (ohms)
OCVCURVE	TABLE	18
	Pt	T	Vf	Vm	Ach	Over
	#	s	V vs. Ref.	V	V	bits
	0	0.258333	8.20307E-003	8.20307E-003	5.81699E-004	...........
	1	0.516667	8.20021E-003	8.05322E-003	5.82632E-004	...........
	2	0.775	8.18244E-003	7.90110E-003	5.78832E-004	...........
	3	1.03333	8.13175E-003	7.76679E-003	5.77432E-004	...........
	4	1.29167	8.04117E-003	7.65788E-003	5.79732E-004	...........
	5	1.55	7.92261E-003	7.53297E-003	5.79199E-004	...........
	6	1.80833	7.79448E-003	7.42159E-003	5.79532E-004	...........
	7	2.06667	7.66895E-003	7.33992E-003	5.79965E-004	...........
	8	2.325	7.55164E-003	7.25225E-003	5.78566E-004	...........
	9	2.58333	7.44560E-003	7.19424E-003	5.80432E-004	...........
	10	2.84167	7.35301E-003	7.16748E-003	5.78232E-004	...........
	11	3.1	7.27631E-003	7.13708E-003	5.78832E-004	...........
	12	3.35833	7.21760E-003	7.13492E-003	5.81599E-004	...........
	13	3.61667	7.17736E-003	7.16338E-003	5.81099E-004	...........
	14	3.875	7.15558E-003	7.17918E-003	5.82299E-004	...........
	15	4.13333	7.15203E-003	7.23883E-003	5.76299E-004	...........
	16	4.39167	7.16518E-003	7.26361E-003	5.74299E-004	...........
	17	4.65	7.18924E-003	7.18836E-003	5.76366E-004	...........
EOC	QUANT	0.0072093	Open Circuit (V)
PSTATMODEL	IQUANT	4	Pstat Model
PSTATSECTION	LABEL	REF600-11020	Pstat Section
PSTATSERIALNO	LABEL	11020	Pstat Serial Number
CTRLMODE	IQUANT	1	Control Mode
IESTAB	IQUANT	0	I/E Stability
CASPEED	IQUANT	1	Control Amp Speed
CONVENTION	IQUANT	1	Current Convention
ICHRANGE	IQUANT	2	Ich Range
ICHRANGEMODE	TOGGLE	F	Ich Auto Range
ICHOFFSETENABLE	TOGGLE	T	Ich Offset Enable
ICHOFFSET	QUANT	0	Ich Offset (V)
ICHFILTER	IQUANT	3	Ich Filter
VCHRANGE	IQUANT	2	Vch Range
VCHRANGEMODE	TOGGLE	F	Vch Auto Range
VCHOFFSETENABLE	TOGGLE	T	Vch Offset Enable
VCHOFFSET	QUANT	0	Vch Offset (V)
VCHFILTER	IQUANT	3	Vch Filter
ACHRANGE	IQUANT	2	Ach Range
ACHOFFSETENABLE	TOGGLE	F	Ach Offset Enable
ACHOFFSET	QUANT	0	Ach Offset (V)
ACHFILTER	IQUANT	3	Ach Filter
IERANGELOWERLIMIT	IQUANT	1	I/E Range Lower Limit
IERANGEMODE	TOGGLE	F	I/E AutoRange
IERANGE	IQUANT	3	I/E Range
POSFEEDENABLE	TOGGLE	F	Positive Feedback IR Comp
POSFEEDRESISTANCE	QUANT	0	Positive Feedback Resistance (ohm)
ACHSELECT	IQUANT	0	Ach Select
CABLEID	IQUANT	14	Cable ID
DCCALDATE	LABEL	8/19/2019	DC Calibration Date
ACCALDATE	LABEL	8/19/2019	AC Calibration Date
THERMOSELECT	IQUANT	1	Thermo Select
FRAMEWORKVERSION	QUANT	6.33	Framework Version
INSTRUMENTVERSION	LABEL	3.50	Instrument Version
ZCURVE	TABLE
	Pt	Time	Freq	Zreal	Zimag	Zsig	Zmod	Zphz	Idc	Vdc	IERange
	#	s	Hz	ohm	ohm	V	ohm	°	A	V	#
	0	2	1000078	2546.098	-1892.523	1	3172.422	-36.62355	-6.678221E-007	0.0099773	8
	1	3	794390.6	2928.441	-1797.533	1	3436.116	-31.5424	8.205891E-007	0.0091696	8
	2	5	630984.4	3264.532	-1651.748	1	3658.612	-26.83794	1.325953E-006	0.0087623	8
	3	6	501234.4	3544.958	-1472.71	1	3838.697	-22.55985	-7.562525E-007	0.0091897	8
	4	7	398109.4	3752.648	-1291.897	1	3968.799	-18.99668	-9.583408E-007	0.0091465	8
	5	9	316265.6	3920.806	-1111.104	1	4075.203	-15.82202	-1.885886E-006	0.0093335	8
	6	10	251203.1	4033.692	-958.159	1	4145.93	-13.36233	1.320469E-006	0.0087005	8
	7	11	199546.9	4131.882	-822.6053	1	4212.971	-11.25964	-6.862456E-007	0.0090857	8
	8	13	158578.1	4202.228	-737.0746	1	4266.38	-9.94853	7.895965E-007	0.0087417	8
	9	14	125953.1	4264.57	-621.8627	1	4309.671	-8.296437	-2.305973E-007	0.0094149	7
	10	15	100078.1	4308.288	-560.3856	1	4344.58	-7.410943	-2.758304E-010	0.0088601	7
	11	17	79453.13	4349.931	-526.5331	1	4381.682	-6.901735	-2.333993E-008	0.0089207	7
	12	18	63140.62	4388.525	-506.5064	1	4417.658	-6.583724	-4.023203E-009	0.0089042	7
	13	19	50203.12	4427.555	-501.0953	1	4455.821	-6.457061	-1.619832E-008	0.0088819	7
	14	21	39890.62	4465.426	-510.8549	1	4494.553	-6.526393	-8.306625E-009	0.0089195	7
	15	22	31640.63	4504.053	-533.4412	1	4535.533	-6.754407	4.908873E-008	0.0087825	7
	16	23	25171.88	4544.212	-570.8375	1	4579.926	-7.15991	3.012206E-008	0.0087991	7
	17	25	20015.62	4586.734	-626.4149	1	4629.312	-7.77683	-2.26195E-008	0.0089136	7
	18	26	15890.62	4633.967	-702.023	1	4686.842	-8.614521	-2.202408E-008	0.0089137	7
	19	27	12609.37	4685.982	-793.8261	1	4752.745	-9.61488	-2.268289E-009	0.0089085	7
	20	29	10078.13	4744.475	-908.6749	1	4830.708	-10.84215	4.638368E-008	0.0088122	7
	21	30	8015.625	4812.063	-1052.634	1	4925.849	-12.33904	-2.200066E-008	0.0089046	7
	22	31	6328.125	4883.659	-1239.797	1	5038.573	-14.24456	-2.329223E-009	0.0089118	7
	23	33	5015.625	4971.264	-1460.378	1	5181.329	-16.37088	-2.421034E-008	0.0089019	7
	24	34	3984.375	5073.396	-1724.631	1	5358.517	-18.77476	-1.080696E-008	0.0088818	7
	25	35	3170.956	5189.548	-2050	1	5579.776	-21.55525	-2.729513E-008	0.0089559	7
	26	37	2527.573	5323.063	-2430.686	1	5851.771	-24.543	7.646901E-008	0.0087801	7
	27	38	1976.103	5503.458	-2940.177	1	6239.607	-28.11299	-9.648959E-009	0.0089792	7
	28	39	1577.524	5692.172	-3496.383	1	6680.233	-31.56008	-2.628547E-008	0.0089036	7
	29	41	1265.625	5913.305	-4151.021	1	7224.829	-35.06808	1.576711E-008	0.0088307	7
	30	42	998.264	6196.039	-4996.794	1	7959.827	-38.88443	-2.353056E-008	0.0089061	7
	31	43	796.875	6508.135	-5966.085	1	8828.93	-42.51186	-2.350338E-009	0.0089056	7
	32	45	627.7902	6891.224	-7195.193	1	9962.92	-46.23619	1.046512E-008	0.0086407	6
	33	46	505.5147	7295.671	-8539.268	1	11231.47	-49.49051	-3.099697E-009	0.0088626	6
	34	47	397.9953	7829.035	-10354.7	1	12981.28	-52.90761	6.994964E-010	0.0088401	6
	35	49	315.5048	8427.559	-12493.17	1	15069.94	-55.99745	7.547563E-010	0.0088397	6
	36	50	252.4038	9104.836	-14988.42	1	17537.13	-58.72308	9.436009E-010	0.0088339	6
	37	51	198.6229	9969.22	-18257.91	1	20802.32	-61.36449	7.261823E-010	0.0088402	6
	38	53	158.3615	10954.37	-22030.87	1	24604.01	-63.56213	5.936975E-010	0.0088367	6
	39	54	125.558	12174.68	-26743.88	1	29384.65	-65.52345	8.342092E-010	0.0088325	6
	40	55	100.4464	13590.11	-32245.71	1	34992.52	-67.14677	8.894764E-010	0.0088312	6
	41	57	79.00281	15460.92	-39456.59	1	42377.62	-68.60246	5.597846E-010	0.0088263	6
	42	58	63.3446	17791.82	-47526.55	1	50747.63	-69.47634	6.773527E-010	0.0088261	6
	43	59	49.86702	20414.54	-58241.81	1	61715.98	-70.68375	7.243888E-010	0.0088235	6
	44	61	39.72458	23934.95	-70442.59	1	74397.85	-71.23328	6.545153E-010	0.0088333	6
	45	62	31.6723	28280.83	-85140.69	1	89714.78	-71.62527	9.044138E-010	0.008831	6
	46	63	24.93351	33880.97	-104010.6	1	109389.8	-71.95722	3.011275E-010	0.0088344	5
	47	65	19.86229	40784.13	-125707.5	1	132157.9	-72.02503	5.300003E-010	0.0088414	5
	48	66	15.83615	48894.5	-151458.1	1	159154.7	-72.10861	3.295603E-010	0.0088327	5
	49	68	12.40079	61682.39	-185347	1	195341.3	-71.59286	-4.928156E-011	0.0088396	5
	50	69	9.93114	74853.43	-222093.2	1	234368.1	-71.37432	2.666794E-010	0.0088313	5
	51	70	7.944915	92235.45	-265716	1	281269.2	-70.85706	9.326987E-011	0.0088344	5
	52	72	6.317385	114946.2	-318324.9	1	338442.5	-70.14549	2.636756E-010	0.0088286	5
	53	74	5.008013	144078.5	-381681.8	1	407970.1	-69.31931	6.536668E-011	0.0088338	5
	54	77	3.945707	182630.1	-457006.3	1	492146.8	-68.21723	2.530069E-010	0.0088482	5
	55	79	3.158693	227153	-539831.2	1	585675.8	-67.17936	9.434815E-012	0.0088261	5
	56	82	2.504006	286650.8	-637216.9	1	698723.2	-65.77949	3.630332E-010	0.0088285	5
	57	85	1.998082	356554.2	-743521.7	1	824594.1	-64.38006	1.478159E-012	0.0088595	5
	58	88	1.584686	446687.4	-866821.6	1	975146	-62.73721	1.430881E-010	0.0088831	5
	59	92	1.266892	547901.4	-998877	1	1139276	-61.25446	-1.151144E-010	0.0088354	4
	60	96	0.999041	677822.3	-1149029	1	1334058	-59.46327	2.237606E-010	0.0088685	4
