EXPLAIN
TAG	EISPOT
TITLE	LABEL	Potentiostatic EIS	Test &Identifier
DATE	LABEL	7/5/2020	Date
TIME	LABEL	16:57:45	Time
NOTES	NOTES	1	&Notes...
	
PSTAT	PSTAT	REF600-11020	Potentiostat
VDC	POTEN	0.00000E+000	T	DC &Voltage (V)
FREQINIT	QUANT	1.00000E+006	Initial Fre&q. (Hz)
FREQFINAL	QUANT	1.00000E+000	Final Fre&q. (Hz)
PTSPERDEC	QUANT	1.00000E+001	Points/&decade
VAC	QUANT	2.50000E+001	AC &Voltage (mV rms)
AREA	QUANT	4.00000E-004	&Area (cm^2)
CONDIT	TWOPARAM	F	5.00000E+000	0.00000E+000	Conditionin&g	Time(s)	E(V)
DELAY	TWOPARAM	F	3.00000E+000	0.00000E+000	Init. De&lay	Time(s)	Stab.(mV/s)
SPEED	SELECTOR	0	&Optimize for:
ZGUESS	QUANT	1.00000E+003	E&stimated Z (ohms)
OCVCURVE	TABLE	39
	Pt	T	Vf	Vm	Ach	Over
	#	s	V vs. Ref.	V	V	bits
	0	0.258333	6.14411E-002	6.14411E-002	5.10550E-004	...........
	1	0.516667	6.14409E-002	6.14292E-002	5.16450E-004	...........
	2	0.775	6.14396E-002	6.14229E-002	5.10817E-004	...........
	3	1.03333	6.14359E-002	6.14014E-002	5.13283E-004	...........
	4	1.29167	6.14290E-002	6.13944E-002	5.17817E-004	...........
	5	1.55	6.14189E-002	6.13816E-002	5.13583E-004	...........
	6	1.80833	6.14071E-002	6.13734E-002	5.19517E-004	...........
	7	2.06667	6.13953E-002	6.13683E-002	5.14017E-004	...........
	8	2.325	6.13848E-002	6.13631E-002	5.07550E-004	...........
	9	2.58333	6.13760E-002	6.13513E-002	5.10084E-004	...........
	10	2.84167	6.13685E-002	6.13481E-002	5.06717E-004	...........
	11	3.1	6.13650E-002	6.15302E-002	5.14650E-004	...........
	12	3.35833	6.13770E-002	6.15268E-002	5.17050E-004	...........
	13	3.61667	6.14127E-002	6.15377E-002	5.10250E-004	...........
	14	3.875	6.14610E-002	6.15192E-002	5.12417E-004	...........
	15	4.13333	6.15005E-002	6.15227E-002	5.11450E-004	...........
	16	4.39167	6.15210E-002	6.15150E-002	5.14883E-004	...........
	17	4.65	6.15258E-002	6.15125E-002	5.17683E-004	...........
	18	4.90833	6.15229E-002	6.15047E-002	5.13184E-004	...........
	19	5.16667	6.15177E-002	6.15069E-002	5.13617E-004	...........
	20	5.425	6.15126E-002	6.15049E-002	5.11750E-004	...........
	21	5.68333	6.15087E-002	6.14948E-002	5.13750E-004	...........
	22	5.94167	6.15067E-002	6.15628E-002	5.17817E-004	...........
	23	6.2	6.15104E-002	6.15778E-002	5.17783E-004	...........
	24	6.45833	6.15233E-002	6.15661E-002	5.15317E-004	...........
	25	6.71667	6.15420E-002	6.15681E-002	5.06950E-004	...........
	26	6.975	6.15575E-002	6.15539E-002	5.07917E-004	...........
	27	7.23333	6.15645E-002	6.15534E-002	5.13184E-004	...........
	28	7.49167	6.15638E-002	6.15429E-002	5.12283E-004	...........
	29	7.75	6.15589E-002	6.15421E-002	5.13383E-004	...........
	30	8.00833	6.15521E-002	6.15125E-002	5.18417E-004	...........
	31	8.26667	6.15440E-002	6.15184E-002	5.20317E-004	...........
	32	8.525	6.15345E-002	6.15061E-002	5.15017E-004	...........
	33	8.78333	6.15246E-002	6.15003E-002	5.10950E-004	...........
	34	9.04167	6.15157E-002	6.14936E-002	5.12083E-004	...........
	35	9.3	6.15081E-002	6.14939E-002	5.13550E-004	...........
	36	9.5583	6.15017E-002	6.14880E-002	5.16283E-004	...........
	37	9.8167	6.14966E-002	6.14863E-002	5.10984E-004	...........
	38	10.075	6.14926E-002	6.14820E-002	5.14817E-004	...........
EOC	QUANT	0.0614926	Open Circuit (V)
PSTATMODEL	IQUANT	4	Pstat Model
PSTATSECTION	LABEL	REF600-11020	Pstat Section
PSTATSERIALNO	LABEL	11020	Pstat Serial Number
CTRLMODE	IQUANT	1	Control Mode
IESTAB	IQUANT	0	I/E Stability
CASPEED	IQUANT	1	Control Amp Speed
CONVENTION	IQUANT	1	Current Convention
ICHRANGE	IQUANT	2	Ich Range
ICHRANGEMODE	TOGGLE	F	Ich Auto Range
ICHOFFSETENABLE	TOGGLE	T	Ich Offset Enable
ICHOFFSET	QUANT	0	Ich Offset (V)
ICHFILTER	IQUANT	3	Ich Filter
VCHRANGE	IQUANT	2	Vch Range
VCHRANGEMODE	TOGGLE	F	Vch Auto Range
VCHOFFSETENABLE	TOGGLE	T	Vch Offset Enable
VCHOFFSET	QUANT	0	Vch Offset (V)
VCHFILTER	IQUANT	3	Vch Filter
ACHRANGE	IQUANT	2	Ach Range
ACHOFFSETENABLE	TOGGLE	F	Ach Offset Enable
ACHOFFSET	QUANT	0	Ach Offset (V)
ACHFILTER	IQUANT	3	Ach Filter
IERANGELOWERLIMIT	IQUANT	1	I/E Range Lower Limit
IERANGEMODE	TOGGLE	F	I/E AutoRange
IERANGE	IQUANT	8	I/E Range
POSFEEDENABLE	TOGGLE	F	Positive Feedback IR Comp
POSFEEDRESISTANCE	QUANT	0	Positive Feedback Resistance (ohm)
ACHSELECT	IQUANT	0	Ach Select
CABLEID	IQUANT	14	Cable ID
DCCALDATE	LABEL	6/26/2020	DC Calibration Date
ACCALDATE	LABEL	6/26/2020	AC Calibration Date
THERMOSELECT	IQUANT	1	Thermo Select
FRAMEWORKVERSION	QUANT	6.33	Framework Version
INSTRUMENTVERSION	LABEL	3.50	Instrument Version
ZCURVE	TABLE
	Pt	Time	Freq	Zreal	Zimag	Zsig	Zmod	Zphz	Idc	Vdc	IERange
	#	s	Hz	ohm	ohm	V	ohm	°	A	V	#
	0	1	1000078	1349.624	-1857.691	1	2296.192	-54.00137	-3.066066E-006	0.0637482	8
	1	1	794390.6	1580.465	-2065.274	1	2600.621	-52.57473	3.651592E-006	0.06394	8
	2	1	630984.4	1799.793	-2302.26	1	2922.269	-51.98346	-4.254036E-006	0.0632875	8
	3	2	501234.4	2033.228	-2583.291	1	3287.462	-51.79482	-8.19013E-007	0.0630031	8
	4	2	398109.4	2259.554	-2914.158	1	3687.533	-52.21103	2.16991E-006	0.0635747	8
	5	2	316265.6	2477.477	-3337.51	1	4156.544	-53.41302	-1.445372E-006	0.0629465	8
	6	3	251203.1	2730.235	-3843.673	1	4714.659	-54.61309	6.305405E-007	0.0636394	8
	7	3	199546.9	3023.748	-4475.305	1	5401.056	-55.955	4.685603E-006	0.0622026	8
	8	3	158578.1	3315.044	-5297.268	1	6249.045	-57.96156	-2.901677E-006	0.0631177	8
	9	3	125953.1	3658.874	-6272.554	1	7261.701	-59.74435	2.077832E-006	0.0561768	7
	10	4	100078.1	4124.819	-7506.791	1	8565.398	-61.21216	1.286841E-006	0.0608803	7
	11	4	79453.13	4671.418	-8938.892	1	10085.93	-62.40867	5.548043E-007	0.0638286	7
	12	5	63140.62	5360.631	-10725.55	1	11990.57	-63.44411	1.237057E-007	0.0644164	7
	13	5	50203.12	6209.993	-12999.47	1	14406.61	-64.46568	9.986595E-007	0.0608058	7
	14	5	39890.62	7498.31	-15487.01	1	17206.75	-64.16524	-1.451899E-006	0.0653191	7
	15	5	31640.63	9146.655	-18637.85	1	20761.28	-63.86018	-1.618134E-006	0.0645982	7
	16	6	25171.88	11278.49	-22194.05	1	24895.38	-63.06139	-7.966822E-007	0.0652571	7
	17	6	20015.62	14304.63	-26173.14	1	29827.09	-61.3417	-1.173182E-006	0.0653882	7
	18	6	15890.62	17878.52	-31271.6	1	36021.58	-60.24264	1.289123E-006	0.0608601	7
	19	7	12609.37	23188.21	-35466.7	1	42374.29	-56.82325	-2.550715E-007	0.0665765	6
	20	7	10078.13	29393.08	-40154.86	1	49763.1	-53.79612	1.292216E-007	0.0636581	6
	21	7	8015.625	37098.71	-44172.93	1	57685.02	-49.97472	1.852524E-007	0.0625401	6
	22	8	6328.125	46101.26	-47226.26	1	65997.31	-45.69062	6.001378E-008	0.0647288	6
	23	8	5015.625	55448.71	-48164.8	1	73446.63	-40.97879	-2.556684E-007	0.0665767	6
	24	8	3984.375	65114.82	-48323.73	1	81087.13	-36.58026	-2.236285E-007	0.0669869	6
	25	9	3170.956	74014.17	-47016.49	1	87684.94	-32.42519	-2.558828E-007	0.0657338	6
	26	9	2527.573	82177.31	-44415.55	1	93412.27	-28.39053	4.291192E-008	0.0602982	6
	27	9	1976.103	90909.17	-42322.27	1	100277.9	-24.96408	-1.497973E-008	0.0656634	6
	28	10	1577.524	95748.4	-38146.91	1	103067.6	-21.72273	-1.035894E-007	0.062066	6
	29	10	1265.625	102301.7	-36113.01	1	108488.7	-19.44328	-1.507092E-008	0.0656584	6
	30	10	998.264	106296.6	-31794.27	1	110949.8	-16.65239	-1.254892E-008	0.0624631	5
	31	11	796.875	110098.4	-29425.58	1	113962.9	-14.96348	-1.873299E-008	0.0636743	5
	32	11	627.7902	113673.7	-27276.16	1	116900.4	-13.4931	9.177131E-009	0.0643447	5
	33	11	505.5147	116089.4	-25872.77	1	118937.6	-12.56414	2.327541E-008	0.060556	5
	34	12	397.9953	118528	-24838.29	1	121102.5	-11.83543	6.277047E-010	0.0631275	5
	35	12	315.5048	120699.3	-24572.84	1	123175.3	-11.50742	5.380802E-010	0.0631275	5
	36	12	252.4038	122751.9	-24985.09	1	125268.8	-11.5049	6.917458E-010	0.0631346	5
	37	13	198.6229	124538.1	-26062.13	1	127235.9	-11.81974	3.690782E-010	0.0631372	5
	38	13	158.3615	126385.9	-27978.24	1	129445.6	-12.48235	4.816632E-010	0.0631276	5
	39	13	125.558	128454.2	-30863.52	1	132110	-13.51028	1.603961E-010	0.0631352	5
	40	14	100.4464	130916.8	-34405.22	1	135362.2	-14.7245	3.450054E-010	0.0631192	5
	41	14	79.00281	134315.7	-39603.74	1	140032.7	-16.42845	1.259757E-010	0.063126	5
	42	14	63.3446	136912.2	-46821.82	1	144697	-18.87989	2.377569E-010	0.0631285	5
	43	15	49.86702	142029.8	-53940.11	1	151927.6	-20.79578	2.549123E-010	0.0631245	5
	44	15	39.72458	147375.7	-61560.67	1	159716.3	-22.6709	4.969914E-010	0.0631299	5
	45	16	31.6723	154636.9	-71086.81	1	170193.7	-24.68831	5.140957E-010	0.0631259	5
	46	16	24.93351	162968.8	-82518.77	1	182669.5	-26.85524	2.237545E-010	0.06312	5
	47	16	19.86229	173230.8	-94639.87	1	197397.1	-28.64877	2.007478E-009	0.0631296	5
	48	16	15.83615	186475.2	-107795.9	1	215390.2	-30.03097	-9.85565E-010	0.063117	5
	49	17	12.40079	200335.2	-121037.2	1	234060.3	-31.13926	9.845202E-010	0.0631214	5
	50	17	9.93114	214206.8	-134327.1	1	252840.5	-32.09145	-8.879062E-010	0.0631203	5
	51	18	7.944915	229995.9	-148886.2	1	273980.3	-32.91672	-1.045218E-009	0.0631232	5
	52	18	6.317385	246493	-166491.4	1	297452.8	-34.03669	-7.208317E-010	0.0631362	5
	53	19	5.008013	264276.1	-186811.9	1	323636.5	-35.25578	-5.164491E-010	0.0631256	5
	54	20	3.945707	283164.7	-210784.9	1	353005	-36.66362	8.694016E-011	0.0631224	5
	55	21	3.158693	301379.9	-238429.2	1	384289.3	-38.34841	2.601805E-011	0.0631449	5
	56	23	2.504006	323119.5	-272999.3	1	423006.9	-40.19402	-2.230004E-010	0.0631285	5
	57	24	1.998082	344848	-313912.3	1	466327.2	-42.31134	-7.244524E-011	0.063126	5
	58	26	1.584686	371080.9	-363913	1	519743.9	-44.44125	1.003607E-010	0.0631687	5
	59	28	1.266892	400708.3	-424309.6	1	583614.4	-46.63861	1.293587E-010	0.0631607	5
	60	30	0.999041	435724.6	-500692	1	663738.2	-48.96875	9.862658E-011	0.0631379	5
