EXPLAIN
TAG	EISPOT
TITLE	LABEL	Potentiostatic EIS	Test &Identifier
DATE	LABEL	7/13/2020	Date
TIME	LABEL	20:39:13	Time
NOTES	NOTES	1	&Notes...
	
PSTAT	PSTAT	REF600-11020	Potentiostat
VDC	POTEN	0.00000E+000	T	DC &Voltage (V)
FREQINIT	QUANT	1.00000E+006	Initial Fre&q. (Hz)
FREQFINAL	QUANT	1.00000E+000	Final Fre&q. (Hz)
PTSPERDEC	QUANT	1.00000E+001	Points/&decade
VAC	QUANT	2.50000E+001	AC &Voltage (mV rms)
AREA	QUANT	4.00000E-004	&Area (cm^2)
CONDIT	TWOPARAM	F	5.00000E+000	0.00000E+000	Conditionin&g	Time(s)	E(V)
DELAY	TWOPARAM	F	3.00000E+000	0.00000E+000	Init. De&lay	Time(s)	Stab.(mV/s)
SPEED	SELECTOR	0	&Optimize for:
ZGUESS	QUANT	1.00000E+003	E&stimated Z (ohms)
OCVCURVE	TABLE	39
	Pt	T	Vf	Vm	Ach	Over
	#	s	V vs. Ref.	V	V	bits
	0	0.258333	1.96024E-001	1.96024E-001	5.24250E-004	...........
	1	0.516667	1.96024E-001	1.96016E-001	5.20317E-004	...........
	2	0.775	1.96023E-001	1.96008E-001	5.24950E-004	...........
	3	1.03333	1.96020E-001	1.96002E-001	5.23217E-004	...........
	4	1.29167	1.96016E-001	1.95997E-001	5.24550E-004	...........
	5	1.55	1.96010E-001	1.95992E-001	5.26150E-004	...........
	6	1.80833	1.96004E-001	1.95985E-001	5.23250E-004	...........
	7	2.06667	1.95998E-001	1.95976E-001	5.21417E-004	...........
	8	2.325	1.95992E-001	1.95974E-001	5.20317E-004	...........
	9	2.58333	1.95985E-001	1.95966E-001	5.16883E-004	...........
	10	2.84167	1.95979E-001	1.95963E-001	5.19017E-004	...........
	11	3.1	1.95973E-001	1.95957E-001	5.23017E-004	...........
	12	3.35833	1.95968E-001	1.95955E-001	5.22517E-004	...........
	13	3.61667	1.95963E-001	1.95949E-001	5.22517E-004	...........
	14	3.875	1.95958E-001	1.95944E-001	5.20450E-004	...........
	15	4.13333	1.95954E-001	1.95938E-001	5.20050E-004	...........
	16	4.39167	1.95949E-001	1.95931E-001	5.19450E-004	...........
	17	4.65	1.95944E-001	1.95929E-001	5.19450E-004	...........
	18	4.90833	1.95939E-001	1.95926E-001	5.21750E-004	...........
	19	5.16667	1.95934E-001	1.95923E-001	5.21817E-004	...........
	20	5.425	1.95930E-001	1.95920E-001	5.22917E-004	...........
	21	5.68333	1.95926E-001	1.95915E-001	5.31483E-004	...........
	22	5.94167	1.95923E-001	1.95912E-001	5.24617E-004	...........
	23	6.2	1.95919E-001	1.95908E-001	5.27083E-004	...........
	24	6.45833	1.95916E-001	1.95905E-001	5.27617E-004	...........
	25	6.71667	1.95912E-001	1.95899E-001	5.25917E-004	...........
	26	6.975	1.95908E-001	1.95897E-001	5.25817E-004	...........
	27	7.23333	1.95904E-001	1.95894E-001	5.20850E-004	...........
	28	7.49167	1.95901E-001	1.95890E-001	5.23350E-004	...........
	29	7.75	1.95897E-001	1.95890E-001	5.28750E-004	...........
	30	8.00833	1.95894E-001	1.95885E-001	5.26517E-004	...........
	31	8.26667	1.95891E-001	1.95883E-001	5.22850E-004	...........
	32	8.525	1.95889E-001	1.95881E-001	5.24983E-004	...........
	33	8.78333	1.95886E-001	1.95877E-001	5.29383E-004	...........
	34	9.04167	1.95883E-001	1.95872E-001	5.28317E-004	...........
	35	9.3	1.95880E-001	1.95871E-001	5.22617E-004	...........
	36	9.5583	1.95877E-001	1.95867E-001	5.20717E-004	...........
	37	9.8167	1.95874E-001	1.95866E-001	5.21017E-004	...........
	38	10.075	1.95871E-001	1.95858E-001	5.26250E-004	...........
EOC	QUANT	0.1958708	Open Circuit (V)
PSTATMODEL	IQUANT	4	Pstat Model
PSTATSECTION	LABEL	REF600-11020	Pstat Section
PSTATSERIALNO	LABEL	11020	Pstat Serial Number
CTRLMODE	IQUANT	1	Control Mode
IESTAB	IQUANT	0	I/E Stability
CASPEED	IQUANT	1	Control Amp Speed
CONVENTION	IQUANT	1	Current Convention
ICHRANGE	IQUANT	2	Ich Range
ICHRANGEMODE	TOGGLE	F	Ich Auto Range
ICHOFFSETENABLE	TOGGLE	T	Ich Offset Enable
ICHOFFSET	QUANT	0	Ich Offset (V)
ICHFILTER	IQUANT	3	Ich Filter
VCHRANGE	IQUANT	2	Vch Range
VCHRANGEMODE	TOGGLE	F	Vch Auto Range
VCHOFFSETENABLE	TOGGLE	T	Vch Offset Enable
VCHOFFSET	QUANT	0	Vch Offset (V)
VCHFILTER	IQUANT	3	Vch Filter
ACHRANGE	IQUANT	2	Ach Range
ACHOFFSETENABLE	TOGGLE	F	Ach Offset Enable
ACHOFFSET	QUANT	0	Ach Offset (V)
ACHFILTER	IQUANT	3	Ach Filter
IERANGELOWERLIMIT	IQUANT	1	I/E Range Lower Limit
IERANGEMODE	TOGGLE	F	I/E AutoRange
IERANGE	IQUANT	8	I/E Range
POSFEEDENABLE	TOGGLE	F	Positive Feedback IR Comp
POSFEEDRESISTANCE	QUANT	0	Positive Feedback Resistance (ohm)
ACHSELECT	IQUANT	0	Ach Select
CABLEID	IQUANT	14	Cable ID
DCCALDATE	LABEL	6/26/2020	DC Calibration Date
ACCALDATE	LABEL	6/26/2020	AC Calibration Date
THERMOSELECT	IQUANT	1	Thermo Select
FRAMEWORKVERSION	QUANT	6.33	Framework Version
INSTRUMENTVERSION	LABEL	3.50	Instrument Version
ZCURVE	TABLE
	Pt	Time	Freq	Zreal	Zimag	Zsig	Zmod	Zphz	Idc	Vdc	IERange
	#	s	Hz	ohm	ohm	V	ohm	°	A	V	#
	0	1	1000078	1552.946	-1790.198	1	2369.905	-49.05929	-2.55312E-008	0.1979417	8
	1	1	794390.6	1832.83	-1952.703	1	2678.118	-46.81372	8.735214E-008	0.1976703	8
	2	1	630984.4	2130.533	-2112.707	1	3000.45	-44.75929	-5.027439E-009	0.1975032	8
	3	2	501234.4	2448.651	-2275.281	1	3342.573	-42.89816	-2.158716E-008	0.1974449	8
	4	2	398109.4	2796.972	-2436.991	1	3709.714	-41.06551	4.576199E-008	0.1973993	8
	5	2	316265.6	3173.845	-2626.15	1	4119.461	-39.60553	5.596152E-009	0.197384	8
	6	3	251203.1	3586.818	-2795.558	1	4547.571	-37.93277	4.813852E-008	0.1973704	8
	7	3	199546.9	4058.148	-2970.176	1	5028.967	-36.20056	-4.797179E-009	0.1973808	8
	8	3	158578.1	4566.226	-3122.857	1	5531.967	-34.36835	2.079584E-008	0.1973747	8
	9	4	125953.1	5191.557	-3168.128	1	6081.883	-31.39347	-2.098791E-008	0.1974326	7
	10	4	100078.1	5771.691	-3229.358	1	6613.711	-29.22774	-1.059991E-008	0.1973502	7
	11	4	79453.13	6347.092	-3222.52	1	7118.301	-26.91763	-1.531023E-009	0.1973642	7
	12	5	63140.62	6910.431	-3161.79	1	7599.406	-24.58593	1.93448E-008	0.1973273	7
	13	5	50203.12	7441.166	-3049.58	1	8041.821	-22.28507	1.348459E-008	0.1973475	7
	14	5	39890.62	7930.438	-2900.565	1	8444.236	-20.09004	1.336506E-008	0.1973441	7
	15	6	31640.63	8374.105	-2736.6	1	8809.916	-18.09704	-7.452297E-009	0.1973566	7
	16	6	25171.88	8763.001	-2568.162	1	9131.574	-16.33421	-2.100479E-008	0.1973588	7
	17	6	20015.62	9103.068	-2405.847	1	9415.623	-14.80419	1.856374E-008	0.1973195	7
	18	7	15890.62	9403.342	-2262.695	1	9671.74	-13.52968	1.57404E-008	0.197308	7
	19	7	12609.37	9750.6	-2003.517	1	9954.31	-11.61131	4.984179E-010	0.1972916	6
	20	7	10078.13	9952.32	-1931.575	1	10138.03	-10.98358	2.751833E-009	0.1972816	6
	21	7	8015.625	10142.24	-1897.184	1	10318.16	-10.59517	2.446488E-009	0.1973094	6
	22	8	6328.125	10315.44	-1903.408	1	10489.58	-10.45464	9.58483E-010	0.1973319	6
	23	8	5015.625	10476.28	-1959.453	1	10657.95	-10.59403	8.439414E-010	0.1973344	6
	24	8	3984.375	10623.88	-2068.268	1	10823.33	-11.01661	-1.716581E-010	0.1973535	6
	25	9	3170.956	10772.57	-2237.678	1	11002.52	-11.7346	1.627001E-009	0.1973174	6
	26	9	2527.573	10918.14	-2473.405	1	11194.8	-12.76439	8.60809E-010	0.1973316	6
	27	9	1976.103	11082.49	-2822.115	1	11436.17	-14.28652	2.755261E-009	0.1972901	6
	28	10	1577.524	11243.91	-3239.868	1	11701.37	-16.07404	2.253167E-009	0.1972728	6
	29	10	1265.625	11420.36	-3756.923	1	12022.45	-18.2095	2.459905E-009	0.1972759	6
	30	10	998.264	11632.66	-4459.47	1	12458.15	-20.97472	2.871208E-009	0.1972773	6
	31	11	796.875	11869.96	-5290.318	1	12995.51	-24.02204	-3.145369E-009	0.1973654	6
	32	11	627.7902	12178.1	-6382.121	1	13749.1	-27.65747	-7.482147E-010	0.197297	6
	33	11	505.5147	12527.36	-7596.118	1	14650.45	-31.23104	6.590221E-010	0.1973237	6
	34	12	397.9953	12989.73	-9233.784	1	15937.25	-35.40722	2.874054E-010	0.1973323	6
	35	12	315.5048	13565.87	-11175.75	1	17576.41	-39.48217	2.15684E-010	0.1973358	6
	36	12	252.4038	14264.6	-13434.96	1	19595.32	-43.28443	7.234161E-011	0.1973329	6
	37	13	198.6229	15226.34	-16368.28	1	22355.36	-47.06997	8.133943E-011	0.1973342	6
	38	13	158.3615	16396.04	-19717.06	1	25643.57	-50.25424	1.215661E-010	0.1973332	6
	39	13	125.558	17939.42	-23833.32	1	29830.35	-53.0311	-7.666161E-011	0.1973384	6
	40	14	100.4464	19861.08	-28544.28	1	34774.1	-55.16984	-8.6936E-011	0.1973276	6
	41	14	79.00281	22563.84	-34562	1	41275.4	-56.86144	4.391747E-011	0.1973285	6
	42	14	63.3446	25809.05	-41072.96	1	48508.71	-57.85595	-1.885462E-011	0.1973279	6
	43	15	49.86702	30387.64	-49211.11	1	57837.2	-58.30486	3.04613E-010	0.1973255	6
	44	15	39.72458	36037.02	-58002.41	1	68285.77	-58.14723	4.14982E-010	0.1973343	6
	45	15	31.6723	43165.68	-67731.74	1	80317.28	-57.49049	9.094458E-010	0.1973379	6
	46	16	24.93351	52584.57	-78841.48	1	94768.75	-56.29807	-7.847072E-010	0.1973321	6
	47	16	19.86229	63281.25	-89833.15	1	109884.1	-54.83795	-1.735708E-009	0.1973227	5
	48	16	15.83615	75840.07	-101200.3	1	126464.3	-53.1519	-4.069854E-010	0.1973235	5
	49	16	12.40079	91137.19	-113481.8	1	145547.6	-51.23207	-2.191897E-009	0.1973228	5
	50	17	9.93114	105301.4	-124938	1	163394.9	-49.87481	-1.52742E-009	0.1973153	5
	51	17	7.944915	120589.5	-136779.5	1	182347.1	-48.59949	1.126445E-009	0.1973246	5
	52	18	6.317385	136364	-150773.4	1	203292.3	-47.87287	-3.193628E-010	0.1973294	5
	53	18	5.008013	152304	-167191.1	1	226162.3	-47.66781	-5.509529E-010	0.1973076	5
	54	19	3.945707	168757	-186955.8	1	251855.9	-47.92879	7.136638E-011	0.1973174	5
	55	20	3.158693	184532.9	-210437.4	1	279886.2	-48.75241	-2.929696E-010	0.1973064	5
	56	21	2.504006	201568.8	-240137.3	1	313521.8	-49.99024	1.53949E-011	0.1973023	5
	57	22	1.998082	219543.3	-276517	1	353073.5	-51.55185	1.699217E-010	0.1973392	5
	58	24	1.584686	239782.3	-321611.3	1	401160.1	-53.29307	-1.147169E-011	0.1972971	5
	59	26	1.266892	263601.4	-375802	1	459034.7	-54.95276	-5.758739E-011	0.1972727	5
	60	28	0.999041	292553	-446769.6	1	534032.1	-56.78248	-6.725568E-011	0.1972671	5
