EXPLAIN
TAG	EISPOT
TITLE	LABEL	Potentiostatic EIS	Test &Identifier
DATE	LABEL	1/21/2020	Date
TIME	LABEL	16:34:51	Time
NOTES	NOTES	6	&Notes...
	
	
	
	
	
	
PSTAT	PSTAT	REF600-11020	Potentiostat
VDC	POTEN	0.00000E+000	T	DC &Voltage (V)
FREQINIT	QUANT	1.00000E+006	Initial Fre&q. (Hz)
FREQFINAL	QUANT	1.00000E+000	Final Fre&q. (Hz)
PTSPERDEC	QUANT	1.00000E+001	Points/&decade
VAC	QUANT	2.50000E+001	AC &Voltage (mV rms)
AREA	QUANT	1.00000E-001	&Area (cm^2)
CONDIT	TWOPARAM	F	5.00000E+000	0.00000E+000	Conditionin&g	Time(s)	E(V)
DELAY	TWOPARAM	F	5.00000E+000	0.00000E+000	Init. De&lay	Time(s)	Stab.(mV/s)
SPEED	SELECTOR	0	&Optimize for:
ZGUESS	QUANT	5.00000E+002	E&stimated Z (ohms)
OCVCURVE	TABLE	39
	Pt	T	Vf	Vm	Ach	Over
	#	s	V vs. Ref.	V	V	bits
	0	0.258333	-2.35885E-001	-2.35885E-001	6.66213E-004	...........
	1	0.516667	-2.35885E-001	-2.35887E-001	6.59613E-004	...........
	2	0.775	-2.35885E-001	-2.35879E-001	6.66879E-004	...........
	3	1.03333	-2.35885E-001	-2.35861E-001	6.68146E-004	...........
	4	1.29167	-2.35882E-001	-2.35860E-001	6.67946E-004	...........
	5	1.55	-2.35875E-001	-2.35831E-001	6.65046E-004	...........
	6	1.80833	-2.35866E-001	-2.35843E-001	6.68046E-004	...........
	7	2.06667	-2.35855E-001	-2.35841E-001	6.65013E-004	...........
	8	2.325	-2.35847E-001	-2.35842E-001	6.65913E-004	...........
	9	2.58333	-2.35843E-001	-2.35846E-001	6.65513E-004	...........
	10	2.84167	-2.35841E-001	-2.35830E-001	6.63413E-004	...........
	11	3.1	-2.35841E-001	-2.35828E-001	6.68113E-004	...........
	12	3.35833	-2.35838E-001	-2.35821E-001	6.70446E-004	...........
	13	3.61667	-2.35834E-001	-2.35819E-001	6.66879E-004	...........
	14	3.875	-2.35829E-001	-2.35818E-001	6.62913E-004	...........
	15	4.13333	-2.35824E-001	-2.35803E-001	6.65513E-004	...........
	16	4.39167	-2.35819E-001	-2.35800E-001	6.69346E-004	...........
	17	4.65	-2.35813E-001	-2.35790E-001	6.59613E-004	...........
	18	4.90833	-2.35806E-001	-2.35787E-001	6.67046E-004	...........
	19	5.16667	-2.35800E-001	-2.35804E-001	6.60413E-004	...........
	20	5.425	-2.35795E-001	-2.35772E-001	6.65246E-004	...........
	21	5.68333	-2.35791E-001	-2.35765E-001	6.64913E-004	...........
	22	5.94167	-2.35786E-001	-2.35758E-001	6.61546E-004	...........
	23	6.2	-2.35778E-001	-2.35748E-001	6.58146E-004	...........
	24	6.45833	-2.35768E-001	-2.35739E-001	6.66313E-004	...........
	25	6.71667	-2.35758E-001	-2.35734E-001	6.64946E-004	...........
	26	6.975	-2.35749E-001	-2.35727E-001	6.62379E-004	...........
	27	7.23333	-2.35741E-001	-2.35721E-001	6.63646E-004	...........
	28	7.49167	-2.35734E-001	-2.35715E-001	6.57679E-004	...........
	29	7.75	-2.35728E-001	-2.35709E-001	6.57313E-004	...........
	30	8.00833	-2.35721E-001	-2.35688E-001	6.60979E-004	...........
	31	8.26667	-2.35714E-001	-2.35681E-001	6.58046E-004	...........
	32	8.525	-2.35705E-001	-2.35697E-001	6.59313E-004	...........
	33	8.78333	-2.35696E-001	-2.35693E-001	6.61313E-004	...........
	34	9.04167	-2.35692E-001	-2.35685E-001	6.68779E-004	...........
	35	9.3	-2.35690E-001	-2.35676E-001	6.69213E-004	...........
	36	9.5583	-2.35688E-001	-2.35672E-001	6.65279E-004	...........
	37	9.8167	-2.35684E-001	-2.35667E-001	6.69479E-004	...........
	38	10.075	-2.35678E-001	-2.35663E-001	6.66613E-004	...........
EOC	QUANT	-0.2356785	Open Circuit (V)
PSTATMODEL	IQUANT	4	Pstat Model
PSTATSECTION	LABEL	REF600-11020	Pstat Section
PSTATSERIALNO	LABEL	11020	Pstat Serial Number
CTRLMODE	IQUANT	1	Control Mode
IESTAB	IQUANT	0	I/E Stability
CASPEED	IQUANT	1	Control Amp Speed
CONVENTION	IQUANT	1	Current Convention
ICHRANGE	IQUANT	2	Ich Range
ICHRANGEMODE	TOGGLE	F	Ich Auto Range
ICHOFFSETENABLE	TOGGLE	T	Ich Offset Enable
ICHOFFSET	QUANT	0	Ich Offset (V)
ICHFILTER	IQUANT	3	Ich Filter
VCHRANGE	IQUANT	2	Vch Range
VCHRANGEMODE	TOGGLE	F	Vch Auto Range
VCHOFFSETENABLE	TOGGLE	T	Vch Offset Enable
VCHOFFSET	QUANT	0	Vch Offset (V)
VCHFILTER	IQUANT	3	Vch Filter
ACHRANGE	IQUANT	2	Ach Range
ACHOFFSETENABLE	TOGGLE	F	Ach Offset Enable
ACHOFFSET	QUANT	0	Ach Offset (V)
ACHFILTER	IQUANT	3	Ach Filter
IERANGELOWERLIMIT	IQUANT	1	I/E Range Lower Limit
IERANGEMODE	TOGGLE	F	I/E AutoRange
IERANGE	IQUANT	8	I/E Range
POSFEEDENABLE	TOGGLE	F	Positive Feedback IR Comp
POSFEEDRESISTANCE	QUANT	0	Positive Feedback Resistance (ohm)
ACHSELECT	IQUANT	0	Ach Select
CABLEID	IQUANT	14	Cable ID
DCCALDATE	LABEL	12/22/2019	DC Calibration Date
ACCALDATE	LABEL	12/22/2019	AC Calibration Date
THERMOSELECT	IQUANT	1	Thermo Select
FRAMEWORKVERSION	QUANT	6.33	Framework Version
INSTRUMENTVERSION	LABEL	3.50	Instrument Version
ZCURVE	TABLE
	Pt	Time	Freq	Zreal	Zimag	Zsig	Zmod	Zphz	Idc	Vdc	IERange
	#	s	Hz	ohm	ohm	V	ohm	°	A	V	#
	0	2	1000078	2240.855	-2175.078	1	3122.883	-44.14662	-1.789049E-006	-0.2331702	8
	1	2	794390.6	2677.379	-2244.624	1	3493.808	-39.97533	-6.229813E-008	-0.2337062	8
	2	2	630984.4	3137.632	-2289.772	1	3884.3	-36.12112	-2.109968E-008	-0.2339464	8
	3	3	501234.4	3565.193	-2174.779	1	4176.154	-31.38332	5.034371E-006	-0.2349448	8
	4	3	398109.4	3994.182	-2076.931	1	4501.903	-27.47393	-6.491703E-008	-0.2342676	8
	5	3	316265.6	4338.01	-1956.336	1	4758.737	-24.2742	1.708977E-006	-0.234526	8
	6	3	251203.1	4640.768	-1773.321	1	4968.037	-20.91275	-1.563271E-007	-0.2338989	8
	7	4	199546.9	4871.268	-1553.262	1	5112.913	-17.6855	1.748144E-006	-0.2345621	8
	8	4	158578.1	5064.421	-1384.898	1	5250.363	-15.29399	-3.385867E-006	-0.2333465	8
	9	4	125953.1	5261.17	-1210.138	1	5398.55	-12.95347	-7.056776E-007	-0.2321717	7
	10	5	100078.1	5364.883	-1080.182	1	5472.546	-11.3839	-3.383476E-008	-0.2341201	7
	11	5	79453.13	5470.551	-996.081	1	5560.495	-10.3194	2.57653E-008	-0.234171	7
	12	5	63140.62	5561.107	-932.0513	1	5638.673	-9.51444	-1.806099E-008	-0.2340318	7
	13	6	50203.12	5640.416	-891.5522	1	5710.443	-8.982142	-5.353456E-008	-0.2340786	7
	14	6	39890.62	5719.05	-872.1608	1	5785.17	-8.670857	-1.320565E-008	-0.2341191	7
	15	6	31640.63	5797.977	-875.5882	1	5863.718	-8.587698	-2.093327E-008	-0.2341645	7
	16	7	25171.88	5875.784	-899.218	1	5944.193	-8.700921	-9.258458E-010	-0.2341331	7
	17	7	20015.62	5959.598	-944.3073	1	6033.948	-9.003749	1.124131E-007	-0.2343175	7
	18	8	15890.62	6042.349	-1009.59	1	6126.112	-9.485675	6.97229E-008	-0.234279	7
	19	8	12609.37	6134.8	-1098.088	1	6232.301	-10.14809	-1.886949E-008	-0.2341684	7
	20	8	10078.13	6232.723	-1210.704	1	6349.224	-10.99279	-1.878557E-008	-0.2341719	7
	21	9	8015.625	6343.584	-1348.347	1	6485.299	-11.9998	-1.88073E-008	-0.2341742	7
	22	9	6328.125	6469.871	-1529.182	1	6648.13	-13.29807	-3.419126E-008	-0.234154	7
	23	9	5015.625	6605.247	-1744.638	1	6831.768	-14.79559	-3.399906E-008	-0.2341248	7
	24	9	3984.375	6759.492	-2000.062	1	7049.183	-16.48293	1.984391E-008	-0.2342421	7
	25	10	3170.956	6928.219	-2306.645	1	7302.111	-18.41439	-3.437066E-008	-0.2341263	7
	26	10	2527.573	7120.985	-2668.913	1	7604.704	-20.54577	3.997447E-008	-0.2342937	7
	27	10	1976.103	7355.177	-3143.769	1	7998.87	-23.14296	2.287462E-009	-0.2342418	7
	28	11	1577.524	7609.54	-3662.021	1	8444.851	-25.69876	-1.844913E-008	-0.2341781	7
	29	11	1265.625	7883.921	-4268.188	1	8965.135	-28.43018	5.499011E-008	-0.2341826	7
	30	11	998.264	8226.133	-5039.011	1	9646.81	-31.49003	4.968657E-009	-0.2341358	6
	31	12	796.875	8599.584	-5926.635	1	10444.03	-34.57372	-4.661997E-009	-0.2341187	6
	32	12	627.7902	9058.782	-7049.967	1	11478.83	-37.89172	-7.224383E-009	-0.234099	6
	33	12	505.5147	9543.78	-8269.794	1	12628.27	-40.90931	2.671434E-009	-0.2341489	6
	34	13	397.9953	10169.2	-9894.7	1	14188.65	-44.21615	5.77547E-010	-0.2341639	6
	35	13	315.5048	10888.85	-11799.46	1	16055.97	-47.29835	7.826036E-010	-0.2341689	6
	36	13	252.4038	11709.47	-13998.8	1	18250.43	-50.08878	2.528518E-010	-0.2341669	6
	37	14	198.6229	12775.66	-16843.92	1	21140.84	-52.82066	4.989801E-010	-0.234166	6
	38	14	158.3615	14008.98	-20082.83	1	24486.15	-55.10191	3.937209E-010	-0.2341715	6
	39	14	125.558	15546.22	-24052.7	1	28639.44	-57.12381	5.001067E-010	-0.2341767	6
	40	15	100.4464	17398.3	-28598.43	1	33474.93	-58.68511	1.164546E-010	-0.2341737	6
	41	15	79.00281	19812.46	-34476.05	1	39763.45	-60.11518	-4.144778E-011	-0.2341729	6
	42	15	63.3446	22378.83	-40423.51	1	46204.68	-61.03068	5.713433E-010	-0.2341729	6
	43	16	49.86702	26220.84	-48511.54	1	55144.38	-61.60846	9.490571E-010	-0.2341772	6
	44	16	39.72458	30461.64	-57793.42	1	65329.86	-62.20727	7.898593E-010	-0.234173	6
	45	16	31.6723	35581.66	-68098.63	1	76834.09	-62.41285	1.029663E-009	-0.2341749	6
	46	17	24.93351	42259.7	-81070.23	1	91423.54	-62.4682	4.648898E-010	-0.2341778	6
	47	17	19.86229	49788.76	-95325.7	1	107544.9	-62.42187	-6.600004E-010	-0.2341755	5
	48	17	15.83615	59349.85	-112470.6	1	127169.4	-62.17975	1.797666E-009	-0.2341783	5
	49	17	12.40079	69414.95	-132539	1	149616.2	-62.35749	-4.586973E-010	-0.2341799	5
	50	18	9.93114	82790.07	-154806.9	1	175554.5	-61.86232	-2.345597E-010	-0.2341807	5
	51	18	7.944915	97550.3	-180273	1	204974.2	-61.58105	-3.580874E-010	-0.2341785	5
	52	19	6.317385	116106	-211162.8	1	240977.8	-61.19619	-2.870204E-010	-0.234169	5
	53	20	5.008013	138963	-247369.2	1	283729.1	-60.6743	-2.488664E-010	-0.2341863	5
	54	21	3.945707	168363.2	-289902.6	1	335245.7	-59.85378	1.539746E-010	-0.2341788	5
	55	22	3.158693	200614.7	-335008.7	1	390483.1	-59.08538	1.329303E-010	-0.2341609	5
	56	24	2.504006	242900.2	-387671.3	1	457481.7	-57.93029	-5.509013E-011	-0.2341691	5
	57	25	1.998082	290702.8	-443492.7	1	530277.1	-56.75576	-1.724432E-011	-0.2341903	5
	58	27	1.584686	351213.5	-504954.4	1	615085.3	-55.18003	1.08535E-010	-0.2341451	5
	59	29	1.266892	418342.7	-570221.6	1	707222.2	-53.73439	1.520689E-010	-0.2341433	5
	60	31	0.999041	499397.7	-642693	1	813911.8	-52.15139	1.778638E-010	-0.234158	5
