EXPLAIN
TAG	EISPOT
TITLE	LABEL	Potentiostatic EIS	Test &Identifier
DATE	LABEL	1/28/2020	Date
TIME	LABEL	12:24:57	Time
NOTES	NOTES	6	&Notes...
	
	
	
	
	
	
PSTAT	PSTAT	REF600-11020	Potentiostat
VDC	POTEN	0.00000E+000	T	DC &Voltage (V)
FREQINIT	QUANT	1.00000E+006	Initial Fre&q. (Hz)
FREQFINAL	QUANT	1.00000E+000	Final Fre&q. (Hz)
PTSPERDEC	QUANT	1.00000E+001	Points/&decade
VAC	QUANT	2.50000E+001	AC &Voltage (mV rms)
AREA	QUANT	1.60000E-004	&Area (cm^2)
CONDIT	TWOPARAM	F	5.00000E+000	0.00000E+000	Conditionin&g	Time(s)	E(V)
DELAY	TWOPARAM	F	5.00000E+000	0.00000E+000	Init. De&lay	Time(s)	Stab.(mV/s)
SPEED	SELECTOR	0	&Optimize for:
ZGUESS	QUANT	1.00000E+003	E&stimated Z (ohms)
OCVCURVE	TABLE	39
	Pt	T	Vf	Vm	Ach	Over
	#	s	V vs. Ref.	V	V	bits
	0	0.258333	2.39358E-002	2.39358E-002	5.69471E-004	...........
	1	0.516667	2.39385E-002	2.40766E-002	5.76238E-004	...........
	2	0.775	2.39583E-002	2.43808E-002	5.69804E-004	...........
	3	1.03333	2.40208E-002	2.44516E-002	5.73104E-004	...........
	4	1.29167	2.41349E-002	2.44980E-002	5.73271E-004	...........
	5	1.55	2.42720E-002	2.45442E-002	5.79371E-004	...........
	6	1.80833	2.43923E-002	2.45772E-002	5.75271E-004	...........
	7	2.06667	2.44785E-002	2.46169E-002	5.84537E-004	...........
	8	2.325	2.45362E-002	2.46412E-002	5.79071E-004	...........
	9	2.58333	2.45773E-002	2.46730E-002	5.77271E-004	...........
	10	2.84167	2.46106E-002	2.46912E-002	5.75071E-004	...........
	11	3.1	2.46397E-002	2.47050E-002	5.82371E-004	...........
	12	3.35833	2.46648E-002	2.47158E-002	5.80304E-004	...........
	13	3.61667	2.46854E-002	2.47248E-002	5.80137E-004	...........
	14	3.875	2.47014E-002	2.47363E-002	5.70704E-004	...........
	15	4.13333	2.47142E-002	2.47458E-002	5.74071E-004	...........
	16	4.39167	2.47247E-002	2.47355E-002	5.73371E-004	...........
	17	4.65	2.47330E-002	2.47528E-002	5.69704E-004	...........
	18	4.90833	2.47391E-002	2.47590E-002	5.72171E-004	...........
	19	5.16667	2.47445E-002	2.47651E-002	5.71871E-004	...........
	20	5.425	2.47507E-002	2.47721E-002	5.72838E-004	...........
	21	5.68333	2.47575E-002	2.47744E-002	5.72538E-004	...........
	22	5.94167	2.47639E-002	2.47736E-002	5.77037E-004	...........
	23	6.2	2.47689E-002	2.47719E-002	5.79704E-004	...........
	24	6.45833	2.47720E-002	2.47798E-002	5.72671E-004	...........
	25	6.71667	2.47739E-002	2.47806E-002	5.76138E-004	...........
	26	6.975	2.47756E-002	2.47833E-002	5.76104E-004	...........
	27	7.23333	2.47778E-002	2.47803E-002	5.75304E-004	...........
	28	7.49167	2.47798E-002	2.47852E-002	5.82204E-004	...........
	29	7.75	2.47814E-002	2.47823E-002	5.77371E-004	...........
	30	8.00833	2.47824E-002	2.47842E-002	5.73504E-004	...........
	31	8.26667	2.47830E-002	2.47830E-002	5.73138E-004	...........
	32	8.525	2.47833E-002	2.47831E-002	5.74738E-004	...........
	33	8.78333	2.47833E-002	2.47790E-002	5.72838E-004	...........
	34	9.04167	2.47828E-002	2.47784E-002	5.73004E-004	...........
	35	9.3	2.47817E-002	2.47767E-002	5.69171E-004	...........
	36	9.5583	2.47802E-002	2.47756E-002	5.71371E-004	...........
	37	9.8167	2.47785E-002	2.47727E-002	5.75371E-004	...........
	38	10.075	2.47768E-002	2.47714E-002	5.79771E-004	...........
EOC	QUANT	0.0247768	Open Circuit (V)
PSTATMODEL	IQUANT	4	Pstat Model
PSTATSECTION	LABEL	REF600-11020	Pstat Section
PSTATSERIALNO	LABEL	11020	Pstat Serial Number
CTRLMODE	IQUANT	1	Control Mode
IESTAB	IQUANT	0	I/E Stability
CASPEED	IQUANT	1	Control Amp Speed
CONVENTION	IQUANT	1	Current Convention
ICHRANGE	IQUANT	2	Ich Range
ICHRANGEMODE	TOGGLE	F	Ich Auto Range
ICHOFFSETENABLE	TOGGLE	T	Ich Offset Enable
ICHOFFSET	QUANT	0	Ich Offset (V)
ICHFILTER	IQUANT	3	Ich Filter
VCHRANGE	IQUANT	2	Vch Range
VCHRANGEMODE	TOGGLE	F	Vch Auto Range
VCHOFFSETENABLE	TOGGLE	T	Vch Offset Enable
VCHOFFSET	QUANT	0	Vch Offset (V)
VCHFILTER	IQUANT	3	Vch Filter
ACHRANGE	IQUANT	2	Ach Range
ACHOFFSETENABLE	TOGGLE	F	Ach Offset Enable
ACHOFFSET	QUANT	0	Ach Offset (V)
ACHFILTER	IQUANT	3	Ach Filter
IERANGELOWERLIMIT	IQUANT	1	I/E Range Lower Limit
IERANGEMODE	TOGGLE	F	I/E AutoRange
IERANGE	IQUANT	7	I/E Range
POSFEEDENABLE	TOGGLE	F	Positive Feedback IR Comp
POSFEEDRESISTANCE	QUANT	0	Positive Feedback Resistance (ohm)
ACHSELECT	IQUANT	0	Ach Select
CABLEID	IQUANT	14	Cable ID
DCCALDATE	LABEL	1/27/2020	DC Calibration Date
ACCALDATE	LABEL	1/27/2020	AC Calibration Date
THERMOSELECT	IQUANT	1	Thermo Select
FRAMEWORKVERSION	QUANT	6.33	Framework Version
INSTRUMENTVERSION	LABEL	3.50	Instrument Version
ZCURVE	TABLE
	Pt	Time	Freq	Zreal	Zimag	Zsig	Zmod	Zphz	Idc	Vdc	IERange
	#	s	Hz	ohm	ohm	V	ohm	°	A	V	#
	0	2	1000078	2246.379	-2330.117	1	3236.613	-46.04824	6.518602E-006	0.0263437	8
	1	2	794390.6	2677.981	-2466.476	1	3640.753	-42.64572	8.536207E-007	0.026107	8
	2	2	630984.4	3133.43	-2571.983	1	4053.823	-39.37985	2.176402E-006	0.0259882	8
	3	3	501234.4	3562.763	-2598.807	1	4409.884	-36.10835	1.065845E-006	0.0261533	8
	4	3	398109.4	4012.699	-2622.826	1	4793.847	-33.16989	-1.515209E-006	0.0268856	8
	5	3	316265.6	4481.361	-2574.476	1	5168.222	-29.87674	-2.829073E-007	0.0264346	8
	6	3	251203.1	4862.545	-2571.539	1	5500.651	-27.87196	-8.751162E-007	0.0264924	8
	7	4	199546.9	5180.125	-2524.147	1	5762.379	-25.97883	-1.331414E-006	0.0268097	8
	8	4	158578.1	5484.098	-2514.638	1	6033.136	-24.633	-7.948755E-007	0.0264366	8
	9	4	125953.1	5894.372	-2444.27	1	6381.072	-22.52274	6.22756E-007	0.0255922	7
	10	5	100078.1	6179.674	-2476.796	1	6657.543	-21.84078	-5.317763E-008	0.0264249	7
	11	5	79453.13	6465.041	-2541.671	1	6946.715	-21.46181	3.553996E-009	0.0262771	7
	12	5	63140.62	6756.905	-2648.448	1	7257.413	-21.40328	-4.335647E-008	0.0263856	7
	13	6	50203.12	7058.289	-2795.985	1	7591.902	-21.6099	1.490438E-009	0.0263618	7
	14	6	39890.62	7372.856	-2989.752	1	7955.98	-22.07295	2.438386E-009	0.0263637	7
	15	6	31640.63	7712.732	-3229.599	1	8361.611	-22.72082	5.946476E-008	0.0263392	7
	16	7	25171.88	8075.021	-3526.417	1	8811.446	-23.59122	5.884857E-008	0.026337	7
	17	7	20015.62	8467.039	-3873.397	1	9310.959	-24.58256	-1.588052E-008	0.0264668	7
	18	7	15890.62	8906.308	-4281.223	1	9881.86	-25.67339	7.984956E-008	0.0261966	7
	19	8	12609.37	9436.585	-4708.729	1	10546.15	-26.51858	-1.835388E-011	0.0262322	6
	20	8	10078.13	9958.05	-5261.444	1	11262.58	-27.85021	2.636199E-009	0.0262558	6
	21	8	8015.625	10543.63	-5914.335	1	12089.15	-29.28978	4.452861E-009	0.026346	6
	22	9	6328.125	11244.44	-6684.282	1	13081.17	-30.72946	-3.568287E-009	0.026392	6
	23	9	5015.625	12015.53	-7554.557	1	14193.11	-32.15892	-3.174154E-009	0.0264759	6
	24	9	3984.375	12859.91	-8542.465	1	15438.62	-33.59493	5.68588E-009	0.0261369	6
	25	10	3170.956	13844.12	-9656.63	1	16879.28	-34.89677	8.215103E-009	0.0261425	6
	26	10	2527.573	14928.68	-10922.9	1	18497.98	-36.1919	-7.352537E-010	0.0262623	6
	27	10	1976.103	16269.11	-12491.91	1	20511.75	-37.51814	-5.03283E-009	0.0263913	6
	28	11	1577.524	17673.02	-14131.86	1	22628.42	-38.64685	1.706608E-008	0.0260251	6
	29	11	1265.625	19194.29	-15942.82	1	24951.84	-39.7131	-9.569348E-009	0.0264058	6
	30	11	998.264	21082.44	-18156.8	1	27823.35	-40.73597	8.326768E-009	0.0261379	6
	31	12	796.875	23089.57	-20558.83	1	30915.91	-41.6817	1.36022E-008	0.0261839	6
	32	12	627.7902	25541.17	-23473.72	1	34689.57	-42.58469	2.304128E-009	0.0263727	6
	33	12	505.5147	28017.79	-26459.98	1	38537.34	-43.36206	-3.499979E-009	0.0263832	6
	34	12	397.9953	31137.5	-30218.26	1	43389.95	-44.14165	1.132367E-009	0.0263333	6
	35	13	315.5048	34578.5	-34418.61	1	48788.45	-44.86723	3.320718E-010	0.0263315	6
	36	13	252.4038	38364.32	-39054.97	1	54745.88	-45.51112	5.204182E-010	0.0263283	6
	37	13	198.6229	42975.14	-44717.68	1	62020.43	-46.13837	1.011886E-009	0.0263282	6
	38	14	158.3615	48015.31	-50826.23	1	69919.78	-46.62897	1.366808E-009	0.0263265	6
	39	14	125.558	53989.82	-58020.75	1	79254.7	-47.06102	1.059802E-009	0.0263266	6
	40	14	100.4464	60486.18	-66005.57	1	89528.28	-47.49848	8.747283E-011	0.0263245	6
	41	15	79.00281	68327.66	-75145.65	1	101565.4	-47.7207	-3.850443E-010	0.0263223	5
	42	15	63.3446	80611.22	-83953.27	1	116388.7	-46.16343	3.069515E-010	0.0263198	5
	43	15	49.86702	90973	-96038.1	1	132285.3	-46.55146	8.966854E-010	0.0263189	5
	44	16	39.72458	100746.6	-108300.1	1	147914.8	-47.06937	1.711302E-010	0.0263273	5
	45	16	31.6723	113514.9	-121691	1	166416.1	-46.99089	-1.747207E-012	0.0263244	5
	46	17	24.93351	129795.4	-137282.7	1	188927	-46.60582	4.468332E-010	0.0263206	5
	47	17	19.86229	146327.9	-153783.9	1	212276.6	-46.42316	1.507841E-009	0.0263203	5
	48	17	15.83615	163347.2	-171496.2	1	236840.2	-46.39411	-4.675043E-010	0.0263194	5
	49	17	12.40079	186779.6	-192842.8	1	268467.8	-45.91504	8.203704E-010	0.0263239	5
	50	18	9.93114	210055.8	-217640.7	1	302474.7	-46.016	-4.907657E-010	0.0263216	5
	51	18	7.944915	235233.5	-244860.5	1	339546	-46.14876	1.006513E-010	0.0263159	5
	52	19	6.317385	263338	-273874.6	1	379939.8	-46.12362	-8.171706E-012	0.026323	5
	53	20	5.008013	296506.3	-307827.2	1	427403.3	-46.0732	-2.106915E-010	0.0263177	5
	54	21	3.945707	333861.8	-345694.5	1	480591.7	-45.99755	1.716834E-010	0.0263207	5
	55	22	3.158693	372818.2	-385463	1	536260.3	-45.95535	-4.301785E-012	0.0263266	5
	56	24	2.504006	414849.1	-432750.1	1	599476.8	-46.20989	-8.985662E-011	0.0263197	5
	57	25	1.998082	457280.7	-484398.4	1	666143.8	-46.6495	1.450465E-010	0.0263498	5
	58	27	1.584686	503209.1	-550838.1	1	746084.4	-47.58725	1.606308E-010	0.0263623	5
	59	29	1.266892	549091.3	-626274.5	1	832899.1	-48.75707	1.083016E-010	0.0263166	5
	60	31	0.999041	604166.9	-723967.1	1	942945.4	-50.15424	8.150574E-011	0.0262904	5
