EXPLAIN
TAG	EISPOT
TITLE	LABEL	Potentiostatic EIS	Test &Identifier
DATE	LABEL	2/11/2020	Date
TIME	LABEL	12:49:47	Time
NOTES	NOTES	6	&Notes...
	
	
	
	
	
	
PSTAT	PSTAT	REF600-11020	Potentiostat
VDC	POTEN	0.00000E+000	T	DC &Voltage (V)
FREQINIT	QUANT	1.00000E+006	Initial Fre&q. (Hz)
FREQFINAL	QUANT	1.00000E+000	Final Fre&q. (Hz)
PTSPERDEC	QUANT	1.00000E+001	Points/&decade
VAC	QUANT	2.50000E+001	AC &Voltage (mV rms)
AREA	QUANT	4.00000E-005	&Area (cm^2)
CONDIT	TWOPARAM	F	5.00000E+000	0.00000E+000	Conditionin&g	Time(s)	E(V)
DELAY	TWOPARAM	F	5.00000E+000	0.00000E+000	Init. De&lay	Time(s)	Stab.(mV/s)
SPEED	SELECTOR	0	&Optimize for:
ZGUESS	QUANT	1.00000E+003	E&stimated Z (ohms)
OCVCURVE	TABLE	39
	Pt	T	Vf	Vm	Ach	Over
	#	s	V vs. Ref.	V	V	bits
	0	0.258333	3.14740E-002	3.14740E-002	5.72704E-004	...........
	1	0.516667	3.14737E-002	3.14568E-002	5.70304E-004	...........
	2	0.775	3.14721E-002	3.14658E-002	5.70271E-004	...........
	3	1.03333	3.14698E-002	3.14930E-002	5.69971E-004	...........
	4	1.29167	3.14701E-002	3.15175E-002	5.69304E-004	...........
	5	1.55	3.14773E-002	3.15240E-002	5.65671E-004	...........
	6	1.80833	3.14911E-002	3.15354E-002	5.69604E-004	...........
	7	2.06667	3.15070E-002	3.15406E-002	5.72704E-004	...........
	8	2.325	3.15209E-002	3.15432E-002	5.65004E-004	...........
	9	2.58333	3.15313E-002	3.15434E-002	5.67904E-004	...........
	10	2.84167	3.15379E-002	3.15409E-002	5.70471E-004	...........
	11	3.1	3.15412E-002	3.15412E-002	5.68404E-004	...........
	12	3.35833	3.15423E-002	3.15418E-002	5.69404E-004	...........
	13	3.61667	3.15421E-002	3.15383E-002	5.71104E-004	...........
	14	3.875	3.15414E-002	3.15386E-002	5.65104E-004	...........
	15	4.13333	3.15404E-002	3.15321E-002	5.71304E-004	...........
	16	4.39167	3.15388E-002	3.15271E-002	5.68838E-004	...........
	17	4.65	3.15362E-002	3.15256E-002	5.68504E-004	...........
	18	4.90833	3.15327E-002	3.15196E-002	5.72238E-004	...........
	19	5.16667	3.15287E-002	3.15138E-002	5.68671E-004	...........
	20	5.425	3.15244E-002	3.15110E-002	5.71971E-004	...........
	21	5.68333	3.15198E-002	3.15035E-002	5.72471E-004	...........
	22	5.94167	3.15151E-002	3.15044E-002	5.72038E-004	...........
	23	6.2	3.15105E-002	3.14966E-002	5.69204E-004	...........
	24	6.45833	3.15063E-002	3.14972E-002	5.70671E-004	...........
	25	6.71667	3.15024E-002	3.14830E-002	5.71471E-004	...........
	26	6.975	3.14980E-002	3.14776E-002	5.73071E-004	...........
	27	7.23333	3.14924E-002	3.14677E-002	5.72838E-004	...........
	28	7.49167	3.14852E-002	3.14520E-002	5.74304E-004	...........
	29	7.75	3.14763E-002	3.14382E-002	5.67538E-004	...........
	30	8.00833	3.14656E-002	3.14245E-002	5.67704E-004	...........
	31	8.26667	3.14504E-002	3.12683E-002	5.68138E-004	...........
	32	8.525	3.14233E-002	3.12813E-002	5.68904E-004	...........
	33	8.78333	3.13807E-002	3.12649E-002	5.71604E-004	...........
	34	9.04167	3.13330E-002	3.12572E-002	5.71771E-004	...........
	35	9.3	3.12938E-002	3.11925E-002	5.61871E-004	...........
	36	9.5583	3.12652E-002	3.12331E-002	5.66204E-004	...........
	37	9.8167	3.12431E-002	3.11869E-002	5.66438E-004	...........
	38	10.075	3.12285E-002	3.13379E-002	5.69104E-004	...........
EOC	QUANT	0.0312285	Open Circuit (V)
PSTATMODEL	IQUANT	4	Pstat Model
PSTATSECTION	LABEL	REF600-11020	Pstat Section
PSTATSERIALNO	LABEL	11020	Pstat Serial Number
CTRLMODE	IQUANT	1	Control Mode
IESTAB	IQUANT	0	I/E Stability
CASPEED	IQUANT	1	Control Amp Speed
CONVENTION	IQUANT	1	Current Convention
ICHRANGE	IQUANT	2	Ich Range
ICHRANGEMODE	TOGGLE	F	Ich Auto Range
ICHOFFSETENABLE	TOGGLE	T	Ich Offset Enable
ICHOFFSET	QUANT	0	Ich Offset (V)
ICHFILTER	IQUANT	3	Ich Filter
VCHRANGE	IQUANT	2	Vch Range
VCHRANGEMODE	TOGGLE	F	Vch Auto Range
VCHOFFSETENABLE	TOGGLE	T	Vch Offset Enable
VCHOFFSET	QUANT	0	Vch Offset (V)
VCHFILTER	IQUANT	3	Vch Filter
ACHRANGE	IQUANT	2	Ach Range
ACHOFFSETENABLE	TOGGLE	F	Ach Offset Enable
ACHOFFSET	QUANT	0	Ach Offset (V)
ACHFILTER	IQUANT	3	Ach Filter
IERANGELOWERLIMIT	IQUANT	1	I/E Range Lower Limit
IERANGEMODE	TOGGLE	F	I/E AutoRange
IERANGE	IQUANT	7	I/E Range
POSFEEDENABLE	TOGGLE	F	Positive Feedback IR Comp
POSFEEDRESISTANCE	QUANT	0	Positive Feedback Resistance (ohm)
ACHSELECT	IQUANT	0	Ach Select
CABLEID	IQUANT	14	Cable ID
DCCALDATE	LABEL	1/27/2020	DC Calibration Date
ACCALDATE	LABEL	1/27/2020	AC Calibration Date
THERMOSELECT	IQUANT	1	Thermo Select
FRAMEWORKVERSION	QUANT	6.33	Framework Version
INSTRUMENTVERSION	LABEL	3.50	Instrument Version
ZCURVE	TABLE
	Pt	Time	Freq	Zreal	Zimag	Zsig	Zmod	Zphz	Idc	Vdc	IERange
	#	s	Hz	ohm	ohm	V	ohm	°	A	V	#
	0	2	1000078	2149.444	-2174.781	1	3057.741	-45.33572	-6.794367E-006	0.0349612	8
	1	2	794390.6	2553.055	-2307.643	1	3441.411	-42.10965	-1.698299E-006	0.0339743	8
	2	2	630984.4	3016.754	-2373.342	1	3838.431	-38.19286	-1.097348E-006	0.0333642	8
	3	2	501234.4	3445.814	-2394.192	1	4195.926	-34.79202	-1.041551E-006	0.0333202	8
	4	3	398109.4	3914.499	-2346.28	1	4563.807	-30.93771	-1.217134E-006	0.0331697	8
	5	3	316265.6	4339.712	-2262.83	1	4894.231	-27.53862	-1.024504E-006	0.033197	8
	6	3	251203.1	4684.147	-2152.509	1	5155.049	-24.68023	2.160974E-006	0.0322295	8
	7	4	199546.9	5036.496	-1987.837	1	5414.59	-21.53848	-3.451149E-006	0.0334732	8
	8	4	158578.1	5345.5	-1831.249	1	5650.473	-18.91031	4.405907E-006	0.0320568	8
	9	4	125953.1	5632.003	-1628.85	1	5862.816	-16.13057	7.6992E-007	0.0311636	7
	10	5	100078.1	5850.483	-1476.885	1	6034.015	-14.16765	4.398646E-008	0.0326319	7
	11	5	79453.13	6034.333	-1341.05	1	6181.553	-12.5296	2.485572E-008	0.0326661	7
	12	6	63140.62	6184.743	-1227.319	1	6305.344	-11.22412	-6.439692E-009	0.0327951	7
	13	6	50203.12	6314.26	-1130.039	1	6414.583	-10.14659	-4.38301E-009	0.0327934	7
	14	6	39890.62	6426.817	-1053.716	1	6512.625	-9.311153	3.570462E-008	0.0327211	7
	15	7	31640.63	6528.705	-1002.786	1	6605.268	-8.732184	-1.474254E-008	0.0328861	7
	16	7	25171.88	6623.92	-974.35	1	6695.198	-8.367953	3.568714E-008	0.0327199	7
	17	7	20015.62	6710.335	-968.488	1	6779.865	-8.212662	-2.333701E-008	0.0327492	7
	18	8	15890.62	6801.333	-983.403	1	6872.061	-8.227365	-6.059599E-008	0.0328353	7
	19	8	12609.37	6898.01	-1020.032	1	6973.02	-8.411564	-4.138258E-008	0.0327759	7
	20	8	10078.13	6994.134	-1081.792	1	7077.3	-8.792341	1.33432E-007	0.0325531	7
	21	8	8015.625	7101.027	-1157.911	1	7194.814	-9.26128	7.307003E-008	0.0326161	7
	22	9	6328.125	7215.825	-1267.144	1	7326.239	-9.95995	-3.556325E-009	0.0327779	7
	23	9	5015.625	7336.353	-1398.669	1	7468.491	-10.79386	-6.091776E-008	0.0328332	7
	24	9	3984.375	7466.206	-1557.118	1	7626.851	-11.78049	-2.228046E-008	0.032741	7
	25	10	3170.956	7603.878	-1747.875	1	7802.181	-12.94549	-5.729919E-009	0.032778	7
	26	10	2527.573	7746.07	-1971.566	1	7993.039	-14.27998	-5.60225E-009	0.0326821	7
	27	10	1976.103	7909.443	-2278.492	1	8231.088	-16.07023	-5.888234E-009	0.0326855	7
	28	11	1577.524	8071.04	-2626.346	1	8487.602	-18.02508	-5.401196E-008	0.0328576	7
	29	11	1265.625	8231.284	-3044.35	1	8776.224	-20.29697	-4.817448E-009	0.0327802	7
	30	11	998.264	8426.5	-3589.411	1	9159.136	-23.0724	1.497337E-008	0.0325706	6
	31	12	796.875	8630.14	-4242.401	1	9616.51	-26.17779	3.584591E-009	0.0327637	6
	32	12	627.7902	8875.975	-5091.545	1	10232.63	-29.83997	1.665416E-008	0.0324324	6
	33	12	505.5147	9133.031	-6047.52	1	10953.76	-33.5109	1.197908E-009	0.0328169	6
	34	13	397.9953	9470.948	-7340.833	1	11982.77	-37.77889	1.161533E-009	0.0327517	6
	35	13	315.5048	9869.09	-8886.204	1	13280.19	-42.00012	1.004506E-009	0.0327526	6
	36	13	252.4038	10338.37	-10703.88	1	14881.36	-45.99514	1.040409E-009	0.0327474	6
	37	14	198.6229	10962.99	-13083.69	1	17069.56	-50.03993	7.225898E-010	0.0327484	6
	38	14	158.3615	11698.51	-15832.13	1	19685.31	-53.53896	-3.129431E-011	0.0327471	6
	39	14	125.558	12648.27	-19241.38	1	23026.28	-56.68118	6.17019E-010	0.0327458	6
	40	15	100.4464	13810.44	-23207.73	1	27006.05	-59.244	1.714013E-009	0.0327454	6
	41	15	79.00281	15337.7	-28415.86	1	32290.96	-61.64167	1.002051E-009	0.0327484	6
	42	15	63.3446	16892.57	-33801.12	1	37787.23	-63.44578	6.144545E-010	0.0327465	6
	43	16	49.86702	19369.78	-41252.55	1	45573.7	-64.848	6.280488E-010	0.0327452	6
	44	16	39.72458	22282.58	-49933.07	1	54679.29	-65.95123	7.979911E-010	0.0327486	6
	45	16	31.6723	25674.6	-60175.43	1	65423.76	-66.89388	5.109577E-010	0.0327458	6
	46	17	24.93351	30523.73	-73003.66	1	79127.95	-67.30959	2.84716E-010	0.0327439	6
	47	17	19.86229	36259.84	-87608.63	1	94815.87	-67.5161	-4.011842E-010	0.0327387	6
	48	17	15.83615	42918.42	-104816.5	1	113262.9	-67.73274	-1.071821E-010	0.0327399	5
	49	18	12.40079	52938.93	-126991.5	1	137584.1	-67.37022	1.115091E-009	0.032742	5
	50	18	9.93114	65653.56	-151068.8	1	164718.4	-66.51053	8.519169E-010	0.0327413	5
	51	18	7.944915	80604.32	-177893.9	1	195303.1	-65.62457	7.706959E-011	0.0327463	5
	52	19	6.317385	99764.9	-209336.7	1	231894.2	-64.51865	-2.495335E-010	0.0327492	5
	53	20	5.008013	123661.6	-245082.4	1	274513.3	-63.22578	1.149792E-010	0.0327501	5
	54	21	3.945707	153117.8	-286305.9	1	324678.5	-61.86191	-2.589085E-010	0.0327407	5
	55	22	3.158693	185174.2	-327639.6	1	376347.2	-60.52589	3.249185E-010	0.032731	5
	56	24	2.504006	223534.6	-376008.1	1	437435.5	-59.26877	1.790337E-010	0.0327409	5
	57	25	1.998082	264316.3	-427829.8	1	502893	-58.29193	-1.1856E-010	0.032693	5
	58	27	1.584686	309490.1	-489532.2	1	579159.6	-57.69827	1.761641E-011	0.0327038	5
	59	29	1.266892	358484.8	-556659.8	1	662103.8	-57.21877	8.3685E-011	0.0327419	5
	60	31	0.999041	418728.4	-638187.1	1	763293	-56.73025	-3.959241E-011	0.0327695	5
