EXPLAIN
TAG	EISPOT
TITLE	LABEL	Potentiostatic EIS	Test &Identifier
DATE	LABEL	2/6/2020	Date
TIME	LABEL	18:02:54	Time
NOTES	NOTES	6	&Notes...
	
	
	
	
	
	
PSTAT	PSTAT	REF600-11020	Potentiostat
VDC	POTEN	0.00000E+000	T	DC &Voltage (V)
FREQINIT	QUANT	1.00000E+006	Initial Fre&q. (Hz)
FREQFINAL	QUANT	1.00000E+000	Final Fre&q. (Hz)
PTSPERDEC	QUANT	1.00000E+001	Points/&decade
VAC	QUANT	2.50000E+001	AC &Voltage (mV rms)
AREA	QUANT	1.60000E-004	&Area (cm^2)
CONDIT	TWOPARAM	F	5.00000E+000	0.00000E+000	Conditionin&g	Time(s)	E(V)
DELAY	TWOPARAM	F	5.00000E+000	0.00000E+000	Init. De&lay	Time(s)	Stab.(mV/s)
SPEED	SELECTOR	0	&Optimize for:
ZGUESS	QUANT	1.00000E+003	E&stimated Z (ohms)
OCVCURVE	TABLE	39
	Pt	T	Vf	Vm	Ach	Over
	#	s	V vs. Ref.	V	V	bits
	0	0.258333	-3.81929E-002	-3.81929E-002	5.25938E-004	...........
	1	0.516667	-3.81924E-002	-3.81620E-002	5.30505E-004	...........
	2	0.775	-3.81887E-002	-3.81334E-002	5.28072E-004	...........
	3	1.03333	-3.81790E-002	-3.81283E-002	5.30572E-004	...........
	4	1.29167	-3.81632E-002	-3.81072E-002	5.26605E-004	...........
	5	1.55	-3.81447E-002	-3.80850E-002	5.30938E-004	...........
	6	1.80833	-3.81261E-002	-3.80759E-002	5.26938E-004	...........
	7	2.06667	-3.81081E-002	-3.80592E-002	5.31871E-004	...........
	8	2.325	-3.80914E-002	-3.80564E-002	5.33305E-004	...........
	9	2.58333	-3.80771E-002	-3.80545E-002	5.38005E-004	...........
	10	2.84167	-3.80663E-002	-3.80557E-002	5.35705E-004	...........
	11	3.1	-3.80595E-002	-3.80589E-002	5.34805E-004	...........
	12	3.35833	-3.80568E-002	-3.80702E-002	5.33638E-004	...........
	13	3.61667	-3.80582E-002	-3.81011E-002	5.32038E-004	...........
	14	3.875	-3.80647E-002	-3.81014E-002	5.28138E-004	...........
	15	4.13333	-3.80748E-002	-3.80580E-002	5.30205E-004	...........
	16	4.39167	-3.80825E-002	-3.80701E-002	5.28238E-004	...........
	17	4.65	-3.80833E-002	-3.81045E-002	5.34738E-004	...........
	18	4.90833	-3.80817E-002	-3.81042E-002	5.29472E-004	...........
	19	5.16667	-3.80847E-002	-3.81247E-002	5.30738E-004	...........
	20	5.425	-3.80946E-002	-3.81653E-002	5.32505E-004	...........
	21	5.68333	-3.81104E-002	-3.81796E-002	5.32805E-004	...........
	22	5.94167	-3.81303E-002	-3.81587E-002	5.24305E-004	...........
	23	6.2	-3.81492E-002	-3.81758E-002	5.30005E-004	...........
	24	6.45833	-3.81624E-002	-3.81862E-002	5.27938E-004	...........
	25	6.71667	-3.81702E-002	-3.81831E-002	5.24938E-004	...........
	26	6.975	-3.81763E-002	-3.82084E-002	5.29472E-004	...........
	27	7.23333	-3.81835E-002	-3.82388E-002	5.29138E-004	...........
	28	7.49167	-3.81937E-002	-3.81979E-002	5.24238E-004	...........
	29	7.75	-3.82052E-002	-3.82429E-002	5.26572E-004	...........
	30	8.00833	-3.82167E-002	-3.83422E-002	5.25672E-004	...........
	31	8.26667	-3.82310E-002	-3.81366E-002	5.30438E-004	...........
	32	8.525	-3.82465E-002	-3.84467E-002	5.29871E-004	...........
	33	8.78333	-3.82628E-002	-3.82783E-002	5.29105E-004	...........
	34	9.04167	-3.82871E-002	-3.84768E-002	5.32505E-004	...........
	35	9.3	-3.83196E-002	-3.82762E-002	5.40571E-004	...........
	36	9.5583	-3.83468E-002	-3.83421E-002	5.35438E-004	...........
	37	9.8167	-3.83564E-002	-3.83679E-002	5.30805E-004	...........
	38	10.075	-3.83535E-002	-3.83756E-002	5.27538E-004	...........
EOC	QUANT	-0.0383535	Open Circuit (V)
PSTATMODEL	IQUANT	4	Pstat Model
PSTATSECTION	LABEL	REF600-11020	Pstat Section
PSTATSERIALNO	LABEL	11020	Pstat Serial Number
CTRLMODE	IQUANT	1	Control Mode
IESTAB	IQUANT	0	I/E Stability
CASPEED	IQUANT	1	Control Amp Speed
CONVENTION	IQUANT	1	Current Convention
ICHRANGE	IQUANT	2	Ich Range
ICHRANGEMODE	TOGGLE	F	Ich Auto Range
ICHOFFSETENABLE	TOGGLE	T	Ich Offset Enable
ICHOFFSET	QUANT	0	Ich Offset (V)
ICHFILTER	IQUANT	3	Ich Filter
VCHRANGE	IQUANT	2	Vch Range
VCHRANGEMODE	TOGGLE	F	Vch Auto Range
VCHOFFSETENABLE	TOGGLE	T	Vch Offset Enable
VCHOFFSET	QUANT	0	Vch Offset (V)
VCHFILTER	IQUANT	3	Vch Filter
ACHRANGE	IQUANT	2	Ach Range
ACHOFFSETENABLE	TOGGLE	F	Ach Offset Enable
ACHOFFSET	QUANT	0	Ach Offset (V)
ACHFILTER	IQUANT	3	Ach Filter
IERANGELOWERLIMIT	IQUANT	1	I/E Range Lower Limit
IERANGEMODE	TOGGLE	F	I/E AutoRange
IERANGE	IQUANT	7	I/E Range
POSFEEDENABLE	TOGGLE	F	Positive Feedback IR Comp
POSFEEDRESISTANCE	QUANT	0	Positive Feedback Resistance (ohm)
ACHSELECT	IQUANT	0	Ach Select
CABLEID	IQUANT	14	Cable ID
DCCALDATE	LABEL	1/27/2020	DC Calibration Date
ACCALDATE	LABEL	1/27/2020	AC Calibration Date
THERMOSELECT	IQUANT	1	Thermo Select
FRAMEWORKVERSION	QUANT	6.33	Framework Version
INSTRUMENTVERSION	LABEL	3.50	Instrument Version
ZCURVE	TABLE
	Pt	Time	Freq	Zreal	Zimag	Zsig	Zmod	Zphz	Idc	Vdc	IERange
	#	s	Hz	ohm	ohm	V	ohm	°	A	V	#
	0	1	1000078	2002.482	-1685.509	1	2617.417	-40.08765	-1.551371E-006	-0.0355904	8
	1	2	794390.6	2312.286	-1735.029	1	2890.846	-36.8828	-2.224947E-007	-0.0361395	8
	2	2	630984.4	2630.251	-1758.771	1	3164.095	-33.76947	1.844762E-006	-0.0367727	8
	3	2	501234.4	2945.882	-1744.754	1	3423.797	-30.63693	1.457287E-006	-0.0368737	8
	4	3	398109.4	3254.038	-1715.81	1	3678.691	-27.80207	4.144836E-007	-0.0366158	8
	5	3	316265.6	3523.699	-1653.005	1	3892.156	-25.13177	-2.447306E-006	-0.036179	8
	6	3	251203.1	3778.632	-1574.183	1	4093.423	-22.61667	1.185561E-006	-0.0369174	8
	7	4	199546.9	4026.027	-1499.738	1	4296.29	-20.4309	4.690104E-007	-0.0366663	8
	8	4	158578.1	4239.19	-1415.853	1	4469.382	-18.46888	3.12604E-006	-0.0371193	8
	9	4	125953.1	4456.754	-1314.447	1	4646.55	-16.43257	4.615796E-007	-0.0373883	7
	10	5	100078.1	4631.711	-1247.917	1	4796.879	-15.07907	-1.62108E-008	-0.0367073	7
	11	5	79453.13	4787.447	-1197.209	1	4934.872	-14.04015	-3.065027E-008	-0.0366921	7
	12	5	63140.62	4933.764	-1160.096	1	5068.318	-13.23183	3.283178E-008	-0.0368125	7
	13	6	50203.12	5070.647	-1137.245	1	5196.613	-12.64111	-5.586783E-010	-0.0366904	7
	14	6	39890.62	5205.433	-1128.229	1	5326.296	-12.22918	-2.143653E-008	-0.0366356	7
	15	6	31640.63	5337.802	-1132.82	1	5456.685	-11.98188	-1.324792E-008	-0.0367285	7
	16	7	25171.88	5471.963	-1150.107	1	5591.523	-11.86975	-2.349774E-008	-0.0367008	7
	17	7	20015.62	5610.068	-1183.771	1	5733.601	-11.9151	-4.143143E-008	-0.0366588	7
	18	7	15890.62	5752.996	-1229.612	1	5882.934	-12.06455	-2.558242E-008	-0.0367061	7
	19	7	12609.37	5900.782	-1288.677	1	6039.861	-12.31945	-2.384154E-008	-0.0366965	7
	20	8	10078.13	6046.323	-1362.693	1	6197.98	-12.70086	5.864635E-008	-0.0368424	7
	21	8	8015.625	6202.813	-1444.564	1	6368.803	-13.10985	1.837492E-008	-0.0367894	7
	22	8	6328.125	6367.933	-1556.104	1	6555.305	-13.73201	-2.643008E-008	-0.0367091	7
	23	9	5015.625	6534.065	-1690.043	1	6749.092	-14.5018	5.566923E-008	-0.0367506	7
	24	9	3984.375	6699.313	-1848.97	1	6949.783	-15.42919	1.84454E-008	-0.0367954	7
	25	9	3170.956	6864.434	-2049.18	1	7163.77	-16.62148	-5.378002E-009	-0.036645	7
	26	10	2527.573	7035.003	-2293.05	1	7399.28	-18.05331	2.764104E-008	-0.0367612	7
	27	10	1976.103	7225.48	-2629.224	1	7688.978	-19.99555	6.984397E-010	-0.0367051	7
	28	10	1577.524	7414.439	-3010.899	1	8002.464	-22.10138	-5.415343E-009	-0.036707	7
	29	11	1265.625	7609.253	-3474.11	1	8364.817	-24.53973	9.723302E-008	-0.0368791	7
	30	11	998.264	8839.42	-4092.573	1	8843.396	-27.56683	-2.020479E-008	-0.0366472	7
	31	11	796.875	8087.559	-4802.754	1	9406.118	-30.70374	1.221757E-008	-0.0369594	6
	32	12	627.7902	8384.236	-5741.709	1	10161.82	-34.4042	-7.489372E-010	-0.03674	6
	33	12	505.5147	8691.231	-6782.164	1	11024.3	-37.96654	5.068714E-009	-0.0368549	6
	34	12	397.9953	9090.658	-8188.489	1	12234.84	-42.01122	9.003978E-010	-0.0367199	6
	35	13	315.5048	9549.76	-9862.31	1	13728.18	-45.92244	6.510169E-010	-0.0367261	6
	36	13	252.4038	10065.67	-11819.77	1	15524.97	-49.5824	1.355287E-009	-0.036725	6
	37	13	198.6229	10723.58	-14391.15	1	17947.15	-53.30833	7.470212E-010	-0.036723	6
	38	14	158.3615	11465.68	-17370.4	1	20813.28	-56.57239	1.289178E-009	-0.0367248	6
	39	14	125.558	12383.25	-21103.17	1	24468.12	-59.59576	9.443192E-010	-0.0367267	6
	40	14	100.4464	13477.41	-25486.44	1	28830.52	-62.1298	1.106805E-010	-0.0367362	6
	41	14	79.00281	14839.2	-31298.12	1	34637.75	-64.63323	4.207321E-010	-0.0367317	6
	42	15	63.3446	16736.46	-37531.54	1	41094.11	-65.96645	7.341558E-010	-0.0367298	6
	43	15	49.86702	19026.39	-46271.04	1	50030.12	-67.64781	1.217187E-009	-0.0367357	6
	44	16	39.72458	21580.02	-56308.37	1	60302	-69.03082	1.094124E-009	-0.0367311	6
	45	16	31.6723	25106.56	-68320.48	1	72787.55	-69.82252	9.236284E-010	-0.0367339	6
	46	16	24.93351	30188.12	-83704.66	1	88981.98	-70.16814	7.255542E-010	-0.0367303	6
	47	17	19.86229	36451.45	-101012.8	1	107388.5	-70.15753	5.947586E-010	-0.0367238	5
	48	17	15.83615	45371.36	-123000.8	1	131102	-69.75246	-2.0737E-009	-0.0367335	5
	49	17	12.40079	55454	-148414.2	1	158435.9	-69.51213	4.35769E-010	-0.0367315	5
	50	17	9.93114	69809.63	-176578.7	1	189877.4	-68.42885	6.399175E-010	-0.0367366	5
	51	18	7.944915	87308.6	-209432.4	1	226902.4	-67.36962	-6.218538E-011	-0.0367328	5
	52	19	6.317385	110081.9	-247689.4	1	271049.9	-66.03796	-5.396615E-011	-0.0367286	5
	53	19	5.008013	139199.5	-291185.6	1	322746.8	-64.45016	4.162374E-010	-0.0367243	5
	54	20	3.945707	176278.5	-340904.2	1	383783.5	-62.65693	-1.23949E-010	-0.0367427	5
	55	22	3.158693	217839.2	-390293.4	1	446970.8	-60.83228	1.336253E-010	-0.0367459	5
	56	23	2.504006	267630	-446538.4	1	520598.1	-59.0639	2.670534E-010	-0.0367395	5
	57	25	1.998082	323080.8	-503913.2	1	598589.8	-57.33429	1.524953E-011	-0.0367773	5
	58	26	1.584686	385360.7	-569912	1	687969.9	-55.93439	-1.820761E-011	-0.0367839	5
	59	28	1.266892	449778	-637609	1	780285.6	-54.80034	2.719149E-011	-0.0367432	5
	60	31	0.999041	524688.1	-717350.8	1	888757.4	-53.81734	6.603679E-011	-0.0367197	5
