EXPLAIN
TAG	EISPOT
TITLE	LABEL	Potentiostatic EIS	Test &Identifier
DATE	LABEL	6/6/2020	Date
TIME	LABEL	18:11:36	Time
NOTES	NOTES	1	&Notes...
	
PSTAT	PSTAT	REF600-11020	Potentiostat
VDC	POTEN	0.00000E+000	T	DC &Voltage (V)
FREQINIT	QUANT	1.00000E+006	Initial Fre&q. (Hz)
FREQFINAL	QUANT	1.00000E+000	Final Fre&q. (Hz)
PTSPERDEC	QUANT	1.00000E+001	Points/&decade
VAC	QUANT	2.50000E+001	AC &Voltage (mV rms)
AREA	QUANT	4.00000E-004	&Area (cm^2)
CONDIT	TWOPARAM	F	5.00000E+000	0.00000E+000	Conditionin&g	Time(s)	E(V)
DELAY	TWOPARAM	T	3.00000E+000	0.00000E+000	Init. De&lay	Time(s)	Stab.(mV/s)
SPEED	SELECTOR	0	&Optimize for:
ZGUESS	QUANT	1.00000E+003	E&stimated Z (ohms)
OCVCURVE	TABLE	12
	Pt	T	Vf	Vm	Ach	Over
	#	s	V vs. Ref.	V	V	bits
	0	0.258333	-1.16714E-002	-1.16714E-002	5.57497E-004	...........
	1	0.516667	-1.16712E-002	-1.16591E-002	5.51564E-004	...........
	2	0.775	-1.16697E-002	-1.16467E-002	5.60464E-004	...........
	3	1.03333	-1.16656E-002	-1.16367E-002	5.53397E-004	...........
	4	1.29167	-1.16583E-002	-1.16281E-002	5.64863E-004	...........
	5	1.55	-1.16489E-002	-1.16181E-002	5.67097E-004	...........
	6	1.80833	-1.16388E-002	-1.16124E-002	5.54997E-004	...........
	7	2.06667	-1.16292E-002	-1.16035E-002	5.60730E-004	...........
	8	2.325	-1.16203E-002	-1.15912E-002	5.55964E-004	...........
	9	2.58333	-1.16116E-002	-1.15815E-002	5.59897E-004	...........
	10	2.84167	-1.16025E-002	-1.15753E-002	5.55364E-004	...........
	11	3.1	-1.15933E-002	-1.15744E-002	5.58297E-004	...........
EOC	QUANT	-0.0115933	Open Circuit (V)
PSTATMODEL	IQUANT	4	Pstat Model
PSTATSECTION	LABEL	REF600-11020	Pstat Section
PSTATSERIALNO	LABEL	11020	Pstat Serial Number
CTRLMODE	IQUANT	1	Control Mode
IESTAB	IQUANT	0	I/E Stability
CASPEED	IQUANT	1	Control Amp Speed
CONVENTION	IQUANT	1	Current Convention
ICHRANGE	IQUANT	2	Ich Range
ICHRANGEMODE	TOGGLE	F	Ich Auto Range
ICHOFFSETENABLE	TOGGLE	T	Ich Offset Enable
ICHOFFSET	QUANT	0	Ich Offset (V)
ICHFILTER	IQUANT	3	Ich Filter
VCHRANGE	IQUANT	2	Vch Range
VCHRANGEMODE	TOGGLE	F	Vch Auto Range
VCHOFFSETENABLE	TOGGLE	T	Vch Offset Enable
VCHOFFSET	QUANT	0	Vch Offset (V)
VCHFILTER	IQUANT	3	Vch Filter
ACHRANGE	IQUANT	2	Ach Range
ACHOFFSETENABLE	TOGGLE	F	Ach Offset Enable
ACHOFFSET	QUANT	0	Ach Offset (V)
ACHFILTER	IQUANT	3	Ach Filter
IERANGELOWERLIMIT	IQUANT	1	I/E Range Lower Limit
IERANGEMODE	TOGGLE	F	I/E AutoRange
IERANGE	IQUANT	7	I/E Range
POSFEEDENABLE	TOGGLE	F	Positive Feedback IR Comp
POSFEEDRESISTANCE	QUANT	0	Positive Feedback Resistance (ohm)
ACHSELECT	IQUANT	0	Ach Select
CABLEID	IQUANT	14	Cable ID
DCCALDATE	LABEL	2/27/2020	DC Calibration Date
ACCALDATE	LABEL	2/27/2020	AC Calibration Date
THERMOSELECT	IQUANT	1	Thermo Select
FRAMEWORKVERSION	QUANT	6.33	Framework Version
INSTRUMENTVERSION	LABEL	3.50	Instrument Version
ZCURVE	TABLE
	Pt	Time	Freq	Zreal	Zimag	Zsig	Zmod	Zphz	Idc	Vdc	IERange
	#	s	Hz	ohm	ohm	V	ohm	°	A	V	#
	0	1	1000078	1989.761	-2118.201	1	2906.188	-46.79083	-2.135936E-009	-0.0090275	8
	1	1	794390.6	2352.83	-2270.569	1	3269.754	-43.98069	5.891463E-008	-0.0093866	8
	2	2	630984.4	2739.313	-2397.421	1	3640.256	-41.19211	7.70799E-008	-0.009544	8
	3	2	501234.4	3133.857	-2501.071	1	4009.541	-38.5927	5.163459E-008	-0.0096717	8
	4	2	398109.4	3528.452	-2591.002	1	4377.587	-36.29047	2.749542E-008	-0.0097479	8
	5	3	316265.6	3929.395	-2666.934	1	4748.966	-34.16528	8.147862E-008	-0.0097675	8
	6	3	251203.1	4333.072	-2747.551	1	5130.746	-32.37831	5.398166E-008	-0.0097892	8
	7	3	199546.9	4731.56	-2829.886	1	5513.249	-30.88312	6.238392E-008	-0.0097749	8
	8	3	158578.1	5140.179	-2914.18	1	5908.797	-29.55069	5.518729E-008	-0.0097791	8
	9	4	125953.1	5611.974	-2954.979	1	6342.409	-27.769	1.155035E-008	-0.0098532	7
	10	4	100078.1	6020.763	-3053.509	1	6750.815	-26.89244	3.863776E-009	-0.009871	7
	11	4	79453.13	6460.535	-3172.73	1	7197.55	-26.15538	3.741255E-009	-0.0098732	7
	12	5	63140.62	6919.023	-3299.183	1	7665.343	-25.49311	3.333698E-009	-0.0098796	7
	13	5	50203.12	7397.226	-3430.664	1	8154.042	-24.88079	3.578413E-009	-0.0098848	7
	14	5	39890.62	7887.631	-3566.415	1	8656.445	-24.33024	3.661391E-009	-0.0098853	7
	15	6	31640.63	8397.756	-3709.111	1	9180.403	-23.83003	3.940665E-009	-0.0098818	7
	16	6	25171.88	8914.461	-3854.761	1	9712.2	-23.38446	3.073811E-009	-0.0098874	7
	17	6	20015.62	9445.136	-4021.101	1	10265.47	-23.06103	3.519969E-009	-0.0098911	7
	18	7	15890.62	9985.9	-4201.602	1	10833.82	-22.81909	3.454498E-009	-0.0098885	7
	19	7	12609.37	10605.33	-4324.347	1	11453.08	-22.18329	5.57551E-010	-0.0098343	6
	20	7	10078.13	11141.83	-4573.316	1	12043.9	-22.31637	3.207974E-010	-0.0098328	6
	21	8	8015.625	11712.31	-4871.518	1	12685.03	-22.58396	6.825638E-010	-0.0098326	6
	22	8	6328.125	12323.01	-5235.114	1	13388.92	-23.01696	5.517705E-010	-0.0098386	6
	23	8	5015.625	12948.8	-5662.143	1	14132.64	-23.61839	5.762953E-010	-0.0098322	6
	24	9	3984.375	13597.68	-6170.191	1	14932.11	-24.40703	3.558037E-010	-0.0098285	6
	25	9	3170.956	14296.92	-6777.032	1	15821.82	-25.36191	4.995724E-010	-0.0098332	6
	26	9	2527.573	15059.27	-7491.913	1	16819.94	-26.45012	4.181439E-010	-0.0098353	6
	27	10	1976.103	15984.48	-8414.842	1	18064.14	-27.76404	5.250341E-010	-0.0098342	6
	28	10	1577.524	16959.9	-9395.624	1	19388.55	-28.98604	4.257966E-010	-0.0098362	6
	29	10	1265.625	18045.04	-10479.37	1	20867.21	-30.1452	5.423665E-010	-0.0098355	6
	30	10	998.264	19380.22	-11779.79	1	22679.43	-31.29229	6.277753E-010	-0.0098355	6
	31	11	796.875	20795.38	-13139.55	1	24598.69	-32.28673	2.885747E-010	-0.0098374	6
	32	11	627.7902	22473.27	-14713.97	1	26861.66	-33.21406	4.419657E-010	-0.0098362	6
	33	11	505.5147	24104.35	-16287.19	1	29091.1	-34.0467	2.401101E-010	-0.0098399	6
	34	12	397.9953	26038.48	-18248.32	1	31796.28	-35.02359	4.941351E-010	-0.0098246	6
	35	12	315.5048	28033.91	-20459.84	1	34705.98	-36.12289	5.524734E-010	-0.0098234	6
	36	12	252.4038	30086.83	-22968.4	1	37851.88	-37.35826	5.259075E-010	-0.0098285	6
	37	13	198.6229	32498.54	-26198.18	1	41743.25	-38.87347	5.231712E-010	-0.009832	6
	38	13	158.3615	35081.26	-29877.85	1	46080.15	-40.42022	5.017927E-010	-0.0098315	6
	39	13	125.558	38146.39	-34371.31	1	51347.19	-42.02003	4.269237E-010	-0.009831	6
	40	14	100.4464	41620.41	-39445.41	1	57342.82	-43.46312	5.718755E-010	-0.009835	6
	41	14	79.00281	46103.5	-45800.95	1	64986.62	-44.81138	3.826411E-010	-0.009835	6
	42	14	63.3446	51023.69	-52483.92	1	73198.22	-45.80825	2.943022E-010	-0.0098388	6
	43	15	49.86702	57386.52	-60682.57	1	83519.98	-46.59908	7.307967E-010	-0.0098386	6
	44	15	39.72458	64557.13	-69407.46	1	94789.34	-47.07355	5.828672E-010	-0.009835	6
	45	15	31.6723	72884.05	-78947.33	1	107446.6	-47.28685	-8.213735E-011	-0.0098353	5
	46	16	24.93351	82992.88	-90111.83	1	122507	-47.35497	2.534986E-010	-0.0098334	5
	47	16	19.86229	93955.23	-101873.4	1	138584.9	-47.31544	-4.275475E-010	-0.0098297	5
	48	16	15.83615	106274.9	-114632.5	1	156316.8	-47.16665	1.181107E-009	-0.0098322	5
	49	17	12.40079	121033	-130053.5	1	177659.6	-47.05751	1.738341E-009	-0.0098366	5
	50	17	9.93114	135505.6	-145548.7	1	198862.2	-47.0465	1.848632E-009	-0.0098316	5
	51	17	7.944915	152023.5	-163876.6	1	223532.3	-47.14882	3.130587E-010	-0.009835	5
	52	18	6.317385	170847.8	-184790.8	1	251667.7	-47.24517	7.021728E-011	-0.009829	5
	53	19	5.008013	192180	-208797.5	1	283777.3	-47.37313	4.657937E-010	-0.0098238	5
	54	19	3.945707	217213.1	-237183	1	321616.7	-47.51644	4.632466E-010	-0.009836	5
	55	20	3.158693	242559.6	-266713.6	1	360515.3	-47.71542	2.581203E-010	-0.0098182	5
	56	21	2.504006	272593.5	-302125.7	1	406924.1	-47.94159	-8.043995E-011	-0.0098335	5
	57	23	1.998082	303253.4	-340995.8	1	456334	-48.35276	1.066583E-010	-0.0098322	5
	58	24	1.584686	339720.9	-387953.5	1	515672.5	-48.7922	2.488538E-010	-0.0097965	5
	59	26	1.266892	377003.1	-441992.9	1	580938.1	-49.53709	2.034989E-010	-0.0098201	5
	60	29	0.999041	421003.4	-508422.2	1	660103.8	-50.37325	1.712986E-010	-0.009846	5
