EXPLAIN
TAG	EISPOT
TITLE	LABEL	Potentiostatic EIS	Test &Identifier
DATE	LABEL	1/10/2020	Date
TIME	LABEL	12:57:43	Time
NOTES	NOTES	5	&Notes...
	
	
	
	
	
PSTAT	PSTAT	REF600-11020	Potentiostat
VDC	POTEN	0.00000E+000	T	DC &Voltage (V)
FREQINIT	QUANT	1.00000E+006	Initial Fre&q. (Hz)
FREQFINAL	QUANT	1.00000E+000	Final Fre&q. (Hz)
PTSPERDEC	QUANT	1.00000E+001	Points/&decade
VAC	QUANT	2.50000E+001	AC &Voltage (mV rms)
AREA	QUANT	1.00000E-001	&Area (cm^2)
CONDIT	TWOPARAM	T	5.00000E+000	0.00000E+000	Conditionin&g	Time(s)	E(V)
DELAY	TWOPARAM	T	5.00000E+000	0.00000E+000	Init. De&lay	Time(s)	Stab.(mV/s)
SPEED	SELECTOR	0	&Optimize for:
ZGUESS	QUANT	5.00000E+002	E&stimated Z (ohms)
OCVCURVE	TABLE	19
	Pt	T	Vf	Vm	Ach	Over
	#	s	V vs. Ref.	V	V	bits
	0	0.258333	6.29924E-003	6.29924E-003	6.58613E-004	...........
	1	0.516667	6.29826E-003	6.24804E-003	6.53913E-004	...........
	2	0.775	6.29339E-003	6.25907E-003	6.54946E-004	...........
	3	1.03333	6.28366E-003	6.28333E-003	6.52580E-004	...........
	4	1.29167	6.27426E-003	6.28247E-003	6.51313E-004	...........
	5	1.55	6.27137E-003	6.29437E-003	6.46546E-004	...........
	6	1.80833	6.27600E-003	6.32989E-003	6.50346E-004	...........
	7	2.06667	6.28754E-003	6.38737E-003	6.51646E-004	...........
	8	2.325	6.30781E-003	6.41313E-003	6.48980E-004	...........
	9	2.58333	6.33686E-003	6.41468E-003	6.49146E-004	...........
	10	2.84167	6.36846E-003	6.42116E-003	6.49013E-004	...........
	11	3.1	6.39612E-003	6.51943E-003	6.42613E-004	...........
	12	3.35833	6.42252E-003	6.54505E-003	6.47846E-004	...........
	13	3.61667	6.45364E-003	6.49329E-003	6.44913E-004	...........
	14	3.875	6.47517E-003	6.01381E-003	6.47680E-004	...........
	15	4.13333	6.45213E-003	6.34328E-003	6.48546E-004	...........
	16	4.39167	6.38997E-003	6.74661E-003	6.47513E-004	...........
	17	4.65	6.36445E-003	6.71759E-003	6.50580E-004	...........
	18	4.90833	6.43075E-003	6.75066E-003	6.50813E-004	...........
EOC	QUANT	0.0064307	Open Circuit (V)
PSTATMODEL	IQUANT	4	Pstat Model
PSTATSECTION	LABEL	REF600-11020	Pstat Section
PSTATSERIALNO	LABEL	11020	Pstat Serial Number
CTRLMODE	IQUANT	1	Control Mode
IESTAB	IQUANT	0	I/E Stability
CASPEED	IQUANT	1	Control Amp Speed
CONVENTION	IQUANT	1	Current Convention
ICHRANGE	IQUANT	2	Ich Range
ICHRANGEMODE	TOGGLE	F	Ich Auto Range
ICHOFFSETENABLE	TOGGLE	T	Ich Offset Enable
ICHOFFSET	QUANT	0	Ich Offset (V)
ICHFILTER	IQUANT	3	Ich Filter
VCHRANGE	IQUANT	2	Vch Range
VCHRANGEMODE	TOGGLE	F	Vch Auto Range
VCHOFFSETENABLE	TOGGLE	T	Vch Offset Enable
VCHOFFSET	QUANT	0	Vch Offset (V)
VCHFILTER	IQUANT	3	Vch Filter
ACHRANGE	IQUANT	2	Ach Range
ACHOFFSETENABLE	TOGGLE	F	Ach Offset Enable
ACHOFFSET	QUANT	0	Ach Offset (V)
ACHFILTER	IQUANT	3	Ach Filter
IERANGELOWERLIMIT	IQUANT	1	I/E Range Lower Limit
IERANGEMODE	TOGGLE	F	I/E AutoRange
IERANGE	IQUANT	7	I/E Range
POSFEEDENABLE	TOGGLE	F	Positive Feedback IR Comp
POSFEEDRESISTANCE	QUANT	0	Positive Feedback Resistance (ohm)
ACHSELECT	IQUANT	0	Ach Select
CABLEID	IQUANT	14	Cable ID
DCCALDATE	LABEL	12/22/2019	DC Calibration Date
ACCALDATE	LABEL	12/22/2019	AC Calibration Date
THERMOSELECT	IQUANT	1	Thermo Select
FRAMEWORKVERSION	QUANT	6.33	Framework Version
INSTRUMENTVERSION	LABEL	3.50	Instrument Version
ZCURVE	TABLE
	Pt	Time	Freq	Zreal	Zimag	Zsig	Zmod	Zphz	Idc	Vdc	IERange
	#	s	Hz	ohm	ohm	V	ohm	°	A	V	#
	0	2	1000078	2123.235	-1744.885	1	2748.227	-39.41353	-1.032592E-006	0.0092639	8
	1	2	794390.6	2460.161	-1746.7	1	3017.176	-35.37453	4.980403E-007	0.0084045	8
	2	2	630984.4	2781.872	-1692.725	1	3256.398	-31.31985	1.489963E-007	0.0082176	8
	3	3	501234.4	3091.484	-1615.834	1	3488.293	-27.59484	-1.153109E-006	0.0085366	8
	4	3	398109.4	3373.517	-1508.675	1	3695.5	-24.09473	-1.633258E-007	0.008331	8
	5	3	316265.6	3620.048	-1394.741	1	3879.44	-21.0708	2.440144E-006	0.007677	8
	6	4	251203.1	3817.933	-1264.479	1	4021.88	-18.32459	1.348458E-007	0.0080334	8
	7	4	199546.9	4001.845	-1138.48	1	4160.637	-15.88047	2.357146E-006	0.0076915	8
	8	4	158578.1	4141.062	-999.566	1	4259.991	-13.57042	3.230202E-006	0.007615	8
	9	4	125953.1	4258.731	-843.9015	1	4341.539	-11.20842	-3.680558E-007	0.0083873	7
	10	5	100078.1	4345.866	-763.1426	1	4412.362	-9.95971	-2.941647E-009	0.0081429	7
	11	5	79453.13	4421.403	-690.8707	1	4475.054	-8.880993	4.696504E-008	0.0080897	7
	12	5	63140.62	4485.257	-635.6669	1	4530.078	-8.066445	-3.087838E-008	0.0081774	7
	13	6	50203.12	4540.413	-595.1903	1	4579.257	-7.468164	-2.816394E-008	0.0081265	7
	14	6	39890.62	4591.099	-569.2477	1	4626.254	-7.067998	2.438385E-008	0.0080262	7
	15	6	31640.63	4638.853	-557.8121	1	4672.27	-6.856773	3.090348E-009	0.0080592	7
	16	7	25171.88	4685.321	-561.5096	1	4718.848	-6.833986	-6.476847E-010	0.0081702	7
	17	7	20015.62	4731.461	-583.6782	1	4767.327	-7.03254	2.649663E-008	0.0080678	7
	18	7	15890.62	4781.801	-613.3242	1	4820.974	-7.308975	4.683691E-008	0.0080815	7
	19	8	12609.37	4833.239	-663.3521	1	4878.548	-7.814902	-2.854248E-009	0.0081217	7
	20	8	10078.13	4886.586	-725.6462	1	4940.171	-8.446558	5.486925E-008	0.0080015	7
	21	8	8015.625	4940.71	-810.6252	1	5006.769	-9.317537	8.270117E-008	0.0079771	7
	22	9	6328.125	5009.872	-919.565	1	5093.566	-10.4009	4.388935E-009	0.0080634	7
	23	9	5015.625	5081.006	-1054.089	1	5189.193	-11.72014	8.235113E-008	0.0079727	7
	24	9	3984.375	5160.573	-1218.5	1	5302.476	-13.2852	4.79368E-009	0.0080567	7
	25	10	3170.956	5241.306	-1418.12	1	5429.765	-15.13981	-2.684188E-008	0.0081216	7
	26	10	2527.573	5336.342	-1661.331	1	5588.969	-17.29262	4.501636E-008	0.0080708	7
	27	10	1976.103	5449.12	-1985.068	1	5799.431	-20.01625	-2.915175E-009	0.0081078	7
	28	11	1577.524	5574.324	-2357.798	1	6052.462	-22.92713	5.529589E-008	0.0079955	7
	29	11	1265.625	5697.922	-2786.675	1	6342.86	-26.06181	4.75052E-008	0.0080726	7
	30	11	998.264	5863.741	-3353.752	1	6755.08	-29.76729	-4.890612E-009	0.0081071	7
	31	12	796.875	6052.047	-4014.222	1	7262.317	-33.55565	-1.526274E-008	0.0080859	7
	32	12	627.7902	6288.599	-4873.459	1	7955.946	-37.77452	8.201742E-008	0.0079733	7
	33	12	505.5147	6538.651	-5819.319	1	8753.196	-41.66869	-5.959285E-009	0.0081232	7
	34	12	397.9953	6884.099	-7084.121	1	9878.04	-45.82041	5.551425E-010	0.0080975	6
	35	13	315.5048	7286.18	-8583.743	1	11259.18	-49.67424	1.548713E-010	0.0080979	6
	36	13	252.4038	7755.93	-10328.45	1	12916.32	-53.09605	1.344803E-010	0.0080916	6
	37	13	198.6229	8364.3	-12598.72	1	15122.47	-56.41978	4.278756E-010	0.008096	6
	38	14	158.3615	9046.243	-15212.22	1	17698.76	-59.26134	-4.562407E-011	0.0080894	6
	39	14	125.558	9888.42	-18460.3	1	20941.9	-61.82389	1.62043E-010	0.0080896	6
	40	14	100.4464	10880.66	-22251.04	1	24768.88	-63.94158	-3.211044E-010	0.0080889	6
	41	15	79.00281	12128.94	-27291.06	1	29864.92	-66.03825	-2.711691E-010	0.008088	6
	42	15	63.3446	13478.22	-32611.49	1	35286.99	-67.54485	6.138409E-010	0.0080874	6
	43	15	49.86702	15524.54	-40094.49	1	42995.11	-68.83365	6.161903E-010	0.0080843	6
	44	16	39.72458	17833.31	-48955.06	1	52102.06	-69.98438	6.644514E-010	0.0080904	6
	45	16	31.6723	20890.83	-59530.84	1	63090	-70.66278	6.221192E-010	0.0080885	6
	46	17	24.93351	25180.74	-72786.62	1	77019.23	-70.91679	5.704976E-010	0.0080883	6
	47	17	19.86229	30434.76	-88160.11	1	93265.64	-70.95423	7.848178E-010	0.0080929	6
	48	17	15.83615	37716.68	-106657.5	1	113129.9	-70.52516	-3.286783E-011	0.0080869	5
	49	17	12.40079	47962.56	-129317.4	1	137925.4	-69.65068	-1.382793E-009	0.0080904	5
	50	18	9.93114	59982.16	-154577.8	1	165807.6	-68.79182	2.928617E-010	0.0080897	5
	51	18	7.944915	75269.52	-183320.8	1	198171.7	-67.67747	2.844216E-010	0.0080881	5
	52	19	6.317385	95042	-216349.7	1	236305.2	-66.28422	2.795514E-010	0.00808	5
	53	20	5.008013	120542.6	-254322.1	1	281443.2	-64.64017	2.44941E-010	0.0080913	5
	54	21	3.945707	152945.2	-297549	1	334555.9	-62.79607	-2.305001E-010	0.0080773	5
	55	22	3.158693	188878.3	-340921.9	1	389747.1	-61.01257	-1.22517E-010	0.0080639	5
	56	24	2.504006	233133.2	-390372.2	1	454688.4	-59.15403	1.366664E-010	0.0080738	5
	57	25	1.998082	280838	-440656.2	1	522539.8	-57.48992	-9.784175E-011	0.0080535	5
	58	27	1.584686	336752.7	-499232.8	1	602192.4	-55.99874	-1.708178E-010	0.0080337	5
	59	29	1.266892	393659.2	-560541.1	1	684962.7	-54.92024	-2.488602E-010	0.0080652	5
	60	31	0.999041	460639.2	-631235.1	1	781438.6	-53.88018	-1.862246E-010	0.0080842	5
