EXPLAIN
TAG	EISPOT
TITLE	LABEL	Potentiostatic EIS	Test &Identifier
DATE	LABEL	7/30/2020	Date
TIME	LABEL	23:22:51	Time
NOTES	NOTES	1	&Notes...
	
PSTAT	PSTAT	REF600-11020	Potentiostat
VDC	POTEN	0.00000E+000	T	DC &Voltage (V)
FREQINIT	QUANT	1.00000E+006	Initial Fre&q. (Hz)
FREQFINAL	QUANT	1.00000E+000	Final Fre&q. (Hz)
PTSPERDEC	QUANT	1.00000E+001	Points/&decade
VAC	QUANT	2.50000E+001	AC &Voltage (mV rms)
AREA	QUANT	4.00000E-005	&Area (cm^2)
CONDIT	TWOPARAM	F	5.00000E+000	0.00000E+000	Conditionin&g	Time(s)	E(V)
DELAY	TWOPARAM	F	3.00000E+000	0.00000E+000	Init. De&lay	Time(s)	Stab.(mV/s)
SPEED	SELECTOR	0	&Optimize for:
ZGUESS	QUANT	1.00000E+003	E&stimated Z (ohms)
OCVCURVE	TABLE	39
	Pt	T	Vf	Vm	Ach	Over
	#	s	V vs. Ref.	V	V	bits
	0	0.258333	-1.62739E-002	-1.62739E-002	5.27650E-004	...........
	1	0.516667	-1.62741E-002	-1.62863E-002	5.27350E-004	...........
	2	0.775	-1.62761E-002	-1.63244E-002	5.26083E-004	...........
	3	1.03333	-1.62825E-002	-1.63177E-002	5.25950E-004	...........
	4	1.29167	-1.62938E-002	-1.63238E-002	5.26683E-004	...........
	5	1.55	-1.63065E-002	-1.63357E-002	5.29350E-004	...........
	6	1.80833	-1.63173E-002	-1.63441E-002	5.23717E-004	...........
	7	2.06667	-1.63264E-002	-1.63550E-002	5.23350E-004	...........
	8	2.325	-1.63350E-002	-1.63612E-002	5.14617E-004	...........
	9	2.58333	-1.63438E-002	-1.63686E-002	5.20817E-004	...........
	10	2.84167	-1.63524E-002	-1.63764E-002	5.19617E-004	...........
	11	3.1	-1.63605E-002	-1.63849E-002	5.24450E-004	...........
	12	3.35833	-1.63684E-002	-1.63920E-002	5.19683E-004	...........
	13	3.61667	-1.63761E-002	-1.63993E-002	5.20683E-004	...........
	14	3.875	-1.63838E-002	-1.64082E-002	5.22983E-004	...........
	15	4.13333	-1.63915E-002	-1.64131E-002	5.19717E-004	...........
	16	4.39167	-1.63989E-002	-1.64173E-002	5.20050E-004	...........
	17	4.65	-1.64058E-002	-1.64232E-002	5.21050E-004	...........
	18	4.90833	-1.64119E-002	-1.64270E-002	5.18750E-004	...........
	19	5.16667	-1.64173E-002	-1.64295E-002	5.18883E-004	...........
	20	5.425	-1.64220E-002	-1.64339E-002	5.20950E-004	...........
	21	5.68333	-1.64261E-002	-1.64368E-002	5.16917E-004	...........
	22	5.94167	-1.64298E-002	-1.64419E-002	5.21217E-004	...........
	23	6.2	-1.64335E-002	-1.64471E-002	5.22050E-004	...........
	24	6.45833	-1.64374E-002	-1.64501E-002	5.22683E-004	...........
	25	6.71667	-1.64417E-002	-1.64554E-002	5.21250E-004	...........
	26	6.975	-1.64461E-002	-1.64644E-002	5.23883E-004	...........
	27	7.23333	-1.64509E-002	-1.64653E-002	5.21183E-004	...........
	28	7.49167	-1.64560E-002	-1.64704E-002	5.21683E-004	...........
	29	7.75	-1.64611E-002	-1.64735E-002	5.25950E-004	...........
	30	8.00833	-1.64656E-002	-1.64786E-002	5.30650E-004	...........
	31	8.26667	-1.64698E-002	-1.64833E-002	5.30216E-004	...........
	32	8.525	-1.64740E-002	-1.64874E-002	5.21517E-004	...........
	33	8.78333	-1.64782E-002	-1.64900E-002	5.22117E-004	...........
	34	9.04167	-1.64825E-002	-1.64952E-002	5.28750E-004	...........
	35	9.3	-1.64865E-002	-1.64969E-002	5.33283E-004	...........
	36	9.5583	-1.64904E-002	-1.65023E-002	5.28550E-004	...........
	37	9.8167	-1.64941E-002	-1.65100E-002	5.31183E-004	...........
	38	10.075	-1.64982E-002	-1.65114E-002	5.26717E-004	...........
EOC	QUANT	-0.0164982	Open Circuit (V)
PSTATMODEL	IQUANT	4	Pstat Model
PSTATSECTION	LABEL	REF600-11020	Pstat Section
PSTATSERIALNO	LABEL	11020	Pstat Serial Number
CTRLMODE	IQUANT	1	Control Mode
IESTAB	IQUANT	0	I/E Stability
CASPEED	IQUANT	1	Control Amp Speed
CONVENTION	IQUANT	1	Current Convention
ICHRANGE	IQUANT	2	Ich Range
ICHRANGEMODE	TOGGLE	F	Ich Auto Range
ICHOFFSETENABLE	TOGGLE	T	Ich Offset Enable
ICHOFFSET	QUANT	0	Ich Offset (V)
ICHFILTER	IQUANT	3	Ich Filter
VCHRANGE	IQUANT	2	Vch Range
VCHRANGEMODE	TOGGLE	F	Vch Auto Range
VCHOFFSETENABLE	TOGGLE	T	Vch Offset Enable
VCHOFFSET	QUANT	0	Vch Offset (V)
VCHFILTER	IQUANT	3	Vch Filter
ACHRANGE	IQUANT	2	Ach Range
ACHOFFSETENABLE	TOGGLE	F	Ach Offset Enable
ACHOFFSET	QUANT	0	Ach Offset (V)
ACHFILTER	IQUANT	3	Ach Filter
IERANGELOWERLIMIT	IQUANT	1	I/E Range Lower Limit
IERANGEMODE	TOGGLE	F	I/E AutoRange
IERANGE	IQUANT	7	I/E Range
POSFEEDENABLE	TOGGLE	F	Positive Feedback IR Comp
POSFEEDRESISTANCE	QUANT	0	Positive Feedback Resistance (ohm)
ACHSELECT	IQUANT	0	Ach Select
CABLEID	IQUANT	14	Cable ID
DCCALDATE	LABEL	6/26/2020	DC Calibration Date
ACCALDATE	LABEL	6/26/2020	AC Calibration Date
THERMOSELECT	IQUANT	1	Thermo Select
FRAMEWORKVERSION	QUANT	6.33	Framework Version
INSTRUMENTVERSION	LABEL	3.50	Instrument Version
ZCURVE	TABLE
	Pt	Time	Freq	Zreal	Zimag	Zsig	Zmod	Zphz	Idc	Vdc	IERange
	#	s	Hz	ohm	ohm	V	ohm	°	A	V	#
	0	1	1000078	1655.524	-1854.991	1	2486.313	-48.25205	1.082105E-007	-0.0142392	8
	1	1	794390.6	1942.572	-2018.561	1	2801.459	-46.09901	-3.134185E-008	-0.0145686	8
	2	1	630984.4	2247.33	-2174.855	1	3127.377	-44.06106	7.717779E-008	-0.0146932	8
	3	2	501234.4	2562.829	-2322.018	1	3458.303	-42.17775	4.086514E-008	-0.0148076	8
	4	2	398109.4	2880.46	-2472.769	1	3796.266	-40.64488	5.664623E-008	-0.0148496	8
	5	2	316265.6	3186.79	-2638.09	1	4137.046	-39.61865	8.378389E-008	-0.0148732	8
	6	3	251203.1	3490.584	-2826.643	1	4491.558	-39.00024	6.320419E-008	-0.0148642	8
	7	3	199546.9	3796.35	-3065.451	1	4879.474	-38.91994	2.696735E-008	-0.0148801	8
	8	3	158578.1	4082.391	-3352.813	1	5282.733	-39.3958	6.789748E-008	-0.014868	8
	9	4	125953.1	4431.793	-3689.652	1	5766.657	-39.77879	4.333428E-009	-0.01489	7
	10	4	100078.1	4740.208	-4171.281	1	6314.203	-41.34708	2.560526E-009	-0.0149077	7
	11	4	79453.13	5057.935	-4773.662	1	6954.894	-43.3438	1.998831E-009	-0.0149151	7
	12	5	63140.62	5407.924	-5516.78	1	7725.316	-45.57089	2.211046E-009	-0.0149196	7
	13	5	50203.12	5801.175	-6431.634	1	8661.383	-47.95032	2.265739E-009	-0.0149259	7
	14	5	39890.62	6247.16	-7562.167	1	9808.84	-50.43964	2.461241E-009	-0.0149232	7
	15	6	31640.63	6775.89	-8952.932	1	11227.99	-52.8803	2.283715E-009	-0.0149271	7
	16	6	25171.88	7379.014	-10620.81	1	12932.57	-55.2096	2.477802E-009	-0.0149233	7
	17	6	20015.62	8093.63	-12643.74	1	15012.36	-57.37549	2.565461E-009	-0.0149277	7
	18	6	15890.62	8935.835	-15123.77	1	17566.38	-59.42341	3.038504E-009	-0.0149281	7
	19	7	12609.37	10148.59	-18087.74	1	20740.31	-60.70428	1.864805E-009	-0.0149385	6
	20	7	10078.13	11338.9	-21609.38	1	24403.61	-62.31305	1.68167E-009	-0.0149385	6
	21	7	8015.625	12835.51	-25985.76	1	28982.92	-63.71321	1.49932E-009	-0.0149417	6
	22	8	6328.125	14771.55	-31488.11	1	34780.74	-64.86802	1.38399E-009	-0.0149389	6
	23	8	5015.625	17227.55	-38090.86	1	41805.53	-65.66395	1.596199E-009	-0.0149398	6
	24	8	3984.375	20464.02	-45981.86	1	50329.99	-66.00876	1.574315E-009	-0.0149413	6
	25	9	3170.956	24731.61	-55397.38	1	60667.31	-65.94211	1.565401E-009	-0.0149366	6
	26	9	2527.573	30540.1	-66440.85	1	73123.76	-65.31372	1.673361E-009	-0.0149342	6
	27	9	1976.103	39305.96	-80233.83	1	89344.42	-63.90011	1.689925E-009	-0.0149392	6
	28	10	1577.524	50381.81	-94515.9	1	107105.5	-61.9401	1.143607E-009	-0.0149423	6
	29	10	1265.625	66184.36	-108918.7	1	127450.6	-58.71508	9.375638E-010	-0.0149555	5
	30	10	998.264	86076.78	-125206	1	151939.9	-55.4922	8.315078E-010	-0.0149505	5
	31	10	796.875	109899.2	-139368.6	1	177486.4	-51.74243	9.302814E-010	-0.0149563	5
	32	11	627.7902	139761.4	-150299.7	1	205239.5	-47.08071	8.458643E-010	-0.0149498	5
	33	11	505.5147	169794.5	-155199	1	230036.7	-42.42859	7.706173E-010	-0.0149502	5
	34	11	397.9953	203653.9	-155331.9	1	256130.7	-37.33366	6.759491E-010	-0.0149256	5
	35	12	315.5048	235283.7	-150374.1	1	279232.5	-32.58338	7.781002E-010	-0.0149204	5
	36	12	252.4038	261053	-139513.8	1	295994.6	-28.12125	7.3727E-010	-0.0149271	5
	37	12	198.6229	284555.2	-126699.2	1	311487.3	-24.00118	7.774272E-010	-0.0149281	5
	38	13	158.3615	302942	-114734.1	1	323941	-20.74332	5.546288E-010	-0.0149276	5
	39	13	125.558	316909.8	-102757.4	1	333152.9	-17.96519	7.051676E-010	-0.0149296	5
	40	13	100.4464	326679.1	-92725.05	1	339583.8	-15.84614	7.508192E-010	-0.0149318	5
	41	14	79.00281	334610.2	-84482.9	1	345110.7	-14.16998	5.925249E-010	-0.0149337	5
	42	14	63.3446	340967.5	-79647.47	1	350146.5	-13.14811	5.906866E-010	-0.0149324	5
	43	15	49.86702	348270.9	-77448.91	1	356778.6	-12.53749	5.255236E-010	-0.0149351	5
	44	15	39.72458	354695.2	-77785.16	1	363124.2	-12.36924	4.4304E-010	-0.0149317	5
	45	15	31.6723	360816.9	-79916.7	1	369561.3	-12.48873	5.300299E-010	-0.0149352	5
	46	16	24.93351	369006.9	-84934.59	1	378655.5	-12.96205	6.966118E-010	-0.0149348	5
	47	16	19.86229	373848.5	-90984.28	1	384760.8	-13.67827	1.488235E-009	-0.0149318	5
	48	16	15.83615	388710.5	-99313.1	1	401196.9	-14.33211	-5.833656E-010	-0.0149331	5
	49	17	12.40079	398215.1	-108821.7	1	412816.5	-15.28426	1.028374E-009	-0.0149354	5
	50	17	9.93114	412313.5	-120866.4	1	429664	-16.33807	-6.235037E-010	-0.0149312	5
	51	18	7.944915	426072.3	-132984.9	1	446343.5	-17.33409	-9.360274E-010	-0.0149289	5
	52	18	6.317385	441310.2	-147126.6	1	465189.1	-18.43765	-4.797737E-010	-0.014918	5
	53	19	5.008013	453738.6	-163110.6	1	482165.7	-19.77257	3.589484E-010	-0.0149294	5
	54	20	3.945707	472686.9	-183170.4	1	506936.3	-21.1818	-9.107777E-011	-0.0149335	5
	55	22	3.158693	488952.7	-206094	1	530612.4	-22.85546	-2.086612E-010	-0.0149513	5
	56	23	2.504006	510474.5	-232635.8	1	560984.6	-24.49993	1.274888E-010	-0.0149511	5
	57	24	1.998082	533302.4	-265226.9	1	595614.6	-26.4425	3.198683E-010	-0.0149254	5
	58	26	1.584686	557585.8	-302601.1	1	634404.7	-28.48863	1.637968E-011	-0.0149703	5
	59	28	1.266892	586077	-345446.7	1	680308.5	-30.51603	-1.035076E-010	-0.0149899	5
	60	30	0.999041	618908.8	-399670.9	1	736739.4	-32.85304	-1.482631E-010	-0.0149861	5
