EXPLAIN
TAG	EISPOT
TITLE	LABEL	Potentiostatic EIS	Test &Identifier
DATE	LABEL	6/14/2020	Date
TIME	LABEL	21:24:16	Time
NOTES	NOTES	1	&Notes...
	
PSTAT	PSTAT	REF600-10037	Potentiostat
VDC	POTEN	0.00000E+000	T	DC &Voltage (V)
FREQINIT	QUANT	1.00000E+006	Initial Fre&q. (Hz)
FREQFINAL	QUANT	1.00000E+000	Final Fre&q. (Hz)
PTSPERDEC	QUANT	1.00000E+001	Points/&decade
VAC	QUANT	2.50000E+001	AC &Voltage (mV rms)
AREA	QUANT	2.50000E-001	&Area (cm^2)
CONDIT	TWOPARAM	F	5.00000E+000	0.00000E+000	Conditionin&g	Time(s)	E(V)
DELAY	TWOPARAM	F	3.00000E+000	0.00000E+000	Init. De&lay	Time(s)	Stab.(mV/s)
SPEED	SELECTOR	0	&Optimize for:
ZGUESS	QUANT	1.00000E+003	E&stimated Z (ohms)
OCVCURVE	TABLE	39
	Pt	T	Vf	Vm	Ach	Over
	#	s	V vs. Ref.	V	V	bits
	0	0.258333	-9.50322E-002	-9.50322E-002	5.43854E-004	...........
	1	0.516667	-9.50322E-002	-9.50323E-002	5.41787E-004	...........
	2	0.775	-9.50322E-002	-9.50324E-002	5.43387E-004	...........
	3	1.03333	-9.50322E-002	-9.50306E-002	5.47054E-004	...........
	4	1.29167	-9.50321E-002	-9.50330E-002	5.47987E-004	...........
	5	1.55	-9.50319E-002	-9.50268E-002	5.45954E-004	...........
	6	1.80833	-9.50312E-002	-9.50209E-002	5.45887E-004	...........
	7	2.06667	-9.50295E-002	-9.50199E-002	5.47487E-004	...........
	8	2.325	-9.50267E-002	-9.50154E-002	5.43987E-004	...........
	9	2.58333	-9.50232E-002	-9.50147E-002	5.40921E-004	...........
	10	2.84167	-9.50198E-002	-9.50103E-002	5.43220E-004	...........
	11	3.1	-9.50167E-002	-9.50086E-002	5.45787E-004	...........
	12	3.35833	-9.50140E-002	-9.50101E-002	5.44887E-004	...........
	13	3.61667	-9.50117E-002	-9.50058E-002	5.44687E-004	...........
	14	3.875	-9.50099E-002	-9.50053E-002	5.42020E-004	...........
	15	4.13333	-9.50083E-002	-9.50026E-002	5.50020E-004	...........
	16	4.39167	-9.50067E-002	-9.50017E-002	5.42754E-004	...........
	17	4.65	-9.50050E-002	-9.49975E-002	5.45920E-004	...........
	18	4.90833	-9.50030E-002	-9.49949E-002	5.49187E-004	...........
	19	5.16667	-9.50007E-002	-9.49912E-002	5.44687E-004	...........
	20	5.425	-9.49980E-002	-9.49887E-002	5.39354E-004	...........
	21	5.68333	-9.49950E-002	-9.49875E-002	5.49454E-004	...........
	22	5.94167	-9.49921E-002	-9.49850E-002	5.46454E-004	...........
	23	6.2	-9.49896E-002	-9.49866E-002	5.42987E-004	...........
	24	6.45833	-9.49877E-002	-9.49840E-002	5.48754E-004	...........
	25	6.71667	-9.49864E-002	-9.49840E-002	5.45320E-004	...........
	26	6.975	-9.49854E-002	-9.49835E-002	5.40187E-004	...........
	27	7.23333	-9.49847E-002	-9.49843E-002	5.44221E-004	...........
	28	7.49167	-9.49842E-002	-9.49804E-002	5.40621E-004	...........
	29	7.75	-9.49835E-002	-9.49792E-002	5.44821E-004	...........
	30	8.00833	-9.49826E-002	-9.49780E-002	5.41987E-004	...........
	31	8.26667	-9.49812E-002	-9.49764E-002	5.46020E-004	...........
	32	8.525	-9.49796E-002	-9.49754E-002	5.52920E-004	...........
	33	8.78333	-9.49781E-002	-9.49747E-002	5.51220E-004	...........
	34	9.04167	-9.49768E-002	-9.49728E-002	5.41721E-004	...........
	35	9.3	-9.49756E-002	-9.49723E-002	5.43487E-004	...........
	36	9.5583	-9.49745E-002	-9.49726E-002	5.42387E-004	...........
	37	9.8167	-9.49735E-002	-9.49700E-002	5.47087E-004	...........
	38	10.075	-9.49726E-002	-9.49706E-002	5.43454E-004	...........
EOC	QUANT	-0.0949726	Open Circuit (V)
PSTATMODEL	IQUANT	4	Pstat Model
PSTATSECTION	LABEL	REF600-10037	Pstat Section
PSTATSERIALNO	LABEL	10037	Pstat Serial Number
CTRLMODE	IQUANT	1	Control Mode
IESTAB	IQUANT	0	I/E Stability
CASPEED	IQUANT	1	Control Amp Speed
CONVENTION	IQUANT	1	Current Convention
ICHRANGE	IQUANT	2	Ich Range
ICHRANGEMODE	TOGGLE	F	Ich Auto Range
ICHOFFSETENABLE	TOGGLE	T	Ich Offset Enable
ICHOFFSET	QUANT	0	Ich Offset (V)
ICHFILTER	IQUANT	3	Ich Filter
VCHRANGE	IQUANT	2	Vch Range
VCHRANGEMODE	TOGGLE	F	Vch Auto Range
VCHOFFSETENABLE	TOGGLE	T	Vch Offset Enable
VCHOFFSET	QUANT	0	Vch Offset (V)
VCHFILTER	IQUANT	3	Vch Filter
ACHRANGE	IQUANT	2	Ach Range
ACHOFFSETENABLE	TOGGLE	F	Ach Offset Enable
ACHOFFSET	QUANT	0	Ach Offset (V)
ACHFILTER	IQUANT	3	Ach Filter
IERANGELOWERLIMIT	IQUANT	1	I/E Range Lower Limit
IERANGEMODE	TOGGLE	F	I/E AutoRange
IERANGE	IQUANT	8	I/E Range
POSFEEDENABLE	TOGGLE	F	Positive Feedback IR Comp
POSFEEDRESISTANCE	QUANT	0	Positive Feedback Resistance (ohm)
ACHSELECT	IQUANT	0	Ach Select
CABLEID	IQUANT	14	Cable ID
DCCALDATE	LABEL	6/8/2020	DC Calibration Date
ACCALDATE	LABEL	6/8/2020	AC Calibration Date
THERMOSELECT	IQUANT	1	Thermo Select
FRAMEWORKVERSION	QUANT	6.33	Framework Version
INSTRUMENTVERSION	LABEL	3.50	Instrument Version
ZCURVE	TABLE
	Pt	Time	Freq	Zreal	Zimag	Zsig	Zmod	Zphz	Idc	Vdc	IERange
	#	s	Hz	ohm	ohm	V	ohm	°	A	V	#
	0	1	1000078	1646.015	-919.8925	1	1885.621	-29.19909	3.9801E-007	-0.0859443	8
	1	1	794390.6	1801.031	-915.1838	1	2020.216	-26.93715	3.102117E-007	-0.0861406	8
	2	2	630984.4	1948.207	-902.1265	1	2146.938	-24.84672	-1.983707E-009	-0.0862182	8
	3	2	501234.4	2086.924	-884.0233	1	2266.44	-22.95757	8.681321E-008	-0.0863537	8
	4	2	398109.4	2217.152	-865.4168	1	2380.065	-21.3221	-1.340061E-007	-0.0863673	8
	5	3	316265.6	2341.371	-846.6124	1	2489.733	-19.87939	-7.651835E-008	-0.0863697	8
	6	3	251203.1	2455.917	-827.8063	1	2591.677	-18.62722	6.495796E-008	-0.0864089	8
	7	3	199546.9	2569.886	-819.2877	1	2697.323	-17.68244	-5.910248E-008	-0.0863996	8
	8	3	158578.1	2676.228	-813.1025	1	2797.022	-16.90004	3.734009E-007	-0.0864335	8
	9	4	125953.1	2836.687	-717.8936	1	2926.117	-14.20193	-1.859743E-008	-0.0862263	7
	10	4	100078.1	2933.68	-734.1768	1	3024.151	-14.05015	3.033524E-008	-0.0864715	7
	11	4	79453.13	3028.246	-759.7444	1	3122.097	-14.08401	4.670314E-008	-0.0864004	7
	12	5	63140.62	3127.691	-791.7408	1	3226.345	-14.2054	4.701254E-008	-0.0865005	7
	13	5	50203.12	3230.281	-827.7685	1	3334.654	-14.37293	4.505132E-008	-0.0864135	7
	14	5	39890.62	3339.064	-870.3764	1	3450.638	-14.60989	7.413388E-009	-0.0864783	7
	15	6	31640.63	3452.246	-919.2339	1	3572.533	-14.91026	-3.76537E-008	-0.0864116	7
	16	6	25171.88	3568.783	-974.927	1	3699.554	-15.27936	-3.928516E-008	-0.0864159	7
	17	6	20015.62	3690.317	-1038.701	1	3833.711	-15.72014	-5.709231E-008	-0.0863263	7
	18	7	15890.62	3818.708	-1112.584	1	3977.483	-16.24353	-4.298881E-008	-0.0863353	7
	19	7	12609.37	3953.392	-1200.663	1	4131.694	-16.89378	1.124514E-008	-0.0863783	7
	20	7	10078.13	4089.873	-1300.535	1	4291.672	-17.64009	5.489169E-008	-0.0864948	7
	21	8	8015.625	4237.072	-1419.164	1	4468.423	-18.51775	-1.360519E-008	-0.0864444	7
	22	8	6328.125	4395.938	-1563.494	1	4665.703	-19.57884	2.831772E-008	-0.0863945	7
	23	8	5015.625	4561.244	-1732.842	1	4879.312	-20.80207	-5.199639E-008	-0.086335	7
	24	8	3984.375	4734.823	-1934.031	1	5114.589	-22.21852	4.962371E-008	-0.086432	7
	25	9	3170.956	4918.496	-2175.08	1	5377.971	-23.85619	-3.283758E-008	-0.0864148	7
	26	9	2527.573	5113.746	-2460.031	1	5674.693	-25.69046	-4.831785E-008	-0.0863813	7
	27	9	1976.103	5343.776	-2838.648	1	6050.939	-27.97752	5.792635E-008	-0.0864878	7
	28	10	1577.524	5579.928	-3257.345	1	6461.106	-30.27472	6.134474E-008	-0.086461	7
	29	10	1265.625	5830.622	-3741.486	1	6927.833	-32.68812	1.333631E-008	-0.0863794	7
	30	10	998.264	6133.012	-4376.656	1	7534.517	-35.51251	1.42956E-008	-0.0863769	7
	31	11	796.875	6449.491	-5101.052	1	8222.935	-38.34129	-5.493222E-008	-0.0863295	7
	32	11	627.7902	6829.229	-6027.369	1	9108.651	-41.43111	-4.407E-008	-0.0863329	7
	33	11	505.5147	7211.31	-7042.058	1	10079.36	-44.31967	8.498882E-009	-0.0865366	6
	34	12	397.9953	7678.355	-8408.301	1	11386.69	-47.59806	5.873565E-010	-0.0864058	6
	35	12	315.5048	8198.18	-10039.65	1	12961.66	-50.7656	5.476162E-010	-0.0864055	6
	36	12	252.4038	8777.392	-11950.26	1	14827.38	-53.70295	6.095947E-010	-0.0864057	6
	37	13	198.6229	9508.13	-14457.78	1	17304.11	-56.66915	5.388858E-010	-0.0864011	6
	38	13	158.3615	10330.02	-17357.25	1	20198.6	-59.24136	5.192756E-010	-0.0864057	6
	39	13	125.558	11344.41	-20977.57	1	23848.56	-61.59602	4.39041E-010	-0.086404	6
	40	14	100.4464	12528.37	-25206.31	1	28148.14	-63.5711	4.096964E-010	-0.0864069	6
	41	14	79.00281	14095.95	-30767.04	1	33842.38	-65.38507	3.965221E-010	-0.0864043	6
	42	14	63.3446	15842.8	-36997.93	1	40247.25	-66.81902	5.14657E-010	-0.086407	6
	43	15	49.86702	18265.39	-45176.65	1	48729.4	-67.98601	2.656364E-010	-0.0864093	6
	44	15	39.72458	21234.74	-54649.03	1	58629.6	-68.76558	4.2502E-010	-0.0864073	6
	45	15	31.6723	24981.33	-66014.81	1	70583.45	-69.27235	7.369456E-011	-0.0864115	6
	46	16	24.93351	30147.8	-80490.06	1	85950.8	-69.46641	8.383513E-010	-0.0864062	6
	47	16	19.86229	36230.65	-96515	1	103091.3	-69.42444	-4.474575E-009	-0.0950481	6
	48	16	15.83615	44076.21	-115225.6	1	123368	-69.0671	-3.374983E-009	-0.0950405	5
	49	17	12.40079	55633.58	-139978.7	1	150629.1	-68.32499	-2.558054E-009	-0.0950401	5
	50	17	9.93114	69136.07	-165936.5	1	179762.9	-67.38135	-1.999973E-009	-0.095039	5
	51	17	7.944915	86359.23	-195829.5	1	214026	-66.20291	-1.754971E-009	-0.0950399	5
	52	18	6.317385	108156.8	-230147.7	1	254294.9	-64.82906	-1.12615E-009	-0.0950374	5
	53	19	5.008013	135633.6	-269193	1	301432.2	-63.25863	-8.245158E-010	-0.0950415	5
	54	20	3.945707	169857.5	-313248.1	1	356336.8	-61.53141	-6.17232E-010	-0.095041	5
	55	21	3.158693	207640.9	-357892.2	1	413765.1	-59.87867	-5.028175E-010	-0.09504	5
	56	22	2.504006	254156.8	-408321.3	1	480959.5	-58.10008	-3.558052E-010	-0.0950396	5
	57	24	1.998082	303386.6	-460427.8	1	551395.6	-56.61818	-2.916683E-010	-0.0950445	5
	58	26	1.584686	358378.2	-518558.6	1	630347.4	-55.35147	-1.873258E-010	-0.09505	5
	59	29	1.266892	414951.3	-580992.7	1	713958.7	-54.46516	-1.203339E-010	-0.0950484	5
	60	32	0.999041	478280.2	-657165.1	1	812784.1	-53.95313	-1.233465E-010	-0.0950461	5
