EXPLAIN
TAG	EISPOT
TITLE	LABEL	Potentiostatic EIS	Test &Identifier
DATE	LABEL	2/6/2020	Date
TIME	LABEL	17:18:25	Time
NOTES	NOTES	6	&Notes...
	
	
	
	
	
	
PSTAT	PSTAT	REF600-11020	Potentiostat
VDC	POTEN	0.00000E+000	T	DC &Voltage (V)
FREQINIT	QUANT	1.00000E+006	Initial Fre&q. (Hz)
FREQFINAL	QUANT	1.00000E+000	Final Fre&q. (Hz)
PTSPERDEC	QUANT	1.00000E+001	Points/&decade
VAC	QUANT	2.50000E+001	AC &Voltage (mV rms)
AREA	QUANT	1.60000E-004	&Area (cm^2)
CONDIT	TWOPARAM	F	5.00000E+000	0.00000E+000	Conditionin&g	Time(s)	E(V)
DELAY	TWOPARAM	F	5.00000E+000	0.00000E+000	Init. De&lay	Time(s)	Stab.(mV/s)
SPEED	SELECTOR	0	&Optimize for:
ZGUESS	QUANT	1.00000E+003	E&stimated Z (ohms)
OCVCURVE	TABLE	39
	Pt	T	Vf	Vm	Ach	Over
	#	s	V vs. Ref.	V	V	bits
	0	0.258333	6.19771E-002	6.19771E-002	5.72771E-004	...........
	1	0.516667	6.19767E-002	6.19585E-002	5.73804E-004	...........
	2	0.775	6.19745E-002	6.19374E-002	5.72938E-004	...........
	3	1.03333	6.19681E-002	6.19250E-002	5.74637E-004	...........
	4	1.29167	6.19565E-002	6.19007E-002	5.74071E-004	...........
	5	1.55	6.19410E-002	6.18805E-002	5.74437E-004	...........
	6	1.80833	6.19228E-002	6.18604E-002	5.72038E-004	...........
	7	2.06667	6.19032E-002	6.18479E-002	5.71438E-004	...........
	8	2.325	6.18836E-002	6.18285E-002	5.71704E-004	...........
	9	2.58333	6.18650E-002	6.18154E-002	5.71838E-004	...........
	10	2.84167	6.18478E-002	6.17980E-002	5.68971E-004	...........
	11	3.1	6.18314E-002	6.17846E-002	5.74337E-004	...........
	12	3.35833	6.18157E-002	6.17699E-002	5.77037E-004	...........
	13	3.61667	6.18005E-002	6.17583E-002	5.72004E-004	...........
	14	3.875	6.17859E-002	6.17415E-002	5.73204E-004	...........
	15	4.13333	6.17717E-002	6.17255E-002	5.73371E-004	...........
	16	4.39167	6.17573E-002	6.17091E-002	5.69638E-004	...........
	17	4.65	6.17423E-002	6.16935E-002	5.69071E-004	...........
	18	4.90833	6.17268E-002	6.16850E-002	5.77538E-004	...........
	19	5.16667	6.17115E-002	6.16634E-002	5.79104E-004	...........
	20	5.425	6.16967E-002	6.16515E-002	5.71938E-004	...........
	21	5.68333	6.16820E-002	6.16402E-002	5.70738E-004	...........
	22	5.94167	6.16675E-002	6.16234E-002	5.73238E-004	...........
	23	6.2	6.16533E-002	6.16115E-002	5.78504E-004	...........
	24	6.45833	6.16396E-002	6.16004E-002	5.72238E-004	...........
	25	6.71667	6.16261E-002	6.15845E-002	5.72504E-004	...........
	26	6.975	6.16128E-002	6.15703E-002	5.75004E-004	...........
	27	7.23333	6.15995E-002	6.15562E-002	5.72738E-004	...........
	28	7.49167	6.15858E-002	6.15447E-002	5.74937E-004	...........
	29	7.75	6.15721E-002	6.15390E-002	5.77237E-004	...........
	30	8.00833	6.15593E-002	6.15254E-002	5.76904E-004	...........
	31	8.26667	6.15478E-002	6.15130E-002	5.74871E-004	...........
	32	8.525	6.15368E-002	6.14985E-002	5.76971E-004	...........
	33	8.78333	6.15254E-002	6.14857E-002	5.72704E-004	...........
	34	9.04167	6.15132E-002	6.14750E-002	5.72504E-004	...........
	35	9.3	6.15005E-002	6.14649E-002	5.73038E-004	...........
	36	9.5583	6.14882E-002	6.14567E-002	5.73904E-004	...........
	37	9.8167	6.14768E-002	6.14454E-002	5.74337E-004	...........
	38	10.075	6.14663E-002	6.14340E-002	5.71438E-004	...........
EOC	QUANT	0.0614663	Open Circuit (V)
PSTATMODEL	IQUANT	4	Pstat Model
PSTATSECTION	LABEL	REF600-11020	Pstat Section
PSTATSERIALNO	LABEL	11020	Pstat Serial Number
CTRLMODE	IQUANT	1	Control Mode
IESTAB	IQUANT	0	I/E Stability
CASPEED	IQUANT	1	Control Amp Speed
CONVENTION	IQUANT	1	Current Convention
ICHRANGE	IQUANT	2	Ich Range
ICHRANGEMODE	TOGGLE	F	Ich Auto Range
ICHOFFSETENABLE	TOGGLE	T	Ich Offset Enable
ICHOFFSET	QUANT	0	Ich Offset (V)
ICHFILTER	IQUANT	3	Ich Filter
VCHRANGE	IQUANT	2	Vch Range
VCHRANGEMODE	TOGGLE	F	Vch Auto Range
VCHOFFSETENABLE	TOGGLE	T	Vch Offset Enable
VCHOFFSET	QUANT	0	Vch Offset (V)
VCHFILTER	IQUANT	3	Vch Filter
ACHRANGE	IQUANT	2	Ach Range
ACHOFFSETENABLE	TOGGLE	F	Ach Offset Enable
ACHOFFSET	QUANT	0	Ach Offset (V)
ACHFILTER	IQUANT	3	Ach Filter
IERANGELOWERLIMIT	IQUANT	1	I/E Range Lower Limit
IERANGEMODE	TOGGLE	F	I/E AutoRange
IERANGE	IQUANT	8	I/E Range
POSFEEDENABLE	TOGGLE	F	Positive Feedback IR Comp
POSFEEDRESISTANCE	QUANT	0	Positive Feedback Resistance (ohm)
ACHSELECT	IQUANT	0	Ach Select
CABLEID	IQUANT	14	Cable ID
DCCALDATE	LABEL	1/27/2020	DC Calibration Date
ACCALDATE	LABEL	1/27/2020	AC Calibration Date
THERMOSELECT	IQUANT	1	Thermo Select
FRAMEWORKVERSION	QUANT	6.33	Framework Version
INSTRUMENTVERSION	LABEL	3.50	Instrument Version
ZCURVE	TABLE
	Pt	Time	Freq	Zreal	Zimag	Zsig	Zmod	Zphz	Idc	Vdc	IERange
	#	s	Hz	ohm	ohm	V	ohm	°	A	V	#
	0	1	1000078	2089.581	-1704.709	1	2696.736	-39.20803	1.975954E-008	0.0638428	8
	1	1	794390.6	2427.928	-1724.066	1	2977.791	-35.37846	-2.1765E-007	0.0635048	8
	2	1	630984.4	2765.689	-1701.342	1	3247.091	-31.59818	1.54364E-007	0.063143	8
	3	2	501234.4	3091.221	-1619.859	1	3489.927	-27.65539	-2.482482E-008	0.0631444	8
	4	2	398109.4	3367.795	-1505.033	1	3688.79	-24.07938	-2.240182E-007	0.0632512	8
	5	2	316265.6	3623.777	-1366.442	1	3872.844	-20.66029	5.837699E-007	0.0629986	8
	6	3	251203.1	3820.816	-1223.529	1	4011.939	-17.75648	6.300251E-008	0.063	8
	7	3	199546.9	3978.223	-1081.7	1	4122.661	-15.21128	6.926714E-008	0.0630125	8
	8	3	158578.1	4105.673	-964.768	1	4217.502	-13.22368	2.369206E-006	0.062583	8
	9	4	125953.1	4224.354	-794.032	1	4298.332	-10.64541	-7.92559E-008	0.0631575	7
	10	4	100078.1	4303.65	-710.5051	1	4361.906	-9.374606	8.479982E-008	0.062926	7
	11	4	79453.13	4367.184	-646.934	1	4414.84	-8.426249	5.782583E-008	0.0629922	7
	12	5	63140.62	4422.572	-601.3049	1	4463.263	-7.742613	-1.631082E-008	0.0630201	7
	13	5	50203.12	4474.645	-569.2674	1	4510.71	-7.250261	-1.725316E-008	0.0630163	7
	14	5	39890.62	4522.563	-552.9802	1	4556.244	-6.971035	5.147653E-008	0.0629382	7
	15	6	31640.63	4570.933	-548.7169	1	4603.75	-6.845305	-1.618735E-008	0.063016	7
	16	6	25171.88	4617.358	-559.6193	1	4651.147	-6.910488	-2.106928E-008	0.0630814	7
	17	6	20015.62	4666.054	-583.058	1	4702.341	-7.122613	-3.261462E-008	0.0631428	7
	18	6	15890.62	4716.049	-621.9372	1	4756.882	-7.512629	-1.947844E-008	0.0630802	7
	19	7	12609.37	4769.484	-675.0166	1	4817.014	-8.05547	5.226258E-008	0.0629116	7
	20	7	10078.13	4825.05	-741.3727	1	4881.674	-8.735227	-1.920968E-008	0.0630784	7
	21	7	8015.625	4880.671	-831.546	1	4951.001	-9.66895	-2.771083E-008	0.0630484	7
	22	8	6328.125	4947.289	-949.5938	1	5037.598	-10.86533	-3.808724E-008	0.0630822	7
	23	8	5015.625	5016.691	-1092.656	1	5134.305	-12.28736	8.341684E-008	0.0629077	7
	24	8	3984.375	5090.245	-1268.335	1	5245.881	-13.99147	5.890255E-008	0.0629836	7
	25	9	3170.956	5171.426	-1483.995	1	5380.138	-16.01139	-1.760162E-008	0.063081	7
	26	9	2527.573	5260.344	-1748.836	1	5543.433	-18.38972	1.014435E-008	0.0630736	7
	27	9	1976.103	5369.143	-2102.585	1	5766.157	-21.38557	5.397062E-008	0.0629307	7
	28	10	1577.524	5484.043	-2502.078	1	6027.862	-24.52469	-2.526675E-008	0.0630458	7
	29	10	1265.625	5613.567	-2984.655	1	6357.696	-27.99895	-3.851627E-008	0.0630776	7
	30	10	998.264	5781.892	-3615.386	1	6819.185	-32.01752	2.668112E-009	0.0629683	7
	31	11	796.875	5971.229	-4352.975	1	7389.45	-36.09172	5.370615E-008	0.0629037	7
	32	11	627.7902	6218.392	-5308.108	1	8175.843	-40.48455	5.163414E-009	0.0629632	7
	33	11	505.5147	6489.247	-6370.846	1	9093.845	-44.4725	1.233895E-008	0.0630696	7
	34	12	397.9953	6865.431	-7786.163	1	10380.68	-48.59584	9.832196E-010	0.0630258	6
	35	12	315.5048	7320.308	-9471.074	1	11970.3	-52.29913	1.07452E-009	0.0630225	6
	36	12	252.4038	7865.7	-11428.95	1	13874.08	-55.46323	4.028226E-010	0.0630252	6
	37	12	198.6229	8597.436	-13974.97	1	16407.79	-58.40007	8.726133E-010	0.0630284	6
	38	13	158.3615	9472.421	-16887.67	1	19362.86	-60.71161	8.447055E-010	0.0630235	6
	39	13	125.558	10588.35	-20467.98	1	23044.56	-62.64689	7.60092E-010	0.0630211	6
	40	13	100.4464	11925.2	-24618.6	1	27354.81	-64.15453	1.35772E-009	0.0630202	6
	41	14	79.00281	13677.23	-29971.07	1	32944.37	-65.47054	9.900746E-010	0.0630177	6
	42	14	63.3446	15958.77	-35621.34	1	39032.83	-65.86707	5.353805E-010	0.0630166	6
	43	15	49.86702	18736.79	-43316.1	1	47194.83	-66.60864	4.006781E-010	0.0630167	6
	44	15	39.72458	21916.99	-52047.59	1	56473.95	-67.16428	1.118542E-009	0.0630223	6
	45	15	31.6723	26011.83	-62281.32	1	67495.02	-67.33212	9.020802E-010	0.0630195	6
	46	16	24.93351	31627.43	-75034.73	1	81427.91	-67.14439	9.666172E-010	0.0630196	6
	47	16	19.86229	38181.05	-89309.28	1	97128.5	-66.85257	1.941693E-009	0.0630241	6
	48	16	15.83615	45637.89	-105683.9	1	115116.9	-66.64367	1.597432E-010	0.0630129	5
	49	16	12.40079	56320.56	-126390.7	1	138371.3	-65.98193	5.539244E-010	0.0630171	5
	50	17	9.93114	69126.72	-148289.8	1	163610.4	-65.00697	6.148581E-010	0.0630113	5
	51	17	7.944915	83399.3	-174085.3	1	193031.5	-64.40225	-2.660529E-010	0.0630239	5
	52	18	6.317385	101353	-203645.3	1	227472.8	-63.54076	-1.047241E-011	0.0630258	5
	53	19	5.008013	123396.8	-238403.5	1	268445.6	-62.63408	2.276225E-010	0.0630318	5
	54	20	3.945707	150618.9	-279441	1	317448.2	-61.67531	2.628965E-012	0.0630155	5
	55	21	3.158693	181493.4	-322691.8	1	370229.5	-60.64505	1.191549E-010	0.0630044	5
	56	23	2.504006	219627	-373159.2	1	432993.9	-59.52059	3.072504E-010	0.0630114	5
	57	24	1.998082	262926.7	-426810	1	501295.6	-58.36579	5.054293E-011	0.062974	5
	58	26	1.584686	314436.8	-489957.2	1	582175.8	-57.30912	-1.692949E-011	0.0629607	5
	59	28	1.266892	369962.8	-555778.4	1	667654.2	-56.34965	3.222422E-011	0.062996	5
	60	30	0.999041	437579.8	-632719.3	1	769291.8	-55.33281	6.155653E-011	0.0630176	5
