EXPLAIN
TAG	EISPOT
TITLE	LABEL	Potentiostatic EIS	Test &Identifier
DATE	LABEL	1/7/2020	Date
TIME	LABEL	17:21:05	Time
NOTES	NOTES	5	&Notes...
	
	
	
	
	
PSTAT	PSTAT	REF600-11020	Potentiostat
VDC	POTEN	0.00000E+000	T	DC &Voltage (V)
FREQINIT	QUANT	1.00000E+006	Initial Fre&q. (Hz)
FREQFINAL	QUANT	1.00000E+000	Final Fre&q. (Hz)
PTSPERDEC	QUANT	1.00000E+001	Points/&decade
VAC	QUANT	2.50000E+001	AC &Voltage (mV rms)
AREA	QUANT	1.00000E-001	&Area (cm^2)
CONDIT	TWOPARAM	T	5.00000E+000	0.00000E+000	Conditionin&g	Time(s)	E(V)
DELAY	TWOPARAM	T	5.00000E+000	0.00000E+000	Init. De&lay	Time(s)	Stab.(mV/s)
SPEED	SELECTOR	0	&Optimize for:
ZGUESS	QUANT	1.00000E+003	E&stimated Z (ohms)
OCVCURVE	TABLE	19
	Pt	T	Vf	Vm	Ach	Over
	#	s	V vs. Ref.	V	V	bits
	0	0.258333	8.86112E-004	8.86112E-004	6.50346E-004	...........
	1	0.516667	8.77046E-004	4.11543E-004	6.49513E-004	...........
	2	0.775	8.23868E-004	9.22237E-005	6.55713E-004	...........
	3	1.03333	6.80638E-004	-2.70927E-004	6.49580E-004	...........
	4	1.29167	4.36421E-004	-5.81693E-004	6.49246E-004	...........
	5	1.55	1.23292E-004	-9.70665E-004	6.44346E-004	...........
	6	1.80833	-2.18149E-004	-1.19069E-003	6.48713E-004	...........
	7	2.06667	-5.58408E-004	-1.47713E-003	6.53580E-004	...........
	8	2.325	-8.79348E-004	-1.75868E-003	6.52213E-004	...........
	9	2.58333	-1.17702E-003	-2.02341E-003	6.49846E-004	...........
	10	2.84167	-1.45951E-003	-2.32791E-003	6.51980E-004	...........
	11	3.1	-1.73718E-003	-2.60588E-003	6.46980E-004	...........
	12	3.35833	-2.01512E-003	-2.81208E-003	6.49546E-004	...........
	13	3.61667	-2.29027E-003	-3.10926E-003	6.47546E-004	...........
	14	3.875	-2.55633E-003	-3.27440E-003	6.49280E-004	...........
	15	4.13333	-2.80905E-003	-3.50016E-003	6.47646E-004	...........
	16	4.39167	-3.04682E-003	-3.75004E-003	6.47213E-004	...........
	17	4.65	-3.27213E-003	-3.88196E-003	6.52280E-004	...........
	18	4.90833	-3.48878E-003	-4.15730E-003	6.49880E-004	...........
EOC	QUANT	-0.0034888	Open Circuit (V)
PSTATMODEL	IQUANT	4	Pstat Model
PSTATSECTION	LABEL	REF600-11020	Pstat Section
PSTATSERIALNO	LABEL	11020	Pstat Serial Number
CTRLMODE	IQUANT	1	Control Mode
IESTAB	IQUANT	0	I/E Stability
CASPEED	IQUANT	1	Control Amp Speed
CONVENTION	IQUANT	1	Current Convention
ICHRANGE	IQUANT	2	Ich Range
ICHRANGEMODE	TOGGLE	F	Ich Auto Range
ICHOFFSETENABLE	TOGGLE	T	Ich Offset Enable
ICHOFFSET	QUANT	0	Ich Offset (V)
ICHFILTER	IQUANT	3	Ich Filter
VCHRANGE	IQUANT	2	Vch Range
VCHRANGEMODE	TOGGLE	F	Vch Auto Range
VCHOFFSETENABLE	TOGGLE	T	Vch Offset Enable
VCHOFFSET	QUANT	0	Vch Offset (V)
VCHFILTER	IQUANT	3	Vch Filter
ACHRANGE	IQUANT	2	Ach Range
ACHOFFSETENABLE	TOGGLE	F	Ach Offset Enable
ACHOFFSET	QUANT	0	Ach Offset (V)
ACHFILTER	IQUANT	3	Ach Filter
IERANGELOWERLIMIT	IQUANT	1	I/E Range Lower Limit
IERANGEMODE	TOGGLE	F	I/E AutoRange
IERANGE	IQUANT	6	I/E Range
POSFEEDENABLE	TOGGLE	F	Positive Feedback IR Comp
POSFEEDRESISTANCE	QUANT	0	Positive Feedback Resistance (ohm)
ACHSELECT	IQUANT	0	Ach Select
CABLEID	IQUANT	14	Cable ID
DCCALDATE	LABEL	12/22/2019	DC Calibration Date
ACCALDATE	LABEL	12/22/2019	AC Calibration Date
THERMOSELECT	IQUANT	1	Thermo Select
FRAMEWORKVERSION	QUANT	6.33	Framework Version
INSTRUMENTVERSION	LABEL	3.50	Instrument Version
ZCURVE	TABLE
	Pt	Time	Freq	Zreal	Zimag	Zsig	Zmod	Zphz	Idc	Vdc	IERange
	#	s	Hz	ohm	ohm	V	ohm	°	A	V	#
	0	2	1000078	2453.587	-1952.847	1	3135.873	-38.51681	3.319379E-006	-0.0013276	8
	1	2	794390.6	2885.379	-1962.814	1	3489.707	-34.22596	8.25275E-006	-0.0033103	8
	2	2	630984.4	3262.382	-1892.28	1	3771.454	-30.11503	-4.30314E-006	-0.0013431	8
	3	2	501234.4	3635.729	-1713.896	1	4019.448	-25.23937	4.550901E-006	-0.0029441	8
	4	3	398109.4	3875.82	-1579.045	1	4185.136	-22.16644	4.137419E-007	-0.0023106	8
	5	3	316265.6	4162.444	-1389.667	1	4388.292	-18.46202	4.068426E-006	-0.0027623	8
	6	3	251203.1	4305.392	-1202.006	1	4470.035	-15.599	7.058265E-006	-0.003253	8
	7	4	199546.9	4464.316	-1082.488	1	4593.681	-13.62977	6.347176E-007	-0.0019623	8
	8	4	158578.1	4595.645	-947.0088	1	4692.204	-11.64376	-2.306965E-006	-0.0011078	8
	9	4	125953.1	4673.654	-740.0573	1	4731.884	-8.997887	-1.541816E-006	0.0022205	7
	10	5	100078.1	4740.595	-689.216	1	4790.435	-8.272045	-7.773458E-008	-0.0018923	7
	11	5	79453.13	4799.286	-650.0653	1	4843.111	-7.713792	-6.00933E-008	-0.0019304	7
	12	5	63140.62	4855.298	-628.0107	1	4895.745	-7.370028	1.419124E-007	-0.0022025	7
	13	6	50203.12	4910.111	-617.5691	1	4948.796	-7.168732	-5.320642E-008	-0.0019519	7
	14	6	39890.62	4963.018	-623.5325	1	5002.034	-7.160879	-7.681119E-008	-0.0018572	7
	15	6	31640.63	5021.442	-645.1771	1	5062.72	-7.321503	-1.023694E-007	-0.0018235	7
	16	7	25171.88	5081.364	-678.8064	1	5126.504	-7.608947	4.33755E-008	-0.0021183	7
	17	7	20015.62	5145.492	-731.1651	1	5197.181	-8.087482	1.473897E-007	-0.0022142	7
	18	7	15890.62	5217.346	-797.8367	1	5277.996	-8.694319	-1.029272E-007	-0.0017613	7
	19	8	12609.37	5294.022	-884.1948	1	5367.352	-9.481884	-1.807217E-009	-0.0020866	7
	20	8	10078.13	5369.852	-976.577	1	5457.931	-10.30733	-7.900209E-008	-0.0018552	7
	21	8	8015.625	5466.132	-1105.585	1	5576.82	-11.43443	1.150884E-007	-0.0019867	7
	22	8	6328.125	5570.048	-1259.285	1	5710.625	-12.73935	-1.039524E-007	-0.0017696	7
	23	9	5015.625	5681.671	-1441.441	1	5861.667	-14.23561	2.352595E-007	-0.0023131	7
	24	9	3984.375	5807.734	-1657.943	1	6039.748	-15.93254	-5.128268E-008	-0.0019706	7
	25	9	3170.956	5944.008	-1912.821	1	6244.207	-17.83852	-6.406837E-009	-0.0020903	7
	26	10	2527.573	6084.503	-2221.572	1	6477.389	-20.05813	-7.493885E-008	-0.0018722	7
	27	10	1976.103	6266.511	-2621.711	1	6792.83	-22.7029	1.45709E-007	-0.0022716	7
	28	10	1577.524	6456.297	-3077.35	1	7152.192	-25.48449	-1.038929E-007	-0.0017701	7
	29	11	1265.625	6651.2	-3604.843	1	7565.273	-28.45697	-3.774783E-008	-0.001869	7
	30	11	998.264	6894.183	-4292.628	1	8121.355	-31.90825	-7.991387E-008	-0.0019167	7
	31	11	796.875	7162.414	-5091.395	1	8787.632	-35.40708	4.754097E-008	-0.0021394	7
	32	12	627.7902	7481.872	-6119.755	1	9665.91	-39.28126	5.810304E-008	-0.0020169	7
	33	12	505.5147	7832.117	-7249.799	1	10672.47	-42.78889	-1.465186E-008	-0.0018247	6
	34	12	397.9953	8262.272	-8769.244	1	12048.44	-46.705	1.284402E-009	-0.0019677	6
	35	13	315.5048	8755.947	-10576.16	1	13730.33	-50.37883	1.237821E-009	-0.0019656	6
	36	13	252.4038	9309.926	-12688.09	1	15737.29	-53.73051	4.876468E-010	-0.0019671	6
	37	13	198.6229	10013.64	-15463.87	1	18422.93	-57.0749	1.084011E-009	-0.0019709	6
	38	14	158.3615	10806.85	-18684.16	1	21584.39	-59.95508	1.187346E-009	-0.0019734	6
	39	14	125.558	11790.97	-22728.01	1	25604.48	-62.58035	1.001911E-009	-0.001976	6
	40	14	100.4464	12950.8	-27445.93	1	30348.02	-64.73896	6.031232E-010	-0.0019707	6
	41	15	79.00281	14567.21	-33732.79	1	36743.77	-66.64332	2.109266E-010	-0.0019707	6
	42	15	63.3446	16081.99	-41089.72	1	44124.77	-68.62526	1.151415E-009	-0.0019789	6
	43	15	49.86702	18700.59	-50264.56	1	53630.57	-69.59262	8.205255E-010	-0.0019805	6
	44	16	39.72458	22183.14	-60987.08	1	64896.19	-70.0119	8.111513E-010	-0.001975	6
	45	16	31.6723	26648.22	-73815.98	1	78478.84	-70.14997	1.232032E-009	-0.0019773	6
	46	16	24.93351	32271.77	-90163.37	1	95764.8	-70.30642	5.427332E-011	-0.001977	6
	47	17	19.86229	39554.77	-108648.4	1	115624.6	-69.99535	-8.845402E-010	-0.0019796	5
	48	17	15.83615	49484.8	-130413.5	1	139486.3	-69.22099	7.175459E-010	-0.0019841	5
	49	17	12.40079	62589.37	-157863.8	1	169818.8	-68.37282	1.811713E-010	-0.0019756	5
	50	18	9.93114	79006.99	-187348.7	1	203326.5	-67.13432	7.956554E-010	-0.0019751	5
	51	18	7.944915	99228.3	-220565.2	1	241858	-65.77789	1.006027E-009	-0.0019749	5
	52	19	6.317385	124967.5	-258419.6	1	287049.8	-64.19234	8.235356E-010	-0.0019866	5
	53	20	5.008013	158169.5	-301448.2	1	340424.2	-62.31406	6.653998E-010	-0.001972	5
	54	21	3.945707	199661.6	-348039.7	1	401243.6	-60.1582	2.913235E-010	-0.0019816	5
	55	22	3.158693	245484.1	-394632.3	1	464754.8	-58.116	3.021019E-010	-0.0019941	5
	56	24	2.504006	300463.9	-444471.3	1	536501	-55.94119	4.772206E-010	-0.0019895	5
	57	25	1.998082	357012	-496155.3	1	611250.8	-54.26283	4.069522E-010	-0.0019906	5
	58	26	1.584686	422099	-549387.3	1	692816	-52.46462	1.765416E-010	-0.0020304	5
	59	28	1.266892	486341.9	-608219.6	1	778755.1	-51.35362	2.323219E-010	-0.0020201	5
	60	31	0.999041	556860.3	-670483.6	1	871574.2	-50.28917	8.891253E-011	-0.0020027	5
