EXPLAIN
TAG	EISPOT
TITLE	LABEL	Potentiostatic EIS	Test &Identifier
DATE	LABEL	3/9/2020	Date
TIME	LABEL	20:53:09	Time
NOTES	NOTES	1	&Notes...
	
PSTAT	PSTAT	REF600-11020	Potentiostat
VDC	POTEN	0.00000E+000	T	DC &Voltage (V)
FREQINIT	QUANT	1.00000E+006	Initial Fre&q. (Hz)
FREQFINAL	QUANT	1.00000E+000	Final Fre&q. (Hz)
PTSPERDEC	QUANT	1.00000E+001	Points/&decade
VAC	QUANT	2.50000E+001	AC &Voltage (mV rms)
AREA	QUANT	4.00000E-005	&Area (cm^2)
CONDIT	TWOPARAM	F	5.00000E+000	0.00000E+000	Conditionin&g	Time(s)	E(V)
DELAY	TWOPARAM	T	3.00000E+000	0.00000E+000	Init. De&lay	Time(s)	Stab.(mV/s)
SPEED	SELECTOR	0	&Optimize for:
ZGUESS	QUANT	1.00000E+003	E&stimated Z (ohms)
OCVCURVE	TABLE	12
	Pt	T	Vf	Vm	Ach	Over
	#	s	V vs. Ref.	V	V	bits
	0	0.258333	4.20543E-002	4.20543E-002	5.98430E-004	...........
	1	0.516667	4.20540E-002	4.20377E-002	5.99863E-004	...........
	2	0.775	4.20521E-002	4.20213E-002	6.02796E-004	...........
	3	1.03333	4.20466E-002	4.20104E-002	6.00563E-004	...........
	4	1.29167	4.20370E-002	4.19961E-002	6.00996E-004	...........
	5	1.55	4.20246E-002	4.19819E-002	5.99996E-004	...........
	6	1.80833	4.20110E-002	4.19661E-002	5.98630E-004	...........
	7	2.06667	4.19969E-002	4.19528E-002	5.99263E-004	...........
	8	2.325	4.19825E-002	4.19369E-002	6.03563E-004	...........
	9	2.58333	4.19679E-002	4.19223E-002	6.01563E-004	...........
	10	2.84167	4.19532E-002	4.19067E-002	6.02963E-004	...........
	11	3.1	4.19383E-002	4.18955E-002	6.03663E-004	...........
EOC	QUANT	0.0419383	Open Circuit (V)
PSTATMODEL	IQUANT	4	Pstat Model
PSTATSECTION	LABEL	REF600-11020	Pstat Section
PSTATSERIALNO	LABEL	11020	Pstat Serial Number
CTRLMODE	IQUANT	1	Control Mode
IESTAB	IQUANT	0	I/E Stability
CASPEED	IQUANT	1	Control Amp Speed
CONVENTION	IQUANT	1	Current Convention
ICHRANGE	IQUANT	2	Ich Range
ICHRANGEMODE	TOGGLE	F	Ich Auto Range
ICHOFFSETENABLE	TOGGLE	T	Ich Offset Enable
ICHOFFSET	QUANT	0	Ich Offset (V)
ICHFILTER	IQUANT	3	Ich Filter
VCHRANGE	IQUANT	2	Vch Range
VCHRANGEMODE	TOGGLE	F	Vch Auto Range
VCHOFFSETENABLE	TOGGLE	T	Vch Offset Enable
VCHOFFSET	QUANT	0	Vch Offset (V)
VCHFILTER	IQUANT	3	Vch Filter
ACHRANGE	IQUANT	2	Ach Range
ACHOFFSETENABLE	TOGGLE	F	Ach Offset Enable
ACHOFFSET	QUANT	0	Ach Offset (V)
ACHFILTER	IQUANT	3	Ach Filter
IERANGELOWERLIMIT	IQUANT	1	I/E Range Lower Limit
IERANGEMODE	TOGGLE	F	I/E AutoRange
IERANGE	IQUANT	7	I/E Range
POSFEEDENABLE	TOGGLE	F	Positive Feedback IR Comp
POSFEEDRESISTANCE	QUANT	0	Positive Feedback Resistance (ohm)
ACHSELECT	IQUANT	0	Ach Select
CABLEID	IQUANT	14	Cable ID
DCCALDATE	LABEL	2/27/2020	DC Calibration Date
ACCALDATE	LABEL	2/27/2020	AC Calibration Date
THERMOSELECT	IQUANT	1	Thermo Select
FRAMEWORKVERSION	QUANT	6.33	Framework Version
INSTRUMENTVERSION	LABEL	3.50	Instrument Version
ZCURVE	TABLE
	Pt	Time	Freq	Zreal	Zimag	Zsig	Zmod	Zphz	Idc	Vdc	IERange
	#	s	Hz	ohm	ohm	V	ohm	°	A	V	#
	0	1	1000078	1860.348	-1985.231	1	2720.669	-46.86	3.695279E-008	0.0442906	8
	1	1	794390.6	2252.164	-2109.296	1	3085.672	-43.12384	2.312176E-008	0.0439812	8
	2	1	630984.4	2675.625	-2183.272	1	3453.353	-39.21395	3.569838E-008	0.0438206	8
	3	2	501234.4	3111.014	-2190.092	1	3804.591	-35.14478	3.42807E-008	0.043719	8
	4	2	398109.4	3531.403	-2134.175	1	4126.198	-31.14632	-1.265749E-008	0.0436935	8
	5	2	316265.6	3921.929	-2029.688	1	4416.012	-27.36259	3.168921E-008	0.0436309	8
	6	3	251203.1	4268.165	-1886.652	1	4666.55	-23.84681	2.546273E-008	0.0436146	8
	7	3	199546.9	4581.71	-1719.305	1	4893.678	-20.5688	4.82783E-008	0.0436177	8
	8	3	158578.1	4825.873	-1554.729	1	5070.131	-17.85714	4.675249E-008	0.0436451	8
	9	4	125953.1	5088.759	-1288.878	1	5249.445	-14.21295	-3.414171E-009	0.043583	7
	10	4	100078.1	5231.09	-1150.395	1	5356.091	-12.40277	-1.139011E-011	0.043552	7
	11	4	79453.13	5364.983	-1034.187	1	5463.752	-10.91086	2.885624E-010	0.0435546	7
	12	5	63140.62	5475.704	-932.3313	1	5554.51	-9.66291	1.307839E-010	0.0435403	7
	13	5	50203.12	5568.455	-847.1813	1	5632.531	-8.650608	7.371496E-010	0.0435531	7
	14	5	39890.62	5646.221	-780.084	1	5699.854	-7.866209	9.731114E-010	0.0435529	7
	15	6	31640.63	5714.21	-732.226	1	5760.933	-7.302158	1.229415E-009	0.0435441	7
	16	6	25171.88	5773.399	-704.2005	1	5816.188	-6.954203	1.059038E-009	0.0435454	7
	17	6	20015.62	5828.335	-694.9632	1	5869.623	-6.79977	9.465551E-010	0.0435522	7
	18	6	15890.62	5880.727	-705.7218	1	5922.92	-6.843106	7.652722E-010	0.0435523	7
	19	7	12609.37	5930.991	-737.9112	1	5976.718	-7.092078	1.29763E-009	0.0435528	7
	20	7	10078.13	5980.552	-789.855	1	6032.484	-7.523545	9.467162E-011	0.0435434	7
	21	7	8015.625	6033.858	-867.6777	1	6095.926	-8.18312	6.616199E-010	0.0435405	7
	22	8	6328.125	6091.069	-977.882	1	6169.066	-9.120646	8.367791E-010	0.0435426	7
	23	8	5015.625	6153.519	-1118.834	1	6254.405	-10.30496	1.216831E-009	0.0435361	7
	24	8	3984.375	6220.438	-1297.542	1	6354.327	-11.78257	1.103391E-009	0.0435451	7
	25	9	3170.956	6294.118	-1520.359	1	6475.138	-13.57981	1.946634E-009	0.0435458	7
	26	9	2527.573	6378.137	-1793.825	1	6625.59	-15.70842	9.149275E-010	0.0435411	7
	27	9	1976.103	6483.574	-2167.394	1	6836.251	-18.48426	1.792862E-009	0.0435457	7
	28	10	1577.524	6596.702	-2586.125	1	7085.515	-21.40682	1.550648E-009	0.0435392	7
	29	10	1265.625	6728.715	-3088.532	1	7403.691	-24.65549	2.301367E-009	0.0435342	7
	30	10	998.264	6895.803	-3748.506	1	7848.783	-28.52817	1.250407E-009	0.0435362	7
	31	11	796.875	7085.374	-4517.17	1	8402.817	-32.51892	2.448569E-009	0.0435389	7
	32	11	627.7902	7327.001	-5507.042	1	9165.831	-36.92886	1.65237E-009	0.0435395	7
	33	11	505.5147	7599.98	-6600.179	1	10065.89	-40.97258	-8.152748E-010	0.04359	6
	34	12	397.9953	7948.106	-8076.922	1	11331.77	-45.46056	3.753798E-010	0.0436027	6
	35	12	315.5048	8364.612	-9836.2	1	12911.92	-49.62247	4.590066E-010	0.0436023	6
	36	12	252.4038	8851.748	-11896.66	1	14828.49	-53.34879	4.289812E-010	0.0435994	6
	37	13	198.6229	9493.713	-14601.41	1	17416.42	-56.96843	4.545746E-010	0.0436016	6
	38	13	158.3615	10248.7	-17733.12	1	20481.69	-59.97461	2.461594E-010	0.0435965	6
	39	13	125.558	11216.17	-21651.33	1	24384.06	-62.61421	2.234245E-010	0.0435991	6
	40	14	100.4464	12389.68	-26235.39	1	29013.79	-64.72094	2.2007E-010	0.0435988	6
	41	14	79.00281	14005	-32256.33	1	35165.48	-66.53056	3.982871E-010	0.0435903	6
	42	14	63.3446	15926.06	-38990.19	1	42117.39	-67.78178	3.880732E-010	0.0435945	6
	43	15	49.86702	18637.95	-47832.04	1	51334.96	-68.71142	1.129537E-010	0.04359	6
	44	15	39.72458	22040.7	-57995.37	1	62042.36	-69.19109	1.721316E-010	0.0435938	6
	45	15	31.6723	26500.67	-70114.42	1	74955.44	-69.29526	6.350122E-011	0.043592	6
	46	16	24.93351	32773.58	-85375.77	1	91450.16	-68.99948	-2.199513E-010	0.0435912	6
	47	16	19.86229	40606.49	-102438.2	1	110192.9	-68.37663	-1.395704E-009	0.0435928	5
	48	16	15.83615	50910.95	-122086.8	1	132276.6	-67.36356	9.121922E-010	0.0435932	5
	49	16	12.40079	65535.49	-146487.5	1	160478.9	-65.89724	-3.835608E-010	0.0435936	5
	50	17	9.93114	82414.91	-171410.1	1	190193.7	-64.3215	1.288409E-010	0.0435889	5
	51	17	7.944915	103324.4	-198139.5	1	223461.8	-62.45918	1.486509E-009	0.0435893	5
	52	18	6.317385	129627.9	-228730.6	1	262908.9	-60.45858	-3.361598E-010	0.0436128	5
	53	18	5.008013	161185	-261224.2	1	306950.7	-58.32388	-4.484507E-010	0.0435916	5
	54	19	3.945707	198008.2	-294793.4	1	355120.3	-56.11135	3.175803E-010	0.0436049	5
	55	20	3.158693	236600.8	-328271.7	1	404650.8	-54.21793	-2.617873E-010	0.0435934	5
	56	21	2.504006	278840.8	-363865.4	1	458421.4	-52.53599	-6.204716E-012	0.0435871	5
	57	22	1.998082	322226.7	-401841.8	1	515079.5	-51.27477	2.785032E-010	0.0436351	5
	58	24	1.584686	366217.8	-445107.6	1	576399.4	-50.55373	1.330176E-010	0.0436025	5
	59	26	1.266892	411549.3	-493337.7	1	642460.1	-50.16466	4.209741E-011	0.0435593	5
	60	28	0.999041	461198.6	-556246.3	1	722574.6	-50.33697	-1.783341E-011	0.0435394	5
