EXPLAIN
TAG	EISPOT
TITLE	LABEL	Potentiostatic EIS	Test &Identifier
DATE	LABEL	1/14/2020	Date
TIME	LABEL	15:59:15	Time
NOTES	NOTES	5	&Notes...
	
	
	
	
	
PSTAT	PSTAT	REF600-11020	Potentiostat
VDC	POTEN	0.00000E+000	T	DC &Voltage (V)
FREQINIT	QUANT	1.00000E+006	Initial Fre&q. (Hz)
FREQFINAL	QUANT	1.00000E+000	Final Fre&q. (Hz)
PTSPERDEC	QUANT	1.00000E+001	Points/&decade
VAC	QUANT	2.50000E+001	AC &Voltage (mV rms)
AREA	QUANT	1.00000E-001	&Area (cm^2)
CONDIT	TWOPARAM	T	5.00000E+000	0.00000E+000	Conditionin&g	Time(s)	E(V)
DELAY	TWOPARAM	T	5.00000E+000	0.00000E+000	Init. De&lay	Time(s)	Stab.(mV/s)
SPEED	SELECTOR	0	&Optimize for:
ZGUESS	QUANT	5.00000E+002	E&stimated Z (ohms)
OCVCURVE	TABLE	19
	Pt	T	Vf	Vm	Ach	Over
	#	s	V vs. Ref.	V	V	bits
	0	0.258333	-4.01425E-003	-4.01425E-003	6.51213E-004	...........
	1	0.516667	-4.02552E-003	-4.60406E-003	6.50013E-004	...........
	2	0.775	-4.09446E-003	-5.14992E-003	6.53780E-004	...........
	3	1.03333	-4.28698E-003	-5.58704E-003	6.48080E-004	...........
	4	1.29167	-4.63022E-003	-6.40709E-003	6.53046E-004	...........
	5	1.55	-5.10728E-003	-7.23554E-003	6.47313E-004	...........
	6	1.80833	-5.66635E-003	-6.22606E-003	6.52513E-004	...........
	7	2.06667	-6.18041E-003	-6.94112E-003	6.57713E-004	...........
	8	2.325	-6.53185E-003	-7.40280E-003	6.56680E-004	...........
	9	2.58333	-6.76930E-003	-7.91136E-003	6.55313E-004	...........
	10	2.84167	-7.02271E-003	-7.59151E-003	6.55013E-004	...........
	11	3.1	-7.31277E-003	-8.07525E-003	6.55179E-004	...........
	12	3.35833	-7.56702E-003	-7.63636E-003	6.57446E-004	...........
	13	3.61667	-7.73433E-003	-7.99176E-003	6.53746E-004	...........
	14	3.875	-7.82727E-003	-8.30614E-003	6.49213E-004	...........
	15	4.13333	-7.91397E-003	-8.62145E-003	6.46680E-004	...........
	16	4.39167	-8.06437E-003	-8.87094E-003	6.51713E-004	...........
	17	4.65	-8.28950E-003	-9.06042E-003	6.51646E-004	...........
	18	4.90833	-8.55035E-003	-9.27874E-003	6.49880E-004	...........
EOC	QUANT	-0.0085504	Open Circuit (V)
PSTATMODEL	IQUANT	4	Pstat Model
PSTATSECTION	LABEL	REF600-11020	Pstat Section
PSTATSERIALNO	LABEL	11020	Pstat Serial Number
CTRLMODE	IQUANT	1	Control Mode
IESTAB	IQUANT	0	I/E Stability
CASPEED	IQUANT	1	Control Amp Speed
CONVENTION	IQUANT	1	Current Convention
ICHRANGE	IQUANT	2	Ich Range
ICHRANGEMODE	TOGGLE	F	Ich Auto Range
ICHOFFSETENABLE	TOGGLE	T	Ich Offset Enable
ICHOFFSET	QUANT	0	Ich Offset (V)
ICHFILTER	IQUANT	3	Ich Filter
VCHRANGE	IQUANT	2	Vch Range
VCHRANGEMODE	TOGGLE	F	Vch Auto Range
VCHOFFSETENABLE	TOGGLE	T	Vch Offset Enable
VCHOFFSET	QUANT	0	Vch Offset (V)
VCHFILTER	IQUANT	3	Vch Filter
ACHRANGE	IQUANT	2	Ach Range
ACHOFFSETENABLE	TOGGLE	F	Ach Offset Enable
ACHOFFSET	QUANT	0	Ach Offset (V)
ACHFILTER	IQUANT	3	Ach Filter
IERANGELOWERLIMIT	IQUANT	1	I/E Range Lower Limit
IERANGEMODE	TOGGLE	F	I/E AutoRange
IERANGE	IQUANT	7	I/E Range
POSFEEDENABLE	TOGGLE	F	Positive Feedback IR Comp
POSFEEDRESISTANCE	QUANT	0	Positive Feedback Resistance (ohm)
ACHSELECT	IQUANT	0	Ach Select
CABLEID	IQUANT	14	Cable ID
DCCALDATE	LABEL	12/22/2019	DC Calibration Date
ACCALDATE	LABEL	12/22/2019	AC Calibration Date
THERMOSELECT	IQUANT	1	Thermo Select
FRAMEWORKVERSION	QUANT	6.33	Framework Version
INSTRUMENTVERSION	LABEL	3.50	Instrument Version
ZCURVE	TABLE
	Pt	Time	Freq	Zreal	Zimag	Zsig	Zmod	Zphz	Idc	Vdc	IERange
	#	s	Hz	ohm	ohm	V	ohm	°	A	V	#
	0	1	1000078	1426.318	-3202.554	1	3505.814	-65.99329	-3.891007E-007	-0.0062091	8
	1	1	794390.6	1655.469	-3828.399	1	4170.997	-66.61547	-1.043724E-006	-0.006417	8
	2	2	630984.4	1874.174	-4568.243	1	4937.75	-67.69354	3.566245E-006	-0.0072803	8
	3	2	501234.4	2200.459	-5490.394	1	5914.934	-68.1599	-1.49954E-006	-0.0066701	8
	4	2	398109.4	2546.614	-6598.389	1	7072.763	-68.89616	1.059878E-006	-0.0070737	8
	5	3	316265.6	2940.304	-7898.911	1	8428.415	-69.58263	2.985584E-006	-0.007343	8
	6	4	251203.1	3608.075	-9456.611	1	10121.55	-69.11615	-1.156063E-006	-0.0065959	8
	7	4	199546.9	4310.576	-11485.53	1	12267.78	-69.42864	-2.622366E-007	-0.0069156	8
	8	4	158578.1	5718.376	-13641.75	1	14791.8	-67.25745	-1.134473E-006	-0.0066003	8
	9	5	125953.1	6495.505	-16478.56	1	17712.55	-68.48667	-6.713128E-007	-0.0054135	7
	10	5	100078.1	8021.437	-19717.65	1	21286.83	-67.86277	7.170755E-008	-0.0069972	7
	11	5	79453.13	9989.83	-23519.19	1	25552.86	-66.98653	3.315119E-008	-0.0070436	7
	12	6	63140.62	12447.39	-27889.72	1	30541.35	-65.94844	-2.902823E-008	-0.006927	7
	13	6	50203.12	15581.35	-32875.84	1	36381.31	-64.64161	-1.057321E-008	-0.0069794	7
	14	6	39890.62	19546.96	-38474.41	1	43155.11	-63.06711	-2.713532E-008	-0.0069545	7
	15	7	31640.63	24520.14	-44741.03	1	51019.57	-61.27523	-4.772297E-008	-0.0069	7
	16	7	25171.88	30387.96	-51650.72	1	59926.83	-59.53018	-3.939199E-008	-0.0068131	7
	17	7	20015.62	37283.28	-59129.61	1	69902.45	-57.76714	1.756123E-009	-0.0069864	7
	18	8	15890.62	46683.5	-66792.08	1	81489.45	-55.04885	4.28461E-008	-0.0070154	7
	19	8	12609.37	57363.37	-74203	1	93790.41	-52.29382	4.282664E-009	-0.0068859	6
	20	8	10078.13	69554.12	-82182.54	1	107665	-49.75753	1.282581E-008	-0.0071723	6
	21	9	8015.625	83091.66	-86565.61	1	119991	-46.17304	4.704044E-009	-0.0069496	6
	22	9	6328.125	99858.2	-96135.3	1	138613.3	-43.9118	3.435055E-009	-0.0069083	6
	23	9	5015.625	117661.7	-100601	1	154805.8	-40.53052	3.36903E-009	-0.0070622	6
	24	9	3984.375	132963.3	-99842.7	1	166276.3	-36.90305	-4.261565E-009	-0.0069035	6
	25	10	3170.956	153560.8	-105059.3	1	186060.1	-34.37815	-3.276003E-009	-0.0069356	6
	26	10	2527.573	171319.7	-104975	1	200923.3	-31.49759	-2.260342E-009	-0.0068415	6
	27	10	1976.103	192401.2	-104090.4	1	218753.4	-28.4137	5.663302E-010	-0.0069962	6
	28	11	1577.524	204220.2	-95200.7	1	225319.9	-24.99337	5.972518E-009	-0.0071005	6
	29	11	1265.625	220479.7	-95976.7	1	240463.8	-23.5239	-2.396399E-011	-0.0068381	5
	30	11	998.264	234503.2	-94412.26	1	252795.2	-21.92999	1.066218E-009	-0.0070963	5
	31	12	796.875	246592.8	-92400.48	1	263336	-20.54141	8.054893E-010	-0.0069172	5
	32	12	627.7902	258869.9	-91853.25	1	274682.8	-19.53591	4.281915E-010	-0.006988	5
	33	12	505.5147	270073.5	-92187.69	1	285373.9	-18.84698	1.688256E-010	-0.0069049	5
	34	13	397.9953	282029.3	-93320.57	1	297067.8	-18.30884	8.40298E-010	-0.0069636	5
	35	13	315.5048	293652.3	-95377.5	1	308753.2	-17.99365	8.795408E-010	-0.0069665	5
	36	13	252.4038	305535.5	-99001.2	1	321174.7	-17.95363	4.106441E-010	-0.0069674	5
	37	14	198.6229	317763.3	-103461.7	1	334182.3	-18.03492	4.475401E-010	-0.0069678	5
	38	14	158.3615	331366.8	-108944.3	1	348816.3	-18.19945	4.674293E-010	-0.0069697	5
	39	14	125.558	344224.4	-115336.2	1	363032.9	-18.524	6.715413E-010	-0.0069659	5
	40	14	100.4464	358140.1	-122192.5	1	378411.6	-18.83895	8.381574E-010	-0.0069702	5
	41	15	79.00281	373918.3	-135890.7	1	397845.7	-19.97234	6.70413E-010	-0.0069684	5
	42	15	63.3446	379586	-139095.1	1	404268.5	-20.12481	3.173477E-010	-0.0069692	5
	43	15	49.86702	408734.2	-148958.9	1	435031.5	-20.02374	7.354414E-010	-0.0069711	5
	44	16	39.72458	434977.3	-167596.5	1	466147.8	-21.07164	5.581498E-010	-0.0069697	5
	45	16	31.6723	459331.6	-179698.8	1	493231.3	-21.36633	3.044545E-010	-0.0069788	5
	46	16	24.93351	488560	-194106.2	1	525707.2	-21.66805	1.131816E-009	-0.0069761	5
	47	17	19.86229	519389.8	-205756.9	1	558660.6	-21.61106	1.603364E-009	-0.0069746	5
	48	17	15.83615	542159.4	-217524.5	1	584169.3	-21.86158	3.455831E-010	-0.0069777	5
	49	17	12.40079	584530.5	-229887.5	1	628111.6	-21.46901	6.700226E-010	-0.0069737	5
	50	18	9.93114	615447.9	-236598.8	1	659359.6	-21.02843	2.13997E-009	-0.0069736	6
	51	18	7.944915	647936.3	-246933.1	1	693395.6	-20.86219	1.970109E-009	-0.0069752	6
	52	19	6.317385	680188.4	-257004.6	1	727122.8	-20.69873	1.988497E-009	-0.0069804	6
	53	20	5.008013	708071.8	-271512.8	1	758343.4	-20.97951	4.368541E-010	-0.006974	5
	54	22	3.945707	736229.8	-289844.5	1	791229.5	-21.48894	6.622867E-010	-0.0069774	5
	55	23	3.158693	763296.4	-313308.5	1	825096.1	-22.31656	7.648487E-010	-0.0069674	5
	56	25	2.504006	792232.8	-344425.9	1	863864.6	-23.49716	5.354525E-010	-0.0069722	5
	57	26	1.998082	821220.9	-384812.7	1	906909.4	-25.10714	4.545868E-010	-0.0070155	5
	58	28	1.584686	853214	-438297.6	1	959207	-27.18965	4.88816E-010	-0.0069385	4
	59	30	1.266892	886554.8	-500146	1	1017903	-29.42933	5.663761E-010	-0.0069142	4
	60	32	0.999041	930186.3	-583196.9	1	1097891	-32.08639	6.129395E-010	-0.006901	4
