EXPLAIN
TAG	EISPOT
TITLE	LABEL	Potentiostatic EIS	Test &Identifier
DATE	LABEL	3/9/2020	Date
TIME	LABEL	20:59:59	Time
NOTES	NOTES	1	&Notes...
	
PSTAT	PSTAT	REF600-11020	Potentiostat
VDC	POTEN	0.00000E+000	T	DC &Voltage (V)
FREQINIT	QUANT	1.00000E+006	Initial Fre&q. (Hz)
FREQFINAL	QUANT	1.00000E+000	Final Fre&q. (Hz)
PTSPERDEC	QUANT	1.00000E+001	Points/&decade
VAC	QUANT	2.50000E+001	AC &Voltage (mV rms)
AREA	QUANT	4.00000E-005	&Area (cm^2)
CONDIT	TWOPARAM	F	5.00000E+000	0.00000E+000	Conditionin&g	Time(s)	E(V)
DELAY	TWOPARAM	T	3.00000E+000	0.00000E+000	Init. De&lay	Time(s)	Stab.(mV/s)
SPEED	SELECTOR	0	&Optimize for:
ZGUESS	QUANT	1.00000E+003	E&stimated Z (ohms)
OCVCURVE	TABLE	12
	Pt	T	Vf	Vm	Ach	Over
	#	s	V vs. Ref.	V	V	bits
	0	0.258333	4.22306E-002	4.22306E-002	5.72997E-004	...........
	1	0.516667	4.22302E-002	4.22112E-002	5.76963E-004	...........
	2	0.775	4.22279E-002	4.21905E-002	5.75397E-004	...........
	3	1.03333	4.22212E-002	4.21699E-002	5.78430E-004	...........
	4	1.29167	4.22089E-002	4.21555E-002	5.72563E-004	...........
	5	1.55	4.21925E-002	4.21384E-002	5.74263E-004	...........
	6	1.80833	4.21746E-002	4.21209E-002	5.77163E-004	...........
	7	2.06667	4.21569E-002	4.21058E-002	5.75830E-004	...........
	8	2.325	4.21398E-002	4.20934E-002	5.74463E-004	...........
	9	2.58333	4.21235E-002	4.20782E-002	5.74697E-004	...........
	10	2.84167	4.21083E-002	4.20660E-002	5.73263E-004	...........
	11	3.1	4.20940E-002	4.20564E-002	5.75497E-004	...........
EOC	QUANT	0.042094	Open Circuit (V)
PSTATMODEL	IQUANT	4	Pstat Model
PSTATSECTION	LABEL	REF600-11020	Pstat Section
PSTATSERIALNO	LABEL	11020	Pstat Serial Number
CTRLMODE	IQUANT	1	Control Mode
IESTAB	IQUANT	0	I/E Stability
CASPEED	IQUANT	1	Control Amp Speed
CONVENTION	IQUANT	1	Current Convention
ICHRANGE	IQUANT	2	Ich Range
ICHRANGEMODE	TOGGLE	F	Ich Auto Range
ICHOFFSETENABLE	TOGGLE	T	Ich Offset Enable
ICHOFFSET	QUANT	0	Ich Offset (V)
ICHFILTER	IQUANT	3	Ich Filter
VCHRANGE	IQUANT	2	Vch Range
VCHRANGEMODE	TOGGLE	F	Vch Auto Range
VCHOFFSETENABLE	TOGGLE	T	Vch Offset Enable
VCHOFFSET	QUANT	0	Vch Offset (V)
VCHFILTER	IQUANT	3	Vch Filter
ACHRANGE	IQUANT	2	Ach Range
ACHOFFSETENABLE	TOGGLE	F	Ach Offset Enable
ACHOFFSET	QUANT	0	Ach Offset (V)
ACHFILTER	IQUANT	3	Ach Filter
IERANGELOWERLIMIT	IQUANT	1	I/E Range Lower Limit
IERANGEMODE	TOGGLE	F	I/E AutoRange
IERANGE	IQUANT	7	I/E Range
POSFEEDENABLE	TOGGLE	F	Positive Feedback IR Comp
POSFEEDRESISTANCE	QUANT	0	Positive Feedback Resistance (ohm)
ACHSELECT	IQUANT	0	Ach Select
CABLEID	IQUANT	14	Cable ID
DCCALDATE	LABEL	2/27/2020	DC Calibration Date
ACCALDATE	LABEL	2/27/2020	AC Calibration Date
THERMOSELECT	IQUANT	1	Thermo Select
FRAMEWORKVERSION	QUANT	6.33	Framework Version
INSTRUMENTVERSION	LABEL	3.50	Instrument Version
ZCURVE	TABLE
	Pt	Time	Freq	Zreal	Zimag	Zsig	Zmod	Zphz	Idc	Vdc	IERange
	#	s	Hz	ohm	ohm	V	ohm	°	A	V	#
	0	1	1000078	1636.288	-2088.401	1	2653.084	-51.92085	-3.974398E-008	0.0443072	8
	1	2	794390.6	1952.362	-2331.493	1	3040.983	-50.05764	5.922701E-008	0.0439523	8
	2	2	630984.4	2319.255	-2577.506	1	3467.345	-48.01893	3.091798E-008	0.0438045	8
	3	2	501234.4	2733.596	-2825.64	1	3931.513	-45.94855	3.669971E-008	0.0437075	8
	4	2	398109.4	3197.739	-3067.008	1	4430.809	-43.80454	4.259646E-008	0.0436583	8
	5	3	316265.6	3724.706	-3287.873	1	4968.253	-41.43549	3.258121E-008	0.0436338	8
	6	3	251203.1	4314.828	-3492.722	1	5551.292	-38.98912	1.709179E-009	0.0436113	8
	7	3	199546.9	4957.131	-3632.832	1	6145.78	-36.23581	4.314165E-008	0.0436046	8
	8	4	158578.1	5631.512	-3699.724	1	6738.092	-33.30364	2.155691E-008	0.043621	8
	9	4	125953.1	6433.757	-3598.082	1	7371.528	-29.21612	9.542566E-010	0.0435455	7
	10	4	100078.1	7082.068	-3512.612	1	7905.323	-26.3808	1.65533E-009	0.0435395	7
	11	5	79453.13	7717.654	-3362.644	1	8418.405	-23.54314	1.173402E-009	0.0435359	7
	12	5	63140.62	8290.126	-3145.673	1	8866.874	-20.77916	8.594508E-010	0.0435256	7
	13	5	50203.12	8796.061	-2893.992	1	9259.907	-18.21173	1.632994E-009	0.0435245	7
	14	6	39890.62	9214.271	-2614.944	1	9578.14	-15.84356	1.187306E-009	0.0435224	7
	15	6	31640.63	9561.19	-2351.769	1	9846.17	-13.81873	2.553293E-009	0.0435276	7
	16	6	25171.88	9838.78	-2108.8	1	10062.24	-12.09748	2.470465E-009	0.0435249	7
	17	7	20015.62	10056.03	-1890.472	1	10232.18	-10.64699	1.634425E-009	0.0435267	7
	18	7	15890.62	10234.09	-1713.906	1	10376.61	-9.50712	1.41815E-009	0.0435231	7
	19	7	12609.37	10449.9	-1399.797	1	10543.24	-7.629535	-9.955278E-011	0.0435691	6
	20	8	10078.13	10541.88	-1354.048	1	10628.48	-7.319263	7.436972E-011	0.043581	6
	21	8	8015.625	10626.21	-1351.165	1	10711.77	-7.246495	-2.184838E-010	0.04357	6
	22	8	6328.125	10700.75	-1398.263	1	10791.72	-7.444635	3.279907E-011	0.0435773	6
	23	9	5015.625	10782.3	-1502.304	1	10886.46	-7.931989	-2.850598E-010	0.0435745	6
	24	9	3984.375	10849.94	-1662.967	1	10976.64	-8.713891	9.468155E-011	0.0435832	6
	25	9	3170.956	10935.42	-1879.473	1	11095.76	-9.75216	-4.221491E-011	0.0435824	6
	26	9	2527.573	11025.29	-2167.269	1	11236.28	-11.12099	-8.893963E-011	0.0435779	6
	27	10	1976.103	11138.76	-2574.087	1	11432.31	-13.01222	-1.547262E-010	0.0435752	6
	28	10	1577.524	11258	-3047.167	1	11663.1	-15.14517	-2.047379E-010	0.0435677	6
	29	10	1265.625	11397.96	-3624.674	1	11960.43	-17.64122	-2.800632E-010	0.0435656	6
	30	11	998.264	11577.19	-4391.382	1	12382.07	-20.7724	-1.563276E-010	0.0435722	6
	31	11	796.875	11785.95	-5291.895	1	12919.47	-24.18009	-2.070808E-010	0.043563	6
	32	11	627.7902	12049.74	-6458.905	1	13671.64	-28.19221	-3.167668E-010	0.0435771	6
	33	12	505.5147	12364.32	-7757.689	1	14596.51	-32.10522	-3.180406E-010	0.0435658	6
	34	12	397.9953	12775.67	-9500.01	1	15920.68	-36.63456	3.781145E-010	0.0435819	6
	35	12	315.5048	13277.75	-11568.23	1	17610.3	-41.06398	3.117917E-010	0.0435838	6
	36	13	252.4038	13866.23	-13989.44	1	19697.13	-45.25343	2.52214E-010	0.0435809	6
	37	13	198.6229	14648.87	-17153.68	1	22557.45	-49.50339	1.736983E-010	0.0435828	6
	38	13	158.3615	15571.05	-20795.77	1	25979.25	-53.17559	3.227479E-010	0.0435823	6
	39	14	125.558	16746.31	-25335.34	1	30369.69	-56.53585	4.496861E-010	0.0435791	6
	40	14	100.4464	18163.82	-30624.62	1	35606.06	-59.32733	4.573724E-010	0.043571	6
	41	14	79.00281	20088.79	-37541.14	1	42578.13	-61.84813	2.909799E-010	0.0435758	6
	42	15	63.3446	22321.23	-45273.61	1	50477.09	-63.75533	2.993076E-010	0.043575	6
	43	15	49.86702	25406.87	-55408.05	1	60955.41	-65.36659	2.973447E-010	0.0435747	6
	44	15	39.72458	29219.57	-67072.82	1	73161.1	-66.46016	2.797827E-010	0.0435775	6
	45	16	31.6723	34124.13	-81034.16	1	87926.05	-67.16365	1.074357E-010	0.0435792	6
	46	16	24.93351	40996.23	-98637.7	1	106818	-67.43103	2.165924E-010	0.0435808	5
	47	16	19.86229	49434.07	-118613.5	1	128502.5	-67.37528	-4.80827E-010	0.0435791	5
	48	17	15.83615	60545.28	-141850.6	1	154231.4	-66.88604	1.013444E-009	0.0435781	5
	49	17	12.40079	76330.22	-170898.2	1	187169.7	-65.93248	7.282512E-010	0.0435768	5
	50	17	9.93114	94806.78	-200897.5	1	222144.4	-64.73662	1.088407E-009	0.0435742	5
	51	18	7.944915	117354.1	-234707	1	262410.7	-63.43483	7.242305E-010	0.043577	5
	52	18	6.317385	146472	-273059.2	1	309863.4	-61.79039	-1.32134E-010	0.0435988	5
	53	19	5.008013	182148.2	-314826.4	1	363721.9	-59.94774	7.958087E-011	0.0435881	5
	54	20	3.945707	224601.3	-360879.6	1	425064.5	-58.10303	3.986767E-010	0.0435826	5
	55	21	3.158693	270171.9	-405915.9	1	487607	-56.35282	4.036636E-011	0.043595	5
	56	22	2.504006	322546.6	-456850.1	1	559239.1	-54.77704	-1.301278E-010	0.0435819	5
	57	23	1.998082	377094.8	-508315.5	1	632917.9	-53.43006	1.173395E-010	0.0436144	5
	58	24	1.584686	437366.3	-569525.4	1	718086.7	-52.47758	1.788796E-010	0.0436245	5
	59	26	1.266892	497365.9	-635121.9	1	806692.4	-51.9354	1.186614E-010	0.0435843	5
	60	29	0.999041	566180.2	-715139.7	1	912132	-51.63114	8.619908E-011	0.0435601	5
