EXPLAIN
TAG	EISPOT
TITLE	LABEL	Potentiostatic EIS	Test &Identifier
DATE	LABEL	6/26/2020	Date
TIME	LABEL	13:00:49	Time
NOTES	NOTES	1	&Notes...
	
PSTAT	PSTAT	REF600-11020	Potentiostat
VDC	POTEN	0.00000E+000	T	DC &Voltage (V)
FREQINIT	QUANT	1.00000E+006	Initial Fre&q. (Hz)
FREQFINAL	QUANT	1.00000E+000	Final Fre&q. (Hz)
PTSPERDEC	QUANT	1.00000E+001	Points/&decade
VAC	QUANT	2.50000E+001	AC &Voltage (mV rms)
AREA	QUANT	4.00000E-004	&Area (cm^2)
CONDIT	TWOPARAM	F	5.00000E+000	0.00000E+000	Conditionin&g	Time(s)	E(V)
DELAY	TWOPARAM	F	3.00000E+000	0.00000E+000	Init. De&lay	Time(s)	Stab.(mV/s)
SPEED	SELECTOR	0	&Optimize for:
ZGUESS	QUANT	1.00000E+003	E&stimated Z (ohms)
OCVCURVE	TABLE	39
	Pt	T	Vf	Vm	Ach	Over
	#	s	V vs. Ref.	V	V	bits
	0	0.258333	8.72134E-002	8.72134E-002	5.09117E-004	...........
	1	0.516667	8.72133E-002	8.72069E-002	5.11584E-004	...........
	2	0.775	8.72125E-002	8.71983E-002	5.01250E-004	...........
	3	1.03333	8.72100E-002	8.71884E-002	5.10384E-004	...........
	4	1.29167	8.72052E-002	8.71819E-002	5.06584E-004	...........
	5	1.55	8.71984E-002	8.71740E-002	5.05517E-004	...........
	6	1.80833	8.71905E-002	8.71652E-002	5.06750E-004	...........
	7	2.06667	8.71824E-002	8.71579E-002	5.03784E-004	...........
	8	2.325	8.71743E-002	8.71495E-002	5.04550E-004	...........
	9	2.58333	8.71663E-002	8.71432E-002	5.05050E-004	...........
	10	2.84167	8.71585E-002	8.71363E-002	5.06883E-004	...........
	11	3.1	8.71509E-002	8.71257E-002	5.11384E-004	...........
	12	3.35833	8.71432E-002	8.71165E-002	5.10817E-004	...........
	13	3.61667	8.71352E-002	8.71105E-002	5.04784E-004	...........
	14	3.875	8.71269E-002	8.71036E-002	5.11483E-004	...........
	15	4.13333	8.71188E-002	8.70965E-002	5.14683E-004	...........
	16	4.39167	8.71112E-002	8.70887E-002	5.07417E-004	...........
	17	4.65	8.71039E-002	8.70822E-002	5.08917E-004	...........
	18	4.90833	8.70968E-002	8.70731E-002	5.07250E-004	...........
	19	5.16667	8.70895E-002	8.70676E-002	5.05450E-004	...........
	20	5.425	8.70821E-002	8.70588E-002	5.11284E-004	...........
	21	5.68333	8.70747E-002	8.70524E-002	5.02384E-004	...........
	22	5.94167	8.70673E-002	8.70427E-002	5.03950E-004	...........
	23	6.2	8.70598E-002	8.70364E-002	5.03584E-004	...........
	24	6.45833	8.70521E-002	8.70299E-002	5.03517E-004	...........
	25	6.71667	8.70445E-002	8.70212E-002	5.06784E-004	...........
	26	6.975	8.70370E-002	8.70152E-002	5.04517E-004	...........
	27	7.23333	8.70297E-002	8.70058E-002	5.08550E-004	...........
	28	7.49167	8.70223E-002	8.69991E-002	5.07050E-004	...........
	29	7.75	8.70148E-002	8.69915E-002	5.03084E-004	...........
	30	8.00833	8.70072E-002	8.69829E-002	5.05917E-004	...........
	31	8.26667	8.69995E-002	8.69769E-002	5.05117E-004	...........
	32	8.525	8.69919E-002	8.69712E-002	5.07617E-004	...........
	33	8.78333	8.69846E-002	8.69623E-002	5.09050E-004	...........
	34	9.04167	8.69776E-002	8.69545E-002	5.07017E-004	...........
	35	9.3	8.69704E-002	8.69478E-002	5.09917E-004	...........
	36	9.5583	8.69631E-002	8.69402E-002	5.04117E-004	...........
	37	9.8167	8.69556E-002	8.69312E-002	5.06384E-004	...........
	38	10.075	8.69480E-002	8.69244E-002	5.07184E-004	...........
EOC	QUANT	0.086948	Open Circuit (V)
PSTATMODEL	IQUANT	4	Pstat Model
PSTATSECTION	LABEL	REF600-11020	Pstat Section
PSTATSERIALNO	LABEL	11020	Pstat Serial Number
CTRLMODE	IQUANT	1	Control Mode
IESTAB	IQUANT	0	I/E Stability
CASPEED	IQUANT	1	Control Amp Speed
CONVENTION	IQUANT	1	Current Convention
ICHRANGE	IQUANT	2	Ich Range
ICHRANGEMODE	TOGGLE	F	Ich Auto Range
ICHOFFSETENABLE	TOGGLE	T	Ich Offset Enable
ICHOFFSET	QUANT	0	Ich Offset (V)
ICHFILTER	IQUANT	3	Ich Filter
VCHRANGE	IQUANT	2	Vch Range
VCHRANGEMODE	TOGGLE	F	Vch Auto Range
VCHOFFSETENABLE	TOGGLE	T	Vch Offset Enable
VCHOFFSET	QUANT	0	Vch Offset (V)
VCHFILTER	IQUANT	3	Vch Filter
ACHRANGE	IQUANT	2	Ach Range
ACHOFFSETENABLE	TOGGLE	F	Ach Offset Enable
ACHOFFSET	QUANT	0	Ach Offset (V)
ACHFILTER	IQUANT	3	Ach Filter
IERANGELOWERLIMIT	IQUANT	1	I/E Range Lower Limit
IERANGEMODE	TOGGLE	F	I/E AutoRange
IERANGE	IQUANT	8	I/E Range
POSFEEDENABLE	TOGGLE	F	Positive Feedback IR Comp
POSFEEDRESISTANCE	QUANT	0	Positive Feedback Resistance (ohm)
ACHSELECT	IQUANT	0	Ach Select
CABLEID	IQUANT	14	Cable ID
DCCALDATE	LABEL	6/26/2020	DC Calibration Date
ACCALDATE	LABEL	6/26/2020	AC Calibration Date
THERMOSELECT	IQUANT	1	Thermo Select
FRAMEWORKVERSION	QUANT	6.33	Framework Version
INSTRUMENTVERSION	LABEL	3.50	Instrument Version
ZCURVE	TABLE
	Pt	Time	Freq	Zreal	Zimag	Zsig	Zmod	Zphz	Idc	Vdc	IERange
	#	s	Hz	ohm	ohm	V	ohm	°	A	V	#
	0	1	1000078	1726.036	-1791.618	1	2487.79	-46.06808	-5.067962E-008	0.089602	8
	1	1	794390.6	2013.353	-1939.242	1	2795.398	-43.92582	-6.705797E-010	0.0891633	8
	2	1	630984.4	2326.69	-2083.393	1	3123.141	-41.84229	1.273901E-007	0.0889974	8
	3	2	501234.4	2668.876	-2223.139	1	3473.506	-39.79386	1.261584E-007	0.0888922	8
	4	2	398109.4	3044.371	-2351.669	1	3846.887	-37.68482	1.061605E-007	0.0888046	8
	5	2	316265.6	3461.716	-2460.276	1	4246.933	-35.40179	6.784799E-008	0.0887637	8
	6	3	251203.1	3902.698	-2531.623	1	4651.899	-32.97088	1.110985E-007	0.0887535	8
	7	3	199546.9	4370.134	-2559.149	1	5064.318	-30.35323	3.370589E-008	0.0887576	8
	8	3	158578.1	4835.171	-2539.126	1	5461.322	-27.70561	-2.461196E-008	0.0887375	8
	9	4	125953.1	5334.879	-2408.739	1	5853.457	-24.29955	-2.310055E-008	0.0888163	7
	10	4	100078.1	5753.171	-2300.543	1	6196.086	-21.79518	2.487449E-008	0.0886838	7
	11	4	79453.13	6121.194	-2161.788	1	6491.713	-19.45141	2.627463E-008	0.0886756	7
	12	5	63140.62	6440.48	-2008.245	1	6746.32	-17.31831	2.418295E-008	0.0886624	7
	13	5	50203.12	6714.933	-1857.485	1	6967.106	-15.46251	2.355877E-008	0.0886605	7
	14	5	39890.62	6950.199	-1716.034	1	7158.914	-13.86919	1.368276E-008	0.0887023	7
	15	5	31640.63	7159.621	-1594.618	1	7335.051	-12.55619	-2.237386E-008	0.0887049	7
	16	6	25171.88	7336.639	-1495.103	1	7487.43	-11.51835	1.877535E-008	0.0886962	7
	17	6	20015.62	7498.895	-1419.567	1	7632.077	-10.71945	-1.392913E-008	0.0886888	7
	18	6	15890.62	7644.201	-1368.306	1	7765.698	-10.14842	4.958299E-009	0.0886602	7
	19	7	12609.37	7777.725	-1343.374	1	7892.887	-9.79948	-1.405899E-008	0.088684	7
	20	7	10078.13	7901.065	-1346.621	1	8015	-9.67229	-2.651303E-008	0.0887086	7
	21	7	8015.625	8019.555	-1380.453	1	8137.5	-9.76694	-1.583798E-008	0.0887247	7
	22	8	6328.125	8146.012	-1450.62	1	8274.165	-10.09724	-2.186942E-008	0.0886979	7
	23	8	5015.625	8267.163	-1554.121	1	8411.973	-10.64662	1.066843E-010	0.088708	7
	24	8	3984.375	8396.043	-1702.168	1	8566.85	-11.46051	-3.764784E-009	0.0886652	7
	25	9	3170.956	8526.313	-1889.217	1	8733.106	-12.49346	8.177645E-009	0.0886961	7
	26	9	2527.573	8677.952	-2108.096	1	8930.337	-13.65412	-1.544625E-009	0.0887216	6
	27	9	1976.103	8840.406	-2440.82	1	9171.172	-15.43473	-2.838382E-009	0.0886655	6
	28	10	1577.524	9009.162	-2818.7	1	9439.813	-17.37336	-2.951069E-009	0.0887281	6
	29	10	1265.625	9191.108	-3270.092	1	9755.51	-19.58498	3.678692E-009	0.0886376	6
	30	10	998.264	9406.138	-3867.001	1	10170.01	-22.34828	2.417873E-009	0.0886723	6
	31	11	796.875	9630.86	-4563.25	1	10657.23	-25.35232	1.133209E-009	0.0886158	6
	32	11	627.7902	9907.86	-5468.502	1	11316.81	-28.89587	1.248673E-010	0.0886278	6
	33	11	505.5147	10201.79	-6479.059	1	12085.31	-32.41923	2.140333E-009	0.088673	6
	34	11	397.9953	10575.64	-7844.617	1	13167.47	-36.56665	2.134484E-010	0.0886987	6
	35	12	315.5048	11019.78	-9476.729	1	14534.23	-40.69469	1.892785E-010	0.0886954	6
	36	12	252.4038	11542.69	-11391.5	1	16217.27	-44.6223	1.684477E-010	0.088692	6
	37	12	198.6229	12242.56	-13904.58	1	18526.13	-48.63704	2.058828E-011	0.0886941	6
	38	13	158.3615	13079.02	-16798.45	1	21289.64	-52.0962	-5.057779E-011	0.0886976	6
	39	13	125.558	14166.95	-20393.11	1	24831.06	-55.21256	7.837545E-011	0.0886959	6
	40	13	100.4464	15494.4	-24554.85	1	29034.76	-57.74759	-6.706002E-011	0.0886925	6
	41	14	79.00281	17317.43	-29953.69	1	34599.37	-59.96607	-3.511358E-013	0.0886913	6
	42	14	63.3446	19455.01	-35902.83	1	40835.16	-61.54765	-9.159014E-012	0.0886868	6
	43	14	49.86702	22442.58	-43618.43	1	49053.41	-62.77325	2.323498E-010	0.088685	6
	44	15	39.72458	26121.65	-52379.87	1	58531.97	-63.49474	4.17522E-010	0.0886865	6
	45	15	31.6723	30854.21	-62658.17	1	69842.88	-63.78339	5.872426E-010	0.0886872	6
	46	15	24.93351	37351.17	-75335.4	1	84086.46	-63.62786	-8.474645E-010	0.0886853	6
	47	16	19.86229	45445.5	-89285.35	1	100185.7	-63.02429	-2.324974E-010	0.0886917	6
	48	16	15.83615	55663.8	-104789.5	1	118656.2	-62.02292	-1.083809E-010	0.0886761	5
	49	16	12.40079	69526.88	-123364.5	1	141607.8	-60.59487	6.400832E-010	0.0886801	5
	50	17	9.93114	85189.31	-141649.8	1	165293.4	-58.97697	-1.03416E-009	0.0886872	5
	51	17	7.944915	102976.9	-160972.1	1	191092.3	-57.39217	-1.20208E-009	0.0886884	5
	52	17	6.317385	124248.5	-181884.7	1	220272	-55.66236	5.300212E-010	0.0886715	5
	53	18	5.008013	148301.8	-204058.7	1	252256.6	-53.99181	1.346185E-010	0.0886791	5
	54	19	3.945707	174318.2	-228715.5	1	287571.9	-52.68673	-3.861316E-010	0.0886765	5
	55	20	3.158693	199947.7	-253323.7	1	322725.8	-51.71607	6.783037E-011	0.0886661	5
	56	21	2.504006	227610.2	-283304.9	1	363411.8	-51.22123	2.74371E-010	0.0886658	5
	57	22	1.998082	255002.2	-316323.4	1	406308.5	-51.12619	-4.002845E-011	0.0886301	5
	58	24	1.584686	284904.2	-358828.8	1	458179.6	-51.55101	-1.064513E-010	0.0886137	5
	59	26	1.266892	314037.1	-407850	1	514743.6	-52.40438	-3.392363E-011	0.0886417	5
	60	28	0.999041	348253.9	-470886.6	1	585674.8	-53.51446	4.506167E-012	0.0886654	5
