EXPLAIN
TAG	EISPOT
TITLE	LABEL	Potentiostatic EIS	Test &Identifier
DATE	LABEL	3/3/2020	Date
TIME	LABEL	17:04:20	Time
NOTES	NOTES	1	&Notes...
	
PSTAT	PSTAT	REF600-11020	Potentiostat
VDC	POTEN	0.00000E+000	T	DC &Voltage (V)
FREQINIT	QUANT	1.00000E+006	Initial Fre&q. (Hz)
FREQFINAL	QUANT	1.00000E+000	Final Fre&q. (Hz)
PTSPERDEC	QUANT	1.00000E+001	Points/&decade
VAC	QUANT	2.50000E+001	AC &Voltage (mV rms)
AREA	QUANT	1.60000E-004	&Area (cm^2)
CONDIT	TWOPARAM	F	1.50000E+001	0.00000E+000	Conditionin&g	Time(s)	E(V)
DELAY	TWOPARAM	F	1.00000E+002	0.00000E+000	Init. De&lay	Time(s)	Stab.(mV/s)
SPEED	SELECTOR	1	&Optimize for:
ZGUESS	QUANT	1.00000E+004	E&stimated Z (ohms)
OCVCURVE	TABLE	39
	Pt	T	Vf	Vm	Ach	Over
	#	s	V vs. Ref.	V	V	bits
	0	0.258333	1.11838E-001	1.11838E-001	5.50197E-004	...........
	1	0.516667	1.11838E-001	1.11841E-001	5.55197E-004	...........
	2	0.775	1.11838E-001	1.11812E-001	5.55130E-004	...........
	3	1.03333	1.11836E-001	1.11796E-001	5.49130E-004	...........
	4	1.29167	1.11828E-001	1.11779E-001	5.48264E-004	...........
	5	1.55	1.11815E-001	1.11769E-001	5.50197E-004	...........
	6	1.80833	1.11800E-001	1.11763E-001	5.56964E-004	...........
	7	2.06667	1.11785E-001	1.11756E-001	5.54330E-004	...........
	8	2.325	1.11773E-001	1.11742E-001	5.55130E-004	...........
	9	2.58333	1.11763E-001	1.11733E-001	5.60197E-004	...........
	10	2.84167	1.11753E-001	1.11720E-001	5.54297E-004	...........
	11	3.1	1.11744E-001	1.11709E-001	5.55097E-004	...........
	12	3.35833	1.11733E-001	1.11701E-001	5.54830E-004	...........
	13	3.61667	1.11722E-001	1.11688E-001	5.57297E-004	...........
	14	3.875	1.11711E-001	1.11681E-001	5.57530E-004	...........
	15	4.13333	1.11701E-001	1.11676E-001	5.50764E-004	...........
	16	4.39167	1.11691E-001	1.11672E-001	5.51864E-004	...........
	17	4.65	1.11683E-001	1.11662E-001	5.50197E-004	...........
	18	4.90833	1.11676E-001	1.11643E-001	5.52197E-004	...........
	19	5.16667	1.11669E-001	1.11647E-001	5.54997E-004	...........
	20	5.425	1.11660E-001	1.11633E-001	5.49564E-004	...........
	21	5.68333	1.11651E-001	1.11623E-001	5.54397E-004	...........
	22	5.94167	1.11643E-001	1.11618E-001	5.53164E-004	...........
	23	6.2	1.11634E-001	1.11608E-001	5.48430E-004	...........
	24	6.45833	1.11626E-001	1.11597E-001	5.49964E-004	...........
	25	6.71667	1.11617E-001	1.11597E-001	5.50664E-004	...........
	26	6.975	1.11609E-001	1.11588E-001	5.56097E-004	...........
	27	7.23333	1.11601E-001	1.11589E-001	5.45130E-004	...........
	28	7.49167	1.11596E-001	1.11610E-001	5.54864E-004	...........
	29	7.75	1.11594E-001	1.11588E-001	5.58464E-004	...........
	30	8.00833	1.11594E-001	1.11564E-001	5.44197E-004	...........
	31	8.26667	1.11591E-001	1.11515E-001	5.46597E-004	...........
	32	8.525	1.11583E-001	1.11733E-001	5.53297E-004	...........
	33	8.78333	1.11585E-001	1.11741E-001	5.46797E-004	...........
	34	9.04167	1.11604E-001	1.11247E-001	5.44930E-004	...........
	35	9.3	1.11606E-001	1.11428E-001	5.46830E-004	...........
	36	9.5583	1.11564E-001	1.11677E-001	5.51564E-004	...........
	37	9.8167	1.11517E-001	1.11663E-001	5.56397E-004	...........
	38	10.075	1.11515E-001	1.11404E-001	5.53330E-004	...........
EOC	QUANT	0.1115155	Open Circuit (V)
PSTATMODEL	IQUANT	4	Pstat Model
PSTATSECTION	LABEL	REF600-11020	Pstat Section
PSTATSERIALNO	LABEL	11020	Pstat Serial Number
CTRLMODE	IQUANT	1	Control Mode
IESTAB	IQUANT	0	I/E Stability
CASPEED	IQUANT	1	Control Amp Speed
CONVENTION	IQUANT	1	Current Convention
ICHRANGE	IQUANT	2	Ich Range
ICHRANGEMODE	TOGGLE	F	Ich Auto Range
ICHOFFSETENABLE	TOGGLE	T	Ich Offset Enable
ICHOFFSET	QUANT	0	Ich Offset (V)
ICHFILTER	IQUANT	3	Ich Filter
VCHRANGE	IQUANT	2	Vch Range
VCHRANGEMODE	TOGGLE	F	Vch Auto Range
VCHOFFSETENABLE	TOGGLE	T	Vch Offset Enable
VCHOFFSET	QUANT	0	Vch Offset (V)
VCHFILTER	IQUANT	3	Vch Filter
ACHRANGE	IQUANT	2	Ach Range
ACHOFFSETENABLE	TOGGLE	F	Ach Offset Enable
ACHOFFSET	QUANT	0	Ach Offset (V)
ACHFILTER	IQUANT	3	Ach Filter
IERANGELOWERLIMIT	IQUANT	1	I/E Range Lower Limit
IERANGEMODE	TOGGLE	F	I/E AutoRange
IERANGE	IQUANT	7	I/E Range
POSFEEDENABLE	TOGGLE	F	Positive Feedback IR Comp
POSFEEDRESISTANCE	QUANT	0	Positive Feedback Resistance (ohm)
ACHSELECT	IQUANT	0	Ach Select
CABLEID	IQUANT	14	Cable ID
DCCALDATE	LABEL	2/27/2020	DC Calibration Date
ACCALDATE	LABEL	2/27/2020	AC Calibration Date
THERMOSELECT	IQUANT	1	Thermo Select
FRAMEWORKVERSION	QUANT	6.33	Framework Version
INSTRUMENTVERSION	LABEL	3.50	Instrument Version
ZCURVE	TABLE
	Pt	Time	Freq	Zreal	Zimag	Zsig	Zmod	Zphz	Idc	Vdc	IERange
	#	s	Hz	ohm	ohm	V	ohm	°	A	V	#
	0	2	1000078	2082.649	-2214.701	1	3040.12	-46.76008	-2.083259E-006	0.1135402	8
	1	3	794390.6	2553.268	-2294.722	1	3432.918	-41.94728	1.268416E-006	0.1132482	8
	2	5	630984.4	3042.753	-2336.458	1	3836.324	-37.51981	-1.782028E-006	0.1134635	8
	3	6	501234.4	3499.273	-2251.388	1	4160.969	-32.75671	1.658619E-006	0.1128255	8
	4	8	398109.4	3921.853	-2096.286	1	4446.947	-28.12514	1.193785E-006	0.1127864	8
	5	9	316265.6	4288.838	-1924.237	1	4700.726	-24.16395	3.506556E-007	0.1129639	8
	6	10	251203.1	4582.829	-1744.565	1	4903.654	-20.84054	-1.284614E-006	0.1132524	8
	7	12	199546.9	4820.231	-1527.876	1	5056.583	-17.58714	-1.261159E-006	0.1132899	8
	8	13	158578.1	4993.604	-1358.176	1	5175.01	-15.21542	-1.393208E-006	0.1135569	8
	9	15	125953.1	5158.49	-1168.749	1	5289.234	-12.76587	-9.116575E-007	0.1149733	7
	10	16	100078.1	5255.003	-1049.907	1	5358.858	-11.29846	2.447474E-008	0.1129135	7
	11	17	79453.13	5363.917	-947.2087	1	5446.909	-10.01456	1.362368E-007	0.1127683	7
	12	19	63140.62	5441.517	-903.5042	1	5516.015	-9.42733	-7.870653E-008	0.1130402	7
	13	20	50203.12	5519.676	-863.5833	1	5586.824	-8.892149	9.925056E-008	0.112887	7
	14	21	39890.62	5594.582	-848.4227	1	5658.548	-8.623245	4.197089E-008	0.1130008	7
	15	23	31640.63	5670.385	-854.5535	1	5734.416	-8.570249	-1.951562E-008	0.1128928	7
	16	24	25171.88	5747.678	-878.0792	1	5814.364	-8.685982	2.750328E-008	0.1128921	7
	17	25	20015.62	5826.982	-923.5864	1	5899.723	-9.006552	-4.409711E-008	0.1130769	7
	18	27	15890.62	5912.909	-993.52	1	5995.796	-9.53806	-5.39078E-008	0.1129503	7
	19	28	12609.37	5999.912	-1089.946	1	6098.108	-10.29609	-7.759672E-008	0.1130332	7
	20	30	10078.13	6099.04	-1193.336	1	6214.687	-11.07062	-7.737496E-008	0.113031	7
	21	31	8015.625	6211.539	-1336.298	1	6353.653	-12.14108	-4.31395E-008	0.1130797	7
	22	32	6328.125	6336.644	-1512.759	1	6514.713	-13.42702	2.289574E-008	0.1128134	7
	23	34	5015.625	6476.426	-1725.529	1	6702.354	-14.91888	1.12247E-007	0.1127487	7
	24	35	3984.375	6629.833	-1977.467	1	6918.458	-16.60816	2.698505E-008	0.1128949	7
	25	37	3170.956	6801.933	-2280.188	1	7173.949	-18.53251	1.392538E-007	0.1127544	7
	26	38	2527.573	6994.171	-2633.852	1	7473.661	-20.63528	1.278266E-008	0.1130406	7
	27	39	1976.103	7234.198	-3094.35	1	7868.203	-23.15829	-5.626287E-008	0.1130453	7
	28	41	1577.524	7476.479	-3598.928	1	8297.592	-25.70461	-7.729339E-008	0.1130306	7
	29	42	1265.625	7752.757	-4184.508	1	8809.957	-28.35771	2.899001E-008	0.1128863	7
	30	43	998.264	8092.366	-4938.91	1	9480.466	-31.39643	-1.535392E-008	0.1131293	6
	31	45	796.875	8456.228	-5803.541	1	10256.16	-34.46196	-1.520617E-008	0.1131795	6
	32	46	627.7902	8898.56	-6907.085	1	11264.64	-37.81871	-7.818926E-009	0.1130673	6
	33	48	505.5147	9366.713	-8103.642	1	12385.65	-40.86483	-3.025095E-009	0.1129296	6
	34	49	397.9953	9968.96	-9712.48	1	13918.07	-44.25338	3.586585E-010	0.1130153	6
	35	50	315.5048	10671.51	-11598.56	1	15760.96	-47.38372	6.233826E-010	0.1130117	6
	36	52	252.4038	11483.2	-13776.58	1	17934.83	-50.18775	1.693889E-010	0.1130091	6
	37	53	198.6229	12544.04	-16590.09	1	20798.65	-52.90648	4.450108E-010	0.1130063	6
	38	54	158.3615	13779.96	-19781.64	1	24108.1	-55.13881	2.702752E-010	0.1130053	6
	39	56	125.558	15342.36	-23675.13	1	28211.7	-57.05526	6.179385E-010	0.1130132	6
	40	57	100.4464	17174.12	-28107.06	1	32938.69	-58.57403	1.187168E-010	0.1130124	6
	41	59	79.00281	19642.14	-33724.29	1	39027.44	-59.78206	7.082229E-010	0.1130066	6
	42	60	63.3446	22068.01	-39972.11	1	45659.24	-61.09756	8.872001E-010	0.1130067	6
	43	61	49.86702	25667.07	-47324.35	1	53836.72	-61.52615	8.497612E-010	0.1130024	6
	44	63	39.72458	29584.63	-56219.15	1	63528.29	-62.24496	3.002746E-010	0.1130091	6
	45	64	31.6723	34239.36	-66471.12	1	74771.27	-62.74695	4.23011E-010	0.1130041	6
	46	66	24.93351	40047.55	-79678.42	1	89176.55	-63.31522	5.131426E-010	0.1130028	6
	47	67	19.86229	46923.06	-94553.76	1	105556.6	-63.60673	2.899884E-010	0.1130098	5
	48	68	15.83615	55619.88	-111408.7	1	124521	-63.46972	1.858394E-010	0.1130175	5
	49	70	12.40079	67340.82	-134948.7	1	150817.5	-63.48031	3.311802E-010	0.1130154	5
	50	71	9.93114	81386.2	-157432.4	1	177224.9	-62.66285	-5.125368E-010	0.1130157	5
	51	73	7.944915	98931.9	-183974.4	1	208887.7	-61.73094	8.614069E-010	0.1130114	5
	52	74	6.317385	121030.8	-214218.3	1	246044.5	-60.53407	3.679398E-010	0.1130291	5
	53	76	5.008013	148325.1	-247613.2	1	288639.3	-59.07758	3.071504E-010	0.1130133	5
	54	79	3.945707	181324.8	-284308.8	1	337209.4	-57.47133	2.403935E-010	0.113013	5
	55	82	3.158693	216648.5	-320402.1	1	386773.9	-55.93436	1.099387E-011	0.1130188	5
	56	85	2.504006	256739.9	-360454.5	1	442541.3	-54.53898	3.366894E-010	0.1130083	5
	57	88	1.998082	297470.7	-401979.1	1	500076	-53.49799	-3.071164E-011	0.1130575	5
	58	91	1.584686	341086.4	-451255.3	1	565660.1	-52.91578	2.444327E-010	0.1130322	5
	59	95	1.266892	385379.1	-504684.8	1	634999.1	-52.63452	7.472795E-011	0.1130565	5
	60	99	0.999041	432538.1	-573246.6	1	718123.2	-52.96395	8.740052E-011	0.1129757	5
