EXPLAIN
TAG	EISPOT
TITLE	LABEL	Potentiostatic EIS	Test &Identifier
DATE	LABEL	1/21/2020	Date
TIME	LABEL	17:35:19	Time
NOTES	NOTES	6	&Notes...
	
	
	
	
	
	
PSTAT	PSTAT	REF600-11020	Potentiostat
VDC	POTEN	0.00000E+000	T	DC &Voltage (V)
FREQINIT	QUANT	1.00000E+006	Initial Fre&q. (Hz)
FREQFINAL	QUANT	1.00000E+000	Final Fre&q. (Hz)
PTSPERDEC	QUANT	1.00000E+001	Points/&decade
VAC	QUANT	2.50000E+001	AC &Voltage (mV rms)
AREA	QUANT	1.00000E-001	&Area (cm^2)
CONDIT	TWOPARAM	F	5.00000E+000	0.00000E+000	Conditionin&g	Time(s)	E(V)
DELAY	TWOPARAM	F	5.00000E+000	0.00000E+000	Init. De&lay	Time(s)	Stab.(mV/s)
SPEED	SELECTOR	0	&Optimize for:
ZGUESS	QUANT	5.00000E+002	E&stimated Z (ohms)
OCVCURVE	TABLE	39
	Pt	T	Vf	Vm	Ach	Over
	#	s	V vs. Ref.	V	V	bits
	0	0.258333	-3.53562E-002	-3.53562E-002	6.56213E-004	...........
	1	0.516667	-3.53587E-002	-3.54845E-002	6.63246E-004	...........
	2	0.775	-3.53724E-002	-3.55374E-002	6.59813E-004	...........
	3	1.03333	-3.54058E-002	-3.55307E-002	6.67479E-004	...........
	4	1.29167	-3.54521E-002	-3.55155E-002	6.58479E-004	...........
	5	1.55	-3.54925E-002	-3.55140E-002	6.62479E-004	...........
	6	1.80833	-3.55145E-002	-3.55052E-002	6.62646E-004	...........
	7	2.06667	-3.55195E-002	-3.54994E-002	6.59946E-004	...........
	8	2.325	-3.55155E-002	-3.55012E-002	6.64079E-004	...........
	9	2.58333	-3.55090E-002	-3.54960E-002	6.64646E-004	...........
	10	2.84167	-3.55028E-002	-3.54552E-002	6.63313E-004	...........
	11	3.1	-3.54942E-002	-3.54047E-002	6.68379E-004	...........
	12	3.35833	-3.54772E-002	-3.53685E-002	6.61946E-004	...........
	13	3.61667	-3.54527E-002	-3.55126E-002	6.60813E-004	...........
	14	3.875	-3.54423E-002	-3.58742E-002	6.60379E-004	...........
	15	4.13333	-3.54802E-002	-3.57034E-002	6.61679E-004	...........
	16	4.39167	-3.55669E-002	-3.56965E-002	6.58913E-004	...........
	17	4.65	-3.56511E-002	-3.55230E-002	6.59613E-004	...........
	18	4.90833	-3.56808E-002	-3.54770E-002	6.58579E-004	...........
	19	5.16667	-3.56515E-002	-3.56377E-002	6.58846E-004	...........
	20	5.425	-3.56158E-002	-3.62571E-002	6.60246E-004	...........
	21	5.68333	-3.56587E-002	-3.64732E-002	6.63846E-004	...........
	22	5.94167	-3.58241E-002	-3.63590E-002	6.55013E-004	...........
	23	6.2	-3.60531E-002	-3.63028E-002	6.55313E-004	...........
	24	6.45833	-3.62391E-002	-3.63994E-002	6.56546E-004	...........
	25	6.71667	-3.63334E-002	-3.62549E-002	6.62246E-004	...........
	26	6.975	-3.63514E-002	-3.60809E-002	6.64746E-004	...........
	27	7.23333	-3.63145E-002	-3.60208E-002	6.62813E-004	...........
	28	7.49167	-3.62417E-002	-3.62288E-002	6.59579E-004	...........
	29	7.75	-3.61889E-002	-3.70636E-002	6.63913E-004	...........
	30	8.00833	-3.62490E-002	-3.72063E-002	6.64546E-004	...........
	31	8.26667	-3.64599E-002	-3.69664E-002	6.58113E-004	...........
	32	8.525	-3.67233E-002	-3.66062E-002	6.57013E-004	...........
	33	8.78333	-3.68788E-002	-3.63803E-002	6.57913E-004	...........
	34	9.04167	-3.68526E-002	-3.63033E-002	6.62679E-004	...........
	35	9.3	-3.66975E-002	-3.62815E-002	6.61546E-004	...........
	36	9.5583	-3.65161E-002	-3.62433E-002	6.57913E-004	...........
	37	9.8167	-3.63769E-002	-3.62118E-002	6.60679E-004	...........
	38	10.075	-3.62915E-002	-3.61564E-002	6.58413E-004	...........
EOC	QUANT	-0.0362915	Open Circuit (V)
PSTATMODEL	IQUANT	4	Pstat Model
PSTATSECTION	LABEL	REF600-11020	Pstat Section
PSTATSERIALNO	LABEL	11020	Pstat Serial Number
CTRLMODE	IQUANT	1	Control Mode
IESTAB	IQUANT	0	I/E Stability
CASPEED	IQUANT	1	Control Amp Speed
CONVENTION	IQUANT	1	Current Convention
ICHRANGE	IQUANT	2	Ich Range
ICHRANGEMODE	TOGGLE	F	Ich Auto Range
ICHOFFSETENABLE	TOGGLE	T	Ich Offset Enable
ICHOFFSET	QUANT	0	Ich Offset (V)
ICHFILTER	IQUANT	3	Ich Filter
VCHRANGE	IQUANT	2	Vch Range
VCHRANGEMODE	TOGGLE	F	Vch Auto Range
VCHOFFSETENABLE	TOGGLE	T	Vch Offset Enable
VCHOFFSET	QUANT	0	Vch Offset (V)
VCHFILTER	IQUANT	3	Vch Filter
ACHRANGE	IQUANT	2	Ach Range
ACHOFFSETENABLE	TOGGLE	F	Ach Offset Enable
ACHOFFSET	QUANT	0	Ach Offset (V)
ACHFILTER	IQUANT	3	Ach Filter
IERANGELOWERLIMIT	IQUANT	1	I/E Range Lower Limit
IERANGEMODE	TOGGLE	F	I/E AutoRange
IERANGE	IQUANT	8	I/E Range
POSFEEDENABLE	TOGGLE	F	Positive Feedback IR Comp
POSFEEDRESISTANCE	QUANT	0	Positive Feedback Resistance (ohm)
ACHSELECT	IQUANT	0	Ach Select
CABLEID	IQUANT	14	Cable ID
DCCALDATE	LABEL	12/22/2019	DC Calibration Date
ACCALDATE	LABEL	12/22/2019	AC Calibration Date
THERMOSELECT	IQUANT	1	Thermo Select
FRAMEWORKVERSION	QUANT	6.33	Framework Version
INSTRUMENTVERSION	LABEL	3.50	Instrument Version
ZCURVE	TABLE
	Pt	Time	Freq	Zreal	Zimag	Zsig	Zmod	Zphz	Idc	Vdc	IERange
	#	s	Hz	ohm	ohm	V	ohm	°	A	V	#
	0	1	1000078	1646.767	-2043.588	1	2624.518	-51.13739	5.204472E-006	-0.0344325	8
	1	1	794390.6	1940.821	-2248.841	1	2970.534	-49.20476	-5.615514E-006	-0.0335732	8
	2	2	630984.4	2226.291	-2481.789	1	3334.014	-48.10627	3.431373E-006	-0.0348445	8
	3	2	501234.4	2567.302	-2721.537	1	3741.363	-46.67041	-1.205858E-007	-0.034638	8
	4	2	398109.4	2927.794	-3028.647	1	4212.443	-45.97002	-8.311556E-007	-0.0342978	8
	5	3	316265.6	3312.698	-3391.05	1	4740.589	-45.66962	3.837042E-007	-0.034723	8
	6	3	251203.1	3810.35	-3728.648	1	5331.19	-44.3791	1.509937E-006	-0.0350375	8
	7	3	199546.9	4343.116	-4119.119	1	5985.8	-43.48372	3.031559E-007	-0.0347397	8
	8	4	158578.1	4986.751	-4531.943	1	6738.412	-42.26446	-1.26142E-006	-0.0344975	8
	9	4	125953.1	5794.206	-4891.38	1	7582.771	-40.17055	4.577132E-007	-0.0358278	7
	10	4	100078.1	6575.279	-5289.885	1	8439.027	-38.81706	-4.740868E-008	-0.0345868	7
	11	5	79453.13	7486.661	-5638.045	1	9372.174	-36.98262	-4.522677E-009	-0.0347446	7
	12	5	63140.62	8473.284	-5916.39	1	10334.42	-34.9243	1.947386E-008	-0.0347771	7
	13	5	50203.12	9519.86	-6120.279	1	11317.49	-32.7368	6.215092E-008	-0.0347174	7
	14	6	39890.62	10592.15	-6231.709	1	12289.34	-30.4697	-3.430046E-009	-0.0346663	7
	15	6	31640.63	11666.1	-6234.813	1	13227.66	-28.12175	1.158682E-007	-0.0348665	7
	16	6	25171.88	12711.44	-6192.685	1	14139.67	-25.97414	1.165791E-007	-0.0348686	7
	17	7	20015.62	13715.69	-6051.725	1	14991.44	-23.80835	3.276535E-008	-0.0347418	7
	18	7	15890.62	14659.37	-5905.098	1	15804.03	-21.9406	1.55173E-009	-0.0346723	7
	19	7	12609.37	15600.34	-5641.333	1	16589.01	-19.8808	3.001159E-009	-0.0346373	6
	20	8	10078.13	16404.39	-5462.422	1	17289.94	-18.41701	-4.891558E-009	-0.0345633	6
	21	8	8015.625	17161.29	-5296.617	1	17960.06	-17.15219	2.918178E-009	-0.0346403	6
	22	8	6328.125	17901.25	-5106.893	1	18615.45	-15.92246	7.198257E-009	-0.0348561	6
	23	9	5015.625	18589.97	-4964.664	1	19241.49	-14.95253	-1.486287E-009	-0.0347848	6
	24	9	3984.375	19214.9	-4861.062	1	19820.25	-14.19704	6.081868E-009	-0.0346884	6
	25	9	3170.956	19798.92	-4788.722	1	20369.8	-13.59688	-1.367518E-009	-0.0347488	6
	26	9	2527.573	20363.92	-4776.907	1	20916.69	-13.20158	1.282304E-008	-0.0348606	6
	27	10	1976.103	20914.19	-4822.778	1	21463.05	-12.98532	-4.236635E-009	-0.0346948	6
	28	10	1577.524	21419.91	-4944.451	1	21983.18	-12.99816	6.415505E-009	-0.0348684	6
	29	10	1265.625	21897.44	-5152.261	1	22495.41	-13.24033	1.305198E-008	-0.0348587	6
	30	11	998.264	22403.21	-5490.505	1	23066.2	-13.77045	-3.787672E-009	-0.0346437	6
	31	11	796.875	22874.29	-5932.153	1	23630.99	-14.53863	3.387773E-009	-0.0346835	6
	32	11	627.7902	23404.64	-6545.237	1	24302.62	-15.62395	3.114078E-009	-0.0346893	6
	33	12	505.5147	23888.43	-7253.075	1	24965.26	-16.88949	1.520959E-008	-0.0349811	6
	34	12	397.9953	24472.55	-8271.932	1	25832.74	-18.6757	7.367677E-010	-0.0347069	6
	35	12	315.5048	25107.68	-9511.4	1	26848.88	-20.74791	1.005917E-009	-0.0347106	6
	36	13	252.4038	25780.62	-10982.31	1	28022.34	-23.07357	8.085872E-010	-0.0347117	6
	37	13	198.6229	26616.84	-12939.03	1	29595.17	-25.9254	7.181494E-010	-0.0347092	6
	38	13	158.3615	27553.13	-15204.43	1	31469.82	-28.89089	7.013522E-010	-0.0347159	6
	39	14	125.558	28723.71	-18018.3	1	33907.38	-32.09993	8.737709E-010	-0.0347131	6
	40	14	100.4464	30113.39	-21290.94	1	36879.81	-35.26128	2.975084E-010	-0.0347157	6
	41	14	79.00281	32012.75	-25442.46	1	40891.75	-38.47628	2.427037E-010	-0.0347147	6
	42	15	63.3446	33945.45	-30098.56	1	45367.57	-41.56258	6.363501E-010	-0.0347232	6
	43	15	49.86702	36884.98	-35782.67	1	51389.7	-44.13093	3.810158E-010	-0.0347246	6
	44	15	39.72458	40464.34	-42159.19	1	58435.95	-46.17514	5.234183E-010	-0.0347193	6
	45	16	31.6723	44716.21	-49408.3	1	66638.72	-47.85382	7.790591E-010	-0.0347208	6
	46	16	24.93351	50029.66	-58144.38	1	76705.52	-49.29004	-3.442744E-010	-0.0347228	6
	47	16	19.86229	56185.2	-67730.08	1	88000.8	-50.32274	-1.377955E-009	-0.0347196	6
	48	17	15.83615	63267.5	-78118.61	1	100525.1	-50.99632	-3.621761E-010	-0.0347235	5
	49	17	12.40079	72234.13	-91252.87	1	116382.4	-51.6355	7.240081E-010	-0.0347172	5
	50	17	9.93114	80907.66	-104779.1	1	132380.9	-52.32562	7.080928E-010	-0.0347153	5
	51	17	7.944915	90590.8	-120370.7	1	150651.3	-53.03495	-1.737983E-009	-0.0347202	5
	52	18	6.317385	103217.9	-138790.6	1	172964.7	-53.36198	4.038624E-010	-0.0347363	5
	53	19	5.008013	117014.7	-160840.6	1	198902.3	-53.96336	5.260382E-010	-0.0347216	5
	54	20	3.945707	133519.5	-186954.8	1	229738	-54.46631	-8.024779E-013	-0.0347295	5
	55	20	3.158693	151294.3	-216357.7	1	264008.8	-55.03574	2.928447E-010	-0.0347207	5
	56	22	2.504006	173022.9	-251577	1	305332.5	-55.48163	1.481352E-010	-0.0347217	5
	57	23	1.998082	197769.8	-291581.7	1	352324.9	-55.85231	-6.997592E-011	-0.034764	5
	58	25	1.584686	226822.1	-338338.3	1	407334.2	-56.16209	8.849065E-011	-0.0347259	5
	59	27	1.266892	261339.4	-390794.2	1	470125.9	-56.2278	1.700808E-010	-0.0346961	5
	60	29	0.999041	305128.5	-456342.6	1	548955.3	-56.23176	3.700147E-010	-0.0346882	5
