EXPLAIN
TAG	EISPOT
TITLE	LABEL	Potentiostatic EIS	Test &Identifier
DATE	LABEL	1/18/2020	Date
TIME	LABEL	21:48:00	Time
NOTES	NOTES	6	&Notes...
	
	
	
	
	
	
PSTAT	PSTAT	REF600-11020	Potentiostat
VDC	POTEN	0.00000E+000	T	DC &Voltage (V)
FREQINIT	QUANT	1.00000E+006	Initial Fre&q. (Hz)
FREQFINAL	QUANT	1.00000E+000	Final Fre&q. (Hz)
PTSPERDEC	QUANT	1.00000E+001	Points/&decade
VAC	QUANT	2.50000E+001	AC &Voltage (mV rms)
AREA	QUANT	1.00000E-001	&Area (cm^2)
CONDIT	TWOPARAM	F	5.00000E+000	0.00000E+000	Conditionin&g	Time(s)	E(V)
DELAY	TWOPARAM	F	5.00000E+000	0.00000E+000	Init. De&lay	Time(s)	Stab.(mV/s)
SPEED	SELECTOR	0	&Optimize for:
ZGUESS	QUANT	5.00000E+002	E&stimated Z (ohms)
OCVCURVE	TABLE	39
	Pt	T	Vf	Vm	Ach	Over
	#	s	V vs. Ref.	V	V	bits
	0	0.258333	4.75471E-002	4.75471E-002	6.68346E-004	...........
	1	0.516667	4.75545E-002	4.79373E-002	6.59146E-004	...........
	2	0.775	4.75942E-002	4.79849E-002	6.61013E-004	...........
	3	1.03333	4.76885E-002	4.81748E-002	6.63179E-004	...........
	4	1.29167	4.78308E-002	4.84085E-002	6.65813E-004	...........
	5	1.55	4.79977E-002	4.84842E-002	6.62946E-004	...........
	6	1.80833	4.81702E-002	4.86129E-002	6.66579E-004	...........
	7	2.06667	4.83316E-002	4.87003E-002	6.60713E-004	...........
	8	2.325	4.84710E-002	4.87785E-002	6.58646E-004	...........
	9	2.58333	4.85871E-002	4.88411E-002	6.55113E-004	...........
	10	2.84167	4.86831E-002	4.88887E-002	6.55813E-004	...........
	11	3.1	4.87624E-002	4.89428E-002	6.62013E-004	...........
	12	3.35833	4.88284E-002	4.89860E-002	6.61046E-004	...........
	13	3.61667	4.88849E-002	4.90268E-002	6.56546E-004	...........
	14	3.875	4.89349E-002	4.90646E-002	6.55246E-004	...........
	15	4.13333	4.89801E-002	4.90957E-002	6.54713E-004	...........
	16	4.39167	4.90211E-002	4.91300E-002	6.60646E-004	...........
	17	4.65	4.90586E-002	4.91575E-002	6.59779E-004	...........
	18	4.90833	4.90930E-002	4.91858E-002	6.59679E-004	...........
	19	5.16667	4.91249E-002	4.92132E-002	6.58113E-004	...........
	20	5.425	4.91548E-002	4.92398E-002	6.56013E-004	...........
	21	5.68333	4.91831E-002	4.92598E-002	6.63913E-004	...........
	22	5.94167	4.92098E-002	4.92769E-002	6.58713E-004	...........
	23	6.2	4.92341E-002	4.92898E-002	6.59879E-004	...........
	24	6.45833	4.92554E-002	4.93094E-002	6.63846E-004	...........
	25	6.71667	4.92739E-002	4.93247E-002	6.55046E-004	...........
	26	6.975	4.92909E-002	4.93399E-002	6.58779E-004	...........
	27	7.23333	4.93071E-002	4.93534E-002	6.59546E-004	...........
	28	7.49167	4.93228E-002	4.93671E-002	6.58546E-004	...........
	29	7.75	4.93379E-002	4.93859E-002	6.68379E-004	...........
	30	8.00833	4.93527E-002	4.93970E-002	6.60313E-004	...........
	31	8.26667	4.93677E-002	4.94224E-002	6.62513E-004	...........
	32	8.525	4.93833E-002	4.94277E-002	6.68146E-004	...........
	33	8.78333	4.93990E-002	4.94337E-002	6.63279E-004	...........
	34	9.04167	4.94133E-002	4.94439E-002	6.60279E-004	...........
	35	9.3	4.94249E-002	4.94483E-002	6.63346E-004	...........
	36	9.5583	4.94341E-002	4.94527E-002	6.61246E-004	...........
	37	9.8167	4.94414E-002	4.94581E-002	6.63046E-004	...........
	38	10.075	4.94475E-002	4.94660E-002	6.59379E-004	...........
EOC	QUANT	0.0494475	Open Circuit (V)
PSTATMODEL	IQUANT	4	Pstat Model
PSTATSECTION	LABEL	REF600-11020	Pstat Section
PSTATSERIALNO	LABEL	11020	Pstat Serial Number
CTRLMODE	IQUANT	1	Control Mode
IESTAB	IQUANT	0	I/E Stability
CASPEED	IQUANT	1	Control Amp Speed
CONVENTION	IQUANT	1	Current Convention
ICHRANGE	IQUANT	2	Ich Range
ICHRANGEMODE	TOGGLE	F	Ich Auto Range
ICHOFFSETENABLE	TOGGLE	T	Ich Offset Enable
ICHOFFSET	QUANT	0	Ich Offset (V)
ICHFILTER	IQUANT	3	Ich Filter
VCHRANGE	IQUANT	2	Vch Range
VCHRANGEMODE	TOGGLE	F	Vch Auto Range
VCHOFFSETENABLE	TOGGLE	T	Vch Offset Enable
VCHOFFSET	QUANT	0	Vch Offset (V)
VCHFILTER	IQUANT	3	Vch Filter
ACHRANGE	IQUANT	2	Ach Range
ACHOFFSETENABLE	TOGGLE	F	Ach Offset Enable
ACHOFFSET	QUANT	0	Ach Offset (V)
ACHFILTER	IQUANT	3	Ach Filter
IERANGELOWERLIMIT	IQUANT	1	I/E Range Lower Limit
IERANGEMODE	TOGGLE	F	I/E AutoRange
IERANGE	IQUANT	8	I/E Range
POSFEEDENABLE	TOGGLE	F	Positive Feedback IR Comp
POSFEEDRESISTANCE	QUANT	0	Positive Feedback Resistance (ohm)
ACHSELECT	IQUANT	0	Ach Select
CABLEID	IQUANT	14	Cable ID
DCCALDATE	LABEL	12/22/2019	DC Calibration Date
ACCALDATE	LABEL	12/22/2019	AC Calibration Date
THERMOSELECT	IQUANT	1	Thermo Select
FRAMEWORKVERSION	QUANT	6.33	Framework Version
INSTRUMENTVERSION	LABEL	3.50	Instrument Version
ZCURVE	TABLE
	Pt	Time	Freq	Zreal	Zimag	Zsig	Zmod	Zphz	Idc	Vdc	IERange
	#	s	Hz	ohm	ohm	V	ohm	°	A	V	#
	0	1	1000078	2094.989	-1303.892	1	2467.613	-31.89756	8.754841E-007	0.0518356	8
	1	2	794390.6	2339.288	-1229.062	1	2642.511	-27.71744	-2.779602E-006	0.0519373	8
	2	2	630984.4	2556.992	-1140.07	1	2799.637	-24.03036	2.670314E-006	0.0508625	8
	3	2	501234.4	2736.726	-1024.803	1	2922.309	-20.52908	-1.400385E-007	0.0512297	8
	4	3	398109.4	2877.787	-914.8746	1	3019.711	-17.63593	6.186525E-007	0.0510728	8
	5	3	316265.6	2989.324	-807.332	1	3096.425	-15.11341	-1.628354E-006	0.051445	8
	6	3	251203.1	3074.017	-731.893	1	3159.944	-13.39222	-1.797963E-006	0.0515082	8
	7	3	199546.9	3152.974	-645.1979	1	3218.311	-11.56487	-1.494345E-006	0.0514267	8
	8	4	158578.1	3215.787	-584.8934	1	3268.545	-10.30838	2.259653E-006	0.0507668	8
	9	4	125953.1	3271.388	-522.3493	1	3312.828	-9.071956	2.48151E-007	0.0510155	7
	10	4	100078.1	3309.985	-492.8745	1	3346.48	-8.469416	-1.67171E-008	0.051112	7
	11	5	79453.13	3350.802	-487.6634	1	3386.103	-8.28048	-3.801375E-008	0.0511646	7
	12	5	63140.62	3393.623	-494.2133	1	3429.42	-8.285736	1.179112E-009	0.0511343	7
	13	5	50203.12	3438.436	-511.5492	1	3476.28	-8.462044	-2.028787E-008	0.0511517	7
	14	6	39890.62	3485.935	-540.3987	1	3527.574	-8.811996	5.571466E-008	0.0510126	7
	15	6	31640.63	3537.407	-582.8063	1	3585.096	-9.355731	5.809783E-008	0.0510123	7
	16	6	25171.88	3593.297	-636.4916	1	3649.234	-10.04478	-1.897831E-008	0.0510967	7
	17	7	20015.62	3655.178	-704.1594	1	3722.387	-10.90428	-2.280698E-008	0.0511417	7
	18	7	15890.62	3725.45	-787.0731	1	3807.685	-11.92941	-3.859975E-008	0.0511524	7
	19	7	12609.37	3804.646	-888.3945	1	3906.991	-13.14322	-8.231568E-009	0.0511203	7
	20	8	10078.13	3890.381	-1002.196	1	4017.395	-14.44581	5.824312E-008	0.0510044	7
	21	8	8015.625	3989.311	-1141.011	1	4149.278	-15.96144	-3.844034E-008	0.0511453	7
	22	8	6328.125	4106.513	-1309.119	1	4310.132	-17.68181	-2.551514E-008	0.0511065	7
	23	9	5015.625	4235.677	-1504.12	1	4494.812	-19.55032	-3.919668E-008	0.0511575	7
	24	9	3984.375	4379.861	-1728.202	1	4708.488	-21.53316	3.371948E-008	0.0509924	7
	25	9	3170.956	4542.877	-1991.29	1	4960.138	-23.66939	-1.924707E-008	0.0510833	7
	26	10	2527.573	4725.933	-2298.28	1	5255.144	-25.93423	-2.624023E-008	0.0511016	7
	27	10	1976.103	4952.021	-2692.952	1	5636.887	-28.53773	-2.08223E-008	0.0511351	7
	28	10	1577.524	5188.678	-3119.938	1	6054.452	-31.01838	7.844105E-009	0.0511573	7
	29	10	1265.625	5450.002	-3607.896	1	6536.011	-33.50452	5.99422E-008	0.0510585	7
	30	11	998.264	5771.609	-4233.016	1	7157.506	-36.25708	-3.637217E-008	0.0511356	7
	31	11	796.875	6125.587	-4937.61	1	7867.834	-38.87101	-3.537862E-008	0.0512115	7
	32	11	627.7902	6556.113	-5819.898	1	8766.632	-41.59564	-3.664947E-008	0.0511328	7
	33	12	505.5147	7014.563	-6764.863	1	9745.12	-43.96185	-2.002262E-008	0.0510823	7
	34	12	397.9953	7593.526	-8014.568	1	11040.6	-46.54523	3.429625E-010	0.0511023	6
	35	12	315.5048	8255.274	-9456.512	1	12552.89	-48.87994	6.689982E-010	0.0511013	6
	36	13	252.4038	8997.197	-11094	1	14283.78	-50.95806	8.414051E-010	0.0510977	6
	37	13	198.6229	9926.79	-13175.75	1	16496.71	-53.00513	7.027127E-010	0.0511003	6
	38	13	158.3615	10945.71	-15505.15	1	18979.42	-54.78019	8.397542E-010	0.0510984	6
	39	14	125.558	12141.16	-18329.7	1	21986.04	-56.48045	6.997846E-010	0.0510988	6
	40	14	100.4464	13433.81	-21562.73	1	25405.09	-58.07664	3.385779E-010	0.0510965	6
	41	14	79.00281	14975.23	-25728.39	1	29769.24	-59.79842	6.706167E-010	0.0510949	6
	42	15	63.3446	16628.17	-30173.71	1	34452.12	-61.14165	3.956908E-010	0.0510946	6
	43	15	49.86702	18597.33	-36310.84	1	40796.3	-62.87983	7.955092E-010	0.0510941	6
	44	15	39.72458	20594.15	-43474.43	1	48105.57	-64.65275	6.904208E-010	0.0510948	6
	45	16	31.6723	22985.94	-52147.49	1	56988.71	-66.21274	6.310503E-010	0.0510975	6
	46	16	24.93351	26073.31	-63395.76	1	68548.09	-67.64369	3.794553E-010	0.0510957	6
	47	16	19.86229	29702.58	-76583.83	1	82142.11	-68.80151	7.492706E-010	0.0510922	6
	48	17	15.83615	33945.15	-92527.93	1	98558.1	-69.85374	4.508708E-010	0.0510908	6
	49	17	12.40079	40244.99	-113216.2	1	120156.4	-70.43121	-1.011266E-009	0.0510972	5
	50	17	9.93114	47337.5	-136941.4	1	144892.3	-70.93091	-6.818432E-010	0.0510898	5
	51	18	7.944915	56627.84	-164189.8	1	173680.8	-70.97107	6.763253E-010	0.0510928	5
	52	18	6.317385	69206.83	-199647.3	1	211302.3	-70.88136	-6.012756E-011	0.0510921	5
	53	19	5.008013	85799.87	-241425.9	1	256218.8	-70.43539	-4.211839E-011	0.0510759	5
	54	20	3.945707	107806.2	-292260.5	1	311509.8	-69.75248	2.144965E-010	0.0510856	5
	55	21	3.158693	134643	-347567.5	1	372735.7	-68.8243	1.930697E-011	0.0510972	5
	56	23	2.504006	170118.7	-414886.4	1	448409.5	-67.70456	-5.56626E-011	0.0510822	5
	57	24	1.998082	213471.8	-488084.8	1	532725.9	-66.37705	1.294423E-010	0.0511116	5
	58	26	1.584686	268421	-575589.4	1	635100.8	-64.99843	1.572036E-010	0.0511293	5
	59	27	1.266892	332737.9	-668348.3	1	746594.9	-63.53354	1.186319E-010	0.0510945	5
	60	30	0.999041	417033	-777112.1	1	881940.9	-61.78001	1.063003E-010	0.0510564	5
