EXPLAIN
TAG	EISPOT
TITLE	LABEL	Potentiostatic EIS	Test &Identifier
DATE	LABEL	2/21/2020	Date
TIME	LABEL	16:49:39	Time
NOTES	NOTES	1	&Notes...
	
PSTAT	PSTAT	REF600-11020	Potentiostat
VDC	POTEN	0.00000E+000	T	DC &Voltage (V)
FREQINIT	QUANT	1.00000E+006	Initial Fre&q. (Hz)
FREQFINAL	QUANT	1.00000E+000	Final Fre&q. (Hz)
PTSPERDEC	QUANT	1.00000E+001	Points/&decade
VAC	QUANT	2.50000E+001	AC &Voltage (mV rms)
AREA	QUANT	2.08200E-005	&Area (cm^2)
CONDIT	TWOPARAM	F	1.50000E+001	0.00000E+000	Conditionin&g	Time(s)	E(V)
DELAY	TWOPARAM	F	1.00000E+002	0.00000E+000	Init. De&lay	Time(s)	Stab.(mV/s)
SPEED	SELECTOR	1	&Optimize for:
ZGUESS	QUANT	2.00000E+003	E&stimated Z (ohms)
OCVCURVE	TABLE	39
	Pt	T	Vf	Vm	Ach	Over
	#	s	V vs. Ref.	V	V	bits
	0	0.258333	-3.31966E-003	-3.31966E-003	6.27703E-004	...........
	1	0.516667	-3.31879E-003	-3.27406E-003	6.27103E-004	...........
	2	0.775	-3.31348E-003	-3.23313E-003	6.29337E-004	...........
	3	1.03333	-3.29858E-003	-3.19185E-003	6.37570E-004	...........
	4	1.29167	-3.27295E-003	-3.20013E-003	6.33470E-004	...........
	5	1.55	-3.24334E-003	-3.21258E-003	6.33103E-004	...........
	6	1.80833	-3.21934E-003	-3.16601E-003	6.36437E-004	...........
	7	2.06667	-3.20283E-003	-3.12834E-003	6.31637E-004	...........
	8	2.325	-3.18654E-003	-3.10228E-003	6.31903E-004	...........
	9	2.58333	-3.16642E-003	-3.19411E-003	6.34303E-004	...........
	10	2.84167	-3.15276E-003	-3.28924E-003	6.30370E-004	...........
	11	3.1	-3.16137E-003	-3.24770E-003	6.33103E-004	...........
	12	3.35833	-3.19007E-003	-3.16622E-003	6.37070E-004	...........
	13	3.61667	-3.21439E-003	-3.14989E-003	6.35437E-004	...........
	14	3.875	-3.21421E-003	-3.13313E-003	6.40203E-004	...........
	15	4.13333	-3.19138E-003	-3.05745E-003	6.35070E-004	...........
	16	4.39167	-3.15727E-003	-3.04811E-003	6.41303E-004	...........
	17	4.65	-3.11972E-003	-3.03514E-003	6.42036E-004	...........
	18	4.90833	-3.08464E-003	-3.01507E-003	6.35737E-004	...........
	19	5.16667	-3.05598E-003	-2.98235E-003	6.31303E-004	...........
	20	5.425	-3.03210E-003	-2.94248E-003	6.41636E-004	...........
	21	5.68333	-3.00792E-003	-2.91867E-003	6.27803E-004	...........
	22	5.94167	-2.98117E-003	-2.92229E-003	6.32337E-004	...........
	23	6.2	-2.95502E-003	-2.90474E-003	6.33037E-004	...........
	24	6.45833	-2.93398E-003	-2.90152E-003	6.37203E-004	...........
	25	6.71667	-2.91865E-003	-2.86574E-003	6.36370E-004	...........
	26	6.975	-2.90680E-003	-2.92359E-003	6.32003E-004	...........
	27	7.23333	-2.89890E-003	-2.90422E-003	6.32803E-004	...........
	28	7.49167	-2.89694E-003	-2.88465E-003	6.31637E-004	...........
	29	7.75	-2.89404E-003	-2.67519E-003	6.34637E-004	...........
	30	8.00833	-2.87326E-003	-2.73704E-003	6.37303E-004	...........
	31	8.26667	-2.83012E-003	-2.79240E-003	6.32703E-004	...........
	32	8.525	-2.78633E-003	-2.77206E-003	6.27937E-004	...........
	33	8.78333	-2.76261E-003	-2.68842E-003	6.28370E-004	...........
	34	9.04167	-2.75404E-003	-2.77283E-003	6.31403E-004	...........
	35	9.3	-2.74607E-003	-2.62595E-003	6.40136E-004	...........
	36	9.5583	-2.73096E-003	-2.64540E-003	6.31570E-004	...........
	37	9.8167	-2.70689E-003	-2.65754E-003	6.36270E-004	...........
	38	10.075	-2.68172E-003	-2.72755E-003	6.36237E-004	...........
EOC	QUANT	-0.0026817	Open Circuit (V)
PSTATMODEL	IQUANT	4	Pstat Model
PSTATSECTION	LABEL	REF600-11020	Pstat Section
PSTATSERIALNO	LABEL	11020	Pstat Serial Number
CTRLMODE	IQUANT	1	Control Mode
IESTAB	IQUANT	0	I/E Stability
CASPEED	IQUANT	1	Control Amp Speed
CONVENTION	IQUANT	1	Current Convention
ICHRANGE	IQUANT	2	Ich Range
ICHRANGEMODE	TOGGLE	F	Ich Auto Range
ICHOFFSETENABLE	TOGGLE	T	Ich Offset Enable
ICHOFFSET	QUANT	0	Ich Offset (V)
ICHFILTER	IQUANT	3	Ich Filter
VCHRANGE	IQUANT	2	Vch Range
VCHRANGEMODE	TOGGLE	F	Vch Auto Range
VCHOFFSETENABLE	TOGGLE	T	Vch Offset Enable
VCHOFFSET	QUANT	0	Vch Offset (V)
VCHFILTER	IQUANT	3	Vch Filter
ACHRANGE	IQUANT	2	Ach Range
ACHOFFSETENABLE	TOGGLE	F	Ach Offset Enable
ACHOFFSET	QUANT	0	Ach Offset (V)
ACHFILTER	IQUANT	3	Ach Filter
IERANGELOWERLIMIT	IQUANT	1	I/E Range Lower Limit
IERANGEMODE	TOGGLE	F	I/E AutoRange
IERANGE	IQUANT	6	I/E Range
POSFEEDENABLE	TOGGLE	F	Positive Feedback IR Comp
POSFEEDRESISTANCE	QUANT	0	Positive Feedback Resistance (ohm)
ACHSELECT	IQUANT	0	Ach Select
CABLEID	IQUANT	14	Cable ID
DCCALDATE	LABEL	1/27/2020	DC Calibration Date
ACCALDATE	LABEL	1/27/2020	AC Calibration Date
THERMOSELECT	IQUANT	1	Thermo Select
FRAMEWORKVERSION	QUANT	6.33	Framework Version
INSTRUMENTVERSION	LABEL	3.50	Instrument Version
ZCURVE	TABLE
	Pt	Time	Freq	Zreal	Zimag	Zsig	Zmod	Zphz	Idc	Vdc	IERange
	#	s	Hz	ohm	ohm	V	ohm	°	A	V	#
	0	1	1000078	1625.259	-2347.731	1	2855.4	-55.30638	1.166574E-006	-0.0005888	8
	1	3	794390.6	2039.966	-2609.69	1	3312.393	-51.98565	-1.541017E-006	-0.0006112	8
	2	4	630984.4	2494.687	-2854.743	1	3791.177	-48.85061	-6.932365E-007	-0.0007939	8
	3	5	501234.4	3035.921	-3054.27	1	4306.435	-45.17263	1.16831E-006	-0.0013247	8
	4	7	398109.4	3605.616	-3178.312	1	4806.468	-41.39584	-1.312496E-006	-0.0009399	8
	5	8	316265.6	4195.137	-3247.346	1	5305.132	-37.74252	-1.092438E-006	-0.0009731	8
	6	9	251203.1	4805.9	-3247.8	1	5800.42	-34.0506	-4.999921E-007	-0.0010957	8
	7	11	199546.9	5386.063	-3194.014	1	6261.9	-30.66856	1.302029E-006	-0.0014011	8
	8	12	158578.1	5940.844	-3116.776	1	6708.794	-27.68309	6.618136E-007	-0.0013204	8
	9	14	125953.1	6489.288	-2951.446	1	7128.948	-24.4569	9.527998E-008	-0.0010729	7
	10	15	100078.1	6963.55	-2768.533	1	7493.718	-21.68153	-1.065746E-008	-0.001215	7
	11	17	79453.13	7385.887	-2577.896	1	7822.843	-19.24052	3.689172E-009	-0.0012219	7
	12	18	63140.62	7746.237	-2383.014	1	8104.501	-17.09974	-2.237266E-008	-0.0011877	7
	13	19	50203.12	8059.986	-2192.417	1	8352.848	-15.21699	4.264561E-009	-0.0012237	7
	14	21	39890.62	8327.214	-2023.443	1	8569.528	-13.65769	6.374361E-008	-0.0013141	7
	15	22	31640.63	8554.696	-1880.897	1	8759.03	-12.40016	3.483354E-009	-0.0011973	7
	16	23	25171.88	8749.155	-1767.734	1	8925.951	-11.42262	5.214608E-008	-0.001325	7
	17	25	20015.62	8920.235	-1692.173	1	9079.32	-10.7414	-1.828709E-008	-0.0012004	7
	18	26	15890.62	9081.619	-1652.233	1	9230.692	-10.31113	2.993291E-008	-0.0012346	7
	19	28	12609.37	9236.504	-1623.065	1	9378.024	-9.96643	-4.134184E-009	-0.0012181	6
	20	29	10078.13	9369.276	-1671.071	1	9517.13	-10.11274	2.706989E-009	-0.0012288	6
	21	30	8015.625	9501.75	-1765.843	1	9664.44	-10.52797	-1.445103E-009	-0.0012025	6
	22	32	6328.125	9641.87	-1912.884	1	9829.79	-11.2214	-1.632065E-010	-0.0012665	6
	23	33	5015.625	9790.72	-2116.716	1	10016.92	-12.19937	5.61219E-009	-0.0012978	6
	24	34	3984.375	9950.25	-2378.526	1	10230.58	-13.44382	-1.269611E-009	-0.0012206	6
	25	36	3170.956	10121.29	-2712.476	1	10478.45	-15.00257	3.940746E-009	-0.0012629	6
	26	37	2527.573	10315.44	-3124.909	1	10778.38	-16.8534	-1.310705E-009	-0.0012739	6
	27	38	1976.103	10551.17	-3680.043	1	11174.52	-19.22778	-1.579797E-009	-0.0012251	6
	28	40	1577.524	10800.8	-4300.729	1	11625.55	-21.71177	2.697794E-009	-0.0012489	6
	29	41	1265.625	11086.14	-5045.268	1	12180.2	-24.47014	-3.620349E-009	-0.0011991	6
	30	43	998.264	11442.06	-6010.439	1	12924.64	-27.71264	-2.186202E-010	-0.0012863	6
	31	44	796.875	11839.64	-7119.245	1	13815.23	-31.01874	5.220812E-009	-0.0013087	6
	32	45	627.7902	12341.91	-8544.11	1	15010.81	-34.69425	7.887298E-009	-0.0013988	6
	33	47	505.5147	12874.8	-10101.07	1	16364.35	-38.11636	3.485135E-009	-0.0012678	6
	34	48	397.9953	13570.94	-12176.94	1	18233.16	-41.90102	6.314354E-010	-0.0012474	6
	35	49	315.5048	14392.77	-14626.19	1	20520.17	-45.46087	8.716757E-010	-0.0012479	6
	36	51	252.4038	15345.38	-17463.25	1	23247.49	-48.69345	1.190227E-009	-0.001249	6
	37	52	198.6229	16600.76	-21151.34	1	26888	-51.87317	8.741746E-010	-0.0012475	6
	38	54	158.3615	18074.1	-25364.4	1	31145.24	-54.52719	1.049192E-009	-0.001249	6
	39	55	125.558	19953.65	-30547.15	1	36486.66	-56.8471	8.49864E-010	-0.0012514	6
	40	56	100.4464	22232.24	-36475.25	1	42716.7	-58.63704	1.345663E-009	-0.0012512	6
	41	58	79.00281	25232.57	-44094.03	1	50803.21	-60.21988	4.230767E-010	-0.0012539	6
	42	59	63.3446	28705.21	-52079.21	1	59466.24	-61.13717	6.378941E-010	-0.0012495	6
	43	61	49.86702	34131.17	-63277.27	1	71895.41	-61.65799	9.312519E-010	-0.0012546	6
	44	62	39.72458	39758.56	-75108.6	1	84982.62	-62.1056	3.209013E-010	-0.0012527	6
	45	63	31.6723	47218.22	-88790.16	1	100564.7	-61.99615	4.324504E-010	-0.0012558	6
	46	65	24.93351	56882.62	-105479.4	1	119839.6	-61.66303	-2.036624E-010	-0.0012542	5
	47	66	19.86229	68479.2	-123756	1	141438.8	-61.04247	-3.96684E-010	-0.0012552	5
	48	67	15.83615	81871.02	-144483.8	1	166067.5	-60.46216	9.595776E-010	-0.0012556	5
	49	69	12.40079	101782.7	-168618.3	1	196956.5	-58.88363	-5.752924E-011	-0.0012603	5
	50	70	9.93114	122822.4	-192263.6	1	228146.1	-57.42862	7.04896E-010	-0.0012625	5
	51	72	7.944915	147364.3	-218561.7	1	263601	-56.01036	-3.851016E-010	-0.0012601	5
	52	74	6.317385	175391.6	-246884.6	1	302843.6	-54.60927	4.566339E-010	-0.0012673	5
	53	76	5.008013	207990.4	-277967.7	1	347168.6	-53.19418	3.029066E-010	-0.0012444	5
	54	78	3.945707	244800	-311575	1	396239.8	-51.8438	-1.4916E-010	-0.0012599	5
	55	81	3.158693	282034.4	-346042.7	1	446417.9	-50.81901	2.638945E-010	-0.0012345	5
	56	84	2.504006	323716	-386130	1	503873.4	-50.02487	-2.561504E-011	-0.0012608	5
	57	87	1.998082	366529.3	-430045.6	1	565051.3	-49.55894	-1.462077E-010	-0.0012297	5
	58	90	1.584686	415299.9	-483120.6	1	637086.7	-49.317	2.377799E-010	-0.0012106	5
	59	94	1.266892	464710.1	-540994.5	1	713183.4	-49.33768	-4.205614E-011	-0.0012198	5
	60	98	0.999041	522826.4	-614963.6	1	807172.7	-49.62966	2.458585E-010	-0.0012851	5
