EXPLAIN
TAG	EISPOT
TITLE	LABEL	Potentiostatic EIS	Test &Identifier
DATE	LABEL	6/19/2020	Date
TIME	LABEL	17:09:40	Time
NOTES	NOTES	1	&Notes...
	
PSTAT	PSTAT	REF600-10037	Potentiostat
VDC	POTEN	0.00000E+000	T	DC &Voltage (V)
FREQINIT	QUANT	1.00000E+006	Initial Fre&q. (Hz)
FREQFINAL	QUANT	1.00000E+000	Final Fre&q. (Hz)
PTSPERDEC	QUANT	1.00000E+001	Points/&decade
VAC	QUANT	1.00000E+002	AC &Voltage (mV rms)
AREA	QUANT	2.50000E-001	&Area (cm^2)
CONDIT	TWOPARAM	F	5.00000E+000	0.00000E+000	Conditionin&g	Time(s)	E(V)
DELAY	TWOPARAM	F	5.00000E+000	0.00000E+000	Init. De&lay	Time(s)	Stab.(mV/s)
SPEED	SELECTOR	0	&Optimize for:
ZGUESS	QUANT	1.00000E+003	E&stimated Z (ohms)
OCVCURVE	TABLE	39
	Pt	T	Vf	Vm	Ach	Over
	#	s	V vs. Ref.	V	V	bits
	0	0.258333	4.75385E-002	4.75385E-002	5.17454E-004	...........
	1	0.516667	4.75392E-002	4.75797E-002	5.23321E-004	...........
	2	0.775	4.75438E-002	4.76018E-002	5.23288E-004	...........
	3	1.03333	4.75559E-002	4.76471E-002	5.27687E-004	...........
	4	1.29167	4.75772E-002	4.76713E-002	5.28254E-004	...........
	5	1.55	4.76055E-002	4.77018E-002	5.24487E-004	...........
	6	1.80833	4.76372E-002	4.77400E-002	5.25221E-004	...........
	7	2.06667	4.76695E-002	4.77633E-002	5.24154E-004	...........
	8	2.325	4.77015E-002	4.78009E-002	5.25421E-004	...........
	9	2.58333	4.77332E-002	4.78280E-002	5.20287E-004	...........
	10	2.84167	4.77644E-002	4.78482E-002	5.21854E-004	...........
	11	3.1	4.77947E-002	4.78960E-002	5.19621E-004	...........
	12	3.35833	4.78245E-002	4.79189E-002	5.19621E-004	...........
	13	3.61667	4.78550E-002	4.79434E-002	5.16954E-004	...........
	14	3.875	4.78856E-002	4.79761E-002	5.18954E-004	...........
	15	4.13333	4.79152E-002	4.80000E-002	5.22421E-004	...........
	16	4.39167	4.79439E-002	4.80351E-002	5.25587E-004	...........
	17	4.65	4.79724E-002	4.80638E-002	5.17288E-004	...........
	18	4.90833	4.80013E-002	4.80853E-002	5.17854E-004	...........
	19	5.16667	4.80302E-002	4.81161E-002	5.20687E-004	...........
	20	5.425	4.80584E-002	4.81396E-002	5.19254E-004	...........
	21	5.68333	4.80856E-002	4.81616E-002	5.18454E-004	...........
	22	5.94167	4.81118E-002	4.81969E-002	5.23654E-004	...........
	23	6.2	4.81378E-002	4.82216E-002	5.24621E-004	...........
	24	6.45833	4.81643E-002	4.82436E-002	5.24687E-004	...........
	25	6.71667	4.81912E-002	4.82710E-002	5.12788E-004	...........
	26	6.975	4.82176E-002	4.82982E-002	5.15588E-004	...........
	27	7.23333	4.82434E-002	4.83159E-002	5.20154E-004	...........
	28	7.49167	4.82685E-002	4.83392E-002	5.17754E-004	...........
	29	7.75	4.82928E-002	4.83750E-002	5.25654E-004	...........
	30	8.00833	4.83170E-002	4.83969E-002	5.24021E-004	...........
	31	8.26667	4.83422E-002	4.84146E-002	5.22021E-004	...........
	32	8.525	4.83677E-002	4.84452E-002	5.26421E-004	...........
	33	8.78333	4.83926E-002	4.84664E-002	5.20921E-004	...........
	34	9.04167	4.84167E-002	4.84823E-002	5.24021E-004	...........
	35	9.3	4.84401E-002	4.85112E-002	5.26954E-004	...........
	36	9.5583	4.84628E-002	4.85366E-002	5.20387E-004	...........
	37	9.8167	4.84854E-002	4.85501E-002	5.19654E-004	...........
	38	10.075	4.85080E-002	4.85676E-002	5.24521E-004	...........
EOC	QUANT	0.048508	Open Circuit (V)
PSTATMODEL	IQUANT	4	Pstat Model
PSTATSECTION	LABEL	REF600-10037	Pstat Section
PSTATSERIALNO	LABEL	10037	Pstat Serial Number
CTRLMODE	IQUANT	1	Control Mode
IESTAB	IQUANT	0	I/E Stability
CASPEED	IQUANT	1	Control Amp Speed
CONVENTION	IQUANT	1	Current Convention
ICHRANGE	IQUANT	2	Ich Range
ICHRANGEMODE	TOGGLE	F	Ich Auto Range
ICHOFFSETENABLE	TOGGLE	T	Ich Offset Enable
ICHOFFSET	QUANT	0	Ich Offset (V)
ICHFILTER	IQUANT	3	Ich Filter
VCHRANGE	IQUANT	2	Vch Range
VCHRANGEMODE	TOGGLE	F	Vch Auto Range
VCHOFFSETENABLE	TOGGLE	T	Vch Offset Enable
VCHOFFSET	QUANT	0	Vch Offset (V)
VCHFILTER	IQUANT	3	Vch Filter
ACHRANGE	IQUANT	2	Ach Range
ACHOFFSETENABLE	TOGGLE	F	Ach Offset Enable
ACHOFFSET	QUANT	0	Ach Offset (V)
ACHFILTER	IQUANT	3	Ach Filter
IERANGELOWERLIMIT	IQUANT	1	I/E Range Lower Limit
IERANGEMODE	TOGGLE	F	I/E AutoRange
IERANGE	IQUANT	7	I/E Range
POSFEEDENABLE	TOGGLE	F	Positive Feedback IR Comp
POSFEEDRESISTANCE	QUANT	0	Positive Feedback Resistance (ohm)
ACHSELECT	IQUANT	0	Ach Select
CABLEID	IQUANT	14	Cable ID
DCCALDATE	LABEL	6/8/2020	DC Calibration Date
ACCALDATE	LABEL	6/8/2020	AC Calibration Date
THERMOSELECT	IQUANT	1	Thermo Select
FRAMEWORKVERSION	QUANT	6.33	Framework Version
INSTRUMENTVERSION	LABEL	3.50	Instrument Version
ZCURVE	TABLE
	Pt	Time	Freq	Zreal	Zimag	Zsig	Zmod	Zphz	Idc	Vdc	IERange
	#	s	Hz	ohm	ohm	V	ohm	°	A	V	#
	0	2	1000078	1507.828	-2102.964	1	2587.664	-54.35942	5.360735E-008	0.0574657	8
	1	2	794390.6	1780.422	-2390.292	1	2980.503	-53.31921	8.663398E-008	0.0572151	8
	2	3	630984.4	2084.182	-2704.123	1	3414.103	-52.37704	9.078159E-008	0.0570569	8
	3	3	501234.4	2428.593	-3052.179	1	3900.495	-51.49102	6.104357E-008	0.0569366	8
	4	3	398109.4	2819.267	-3446.527	1	4452.731	-50.71676	6.005072E-008	0.0569062	8
	5	4	316265.6	3286.736	-3886.947	1	5090.284	-49.78271	1.000012E-007	0.0568613	8
	6	4	251203.1	3825.089	-4378.775	1	5814.205	-48.86109	7.541473E-008	0.0569176	8
	7	4	199546.9	4497.629	-4896.833	1	6648.883	-47.43324	5.299528E-008	0.0569963	8
	8	4	158578.1	5290.134	-5445.715	1	7592.189	-45.83025	9.697288E-008	0.0569535	8
	9	5	125953.1	6430.771	-5822.592	1	8675.102	-42.15854	7.540455E-009	0.0569771	7
	10	5	100078.1	7499.344	-6282.314	1	9783.03	-39.95342	1.355021E-008	0.0569726	7
	11	5	79453.13	8696.427	-6612.207	1	10924.7	-37.24704	7.250111E-010	0.0569406	7
	12	6	63140.62	9962.79	-6656.658	1	11981.99	-33.74895	-1.078373E-009	0.0569147	7
	13	6	50203.12	11244.4	-6770.748	1	13125.53	-31.05399	1.168426E-008	0.0569169	7
	14	6	39890.62	12517.82	-6623.691	1	14162.24	-27.88515	9.838719E-009	0.0569114	7
	15	7	31640.63	13707.36	-6291.543	1	15082.28	-24.65466	-2.167636E-009	0.0568978	7
	16	7	25171.88	14775.03	-5880.755	1	15902.35	-21.70354	1.784459E-009	0.0568978	7
	17	7	20015.62	15699.84	-5381.412	1	16596.52	-18.92011	-1.495698E-009	0.0568954	7
	18	8	15890.62	16281.84	-4703.587	1	16947.63	-16.11324	1.250621E-008	0.0568939	7
	19	8	12609.37	17109.13	-4316.886	1	17645.34	-14.161	4.045515E-010	0.0569017	7
	20	8	10078.13	17616.87	-3860.912	1	18034.98	-12.3615	-4.292965E-009	0.0568956	7
	21	9	8015.625	18027.89	-3452.426	1	18355.49	-10.84116	-3.775714E-009	0.0568992	7
	22	9	6328.125	18323.24	-3107.83	1	18584.93	-9.6264	-3.163151E-009	0.0568938	7
	23	9	5015.625	18519.19	-2850.001	1	18737.21	-8.748866	1.234365E-008	0.0569049	7
	24	10	3984.375	18724.66	-2718.979	1	18921.04	-8.262086	8.971318E-009	0.0568991	7
	25	10	3170.956	18912.41	-2674.743	1	19100.62	-8.049837	1.284371E-008	0.0569064	7
	26	10	2527.573	19099.65	-2730.685	1	19293.87	-8.136463	1.302811E-008	0.056901	7
	27	11	1976.103	18912.03	-2875.007	1	19129.31	-8.643922	1.375015E-008	0.0568874	7
	28	11	1577.524	19385.23	-3177.761	1	19643.97	-9.309522	4.117507E-009	0.0568957	7
	29	11	1265.625	19571.24	-3577.113	1	19895.45	-10.35785	4.664458E-009	0.0568988	7
	30	11	998.264	19644.27	-4140.615	1	20075.9	-11.90256	1.266641E-008	0.0568964	7
	31	12	796.875	19945.04	-4839.705	1	20523.83	-13.63932	1.037927E-008	0.0569115	7
	32	12	627.7902	20343.99	-5793.92	1	21152.96	-15.89683	-1.059457E-009	0.0568926	7
	33	12	505.5147	20700.5	-6886.362	1	21815.88	-18.40055	4.133093E-009	0.0568944	7
	34	13	397.9953	21137.45	-8313.917	1	22713.72	-21.47103	5.075317E-009	0.0569166	7
	35	13	315.5048	21668.6	-10048.93	1	23885.34	-24.87977	5.518774E-009	0.056916	7
	36	13	252.4038	22104.55	-12043.36	1	25172.47	-28.58315	5.550744E-008	0.0569036	8
	37	14	198.6229	23160.23	-14719.54	1	27441.96	-32.43809	5.099131E-009	0.0569135	7
	38	14	158.3615	24168.71	-17739.28	1	29980.14	-36.27782	5.620694E-009	0.0569156	7
	39	14	125.558	25487.61	-21457.73	1	33317.45	-40.09364	6.555676E-009	0.0569169	7
	40	15	100.4464	27034.99	-25745.98	1	37332.91	-43.60101	5.707773E-009	0.056919	7
	41	15	79.00281	29098.68	-31282.77	1	42724.06	-47.07157	6.577653E-010	0.0569111	6
	42	15	63.3446	31504.5	-37392.04	1	48894.77	-49.88433	2.865028E-010	0.0569177	6
	43	16	49.86702	34870.84	-45253.99	1	57130.55	-52.38365	2.320553E-009	0.0569145	6
	44	16	39.72458	39088.83	-54096.84	1	66741.33	-54.1492	1.696454E-009	0.0569195	6
	45	16	31.6723	44226.59	-64022.63	1	77813.16	-55.36343	2.082184E-009	0.0569021	6
	46	17	24.93351	51617.18	-76835.49	1	92563.63	-56.10726	3.395944E-009	0.0569136	6
	47	17	19.86229	60717.94	-90626.43	1	109086.3	-56.17868	-8.705412E-009	0.0483441	6
	48	18	15.83615	71645.91	-105346.4	1	127400.9	-55.78045	-7.213035E-009	0.0483376	6
	49	18	12.40079	85879.68	-122565.6	1	149658.4	-54.98171	-6.044927E-009	0.0483407	6
	50	18	9.93114	101391.6	-139151.1	1	172172.2	-53.92128	-4.873297E-009	0.0483434	6
	51	19	7.944915	118810.8	-156742.5	1	196683	-52.83788	-4.414726E-009	0.0483424	6
	52	19	6.317385	138352.9	-175548.2	1	223514.4	-51.75769	-2.228496E-009	0.048344	6
	53	20	5.008013	159558.7	-196399.4	1	253044.8	-50.90891	-1.52258E-009	0.0483392	6
	54	21	3.945707	182425	-220405.4	1	286107.3	-50.38616	-9.677854E-010	0.0483435	6
	55	22	3.158693	204362.1	-246262.9	1	320014.6	-50.3123	-7.406399E-010	0.0483461	6
	56	23	2.504006	228705	-278238.9	1	360170.6	-50.58071	-4.566989E-010	0.0483334	6
	57	25	1.998082	252443.4	-315237.8	1	403859.6	-51.31215	-6.078208E-010	0.0483369	5
	58	27	1.584686	279442.7	-362390.5	1	457618.9	-52.36385	-5.215736E-010	0.0483411	5
	59	30	1.266892	308023.6	-417956.6	1	519197.7	-53.61071	-4.071098E-010	0.048342	5
	60	33	0.999041	342368.6	-490253.3	1	597967	-55.07146	-4.569573E-010	0.0483386	5
