EXPLAIN
TAG	EISPOT
TITLE	LABEL	Potentiostatic EIS	Test &Identifier
DATE	LABEL	2/13/2020	Date
TIME	LABEL	14:10:17	Time
NOTES	NOTES	1	&Notes...
	
PSTAT	PSTAT	REF600-11020	Potentiostat
VDC	POTEN	0.00000E+000	T	DC &Voltage (V)
FREQINIT	QUANT	1.00000E+006	Initial Fre&q. (Hz)
FREQFINAL	QUANT	1.00000E+000	Final Fre&q. (Hz)
PTSPERDEC	QUANT	1.00000E+001	Points/&decade
VAC	QUANT	2.50000E+001	AC &Voltage (mV rms)
AREA	QUANT	5.00000E-004	&Area (cm^2)
CONDIT	TWOPARAM	F	1.50000E+001	0.00000E+000	Conditionin&g	Time(s)	E(V)
DELAY	TWOPARAM	F	1.00000E+002	0.00000E+000	Init. De&lay	Time(s)	Stab.(mV/s)
SPEED	SELECTOR	0	&Optimize for:
ZGUESS	QUANT	1.00000E+003	E&stimated Z (ohms)
OCVCURVE	TABLE	39
	Pt	T	Vf	Vm	Ach	Over
	#	s	V vs. Ref.	V	V	bits
	0	0.258333	2.79343E-002	2.79343E-002	5.64404E-004	...........
	1	0.516667	2.79356E-002	2.80058E-002	5.66704E-004	...........
	2	0.775	2.79438E-002	2.80623E-002	5.67904E-004	...........
	3	1.03333	2.79661E-002	2.81127E-002	5.67138E-004	...........
	4	1.29167	2.80037E-002	2.81271E-002	5.66071E-004	...........
	5	1.55	2.80489E-002	2.81741E-002	5.69438E-004	...........
	6	1.80833	2.80928E-002	2.82127E-002	5.67838E-004	...........
	7	2.06667	2.81325E-002	2.82248E-002	5.72604E-004	...........
	8	2.325	2.81680E-002	2.82486E-002	5.68638E-004	...........
	9	2.58333	2.81986E-002	2.82664E-002	5.67571E-004	...........
	10	2.84167	2.82239E-002	2.82812E-002	5.67638E-004	...........
	11	3.1	2.82451E-002	2.82922E-002	5.66904E-004	...........
	12	3.35833	2.82629E-002	2.83032E-002	5.69404E-004	...........
	13	3.61667	2.82780E-002	2.83159E-002	5.71538E-004	...........
	14	3.875	2.82909E-002	2.83195E-002	5.68638E-004	...........
	15	4.13333	2.83021E-002	2.83288E-002	5.73538E-004	...........
	16	4.39167	2.83120E-002	2.83458E-002	5.68171E-004	...........
	17	4.65	2.83212E-002	2.83427E-002	5.66771E-004	...........
	18	4.90833	2.83301E-002	2.83503E-002	5.66004E-004	...........
	19	5.16667	2.83379E-002	2.83516E-002	5.61971E-004	...........
	20	5.425	2.83439E-002	2.83534E-002	5.64804E-004	...........
	21	5.68333	2.83482E-002	2.83576E-002	5.68038E-004	...........
	22	5.94167	2.83514E-002	2.83593E-002	5.65604E-004	...........
	23	6.2	2.83540E-002	2.83567E-002	5.64771E-004	...........
	24	6.45833	2.83562E-002	2.83661E-002	5.68071E-004	...........
	25	6.71667	2.83583E-002	2.83663E-002	5.68704E-004	...........
	26	6.975	2.83606E-002	2.83678E-002	5.66104E-004	...........
	27	7.23333	2.83628E-002	2.83514E-002	5.71138E-004	...........
	28	7.49167	2.83628E-002	2.83146E-002	5.68371E-004	...........
	29	7.75	2.83570E-002	2.83134E-002	5.71904E-004	...........
	30	8.00833	2.83457E-002	2.83562E-002	5.70804E-004	...........
	31	8.26667	2.83362E-002	2.83615E-002	5.70338E-004	...........
	32	8.525	2.83355E-002	2.83576E-002	5.66771E-004	...........
	33	8.78333	2.83428E-002	2.83630E-002	5.71338E-004	...........
	34	9.04167	2.83516E-002	2.83630E-002	5.70271E-004	...........
	35	9.3	2.83578E-002	2.83607E-002	5.70671E-004	...........
	36	9.5583	2.83610E-002	2.83593E-002	5.69004E-004	...........
	37	9.8167	2.83617E-002	2.83552E-002	5.68638E-004	...........
	38	10.075	2.83610E-002	2.83662E-002	5.69738E-004	...........
EOC	QUANT	0.028361	Open Circuit (V)
PSTATMODEL	IQUANT	4	Pstat Model
PSTATSECTION	LABEL	REF600-11020	Pstat Section
PSTATSERIALNO	LABEL	11020	Pstat Serial Number
CTRLMODE	IQUANT	1	Control Mode
IESTAB	IQUANT	0	I/E Stability
CASPEED	IQUANT	1	Control Amp Speed
CONVENTION	IQUANT	1	Current Convention
ICHRANGE	IQUANT	2	Ich Range
ICHRANGEMODE	TOGGLE	F	Ich Auto Range
ICHOFFSETENABLE	TOGGLE	T	Ich Offset Enable
ICHOFFSET	QUANT	0	Ich Offset (V)
ICHFILTER	IQUANT	3	Ich Filter
VCHRANGE	IQUANT	2	Vch Range
VCHRANGEMODE	TOGGLE	F	Vch Auto Range
VCHOFFSETENABLE	TOGGLE	T	Vch Offset Enable
VCHOFFSET	QUANT	0	Vch Offset (V)
VCHFILTER	IQUANT	3	Vch Filter
ACHRANGE	IQUANT	2	Ach Range
ACHOFFSETENABLE	TOGGLE	F	Ach Offset Enable
ACHOFFSET	QUANT	0	Ach Offset (V)
ACHFILTER	IQUANT	3	Ach Filter
IERANGELOWERLIMIT	IQUANT	1	I/E Range Lower Limit
IERANGEMODE	TOGGLE	F	I/E AutoRange
IERANGE	IQUANT	7	I/E Range
POSFEEDENABLE	TOGGLE	F	Positive Feedback IR Comp
POSFEEDRESISTANCE	QUANT	0	Positive Feedback Resistance (ohm)
ACHSELECT	IQUANT	0	Ach Select
CABLEID	IQUANT	14	Cable ID
DCCALDATE	LABEL	1/27/2020	DC Calibration Date
ACCALDATE	LABEL	1/27/2020	AC Calibration Date
THERMOSELECT	IQUANT	1	Thermo Select
FRAMEWORKVERSION	QUANT	6.33	Framework Version
INSTRUMENTVERSION	LABEL	3.50	Instrument Version
ZCURVE	TABLE
	Pt	Time	Freq	Zreal	Zimag	Zsig	Zmod	Zphz	Idc	Vdc	IERange
	#	s	Hz	ohm	ohm	V	ohm	°	A	V	#
	0	1	1000078	1714.148	-2179.978	1	2773.195	-51.82153	2.56698E-007	0.0303745	8
	1	1	794390.6	2034.057	-2417.26	1	3159.198	-49.92032	9.503001E-008	0.0300808	8
	2	2	630984.4	2405.957	-2683.199	1	3603.913	-48.11822	2.258763E-007	0.0299419	8
	3	2	501234.4	2844.858	-2946.677	1	4095.867	-46.00719	-7.514226E-007	0.0301893	8
	4	2	398109.4	3338.896	-3147.341	1	4588.462	-43.3084	-1.795491E-006	0.0302885	8
	5	3	316265.6	3867.966	-3383.764	1	5139.165	-41.18	-3.934985E-007	0.029958	8
	6	3	251203.1	4444.617	-3569.592	1	5700.579	-38.76889	-4.977384E-007	0.0299503	8
	7	3	199546.9	5072.282	-3729.082	1	6295.562	-36.32289	2.340514E-006	0.0294096	8
	8	4	158578.1	5680.453	-3831.692	1	6851.964	-34.00123	1.810038E-006	0.0294151	8
	9	4	125953.1	6372.141	-3837.34	1	7438.371	-31.0566	-1.000134E-007	0.02979	7
	10	5	100078.1	6985.976	-3847.835	1	7975.569	-28.84572	6.286719E-009	0.0297325	7
	11	5	79453.13	7594.833	-3855.603	1	8517.462	-26.91515	-3.391969E-008	0.0298226	7
	12	5	63140.62	8174.908	-3838.08	1	9031.057	-25.14983	-3.741143E-008	0.0298417	7
	13	5	50203.12	8735.332	-3815.391	1	9532.22	-23.59459	3.660632E-008	0.0297407	7
	14	6	39890.62	9266.141	-3801.024	1	10015.45	-22.30372	3.783039E-008	0.029739	7
	15	6	31640.63	9772.88	-3802.027	1	10486.4	-21.25795	-2.859648E-008	0.0297857	7
	16	6	25171.88	10269.62	-3835.685	1	10962.55	-20.48057	3.640519E-008	0.0297398	7
	17	7	20015.62	10748.15	-3902.692	1	11434.76	-19.95614	7.458598E-009	0.0297137	7
	18	7	15890.62	11237.57	-4015.928	1	11933.6	-19.66517	2.071586E-008	0.0298255	7
	19	7	12609.37	11766.1	-4086.459	1	12455.53	-19.15252	3.253501E-009	0.0296412	6
	20	8	10078.13	12252.5	-4300.815	1	12985.4	-19.34186	-1.627733E-009	0.0297606	6
	21	8	8015.625	12749.8	-4571.257	1	13544.52	-19.72456	2.183244E-009	0.0298326	6
	22	8	6328.125	13303.79	-4918.963	1	14184.05	-20.29144	4.655907E-009	0.0298131	6
	23	9	5015.625	13901.98	-5331.829	1	14889.37	-20.98333	-2.330604E-009	0.0297575	6
	24	9	3984.375	14539.37	-5813.112	1	15658.41	-21.79245	9.374008E-009	0.0297219	6
	25	9	3170.956	15236.42	-6359.66	1	16510.41	-22.65559	-1.387205E-009	0.029695	6
	26	10	2527.573	15996.98	-6975.069	1	17451.51	-23.55836	-3.360746E-009	0.0297673	6
	27	10	1976.103	16874.5	-7732.527	1	18561.81	-24.61902	2.12212E-010	0.0297341	6
	28	10	1577.524	17742.94	-8545.59	1	19693.63	-25.71701	1.176228E-008	0.029625	6
	29	11	1265.625	18663.07	-9420.302	1	20905.79	-26.78265	-1.772102E-009	0.0296878	6
	30	11	998.264	19700.87	-10549.56	1	22347.65	-28.16847	1.209652E-008	0.0296237	6
	31	11	796.875	20785.14	-11822.1	1	23912	-29.63021	-4.082866E-009	0.0298581	6
	32	11	627.7902	22026.73	-13426.76	1	25796.41	-31.36509	1.162841E-008	0.0296222	6
	33	12	505.5147	23317.31	-15167.95	1	27816.61	-33.04407	-7.510645E-009	0.0298394	6
	34	12	397.9953	24915.05	-17450.29	1	30418.29	-35.00707	7.177293E-010	0.0297735	6
	35	12	315.5048	26746.49	-20055.12	1	33430.27	-36.86339	9.702785E-010	0.0297707	6
	36	13	252.4038	28809.14	-22952.68	1	36834.66	-38.54486	5.243262E-010	0.0297689	6
	37	13	198.6229	31411.67	-26527.54	1	41114.51	-40.1815	9.144113E-010	0.0297709	6
	38	13	158.3615	34275.97	-30374.69	1	45798.08	-41.54673	9.230637E-010	0.0297666	6
	39	14	125.558	37609.46	-34798.62	1	51238.8	-42.77693	1.014297E-009	0.0297693	6
	40	14	100.4464	41147.06	-39602.92	1	57109.3	-43.90449	2.321289E-010	0.0297674	6
	41	14	79.00281	45382.85	-45400.73	1	64193.68	-45.01128	8.733905E-010	0.0297632	6
	42	15	63.3446	50585.44	-52221.03	1	72704.35	-45.91146	8.839471E-010	0.0297614	6
	43	15	49.86702	55369.11	-60086.28	1	81707.4	-47.33964	9.079288E-010	0.0297565	6
	44	15	39.72458	60539.55	-68544.16	1	91451.29	-48.54842	7.210698E-010	0.0297622	6
	45	16	31.6723	66327.53	-78748.09	1	102959.2	-49.89341	-3.114243E-010	0.0297617	5
	46	16	24.93351	73223.77	-92434.55	1	117923.1	-51.61483	1.716333E-010	0.0297588	5
	47	16	19.86229	80786.32	-107728.2	1	134654.4	-53.13345	2.11152E-010	0.0297614	5
	48	17	15.83615	88369.68	-124673.1	1	152815.5	-54.67057	1.183062E-009	0.0297593	5
	49	17	12.40079	100995.8	-150689.8	1	181404.4	-56.1691	1.234305E-011	0.0297572	5
	50	17	9.93114	111816.9	-176921.5	1	209294.6	-57.70654	1.289046E-010	0.0297519	5
	51	18	7.944915	126413.3	-208187.6	1	243561.9	-58.73352	-3.654299E-010	0.0297623	5
	52	19	6.317385	144921.8	-246867.8	1	286262.2	-59.58527	-2.942542E-010	0.0297676	5
	53	19	5.008013	168862.6	-292909.8	1	338098.7	-60.03653	-3.894484E-011	0.0297588	5
	54	20	3.945707	198986.7	-347586.5	1	400514.8	-60.20967	-3.835999E-011	0.0297482	5
	55	22	3.158693	234039.9	-406135.1	1	468743.5	-60.04682	1.562262E-010	0.0297537	5
	56	23	2.504006	277894.3	-474118.3	1	549557.4	-59.62421	6.780993E-011	0.0297504	5
	57	25	1.998082	327673	-549032.4	1	639379.5	-59.17044	-3.665086E-011	0.029711	5
	58	26	1.584686	385144.2	-633419.2	1	741320.4	-58.69872	5.928696E-011	0.029751	5
	59	28	1.266892	450010.7	-727081.8	1	855077.5	-58.24551	1.037245E-010	0.029782	5
	60	31	0.999041	525382.8	-843080.1	1	993384	-58.07005	1.206224E-010	0.0297858	5
