EXPLAIN
TAG	EISPOT
TITLE	LABEL	Potentiostatic EIS	Test &Identifier
DATE	LABEL	1/25/2020	Date
TIME	LABEL	14:04:59	Time
NOTES	NOTES	6	&Notes...
	
	
	
	
	
	
PSTAT	PSTAT	REF600-11020	Potentiostat
VDC	POTEN	0.00000E+000	T	DC &Voltage (V)
FREQINIT	QUANT	1.00000E+006	Initial Fre&q. (Hz)
FREQFINAL	QUANT	1.00000E+000	Final Fre&q. (Hz)
PTSPERDEC	QUANT	1.00000E+001	Points/&decade
VAC	QUANT	2.50000E+001	AC &Voltage (mV rms)
AREA	QUANT	1.00000E-001	&Area (cm^2)
CONDIT	TWOPARAM	F	5.00000E+000	0.00000E+000	Conditionin&g	Time(s)	E(V)
DELAY	TWOPARAM	F	5.00000E+000	0.00000E+000	Init. De&lay	Time(s)	Stab.(mV/s)
SPEED	SELECTOR	0	&Optimize for:
ZGUESS	QUANT	5.00000E+002	E&stimated Z (ohms)
OCVCURVE	TABLE	39
	Pt	T	Vf	Vm	Ach	Over
	#	s	V vs. Ref.	V	V	bits
	0	0.258333	1.24020E-002	1.24020E-002	6.63513E-004	...........
	1	0.516667	1.24012E-002	1.23600E-002	6.59446E-004	...........
	2	0.775	1.23986E-002	1.24379E-002	6.64813E-004	...........
	3	1.03333	1.23982E-002	1.25010E-002	6.62379E-004	...........
	4	1.29167	1.24104E-002	1.25245E-002	6.58513E-004	...........
	5	1.55	1.24383E-002	1.24939E-002	6.54879E-004	...........
	6	1.80833	1.24694E-002	1.24494E-002	6.63746E-004	...........
	7	2.06667	1.24858E-002	1.24112E-002	6.64046E-004	...........
	8	2.325	1.24792E-002	1.23769E-002	6.62646E-004	...........
	9	2.58333	1.24537E-002	1.23406E-002	6.60113E-004	...........
	10	2.84167	1.24192E-002	1.23245E-002	6.60913E-004	...........
	11	3.1	1.23841E-002	1.23106E-002	6.63446E-004	...........
	12	3.35833	1.23541E-002	1.23127E-002	6.58646E-004	...........
	13	3.61667	1.23322E-002	1.22996E-002	6.62479E-004	...........
	14	3.875	1.23172E-002	1.22586E-002	6.64113E-004	...........
	15	4.13333	1.23033E-002	1.22019E-002	6.63913E-004	...........
	16	4.39167	1.22832E-002	1.21923E-002	6.63479E-004	...........
	17	4.65	1.22559E-002	1.22216E-002	6.60113E-004	...........
	18	4.90833	1.22293E-002	1.21581E-002	6.60879E-004	...........
	19	5.16667	1.22085E-002	1.21429E-002	6.56146E-004	...........
	20	5.425	1.21896E-002	1.21048E-002	6.61979E-004	...........
	21	5.68333	1.21671E-002	1.20795E-002	6.60179E-004	...........
	22	5.94167	1.21404E-002	1.20550E-002	6.60946E-004	...........
	23	6.2	1.21118E-002	1.20273E-002	6.56813E-004	...........
	24	6.45833	1.20836E-002	1.20028E-002	6.60013E-004	...........
	25	6.71667	1.20564E-002	1.19767E-002	6.57913E-004	...........
	26	6.975	1.20302E-002	1.19531E-002	6.60479E-004	...........
	27	7.23333	1.20047E-002	1.19326E-002	6.62346E-004	...........
	28	7.49167	1.19800E-002	1.19072E-002	6.62979E-004	...........
	29	7.75	1.19561E-002	1.18811E-002	6.63379E-004	...........
	30	8.00833	1.19324E-002	1.18615E-002	6.57913E-004	...........
	31	8.26667	1.19088E-002	1.18386E-002	6.61379E-004	...........
	32	8.525	1.18854E-002	1.18144E-002	6.66413E-004	...........
	33	8.78333	1.18625E-002	1.17953E-002	6.63979E-004	...........
	34	9.04167	1.18399E-002	1.17674E-002	6.61046E-004	...........
	35	9.3	1.18171E-002	1.17405E-002	6.61479E-004	...........
	36	9.5583	1.17936E-002	1.17179E-002	6.60779E-004	...........
	37	9.8167	1.17692E-002	1.16934E-002	6.63313E-004	...........
	38	10.075	1.17445E-002	1.16754E-002	6.67546E-004	...........
EOC	QUANT	0.0117445	Open Circuit (V)
PSTATMODEL	IQUANT	4	Pstat Model
PSTATSECTION	LABEL	REF600-11020	Pstat Section
PSTATSERIALNO	LABEL	11020	Pstat Serial Number
CTRLMODE	IQUANT	1	Control Mode
IESTAB	IQUANT	0	I/E Stability
CASPEED	IQUANT	1	Control Amp Speed
CONVENTION	IQUANT	1	Current Convention
ICHRANGE	IQUANT	2	Ich Range
ICHRANGEMODE	TOGGLE	F	Ich Auto Range
ICHOFFSETENABLE	TOGGLE	T	Ich Offset Enable
ICHOFFSET	QUANT	0	Ich Offset (V)
ICHFILTER	IQUANT	3	Ich Filter
VCHRANGE	IQUANT	2	Vch Range
VCHRANGEMODE	TOGGLE	F	Vch Auto Range
VCHOFFSETENABLE	TOGGLE	T	Vch Offset Enable
VCHOFFSET	QUANT	0	Vch Offset (V)
VCHFILTER	IQUANT	3	Vch Filter
ACHRANGE	IQUANT	2	Ach Range
ACHOFFSETENABLE	TOGGLE	F	Ach Offset Enable
ACHOFFSET	QUANT	0	Ach Offset (V)
ACHFILTER	IQUANT	3	Ach Filter
IERANGELOWERLIMIT	IQUANT	1	I/E Range Lower Limit
IERANGEMODE	TOGGLE	F	I/E AutoRange
IERANGE	IQUANT	7	I/E Range
POSFEEDENABLE	TOGGLE	F	Positive Feedback IR Comp
POSFEEDRESISTANCE	QUANT	0	Positive Feedback Resistance (ohm)
ACHSELECT	IQUANT	0	Ach Select
CABLEID	IQUANT	14	Cable ID
DCCALDATE	LABEL	12/22/2019	DC Calibration Date
ACCALDATE	LABEL	12/22/2019	AC Calibration Date
THERMOSELECT	IQUANT	1	Thermo Select
FRAMEWORKVERSION	QUANT	6.33	Framework Version
INSTRUMENTVERSION	LABEL	3.50	Instrument Version
ZCURVE	TABLE
	Pt	Time	Freq	Zreal	Zimag	Zsig	Zmod	Zphz	Idc	Vdc	IERange
	#	s	Hz	ohm	ohm	V	ohm	°	A	V	#
	0	1	1000078	1800.107	-1955.143	1	2657.624	-47.36412	-1.42103E-006	0.0146641	8
	1	2	794390.6	2113.833	-2109.66	1	2986.462	-44.94339	-5.747409E-007	0.0138932	8
	2	2	630984.4	2447.547	-2268.946	1	3337.455	-42.83139	4.006142E-006	0.0129489	8
	3	2	501234.4	2817.458	-2407.432	1	3705.914	-40.51288	-1.458326E-006	0.0136802	8
	4	3	398109.4	3222.707	-2535.059	1	4100.289	-38.18945	-5.755094E-007	0.0136267	8
	5	3	316265.6	3657.972	-2670.435	1	4529.016	-36.13062	1.395025E-006	0.013037	8
	6	3	251203.1	4125.784	-2772.097	1	4970.575	-33.89699	-4.460719E-007	0.013425	8
	7	4	199546.9	4624.659	-2825.76	1	5419.63	-31.42578	7.209615E-007	0.0131915	8
	8	4	158578.1	5136.712	-2855.19	1	5876.898	-29.06706	-7.974342E-007	0.013473	8
	9	4	125953.1	5692.817	-2736.766	1	6316.49	-25.67546	-2.714141E-007	0.0137853	7
	10	4	100078.1	6170.949	-2605.016	1	6698.262	-22.88664	-2.460069E-009	0.0133613	7
	11	5	79453.13	6623.552	-2451.203	1	7062.565	-20.30819	8.596997E-008	0.0132113	7
	12	5	63140.62	7008.41	-2256.516	1	7362.722	-17.84714	-9.647776E-009	0.0133544	7
	13	5	50203.12	7342.96	-2048.217	1	7623.271	-15.58571	-3.686477E-009	0.0132853	7
	14	6	39890.62	7612.667	-1831.518	1	7829.888	-13.52759	2.818756E-008	0.0132362	7
	15	6	31640.63	7841.312	-1646.793	1	8012.371	-11.8606	1.477728E-008	0.0132657	7
	16	6	25171.88	8019.379	-1473.09	1	8153.553	-10.4087	-7.787192E-009	0.0133532	7
	17	7	20015.62	8165.336	-1336.937	1	8274.062	-9.298717	-9.507589E-009	0.0133523	7
	18	7	15890.62	8277.778	-1221.505	1	8367.418	-8.394236	5.19011E-008	0.0132344	7
	19	7	12609.37	8387.018	-1155.523	1	8466.244	-7.84455	8.418034E-008	0.0132019	7
	20	8	10078.13	8458.943	-1120.574	1	8532.843	-7.546153	1.225508E-008	0.0132638	7
	21	8	8015.625	8538.279	-1109.244	1	8610.031	-7.402078	-8.909539E-009	0.013398	7
	22	8	6328.125	8592.32	-1149.924	1	8668.927	-7.622691	-1.619945E-008	0.01332	7
	23	9	5015.625	8653.937	-1228.543	1	8740.706	-8.079917	-2.630895E-008	0.0133271	7
	24	9	3984.375	8727.784	-1349.559	1	8831.508	-8.78991	-9.549153E-009	0.0133472	7
	25	9	3170.956	8795.054	-1519.243	1	8925.305	-9.80047	2.785514E-009	0.0131971	6
	26	10	2527.573	8857.095	-1755.181	1	9029.329	-11.20889	-3.703128E-009	0.0133314	6
	27	10	1976.103	8950.231	-2090.112	1	9191.04	-13.14449	-1.004032E-009	0.0133163	6
	28	10	1577.524	9041.003	-2484.262	1	9376.103	-15.36439	4.126465E-009	0.0131952	6
	29	11	1265.625	9149.273	-2958.006	1	9615.56	-17.91628	-6.421906E-009	0.0133905	6
	30	11	998.264	9294.18	-3593.323	1	9964.62	-21.13754	-6.131017E-009	0.013389	6
	31	11	796.875	9467.707	-4335.733	1	10413.26	-24.6054	2.373423E-009	0.0131897	6
	32	11	627.7902	9683.29	-5304.202	1	11040.87	-28.71254	1.09939E-008	0.0131177	6
	33	12	505.5147	9935.17	-6379.51	1	11807.02	-32.70509	6.836836E-010	0.0132548	6
	34	12	397.9953	10274.06	-7820.546	1	12911.91	-37.27814	5.877791E-010	0.0133206	6
	35	12	315.5048	10679.64	-9533.34	1	14315.7	-41.75419	4.306855E-010	0.0133182	6
	36	13	252.4038	11165.97	-11530.7	1	16051.05	-45.92065	2.901614E-010	0.0133184	6
	37	13	198.6229	11810.69	-14139.11	1	18422.99	-50.1273	6.189124E-010	0.0133138	6
	38	13	158.3615	12554.56	-17147.44	1	21252.1	-53.79013	3.160309E-010	0.013312	6
	39	14	125.558	13492.86	-20900.94	1	24877.83	-57.15523	6.24252E-010	0.0133107	6
	40	14	100.4464	14619.95	-25274.12	1	29198.02	-59.95253	4.790014E-010	0.0133085	6
	41	14	79.00281	16150.25	-31041.43	1	34991.44	-62.51291	1.643041E-010	0.0133069	6
	42	15	63.3446	17728.93	-37482.51	1	41463.88	-64.68623	4.535137E-010	0.0133017	6
	43	15	49.86702	20220.45	-45926.05	1	50180.36	-66.23694	3.911666E-010	0.0133017	6
	44	15	39.72458	23358.45	-55791.75	1	60484.18	-67.2823	5.038859E-010	0.013306	6
	45	16	31.6723	27394.08	-67522.43	1	72867.79	-67.91743	8.194572E-010	0.01331	6
	46	16	24.93351	32777.25	-82369.9	1	88651.84	-68.30103	-1.527519E-010	0.0133051	6
	47	16	19.86229	39559.3	-99161.9	1	106761.5	-68.25114	-1.150722E-009	0.0133031	5
	48	17	15.83615	48611.13	-118700.5	1	128268.7	-67.72955	5.326196E-010	0.0133054	5
	49	17	12.40079	61491.3	-143953.7	1	156537.1	-66.86975	-2.046762E-010	0.0133066	5
	50	17	9.93114	75865.09	-169559.1	1	185757.4	-65.89503	-2.20809E-010	0.0133009	5
	51	18	7.944915	94013.44	-199033.7	1	220120.3	-64.71633	6.017926E-010	0.0133004	5
	52	18	6.317385	117884.2	-232220.8	1	260428.9	-63.0859	-2.13814E-010	0.013316	5
	53	19	5.008013	147056.5	-269283.7	1	306821.3	-61.36093	9.829552E-011	0.0133116	5
	54	20	3.945707	182546.7	-311629.2	1	361159.3	-59.63901	-2.525852E-010	0.013295	5
	55	21	3.158693	220742.9	-352146.5	1	415613.5	-57.91848	1.630988E-010	0.0132817	5
	56	22	2.504006	265549.5	-399003.9	1	479291.9	-56.355	2.635328E-010	0.0132957	5
	57	24	1.998082	313869.9	-447332.5	1	546462	-54.94466	-7.764134E-012	0.0132569	5
	58	25	1.584686	366823	-503831.4	1	623221.6	-53.94287	-3.326953E-011	0.0132561	5
	59	27	1.266892	421377.4	-562540.4	1	702858.9	-53.16453	3.401886E-011	0.0132911	5
	60	30	0.999041	484878.3	-634281.4	1	798385.8	-52.60379	8.990637E-011	0.013314	5
