EXPLAIN
TAG	EISPOT
TITLE	LABEL	Potentiostatic EIS	Test &Identifier
DATE	LABEL	5/26/2020	Date
TIME	LABEL	18:05:40	Time
NOTES	NOTES	1	&Notes...
	
PSTAT	PSTAT	REF600-11020	Potentiostat
VDC	POTEN	0.00000E+000	T	DC &Voltage (V)
FREQINIT	QUANT	1.00000E+006	Initial Fre&q. (Hz)
FREQFINAL	QUANT	1.00000E+000	Final Fre&q. (Hz)
PTSPERDEC	QUANT	1.00000E+001	Points/&decade
VAC	QUANT	2.50000E+001	AC &Voltage (mV rms)
AREA	QUANT	5.00000E-004	&Area (cm^2)
CONDIT	TWOPARAM	F	5.00000E+000	0.00000E+000	Conditionin&g	Time(s)	E(V)
DELAY	TWOPARAM	T	3.00000E+000	0.00000E+000	Init. De&lay	Time(s)	Stab.(mV/s)
SPEED	SELECTOR	0	&Optimize for:
ZGUESS	QUANT	1.00000E+003	E&stimated Z (ohms)
OCVCURVE	TABLE	12
	Pt	T	Vf	Vm	Ach	Over
	#	s	V vs. Ref.	V	V	bits
	0	0.258333	1.11396E-001	1.11396E-001	6.46329E-004	...........
	1	0.516667	1.11396E-001	1.11374E-001	6.49062E-004	...........
	2	0.775	1.11393E-001	1.11350E-001	6.46529E-004	...........
	3	1.03333	1.11385E-001	1.11329E-001	6.49129E-004	...........
	4	1.29167	1.11372E-001	1.11311E-001	6.53995E-004	...........
	5	1.55	1.11353E-001	1.11293E-001	6.53362E-004	...........
	6	1.80833	1.11333E-001	1.11278E-001	6.52029E-004	...........
	7	2.06667	1.11314E-001	1.11262E-001	6.46196E-004	...........
	8	2.325	1.11296E-001	1.11246E-001	6.49662E-004	...........
	9	2.58333	1.11279E-001	1.11234E-001	6.50229E-004	...........
	10	2.84167	1.11264E-001	1.11220E-001	6.47362E-004	...........
	11	3.1	1.11249E-001	1.11205E-001	6.46762E-004	...........
EOC	QUANT	0.1112488	Open Circuit (V)
PSTATMODEL	IQUANT	4	Pstat Model
PSTATSECTION	LABEL	REF600-11020	Pstat Section
PSTATSERIALNO	LABEL	11020	Pstat Serial Number
CTRLMODE	IQUANT	1	Control Mode
IESTAB	IQUANT	0	I/E Stability
CASPEED	IQUANT	1	Control Amp Speed
CONVENTION	IQUANT	1	Current Convention
ICHRANGE	IQUANT	2	Ich Range
ICHRANGEMODE	TOGGLE	F	Ich Auto Range
ICHOFFSETENABLE	TOGGLE	T	Ich Offset Enable
ICHOFFSET	QUANT	0	Ich Offset (V)
ICHFILTER	IQUANT	3	Ich Filter
VCHRANGE	IQUANT	2	Vch Range
VCHRANGEMODE	TOGGLE	F	Vch Auto Range
VCHOFFSETENABLE	TOGGLE	T	Vch Offset Enable
VCHOFFSET	QUANT	0	Vch Offset (V)
VCHFILTER	IQUANT	3	Vch Filter
ACHRANGE	IQUANT	2	Ach Range
ACHOFFSETENABLE	TOGGLE	F	Ach Offset Enable
ACHOFFSET	QUANT	0	Ach Offset (V)
ACHFILTER	IQUANT	3	Ach Filter
IERANGELOWERLIMIT	IQUANT	1	I/E Range Lower Limit
IERANGEMODE	TOGGLE	F	I/E AutoRange
IERANGE	IQUANT	8	I/E Range
POSFEEDENABLE	TOGGLE	F	Positive Feedback IR Comp
POSFEEDRESISTANCE	QUANT	0	Positive Feedback Resistance (ohm)
ACHSELECT	IQUANT	0	Ach Select
CABLEID	IQUANT	14	Cable ID
DCCALDATE	LABEL	2/27/2020	DC Calibration Date
ACCALDATE	LABEL	2/27/2020	AC Calibration Date
THERMOSELECT	IQUANT	1	Thermo Select
FRAMEWORKVERSION	QUANT	6.33	Framework Version
INSTRUMENTVERSION	LABEL	3.50	Instrument Version
ZCURVE	TABLE
	Pt	Time	Freq	Zreal	Zimag	Zsig	Zmod	Zphz	Idc	Vdc	IERange
	#	s	Hz	ohm	ohm	V	ohm	°	A	V	#
	0	1	1000078	1678.875	-2219.8	1	2783.188	-52.89912	6.49018E-008	0.1136447	8
	1	1	794390.6	2023.68	-2495.819	1	3213.159	-50.96389	7.476847E-008	0.1133073	8
	2	2	630984.4	2425.08	-2772.075	1	3683.125	-48.81977	5.227185E-008	0.1131341	8
	3	2	501234.4	2892.683	-3036.604	1	4193.874	-46.39045	5.13644E-008	0.1130491	8
	4	2	398109.4	3425.345	-3286.655	1	4747.114	-43.81627	9.71386E-008	0.1129475	8
	5	3	316265.6	4012.204	-3502.317	1	5325.787	-41.11823	5.924932E-008	0.1129453	8
	6	3	251203.1	4657.459	-3648.075	1	5916.112	-38.07074	5.380387E-008	0.1129397	8
	7	3	199546.9	5340.791	-3739.885	1	6520.03	-35.00161	6.325874E-008	0.1129325	8
	8	4	158578.1	6042.702	-3760.216	1	7117.125	-31.89293	6.101139E-008	0.1129176	8
	9	4	125953.1	6828.112	-3589.634	1	7714.181	-27.73153	-6.495087E-010	0.1128681	7
	10	4	100078.1	7450.927	-3443.386	1	8208.119	-24.80364	1.681271E-009	0.1128409	7
	11	5	79453.13	8043.612	-3251.87	1	8676.079	-22.01249	1.596127E-009	0.1128373	7
	12	5	63140.62	8577.761	-3016.314	1	9092.642	-19.3739	2.529354E-009	0.1128411	7
	13	5	50203.12	9033.25	-2752.777	1	9443.378	-16.94798	1.590035E-009	0.1128256	7
	14	5	39890.62	9423.338	-2485.08	1	9745.51	-14.77344	1.750677E-009	0.1128279	7
	15	6	31640.63	9744.37	-2227.281	1	9995.68	-12.87498	2.138221E-009	0.1128322	7
	16	6	25171.88	10000.76	-1991.31	1	10197.09	-11.26121	2.236677E-009	0.1128359	7
	17	6	20015.62	10212.74	-1786.906	1	10367.88	-9.92449	2.176671E-009	0.1128271	7
	18	7	15890.62	10386.3	-1616.255	1	10511.3	-8.845093	1.931019E-009	0.1128259	7
	19	7	12609.37	10594.42	-1332.708	1	10677.91	-7.169772	-1.683131E-010	0.112878	6
	20	7	10078.13	10699.9	-1268.436	1	10774.82	-6.760668	-1.781669E-010	0.1128797	6
	21	8	8015.625	10787.55	-1238.519	1	10858.42	-6.549454	-1.200278E-010	0.1128855	6
	22	8	6328.125	10877.41	-1247.023	1	10948.66	-6.540031	7.324044E-012	0.1128715	6
	23	8	5015.625	10962.53	-1295.856	1	11038.85	-6.74152	-2.294264E-010	0.1128748	6
	24	9	3984.375	11042.04	-1385.462	1	11128.62	-7.151619	-8.612985E-011	0.1128739	6
	25	9	3170.956	11123.45	-1522.337	1	11227.14	-7.792994	-1.020745E-010	0.1128763	6
	26	9	2527.573	11205.04	-1711.464	1	11334.99	-8.684266	-3.850757E-010	0.1128722	6
	27	10	1976.103	11300.68	-1983.978	1	11473.52	-9.95752	-4.877302E-010	0.1128695	6
	28	10	1577.524	11398.55	-2308.53	1	11629.97	-11.44916	-4.491381E-010	0.1128733	6
	29	10	1265.625	11500.79	-2709.656	1	11815.68	-13.25746	-2.934995E-010	0.1128719	6
	30	11	998.264	11634.04	-3249.732	1	12079.39	-15.60662	-4.160846E-010	0.1128693	6
	31	11	796.875	11781.25	-3891.51	1	12407.32	-18.27911	-2.269275E-010	0.1128749	6
	32	11	627.7902	11967.48	-4735.613	1	12870.38	-21.58904	-1.337548E-010	0.1128701	6
	33	11	505.5147	12168.23	-5678.146	1	13427.85	-25.01549	-4.257077E-010	0.11287	6
	34	12	397.9953	12446.56	-6961.986	1	14261.35	-29.22048	4.050178E-010	0.1128896	6
	35	12	315.5048	12788.97	-8500.264	1	15356.18	-33.61023	3.970986E-010	0.1128881	6
	36	12	252.4038	13205.8	-10307.5	1	16752.25	-37.97305	3.061212E-010	0.1128892	6
	37	13	198.6229	13781.65	-12681.09	1	18728.15	-42.6185	2.594336E-010	0.1128847	6
	38	13	158.3615	14480.55	-15422.43	1	21155.08	-46.8041	2.265111E-010	0.1128847	6
	39	13	125.558	15412.75	-18829.59	1	24333.23	-50.69835	2.341856E-010	0.1128826	6
	40	14	100.4464	16565.02	-22780.95	1	28166.85	-53.97748	2.870416E-010	0.1128807	6
	41	14	79.00281	18181.15	-27907.54	1	33307.43	-56.91665	1.948781E-010	0.1128758	6
	42	14	63.3446	20100.73	-33557.57	1	39117.13	-59.07872	1.683628E-010	0.112873	6
	43	15	49.86702	22780.61	-40850.17	1	46772.78	-60.85323	-1.63548E-011	0.1128729	6
	44	15	39.72458	26046.24	-49073.59	1	55557.39	-62.04248	2.072952E-010	0.1128757	6
	45	15	31.6723	30171.85	-58696.93	1	65997.5	-62.79558	2.910387E-010	0.1128747	6
	46	16	24.93351	35680.82	-70589.08	1	79094.49	-63.18467	-2.190118E-010	0.112875	6
	47	16	19.86229	42153.55	-83723.72	1	93736.77	-63.27547	-9.780919E-010	0.112872	6
	48	16	15.83615	50103.67	-98757.9	1	110740.7	-63.09957	4.703831E-010	0.1128756	5
	49	17	12.40079	60642.37	-117512.3	1	132237	-62.70394	-8.668071E-010	0.1128821	5
	50	17	9.93114	71831.52	-137076.7	1	154757.2	-62.34436	-6.763852E-010	0.1128765	5
	51	17	7.944915	85203.34	-159367.2	1	180713.9	-61.86946	6.528214E-010	0.1128739	5
	52	18	6.317385	101308.3	-186209.2	1	211984	-61.45132	-2.345488E-010	0.1128919	5
	53	18	5.008013	120643.1	-217452.4	1	248677.1	-60.9784	-2.223834E-010	0.1128832	5
	54	19	3.945707	143703.7	-254385.2	1	292168.7	-60.53765	2.456033E-010	0.1128821	5
	55	20	3.158693	169691	-294276.6	1	339696.6	-60.03063	-1.516945E-010	0.1128891	5
	56	21	2.504006	201051.7	-342245.7	1	396930.6	-59.56796	-1.790289E-010	0.112883	5
	57	23	1.998082	237593.2	-394992.1	1	460943.9	-58.97252	9.75746E-011	0.1129196	5
	58	24	1.584686	280496.9	-458017.6	1	537083.4	-58.51606	8.767357E-011	0.1129073	5
	59	26	1.266892	330408	-525738.7	1	620943.3	-57.8521	3.032957E-011	0.1128638	5
	60	29	0.999041	394130.1	-607712.3	1	724329.1	-57.03469	6.739415E-012	0.112841	5
