EXPLAIN
TAG	EISPOT
TITLE	LABEL	Potentiostatic EIS	Test &Identifier
DATE	LABEL	7/5/2020	Date
TIME	LABEL	17:22:37	Time
NOTES	NOTES	1	&Notes...
	
PSTAT	PSTAT	REF600-11020	Potentiostat
VDC	POTEN	0.00000E+000	T	DC &Voltage (V)
FREQINIT	QUANT	1.00000E+006	Initial Fre&q. (Hz)
FREQFINAL	QUANT	1.00000E+000	Final Fre&q. (Hz)
PTSPERDEC	QUANT	1.00000E+001	Points/&decade
VAC	QUANT	2.50000E+001	AC &Voltage (mV rms)
AREA	QUANT	4.00000E-004	&Area (cm^2)
CONDIT	TWOPARAM	F	5.00000E+000	0.00000E+000	Conditionin&g	Time(s)	E(V)
DELAY	TWOPARAM	F	3.00000E+000	0.00000E+000	Init. De&lay	Time(s)	Stab.(mV/s)
SPEED	SELECTOR	0	&Optimize for:
ZGUESS	QUANT	1.00000E+003	E&stimated Z (ohms)
OCVCURVE	TABLE	39
	Pt	T	Vf	Vm	Ach	Over
	#	s	V vs. Ref.	V	V	bits
	0	0.258333	7.51830E-002	7.51830E-002	5.08817E-004	...........
	1	0.516667	7.51829E-002	7.51745E-002	5.05150E-004	...........
	2	0.775	7.51819E-002	7.51701E-002	5.08950E-004	...........
	3	1.03333	7.51795E-002	7.51650E-002	5.03717E-004	...........
	4	1.29167	7.51757E-002	7.51629E-002	5.11917E-004	...........
	5	1.55	7.51711E-002	7.51564E-002	5.06950E-004	...........
	6	1.80833	7.51664E-002	7.51513E-002	5.05650E-004	...........
	7	2.06667	7.51618E-002	7.51467E-002	5.06217E-004	...........
	8	2.325	7.51571E-002	7.51479E-002	5.04184E-004	...........
	9	2.58333	7.51526E-002	7.51389E-002	5.07483E-004	...........
	10	2.84167	7.51487E-002	7.51377E-002	5.01350E-004	...........
	11	3.1	7.51450E-002	7.51369E-002	5.03384E-004	...........
	12	3.35833	7.51417E-002	7.51394E-002	5.10917E-004	...........
	13	3.61667	7.51395E-002	7.51432E-002	5.09750E-004	...........
	14	3.875	7.51387E-002	7.51335E-002	5.08083E-004	...........
	15	4.13333	7.51386E-002	7.51316E-002	5.15450E-004	...........
	16	4.39167	7.51376E-002	7.51253E-002	5.13750E-004	...........
	17	4.65	7.51350E-002	7.51240E-002	5.08417E-004	...........
	18	4.90833	7.51313E-002	7.51189E-002	5.11784E-004	...........
	19	5.16667	7.51272E-002	7.51083E-002	5.11517E-004	...........
	20	5.425	7.51227E-002	7.51131E-002	5.13250E-004	...........
	21	5.68333	7.51179E-002	7.50997E-002	5.14017E-004	...........
	22	5.94167	7.51135E-002	7.51176E-002	5.09517E-004	...........
	23	6.2	7.51104E-002	7.51064E-002	5.08317E-004	...........
	24	6.45833	7.51090E-002	7.51017E-002	5.04617E-004	...........
	25	6.71667	7.51081E-002	7.50948E-002	5.10884E-004	...........
	26	6.975	7.51057E-002	7.50919E-002	5.08183E-004	...........
	27	7.23333	7.51021E-002	7.51037E-002	5.12683E-004	...........
	28	7.49167	7.50990E-002	7.51035E-002	5.09350E-004	...........
	29	7.75	7.50980E-002	7.50863E-002	5.08517E-004	...........
	30	8.00833	7.50976E-002	7.50790E-002	5.12017E-004	...........
	31	8.26667	7.50952E-002	7.50891E-002	5.10617E-004	...........
	32	8.525	7.50920E-002	7.51405E-002	5.09250E-004	...........
	33	8.78333	7.50943E-002	7.51538E-002	5.09117E-004	...........
	34	9.04167	7.51060E-002	7.51488E-002	5.07550E-004	...........
	35	9.3	7.51220E-002	7.50803E-002	5.14950E-004	...........
	36	9.5583	7.51300E-002	7.50741E-002	5.14683E-004	...........
	37	9.8167	7.51226E-002	7.50775E-002	5.13717E-004	...........
	38	10.075	7.51054E-002	7.50721E-002	5.06317E-004	...........
EOC	QUANT	0.0751054	Open Circuit (V)
PSTATMODEL	IQUANT	4	Pstat Model
PSTATSECTION	LABEL	REF600-11020	Pstat Section
PSTATSERIALNO	LABEL	11020	Pstat Serial Number
CTRLMODE	IQUANT	1	Control Mode
IESTAB	IQUANT	0	I/E Stability
CASPEED	IQUANT	1	Control Amp Speed
CONVENTION	IQUANT	1	Current Convention
ICHRANGE	IQUANT	2	Ich Range
ICHRANGEMODE	TOGGLE	F	Ich Auto Range
ICHOFFSETENABLE	TOGGLE	T	Ich Offset Enable
ICHOFFSET	QUANT	0	Ich Offset (V)
ICHFILTER	IQUANT	3	Ich Filter
VCHRANGE	IQUANT	2	Vch Range
VCHRANGEMODE	TOGGLE	F	Vch Auto Range
VCHOFFSETENABLE	TOGGLE	T	Vch Offset Enable
VCHOFFSET	QUANT	0	Vch Offset (V)
VCHFILTER	IQUANT	3	Vch Filter
ACHRANGE	IQUANT	2	Ach Range
ACHOFFSETENABLE	TOGGLE	F	Ach Offset Enable
ACHOFFSET	QUANT	0	Ach Offset (V)
ACHFILTER	IQUANT	3	Ach Filter
IERANGELOWERLIMIT	IQUANT	1	I/E Range Lower Limit
IERANGEMODE	TOGGLE	F	I/E AutoRange
IERANGE	IQUANT	8	I/E Range
POSFEEDENABLE	TOGGLE	F	Positive Feedback IR Comp
POSFEEDRESISTANCE	QUANT	0	Positive Feedback Resistance (ohm)
ACHSELECT	IQUANT	0	Ach Select
CABLEID	IQUANT	14	Cable ID
DCCALDATE	LABEL	6/26/2020	DC Calibration Date
ACCALDATE	LABEL	6/26/2020	AC Calibration Date
THERMOSELECT	IQUANT	1	Thermo Select
FRAMEWORKVERSION	QUANT	6.33	Framework Version
INSTRUMENTVERSION	LABEL	3.50	Instrument Version
ZCURVE	TABLE
	Pt	Time	Freq	Zreal	Zimag	Zsig	Zmod	Zphz	Idc	Vdc	IERange
	#	s	Hz	ohm	ohm	V	ohm	°	A	V	#
	0	1	1000078	1552.024	-1811.656	1	2385.556	-49.41373	-3.303682E-006	0.0772643	8
	1	2	794390.6	1866.087	-1963.184	1	2708.574	-46.45251	-2.299316E-007	0.0767346	8
	2	2	630984.4	2221.699	-2094.916	1	3053.624	-43.31766	-5.934346E-007	0.0765474	8
	3	2	501234.4	2624.516	-2183.082	1	3413.786	-39.7538	6.336729E-007	0.0772437	8
	4	2	398109.4	3037.88	-2240.292	1	3774.602	-36.40701	-1.568981E-006	0.0765197	8
	5	3	316265.6	3468.725	-2235.61	1	4126.743	-32.80198	-5.243619E-007	0.0764007	8
	6	3	251203.1	3876.645	-2172.671	1	4443.97	-29.26851	1.939276E-006	0.0770481	8
	7	3	199546.9	4271.569	-2092.287	1	4756.466	-26.09639	-6.393318E-006	0.0775302	8
	8	4	158578.1	4623.115	-1972.097	1	5026.167	-23.10179	-1.706422E-006	0.0771767	8
	9	4	125953.1	4967.314	-1801.748	1	5283.986	-19.93676	4.497223E-006	0.0694187	7
	10	4	100078.1	5190.493	-1639.038	1	5443.129	-17.52491	-1.363555E-006	0.0782649	7
	11	5	79453.13	5431.109	-1498.076	1	5633.931	-15.42058	3.867113E-007	0.0773363	7
	12	5	63140.62	5589.807	-1329.261	1	5745.684	-13.37653	-1.325381E-006	0.0778144	7
	13	5	50203.12	5756.518	-1208.868	1	5882.079	-11.85977	5.74826E-007	0.0748332	7
	14	6	39890.62	5867.843	-1088.802	1	5968.004	-10.51191	-7.613889E-007	0.0764387	7
	15	6	31640.63	6004.872	-1010.663	1	6089.329	-9.55375	1.109691E-006	0.0748358	7
	16	6	25171.88	6062.025	-941.7927	1	6134.748	-8.830841	-1.324772E-006	0.0778042	7
	17	7	20015.62	6188.313	-910.806	1	6254.98	-8.372774	1.219479E-006	0.0754669	7
	18	7	15890.62	6222.281	-883.6208	1	6284.709	-8.082481	-1.36489E-006	0.0782465	7
	19	8	12609.37	6339.078	-894.7098	1	6401.907	-8.033772	1.220503E-006	0.0754721	7
	20	8	10078.13	6398.741	-923.1312	1	6464.987	-8.209285	6.499551E-007	0.0769546	7
	21	8	8015.625	6463.713	-972.117	1	6536.406	-8.552958	8.895259E-007	0.0747218	7
	22	9	6328.125	6521.245	-1054.673	1	6605.98	-9.186834	1.655425E-007	0.0751396	7
	23	9	5015.625	6574.079	-1165.297	1	6676.558	-10.05163	-1.324152E-006	0.0777961	7
	24	9	3984.375	6705.9	-1323.415	1	6835.242	-11.16391	1.219851E-006	0.0754706	7
	25	10	3170.956	6763.273	-1510.872	1	6929.979	-12.59275	-3.672039E-007	0.0782032	7
	26	10	2527.573	6869.153	-1749.005	1	7088.32	-14.28496	3.918526E-007	0.0773174	7
	27	11	1976.103	6994.901	-2085.895	1	7299.288	-16.6047	8.869096E-007	0.0765027	7
	28	11	1577.524	7097.578	-2455.386	1	7510.295	-19.08291	8.915379E-007	0.0747196	7
	29	11	1265.625	7214.474	-2905.182	1	7777.449	-21.93405	-3.624923E-007	0.0781985	7
	30	12	998.264	7412.689	-3512.761	1	8202.893	-25.35556	1.218925E-006	0.075081	7
	31	12	796.875	7618.205	-4220.87	1	8709.351	-28.98867	8.857987E-007	0.0764961	7
	32	12	627.7902	7823.972	-5100.108	1	9339.467	-33.09858	-7.653153E-007	0.0764196	7
	33	12	505.5147	8119.087	-6092.078	1	10150.52	-36.88237	-7.641195E-007	0.0764193	7
	34	13	397.9953	8550.017	-7446.173	1	11337.91	-41.05247	4.514751E-009	0.0766957	7
	35	13	315.5048	9061.811	-9020.565	1	12786.2	-44.86931	-1.666913E-010	0.0766921	6
	36	13	252.4038	9685.68	-10836.24	1	14533.98	-48.20892	5.600973E-010	0.0766791	6
	37	14	198.6229	10543.67	-13168.59	1	16869.52	-51.31685	1.815315E-010	0.0766889	6
	38	14	158.3615	11580.37	-15797.62	1	19587.49	-53.75688	3.595206E-010	0.0766747	6
	39	14	125.558	12927.49	-18976.32	1	22961.28	-55.73561	5.926747E-011	0.0766901	6
	40	15	100.4464	14572.36	-22557.59	1	26855.14	-57.13726	9.832882E-010	0.0766833	6
	41	15	79.00281	16793.9	-27073.64	1	31859.34	-58.18848	3.093231E-010	0.0766848	6
	42	15	63.3446	19206.21	-31824.87	1	37171.23	-58.88916	2.239978E-010	0.0766817	6
	43	16	49.86702	22617.49	-37811.59	1	44059.82	-59.11371	5.62085E-010	0.0766815	6
	44	16	39.72458	26569.32	-44396.91	1	51739.87	-59.10159	5.441017E-010	0.0766859	6
	45	16	31.6723	31312.91	-51842.69	1	60565.36	-58.86808	7.919549E-010	0.0766842	6
	46	17	24.93351	37318.11	-60726.28	1	71276.38	-58.42803	-3.793405E-010	0.0766768	6
	47	17	19.86229	44197.43	-70290.63	1	83031.23	-57.83909	9.73903E-011	0.0766798	6
	48	17	15.83615	52654.28	-80907.73	1	96532.6	-56.94416	2.847112E-009	0.0766742	6
	49	18	12.40079	62708.8	-93860	1	112880.9	-56.25272	1.316099E-009	0.07666	5
	50	18	9.93114	73471.15	-106031.7	1	128999	-55.28126	1.672701E-009	0.0766646	5
	51	18	7.944915	85289.59	-119724	1	146997.1	-54.5345	-1.546592E-009	0.0766663	5
	52	19	6.317385	99434.4	-135214.6	1	167839.7	-53.6699	6.811908E-010	0.0766486	5
	53	19	5.008013	114239.5	-152837.7	1	190814.2	-53.22349	6.939137E-010	0.0766648	5
	54	20	3.945707	130033.8	-173273.7	1	216639.2	-53.11348	-1.099828E-010	0.0766663	5
	55	21	3.158693	145471.7	-196293.4	1	244321.7	-53.4581	3.634237E-010	0.0766748	5
	56	22	2.504006	162040.5	-224951.9	1	277237.2	-54.23352	1.652786E-010	0.0766679	5
	57	24	1.998082	179623	-259187.6	1	315345.3	-55.27715	-9.764561E-011	0.0766179	5
	58	25	1.584686	198521.5	-302180.3	1	361557.3	-56.69653	2.689748E-011	0.0766419	5
	59	27	1.266892	220546.6	-352555.6	1	415856.1	-57.97133	1.143911E-010	0.0766787	5
	60	30	0.999041	247979.8	-418869.6	1	486770.7	-59.37355	1.330582E-010	0.0766962	5
