EXPLAIN
TAG	EISPOT
TITLE	LABEL	Potentiostatic EIS	Test &Identifier
DATE	LABEL	1/28/2020	Date
TIME	LABEL	11:51:51	Time
NOTES	NOTES	6	&Notes...
	
	
	
	
	
	
PSTAT	PSTAT	REF600-11020	Potentiostat
VDC	POTEN	0.00000E+000	T	DC &Voltage (V)
FREQINIT	QUANT	1.00000E+006	Initial Fre&q. (Hz)
FREQFINAL	QUANT	1.00000E+000	Final Fre&q. (Hz)
PTSPERDEC	QUANT	1.00000E+001	Points/&decade
VAC	QUANT	2.50000E+001	AC &Voltage (mV rms)
AREA	QUANT	1.60000E-004	&Area (cm^2)
CONDIT	TWOPARAM	F	5.00000E+000	0.00000E+000	Conditionin&g	Time(s)	E(V)
DELAY	TWOPARAM	F	5.00000E+000	0.00000E+000	Init. De&lay	Time(s)	Stab.(mV/s)
SPEED	SELECTOR	0	&Optimize for:
ZGUESS	QUANT	1.00000E+003	E&stimated Z (ohms)
OCVCURVE	TABLE	39
	Pt	T	Vf	Vm	Ach	Over
	#	s	V vs. Ref.	V	V	bits
	0	0.258333	7.31509E-002	7.31509E-002	5.75438E-004	...........
	1	0.516667	7.32080E-002	7.61418E-002	5.73871E-004	...........
	2	0.775	7.35419E-002	7.80872E-002	5.75371E-004	...........
	3	1.03333	7.43478E-002	7.56559E-002	5.78237E-004	...........
	4	1.29167	7.53444E-002	7.45015E-002	5.75104E-004	...........
	5	1.55	7.58969E-002	7.41750E-002	5.75704E-004	...........
	6	1.80833	7.57657E-002	7.58359E-002	5.72171E-004	...........
	7	2.06667	7.53507E-002	7.52357E-002	5.74071E-004	...........
	8	2.325	7.51166E-002	7.53091E-002	5.75871E-004	...........
	9	2.58333	7.51244E-002	7.49847E-002	5.77871E-004	...........
	10	2.84167	7.51872E-002	7.50737E-002	5.81204E-004	...........
	11	3.1	7.51868E-002	7.49978E-002	5.76604E-004	...........
	12	3.35833	7.51318E-002	7.49417E-002	5.77904E-004	...........
	13	3.61667	7.50646E-002	7.49139E-002	5.75504E-004	...........
	14	3.875	7.50053E-002	7.48687E-002	5.76238E-004	...........
	15	4.13333	7.49557E-002	7.48259E-002	5.81737E-004	...........
	16	4.39167	7.49128E-002	7.48201E-002	5.79971E-004	...........
	17	4.65	7.48747E-002	7.47728E-002	5.79671E-004	...........
	18	4.90833	7.48391E-002	7.46468E-002	5.81137E-004	...........
	19	5.16667	7.47950E-002	7.44568E-002	5.78504E-004	...........
	20	5.425	7.47247E-002	7.43216E-002	5.77704E-004	...........
	21	5.68333	7.46339E-002	7.49760E-002	5.75404E-004	...........
	22	5.94167	7.46107E-002	7.64628E-002	5.75771E-004	...........
	23	6.2	7.48550E-002	7.90596E-002	5.73404E-004	...........
	24	6.45833	7.56190E-002	8.19715E-002	5.76871E-004	...........
	25	6.71667	7.70103E-002	8.17503E-002	5.78204E-004	...........
	26	6.975	7.87392E-002	8.07805E-002	5.81104E-004	...........
	27	7.23333	8.01699E-002	7.94913E-002	5.79571E-004	...........
	28	7.49167	8.07962E-002	7.90291E-002	5.78037E-004	...........
	29	7.75	8.06040E-002	7.80496E-002	5.74937E-004	...........
	30	8.00833	7.99238E-002	7.73910E-002	5.75104E-004	...........
	31	8.26667	7.91160E-002	7.84719E-002	5.77304E-004	...........
	32	8.525	7.84915E-002	7.94619E-002	5.76738E-004	...........
	33	8.78333	7.82531E-002	7.75901E-002	5.74337E-004	...........
	34	9.04167	7.82726E-002	7.67317E-002	5.72371E-004	...........
	35	9.3	7.81710E-002	7.65295E-002	5.69104E-004	...........
	36	9.5583	7.77867E-002	7.73791E-002	5.70638E-004	...........
	37	9.8167	7.73405E-002	7.71912E-002	5.69504E-004	...........
	38	10.075	7.71262E-002	7.89685E-002	5.68771E-004	...........
EOC	QUANT	0.0771262	Open Circuit (V)
PSTATMODEL	IQUANT	4	Pstat Model
PSTATSECTION	LABEL	REF600-11020	Pstat Section
PSTATSERIALNO	LABEL	11020	Pstat Serial Number
CTRLMODE	IQUANT	1	Control Mode
IESTAB	IQUANT	0	I/E Stability
CASPEED	IQUANT	1	Control Amp Speed
CONVENTION	IQUANT	1	Current Convention
ICHRANGE	IQUANT	2	Ich Range
ICHRANGEMODE	TOGGLE	F	Ich Auto Range
ICHOFFSETENABLE	TOGGLE	T	Ich Offset Enable
ICHOFFSET	QUANT	0	Ich Offset (V)
ICHFILTER	IQUANT	3	Ich Filter
VCHRANGE	IQUANT	2	Vch Range
VCHRANGEMODE	TOGGLE	F	Vch Auto Range
VCHOFFSETENABLE	TOGGLE	T	Vch Offset Enable
VCHOFFSET	QUANT	0	Vch Offset (V)
VCHFILTER	IQUANT	3	Vch Filter
ACHRANGE	IQUANT	2	Ach Range
ACHOFFSETENABLE	TOGGLE	F	Ach Offset Enable
ACHOFFSET	QUANT	0	Ach Offset (V)
ACHFILTER	IQUANT	3	Ach Filter
IERANGELOWERLIMIT	IQUANT	1	I/E Range Lower Limit
IERANGEMODE	TOGGLE	F	I/E AutoRange
IERANGE	IQUANT	8	I/E Range
POSFEEDENABLE	TOGGLE	F	Positive Feedback IR Comp
POSFEEDRESISTANCE	QUANT	0	Positive Feedback Resistance (ohm)
ACHSELECT	IQUANT	0	Ach Select
CABLEID	IQUANT	14	Cable ID
DCCALDATE	LABEL	1/27/2020	DC Calibration Date
ACCALDATE	LABEL	1/27/2020	AC Calibration Date
THERMOSELECT	IQUANT	1	Thermo Select
FRAMEWORKVERSION	QUANT	6.33	Framework Version
INSTRUMENTVERSION	LABEL	3.50	Instrument Version
ZCURVE	TABLE
	Pt	Time	Freq	Zreal	Zimag	Zsig	Zmod	Zphz	Idc	Vdc	IERange
	#	s	Hz	ohm	ohm	V	ohm	°	A	V	#
	0	2	1000078	2331.474	-1685.359	1	2876.84	-35.86215	5.834966E-006	0.0790839	8
	1	2	794390.6	2670.995	-1634.168	1	3131.249	-31.45913	9.183798E-007	0.0784288	8
	2	2	630984.4	2985.981	-1537.145	1	3358.407	-27.23883	-5.616918E-006	0.0802304	8
	3	2	501234.4	3255.858	-1421.262	1	3552.548	-23.58244	1.153357E-006	0.0789299	8
	4	3	398109.4	3456.256	-1248.44	1	3674.821	-19.8603	2.63597E-006	0.0783469	8
	5	3	316265.6	3637.614	-1119.361	1	3805.944	-17.1041	-6.62326E-007	0.0789288	8
	6	3	251203.1	3739.071	-978.962	1	3865.102	-14.67182	-1.17367E-006	0.0789613	8
	7	4	199546.9	3873.316	-865.9888	1	3968.944	-12.60282	6.416805E-007	0.0786108	8
	8	4	158578.1	3946.811	-781.1205	1	4023.365	-11.19484	4.099311E-006	0.0781066	8
	9	4	125953.1	4026.837	-666.8603	1	4081.681	-9.40307	5.993832E-007	0.0771914	7
	10	5	100078.1	4083.953	-612.076	1	4129.565	-8.523672	3.067995E-008	0.0787936	7
	11	5	79453.13	4128.931	-589.4362	1	4170.792	-8.124512	-8.239426E-009	0.0788557	7
	12	5	63140.62	4175.709	-583.8846	1	4216.334	-7.959992	-4.44834E-008	0.0788427	7
	13	6	50203.12	4222.9	-593.3696	1	4264.384	-7.998399	5.828685E-008	0.0788044	7
	14	6	39890.62	4273.796	-619.8339	1	4318.51	-8.252138	5.909476E-008	0.0788027	7
	15	6	31640.63	4328.173	-661.6862	1	4378.459	-8.692015	4.427927E-009	0.0787351	7
	16	7	25171.88	4387.865	-720.0531	1	4446.553	-9.319236	8.325744E-008	0.0786399	7
	17	7	20015.62	4453.9	-795.8001	1	4524.437	-10.13042	2.923444E-008	0.0787057	7
	18	7	15890.62	4530.296	-889.3584	1	4616.767	-11.10669	-8.514434E-009	0.0788468	7
	19	8	12609.37	4616.77	-1003.536	1	4724.579	-12.26348	-2.135527E-008	0.0788056	7
	20	8	10078.13	4711.013	-1134.818	1	4845.767	-13.54374	-2.843905E-008	0.0789061	7
	21	8	8015.625	4823.388	-1294.268	1	4994.017	-15.02044	-1.390583E-008	0.0788442	7
	22	9	6328.125	4948.805	-1487.097	1	5167.411	-16.72532	5.322521E-008	0.078647	7
	23	9	5015.625	5092.604	-1713.22	1	5373.056	-18.59363	3.08081E-008	0.0786997	7
	24	9	3984.375	5254.808	-1972.022	1	5612.653	-20.57009	-1.939875E-008	0.0789279	7
	25	9	3170.956	5431.245	-2281.708	1	5891.062	-22.78765	-1.556698E-008	0.0787743	7
	26	10	2527.573	5633.019	-2635.264	1	6218.964	-25.07134	5.596852E-009	0.0787177	7
	27	10	1976.103	5879.455	-3094.485	1	6644.082	-27.7588	-1.281885E-008	0.0788378	7
	28	10	1577.524	6138.122	-3594.426	1	7113.117	-30.35283	-3.725969E-008	0.0788468	7
	29	11	1265.625	6416.048	-4171.807	1	7653.081	-33.03251	-7.611901E-009	0.0788297	7
	30	11	998.264	6756.154	-4912.658	1	8353.432	-36.02234	6.064758E-009	0.0788073	7
	31	11	796.875	7121.876	-5745.879	1	9150.751	-38.89634	-3.62955E-008	0.0788373	7
	32	12	627.7902	7564.555	-6811.649	1	10179.44	-42.00206	1.777964E-008	0.0784779	6
	33	12	505.5147	8018.707	-7978.319	1	11311.64	-44.85535	1.028674E-009	0.078834	6
	34	12	397.9953	8581.965	-9525.5	1	12821.29	-47.98286	1.363125E-009	0.0787918	6
	35	13	315.5048	9213.399	-11352.1	1	14620.43	-50.93711	4.437996E-010	0.0787914	6
	36	13	252.4038	9910.66	-13472.29	1	16724.95	-53.66057	7.632203E-010	0.0787867	6
	37	13	198.6229	10779.76	-16247.71	1	19498.5	-56.43718	8.196773E-010	0.0787847	6
	38	14	158.3615	11749.84	-19439.55	1	22714.64	-58.84999	3.808034E-010	0.0787876	6
	39	14	125.558	12925.31	-23428.76	1	26757.62	-61.1151	7.496757E-010	0.0787851	6
	40	14	100.4464	14295.47	-28032.97	1	31467.57	-62.9806	7.792977E-010	0.0787815	6
	41	15	79.00281	16149.63	-34151.56	1	37777.5	-64.69141	1.276048E-009	0.0787795	6
	42	15	63.3446	17578.26	-41044.87	1	44650.6	-66.81603	1.21453E-009	0.0787825	6
	43	15	49.86702	20346.38	-49861.8	1	53853.27	-67.80181	1.389865E-009	0.0787799	6
	44	16	39.72458	23868.57	-60186.45	1	64746.56	-68.36786	1.051149E-009	0.0787826	6
	45	16	31.6723	27916.74	-72394.59	1	77590.73	-68.9124	1.182009E-009	0.0787798	6
	46	16	24.93351	32814.49	-88118.77	1	94030.36	-69.57521	5.492503E-010	0.078782	6
	47	17	19.86229	38749.6	-106206.2	1	113054.4	-69.95538	-7.513079E-010	0.0787781	5
	48	17	15.83615	46565.64	-126428.5	1	134731.3	-69.78045	-7.748229E-010	0.0787732	5
	49	17	12.40079	56643.09	-154574.2	1	164625.7	-69.87485	1.209313E-009	0.0787745	5
	50	18	9.93114	69301.75	-186574.3	1	199029.4	-69.62283	1.323801E-010	0.0787733	5
	51	18	7.944915	84968.39	-222619.6	1	238283.7	-69.10938	-4.834498E-010	0.0787818	5
	52	19	6.317385	106606.3	-265806.2	1	286387.5	-68.14587	-2.498216E-010	0.0787941	5
	53	20	5.008013	134242.5	-316703	1	343979.5	-67.02912	2.892223E-011	0.078779	5
	54	21	3.945707	171711.5	-375859.3	1	413225.2	-65.44669	1.175585E-010	0.0787707	5
	55	22	3.158693	213851.9	-439281.5	1	488570.2	-64.04216	2.415925E-010	0.0787817	5
	56	24	2.504006	268743.6	-510371.6	1	576803.5	-62.2303	1.030412E-010	0.0787828	5
	57	25	1.998082	331764.1	-586434	1	673774.6	-60.5018	-1.525044E-011	0.0787425	5
	58	27	1.584686	407344.1	-667270.6	1	781779.6	-58.59747	8.123642E-011	0.0787848	5
	59	29	1.266892	492316.4	-752927.7	1	899597.4	-56.82056	1.489116E-010	0.0788078	5
	60	31	0.999041	588622.4	-852894.3	1	1036294	-55.38862	2.007173E-010	0.0787517	4
