EXPLAIN
TAG	EISPOT
TITLE	LABEL	Potentiostatic EIS	Test &Identifier
DATE	LABEL	1/7/2020	Date
TIME	LABEL	17:33:54	Time
NOTES	NOTES	5	&Notes...
	
	
	
	
	
PSTAT	PSTAT	REF600-11020	Potentiostat
VDC	POTEN	0.00000E+000	T	DC &Voltage (V)
FREQINIT	QUANT	1.00000E+006	Initial Fre&q. (Hz)
FREQFINAL	QUANT	1.00000E+000	Final Fre&q. (Hz)
PTSPERDEC	QUANT	1.00000E+001	Points/&decade
VAC	QUANT	2.50000E+001	AC &Voltage (mV rms)
AREA	QUANT	1.00000E-001	&Area (cm^2)
CONDIT	TWOPARAM	T	5.00000E+000	0.00000E+000	Conditionin&g	Time(s)	E(V)
DELAY	TWOPARAM	T	5.00000E+000	0.00000E+000	Init. De&lay	Time(s)	Stab.(mV/s)
SPEED	SELECTOR	0	&Optimize for:
ZGUESS	QUANT	1.00000E+003	E&stimated Z (ohms)
OCVCURVE	TABLE	19
	Pt	T	Vf	Vm	Ach	Over
	#	s	V vs. Ref.	V	V	bits
	0	0.258333	4.69899E-003	4.69899E-003	6.42280E-004	...........
	1	0.516667	4.69042E-003	4.25028E-003	6.44813E-004	...........
	2	0.775	4.64136E-003	4.01203E-003	6.39946E-004	...........
	3	1.03333	4.51493E-003	3.80892E-003	6.46113E-004	...........
	4	1.29167	4.31633E-003	3.74334E-003	6.46913E-004	...........
	5	1.55	4.09769E-003	3.69888E-003	6.41546E-004	...........
	6	1.80833	3.91537E-003	3.74858E-003	6.41446E-004	...........
	7	2.06667	3.79417E-003	3.53767E-003	6.42413E-004	...........
	8	2.325	3.71862E-003	3.50121E-003	6.36546E-004	...........
	9	2.58333	3.65274E-003	3.32103E-003	6.41846E-004	...........
	10	2.84167	3.56881E-003	3.10407E-003	6.42280E-004	...........
	11	3.1	3.45604E-003	3.05318E-003	6.41213E-004	...........
	12	3.35833	3.32278E-003	3.03348E-003	6.42046E-004	...........
	13	3.61667	3.19979E-003	3.19141E-003	6.40946E-004	...........
	14	3.875	3.11129E-003	2.53455E-003	6.41480E-004	...........
	15	4.13333	3.02297E-003	2.14507E-003	6.47946E-004	...........
	16	4.39167	2.85644E-003	1.78993E-003	6.40980E-004	...........
	17	4.65	2.58151E-003	1.67941E-003	6.47246E-004	...........
	18	4.90833	2.26394E-003	2.02695E-003	6.41313E-004	...........
EOC	QUANT	0.0022639	Open Circuit (V)
PSTATMODEL	IQUANT	4	Pstat Model
PSTATSECTION	LABEL	REF600-11020	Pstat Section
PSTATSERIALNO	LABEL	11020	Pstat Serial Number
CTRLMODE	IQUANT	1	Control Mode
IESTAB	IQUANT	0	I/E Stability
CASPEED	IQUANT	1	Control Amp Speed
CONVENTION	IQUANT	1	Current Convention
ICHRANGE	IQUANT	2	Ich Range
ICHRANGEMODE	TOGGLE	F	Ich Auto Range
ICHOFFSETENABLE	TOGGLE	T	Ich Offset Enable
ICHOFFSET	QUANT	0	Ich Offset (V)
ICHFILTER	IQUANT	3	Ich Filter
VCHRANGE	IQUANT	2	Vch Range
VCHRANGEMODE	TOGGLE	F	Vch Auto Range
VCHOFFSETENABLE	TOGGLE	T	Vch Offset Enable
VCHOFFSET	QUANT	0	Vch Offset (V)
VCHFILTER	IQUANT	3	Vch Filter
ACHRANGE	IQUANT	2	Ach Range
ACHOFFSETENABLE	TOGGLE	F	Ach Offset Enable
ACHOFFSET	QUANT	0	Ach Offset (V)
ACHFILTER	IQUANT	3	Ach Filter
IERANGELOWERLIMIT	IQUANT	1	I/E Range Lower Limit
IERANGEMODE	TOGGLE	F	I/E AutoRange
IERANGE	IQUANT	6	I/E Range
POSFEEDENABLE	TOGGLE	F	Positive Feedback IR Comp
POSFEEDRESISTANCE	QUANT	0	Positive Feedback Resistance (ohm)
ACHSELECT	IQUANT	0	Ach Select
CABLEID	IQUANT	14	Cable ID
DCCALDATE	LABEL	12/22/2019	DC Calibration Date
ACCALDATE	LABEL	12/22/2019	AC Calibration Date
THERMOSELECT	IQUANT	1	Thermo Select
FRAMEWORKVERSION	QUANT	6.33	Framework Version
INSTRUMENTVERSION	LABEL	3.50	Instrument Version
ZCURVE	TABLE
	Pt	Time	Freq	Zreal	Zimag	Zsig	Zmod	Zphz	Idc	Vdc	IERange
	#	s	Hz	ohm	ohm	V	ohm	°	A	V	#
	0	1	1000078	2305.746	-2058.367	1	3090.847	-41.75568	-1.411633E-006	0.0045838	8
	1	1	794390.6	2677.567	-2093.117	1	3398.604	-38.01558	3.924353E-006	0.0035228	8
	2	2	630984.4	3124.411	-2103.53	1	3766.534	-33.95067	3.46589E-006	0.0027416	8
	3	2	501234.4	3529.695	-2044.969	1	4079.295	-30.08635	3.594593E-006	0.0027394	8
	4	2	398109.4	3897.483	-1960.492	1	4362.786	-26.70307	4.587901E-006	0.0028399	8
	5	3	316265.6	4233.36	-1824.29	1	4609.704	-23.31275	2.225423E-006	0.0032176	8
	6	3	251203.1	4535.542	-1701.845	1	4844.318	-20.5673	3.621594E-006	0.0027783	8
	7	3	199546.9	4763.215	-1502.174	1	4994.472	-17.5037	4.824107E-007	0.0038688	8
	8	4	158578.1	4862.673	-1391.916	1	5057.966	-15.97351	5.726286E-007	0.0038616	8
	9	4	125953.1	5205.638	-1124.302	1	5325.666	-12.18741	8.381718E-007	0.0018996	7
	10	4	100078.1	5341.854	-1026.392	1	5439.567	-10.87635	-3.952798E-008	0.0039291	7
	11	4	79453.13	5455.195	-928.2155	1	5533.601	-9.65654	-4.801036E-008	0.003803	7
	12	5	63140.62	5546.19	-845.6651	1	5610.292	-8.669499	-8.39434E-008	0.0038761	7
	13	5	50203.12	5630.73	-783.0949	1	5684.924	-7.917634	-4.651334E-009	0.0038665	7
	14	5	39890.62	5698.561	-736.1603	1	5745.914	-7.360906	-1.714992E-008	0.0038914	7
	15	6	31640.63	5767.398	-706.5176	1	5810.512	-6.984048	-4.086096E-008	0.0039181	7
	16	6	25171.88	5826.644	-695.0048	1	5867.948	-6.802129	-4.084377E-008	0.0039218	7
	17	6	20015.62	5878.676	-703.8762	1	5920.665	-6.827737	-1.127426E-007	0.0040255	7
	18	7	15890.62	5939.861	-727.5567	1	5984.253	-6.983213	4.812304E-008	0.0036338	7
	19	7	12609.37	5995.431	-771.1188	1	6044.817	-7.329017	8.585369E-008	0.0035326	7
	20	8	10078.13	6050.674	-835.3819	1	6108.07	-7.860805	-3.771956E-008	0.0039108	7
	21	8	8015.625	6110.164	-933.1762	1	6181.013	-8.683414	-5.423556E-008	0.0038216	7
	22	8	6328.125	6172.113	-1050.357	1	6260.849	-9.65795	-3.994816E-009	0.0038624	7
	23	9	5015.625	6237.967	-1205.923	1	6353.462	-10.94145	1.16205E-007	0.0037968	7
	24	9	3984.375	6314.07	-1398.639	1	6467.123	-12.48999	-9.379718E-008	0.0038826	7
	25	9	3170.956	6387.304	-1652.423	1	6597.587	-14.50466	1.471781E-007	0.003535	7
	26	9	2527.573	6475.276	-1952.639	1	6763.283	-16.78084	8.540114E-008	0.0035317	7
	27	10	1976.103	6581.104	-2365.532	1	6993.33	-19.77062	-7.627513E-008	0.0039141	7
	28	10	1577.524	6703.196	-2850.491	1	7284.102	-23.03731	5.022368E-008	0.0036302	7
	29	10	1265.625	6833.923	-3390.635	1	7628.821	-26.3882	5.666097E-008	0.0037593	7
	30	11	998.264	7005.2	-4131.614	1	8132.839	-30.53178	2.470713E-007	0.003439	7
	31	11	796.875	7203.855	-4991.528	1	8764.182	-34.71796	5.642515E-008	0.003753	7
	32	11	627.7902	7452.769	-6117.088	1	9641.71	-39.37849	-2.415632E-009	0.003667	7
	33	12	505.5147	7735.055	-7360.062	1	10677.15	-43.57695	-9.148509E-009	0.0039243	6
	34	12	397.9953	8110.175	-9043.165	1	12147.17	-48.11332	4.424524E-010	0.0038002	6
	35	12	315.5048	8567.048	-11057.97	1	13988.32	-52.23363	1.331898E-009	0.0037971	6
	36	13	252.4038	9116.851	-13425.61	1	16228.49	-55.82098	8.328099E-010	0.0037925	6
	37	13	198.6229	9872.17	-16545.69	1	19267.06	-59.1771	9.408292E-010	0.0037908	6
	38	13	158.3615	10799.53	-20162.43	1	22872.54	-61.82533	9.609794E-010	0.0037925	6
	39	14	125.558	12048.06	-24661.85	1	27447.45	-63.96309	9.999994E-010	0.0037965	6
	40	14	100.4464	13643.44	-29936.9	1	32899.26	-65.49935	1.698086E-010	0.0037924	6
	41	14	79.00281	15893.02	-36820.4	1	40103.99	-66.65322	7.945957E-010	0.0037946	6
	42	15	63.3446	18725.56	-43811.65	1	47645.64	-66.85762	7.457417E-010	0.0037911	6
	43	15	49.86702	22849.03	-53544.91	1	58216.28	-66.89077	7.044959E-010	0.003787	6
	44	15	39.72458	27878.11	-64568.96	1	70330.22	-66.64738	4.04651E-010	0.0037964	6
	45	16	31.6723	34429.83	-77050.36	1	84392.95	-65.9226	1.629226E-010	0.0037946	6
	46	16	24.93351	43863.03	-91544.05	1	101510	-64.39874	7.921326E-011	0.0037939	6
	47	16	19.86229	54751	-106697.8	1	119925.4	-62.83579	-8.966534E-010	0.0037811	5
	48	17	15.83615	68797.66	-123328.4	1	141219.7	-60.84542	1.259402E-009	0.0037861	5
	49	17	12.40079	85202.76	-143018.7	1	166474.8	-59.21582	-5.34089E-010	0.0037991	5
	50	17	9.93114	101871.6	-160946.3	1	190477.1	-57.66808	9.127891E-010	0.0037904	5
	51	18	7.944915	121716	-180559	1	217752.9	-56.01583	8.323949E-010	0.0037834	5
	52	18	6.317385	141900.2	-203261	1	247892.5	-55.08041	8.368604E-010	0.0037768	5
	53	19	5.008013	164503.2	-228922	1	281898.2	-54.299	4.681298E-010	0.0037876	5
	54	20	3.945707	188456	-259406.1	1	320635.7	-54.00196	3.322761E-010	0.003789	5
	55	22	3.158693	212411	-293759.4	1	362509.3	-54.13013	9.330828E-011	0.0037826	5
	56	23	2.504006	239519.3	-336705.7	1	413207.2	-54.57344	4.477592E-010	0.0037863	5
	57	25	1.998082	268971	-387388.6	1	471609.3	-55.22705	4.197562E-010	0.003819	5
	58	26	1.584686	302687.4	-448238.3	1	540867.1	-55.96954	1.568561E-010	0.0037684	5
	59	28	1.266892	342261.8	-520533.7	1	622975.5	-56.67424	1.363369E-010	0.0037457	5
	60	31	0.999041	390212.5	-611978.9	1	725798.9	-57.47743	3.576577E-010	0.003741	5
