EXPLAIN
TAG	EISPOT
TITLE	LABEL	Potentiostatic EIS	Test &Identifier
DATE	LABEL	1/14/2020	Date
TIME	LABEL	16:01:38	Time
NOTES	NOTES	5	&Notes...
	
	
	
	
	
PSTAT	PSTAT	REF600-11020	Potentiostat
VDC	POTEN	0.00000E+000	T	DC &Voltage (V)
FREQINIT	QUANT	1.00000E+006	Initial Fre&q. (Hz)
FREQFINAL	QUANT	1.00000E+000	Final Fre&q. (Hz)
PTSPERDEC	QUANT	1.00000E+001	Points/&decade
VAC	QUANT	2.50000E+001	AC &Voltage (mV rms)
AREA	QUANT	1.00000E-001	&Area (cm^2)
CONDIT	TWOPARAM	T	5.00000E+000	0.00000E+000	Conditionin&g	Time(s)	E(V)
DELAY	TWOPARAM	T	5.00000E+000	0.00000E+000	Init. De&lay	Time(s)	Stab.(mV/s)
SPEED	SELECTOR	0	&Optimize for:
ZGUESS	QUANT	5.00000E+002	E&stimated Z (ohms)
OCVCURVE	TABLE	19
	Pt	T	Vf	Vm	Ach	Over
	#	s	V vs. Ref.	V	V	bits
	0	0.258333	7.01493E-003	7.01493E-003	6.50313E-004	...........
	1	0.516667	7.01581E-003	7.06088E-003	6.46146E-004	...........
	2	0.775	7.02264E-003	7.17955E-003	6.49046E-004	...........
	3	1.03333	7.04590E-003	7.25105E-003	6.54079E-004	...........
	4	1.29167	7.09392E-003	7.35576E-003	6.51746E-004	...........
	5	1.55	7.16510E-003	7.44893E-003	6.51546E-004	...........
	6	1.80833	7.25123E-003	7.54393E-003	6.49646E-004	...........
	7	2.06667	7.34311E-003	7.56291E-003	6.57579E-004	...........
	8	2.325	7.42681E-003	7.42638E-003	6.54379E-004	...........
	9	2.58333	7.48156E-003	7.45249E-003	6.54413E-004	...........
	10	2.84167	7.49821E-003	7.55942E-003	6.53480E-004	...........
	11	3.1	7.50032E-003	7.77484E-003	6.61946E-004	...........
	12	3.35833	7.53375E-003	8.07991E-003	6.50713E-004	...........
	13	3.61667	7.63056E-003	8.07449E-003	6.48480E-004	...........
	14	3.875	7.77539E-003	7.97834E-003	6.54446E-004	...........
	15	4.13333	7.91280E-003	8.11578E-003	6.53246E-004	...........
	16	4.39167	8.00675E-003	8.29497E-003	6.51046E-004	...........
	17	4.65	8.07816E-003	8.48356E-003	6.51913E-004	...........
	18	4.90833	8.16912E-003	8.60927E-003	6.48846E-004	...........
EOC	QUANT	0.0081691	Open Circuit (V)
PSTATMODEL	IQUANT	4	Pstat Model
PSTATSECTION	LABEL	REF600-11020	Pstat Section
PSTATSERIALNO	LABEL	11020	Pstat Serial Number
CTRLMODE	IQUANT	1	Control Mode
IESTAB	IQUANT	0	I/E Stability
CASPEED	IQUANT	1	Control Amp Speed
CONVENTION	IQUANT	1	Current Convention
ICHRANGE	IQUANT	2	Ich Range
ICHRANGEMODE	TOGGLE	F	Ich Auto Range
ICHOFFSETENABLE	TOGGLE	T	Ich Offset Enable
ICHOFFSET	QUANT	0	Ich Offset (V)
ICHFILTER	IQUANT	3	Ich Filter
VCHRANGE	IQUANT	2	Vch Range
VCHRANGEMODE	TOGGLE	F	Vch Auto Range
VCHOFFSETENABLE	TOGGLE	T	Vch Offset Enable
VCHOFFSET	QUANT	0	Vch Offset (V)
VCHFILTER	IQUANT	3	Vch Filter
ACHRANGE	IQUANT	2	Ach Range
ACHOFFSETENABLE	TOGGLE	F	Ach Offset Enable
ACHOFFSET	QUANT	0	Ach Offset (V)
ACHFILTER	IQUANT	3	Ach Filter
IERANGELOWERLIMIT	IQUANT	1	I/E Range Lower Limit
IERANGEMODE	TOGGLE	F	I/E AutoRange
IERANGE	IQUANT	7	I/E Range
POSFEEDENABLE	TOGGLE	F	Positive Feedback IR Comp
POSFEEDRESISTANCE	QUANT	0	Positive Feedback Resistance (ohm)
ACHSELECT	IQUANT	0	Ach Select
CABLEID	IQUANT	14	Cable ID
DCCALDATE	LABEL	12/22/2019	DC Calibration Date
ACCALDATE	LABEL	12/22/2019	AC Calibration Date
THERMOSELECT	IQUANT	1	Thermo Select
FRAMEWORKVERSION	QUANT	6.33	Framework Version
INSTRUMENTVERSION	LABEL	3.50	Instrument Version
ZCURVE	TABLE
	Pt	Time	Freq	Zreal	Zimag	Zsig	Zmod	Zphz	Idc	Vdc	IERange
	#	s	Hz	ohm	ohm	V	ohm	°	A	V	#
	0	1	1000078	2489.59	-1730.678	1	3032.046	-34.80572	3.664729E-007	0.0106059	8
	1	2	794390.6	2797.752	-1694.541	1	3270.915	-31.20243	-7.057786E-007	0.010338	8
	2	2	630984.4	3073.796	-1645.055	1	3486.32	-28.1551	-6.749063E-007	0.0103269	8
	3	2	501234.4	3335.078	-1589.28	1	3694.395	-25.47942	7.251836E-007	0.0098265	8
	4	3	398109.4	3581.021	-1530.136	1	3894.23	-23.13655	-7.836045E-007	0.0101232	8
	5	3	316265.6	3812.01	-1460.52	1	4082.222	-20.96365	3.030882E-006	0.0093933	8
	6	3	251203.1	4020.769	-1405.822	1	4259.451	-19.27167	-1.987621E-006	0.0102832	8
	7	3	199546.9	4238.09	-1326.541	1	4440.846	-17.38035	-3.804151E-007	0.0098983	8
	8	4	158578.1	4450.47	-1257.317	1	4624.665	-15.77569	2.159957E-006	0.0094547	8
	9	4	125953.1	4642.747	-1145.996	1	4782.092	-13.86548	-4.837765E-007	0.0110455	7
	10	4	100078.1	4782.76	-1051.203	1	4896.919	-12.39594	-2.108795E-008	0.0098094	7
	11	5	79453.13	4919.929	-978.024	1	5016.197	-11.24315	-2.132706E-008	0.009802	7
	12	5	63140.62	5037.014	-909.8409	1	5118.527	-10.23899	-2.574172E-008	0.0098474	7
	13	5	50203.12	5137.625	-853.6462	1	5208.062	-9.43384	-3.116433E-008	0.0098335	7
	14	6	39890.62	5225.983	-814.1739	1	5289.024	-8.855122	-2.533698E-008	0.0098477	7
	15	6	31640.63	5305.954	-790.1638	1	5364.467	-8.47025	3.407562E-009	0.0098582	7
	16	6	25171.88	5377.906	-785.2097	1	5434.927	-8.306864	-2.474158E-008	0.009885	7
	17	7	20015.62	5443.378	-807.658	1	5502.97	-8.439653	2.927824E-009	0.0098566	7
	18	7	15890.62	5521.937	-832.192	1	5584.293	-8.570354	3.068449E-009	0.0098494	7
	19	7	12609.37	5595.427	-888.7156	1	5665.564	-9.024841	1.039132E-008	0.0097461	7
	20	8	10078.13	5671.403	-959.324	1	5751.966	-9.60077	3.321475E-008	0.0096953	7
	21	8	8015.625	5751.838	-1057.215	1	5848.191	-10.41498	-1.007082E-008	0.0098306	7
	22	8	6328.125	5849.901	-1186.175	1	5968.949	-11.46237	4.853246E-008	0.0097725	7
	23	9	5015.625	5950.157	-1344.767	1	6100.227	-12.7352	2.304816E-009	0.0098019	7
	24	9	3984.375	6063.454	-1536.499	1	6255.102	-14.21962	-2.340839E-008	0.0098776	7
	25	9	3170.956	6185.08	-1766.175	1	6432.309	-15.93691	-1.9962E-008	0.0097897	7
	26	10	2527.573	6321.475	-2043.993	1	6643.715	-17.91815	1.718007E-009	0.0097991	7
	27	10	1976.103	6490.771	-2410.128	1	6923.787	-20.37077	-1.935174E-008	0.0097805	7
	28	10	1577.524	6667.333	-2786.901	1	7226.351	-22.68461	-2.80859E-008	0.0098219	7
	29	10	1265.625	6855.359	-3290.509	1	7604.169	-25.64058	-3.253056E-008	0.0098314	7
	30	11	998.264	7090.212	-3906.814	1	8095.326	-28.85543	5.381581E-008	0.0096756	7
	31	11	796.875	7344.818	-4621.761	1	8677.962	-32.18034	2.738807E-008	0.0097537	7
	32	11	627.7902	7659.602	-5539.368	1	9452.729	-35.87418	-3.251175E-008	0.0098306	7
	33	12	505.5147	7991.466	-6540.628	1	10326.83	-39.29867	-5.905436E-009	0.0098333	6
	34	12	397.9953	8412.155	-7877.842	1	11524.96	-43.12136	6.021983E-010	0.0097887	6
	35	12	315.5048	8887.615	-9466.616	1	12984.86	-46.80685	6.891612E-010	0.0097886	6
	36	13	252.4038	9422.67	-11323.4	1	14731.13	-50.23477	5.888349E-010	0.0097882	6
	37	13	198.6229	10105.83	-13760.37	1	17072.66	-53.70585	5.286669E-010	0.0097875	6
	38	13	158.3615	10892.15	-16582.1	1	19839.47	-56.70061	6.185244E-010	0.0097847	6
	39	14	125.558	11882.27	-20119.42	1	23366.21	-59.43445	3.987033E-010	0.0097863	6
	40	14	100.4464	13079.54	-24268.8	1	27568.99	-61.6778	5.660599E-010	0.0097837	6
	41	14	79.00281	14719.96	-29658.64	1	33110.61	-63.60421	1.658646E-010	0.0097842	6
	42	15	63.3446	16788.52	-35830.68	1	39568.82	-64.89449	4.778881E-010	0.0097834	6
	43	15	49.86702	19556.17	-43669.97	1	47848.83	-65.87634	8.173922E-010	0.0097817	6
	44	15	39.72458	23011.97	-52473.75	1	57297.86	-66.32051	6.728518E-010	0.0097872	6
	45	16	31.6723	27552.52	-62918.62	1	68686.92	-66.35104	1.259699E-009	0.0097797	6
	46	16	24.93351	33586.28	-75815.72	1	82922.02	-66.10671	-1.22591E-010	0.0097802	6
	47	16	19.86229	40951.47	-90105.27	1	98974.7	-65.55893	-9.518866E-010	0.0097761	6
	48	17	15.83615	50484.75	-106413.1	1	117781.4	-64.61929	9.120877E-010	0.0097774	5
	49	17	12.40079	62697.56	-125785.7	1	140545.5	-63.50616	-1.635355E-009	0.0097834	5
	50	17	9.93114	76487.07	-146629.9	1	165380.1	-62.45194	-1.082678E-009	0.0097739	5
	51	18	7.944915	93457.21	-169362.8	1	193437.4	-61.10936	7.082019E-010	0.0097787	5
	52	18	6.317385	113336.7	-195434.5	1	225920	-59.88962	-4.901987E-010	0.0097954	5
	53	19	5.008013	137543.9	-224639.9	1	263403.5	-58.52143	-5.047712E-010	0.0097812	5
	54	20	3.945707	165869.3	-257693	1	306460.9	-57.23181	2.559707E-010	0.009778	5
	55	21	3.158693	196543.2	-290575.5	1	350803.8	-55.92586	-3.031996E-010	0.0097851	5
	56	22	2.504006	231852.4	-329078.1	1	402551.8	-54.83335	-3.353426E-010	0.0097738	5
	57	23	1.998082	269671.7	-369434	1	457388.6	-53.87209	-3.691807E-011	0.009818	5
	58	25	1.584686	310896.8	-417771.9	1	520759.3	-53.34417	-3.519556E-011	0.0098151	5
	59	27	1.266892	354006.8	-469550.5	1	588046.4	-52.98637	-1.094978E-010	0.0097688	5
	60	29	0.999041	405024.9	-534082.5	1	670290.5	-52.8249	-1.654775E-010	0.009743	5
