EXPLAIN
TAG	EISPOT
TITLE	LABEL	Potentiostatic EIS	Test &Identifier
DATE	LABEL	1/18/2020	Date
TIME	LABEL	22:55:43	Time
NOTES	NOTES	6	&Notes...
	
	
	
	
	
	
PSTAT	PSTAT	REF600-11020	Potentiostat
VDC	POTEN	0.00000E+000	T	DC &Voltage (V)
FREQINIT	QUANT	1.00000E+006	Initial Fre&q. (Hz)
FREQFINAL	QUANT	1.00000E+000	Final Fre&q. (Hz)
PTSPERDEC	QUANT	1.00000E+001	Points/&decade
VAC	QUANT	2.50000E+001	AC &Voltage (mV rms)
AREA	QUANT	1.00000E-001	&Area (cm^2)
CONDIT	TWOPARAM	F	5.00000E+000	0.00000E+000	Conditionin&g	Time(s)	E(V)
DELAY	TWOPARAM	F	5.00000E+000	0.00000E+000	Init. De&lay	Time(s)	Stab.(mV/s)
SPEED	SELECTOR	0	&Optimize for:
ZGUESS	QUANT	5.00000E+002	E&stimated Z (ohms)
OCVCURVE	TABLE	39
	Pt	T	Vf	Vm	Ach	Over
	#	s	V vs. Ref.	V	V	bits
	0	0.258333	-1.15966E-001	-1.15966E-001	6.48080E-004	...........
	1	0.516667	-1.15959E-001	-1.15584E-001	6.52346E-004	...........
	2	0.775	-1.15915E-001	-1.15293E-001	6.54813E-004	...........
	3	1.03333	-1.15818E-001	-1.16135E-001	6.51080E-004	...........
	4	1.29167	-1.15749E-001	-1.17062E-001	6.55279E-004	...........
	5	1.55	-1.15843E-001	-1.16167E-001	6.56946E-004	...........
	6	1.80833	-1.16067E-001	-1.15428E-001	6.56879E-004	...........
	7	2.06667	-1.16178E-001	-1.14809E-001	6.51813E-004	...........
	8	2.325	-1.15999E-001	-1.14724E-001	6.57313E-004	...........
	9	2.58333	-1.15611E-001	-1.15409E-001	6.52680E-004	...........
	10	2.84167	-1.15250E-001	-1.14756E-001	6.46880E-004	...........
	11	3.1	-1.15047E-001	-1.14640E-001	6.56146E-004	...........
	12	3.35833	-1.14941E-001	-1.14604E-001	6.61646E-004	...........
	13	3.61667	-1.14839E-001	-1.14515E-001	6.59246E-004	...........
	14	3.875	-1.14733E-001	-1.14929E-001	6.52646E-004	...........
	15	4.13333	-1.14719E-001	-1.17208E-001	6.55479E-004	...........
	16	4.39167	-1.14974E-001	-1.17393E-001	6.59679E-004	...........
	17	4.65	-1.15566E-001	-1.16871E-001	6.58479E-004	...........
	18	4.90833	-1.16267E-001	-1.16784E-001	6.53313E-004	...........
	19	5.16667	-1.16746E-001	-1.16480E-001	6.57779E-004	...........
	20	5.425	-1.16884E-001	-1.16136E-001	6.58246E-004	...........
	21	5.68333	-1.16765E-001	-1.16026E-001	6.57546E-004	...........
	22	5.94167	-1.16529E-001	-1.15883E-001	6.57246E-004	...........
	23	6.2	-1.16283E-001	-1.15958E-001	6.63413E-004	...........
	24	6.45833	-1.16091E-001	-1.15684E-001	6.58579E-004	...........
	25	6.71667	-1.15954E-001	-1.15579E-001	6.51546E-004	...........
	26	6.975	-1.15840E-001	-1.15425E-001	6.56046E-004	...........
	27	7.23333	-1.15721E-001	-1.15436E-001	6.60579E-004	...........
	28	7.49167	-1.15602E-001	-1.15368E-001	6.60113E-004	...........
	29	7.75	-1.15502E-001	-1.15289E-001	6.54079E-004	...........
	30	8.00833	-1.15424E-001	-1.15232E-001	6.56813E-004	...........
	31	8.26667	-1.15359E-001	-1.15129E-001	6.58013E-004	...........
	32	8.525	-1.15294E-001	-1.15130E-001	6.58746E-004	...........
	33	8.78333	-1.15231E-001	-1.15129E-001	6.56346E-004	...........
	34	9.04167	-1.15177E-001	-1.15025E-001	6.60179E-004	...........
	35	9.3	-1.15132E-001	-1.14948E-001	6.58479E-004	...........
	36	9.5583	-1.15090E-001	-1.15099E-001	6.58146E-004	...........
	37	9.8167	-1.15054E-001	-1.15050E-001	6.64313E-004	...........
	38	10.075	-1.15040E-001	-1.15158E-001	6.58113E-004	...........
EOC	QUANT	-0.1150399	Open Circuit (V)
PSTATMODEL	IQUANT	4	Pstat Model
PSTATSECTION	LABEL	REF600-11020	Pstat Section
PSTATSERIALNO	LABEL	11020	Pstat Serial Number
CTRLMODE	IQUANT	1	Control Mode
IESTAB	IQUANT	0	I/E Stability
CASPEED	IQUANT	1	Control Amp Speed
CONVENTION	IQUANT	1	Current Convention
ICHRANGE	IQUANT	2	Ich Range
ICHRANGEMODE	TOGGLE	F	Ich Auto Range
ICHOFFSETENABLE	TOGGLE	T	Ich Offset Enable
ICHOFFSET	QUANT	0	Ich Offset (V)
ICHFILTER	IQUANT	3	Ich Filter
VCHRANGE	IQUANT	2	Vch Range
VCHRANGEMODE	TOGGLE	F	Vch Auto Range
VCHOFFSETENABLE	TOGGLE	T	Vch Offset Enable
VCHOFFSET	QUANT	0	Vch Offset (V)
VCHFILTER	IQUANT	3	Vch Filter
ACHRANGE	IQUANT	2	Ach Range
ACHOFFSETENABLE	TOGGLE	F	Ach Offset Enable
ACHOFFSET	QUANT	0	Ach Offset (V)
ACHFILTER	IQUANT	3	Ach Filter
IERANGELOWERLIMIT	IQUANT	1	I/E Range Lower Limit
IERANGEMODE	TOGGLE	F	I/E AutoRange
IERANGE	IQUANT	8	I/E Range
POSFEEDENABLE	TOGGLE	F	Positive Feedback IR Comp
POSFEEDRESISTANCE	QUANT	0	Positive Feedback Resistance (ohm)
ACHSELECT	IQUANT	0	Ach Select
CABLEID	IQUANT	14	Cable ID
DCCALDATE	LABEL	12/22/2019	DC Calibration Date
ACCALDATE	LABEL	12/22/2019	AC Calibration Date
THERMOSELECT	IQUANT	1	Thermo Select
FRAMEWORKVERSION	QUANT	6.33	Framework Version
INSTRUMENTVERSION	LABEL	3.50	Instrument Version
ZCURVE	TABLE
	Pt	Time	Freq	Zreal	Zimag	Zsig	Zmod	Zphz	Idc	Vdc	IERange
	#	s	Hz	ohm	ohm	V	ohm	°	A	V	#
	0	1	1000078	1908.704	-2810.368	1	3397.252	-55.81702	-1.353482E-006	-0.1124967	8
	1	2	794390.6	2371.579	-3179.442	1	3966.514	-53.28035	-5.404675E-007	-0.1127803	8
	2	2	630984.4	2889.215	-3530.729	1	4562.193	-50.70634	2.259751E-006	-0.1135743	8
	3	2	501234.4	3532.523	-3856.781	1	5230.055	-47.51264	-2.975802E-007	-0.1131126	8
	4	3	398109.4	4204.519	-4155.743	1	5911.698	-44.66572	1.880949E-006	-0.1136838	8
	5	3	316265.6	4948.637	-4385.492	1	6612.228	-41.54743	1.931924E-006	-0.1136688	8
	6	4	251203.1	5748.122	-4497.792	1	7298.701	-38.04248	1.529148E-006	-0.1136206	8
	7	4	199546.9	6501.126	-4611.264	1	7970.47	-35.34817	-8.442392E-007	-0.1132143	8
	8	5	158578.1	7287.108	-4556.288	1	8594.283	-32.01582	-8.798949E-007	-0.113196	8
	9	5	125953.1	8108.182	-4537.422	1	9291.438	-29.23183	3.753978E-007	-0.1141297	7
	10	5	100078.1	8789.111	-4419.997	1	9837.93	-26.69758	-5.809452E-008	-0.1133045	7
	11	6	79453.13	9452.992	-4347.745	1	10404.9	-24.69927	-5.423776E-008	-0.1132128	7
	12	6	63140.62	10067.47	-4266.702	1	10934.29	-22.96775	1.296767E-008	-0.1134604	7
	13	6	50203.12	10648.38	-4211.349	1	11450.92	-21.5784	3.679123E-008	-0.1135021	7
	14	7	39890.62	11199.82	-4171.233	1	11951.36	-20.42722	-3.955903E-008	-0.1133518	7
	15	7	31640.63	11737.48	-4176.588	1	12458.43	-19.58725	5.68849E-008	-0.1134899	7
	16	7	25171.88	12252.31	-4216.917	1	12957.68	-18.99209	-3.037887E-008	-0.1133972	7
	17	8	20015.62	12764.57	-4301.647	1	13469.91	-18.62377	-5.117983E-008	-0.1133077	7
	18	8	15890.62	13298.01	-4435.565	1	14018.25	-18.44617	5.535868E-009	-0.1133785	7
	19	8	12609.37	13864.24	-4566.109	1	14596.8	-18.229	-1.186711E-009	-0.1134742	6
	20	9	10078.13	14395.27	-4818.375	1	15180.27	-18.50639	-4.702946E-009	-0.1133564	6
	21	9	8015.625	14962.8	-5119.592	1	15814.41	-18.88863	6.751639E-009	-0.1135435	6
	22	9	6328.125	15590.14	-5512.454	1	16536.01	-19.47288	-4.570275E-009	-0.113365	6
	23	10	5015.625	16237.26	-5972.045	1	17300.69	-20.19346	1.072478E-009	-0.1133218	6
	24	10	3984.375	16932.23	-6519.993	1	18144.16	-21.05991	1.291885E-009	-0.1133496	6
	25	10	3170.956	17674.38	-7150.816	1	19066.14	-22.0276	1.24794E-008	-0.1136343	6
	26	11	2527.573	18477.04	-7891.735	1	20091.8	-23.12783	2.830363E-009	-0.1133989	6
	27	11	1976.103	19442.84	-8837.549	1	21357.12	-24.44369	-6.840401E-009	-0.1133163	6
	28	11	1577.524	20406.28	-9823.82	1	22647.82	-25.7067	1.299556E-008	-0.1136359	6
	29	11	1265.625	21466.89	-10970.24	1	24107.54	-27.06844	-1.526599E-009	-0.1134828	6
	30	12	998.264	22731.15	-12382.46	1	25884.95	-28.57869	3.355082E-009	-0.1135137	6
	31	12	796.875	24087.61	-13935.11	1	27828.04	-30.05014	-7.035736E-009	-0.1133725	6
	32	12	627.7902	25708.9	-15832.6	1	30193.02	-31.62647	-4.331139E-009	-0.1133881	6
	33	13	505.5147	27358.17	-17806.52	1	32642.64	-33.05876	1.328934E-008	-0.113641	6
	34	13	397.9953	29436.83	-20299.05	1	35757.22	-34.58937	2.257714E-010	-0.1133997	6
	35	13	315.5048	31713.87	-23065.1	1	39214.39	-36.02793	5.527403E-010	-0.1134033	6
	36	14	252.4038	34200.67	-26102.09	1	43023.31	-37.35102	5.02503E-010	-0.1134076	6
	37	14	198.6229	37189.61	-29831.46	1	47675.81	-38.73466	7.44531E-010	-0.1134114	6
	38	14	158.3615	40376.06	-33846.77	1	52686.15	-39.9727	7.797228E-010	-0.1134108	6
	39	15	125.558	43988.46	-38547.09	1	58488.14	-41.22809	6.760189E-010	-0.1134073	6
	40	15	100.4464	47740.34	-43718.01	1	64733.34	-42.48175	4.303524E-010	-0.113414	6
	41	15	79.00281	52229.06	-50116.56	1	72384.7	-43.81753	8.333436E-010	-0.1134112	6
	42	16	63.3446	57533.68	-57423.63	1	81287.13	-44.94514	4.202915E-010	-0.1134138	6
	43	16	49.86702	62586.97	-66474.51	1	91301.64	-46.72532	2.753021E-010	-0.1134129	6
	44	16	39.72458	67847.63	-76277.3	1	102085.9	-48.34734	-3.392354E-012	-0.1134084	5
	45	17	31.6723	73820.96	-88662.08	1	115371.1	-50.21889	-9.797819E-012	-0.1134152	5
	46	17	24.93351	81488.11	-104395.8	1	132434.1	-52.02551	3.732528E-010	-0.1134202	5
	47	17	19.86229	89773.36	-122634.8	1	151982.1	-53.79444	9.641948E-010	-0.1134031	5
	48	18	15.83615	98992.4	-144200.8	1	174909.6	-55.53079	-2.951341E-011	-0.1134122	5
	49	18	12.40079	114014.3	-172160	1	206490.5	-56.48517	-7.195378E-010	-0.1134105	5
	50	18	9.93114	128251.5	-203354.3	1	240419.3	-57.7612	-2.466871E-010	-0.1134157	5
	51	19	7.944915	146586.1	-239725.9	1	280991.1	-58.5553	2.87346E-010	-0.1134228	5
	52	19	6.317385	170298	-281960.1	1	329397.8	-58.8689	1.645048E-010	-0.1134252	5
	53	20	5.008013	200089.9	-331489.9	1	387197	-58.88449	-3.436177E-011	-0.1134293	5
	54	21	3.945707	237186.7	-390025.3	1	456483.6	-58.6949	1.792526E-010	-0.1134128	5
	55	23	3.158693	278990	-450466.6	1	529863.8	-58.22859	-2.383635E-011	-0.1134082	5
	56	24	2.504006	329649.8	-521848.7	1	617248	-57.71956	-8.549159E-011	-0.1134208	5
	57	26	1.998082	385862.1	-597538	1	711295.4	-57.14752	1.747162E-010	-0.1133811	5
	58	27	1.584686	448631.4	-689422.5	1	822540.9	-56.94653	-8.194551E-012	-0.1133864	5
	59	29	1.266892	516899.4	-790082.4	1	944147.9	-56.80589	8.782138E-011	-0.1134226	5
	60	32	0.999041	597773.6	-914873.7	1	1092853	-56.83961	1.094827E-010	-0.1134075	4
