EXPLAIN
TAG	EISPOT
TITLE	LABEL	Potentiostatic EIS	Test &Identifier
DATE	LABEL	1/10/2020	Date
TIME	LABEL	13:48:57	Time
NOTES	NOTES	5	&Notes...
	
	
	
	
	
PSTAT	PSTAT	REF600-11020	Potentiostat
VDC	POTEN	0.00000E+000	T	DC &Voltage (V)
FREQINIT	QUANT	1.00000E+006	Initial Fre&q. (Hz)
FREQFINAL	QUANT	1.00000E+000	Final Fre&q. (Hz)
PTSPERDEC	QUANT	1.00000E+001	Points/&decade
VAC	QUANT	2.50000E+001	AC &Voltage (mV rms)
AREA	QUANT	1.00000E-001	&Area (cm^2)
CONDIT	TWOPARAM	T	5.00000E+000	0.00000E+000	Conditionin&g	Time(s)	E(V)
DELAY	TWOPARAM	T	5.00000E+000	0.00000E+000	Init. De&lay	Time(s)	Stab.(mV/s)
SPEED	SELECTOR	0	&Optimize for:
ZGUESS	QUANT	5.00000E+002	E&stimated Z (ohms)
OCVCURVE	TABLE	19
	Pt	T	Vf	Vm	Ach	Over
	#	s	V vs. Ref.	V	V	bits
	0	0.258333	6.38154E-003	6.38154E-003	6.61046E-004	...........
	1	0.516667	6.37827E-003	6.21034E-003	6.64379E-004	...........
	2	0.775	6.35979E-003	6.13196E-003	6.64079E-004	...........
	3	1.03333	6.31213E-003	6.01960E-003	6.62613E-004	...........
	4	1.29167	6.23545E-003	5.98366E-003	6.66613E-004	...........
	5	1.55	6.14559E-003	5.90662E-003	6.69746E-004	...........
	6	1.80833	6.06063E-003	5.91807E-003	6.69879E-004	...........
	7	2.06667	5.99146E-003	5.85658E-003	6.70146E-004	...........
	8	2.325	5.93975E-003	5.82832E-003	6.71746E-004	...........
	9	2.58333	5.89979E-003	5.79672E-003	6.68213E-004	...........
	10	2.84167	5.86507E-003	5.78007E-003	6.71246E-004	...........
	11	3.1	5.83336E-003	5.75065E-003	6.66313E-004	...........
	12	3.35833	5.80530E-003	5.75785E-003	6.70746E-004	...........
	13	3.61667	5.78237E-003	5.74622E-003	6.71013E-004	...........
	14	3.875	5.76561E-003	5.73216E-003	6.69946E-004	...........
	15	4.13333	5.75300E-003	5.68467E-003	6.67613E-004	...........
	16	4.39167	5.74018E-003	5.72156E-003	6.74346E-004	...........
	17	4.65	5.72627E-003	5.69679E-003	6.67079E-004	...........
	18	4.90833	5.71523E-003	5.72856E-003	6.70479E-004	...........
EOC	QUANT	0.0057152	Open Circuit (V)
PSTATMODEL	IQUANT	4	Pstat Model
PSTATSECTION	LABEL	REF600-11020	Pstat Section
PSTATSERIALNO	LABEL	11020	Pstat Serial Number
CTRLMODE	IQUANT	1	Control Mode
IESTAB	IQUANT	0	I/E Stability
CASPEED	IQUANT	1	Control Amp Speed
CONVENTION	IQUANT	1	Current Convention
ICHRANGE	IQUANT	2	Ich Range
ICHRANGEMODE	TOGGLE	F	Ich Auto Range
ICHOFFSETENABLE	TOGGLE	T	Ich Offset Enable
ICHOFFSET	QUANT	0	Ich Offset (V)
ICHFILTER	IQUANT	3	Ich Filter
VCHRANGE	IQUANT	2	Vch Range
VCHRANGEMODE	TOGGLE	F	Vch Auto Range
VCHOFFSETENABLE	TOGGLE	T	Vch Offset Enable
VCHOFFSET	QUANT	0	Vch Offset (V)
VCHFILTER	IQUANT	3	Vch Filter
ACHRANGE	IQUANT	2	Ach Range
ACHOFFSETENABLE	TOGGLE	F	Ach Offset Enable
ACHOFFSET	QUANT	0	Ach Offset (V)
ACHFILTER	IQUANT	3	Ach Filter
IERANGELOWERLIMIT	IQUANT	1	I/E Range Lower Limit
IERANGEMODE	TOGGLE	F	I/E AutoRange
IERANGE	IQUANT	7	I/E Range
POSFEEDENABLE	TOGGLE	F	Positive Feedback IR Comp
POSFEEDRESISTANCE	QUANT	0	Positive Feedback Resistance (ohm)
ACHSELECT	IQUANT	0	Ach Select
CABLEID	IQUANT	14	Cable ID
DCCALDATE	LABEL	12/22/2019	DC Calibration Date
ACCALDATE	LABEL	12/22/2019	AC Calibration Date
THERMOSELECT	IQUANT	1	Thermo Select
FRAMEWORKVERSION	QUANT	6.33	Framework Version
INSTRUMENTVERSION	LABEL	3.50	Instrument Version
ZCURVE	TABLE
	Pt	Time	Freq	Zreal	Zimag	Zsig	Zmod	Zphz	Idc	Vdc	IERange
	#	s	Hz	ohm	ohm	V	ohm	°	A	V	#
	0	1	1000078	2014.489	-1349.913	1	2424.96	-33.82612	1.579365E-006	0.0078449	8
	1	1	794390.6	2257.652	-1317.264	1	2613.843	-30.26212	-1.595529E-006	0.0079023	8
	2	2	630984.4	2477.896	-1259.819	1	2779.768	-26.94983	-6.995985E-007	0.0079237	8
	3	2	501234.4	2678.567	-1191.771	1	2931.73	-23.98564	-2.569749E-007	0.007558	8
	4	2	398109.4	2858.012	-1118.909	1	3069.233	-21.3803	-2.298217E-006	0.0078994	8
	5	3	316265.6	3012.693	-1047.566	1	3189.626	-19.17345	1.030846E-006	0.0072078	8
	6	3	251203.1	3149.224	-983.336	1	3299.176	-17.34082	-2.920492E-006	0.0080369	8
	7	3	199546.9	3280.699	-932.0092	1	3410.517	-15.85924	-8.22335E-007	0.0076605	8
	8	4	158578.1	3385.736	-872.6451	1	3496.387	-14.45295	-2.156559E-006	0.0078159	8
	9	4	125953.1	3509.38	-810.4218	1	3601.74	-13.00337	1.53169E-008	0.007205	7
	10	4	100078.1	3592.907	-784.242	1	3677.501	-12.31312	-2.981727E-008	0.0073896	7
	11	5	79453.13	3685.673	-776.5234	1	3766.586	-11.89748	-1.362603E-008	0.0074432	7
	12	5	63140.62	3777.26	-776.8595	1	3856.321	-11.62182	1.6139E-008	0.0073431	7
	13	5	50203.12	3868.39	-786.6547	1	3947.564	-11.49462	1.653747E-008	0.0073423	7
	14	6	39890.62	3962.552	-805.7094	1	4043.635	-11.49332	-3.02658E-008	0.0073782	7
	15	6	31640.63	4059.41	-833.379	1	4144.072	-11.60138	5.272833E-008	0.0072445	7
	16	6	25171.88	4159.722	-871.5584	1	4250.047	-11.83361	-2.598242E-008	0.0073865	7
	17	6	20015.62	4262.723	-918.7575	1	4360.61	-12.16307	-6.35784E-009	0.0073784	7
	18	7	15890.62	4374.932	-976.131	1	4482.506	-12.57777	-3.444136E-008	0.0074176	7
	19	7	12609.37	4488.811	-1045.288	1	4608.91	-13.10858	-1.522937E-008	0.0074082	7
	20	7	10078.13	4602.97	-1124.772	1	4738.401	-13.73159	3.583542E-008	0.0073415	7
	21	8	8015.625	4725.182	-1222.491	1	4880.761	-14.50541	-6.675048E-009	0.0073739	7
	22	8	6328.125	4853.271	-1342.681	1	5035.577	-15.46437	-6.173444E-009	0.0073673	7
	23	8	5015.625	4984.311	-1488.415	1	5201.801	-16.62668	3.74997E-008	0.007341	7
	24	9	3984.375	5123.235	-1658.806	1	5385.088	-17.94097	-1.307595E-008	0.007339	7
	25	9	3170.956	5255.588	-1873.703	1	5579.603	-19.62198	-1.414952E-008	0.0073394	7
	26	9	2527.573	5394.592	-2133.506	1	5801.162	-21.57829	1.718286E-008	0.0073262	7
	27	10	1976.103	5552.284	-2486.5	1	6083.629	-24.12445	-7.498606E-009	0.0073658	7
	28	10	1577.524	5703.942	-2873.752	1	6386.971	-26.73981	-2.54335E-008	0.0073778	7
	29	10	1265.625	5858.357	-3370.462	1	6758.725	-29.91291	-3.272341E-008	0.007384	7
	30	11	998.264	6038.907	-4026.334	1	7258.083	-33.69267	3.776519E-008	0.0073336	7
	31	11	796.875	6232.683	-4793.997	1	7863.125	-37.56643	-6.108998E-009	0.0073655	7
	32	11	627.7902	6473.106	-5800.336	1	8691.662	-41.86246	2.153386E-009	0.0072876	7
	33	12	505.5147	6722.627	-6936.062	1	9659.33	-45.89525	-5.743948E-009	0.0073579	7
	34	12	397.9953	7046.757	-8482.743	1	11027.86	-50.28302	1.304025E-009	0.0073349	6
	35	12	315.5048	7426.768	-10337.88	1	12729.04	-54.3064	1.15781E-009	0.0073413	6
	36	13	252.4038	7872.707	-12530.94	1	14798.79	-57.86044	1.087726E-009	0.0073367	6
	37	13	198.6229	8464.244	-15430.1	1	17599.19	-61.25285	5.005441E-010	0.0073375	6
	38	13	158.3615	9145.74	-18799.16	1	20905.81	-64.0572	1.140019E-009	0.007335	6
	39	14	125.558	10037.12	-23042.88	1	25134	-66.4628	9.361033E-010	0.0073351	6
	40	14	100.4464	11070.78	-28019.53	1	30127.34	-68.44057	6.622492E-011	0.0073268	6
	41	14	79.00281	12540.58	-34520.75	1	36728.04	-70.0351	2.328047E-010	0.007335	6
	42	15	63.3446	14507.55	-42377.02	1	44791.53	-71.10162	8.973219E-010	0.0073306	6
	43	15	49.86702	16790.04	-52116.96	1	54754.76	-72.1431	1.184633E-009	0.0073312	6
	44	15	39.72458	19741.25	-63027.05	1	66046.4	-72.60847	6.298752E-010	0.0073363	6
	45	16	31.6723	23437.09	-76437.96	1	79950.35	-72.95363	6.615133E-010	0.0073373	6
	46	16	24.93351	28711.73	-94077.63	1	98361.4	-73.02824	6.509112E-010	0.0073291	6
	47	16	19.86229	35360.89	-114133	1	119485.3	-72.78588	-2.435326E-011	0.0073296	5
	48	17	15.83615	42238.9	-137669.5	1	144003.5	-72.94326	-6.558642E-010	0.0073339	5
	49	17	12.40079	54305.77	-169194.4	1	177696	-72.2051	6.36293E-010	0.0073398	5
	50	17	9.93114	70459.46	-201497.1	1	213461.1	-70.7263	5.441816E-010	0.0073323	5
	51	18	7.944915	89148.8	-240206.1	1	256215.7	-69.63837	3.306589E-010	0.0073373	5
	52	18	6.317385	113619.1	-286026.7	1	307767	-68.33542	2.16917E-010	0.007334	5
	53	19	5.008013	145277.6	-339695.2	1	369456.9	-66.84503	3.900812E-010	0.0073395	5
	54	20	3.945707	186788.8	-399314.4	1	440842.5	-64.93104	4.09162E-011	0.00732	5
	55	22	3.158693	235456	-462901.9	1	519343.5	-63.03975	7.742025E-011	0.0073132	5
	56	23	2.504006	295839.3	-534407.4	1	610829.1	-61.0318	2.361047E-010	0.0073168	5
	57	25	1.998082	363678.7	-606663.3	1	707320.7	-59.05842	2.831676E-011	0.0072876	5
	58	26	1.584686	443658.4	-688384.1	1	818966.1	-57.19852	-3.678838E-011	0.0072729	5
	59	28	1.266892	527617.6	-770890.4	1	934158.6	-55.61124	-4.867807E-012	0.0073038	5
	60	31	0.999041	627428.6	-865685.1	1	1069148	-54.06627	-1.959663E-011	0.007377	4
