EXPLAIN
TAG	EISPOT
TITLE	LABEL	Potentiostatic EIS	Test &Identifier
DATE	LABEL	3/9/2020	Date
TIME	LABEL	21:13:42	Time
NOTES	NOTES	1	&Notes...
	
PSTAT	PSTAT	REF600-11020	Potentiostat
VDC	POTEN	0.00000E+000	T	DC &Voltage (V)
FREQINIT	QUANT	1.00000E+006	Initial Fre&q. (Hz)
FREQFINAL	QUANT	1.00000E+000	Final Fre&q. (Hz)
PTSPERDEC	QUANT	1.00000E+001	Points/&decade
VAC	QUANT	2.50000E+001	AC &Voltage (mV rms)
AREA	QUANT	4.00000E-005	&Area (cm^2)
CONDIT	TWOPARAM	F	5.00000E+000	0.00000E+000	Conditionin&g	Time(s)	E(V)
DELAY	TWOPARAM	T	3.00000E+000	0.00000E+000	Init. De&lay	Time(s)	Stab.(mV/s)
SPEED	SELECTOR	0	&Optimize for:
ZGUESS	QUANT	1.00000E+003	E&stimated Z (ohms)
OCVCURVE	TABLE	12
	Pt	T	Vf	Vm	Ach	Over
	#	s	V vs. Ref.	V	V	bits
	0	0.258333	4.35178E-002	4.35178E-002	5.77530E-004	...........
	1	0.516667	4.35176E-002	4.35081E-002	5.77630E-004	...........
	2	0.775	4.35165E-002	4.35001E-002	5.75530E-004	...........
	3	1.03333	4.35134E-002	4.34901E-002	5.76663E-004	...........
	4	1.29167	4.35078E-002	4.34835E-002	5.76297E-004	...........
	5	1.55	4.35004E-002	4.34753E-002	5.79297E-004	...........
	6	1.80833	4.34922E-002	4.34664E-002	5.76963E-004	...........
	7	2.06667	4.34839E-002	4.34574E-002	5.77663E-004	...........
	8	2.325	4.34754E-002	4.34482E-002	5.78697E-004	...........
	9	2.58333	4.34668E-002	4.34403E-002	5.76197E-004	...........
	10	2.84167	4.34581E-002	4.34335E-002	5.75663E-004	...........
	11	3.1	4.34496E-002	4.34217E-002	5.78197E-004	...........
EOC	QUANT	0.0434496	Open Circuit (V)
PSTATMODEL	IQUANT	4	Pstat Model
PSTATSECTION	LABEL	REF600-11020	Pstat Section
PSTATSERIALNO	LABEL	11020	Pstat Serial Number
CTRLMODE	IQUANT	1	Control Mode
IESTAB	IQUANT	0	I/E Stability
CASPEED	IQUANT	1	Control Amp Speed
CONVENTION	IQUANT	1	Current Convention
ICHRANGE	IQUANT	2	Ich Range
ICHRANGEMODE	TOGGLE	F	Ich Auto Range
ICHOFFSETENABLE	TOGGLE	T	Ich Offset Enable
ICHOFFSET	QUANT	0	Ich Offset (V)
ICHFILTER	IQUANT	3	Ich Filter
VCHRANGE	IQUANT	2	Vch Range
VCHRANGEMODE	TOGGLE	F	Vch Auto Range
VCHOFFSETENABLE	TOGGLE	T	Vch Offset Enable
VCHOFFSET	QUANT	0	Vch Offset (V)
VCHFILTER	IQUANT	3	Vch Filter
ACHRANGE	IQUANT	2	Ach Range
ACHOFFSETENABLE	TOGGLE	F	Ach Offset Enable
ACHOFFSET	QUANT	0	Ach Offset (V)
ACHFILTER	IQUANT	3	Ach Filter
IERANGELOWERLIMIT	IQUANT	1	I/E Range Lower Limit
IERANGEMODE	TOGGLE	F	I/E AutoRange
IERANGE	IQUANT	7	I/E Range
POSFEEDENABLE	TOGGLE	F	Positive Feedback IR Comp
POSFEEDRESISTANCE	QUANT	0	Positive Feedback Resistance (ohm)
ACHSELECT	IQUANT	0	Ach Select
CABLEID	IQUANT	14	Cable ID
DCCALDATE	LABEL	2/27/2020	DC Calibration Date
ACCALDATE	LABEL	2/27/2020	AC Calibration Date
THERMOSELECT	IQUANT	1	Thermo Select
FRAMEWORKVERSION	QUANT	6.33	Framework Version
INSTRUMENTVERSION	LABEL	3.50	Instrument Version
ZCURVE	TABLE
	Pt	Time	Freq	Zreal	Zimag	Zsig	Zmod	Zphz	Idc	Vdc	IERange
	#	s	Hz	ohm	ohm	V	ohm	°	A	V	#
	0	1	1000078	1680.675	-1190.485	1	2059.593	-35.31137	-2.181785E-008	0.0457728	8
	1	1	794390.6	1877.626	-1225.296	1	2242.06	-33.12755	5.250209E-008	0.0454374	8
	2	1	630984.4	2077.001	-1250.424	1	2424.355	-31.04934	2.964907E-008	0.0452899	8
	3	2	501234.4	2279.785	-1269.072	1	2609.207	-29.10307	4.590918E-008	0.0452127	8
	4	2	398109.4	2480.914	-1281.211	1	2792.21	-27.31306	3.078796E-008	0.045159	8
	5	2	316265.6	2676.664	-1288.815	1	2970.787	-25.71083	4.249125E-008	0.0451378	8
	6	3	251203.1	2874.374	-1292.078	1	3151.426	-24.20469	4.246399E-008	0.0451305	8
	7	3	199546.9	3069.587	-1291.231	1	3330.112	-22.8142	3.95241E-008	0.0451307	8
	8	3	158578.1	3260.354	-1287.572	1	3505.388	-21.54994	5.005571E-008	0.0451408	8
	9	4	125953.1	3493.702	-1223.08	1	3701.604	-19.2942	5.974231E-010	0.0450795	7
	10	4	100078.1	3663.671	-1222.922	1	3862.386	-18.45885	2.210595E-009	0.0450709	7
	11	4	79453.13	3845.664	-1234.605	1	4038.983	-17.79862	2.112149E-009	0.0450611	7
	12	5	63140.62	4027.122	-1243.873	1	4214.846	-17.16455	2.263748E-009	0.0450624	7
	13	5	50203.12	4208.353	-1250.536	1	4390.225	-16.54962	1.174562E-009	0.0450499	7
	14	5	39890.62	4390.915	-1257.799	1	4567.515	-15.98462	1.507416E-009	0.0450521	7
	15	5	31640.63	4574.597	-1266.109	1	4746.575	-15.47046	2.209099E-009	0.0450611	7
	16	6	25171.88	4755.171	-1273.787	1	4922.823	-14.99599	3.437428E-009	0.0450655	7
	17	6	20015.62	4933.821	-1282.035	1	5097.667	-14.56596	1.562164E-009	0.0450564	7
	18	6	15890.62	5111.049	-1293.51	1	5272.19	-14.20227	2.226372E-009	0.0450569	7
	19	7	12609.37	5287.097	-1310.739	1	5447.148	-13.92363	2.417036E-009	0.0450556	7
	20	7	10078.13	5453.146	-1333.174	1	5613.748	-13.73808	2.451429E-009	0.0450533	7
	21	7	8015.625	5619.481	-1365.759	1	5783.067	-13.66032	1.618506E-009	0.0450407	7
	22	8	6328.125	5789.462	-1412.967	1	5959.392	-13.7154	1.806042E-009	0.0450487	7
	23	8	5015.625	5956.791	-1476.627	1	6137.083	-13.92239	3.131317E-009	0.0450472	7
	24	8	3984.375	6121.146	-1559.333	1	6316.64	-14.29185	2.676584E-009	0.0450502	7
	25	9	3170.956	6279.909	-1661.982	1	6496.11	-14.82353	2.832842E-009	0.0450479	7
	26	9	2527.573	6443.896	-1796.437	1	6689.617	-15.57747	2.644702E-009	0.0450472	7
	27	9	1976.103	6620.722	-1982.084	1	6911.05	-16.66643	3.07005E-009	0.0450437	7
	28	10	1577.524	6782.815	-2195.355	1	7129.247	-17.93492	3.020988E-009	0.0450378	7
	29	10	1265.625	6951.749	-2462.974	1	7375.164	-19.50901	3.236021E-009	0.045044	7
	30	10	998.264	7129.711	-2819.148	1	7666.836	-21.57426	3.239924E-009	0.0450429	7
	31	11	796.875	7315.639	-3248.194	1	8004.333	-23.94155	4.406972E-009	0.0450442	7
	32	11	627.7902	7522.814	-3813.743	1	8434.298	-26.88305	4.342322E-009	0.0450459	7
	33	11	505.5147	7727.651	-4447.405	1	8916.053	-29.92122	2.991149E-009	0.0450482	7
	34	12	397.9953	7988.909	-5317.395	1	9596.74	-33.64762	7.171115E-010	0.0451143	6
	35	12	315.5048	8275.532	-6375.083	1	10446.34	-37.60897	5.567144E-010	0.0451117	6
	36	12	252.4038	8601.893	-7628.11	1	11496.98	-41.56643	6.753563E-010	0.0451098	6
	37	13	198.6229	9032.56	-9289.437	1	12956.88	-45.80324	6.034382E-010	0.0451104	6
	38	13	158.3615	9542.16	-11223.98	1	14731.96	-49.6302	4.673836E-010	0.045109	6
	39	13	125.558	10206.43	-13647.27	1	17041.7	-53.20816	6.682613E-010	0.0451029	6
	40	13	100.4464	11027.46	-16477.78	1	19827.3	-56.2083	5.265492E-010	0.0451083	6
	41	14	79.00281	12184.87	-20172.91	1	23567.29	-58.86712	2.953932E-010	0.0451044	6
	42	14	63.3446	13574.61	-24261.46	1	27800.88	-60.77242	2.143091E-010	0.0451052	6
	43	15	49.86702	15543.13	-29551.37	1	33389.7	-62.25698	2.825204E-010	0.0451102	6
	44	15	39.72458	17988.37	-35520.27	1	39815.46	-63.14119	2.750937E-010	0.0451075	6
	45	15	31.6723	21118.66	-42486.35	1	47445.63	-63.56945	3.966442E-010	0.0451048	6
	46	16	24.93351	25343.53	-51050.21	1	56994.9	-63.59821	-4.567379E-010	0.0451055	6
	47	16	19.86229	30363.39	-60467.02	1	67662.37	-63.33658	-2.192425E-009	0.0450997	6
	48	16	15.83615	36609.29	-71122.12	1	79991.23	-62.76337	2.273884E-009	0.0451098	6
	49	16	12.40079	44899.59	-84142.1	1	95372.3	-61.9149	1.043336E-009	0.0451062	6
	50	17	9.93114	54007.32	-97300.8	1	111284.5	-60.9673	1.53968E-009	0.0451078	5
	51	17	7.944915	64383.23	-112133.6	1	129302.5	-60.13705	1.606172E-009	0.0451078	5
	52	18	6.317385	77178.6	-129184.6	1	150483.2	-59.14469	-5.204748E-010	0.0451243	5
	53	18	5.008013	91934.87	-148235.3	1	174429.7	-58.19299	-1.418945E-010	0.0451163	5
	54	19	3.945707	108341.4	-170051.4	1	201631.7	-57.49839	5.238027E-010	0.0451132	5
	55	20	3.158693	125414.8	-192877.4	1	230066.4	-56.96685	-1.010058E-010	0.0451198	5
	56	21	2.504006	143918.5	-220531.5	1	263337.5	-56.8716	-1.577138E-010	0.0451081	5
	57	22	1.998082	162954.4	-251438.6	1	299625.6	-57.0532	2.131966E-010	0.045146	5
	58	24	1.584686	182814.2	-290749.7	1	343447.8	-57.83961	1.423044E-010	0.0451491	5
	59	26	1.266892	203029.8	-335829.2	1	392431.4	-58.8444	4.074131E-011	0.0451059	5
	60	28	0.999041	227178	-395187.9	1	455832.6	-60.1071	9.552195E-012	0.0450762	5
