EXPLAIN
TAG	EISPOT
TITLE	LABEL	Potentiostatic EIS	Test &Identifier
DATE	LABEL	1/21/2020	Date
TIME	LABEL	16:19:22	Time
NOTES	NOTES	6	&Notes...
	
	
	
	
	
	
PSTAT	PSTAT	REF600-11020	Potentiostat
VDC	POTEN	0.00000E+000	T	DC &Voltage (V)
FREQINIT	QUANT	1.00000E+006	Initial Fre&q. (Hz)
FREQFINAL	QUANT	1.00000E+000	Final Fre&q. (Hz)
PTSPERDEC	QUANT	1.00000E+001	Points/&decade
VAC	QUANT	2.50000E+001	AC &Voltage (mV rms)
AREA	QUANT	1.00000E-001	&Area (cm^2)
CONDIT	TWOPARAM	F	5.00000E+000	0.00000E+000	Conditionin&g	Time(s)	E(V)
DELAY	TWOPARAM	F	5.00000E+000	0.00000E+000	Init. De&lay	Time(s)	Stab.(mV/s)
SPEED	SELECTOR	0	&Optimize for:
ZGUESS	QUANT	5.00000E+002	E&stimated Z (ohms)
OCVCURVE	TABLE	39
	Pt	T	Vf	Vm	Ach	Over
	#	s	V vs. Ref.	V	V	bits
	0	0.258333	1.56324E-003	1.56324E-003	6.00247E-004	...........
	1	0.516667	1.56261E-003	1.53067E-003	5.87081E-004	...........
	2	0.775	1.56189E-003	1.66194E-003	5.91114E-004	...........
	3	1.03333	1.56839E-003	1.69644E-003	6.02714E-004	...........
	4	1.29167	1.59298E-003	1.76326E-003	6.00180E-004	...........
	5	1.55	1.63721E-003	1.80506E-003	5.91914E-004	...........
	6	1.80833	1.69221E-003	1.86602E-003	5.95047E-004	...........
	7	2.06667	1.74818E-003	1.85811E-003	6.02314E-004	...........
	8	2.325	1.79781E-003	1.89315E-003	5.97780E-004	...........
	9	2.58333	1.83651E-003	1.89780E-003	5.89181E-004	...........
	10	2.84167	1.86403E-003	1.90606E-003	5.98747E-004	...........
	11	3.1	1.88292E-003	1.91068E-003	5.98547E-004	...........
	12	3.35833	1.89576E-003	1.92200E-003	5.99480E-004	...........
	13	3.61667	1.90502E-003	1.92973E-003	5.95280E-004	...........
	14	3.875	1.91287E-003	1.93230E-003	5.99314E-004	...........
	15	4.13333	1.91978E-003	1.91731E-003	6.03880E-004	...........
	16	4.39167	1.92824E-003	2.12826E-003	5.92580E-004	...........
	17	4.65	1.94997E-003	2.14002E-003	5.94480E-004	...........
	18	4.90833	1.99451E-003	2.09371E-003	6.05147E-004	...........
	19	5.16667	2.04776E-003	2.05967E-003	6.00214E-004	...........
	20	5.425	2.08272E-003	2.05326E-003	5.93847E-004	...........
	21	5.68333	2.08951E-003	2.06313E-003	5.97114E-004	...........
	22	5.94167	2.07996E-003	2.07355E-003	6.00947E-004	...........
	23	6.2	2.06949E-003	2.04913E-003	6.02114E-004	...........
	24	6.45833	2.06262E-003	1.99606E-003	5.88547E-004	...........
	25	6.71667	2.05329E-003	1.98224E-003	5.95014E-004	...........
	26	6.975	2.03581E-003	1.96171E-003	6.01114E-004	...........
	27	7.23333	2.01260E-003	1.97257E-003	6.04780E-004	...........
	28	7.49167	1.99119E-003	1.96918E-003	5.97514E-004	...........
	29	7.75	1.97726E-003	1.97817E-003	5.95747E-004	...........
	30	8.00833	1.97157E-003	1.97445E-003	6.08747E-004	...........
	31	8.26667	1.97169E-003	1.99547E-003	6.02614E-004	...........
	32	8.525	1.97568E-003	2.01164E-003	5.98347E-004	...........
	33	8.78333	1.98299E-003	2.00191E-003	6.08247E-004	...........
	34	9.04167	1.99887E-003	2.36710E-003	6.12313E-004	...........
	35	9.3	2.04573E-003	2.55362E-003	5.99947E-004	...........
	36	9.5583	2.15009E-003	2.65671E-003	5.96747E-004	...........
	37	9.8167	2.30814E-003	2.89646E-003	5.98880E-004	...........
	38	10.075	2.48567E-003	2.78838E-003	6.04147E-004	...........
EOC	QUANT	0.0024857	Open Circuit (V)
PSTATMODEL	IQUANT	4	Pstat Model
PSTATSECTION	LABEL	REF600-11020	Pstat Section
PSTATSERIALNO	LABEL	11020	Pstat Serial Number
CTRLMODE	IQUANT	1	Control Mode
IESTAB	IQUANT	0	I/E Stability
CASPEED	IQUANT	1	Control Amp Speed
CONVENTION	IQUANT	1	Current Convention
ICHRANGE	IQUANT	2	Ich Range
ICHRANGEMODE	TOGGLE	F	Ich Auto Range
ICHOFFSETENABLE	TOGGLE	T	Ich Offset Enable
ICHOFFSET	QUANT	0	Ich Offset (V)
ICHFILTER	IQUANT	3	Ich Filter
VCHRANGE	IQUANT	2	Vch Range
VCHRANGEMODE	TOGGLE	F	Vch Auto Range
VCHOFFSETENABLE	TOGGLE	T	Vch Offset Enable
VCHOFFSET	QUANT	0	Vch Offset (V)
VCHFILTER	IQUANT	3	Vch Filter
ACHRANGE	IQUANT	2	Ach Range
ACHOFFSETENABLE	TOGGLE	F	Ach Offset Enable
ACHOFFSET	QUANT	0	Ach Offset (V)
ACHFILTER	IQUANT	3	Ach Filter
IERANGELOWERLIMIT	IQUANT	1	I/E Range Lower Limit
IERANGEMODE	TOGGLE	F	I/E AutoRange
IERANGE	IQUANT	6	I/E Range
POSFEEDENABLE	TOGGLE	F	Positive Feedback IR Comp
POSFEEDRESISTANCE	QUANT	0	Positive Feedback Resistance (ohm)
ACHSELECT	IQUANT	0	Ach Select
CABLEID	IQUANT	14	Cable ID
DCCALDATE	LABEL	12/22/2019	DC Calibration Date
ACCALDATE	LABEL	12/22/2019	AC Calibration Date
THERMOSELECT	IQUANT	1	Thermo Select
FRAMEWORKVERSION	QUANT	6.33	Framework Version
INSTRUMENTVERSION	LABEL	3.50	Instrument Version
ZCURVE	TABLE
	Pt	Time	Freq	Zreal	Zimag	Zsig	Zmod	Zphz	Idc	Vdc	IERange
	#	s	Hz	ohm	ohm	V	ohm	°	A	V	#
	0	1	1000078	2286.759	-1820.031	1	2922.633	-38.51627	-7.477949E-007	0.0053218	8
	1	1	794390.6	2648.165	-1801.571	1	3202.879	-34.22781	4.054844E-006	0.0039879	8
	2	1	630984.4	3007.705	-1709.333	1	3459.496	-29.61035	-1.259823E-006	0.004435	8
	3	2	501234.4	3329.565	-1584.292	1	3687.274	-25.44629	3.045894E-007	0.0042347	8
	4	2	398109.4	3575.919	-1426.881	1	3850.09	-21.75323	-1.611039E-006	0.0044314	8
	5	2	316265.6	3782.708	-1258.051	1	3986.423	-18.39606	-1.516324E-007	0.0041541	8
	6	3	251203.1	3919.076	-1093.039	1	4068.647	-15.5839	6.441735E-007	0.0039762	8
	7	3	199546.9	4071.396	-974.048	1	4186.292	-13.45465	-1.483403E-006	0.0043641	8
	8	3	158578.1	4146.788	-847.699	1	4232.545	-11.5534	4.346169E-007	0.0040204	8
	9	4	125953.1	4253.373	-723.4872	1	4314.465	-9.65346	4.527631E-008	0.0039582	7
	10	4	100078.1	4299.872	-649.7516	1	4348.687	-8.592929	3.795132E-008	0.004006	7
	11	4	79453.13	4354.047	-604.7169	1	4395.84	-7.907009	-3.230982E-008	0.0041363	7
	12	5	63140.62	4402.608	-577.5807	1	4440.333	-7.473983	7.431412E-008	0.0039745	7
	13	5	50203.12	4449.264	-564.7765	1	4484.966	-7.234269	-8.067452E-009	0.0041698	7
	14	5	39890.62	4494.851	-566.6017	1	4530.421	-7.184568	3.885724E-009	0.0040707	7
	15	6	31640.63	4542.107	-584.6628	1	4579.582	-7.334815	-3.118464E-008	0.0041308	7
	16	6	25171.88	4590.518	-617.5274	1	4631.868	-7.66157	1.873308E-008	0.004072	7
	17	6	20015.62	4642.321	-666.9263	1	4689.982	-8.175304	4.197687E-008	0.004012	7
	18	6	15890.62	4698.178	-731.9481	1	4754.853	-8.855155	4.242226E-008	0.0040167	7
	19	7	12609.37	4759.768	-817.6594	1	4829.488	-9.74745	1.203061E-008	0.0040264	7
	20	7	10078.13	4824.047	-921.064	1	4911.19	-10.80949	-1.490119E-008	0.0040773	7
	21	7	8015.625	4899.336	-1054.276	1	5011.486	-12.14415	1.392305E-008	0.0040841	7
	22	8	6328.125	4984.801	-1217.854	1	5131.415	-13.72919	-3.190977E-008	0.0041241	7
	23	8	5015.625	5080.822	-1416.875	1	5274.684	-15.58205	1.527167E-008	0.0041258	7
	24	8	3984.375	5187.545	-1653.886	1	5444.811	-17.68325	-2.965787E-008	0.0040988	7
	25	9	3170.956	5309.967	-1940.241	1	5653.343	-20.07211	3.105962E-009	0.0040559	7
	26	9	2527.573	5450.013	-2283.052	1	5908.889	-22.72919	7.898035E-008	0.0039978	7
	27	9	1976.103	5624.341	-2730.605	1	6252.153	-25.89647	-1.562044E-008	0.0040628	7
	28	10	1577.524	5808.157	-3229.114	1	6645.44	-29.07239	-3.065297E-008	0.0041513	7
	29	10	1265.625	6021.797	-3809.692	1	7125.713	-32.3195	-2.941062E-008	0.0041188	7
	30	10	998.264	6288.465	-4563.698	1	7769.951	-35.96934	-3.357334E-008	0.0041458	7
	31	11	796.875	6581.417	-5421.989	1	8527.192	-39.48283	-2.910651E-008	0.0040899	7
	32	11	627.7902	6937.354	-6523.967	1	9523.08	-43.24104	-2.896561E-008	0.0041167	7
	33	11	505.5147	7323.457	-7728.311	1	10647.06	-46.54074	-4.780302E-010	0.0039902	6
	34	12	397.9953	7810.792	-9338.012	1	12174.03	-50.08916	-1.801878E-011	0.0040956	6
	35	12	315.5048	8367.265	-11244.12	1	14015.75	-53.34536	-1.262629E-010	0.0040941	6
	36	12	252.4038	8995.218	-13466.86	1	16194.76	-56.25896	6.689174E-010	0.004088	6
	37	13	198.6229	9798.81	-16371.64	1	19080.02	-59.09848	2.227723E-010	0.0040888	6
	38	13	158.3615	10707.06	-19718.02	1	22437.5	-61.49763	-1.081292E-010	0.0040878	6
	39	13	125.558	11834.44	-23895.13	1	26665.17	-63.65236	2.429592E-010	0.0040855	6
	40	13	100.4464	13155.24	-28744.45	1	31611.77	-65.40824	-4.188783E-010	0.0040817	6
	41	14	79.00281	14917.77	-35149.09	1	38183.75	-67.00295	2.262248E-011	0.0040797	6
	42	14	63.3446	16423.43	-42217.63	1	45299.64	-68.74305	5.485281E-010	0.0040787	6
	43	15	49.86702	19088.28	-51483.71	1	54908.43	-69.65706	2.501418E-010	0.0040801	6
	44	15	39.72458	22294.27	-62547.74	1	66402.21	-70.3821	3.132352E-010	0.0040809	6
	45	15	31.6723	26022.91	-75788.34	1	80131.55	-71.04943	2.973575E-011	0.0040862	6
	46	16	24.93351	31110.77	-92563.12	1	97651.5	-71.42233	-8.868287E-011	0.0040847	6
	47	16	19.86229	37271.42	-111969.8	1	118010.1	-71.58892	-4.423385E-010	0.0040794	5
	48	16	15.83615	46295.96	-136469.1	1	144108	-71.26094	1.649611E-009	0.0040761	5
	49	16	12.40079	57061.66	-166297.4	1	175814.8	-71.06136	2.542219E-010	0.0040803	5
	50	17	9.93114	70506.55	-198256.5	1	210420.5	-70.42294	-4.361676E-010	0.0040824	5
	51	17	7.944915	88514.3	-236490.8	1	252512.7	-69.48002	3.049209E-011	0.0040785	5
	52	18	6.317385	111585	-282581.2	1	303814.7	-68.45204	1.985457E-010	0.0040781	5
	53	19	5.008013	142404.9	-335938.1	1	364874.7	-67.02781	-1.000306E-011	0.0040748	5
	54	20	3.945707	181272.6	-398141.1	1	437465.5	-65.52035	1.79593E-010	0.0040881	5
	55	21	3.158693	227531.8	-462340.7	1	515295.7	-63.79681	-1.342061E-010	0.0040765	5
	56	23	2.504006	284519.4	-536035.8	1	606865.4	-62.04134	-8.067363E-011	0.0040729	5
	57	24	1.998082	350380.2	-613425.8	1	706440	-60.2656	9.571688E-011	0.0041165	5
	58	26	1.584686	425971.4	-699971	1	819396.8	-58.67715	4.508436E-011	0.0040938	5
	59	28	1.266892	511393.9	-789285.1	1	940475.8	-57.05997	-7.214789E-012	0.0040508	5
	60	30	0.999041	614327.7	-895940.9	1	1086328	-55.56239	-5.709203E-012	0.0040747	4
