EXPLAIN
TAG	EISPOT
TITLE	LABEL	Potentiostatic EIS	Test &Identifier
DATE	LABEL	3/17/2020	Date
TIME	LABEL	16:24:59	Time
NOTES	NOTES	1	&Notes...
	
PSTAT	PSTAT	REF600-11020	Potentiostat
VDC	POTEN	0.00000E+000	T	DC &Voltage (V)
FREQINIT	QUANT	1.00000E+006	Initial Fre&q. (Hz)
FREQFINAL	QUANT	1.00000E+000	Final Fre&q. (Hz)
PTSPERDEC	QUANT	1.00000E+001	Points/&decade
VAC	QUANT	2.50000E+001	AC &Voltage (mV rms)
AREA	QUANT	4.00000E-004	&Area (cm^2)
CONDIT	TWOPARAM	F	5.00000E+000	0.00000E+000	Conditionin&g	Time(s)	E(V)
DELAY	TWOPARAM	T	3.00000E+000	0.00000E+000	Init. De&lay	Time(s)	Stab.(mV/s)
SPEED	SELECTOR	0	&Optimize for:
ZGUESS	QUANT	5.00000E+003	E&stimated Z (ohms)
OCVCURVE	TABLE	12
	Pt	T	Vf	Vm	Ach	Over
	#	s	V vs. Ref.	V	V	bits
	0	0.258333	1.15357E-001	1.15357E-001	5.92463E-004	...........
	1	0.516667	1.15360E-001	1.15504E-001	5.91230E-004	...........
	2	0.775	1.15371E-001	1.15293E-001	5.91330E-004	...........
	3	1.03333	1.15388E-001	1.15624E-001	5.88497E-004	...........
	4	1.29167	1.15409E-001	1.15277E-001	5.90096E-004	...........
	5	1.55	1.15426E-001	1.15487E-001	5.91230E-004	...........
	6	1.80833	1.15433E-001	1.15531E-001	5.88630E-004	...........
	7	2.06667	1.15443E-001	1.15549E-001	5.90430E-004	...........
	8	2.325	1.15467E-001	1.15564E-001	5.93630E-004	...........
	9	2.58333	1.15503E-001	1.15583E-001	5.91263E-004	...........
	10	2.84167	1.15535E-001	1.15578E-001	5.93330E-004	...........
	11	3.1	1.15559E-001	1.15584E-001	5.90230E-004	...........
EOC	QUANT	0.1155586	Open Circuit (V)
PSTATMODEL	IQUANT	4	Pstat Model
PSTATSECTION	LABEL	REF600-11020	Pstat Section
PSTATSERIALNO	LABEL	11020	Pstat Serial Number
CTRLMODE	IQUANT	1	Control Mode
IESTAB	IQUANT	0	I/E Stability
CASPEED	IQUANT	1	Control Amp Speed
CONVENTION	IQUANT	1	Current Convention
ICHRANGE	IQUANT	2	Ich Range
ICHRANGEMODE	TOGGLE	F	Ich Auto Range
ICHOFFSETENABLE	TOGGLE	T	Ich Offset Enable
ICHOFFSET	QUANT	0	Ich Offset (V)
ICHFILTER	IQUANT	3	Ich Filter
VCHRANGE	IQUANT	2	Vch Range
VCHRANGEMODE	TOGGLE	F	Vch Auto Range
VCHOFFSETENABLE	TOGGLE	T	Vch Offset Enable
VCHOFFSET	QUANT	0	Vch Offset (V)
VCHFILTER	IQUANT	3	Vch Filter
ACHRANGE	IQUANT	2	Ach Range
ACHOFFSETENABLE	TOGGLE	F	Ach Offset Enable
ACHOFFSET	QUANT	0	Ach Offset (V)
ACHFILTER	IQUANT	3	Ach Filter
IERANGELOWERLIMIT	IQUANT	1	I/E Range Lower Limit
IERANGEMODE	TOGGLE	F	I/E AutoRange
IERANGE	IQUANT	7	I/E Range
POSFEEDENABLE	TOGGLE	F	Positive Feedback IR Comp
POSFEEDRESISTANCE	QUANT	0	Positive Feedback Resistance (ohm)
ACHSELECT	IQUANT	0	Ach Select
CABLEID	IQUANT	14	Cable ID
DCCALDATE	LABEL	2/27/2020	DC Calibration Date
ACCALDATE	LABEL	2/27/2020	AC Calibration Date
THERMOSELECT	IQUANT	1	Thermo Select
FRAMEWORKVERSION	QUANT	6.33	Framework Version
INSTRUMENTVERSION	LABEL	3.50	Instrument Version
ZCURVE	TABLE
	Pt	Time	Freq	Zreal	Zimag	Zsig	Zmod	Zphz	Idc	Vdc	IERange
	#	s	Hz	ohm	ohm	V	ohm	°	A	V	#
	0	1	1000078	743.2397	-6480.771	1	6523.251	-83.45768	4.235689E-008	0.1177871	8
	1	2	794390.6	805.7699	-8100.655	1	8140.631	-84.31949	9.564319E-008	0.1174253	8
	2	2	630984.4	918.7466	-10106.43	1	10148.11	-84.80569	2.980894E-008	0.1173032	8
	3	2	501234.4	1044.569	-12602.92	1	12646.14	-85.26198	4.110787E-008	0.1172218	8
	4	3	398109.4	1201.136	-15718.08	1	15763.9	-85.6301	3.999393E-008	0.1171684	8
	5	3	316265.6	1254.566	-19914.65	1	19954.13	-86.39529	3.214632E-008	0.1171344	8
	6	3	251203.1	1562.92	-24667.02	1	24716.48	-86.37454	4.094026E-008	0.1171149	8
	7	4	199546.9	1728.768	-31509.75	1	31557.13	-86.85964	4.304208E-008	0.1171184	8
	8	4	158578.1	2390.906	-39691.14	1	39763.09	-86.5528	3.543495E-008	0.1171204	8
	9	4	125953.1	2970.903	-48442.15	1	48533.17	-86.49051	3.583754E-009	0.1170782	7
	10	5	100078.1	3768.077	-60300.5	1	60418.12	-86.42433	2.350117E-009	0.1170623	7
	11	5	79453.13	4463.575	-75410	1	75541.98	-86.61257	2.986018E-009	0.1170648	7
	12	5	63140.62	5668.565	-94307.18	1	94477.39	-86.56023	3.449456E-009	0.1170698	7
	13	6	50203.12	7267.658	-117799.9	1	118023.9	-86.46961	2.762815E-009	0.117056	7
	14	6	39890.62	8835.73	-147026.5	1	147291.8	-86.56088	2.663428E-009	0.1170584	7
	15	6	31640.63	10396.02	-184287.9	1	184580.9	-86.77126	3.694037E-009	0.1170555	7
	16	7	25171.88	13143.08	-229645.8	1	230021.6	-86.72443	3.741684E-009	0.1170568	7
	17	7	20015.62	18650.39	-286283.9	1	286890.8	-86.27265	2.662803E-009	0.117052	7
	18	7	15890.62	22523.97	-358201.6	1	358909.1	-86.40194	3.142399E-009	0.1170523	7
	19	8	12609.37	32326.27	-448014.7	1	449179.4	-85.873	7.164681E-010	0.1171087	6
	20	8	10078.13	41896.48	-555749.6	1	557326.6	-85.68878	5.321634E-010	0.1170911	6
	21	8	8015.625	52507.92	-691741.4	1	693731.4	-85.65918	4.903143E-010	0.1170952	6
	22	8	6328.125	61936.16	-869578	1	871780.9	-85.92596	5.74363E-010	0.1171009	6
	23	9	5015.625	79786.87	-1084101	1	1087033	-85.79078	6.021416E-010	0.1171007	6
	24	9	3984.375	113844.6	-1348791	1	1353587	-85.17539	5.122832E-010	0.1170991	6
	25	9	3170.956	138775.5	-1680819	1	1686539	-85.28013	5.677622E-010	0.1170941	6
	26	10	2527.573	189388.6	-2082541	1	2091135	-84.80375	5.686389E-010	0.1170969	6
	27	10	1976.103	229848.2	-2635476	1	2645480	-85.01566	5.797637E-010	0.1170913	6
	28	10	1577.524	331166.6	-3294951	1	3311552	-84.26063	4.934043E-010	0.1170951	6
	29	11	1265.625	467641.6	-4087180	1	4113846	-83.47279	4.24616E-011	0.1170977	5
	30	11	998.264	640278.6	-5121807	1	5161673	-82.8744	3.774326E-011	0.1170973	5
	31	11	796.875	854705.1	-6321463	1	6378982	-82.29991	3.009856E-011	0.1170975	5
	32	12	627.7902	1136916	-7893384	1	7974841	-81.80383	4.301739E-011	0.1170979	5
	33	12	505.5147	1551347	-9.667459E+006	1	9.791141E+006	-80.88341	3.307534E-011	0.117093	5
	34	12	397.9953	2134736	-1.202992E+007	1	1.221786E+007	-79.93748	2.482159E-011	0.1171059	5
	35	13	315.5048	2961464	-1.487337E+007	1	1.516533E+007	-78.73901	2.460583E-011	0.1171059	5
	36	13	252.4038	4065761	-1.816069E+007	1	1.861024E+007	-77.38087	2.702908E-011	0.1171047	5
	37	13	198.6229	5780862	-2.242698E+007	1	2.316004E+007	-75.54586	2.670953E-011	0.1171016	5
	38	14	158.3615	8088523	-2.711762E+007	1	2.829823E+007	-73.39145	2.448604E-011	0.1171002	5
	39	14	125.558	1.174056E+007	-3.271749E+007	1	3.476025E+007	-70.25964	3.359189E-012	0.1170994	4
	40	14	100.4464	1.612413E+007	-3.866758E+007	1	4.189474E+007	-67.36417	3.089364E-012	0.1170957	4
	41	15	79.00281	2.252556E+007	-4.563856E+007	1	5.089479E+007	-63.73071	3.333756E-012	0.1170934	4
	42	15	63.3446	3.010045E+007	-5.222857E+007	1	6.028152E+007	-60.04422	3.501524E-012	0.1170936	4
	43	15	49.86702	4.041534E+007	-5.857332E+007	1	7.116343E+007	-55.39449	3.648178E-012	0.117089	4
	44	16	39.72458	5.221906E+007	-6.319711E+007	1	8.19799E+007	-50.43346	4.051456E-012	0.1171011	4
	45	16	31.6723	6.487848E+007	-6.599317E+007	1	9.254358E+007	-45.488	4.279755E-012	0.1170921	4
	46	16	24.93351	7.913683E+007	-6.678356E+007	1	1.035504E+008	-40.16101	4.235967E-012	0.1170934	4
	47	17	19.86229	9.208049E+007	-6.537488E+007	1	1.129278E+008	-35.37382	3.253087E-012	0.1170941	4
	48	17	15.83615	1.038657E+008	-6.196007E+007	1	1.209427E+008	-30.81777	1.434813E-012	0.117097	4
	49	17	12.40079	1.155235E+008	-5.685018E+007	1	1.287541E+008	-26.20222	2.234334E-012	0.1171029	3
	50	18	9.93114	1.237985E+008	-5.252778E+007	1	1.344814E+008	-22.99154	1.745062E-012	0.1170998	3
	51	18	7.944915	1.305235E+008	-4.838016E+007	1	1.392014E+008	-20.33785	1.659964E-012	0.1171027	3
	52	18	6.317385	1.367134E+008	-4.496989E+007	1	1.439196E+008	-18.20787	4.412139E-012	0.1170826	3
	53	19	5.008013	1.420719E+008	-4.152766E+007	1	1.480168E+008	-16.29366	4.69592E-012	0.1170968	3
	54	20	3.945707	1.466577E+008	-3.871522E+007	1	1.516817E+008	-14.7878	3.258334E-012	0.1170872	3
	55	21	3.158693	1.50842E+008	-3.672169E+007	1	1.552476E+008	-13.6822	4.472739E-012	0.1170851	3
	56	22	2.504006	1.549981E+008	-3.54372E+007	1	1.589976E+008	-12.87818	4.706927E-012	0.11709	3
	57	23	1.998082	1.589763E+008	-3.471892E+007	1	1.627232E+008	-12.31943	3.829236E-012	0.1170506	3
	58	25	1.584686	1.632107E+008	-3.464211E+007	1	1.668466E+008	-11.98341	3.822807E-012	0.1170652	3
	59	27	1.266892	1.67296E+008	-3.340855E+007	1	1.705992E+008	-11.29325	4.745978E-012	0.1170974	2
	60	29	0.999041	1.717991E+008	-3.421408E+007	1	1.751729E+008	-11.26319	5.12654E-012	0.1171205	2
