EXPLAIN
TAG	EISPOT
TITLE	LABEL	Potentiostatic EIS	Test &Identifier
DATE	LABEL	1/7/2020	Date
TIME	LABEL	16:15:56	Time
NOTES	NOTES	5	&Notes...
	
	
	
	
	
PSTAT	PSTAT	REF600-11020	Potentiostat
VDC	POTEN	0.00000E+000	T	DC &Voltage (V)
FREQINIT	QUANT	1.00000E+006	Initial Fre&q. (Hz)
FREQFINAL	QUANT	1.00000E+000	Final Fre&q. (Hz)
PTSPERDEC	QUANT	1.00000E+001	Points/&decade
VAC	QUANT	2.50000E+001	AC &Voltage (mV rms)
AREA	QUANT	1.00000E-001	&Area (cm^2)
CONDIT	TWOPARAM	T	5.00000E+000	0.00000E+000	Conditionin&g	Time(s)	E(V)
DELAY	TWOPARAM	T	5.00000E+000	0.00000E+000	Init. De&lay	Time(s)	Stab.(mV/s)
SPEED	SELECTOR	0	&Optimize for:
ZGUESS	QUANT	1.00000E+003	E&stimated Z (ohms)
OCVCURVE	TABLE	19
	Pt	T	Vf	Vm	Ach	Over
	#	s	V vs. Ref.	V	V	bits
	0	0.258333	5.11773E-002	5.11773E-002	6.37980E-004	...........
	1	0.516667	5.12469E-002	5.48179E-002	6.41946E-004	...........
	2	0.775	5.16719E-002	5.81611E-002	6.37980E-004	...........
	3	1.03333	5.28653E-002	6.12611E-002	6.40613E-004	...........
	4	1.29167	5.49763E-002	6.41380E-002	6.44546E-004	...........
	5	1.55	5.77399E-002	6.68625E-002	6.42913E-004	...........
	6	1.80833	6.07457E-002	6.94120E-002	6.37313E-004	...........
	7	2.06667	6.37042E-002	7.18103E-002	6.44113E-004	...........
	8	2.325	6.64935E-002	7.40708E-002	6.38913E-004	...........
	9	2.58333	6.90945E-002	7.62352E-002	6.44480E-004	...........
	10	2.84167	7.15274E-002	7.82781E-002	6.44346E-004	...........
	11	3.1	7.38193E-002	8.02708E-002	6.44146E-004	...........
	12	3.35833	7.59951E-002	8.22431E-002	6.36313E-004	...........
	13	3.61667	7.80809E-002	8.42474E-002	6.40480E-004	...........
	14	3.875	8.01045E-002	8.60559E-002	6.36946E-004	...........
	15	4.13333	8.20769E-002	8.76426E-002	6.34080E-004	...........
	16	4.39167	8.39759E-002	8.91056E-002	6.37846E-004	...........
	17	4.65	8.57645E-002	9.06669E-002	6.33947E-004	...........
	18	4.90833	8.74311E-002	9.20629E-002	6.37680E-004	...........
EOC	QUANT	0.0874311	Open Circuit (V)
PSTATMODEL	IQUANT	4	Pstat Model
PSTATSECTION	LABEL	REF600-11020	Pstat Section
PSTATSERIALNO	LABEL	11020	Pstat Serial Number
CTRLMODE	IQUANT	1	Control Mode
IESTAB	IQUANT	0	I/E Stability
CASPEED	IQUANT	1	Control Amp Speed
CONVENTION	IQUANT	1	Current Convention
ICHRANGE	IQUANT	2	Ich Range
ICHRANGEMODE	TOGGLE	F	Ich Auto Range
ICHOFFSETENABLE	TOGGLE	T	Ich Offset Enable
ICHOFFSET	QUANT	0	Ich Offset (V)
ICHFILTER	IQUANT	3	Ich Filter
VCHRANGE	IQUANT	2	Vch Range
VCHRANGEMODE	TOGGLE	F	Vch Auto Range
VCHOFFSETENABLE	TOGGLE	T	Vch Offset Enable
VCHOFFSET	QUANT	0	Vch Offset (V)
VCHFILTER	IQUANT	3	Vch Filter
ACHRANGE	IQUANT	2	Ach Range
ACHOFFSETENABLE	TOGGLE	F	Ach Offset Enable
ACHOFFSET	QUANT	0	Ach Offset (V)
ACHFILTER	IQUANT	3	Ach Filter
IERANGELOWERLIMIT	IQUANT	1	I/E Range Lower Limit
IERANGEMODE	TOGGLE	F	I/E AutoRange
IERANGE	IQUANT	8	I/E Range
POSFEEDENABLE	TOGGLE	F	Positive Feedback IR Comp
POSFEEDRESISTANCE	QUANT	0	Positive Feedback Resistance (ohm)
ACHSELECT	IQUANT	0	Ach Select
CABLEID	IQUANT	14	Cable ID
DCCALDATE	LABEL	12/22/2019	DC Calibration Date
ACCALDATE	LABEL	12/22/2019	AC Calibration Date
THERMOSELECT	IQUANT	1	Thermo Select
FRAMEWORKVERSION	QUANT	6.33	Framework Version
INSTRUMENTVERSION	LABEL	3.50	Instrument Version
ZCURVE	TABLE
	Pt	Time	Freq	Zreal	Zimag	Zsig	Zmod	Zphz	Idc	Vdc	IERange
	#	s	Hz	ohm	ohm	V	ohm	°	A	V	#
	0	1	1000078	2207.175	-2229.394	1	3137.168	-45.28694	-1.527875E-006	0.0892445	8
	1	2	794390.6	2631.074	-2335	1	3517.78	-41.58811	4.874663E-006	0.0882848	8
	2	2	630984.4	3122.491	-2380.958	1	3926.692	-37.32619	-2.409988E-006	0.0894596	8
	3	2	501234.4	3578.116	-2293.006	1	4249.798	-32.65344	-4.333949E-007	0.0894808	8
	4	2	398109.4	4032.848	-2219.649	1	4603.336	-28.82805	1.358518E-006	0.0888124	8
	5	3	316265.6	4417.559	-2064.833	1	4876.306	-25.05209	7.340263E-006	0.0875587	8
	6	3	251203.1	4807.714	-1851.74	1	5151.995	-21.0647	-3.159641E-006	0.0895276	8
	7	3	199546.9	4931.482	-1622.138	1	5191.421	-18.20785	7.213834E-006	0.0876186	8
	8	4	158578.1	5327.578	-1457.646	1	5523.388	-15.30186	-1.224002E-006	0.089612	8
	9	4	125953.1	5477.124	-1173.117	1	5601.347	-12.08923	-9.057737E-007	0.0908339	7
	10	4	100078.1	5579.432	-1039.759	1	5675.488	-10.55631	-6.176536E-008	0.0890368	7
	11	5	79453.13	5672.906	-919.1528	1	5746.886	-9.203372	1.114582E-007	0.0889622	7
	12	5	63140.62	5752.947	-822.6845	1	5811.473	-8.138251	1.680314E-008	0.0888883	7
	13	5	50203.12	5816.619	-747.815	1	5864.494	-7.326057	1.08325E-007	0.0887916	7
	14	6	39890.62	5875.784	-692.8766	1	5916.495	-6.725301	1.081168E-008	0.0891464	7
	15	6	31640.63	5926.778	-657.5073	1	5963.138	-6.330416	1.188545E-007	0.0888133	7
	16	7	25171.88	5974.798	-641.7166	1	6009.161	-6.130289	1.918303E-009	0.0890579	7
	17	7	20015.62	6022.075	-644.4453	1	6056.459	-6.108194	-4.380044E-008	0.0889837	7
	18	8	15890.62	6071.874	-660.2304	1	6107.664	-6.205724	-9.838876E-008	0.0891581	7
	19	8	12609.37	6118.921	-692.5443	1	6157.988	-6.457302	6.495224E-008	0.0889284	7
	20	8	10078.13	6166.589	-747.0507	1	6211.675	-6.907431	-6.339042E-008	0.0891251	7
	21	9	8015.625	6227.511	-819.3632	1	6281.183	-7.49544	-9.854986E-008	0.0891501	7
	22	9	6328.125	6285.401	-916.0006	1	6351.797	-8.291607	-9.895493E-008	0.0891565	7
	23	9	5015.625	6347.373	-1040.369	1	6432.069	-9.308323	-9.301397E-008	0.089101	7
	24	10	3984.375	6407.877	-1198.67	1	6519.026	-10.5954	-7.902268E-008	0.0892687	7
	25	10	3170.956	6477.101	-1389.425	1	6624.45	-12.10723	1.170697E-007	0.0888102	7
	26	10	2527.573	6558.408	-1633.156	1	6758.692	-13.98323	1.199439E-010	0.0889575	7
	27	11	1976.103	6651.591	-1960.208	1	6934.413	-16.42012	1.793334E-008	0.0888714	7
	28	11	1577.524	6748.904	-2331.993	1	7140.441	-19.0619	-7.96981E-008	0.0892695	7
	29	11	1265.625	6862.956	-2771.183	1	7401.325	-21.98829	1.188549E-007	0.0888068	7
	30	12	998.264	7008.593	-3365.592	1	7774.804	-25.65075	-2.499928E-008	0.0890642	7
	31	12	796.875	7174.139	-4047.339	1	8237.064	-29.42981	-4.057214E-008	0.0889748	7
	32	12	627.7902	7372.17	-4935.938	1	8872	-33.80375	1.915173E-008	0.0888689	7
	33	13	505.5147	7600.044	-5913.682	1	9629.76	-37.88689	-2.489385E-009	0.0891383	6
	34	13	397.9953	7899.758	-7240.703	1	10716.06	-42.50752	-2.033725E-009	0.0890118	6
	35	13	315.5048	8249.776	-8821.102	1	12077.69	-46.91685	-2.563452E-009	0.0890088	6
	36	14	252.4038	8653.092	-10677.72	1	13743.71	-50.97911	-2.796367E-009	0.0890048	6
	37	14	198.6229	9180.345	-13123.48	1	16015.75	-55.02583	-2.568022E-009	0.0890057	6
	38	14	158.3615	9793.01	-15966.72	1	18730.7	-58.47759	-2.79397E-009	0.0890061	6
	39	15	125.558	10580.08	-19538	1	22218.72	-61.5639	-2.624077E-009	0.0890073	6
	40	15	100.4464	11533.36	-23728.02	1	26382.52	-64.07723	-2.858481E-009	0.0890023	6
	41	15	79.00281	12883.49	-29298.64	1	32006.16	-66.26347	-2.707413E-009	0.0889959	6
	42	16	63.3446	14175.55	-35474.16	1	38201.6	-68.21825	-2.162448E-009	0.0890029	6
	43	16	49.86702	16482.72	-43598.38	1	46610.07	-69.2905	-2.592028E-009	0.0889946	6
	44	16	39.72458	19359.2	-53190.13	1	56603.61	-70.0004	-2.02417E-009	0.0890017	6
	45	17	31.6723	23164.73	-64516.31	1	68548.95	-70.24921	-2.881228E-009	0.0889974	6
	46	17	24.93351	28014.84	-78797.94	1	83629.82	-70.4283	-2.079216E-009	0.088996	6
	47	17	19.86229	34376.82	-95014.8	1	101042.5	-70.10963	-2.144537E-009	0.0889972	6
	48	17	15.83615	43149.95	-114297.9	1	122171.7	-69.31738	-1.421437E-009	0.0889979	5
	49	18	12.40079	52698.18	-138207.5	1	147913.5	-69.12827	-3.062257E-009	0.0889974	5
	50	18	9.93114	66191.17	-163032.5	1	175957	-67.90285	-3.432843E-009	0.0889997	5
	51	19	7.944915	82131.74	-192596.3	1	209377.5	-66.90441	-2.846961E-009	0.088993	5
	52	19	6.317385	101813.7	-226288.1	1	248137.7	-65.77562	-2.941349E-009	0.0890024	5
	53	20	5.008013	126082.1	-265680.8	1	294079.9	-64.61275	-3.008258E-009	0.0889925	5
	54	21	3.945707	156002.9	-311189.4	1	348103.1	-63.37485	-2.650484E-009	0.088999	5
	55	22	3.158693	189364.2	-359417.7	1	406251	-62.21687	-2.602272E-009	0.0890159	5
	56	24	2.504006	230237.5	-416426.8	1	475836.7	-61.06231	-2.721248E-009	0.0890018	5
	57	25	1.998082	274827.9	-477479	1	550923.4	-60.07608	-2.498071E-009	0.0890159	5
	58	27	1.584686	329389.5	-550929.9	1	641888.8	-59.12568	-2.316205E-009	0.0890462	5
	59	29	1.266892	387023.3	-631279.6	1	740473.4	-58.48847	-2.20571E-009	0.0890188	5
	60	31	0.999041	458635.6	-725707.9	1	858486.2	-57.70778	-2.180334E-009	0.0889928	5
