EXPLAIN
TAG	EISPOT
TITLE	LABEL	Potentiostatic EIS	Test &Identifier
DATE	LABEL	7/13/2020	Date
TIME	LABEL	20:12:51	Time
NOTES	NOTES	1	&Notes...
	
PSTAT	PSTAT	REF600-11020	Potentiostat
VDC	POTEN	0.00000E+000	T	DC &Voltage (V)
FREQINIT	QUANT	1.00000E+006	Initial Fre&q. (Hz)
FREQFINAL	QUANT	1.00000E+000	Final Fre&q. (Hz)
PTSPERDEC	QUANT	1.00000E+001	Points/&decade
VAC	QUANT	2.50000E+001	AC &Voltage (mV rms)
AREA	QUANT	4.00000E-004	&Area (cm^2)
CONDIT	TWOPARAM	F	5.00000E+000	0.00000E+000	Conditionin&g	Time(s)	E(V)
DELAY	TWOPARAM	F	3.00000E+000	0.00000E+000	Init. De&lay	Time(s)	Stab.(mV/s)
SPEED	SELECTOR	0	&Optimize for:
ZGUESS	QUANT	1.00000E+003	E&stimated Z (ohms)
OCVCURVE	TABLE	39
	Pt	T	Vf	Vm	Ach	Over
	#	s	V vs. Ref.	V	V	bits
	0	0.258333	1.88581E-001	1.88581E-001	5.15517E-004	...........
	1	0.516667	1.88582E-001	1.88585E-001	5.18550E-004	...........
	2	0.775	1.88582E-001	1.88587E-001	5.17850E-004	...........
	3	1.03333	1.88583E-001	1.88592E-001	5.19450E-004	...........
	4	1.29167	1.88585E-001	1.88594E-001	5.20417E-004	...........
	5	1.55	1.88588E-001	1.88598E-001	5.17050E-004	...........
	6	1.80833	1.88591E-001	1.88600E-001	5.17817E-004	...........
	7	2.06667	1.88594E-001	1.88603E-001	5.18050E-004	...........
	8	2.325	1.88597E-001	1.88603E-001	5.15350E-004	...........
	9	2.58333	1.88600E-001	1.88604E-001	5.18250E-004	...........
	10	2.84167	1.88602E-001	1.88606E-001	5.19917E-004	...........
	11	3.1	1.88603E-001	1.88607E-001	5.16750E-004	...........
	12	3.35833	1.88605E-001	1.88609E-001	5.15617E-004	...........
	13	3.61667	1.88606E-001	1.88612E-001	5.16250E-004	...........
	14	3.875	1.88607E-001	1.88611E-001	5.19183E-004	...........
	15	4.13333	1.88609E-001	1.88615E-001	5.16783E-004	...........
	16	4.39167	1.88611E-001	1.88615E-001	5.15583E-004	...........
	17	4.65	1.88612E-001	1.88617E-001	5.11884E-004	...........
	18	4.90833	1.88614E-001	1.88615E-001	5.20217E-004	...........
	19	5.16667	1.88615E-001	1.88618E-001	5.23650E-004	...........
	20	5.425	1.88616E-001	1.88621E-001	5.19550E-004	...........
	21	5.68333	1.88617E-001	1.88619E-001	5.15117E-004	...........
	22	5.94167	1.88618E-001	1.88620E-001	5.18217E-004	...........
	23	6.2	1.88619E-001	1.88623E-001	5.20550E-004	...........
	24	6.45833	1.88620E-001	1.88622E-001	5.22083E-004	...........
	25	6.71667	1.88621E-001	1.88623E-001	5.25817E-004	...........
	26	6.975	1.88622E-001	1.88625E-001	5.24217E-004	...........
	27	7.23333	1.88622E-001	1.88623E-001	5.18617E-004	...........
	28	7.49167	1.88623E-001	1.88625E-001	5.23283E-004	...........
	29	7.75	1.88624E-001	1.88626E-001	5.21317E-004	...........
	30	8.00833	1.88624E-001	1.88625E-001	5.25717E-004	...........
	31	8.26667	1.88625E-001	1.88625E-001	5.22217E-004	...........
	32	8.525	1.88625E-001	1.88628E-001	5.18817E-004	...........
	33	8.78333	1.88626E-001	1.88625E-001	5.16350E-004	...........
	34	9.04167	1.88626E-001	1.88627E-001	5.19283E-004	...........
	35	9.3	1.88626E-001	1.88629E-001	5.18683E-004	...........
	36	9.5583	1.88627E-001	1.88627E-001	5.19183E-004	...........
	37	9.8167	1.88627E-001	1.88627E-001	5.19817E-004	...........
	38	10.075	1.88627E-001	1.88630E-001	5.17817E-004	...........
EOC	QUANT	0.1886275	Open Circuit (V)
PSTATMODEL	IQUANT	4	Pstat Model
PSTATSECTION	LABEL	REF600-11020	Pstat Section
PSTATSERIALNO	LABEL	11020	Pstat Serial Number
CTRLMODE	IQUANT	1	Control Mode
IESTAB	IQUANT	0	I/E Stability
CASPEED	IQUANT	1	Control Amp Speed
CONVENTION	IQUANT	1	Current Convention
ICHRANGE	IQUANT	2	Ich Range
ICHRANGEMODE	TOGGLE	F	Ich Auto Range
ICHOFFSETENABLE	TOGGLE	T	Ich Offset Enable
ICHOFFSET	QUANT	0	Ich Offset (V)
ICHFILTER	IQUANT	3	Ich Filter
VCHRANGE	IQUANT	2	Vch Range
VCHRANGEMODE	TOGGLE	F	Vch Auto Range
VCHOFFSETENABLE	TOGGLE	T	Vch Offset Enable
VCHOFFSET	QUANT	0	Vch Offset (V)
VCHFILTER	IQUANT	3	Vch Filter
ACHRANGE	IQUANT	2	Ach Range
ACHOFFSETENABLE	TOGGLE	F	Ach Offset Enable
ACHOFFSET	QUANT	0	Ach Offset (V)
ACHFILTER	IQUANT	3	Ach Filter
IERANGELOWERLIMIT	IQUANT	1	I/E Range Lower Limit
IERANGEMODE	TOGGLE	F	I/E AutoRange
IERANGE	IQUANT	8	I/E Range
POSFEEDENABLE	TOGGLE	F	Positive Feedback IR Comp
POSFEEDRESISTANCE	QUANT	0	Positive Feedback Resistance (ohm)
ACHSELECT	IQUANT	0	Ach Select
CABLEID	IQUANT	14	Cable ID
DCCALDATE	LABEL	6/26/2020	DC Calibration Date
ACCALDATE	LABEL	6/26/2020	AC Calibration Date
THERMOSELECT	IQUANT	1	Thermo Select
FRAMEWORKVERSION	QUANT	6.33	Framework Version
INSTRUMENTVERSION	LABEL	3.50	Instrument Version
ZCURVE	TABLE
	Pt	Time	Freq	Zreal	Zimag	Zsig	Zmod	Zphz	Idc	Vdc	IERange
	#	s	Hz	ohm	ohm	V	ohm	°	A	V	#
	0	1	1000078	1687.732	-1770.618	1	2446.125	-46.37294	4.063001E-008	0.1910165	8
	1	1	794390.6	2018.025	-1902.517	1	2773.445	-43.31242	-2.76122E-008	0.1906917	8
	2	2	630984.4	2386.617	-1999.535	1	3113.532	-39.95667	6.810411E-008	0.1905488	8
	3	2	501234.4	2775.403	-2047.314	1	3448.82	-36.41485	-6.232146E-009	0.1904557	8
	4	2	398109.4	3179.029	-2043.896	1	3779.383	-32.73822	1.190224E-008	0.1904089	8
	5	2	316265.6	3555.515	-1976.188	1	4067.801	-29.06571	1.683852E-008	0.1903873	8
	6	3	251203.1	3902.081	-1867.057	1	4325.753	-25.57006	5.151847E-008	0.1903926	8
	7	3	199546.9	4203.82	-1738.359	1	4549.065	-22.46602	1.704769E-007	0.1903837	8
	8	3	158578.1	4462.2	-1590.852	1	4737.303	-19.62203	5.233929E-008	0.1903803	8
	9	4	125953.1	4728.188	-1388.6	1	4927.877	-16.36674	-3.959083E-008	0.1904107	7
	10	4	100078.1	4900.729	-1269.718	1	5062.542	-14.52524	1.302601E-008	0.1903457	7
	11	4	79453.13	5038.527	-1172.934	1	5173.251	-13.10466	4.465463E-009	0.1903341	7
	12	5	63140.62	5154.683	-1098.789	1	5270.492	-12.03325	-1.463461E-009	0.190331	7
	13	5	50203.12	5258.406	-1050.449	1	5362.302	-11.29702	-1.109135E-008	0.190361	7
	14	5	39890.62	5356.104	-1027.912	1	5453.847	-10.86378	2.215169E-009	0.1903453	7
	15	6	31640.63	5453.24	-1028.258	1	5549.337	-10.67827	-1.540912E-008	0.1903497	7
	16	6	25171.88	5549.055	-1053.397	1	5648.155	-10.74877	8.333196E-009	0.1903371	7
	17	6	20015.62	5648.69	-1101.364	1	5755.059	-11.03294	-1.419646E-008	0.1903387	7
	18	7	15890.62	5756.318	-1175.488	1	5875.114	-11.54159	-1.463455E-009	0.1903279	7
	19	7	12609.37	5872.462	-1270.989	1	6008.43	-12.21228	-1.500974E-009	0.1903486	7
	20	7	10078.13	5994.711	-1391.59	1	6154.111	-13.06896	1.379215E-008	0.190318	7
	21	8	8015.625	6133.316	-1542.534	1	6324.316	-14.11715	-6.225116E-009	0.1903277	7
	22	8	6328.125	6291.764	-1731.85	1	6525.765	-15.38993	-1.61213E-008	0.1903457	7
	23	8	5015.625	6467.34	-1953.33	1	6755.885	-16.80589	5.792615E-009	0.1903363	7
	24	9	3984.375	6662.805	-2215.436	1	7021.476	-18.39238	9.37358E-009	0.1903338	7
	25	9	3170.956	6882.001	-2522.884	1	7329.863	-20.13251	9.238884E-009	0.190316	7
	26	9	2527.573	7125.422	-2875.766	1	7683.857	-21.97863	-1.236171E-008	0.1903501	7
	27	9	1976.103	7429.862	-3328.872	1	8141.513	-24.13426	6.294246E-009	0.1903336	7
	28	10	1577.524	7749.75	-3824.144	1	8641.915	-26.26422	9.27529E-009	0.1903109	7
	29	10	1265.625	8096.999	-4377.07	1	9204.354	-28.39474	-5.069949E-009	0.1903379	7
	30	10	998.264	8541.538	-5073.926	1	9934.92	-30.71156	1.985362E-009	0.1902976	6
	31	11	796.875	9010.63	-5863.934	1	10750.68	-33.05526	1.979242E-009	0.1902954	6
	32	11	627.7902	9577.63	-6844.194	1	11771.74	-35.54968	-2.458633E-009	0.1903304	6
	33	11	505.5147	10177.84	-7890.682	1	12878.33	-37.78572	2.247603E-010	0.1902811	6
	34	12	397.9953	10938.54	-9244.228	1	14321.57	-40.20137	1.361618E-010	0.1903396	6
	35	12	315.5048	11801.58	-10789.27	1	15990.18	-42.43427	2.342701E-010	0.190332	6
	36	12	252.4038	12760.37	-12526.27	1	17881.12	-44.46959	1.746963E-010	0.1903324	6
	37	13	198.6229	13954.89	-14713.3	1	20278.56	-46.51539	1.289955E-010	0.1903349	6
	38	13	158.3615	15264.5	-17138.73	1	22950.84	-48.31034	1.865183E-010	0.1903296	6
	39	13	125.558	16811.53	-20045.97	1	26162.35	-50.01516	1.460981E-010	0.1903358	6
	40	14	100.4464	18516.2	-23310.23	1	29769.39	-51.53856	1.62084E-011	0.1903307	6
	41	14	79.00281	20601.87	-27444.06	1	34316.37	-53.10496	1.05912E-010	0.1903307	6
	42	14	63.3446	22762.41	-31930.73	1	39213.51	-54.51613	1.002294E-010	0.1903313	6
	43	15	49.86702	25397.14	-37735.38	1	45485.97	-56.05817	6.670485E-011	0.1903269	6
	44	15	39.72458	28230.2	-44378.14	1	52596.23	-57.5384	-4.523106E-011	0.1903361	6
	45	15	31.6723	31466.71	-52361.78	1	61089.36	-58.99632	-1.499072E-010	0.1903358	6
	46	16	24.93351	35493.55	-62592.1	1	71955.29	-60.44411	4.002562E-010	0.1903328	6
	47	16	19.86229	40121.5	-74447.84	1	84570.78	-61.67884	-2.110085E-010	0.1903331	6
	48	16	15.83615	45813.93	-88611.52	1	99754.3	-62.66013	1.004768E-009	0.1903308	6
	49	17	12.40079	53553.25	-106925.8	1	119587.2	-63.39624	1.275681E-009	0.1903192	5
	50	17	9.93114	62371.39	-126677	1	141199.3	-63.78595	1.4991E-009	0.1903248	5
	51	17	7.944915	73308.36	-150201.4	1	167136.4	-63.98451	5.677366E-010	0.190321	5
	52	18	6.317385	87544.74	-178146	1	198494.5	-63.82951	5.942426E-011	0.1903273	5
	53	18	5.008013	105563.7	-210908	1	235851.4	-63.41111	2.867603E-010	0.1903294	5
	54	19	3.945707	128403.7	-249741.3	1	280817	-62.79018	4.000621E-010	0.1903137	5
	55	20	3.158693	154079.3	-290334.3	1	328685.9	-62.04529	1.824502E-010	0.19033	5
	56	21	2.504006	186217.9	-338546.5	1	386381.7	-61.18695	-8.832083E-011	0.1903163	5
	57	23	1.998082	221911	-390130.8	1	448827.9	-60.36827	9.090653E-011	0.1903318	5
	58	24	1.584686	265540.7	-451569.3	1	523857.5	-59.54278	1.905665E-010	0.1903571	5
	59	26	1.266892	311864.1	-518640	1	605183.1	-58.98103	1.524359E-010	0.1903321	5
	60	29	0.999041	368266.8	-598528.4	1	702749.4	-58.39655	1.397116E-010	0.1903056	5
