EXPLAIN
TAG	EISPOT
TITLE	LABEL	Potentiostatic EIS	Test &Identifier
DATE	LABEL	7/30/2020	Date
TIME	LABEL	22:51:02	Time
NOTES	NOTES	1	&Notes...
	
PSTAT	PSTAT	REF600-11020	Potentiostat
VDC	POTEN	0.00000E+000	T	DC &Voltage (V)
FREQINIT	QUANT	1.00000E+006	Initial Fre&q. (Hz)
FREQFINAL	QUANT	1.00000E+000	Final Fre&q. (Hz)
PTSPERDEC	QUANT	1.00000E+001	Points/&decade
VAC	QUANT	2.50000E+001	AC &Voltage (mV rms)
AREA	QUANT	4.00000E-005	&Area (cm^2)
CONDIT	TWOPARAM	F	5.00000E+000	0.00000E+000	Conditionin&g	Time(s)	E(V)
DELAY	TWOPARAM	F	3.00000E+000	0.00000E+000	Init. De&lay	Time(s)	Stab.(mV/s)
SPEED	SELECTOR	0	&Optimize for:
ZGUESS	QUANT	1.00000E+003	E&stimated Z (ohms)
OCVCURVE	TABLE	39
	Pt	T	Vf	Vm	Ach	Over
	#	s	V vs. Ref.	V	V	bits
	0	0.258333	-4.35800E-002	-4.35800E-002	5.23017E-004	...........
	1	0.516667	-4.35802E-002	-4.35898E-002	5.15383E-004	...........
	2	0.775	-4.35814E-002	-4.36015E-002	5.21150E-004	...........
	3	1.03333	-4.35850E-002	-4.36151E-002	5.19150E-004	...........
	4	1.29167	-4.35919E-002	-4.36307E-002	5.19717E-004	...........
	5	1.55	-4.36022E-002	-4.36448E-002	5.16583E-004	...........
	6	1.80833	-4.36149E-002	-4.36627E-002	5.19850E-004	...........
	7	2.06667	-4.36294E-002	-4.36809E-002	5.21383E-004	...........
	8	2.325	-4.36451E-002	-4.36961E-002	5.15017E-004	...........
	9	2.58333	-4.36616E-002	-4.37130E-002	5.14750E-004	...........
	10	2.84167	-4.36784E-002	-4.37317E-002	5.26083E-004	...........
	11	3.1	-4.36954E-002	-4.37497E-002	5.22050E-004	...........
	12	3.35833	-4.37125E-002	-4.37614E-002	5.24317E-004	...........
	13	3.61667	-4.37295E-002	-4.37765E-002	5.16350E-004	...........
	14	3.875	-4.37457E-002	-4.37917E-002	5.20783E-004	...........
	15	4.13333	-4.37609E-002	-4.38040E-002	5.23850E-004	...........
	16	4.39167	-4.37754E-002	-4.38139E-002	5.25250E-004	...........
	17	4.65	-4.37891E-002	-4.38296E-002	5.25150E-004	...........
	18	4.90833	-4.38021E-002	-4.38396E-002	5.24850E-004	...........
	19	5.16667	-4.38147E-002	-4.38507E-002	5.28017E-004	...........
	20	5.425	-4.38268E-002	-4.38603E-002	5.20483E-004	...........
	21	5.68333	-4.38384E-002	-4.38720E-002	5.22083E-004	...........
	22	5.94167	-4.38494E-002	-4.38803E-002	5.23283E-004	...........
	23	6.2	-4.38599E-002	-4.38897E-002	5.28450E-004	...........
	24	6.45833	-4.38700E-002	-4.38979E-002	5.22250E-004	...........
	25	6.71667	-4.38794E-002	-4.39024E-002	5.21683E-004	...........
	26	6.975	-4.38881E-002	-4.39092E-002	5.17550E-004	...........
	27	7.23333	-4.38957E-002	-4.39158E-002	5.20517E-004	...........
	28	7.49167	-4.39025E-002	-4.39205E-002	5.22350E-004	...........
	29	7.75	-4.39087E-002	-4.39276E-002	5.22817E-004	...........
	30	8.00833	-4.39148E-002	-4.39326E-002	5.26917E-004	...........
	31	8.26667	-4.39207E-002	-4.39375E-002	5.24550E-004	...........
	32	8.525	-4.39264E-002	-4.39396E-002	5.24083E-004	...........
	33	8.78333	-4.39316E-002	-4.39459E-002	5.27417E-004	...........
	34	9.04167	-4.39363E-002	-4.39502E-002	5.22450E-004	...........
	35	9.3	-4.39407E-002	-4.39515E-002	5.24117E-004	...........
	36	9.5583	-4.39448E-002	-4.39535E-002	5.23550E-004	...........
	37	9.8167	-4.39483E-002	-4.39556E-002	5.20550E-004	...........
	38	10.075	-4.39512E-002	-4.39591E-002	5.24317E-004	...........
EOC	QUANT	-0.0439512	Open Circuit (V)
PSTATMODEL	IQUANT	4	Pstat Model
PSTATSECTION	LABEL	REF600-11020	Pstat Section
PSTATSERIALNO	LABEL	11020	Pstat Serial Number
CTRLMODE	IQUANT	1	Control Mode
IESTAB	IQUANT	0	I/E Stability
CASPEED	IQUANT	1	Control Amp Speed
CONVENTION	IQUANT	1	Current Convention
ICHRANGE	IQUANT	2	Ich Range
ICHRANGEMODE	TOGGLE	F	Ich Auto Range
ICHOFFSETENABLE	TOGGLE	T	Ich Offset Enable
ICHOFFSET	QUANT	0	Ich Offset (V)
ICHFILTER	IQUANT	3	Ich Filter
VCHRANGE	IQUANT	2	Vch Range
VCHRANGEMODE	TOGGLE	F	Vch Auto Range
VCHOFFSETENABLE	TOGGLE	T	Vch Offset Enable
VCHOFFSET	QUANT	0	Vch Offset (V)
VCHFILTER	IQUANT	3	Vch Filter
ACHRANGE	IQUANT	2	Ach Range
ACHOFFSETENABLE	TOGGLE	F	Ach Offset Enable
ACHOFFSET	QUANT	0	Ach Offset (V)
ACHFILTER	IQUANT	3	Ach Filter
IERANGELOWERLIMIT	IQUANT	1	I/E Range Lower Limit
IERANGEMODE	TOGGLE	F	I/E AutoRange
IERANGE	IQUANT	7	I/E Range
POSFEEDENABLE	TOGGLE	F	Positive Feedback IR Comp
POSFEEDRESISTANCE	QUANT	0	Positive Feedback Resistance (ohm)
ACHSELECT	IQUANT	0	Ach Select
CABLEID	IQUANT	14	Cable ID
DCCALDATE	LABEL	6/26/2020	DC Calibration Date
ACCALDATE	LABEL	6/26/2020	AC Calibration Date
THERMOSELECT	IQUANT	1	Thermo Select
FRAMEWORKVERSION	QUANT	6.33	Framework Version
INSTRUMENTVERSION	LABEL	3.50	Instrument Version
ZCURVE	TABLE
	Pt	Time	Freq	Zreal	Zimag	Zsig	Zmod	Zphz	Idc	Vdc	IERange
	#	s	Hz	ohm	ohm	V	ohm	°	A	V	#
	0	1	1000078	1503.359	-1714.275	1	2280.094	-48.75038	3.190091E-008	-0.0416383	8
	1	1	794390.6	1813.278	-1863.584	1	2600.177	-45.78386	4.287684E-008	-0.0419739	8
	2	1	630984.4	2158.346	-1982.532	1	2930.681	-42.56879	2.409238E-008	-0.042145	8
	3	2	501234.4	2529.137	-2061.14	1	3262.642	-39.17858	-3.073414E-008	-0.0422065	8
	4	2	398109.4	2911.625	-2106.201	1	3593.556	-35.8811	7.729648E-008	-0.0422947	8
	5	2	316265.6	3285.43	-2095.848	1	3897.002	-32.5347	6.87162E-008	-0.0423072	8
	6	3	251203.1	3641.762	-2064.005	1	4185.995	-29.54283	3.55446E-008	-0.0423223	8
	7	3	199546.9	3977.721	-2003.543	1	4453.813	-26.734	4.748692E-008	-0.0423421	8
	8	3	158578.1	4277.701	-1933.524	1	4694.384	-24.32301	3.097503E-008	-0.0423417	8
	9	4	125953.1	4573.121	-1830.799	1	4925.978	-21.81816	-6.605917E-009	-0.0423145	7
	10	4	100078.1	4821.669	-1771.62	1	5136.84	-20.17478	6.383951E-010	-0.0423713	7
	11	4	79453.13	5041.541	-1731.405	1	5330.562	-18.95389	9.55605E-010	-0.042374	7
	12	4	63140.62	5243.477	-1713.149	1	5516.242	-18.09325	1.083747E-009	-0.0423722	7
	13	5	50203.12	5438.494	-1717.693	1	5703.305	-17.52819	3.008445E-010	-0.0423837	7
	14	5	39890.62	5627.118	-1750.436	1	5893.088	-17.27943	1.411925E-009	-0.0423763	7
	15	5	31640.63	5821.39	-1814.337	1	6097.574	-17.31055	1.578929E-009	-0.0423766	7
	16	6	25171.88	6016.483	-1906.543	1	6311.337	-17.58271	1.992254E-009	-0.0423792	7
	17	6	20015.62	6222.229	-2032.523	1	6545.783	-18.08989	1.241397E-009	-0.0423823	7
	18	6	15890.62	6445.714	-2196.697	1	6809.75	-18.81909	2.602508E-009	-0.0423773	7
	19	7	12609.37	6685.333	-2398.775	1	7102.661	-19.73857	1.999614E-009	-0.0423775	7
	20	7	10078.13	6934.919	-2632.017	1	7417.588	-20.7833	1.915076E-009	-0.0423778	7
	21	7	8015.625	7217.756	-2917.427	1	7785.074	-22.00863	9.714997E-010	-0.0423924	7
	22	8	6328.125	7540.507	-3267.958	1	8218.199	-23.43128	1.771756E-009	-0.0423852	7
	23	8	5015.625	7892.499	-3675.582	1	8706.402	-24.97166	1.444215E-009	-0.0423888	7
	24	8	3984.375	8295.83	-4133.842	1	9268.735	-26.48724	1.025222E-011	-0.0423894	6
	25	9	3170.956	8730.782	-4686.695	1	9909.17	-28.22696	1.682472E-010	-0.0423925	6
	26	9	2527.573	9215.305	-5323.6	1	10642.49	-30.01465	-4.679165E-011	-0.0423927	6
	27	9	1976.103	9815.74	-6133.115	1	11574.27	-31.99816	5.976485E-011	-0.0423965	6
	28	10	1577.524	10443.56	-6998.413	1	12571.62	-33.82674	1.517911E-010	-0.0423932	6
	29	10	1265.625	11148.43	-7976.948	1	13708.36	-35.58456	1.097283E-010	-0.0423984	6
	30	10	998.264	12014.74	-9191.012	1	15127.08	-37.4152	1.334749E-011	-0.0423925	6
	31	11	796.875	12966.5	-10535.57	1	16707.13	-39.09465	8.53442E-011	-0.0423976	6
	32	11	627.7902	14130.06	-12175.22	1	18651.93	-40.74997	2.909884E-010	-0.042402	6
	33	11	505.5147	15360.23	-13887.87	1	20707.71	-42.11815	9.784604E-013	-0.0424023	6
	34	11	397.9953	16925.95	-16058.44	1	23331.56	-43.49343	1.912301E-010	-0.0423709	6
	35	12	315.5048	18710.18	-18477.48	1	26296.16	-44.64148	2.139919E-010	-0.0423696	6
	36	12	252.4038	20693.52	-21115.69	1	29565.09	-45.57853	1.442658E-010	-0.0423762	6
	37	12	198.6229	23156.18	-24321.5	1	33581.9	-46.40602	2.167335E-010	-0.0423699	6
	38	13	158.3615	25813.67	-27744.83	1	37896.19	-47.06502	2.244848E-010	-0.0423729	6
	39	13	125.558	28887.81	-31709.73	1	42895.37	-47.66623	4.227043E-011	-0.0423719	6
	40	13	100.4464	32174.04	-36028.92	1	48303.75	-48.23496	1.901014E-010	-0.0423735	6
	41	14	79.00281	36087.54	-41370.74	1	54898.53	-48.90193	7.150936E-011	-0.0423749	6
	42	14	63.3446	40057.25	-47081.3	1	61816.12	-49.60852	-2.355178E-011	-0.0423793	6
	43	14	49.86702	44797.29	-54341.22	1	70425.6	-50.49884	2.206819E-011	-0.042378	6
	44	15	39.72458	49858.41	-62543.11	1	79984.38	-51.43868	3.458972E-010	-0.0423788	6
	45	15	31.6723	55599.79	-72246.9	1	91164.41	-52.41883	3.130971E-010	-0.0423819	6
	46	15	24.93351	62598.98	-84375.04	1	105060.8	-53.42778	2.487447E-011	-0.0423898	5
	47	16	19.86229	70406.82	-98170.4	1	120807.9	-54.35229	9.861902E-010	-0.042384	5
	48	16	15.83615	79790.8	-114262.7	1	139364.8	-55.07302	-8.898178E-010	-0.0423908	5
	49	16	12.40079	91813.09	-134613.7	1	162943.2	-55.70411	-1.161078E-009	-0.0423796	5
	50	17	9.93114	104616.6	-156063.9	1	187884.4	-56.16428	-1.103966E-009	-0.0423949	5
	51	17	7.944915	120242.6	-181096	1	217380	-56.41697	4.226048E-010	-0.0423937	5
	52	17	6.317385	139229.8	-210718.1	1	252561	-56.54567	-2.49305E-010	-0.0423864	5
	53	18	5.008013	162232.3	-245074.1	1	293905.8	-56.49654	-4.288586E-010	-0.0424038	5
	54	19	3.945707	190622.4	-284582.3	1	342525.9	-56.18454	-3.694915E-011	-0.0423846	5
	55	20	3.158693	221084.4	-326700.9	1	394476.6	-55.91308	-2.451665E-010	-0.042405	5
	56	21	2.504006	257783.1	-375067.5	1	455112.9	-55.49934	4.192203E-011	-0.0424029	5
	57	22	1.998082	297200.8	-428711.9	1	521653.3	-55.2687	1.328639E-010	-0.042381	5
	58	24	1.584686	342923.2	-489708.3	1	597838.3	-54.99798	5.814599E-012	-0.0424344	5
	59	26	1.266892	392749.7	-559739	1	683783.6	-54.94398	-1.848517E-011	-0.0424522	5
	60	28	0.999041	450257.5	-647137.8	1	788364.8	-55.17105	-3.36962E-011	-0.0424473	5
