EXPLAIN
TAG	EISPOT
TITLE	LABEL	Potentiostatic EIS	Test &Identifier
DATE	LABEL	3/17/2020	Date
TIME	LABEL	16:15:49	Time
NOTES	NOTES	1	&Notes...
	
PSTAT	PSTAT	REF600-11020	Potentiostat
VDC	POTEN	0.00000E+000	T	DC &Voltage (V)
FREQINIT	QUANT	1.00000E+006	Initial Fre&q. (Hz)
FREQFINAL	QUANT	1.00000E+000	Final Fre&q. (Hz)
PTSPERDEC	QUANT	1.00000E+001	Points/&decade
VAC	QUANT	2.50000E+001	AC &Voltage (mV rms)
AREA	QUANT	4.00000E-004	&Area (cm^2)
CONDIT	TWOPARAM	F	5.00000E+000	0.00000E+000	Conditionin&g	Time(s)	E(V)
DELAY	TWOPARAM	T	3.00000E+000	0.00000E+000	Init. De&lay	Time(s)	Stab.(mV/s)
SPEED	SELECTOR	0	&Optimize for:
ZGUESS	QUANT	5.00000E+003	E&stimated Z (ohms)
OCVCURVE	TABLE	12
	Pt	T	Vf	Vm	Ach	Over
	#	s	V vs. Ref.	V	V	bits
	0	0.258333	5.22751E-002	5.22751E-002	5.61397E-004	...........
	1	0.516667	5.22751E-002	5.22752E-002	5.70730E-004	...........
	2	0.775	5.22751E-002	5.22732E-002	5.67930E-004	...........
	3	1.03333	5.22749E-002	5.22714E-002	5.65997E-004	...........
	4	1.29167	5.22742E-002	5.22689E-002	5.61397E-004	...........
	5	1.55	5.22730E-002	5.22681E-002	5.64130E-004	...........
	6	1.80833	5.22714E-002	5.22659E-002	5.64397E-004	...........
	7	2.06667	5.22697E-002	5.22657E-002	5.63164E-004	...........
	8	2.325	5.22681E-002	5.22643E-002	5.62297E-004	...........
	9	2.58333	5.22667E-002	5.22611E-002	5.68497E-004	...........
	10	2.84167	5.22652E-002	5.22600E-002	5.70163E-004	...........
	11	3.1	5.22636E-002	5.22563E-002	5.69530E-004	...........
EOC	QUANT	0.0522636	Open Circuit (V)
PSTATMODEL	IQUANT	4	Pstat Model
PSTATSECTION	LABEL	REF600-11020	Pstat Section
PSTATSERIALNO	LABEL	11020	Pstat Serial Number
CTRLMODE	IQUANT	1	Control Mode
IESTAB	IQUANT	0	I/E Stability
CASPEED	IQUANT	1	Control Amp Speed
CONVENTION	IQUANT	1	Current Convention
ICHRANGE	IQUANT	2	Ich Range
ICHRANGEMODE	TOGGLE	F	Ich Auto Range
ICHOFFSETENABLE	TOGGLE	T	Ich Offset Enable
ICHOFFSET	QUANT	0	Ich Offset (V)
ICHFILTER	IQUANT	3	Ich Filter
VCHRANGE	IQUANT	2	Vch Range
VCHRANGEMODE	TOGGLE	F	Vch Auto Range
VCHOFFSETENABLE	TOGGLE	T	Vch Offset Enable
VCHOFFSET	QUANT	0	Vch Offset (V)
VCHFILTER	IQUANT	3	Vch Filter
ACHRANGE	IQUANT	2	Ach Range
ACHOFFSETENABLE	TOGGLE	F	Ach Offset Enable
ACHOFFSET	QUANT	0	Ach Offset (V)
ACHFILTER	IQUANT	3	Ach Filter
IERANGELOWERLIMIT	IQUANT	1	I/E Range Lower Limit
IERANGEMODE	TOGGLE	F	I/E AutoRange
IERANGE	IQUANT	7	I/E Range
POSFEEDENABLE	TOGGLE	F	Positive Feedback IR Comp
POSFEEDRESISTANCE	QUANT	0	Positive Feedback Resistance (ohm)
ACHSELECT	IQUANT	0	Ach Select
CABLEID	IQUANT	14	Cable ID
DCCALDATE	LABEL	2/27/2020	DC Calibration Date
ACCALDATE	LABEL	2/27/2020	AC Calibration Date
THERMOSELECT	IQUANT	1	Thermo Select
FRAMEWORKVERSION	QUANT	6.33	Framework Version
INSTRUMENTVERSION	LABEL	3.50	Instrument Version
ZCURVE	TABLE
	Pt	Time	Freq	Zreal	Zimag	Zsig	Zmod	Zphz	Idc	Vdc	IERange
	#	s	Hz	ohm	ohm	V	ohm	°	A	V	#
	0	1	1000078	2024.831	-2049.446	1	2881.001	-45.34616	5.422666E-008	0.0545895	8
	1	2	794390.6	2454.385	-2139.703	1	3256.122	-41.08152	2.500347E-008	0.0542518	8
	2	2	630984.4	2902.394	-2150.448	1	3612.246	-36.53556	4.971791E-008	0.054144	8
	3	2	501234.4	3336.175	-2089.111	1	3936.299	-32.05478	3.030137E-008	0.0540352	8
	4	3	398109.4	3731.923	-1961.363	1	4215.945	-27.72478	3.77058E-008	0.0539801	8
	5	3	316265.6	4071.775	-1795.352	1	4450.016	-23.79393	3.448229E-008	0.0539536	8
	6	3	251203.1	4342.087	-1604.48	1	4629.047	-20.28019	2.787321E-008	0.0539306	8
	7	3	199546.9	4556.82	-1429.81	1	4775.873	-17.42049	3.009967E-008	0.0539323	8
	8	4	158578.1	4733.141	-1257.114	1	4897.24	-14.87424	4.767657E-008	0.0539651	8
	9	4	125953.1	4894.468	-1054.78	1	5006.833	-12.16151	1.157999E-009	0.0538932	7
	10	4	100078.1	4985.939	-929.4537	1	5071.832	-10.55959	1.584049E-009	0.0538885	7
	11	5	79453.13	5068.876	-837.061	1	5137.526	-9.377049	8.698614E-010	0.0538787	7
	12	5	63140.62	5140.136	-765.0438	1	5196.757	-8.465601	-1.896464E-010	0.0538744	7
	13	5	50203.12	5203.1	-713.4655	1	5251.788	-7.807885	1.680954E-009	0.0538716	7
	14	6	39890.62	5258.844	-681.8207	1	5302.859	-7.387315	1.229348E-009	0.0538685	7
	15	6	31640.63	5312.069	-669.6282	1	5354.108	-7.184689	4.948894E-010	0.0538658	7
	16	6	25171.88	5362.771	-676.7369	1	5405.302	-7.192232	1.201245E-009	0.0538585	7
	17	7	20015.62	5414.184	-703.6299	1	5459.715	-7.404685	7.402958E-010	0.0538694	7
	18	7	15890.62	5466.886	-749.8795	1	5518.076	-7.810382	1.716972E-009	0.0538612	7
	19	7	12609.37	5523.207	-819.0342	1	5583.604	-8.4349	1.898219E-009	0.0538603	7
	20	8	10078.13	5582.626	-909.4666	1	5656.222	-9.25278	1.821664E-009	0.0538659	7
	21	8	8015.625	5646.769	-1027.31	1	5739.457	-10.31098	9.230887E-010	0.0538593	7
	22	8	6328.125	5721.365	-1183.652	1	5842.521	-11.68861	1.718533E-009	0.0538592	7
	23	9	5015.625	5803.124	-1374.986	1	5963.793	-13.32979	1.779477E-009	0.053857	7
	24	9	3984.375	5893.398	-1609.601	1	6109.251	-15.27602	3.139458E-009	0.0538518	7
	25	9	3170.956	5995.938	-1895.903	1	6288.538	-17.54684	3.460423E-009	0.0538634	7
	26	10	2527.573	6113.625	-2242.212	1	6511.83	-20.14084	2.738603E-009	0.0538561	7
	27	10	1976.103	6261.362	-2703.557	1	6820.108	-23.35392	2.656414E-009	0.0538548	7
	28	10	1577.524	6419.764	-3222.427	1	7183.133	-26.65455	3.173526E-009	0.0538605	7
	29	10	1265.625	6601.179	-3833.239	1	7633.432	-30.14331	3.074746E-009	0.0538494	7
	30	11	998.264	6833.002	-4634.62	1	8256.489	-34.14786	2.641564E-009	0.0538479	7
	31	11	796.875	7096.213	-5562.631	1	9016.602	-38.09245	2.93113E-009	0.053849	7
	32	11	627.7902	7428.654	-6751.662	1	10038.42	-42.26668	-4.215045E-012	0.0539038	6
	33	12	505.5147	7787.478	-8062.621	1	11209.4	-45.9945	-6.30735E-010	0.0539014	6
	34	12	397.9953	8263.196	-9821.47	1	12835.17	-49.92475	5.677468E-010	0.0539108	6
	35	12	315.5048	8820.691	-11904.62	1	14816.36	-53.46351	5.050872E-010	0.0539094	6
	36	13	252.4038	9464.836	-14332.73	1	17175.86	-56.56062	5.190348E-010	0.0539072	6
	37	13	198.6229	10306.67	-17507.11	1	20315.67	-59.51411	4.672721E-010	0.0539065	6
	38	13	158.3615	11280.1	-21167.92	1	23985.86	-61.94744	4.22309E-010	0.0539016	6
	39	14	125.558	12511.67	-25728.07	1	28609.01	-64.06615	4.010682E-010	0.0539028	6
	40	14	100.4464	13982.09	-31041.35	1	34045.04	-65.75156	4.435343E-010	0.0538951	6
	41	14	79.00281	15969.98	-37995.32	1	41215.11	-67.20229	3.357783E-010	0.053895	6
	42	15	63.3446	18283.89	-45741.02	1	49259.94	-68.2121	2.286728E-010	0.0538909	6
	43	15	49.86702	21463.89	-55860.77	1	59842.5	-68.98127	1.789698E-010	0.0538869	6
	44	15	39.72458	25330.3	-67455.5	1	72054.62	-69.41828	4.154429E-010	0.0538867	6
	45	16	31.6723	30228.72	-81276.44	1	86715.83	-69.59859	4.883548E-010	0.0538906	6
	46	16	24.93351	36869.57	-98748.1	1	105406.6	-69.52589	-1.08289E-011	0.0538919	6
	47	16	19.86229	44943.25	-118465.6	1	126704.4	-69.22436	-2.656629E-010	0.0538961	5
	48	17	15.83615	55181.33	-141731.3	1	152094.5	-68.72717	-2.809792E-010	0.0539008	5
	49	17	12.40079	69540.32	-171364.6	1	184937	-67.91253	-7.752949E-010	0.0539032	5
	50	17	9.93114	86117.4	-202647.1	1	220186.4	-66.97633	-6.230235E-010	0.0538976	5
	51	18	7.944915	107490.7	-238494.1	1	261598.3	-65.73862	4.84471E-010	0.0538957	5
	52	18	6.317385	134909.1	-280680.1	1	311419	-64.3287	-1.685416E-010	0.0539093	5
	53	19	5.008013	169852.4	-328261.5	1	369601.7	-62.64159	-3.591505E-010	0.0538955	5
	54	20	3.945707	214463.7	-380807.3	1	437045.6	-60.61258	3.702287E-011	0.0539063	5
	55	21	3.158693	263870.5	-434209.2	1	508099.6	-58.7128	-2.121933E-010	0.0538896	5
	56	22	2.504006	324034	-491310.1	1	588543.7	-56.59393	5.297816E-011	0.053887	5
	57	23	1.998082	389440.5	-550236.9	1	674110.2	-54.71033	1.954674E-010	0.0539129	5
	58	24	1.584686	463579.1	-611193.1	1	767113.1	-52.82033	7.527452E-011	0.0538709	5
	59	26	1.266892	543281.6	-675408.4	1	866793.8	-51.18768	8.498991E-012	0.0538455	5
	60	29	0.999041	632550.1	-750443.3	1	981471	-49.8724	-4.225843E-011	0.0538525	5
