EXPLAIN
TAG	EISPOT
TITLE	LABEL	Potentiostatic EIS	Test &Identifier
DATE	LABEL	5/26/2020	Date
TIME	LABEL	18:06:32	Time
NOTES	NOTES	1	&Notes...
	
PSTAT	PSTAT	REF600-11020	Potentiostat
VDC	POTEN	0.00000E+000	T	DC &Voltage (V)
FREQINIT	QUANT	1.00000E+006	Initial Fre&q. (Hz)
FREQFINAL	QUANT	1.00000E+000	Final Fre&q. (Hz)
PTSPERDEC	QUANT	1.00000E+001	Points/&decade
VAC	QUANT	2.50000E+001	AC &Voltage (mV rms)
AREA	QUANT	5.00000E-004	&Area (cm^2)
CONDIT	TWOPARAM	F	5.00000E+000	0.00000E+000	Conditionin&g	Time(s)	E(V)
DELAY	TWOPARAM	T	3.00000E+000	0.00000E+000	Init. De&lay	Time(s)	Stab.(mV/s)
SPEED	SELECTOR	0	&Optimize for:
ZGUESS	QUANT	1.00000E+003	E&stimated Z (ohms)
OCVCURVE	TABLE	12
	Pt	T	Vf	Vm	Ach	Over
	#	s	V vs. Ref.	V	V	bits
	0	0.258333	1.26652E-001	1.26652E-001	4.99431E-004	...........
	1	0.516667	1.26652E-001	1.26622E-001	4.96198E-004	...........
	2	0.775	1.26648E-001	1.26596E-001	4.94365E-004	...........
	3	1.03333	1.26639E-001	1.26573E-001	4.87131E-004	...........
	4	1.29167	1.26622E-001	1.26550E-001	4.90365E-004	...........
	5	1.55	1.26600E-001	1.26532E-001	4.92065E-004	...........
	6	1.80833	1.26577E-001	1.26517E-001	4.87898E-004	...........
	7	2.06667	1.26555E-001	1.26500E-001	4.97431E-004	...........
	8	2.325	1.26536E-001	1.26488E-001	4.96098E-004	...........
	9	2.58333	1.26518E-001	1.26473E-001	4.94431E-004	...........
	10	2.84167	1.26503E-001	1.26460E-001	4.88598E-004	...........
	11	3.1	1.26489E-001	1.26449E-001	4.91031E-004	...........
EOC	QUANT	0.1264887	Open Circuit (V)
PSTATMODEL	IQUANT	4	Pstat Model
PSTATSECTION	LABEL	REF600-11020	Pstat Section
PSTATSERIALNO	LABEL	11020	Pstat Serial Number
CTRLMODE	IQUANT	1	Control Mode
IESTAB	IQUANT	0	I/E Stability
CASPEED	IQUANT	1	Control Amp Speed
CONVENTION	IQUANT	1	Current Convention
ICHRANGE	IQUANT	2	Ich Range
ICHRANGEMODE	TOGGLE	F	Ich Auto Range
ICHOFFSETENABLE	TOGGLE	T	Ich Offset Enable
ICHOFFSET	QUANT	0	Ich Offset (V)
ICHFILTER	IQUANT	3	Ich Filter
VCHRANGE	IQUANT	2	Vch Range
VCHRANGEMODE	TOGGLE	F	Vch Auto Range
VCHOFFSETENABLE	TOGGLE	T	Vch Offset Enable
VCHOFFSET	QUANT	0	Vch Offset (V)
VCHFILTER	IQUANT	3	Vch Filter
ACHRANGE	IQUANT	2	Ach Range
ACHOFFSETENABLE	TOGGLE	F	Ach Offset Enable
ACHOFFSET	QUANT	0	Ach Offset (V)
ACHFILTER	IQUANT	3	Ach Filter
IERANGELOWERLIMIT	IQUANT	1	I/E Range Lower Limit
IERANGEMODE	TOGGLE	F	I/E AutoRange
IERANGE	IQUANT	8	I/E Range
POSFEEDENABLE	TOGGLE	F	Positive Feedback IR Comp
POSFEEDRESISTANCE	QUANT	0	Positive Feedback Resistance (ohm)
ACHSELECT	IQUANT	0	Ach Select
CABLEID	IQUANT	14	Cable ID
DCCALDATE	LABEL	2/27/2020	DC Calibration Date
ACCALDATE	LABEL	2/27/2020	AC Calibration Date
THERMOSELECT	IQUANT	1	Thermo Select
FRAMEWORKVERSION	QUANT	6.33	Framework Version
INSTRUMENTVERSION	LABEL	3.50	Instrument Version
ZCURVE	TABLE
	Pt	Time	Freq	Zreal	Zimag	Zsig	Zmod	Zphz	Idc	Vdc	IERange
	#	s	Hz	ohm	ohm	V	ohm	°	A	V	#
	0	1	1000078	2014.038	-2080.887	1	2895.935	-45.93526	4.194173E-008	0.1289496	8
	1	1	794390.6	2453.767	-2183.455	1	3284.577	-41.6639	-2.907667E-009	0.1286008	8
	2	1	630984.4	2913.843	-2209.085	1	3656.574	-37.16703	5.851977E-008	0.1284156	8
	3	2	501234.4	3366.677	-2152.226	1	3995.822	-32.58969	8.451109E-008	0.1282632	8
	4	2	398109.4	3776.761	-2026.058	1	4285.888	-28.2115	3.304726E-008	0.1282365	8
	5	2	316265.6	4131.648	-1855.651	1	4529.234	-24.18633	3.319727E-008	0.128191	8
	6	3	251203.1	4422.392	-1664.547	1	4725.28	-20.62587	4.025914E-008	0.1281788	8
	7	3	199546.9	4652.74	-1470.209	1	4879.498	-17.5359	4.216741E-008	0.1281839	8
	8	3	158578.1	4829.144	-1292.412	1	4999.096	-14.9828	2.736916E-008	0.1281688	8
	9	4	125953.1	5008.16	-1058.738	1	5118.847	-11.93673	-1.082565E-009	0.1281148	7
	10	4	100078.1	5092.922	-940.1437	1	5178.97	-10.45895	1.0465E-009	0.1281022	7
	11	4	79453.13	5177.551	-855.1495	1	5247.696	-9.37858	1.399641E-009	0.1281012	7
	12	4	63140.62	5250.074	-792.4168	1	5309.539	-8.583117	1.527795E-009	0.1281018	7
	13	5	50203.12	5315.16	-750.8668	1	5367.935	-8.040903	8.949376E-010	0.1280977	7
	14	5	39890.62	5376.4	-729.9617	1	5425.728	-7.731853	9.918335E-010	0.12809	7
	15	5	31640.63	5437.202	-729.6125	1	5485.936	-7.642806	7.871529E-010	0.1280937	7
	16	6	25171.88	5497.865	-748.5211	1	5548.586	-7.753013	1.418485E-009	0.1280954	7
	17	6	20015.62	5561.056	-786.4366	1	5616.389	-8.049312	1.146573E-009	0.1280948	7
	18	6	15890.62	5629.065	-844.4048	1	5692.047	-8.531214	5.386809E-010	0.1280948	7
	19	7	12609.37	5703.451	-924.2341	1	5777.851	-9.204665	1.570063E-009	0.1280833	7
	20	7	10078.13	5782.719	-1023.451	1	5872.588	-10.03653	1.143432E-009	0.1280923	7
	21	7	8015.625	5871.192	-1150.103	1	5982.778	-11.08328	1.516946E-009	0.128086	7
	22	8	6328.125	5970.808	-1310.651	1	6112.966	-12.38063	2.334647E-009	0.1280855	7
	23	8	5015.625	6082.193	-1504.361	1	6265.475	-13.89264	2.507648E-009	0.128085	7
	24	8	3984.375	6205.919	-1738.234	1	6444.756	-15.64718	2.652352E-009	0.1280823	7
	25	9	3170.956	6342.094	-2016.496	1	6654.954	-17.63828	3.612179E-009	0.1280864	7
	26	9	2527.573	6495.956	-2348.076	1	6907.308	-19.87327	2.786118E-009	0.1280845	7
	27	9	1976.103	6684.472	-2787.985	1	7242.584	-22.64023	3.121486E-009	0.1280811	7
	28	10	1577.524	6882.72	-3271.739	1	7620.768	-25.42434	3.031149E-009	0.1280846	7
	29	10	1265.625	7103.668	-3840.214	1	8075.23	-28.39547	2.094617E-009	0.1280769	7
	30	10	998.264	7375.705	-4579.413	1	8681.708	-31.83524	3.731636E-009	0.1280856	7
	31	10	796.875	7675.804	-5425.663	1	9399.775	-35.25468	2.519209E-009	0.1280826	7
	32	11	627.7902	8045.063	-6505.156	1	10346.02	-38.95865	-4.561856E-010	0.1281362	6
	33	11	505.5147	8431.993	-7702.943	1	11420.76	-42.41287	-5.524352E-010	0.1281329	6
	34	11	397.9953	8926.852	-9298.076	1	12889.64	-46.1669	2.888855E-010	0.1281495	6
	35	12	315.5048	9497.947	-11189.45	1	14677.02	-49.67439	2.775554E-010	0.1281507	6
	36	12	252.4038	10150.63	-13392.65	1	16804.71	-52.8406	2.322839E-010	0.1281476	6
	37	12	198.6229	10993.77	-16269.65	1	19635.8	-55.95222	3.326959E-010	0.1281398	6
	38	13	158.3615	11965.03	-19578.55	1	22945.19	-58.56966	2.082164E-010	0.1281393	6
	39	13	125.558	13183.72	-23683.1	1	27105.35	-60.89653	1.795155E-010	0.128141	6
	40	13	100.4464	14620.26	-28439.11	1	31977.1	-62.79276	2.508786E-010	0.1281375	6
	41	14	79.00281	16531.91	-34621.74	1	38366.24	-64.47549	1.48778E-010	0.1281354	6
	42	14	63.3446	18693.97	-41464.87	1	45484.07	-65.7323	1.677332E-010	0.1281334	6
	43	14	49.86702	21565.46	-50360.74	1	54783.88	-66.81844	-1.269306E-010	0.1281428	6
	44	15	39.72458	24914.71	-60535.32	1	65461.96	-67.62925	1.662727E-010	0.1281433	6
	45	15	31.6723	28969.09	-72654.62	1	78217.02	-68.26168	3.45747E-010	0.1281389	6
	46	15	24.93351	34207.97	-88068.22	1	94478.55	-68.77254	1.036031E-011	0.1281386	6
	47	16	19.86229	40367.3	-105619.1	1	113070.4	-69.0833	-1.210453E-010	0.1281367	5
	48	16	15.83615	47795.6	-126639.9	1	135359.1	-69.32281	-5.694272E-010	0.1281402	5
	49	16	12.40079	57774.39	-153978.9	1	164460.8	-69.43341	-6.263308E-010	0.1281465	5
	50	17	9.93114	69095.41	-183732.2	1	196294.9	-69.39043	-6.922448E-010	0.1281409	5
	51	17	7.944915	83164.44	-219291.4	1	234531.5	-69.23119	-7.579955E-011	0.1281409	5
	52	17	6.317385	101486.7	-262870.7	1	281781	-68.88988	-3.123308E-010	0.1281561	5
	53	18	5.008013	125259.3	-315315.6	1	339284.3	-68.33451	-3.986399E-010	0.1281455	5
	54	19	3.945707	156827.5	-377985.4	1	409228.3	-67.46626	-7.994216E-011	0.1281502	5
	55	20	3.158693	194277.2	-446673.2	1	487094	-66.49372	-2.931724E-010	0.1281395	5
	56	21	2.504006	243305.6	-527467.6	1	580878.4	-65.23749	-1.619213E-010	0.1281355	5
	57	22	1.998082	302355.7	-616541.6	1	686689.6	-63.87639	-3.462618E-011	0.1281792	5
	58	24	1.584686	376034.3	-716410.5	1	809101.8	-62.30562	-8.414366E-011	0.1281379	5
	59	26	1.266892	464486.2	-824287.9	1	946149.1	-60.59875	-1.003044E-010	0.128104	5
	60	28	0.999041	575156.1	-951716	1	1112011	-58.85394	-1.572194E-010	0.1280939	4
