EXPLAIN
TAG	EISPOT
TITLE	LABEL	Potentiostatic EIS	Test &Identifier
DATE	LABEL	1/25/2020	Date
TIME	LABEL	12:00:01	Time
NOTES	NOTES	6	&Notes...
	
	
	
	
	
	
PSTAT	PSTAT	REF600-11020	Potentiostat
VDC	POTEN	0.00000E+000	T	DC &Voltage (V)
FREQINIT	QUANT	1.00000E+006	Initial Fre&q. (Hz)
FREQFINAL	QUANT	1.00000E+000	Final Fre&q. (Hz)
PTSPERDEC	QUANT	1.00000E+001	Points/&decade
VAC	QUANT	2.50000E+001	AC &Voltage (mV rms)
AREA	QUANT	1.00000E-001	&Area (cm^2)
CONDIT	TWOPARAM	F	5.00000E+000	0.00000E+000	Conditionin&g	Time(s)	E(V)
DELAY	TWOPARAM	F	5.00000E+000	0.00000E+000	Init. De&lay	Time(s)	Stab.(mV/s)
SPEED	SELECTOR	0	&Optimize for:
ZGUESS	QUANT	5.00000E+002	E&stimated Z (ohms)
OCVCURVE	TABLE	39
	Pt	T	Vf	Vm	Ach	Over
	#	s	V vs. Ref.	V	V	bits
	0	0.258333	2.92020E-002	2.92020E-002	6.32413E-004	...........
	1	0.516667	2.92007E-002	2.91361E-002	6.28780E-004	...........
	2	0.775	2.91931E-002	2.90780E-002	6.37246E-004	...........
	3	1.03333	2.91718E-002	2.90250E-002	6.32580E-004	...........
	4	1.29167	2.91345E-002	2.89745E-002	6.30313E-004	...........
	5	1.55	2.90860E-002	2.89291E-002	6.33880E-004	...........
	6	1.80833	2.90338E-002	2.88820E-002	6.25613E-004	...........
	7	2.06667	2.89821E-002	2.88255E-002	6.28013E-004	...........
	8	2.325	2.89305E-002	2.87049E-002	6.30013E-004	...........
	9	2.58333	2.88786E-002	2.89261E-002	6.32247E-004	...........
	10	2.84167	2.88401E-002	2.89177E-002	6.32146E-004	...........
	11	3.1	2.88334E-002	2.88605E-002	6.31647E-004	...........
	12	3.35833	2.88505E-002	2.87944E-002	6.37213E-004	...........
	13	3.61667	2.88603E-002	2.87265E-002	6.37780E-004	...........
	14	3.875	2.88424E-002	2.86861E-002	6.41213E-004	...........
	15	4.13333	2.87998E-002	2.86335E-002	6.41546E-004	...........
	16	4.39167	2.87459E-002	2.85778E-002	6.34880E-004	...........
	17	4.65	2.86906E-002	2.85406E-002	6.37846E-004	...........
	18	4.90833	2.86382E-002	2.85048E-002	6.33980E-004	...........
	19	5.16667	2.85902E-002	2.84741E-002	6.30413E-004	...........
	20	5.425	2.85475E-002	2.84311E-002	6.31913E-004	...........
	21	5.68333	2.85089E-002	2.83941E-002	6.33547E-004	...........
	22	5.94167	2.84719E-002	2.83576E-002	6.32713E-004	...........
	23	6.2	2.84350E-002	2.83233E-002	6.34180E-004	...........
	24	6.45833	2.83980E-002	2.82864E-002	6.34413E-004	...........
	25	6.71667	2.83614E-002	2.82488E-002	6.31413E-004	...........
	26	6.975	2.83251E-002	2.82142E-002	6.33647E-004	...........
	27	7.23333	2.82889E-002	2.81773E-002	6.35513E-004	...........
	28	7.49167	2.82527E-002	2.81453E-002	6.33813E-004	...........
	29	7.75	2.82169E-002	2.81095E-002	6.35780E-004	...........
	30	8.00833	2.81818E-002	2.80787E-002	6.35646E-004	...........
	31	8.26667	2.81474E-002	2.80450E-002	6.31513E-004	...........
	32	8.525	2.81138E-002	2.80177E-002	6.36046E-004	...........
	33	8.78333	2.80814E-002	2.79945E-002	6.37346E-004	...........
	34	9.04167	2.80507E-002	2.79675E-002	6.28113E-004	...........
	35	9.3	2.80222E-002	2.79426E-002	6.31147E-004	...........
	36	9.5583	2.79955E-002	2.79150E-002	6.27280E-004	...........
	37	9.8167	2.79694E-002	2.78855E-002	6.26580E-004	...........
	38	10.075	2.79431E-002	2.78572E-002	6.31680E-004	...........
EOC	QUANT	0.0279431	Open Circuit (V)
PSTATMODEL	IQUANT	4	Pstat Model
PSTATSECTION	LABEL	REF600-11020	Pstat Section
PSTATSERIALNO	LABEL	11020	Pstat Serial Number
CTRLMODE	IQUANT	1	Control Mode
IESTAB	IQUANT	0	I/E Stability
CASPEED	IQUANT	1	Control Amp Speed
CONVENTION	IQUANT	1	Current Convention
ICHRANGE	IQUANT	2	Ich Range
ICHRANGEMODE	TOGGLE	F	Ich Auto Range
ICHOFFSETENABLE	TOGGLE	T	Ich Offset Enable
ICHOFFSET	QUANT	0	Ich Offset (V)
ICHFILTER	IQUANT	3	Ich Filter
VCHRANGE	IQUANT	2	Vch Range
VCHRANGEMODE	TOGGLE	F	Vch Auto Range
VCHOFFSETENABLE	TOGGLE	T	Vch Offset Enable
VCHOFFSET	QUANT	0	Vch Offset (V)
VCHFILTER	IQUANT	3	Vch Filter
ACHRANGE	IQUANT	2	Ach Range
ACHOFFSETENABLE	TOGGLE	F	Ach Offset Enable
ACHOFFSET	QUANT	0	Ach Offset (V)
ACHFILTER	IQUANT	3	Ach Filter
IERANGELOWERLIMIT	IQUANT	1	I/E Range Lower Limit
IERANGEMODE	TOGGLE	F	I/E AutoRange
IERANGE	IQUANT	8	I/E Range
POSFEEDENABLE	TOGGLE	F	Positive Feedback IR Comp
POSFEEDRESISTANCE	QUANT	0	Positive Feedback Resistance (ohm)
ACHSELECT	IQUANT	0	Ach Select
CABLEID	IQUANT	14	Cable ID
DCCALDATE	LABEL	12/22/2019	DC Calibration Date
ACCALDATE	LABEL	12/22/2019	AC Calibration Date
THERMOSELECT	IQUANT	1	Thermo Select
FRAMEWORKVERSION	QUANT	6.33	Framework Version
INSTRUMENTVERSION	LABEL	3.50	Instrument Version
ZCURVE	TABLE
	Pt	Time	Freq	Zreal	Zimag	Zsig	Zmod	Zphz	Idc	Vdc	IERange
	#	s	Hz	ohm	ohm	V	ohm	°	A	V	#
	0	1	1000078	2130.946	-1258.243	1	2474.693	-30.56024	9.001446E-007	0.0300307	8
	1	1	794390.6	2363.385	-1183.962	1	2643.36	-26.60905	-8.488512E-007	0.0299505	8
	2	2	630984.4	2559.001	-1076.195	1	2776.091	-22.80933	-3.012503E-006	0.0304257	8
	3	2	501234.4	2730.737	-965.779	1	2896.49	-19.47715	-1.888333E-006	0.0300673	8
	4	2	398109.4	2849.955	-851.4941	1	2974.438	-16.63481	-2.036178E-006	0.030009	8
	5	3	316265.6	2945.822	-750.2969	1	3039.87	-14.28934	-2.024469E-006	0.0299821	8
	6	3	251203.1	3030.089	-661.0878	1	3101.367	-12.30761	-2.027179E-006	0.0299675	8
	7	3	199546.9	3087.868	-587.4234	1	3143.246	-10.77101	-2.658709E-006	0.0301406	8
	8	4	158578.1	3136.365	-537.523	1	3182.093	-9.7251	-8.441217E-007	0.0296817	8
	9	4	125953.1	3194.175	-481.3407	1	3230.238	-8.569612	-3.58284E-007	0.0302544	7
	10	4	100078.1	3228.018	-453.5124	1	3259.719	-7.997287	1.898621E-010	0.0294831	7
	11	5	79453.13	3265.773	-450.0947	1	3296.644	-7.84717	-2.786079E-008	0.0295411	7
	12	5	63140.62	3305.113	-458.4016	1	3336.75	-7.896246	4.211771E-010	0.0294699	7
	13	5	50203.12	3344.742	-476.1893	1	3378.47	-8.102719	-2.5648E-008	0.0295256	7
	14	6	39890.62	3388.771	-505.5898	1	3426.279	-8.485687	-1.367134E-008	0.0295091	7
	15	6	31640.63	3435.776	-547.6061	1	3479.142	-9.055833	1.216652E-009	0.0295227	7
	16	6	25171.88	3487.372	-601.7825	1	3538.913	-9.79057	7.880219E-008	0.0293925	7
	17	6	20015.62	3545.961	-668.5861	1	3608.441	-10.67769	1.600141E-008	0.0294551	7
	18	7	15890.62	3610.871	-751.254	1	3688.193	-11.75292	3.517284E-008	0.0295038	7
	19	7	12609.37	3685.764	-850.4955	1	3782.618	-12.99365	-1.410269E-008	0.0295885	7
	20	7	10078.13	3765.219	-963.212	1	3886.471	-14.34957	-1.923148E-008	0.0295702	7
	21	8	8015.625	3859.197	-1097.882	1	4012.324	-15.88023	1.554825E-008	0.029489	7
	22	8	6328.125	3966.39	-1263.773	1	4162.856	-17.67294	4.874812E-008	0.0294151	7
	23	8	5015.625	4087.12	-1456.074	1	4338.745	-19.60891	3.066892E-009	0.0295178	7
	24	9	3984.375	4220.425	-1680.422	1	4542.666	-21.71067	-1.738748E-008	0.0295679	7
	25	9	3170.956	4366.979	-1941.275	1	4779.022	-23.96682	-2.828739E-008	0.0295281	7
	26	9	2527.573	4531.065	-2248.83	1	5058.438	-26.39583	-1.460741E-008	0.029585	7
	27	10	1976.103	4730.363	-2645.826	1	5420.031	-29.21952	-2.567453E-008	0.0295161	7
	28	10	1577.524	4935.663	-3082.329	1	5819.065	-31.98484	-2.672933E-008	0.0295318	7
	29	10	1265.625	5161.348	-3592.005	1	6288.244	-34.83573	4.866374E-008	0.0293943	7
	30	11	998.264	5431.559	-4247.282	1	6895.015	-38.02412	1.772669E-008	0.0294827	7
	31	11	796.875	5724.892	-4998.902	1	7600.224	-41.12704	-2.502814E-008	0.0295264	7
	32	11	627.7902	6069.216	-5970.707	1	8513.796	-44.53122	-1.169362E-008	0.0295843	7
	33	12	505.5147	6437.863	-7023.192	1	9527.4	-47.48983	2.909346E-008	0.029407	7
	34	12	397.9953	6894.622	-8446.363	1	10903.07	-50.77583	8.673282E-010	0.0295043	6
	35	12	315.5048	7412.887	-10131.71	1	12553.98	-53.80886	9.716855E-010	0.0295061	6
	36	13	252.4038	7997.393	-12100.43	1	14504.44	-56.53857	7.351452E-010	0.0295042	6
	37	13	198.6229	8746.525	-14677.63	1	17086.09	-59.20892	4.177143E-010	0.0295112	6
	38	13	158.3615	9601.52	-17649.33	1	20091.99	-61.45309	1.374344E-010	0.0295038	6
	39	14	125.558	10665.98	-21342.68	1	23859.44	-63.44646	4.374251E-010	0.0295064	6
	40	14	100.4464	11919.04	-25659.97	1	28293.07	-65.08516	4.676168E-010	0.0295055	6
	41	14	79.00281	13543.49	-31284.93	1	34090.66	-66.59184	7.320876E-010	0.0295037	6
	42	14	63.3446	15448.79	-37325.46	1	40396.23	-67.51563	1.419107E-010	0.0294987	6
	43	15	49.86702	17986.75	-45566.22	1	48987.79	-68.45893	-5.420371E-011	0.0294958	6
	44	15	39.72458	20832.2	-55115.53	1	58921.15	-69.29475	2.612761E-010	0.0294998	6
	45	16	31.6723	24483.86	-66557.49	1	70917.98	-69.80344	-7.75524E-011	0.0295022	6
	46	16	24.93351	29515.79	-80960.21	1	86172.72	-69.96958	1.039064E-010	0.0294947	6
	47	16	19.86229	35463.64	-97477	1	103727.7	-70.00783	-4.500267E-010	0.0294901	6
	48	16	15.83615	43577.95	-117562.3	1	125379.1	-69.66128	1.228348E-009	0.0294938	5
	49	17	12.40079	54564.38	-142953.3	1	153012.8	-69.10847	3.283643E-010	0.0294908	5
	50	17	9.93114	66873.12	-169837.5	1	182528.8	-68.50807	8.525714E-011	0.0294887	5
	51	17	7.944915	82233.81	-201054.9	1	217222.2	-67.75487	1.423698E-009	0.0294915	5
	52	18	6.317385	105240.1	-238100.5	1	260321.5	-66.15463	-1.683547E-010	0.0295143	5
	53	19	5.008013	133109.1	-280541.8	1	310518.5	-64.61699	-8.041819E-011	0.0294943	5
	54	20	3.945707	169572.8	-328573.4	1	369750.5	-62.70228	1.839509E-010	0.029487	5
	55	21	3.158693	208992.2	-378246.3	1	432143.5	-61.07806	2.342762E-010	0.0295046	5
	56	22	2.504006	259435.1	-433434.1	1	505145.2	-59.09706	-2.492498E-012	0.0295027	5
	57	24	1.998082	314664.1	-490628.8	1	582863.7	-57.32598	-2.107998E-011	0.029476	5
	58	25	1.584686	379532	-551302.8	1	669312.5	-55.45541	1.139986E-010	0.0295253	5
	59	27	1.266892	449291.3	-617301.6	1	763494.6	-53.95171	1.491211E-010	0.0295342	5
	60	30	0.999041	528571.8	-692502.5	1	871176.1	-52.64631	1.417255E-010	0.0295255	5
