EXPLAIN
TAG	EISPOT
TITLE	LABEL	Potentiostatic EIS	Test &Identifier
DATE	LABEL	7/30/2020	Date
TIME	LABEL	22:43:40	Time
NOTES	NOTES	1	&Notes...
	
PSTAT	PSTAT	REF600-11020	Potentiostat
VDC	POTEN	0.00000E+000	T	DC &Voltage (V)
FREQINIT	QUANT	1.00000E+006	Initial Fre&q. (Hz)
FREQFINAL	QUANT	1.00000E+000	Final Fre&q. (Hz)
PTSPERDEC	QUANT	1.00000E+001	Points/&decade
VAC	QUANT	2.50000E+001	AC &Voltage (mV rms)
AREA	QUANT	4.00000E-005	&Area (cm^2)
CONDIT	TWOPARAM	F	5.00000E+000	0.00000E+000	Conditionin&g	Time(s)	E(V)
DELAY	TWOPARAM	F	3.00000E+000	0.00000E+000	Init. De&lay	Time(s)	Stab.(mV/s)
SPEED	SELECTOR	0	&Optimize for:
ZGUESS	QUANT	1.00000E+003	E&stimated Z (ohms)
OCVCURVE	TABLE	39
	Pt	T	Vf	Vm	Ach	Over
	#	s	V vs. Ref.	V	V	bits
	0	0.258333	-5.84779E-002	-5.84779E-002	5.15583E-004	...........
	1	0.516667	-5.84783E-002	-5.84988E-002	5.16017E-004	...........
	2	0.775	-5.84807E-002	-5.85147E-002	5.14983E-004	...........
	3	1.03333	-5.84873E-002	-5.85337E-002	5.12517E-004	...........
	4	1.29167	-5.84988E-002	-5.85501E-002	5.12517E-004	...........
	5	1.55	-5.85140E-002	-5.85684E-002	5.15783E-004	...........
	6	1.80833	-5.85311E-002	-5.85846E-002	5.17817E-004	...........
	7	2.06667	-5.85488E-002	-5.86026E-002	5.10250E-004	...........
	8	2.325	-5.85663E-002	-5.86168E-002	5.16850E-004	...........
	9	2.58333	-5.85834E-002	-5.86334E-002	5.13783E-004	...........
	10	2.84167	-5.85999E-002	-5.86465E-002	5.07717E-004	...........
	11	3.1	-5.86160E-002	-5.86701E-002	5.13783E-004	...........
	12	3.35833	-5.86322E-002	-5.86913E-002	5.18017E-004	...........
	13	3.61667	-5.86498E-002	-5.87175E-002	5.14317E-004	...........
	14	3.875	-5.86695E-002	-5.87400E-002	5.17850E-004	...........
	15	4.13333	-5.86913E-002	-5.87617E-002	5.20550E-004	...........
	16	4.39167	-5.87142E-002	-5.87815E-002	5.20317E-004	...........
	17	4.65	-5.87369E-002	-5.88000E-002	5.15717E-004	...........
	18	4.90833	-5.87586E-002	-5.88162E-002	5.16817E-004	...........
	19	5.16667	-5.87787E-002	-5.88345E-002	5.18583E-004	...........
	20	5.425	-5.87975E-002	-5.88465E-002	5.18017E-004	...........
	21	5.68333	-5.88148E-002	-5.88622E-002	5.21017E-004	...........
	22	5.94167	-5.88310E-002	-5.88778E-002	5.20483E-004	...........
	23	6.2	-5.88464E-002	-5.88921E-002	5.18783E-004	...........
	24	6.45833	-5.88613E-002	-5.89060E-002	5.17183E-004	...........
	25	6.71667	-5.88761E-002	-5.89223E-002	5.21783E-004	...........
	26	6.975	-5.88909E-002	-5.89353E-002	5.18717E-004	...........
	27	7.23333	-5.89055E-002	-5.89463E-002	5.18250E-004	...........
	28	7.49167	-5.89197E-002	-5.89621E-002	5.17150E-004	...........
	29	7.75	-5.89335E-002	-5.89753E-002	5.21717E-004	...........
	30	8.00833	-5.89470E-002	-5.89906E-002	5.18983E-004	...........
	31	8.26667	-5.89607E-002	-5.90011E-002	5.23883E-004	...........
	32	8.525	-5.89744E-002	-5.90134E-002	5.17750E-004	...........
	33	8.78333	-5.89876E-002	-5.90242E-002	5.20550E-004	...........
	34	9.04167	-5.90002E-002	-5.90362E-002	5.23783E-004	...........
	35	9.3	-5.90121E-002	-5.90477E-002	5.18950E-004	...........
	36	9.5583	-5.90237E-002	-5.90576E-002	5.20317E-004	...........
	37	9.8167	-5.90351E-002	-5.90713E-002	5.18517E-004	...........
	38	10.075	-5.90465E-002	-5.90823E-002	5.19717E-004	...........
EOC	QUANT	-0.0590465	Open Circuit (V)
PSTATMODEL	IQUANT	4	Pstat Model
PSTATSECTION	LABEL	REF600-11020	Pstat Section
PSTATSERIALNO	LABEL	11020	Pstat Serial Number
CTRLMODE	IQUANT	1	Control Mode
IESTAB	IQUANT	0	I/E Stability
CASPEED	IQUANT	1	Control Amp Speed
CONVENTION	IQUANT	1	Current Convention
ICHRANGE	IQUANT	2	Ich Range
ICHRANGEMODE	TOGGLE	F	Ich Auto Range
ICHOFFSETENABLE	TOGGLE	T	Ich Offset Enable
ICHOFFSET	QUANT	0	Ich Offset (V)
ICHFILTER	IQUANT	3	Ich Filter
VCHRANGE	IQUANT	2	Vch Range
VCHRANGEMODE	TOGGLE	F	Vch Auto Range
VCHOFFSETENABLE	TOGGLE	T	Vch Offset Enable
VCHOFFSET	QUANT	0	Vch Offset (V)
VCHFILTER	IQUANT	3	Vch Filter
ACHRANGE	IQUANT	2	Ach Range
ACHOFFSETENABLE	TOGGLE	F	Ach Offset Enable
ACHOFFSET	QUANT	0	Ach Offset (V)
ACHFILTER	IQUANT	3	Ach Filter
IERANGELOWERLIMIT	IQUANT	1	I/E Range Lower Limit
IERANGEMODE	TOGGLE	F	I/E AutoRange
IERANGE	IQUANT	8	I/E Range
POSFEEDENABLE	TOGGLE	F	Positive Feedback IR Comp
POSFEEDRESISTANCE	QUANT	0	Positive Feedback Resistance (ohm)
ACHSELECT	IQUANT	0	Ach Select
CABLEID	IQUANT	14	Cable ID
DCCALDATE	LABEL	6/26/2020	DC Calibration Date
ACCALDATE	LABEL	6/26/2020	AC Calibration Date
THERMOSELECT	IQUANT	1	Thermo Select
FRAMEWORKVERSION	QUANT	6.33	Framework Version
INSTRUMENTVERSION	LABEL	3.50	Instrument Version
ZCURVE	TABLE
	Pt	Time	Freq	Zreal	Zimag	Zsig	Zmod	Zphz	Idc	Vdc	IERange
	#	s	Hz	ohm	ohm	V	ohm	°	A	V	#
	0	1	1000078	1412.141	-1915.331	1	2379.629	-53.59929	1.500335E-007	-0.056606	8
	1	1	794390.6	1609.73	-2180.628	1	2710.419	-53.56543	-3.406571E-009	-0.0569917	8
	2	2	630984.4	1825.745	-2487.101	1	3085.29	-53.71815	5.055752E-008	-0.0571485	8
	3	2	501234.4	2060.791	-2851.961	1	3518.6	-54.1486	6.648457E-008	-0.0572443	8
	4	2	398109.4	2318.37	-3292.994	1	4027.238	-54.85326	4.974398E-008	-0.0573333	8
	5	3	316265.6	2626.428	-3816.108	1	4632.581	-55.46239	5.171595E-008	-0.057373	8
	6	3	251203.1	2969.165	-4436.961	1	5338.78	-56.21	1.53153E-008	-0.0573584	8
	7	3	199546.9	3391.376	-5183.033	1	6193.97	-56.80237	7.154308E-008	-0.057362	8
	8	4	158578.1	3886.692	-6054.668	1	7194.816	-57.30225	-6.287342E-009	-0.0573697	8
	9	4	125953.1	4538.704	-7088.906	1	8417.388	-57.37041	-5.392862E-009	-0.0573691	7
	10	4	100078.1	5268.195	-8310.861	1	9839.93	-57.62968	2.648292E-009	-0.057407	7
	11	4	79453.13	6162.708	-9715.55	1	11505.25	-57.61247	3.195084E-009	-0.0574242	7
	12	5	63140.62	7226.949	-11308.93	1	13420.9	-57.41947	3.402616E-009	-0.0574171	7
	13	5	50203.12	8541.431	-13099.48	1	15638.18	-56.89391	1.485012E-009	-0.0574317	7
	14	5	39890.62	10102.41	-15134.49	1	18196.47	-56.27653	2.340436E-009	-0.0574266	7
	15	6	31640.63	11988.09	-17436.19	1	21159.75	-55.48989	1.487509E-009	-0.0574318	7
	16	6	25171.88	14177.72	-19931.41	1	24459.54	-54.57479	2.192755E-009	-0.0574311	7
	17	6	20015.62	16723.39	-22688.03	1	28185.43	-53.606	3.306972E-009	-0.0574209	7
	18	7	15890.62	19751.92	-25725.12	1	32433.32	-52.4827	2.070865E-009	-0.0574253	7
	19	7	12609.37	23586.98	-29072.51	1	37437.37	-50.94704	9.38151E-010	-0.0574405	6
	20	7	10078.13	27729.59	-32692.57	1	42868.8	-49.69564	1.205682E-009	-0.0574391	6
	21	7	8015.625	32849.7	-36542.31	1	49136.98	-48.04605	8.437542E-010	-0.0574465	6
	22	8	6328.125	39210.53	-40552.77	1	56409.16	-45.96407	1.035177E-009	-0.0574424	6
	23	8	5015.625	46576.31	-44095.89	1	64138.92	-43.43301	8.004589E-010	-0.0574483	6
	24	8	3984.375	54953.71	-46952.83	1	72280.55	-40.51081	9.04558E-010	-0.0574477	6
	25	9	3170.956	63980.89	-48642.15	1	80371.72	-37.2443	7.650583E-010	-0.0574498	6
	26	9	2527.573	73322.66	-49287.71	1	88348.69	-33.90911	9.768512E-010	-0.0574525	6
	27	9	1976.103	83227.8	-48379.16	1	96267.4	-30.16884	1.002468E-009	-0.0574475	6
	28	10	1577.524	91674.45	-46389.89	1	102743.5	-26.84071	7.442132E-010	-0.0574546	6
	29	10	1265.625	99755.2	-42476.25	1	108422	-23.06453	4.323574E-010	-0.0574625	5
	30	10	998.264	106655.9	-39442.14	1	113715.3	-20.29477	4.575877E-010	-0.0574685	5
	31	10	796.875	112025.6	-36307.95	1	117762.5	-17.95772	4.432645E-010	-0.0574641	5
	32	11	627.7902	117227.2	-33465.54	1	121910.4	-15.93277	4.086961E-010	-0.0574653	5
	33	11	505.5147	120582.3	-30877.56	1	124472.9	-14.36313	3.837924E-010	-0.0574655	5
	34	11	397.9953	124127.2	-28815.38	1	127428	-13.06938	4.020892E-010	-0.0574328	5
	35	12	315.5048	126764.8	-27344.55	1	129680.5	-12.17281	4.550764E-010	-0.0574354	5
	36	12	252.4038	129114.4	-26642.6	1	131834.5	-11.65927	5.092E-010	-0.0574377	5
	37	12	198.6229	131191.9	-26649.92	1	133871.3	-11.48265	3.405806E-010	-0.0574323	5
	38	13	158.3615	133466.2	-27579.3	1	136285.9	-11.67521	3.672164E-010	-0.0574369	5
	39	13	125.558	135225.5	-29289.12	1	138361.1	-12.22118	1.260537E-010	-0.0574339	5
	40	13	100.4464	137201.5	-31907.66	1	140862.9	-13.09203	4.225083E-010	-0.0574416	5
	41	14	79.00281	140067.8	-35849.23	1	144582.7	-14.35621	1.570196E-010	-0.0574427	5
	42	14	63.3446	142926.8	-40491.24	1	148551.7	-15.81746	1.215165E-010	-0.0574396	5
	43	14	49.86702	146441.3	-46750.14	1	153722.6	-17.70524	1.49869E-010	-0.0574381	5
	44	15	39.72458	150584.2	-54007.41	1	159976.3	-19.7305	1.745969E-010	-0.057438	5
	45	15	31.6723	155655.1	-62392.36	1	167694.1	-21.84276	6.435881E-010	-0.0574409	5
	46	16	24.93351	161744.3	-72905.95	1	177416.1	-24.26339	1.067442E-009	-0.0574458	5
	47	16	19.86229	170205.1	-84407.29	1	189985.1	-26.37752	-7.737203E-010	-0.0574418	5
	48	16	15.83615	178546.6	-96697.1	1	203049.8	-28.43906	3.645252E-010	-0.0574458	5
	49	16	12.40079	189622.9	-112581.5	1	220525.3	-30.69813	-9.3227E-011	-0.057438	5
	50	17	9.93114	201237.8	-128620.3	1	238830.1	-32.58451	-8.551702E-010	-0.0574436	5
	51	17	7.944915	213884.4	-147008.2	1	259534	-34.50173	5.30919E-010	-0.0574517	5
	52	17	6.317385	229039.1	-168776.4	1	284507.3	-36.38609	-3.637755E-010	-0.057435	5
	53	18	5.008013	246223.6	-194026.2	1	313484	-38.2384	2.658328E-011	-0.0574396	5
	54	19	3.945707	266813.3	-224358.7	1	348606	-40.0599	1.784676E-011	-0.0574534	5
	55	20	3.158693	288085	-257659.2	1	386498.7	-41.809	1.479063E-010	-0.0574407	5
	56	21	2.504006	314167.6	-297664.7	1	432788.1	-43.45493	-1.975954E-011	-0.0574487	5
	57	22	1.998082	342928.2	-343411.5	1	485315.6	-45.04034	-1.474547E-010	-0.0574972	5
	58	24	1.584686	375606.7	-398110.8	1	547332.3	-46.66602	-9.169689E-011	-0.0574723	5
	59	26	1.266892	413252.5	-459209.9	1	617779.4	-48.0153	-1.454465E-011	-0.0574402	5
	60	28	0.999041	460654.1	-535765.3	1	706573.9	-49.31086	1.668353E-011	-0.0574232	5
