EXPLAIN
TAG	EISPOT
TITLE	LABEL	Potentiostatic EIS	Test &Identifier
DATE	LABEL	6/19/2020	Date
TIME	LABEL	16:49:16	Time
NOTES	NOTES	1	&Notes...
	
PSTAT	PSTAT	REF600-10037	Potentiostat
VDC	POTEN	0.00000E+000	T	DC &Voltage (V)
FREQINIT	QUANT	1.00000E+006	Initial Fre&q. (Hz)
FREQFINAL	QUANT	1.00000E+000	Final Fre&q. (Hz)
PTSPERDEC	QUANT	1.00000E+001	Points/&decade
VAC	QUANT	1.00000E+002	AC &Voltage (mV rms)
AREA	QUANT	2.50000E-001	&Area (cm^2)
CONDIT	TWOPARAM	F	5.00000E+000	0.00000E+000	Conditionin&g	Time(s)	E(V)
DELAY	TWOPARAM	F	5.00000E+000	0.00000E+000	Init. De&lay	Time(s)	Stab.(mV/s)
SPEED	SELECTOR	0	&Optimize for:
ZGUESS	QUANT	1.00000E+003	E&stimated Z (ohms)
OCVCURVE	TABLE	39
	Pt	T	Vf	Vm	Ach	Over
	#	s	V vs. Ref.	V	V	bits
	0	0.258333	6.31373E-002	6.31373E-002	5.57154E-004	...........
	1	0.516667	6.31371E-002	6.31273E-002	5.59787E-004	...........
	2	0.775	6.31361E-002	6.31243E-002	5.63020E-004	...........
	3	1.03333	6.31334E-002	6.31149E-002	5.62920E-004	...........
	4	1.29167	6.31289E-002	6.31063E-002	5.58154E-004	...........
	5	1.55	6.31227E-002	6.30974E-002	5.63687E-004	...........
	6	1.80833	6.31152E-002	6.30845E-002	5.59287E-004	...........
	7	2.06667	6.31064E-002	6.30710E-002	5.61887E-004	...........
	8	2.325	6.30962E-002	6.30571E-002	5.57420E-004	...........
	9	2.58333	6.30847E-002	6.30498E-002	5.69353E-004	...........
	10	2.84167	6.30727E-002	6.30437E-002	5.66453E-004	...........
	11	3.1	6.30615E-002	6.30333E-002	5.60154E-004	...........
	12	3.35833	6.30516E-002	6.30249E-002	5.59987E-004	...........
	13	3.61667	6.30429E-002	6.30226E-002	5.66754E-004	...........
	14	3.875	6.30350E-002	6.30178E-002	5.62587E-004	...........
	15	4.13333	6.30282E-002	6.30080E-002	5.60720E-004	...........
	16	4.39167	6.30218E-002	6.29873E-002	5.61354E-004	...........
	17	4.65	6.30141E-002	6.29754E-002	5.62820E-004	...........
	18	4.90833	6.30038E-002	6.29682E-002	5.68187E-004	...........
	19	5.16667	6.29919E-002	6.29663E-002	5.67420E-004	...........
	20	5.425	6.29807E-002	6.29583E-002	5.63454E-004	...........
	21	5.68333	6.29718E-002	6.29538E-002	5.65687E-004	...........
	22	5.94167	6.29649E-002	6.29443E-002	5.65254E-004	...........
	23	6.2	6.29588E-002	6.29405E-002	5.67320E-004	...........
	24	6.45833	6.29526E-002	6.29259E-002	5.63354E-004	...........
	25	6.71667	6.29456E-002	6.29196E-002	5.63720E-004	...........
	26	6.975	6.29373E-002	6.28946E-002	5.66987E-004	...........
	27	7.23333	6.29271E-002	6.28880E-002	5.66954E-004	...........
	28	7.49167	6.29150E-002	6.28829E-002	5.64187E-004	...........
	29	7.75	6.29027E-002	6.28790E-002	5.67987E-004	...........
	30	8.00833	6.28922E-002	6.28720E-002	5.64787E-004	...........
	31	8.26667	6.28843E-002	6.28638E-002	5.62254E-004	...........
	32	8.525	6.28778E-002	6.28614E-002	5.62620E-004	...........
	33	8.78333	6.28719E-002	6.28579E-002	5.63787E-004	...........
	34	9.04167	6.28665E-002	6.28488E-002	5.61554E-004	...........
	35	9.3	6.28612E-002	6.28335E-002	5.58520E-004	...........
	36	9.5583	6.28547E-002	6.28239E-002	5.64854E-004	...........
	37	9.8167	6.28462E-002	6.28085E-002	5.66520E-004	...........
	38	10.075	6.28357E-002	6.28047E-002	5.63787E-004	...........
EOC	QUANT	0.0628357	Open Circuit (V)
PSTATMODEL	IQUANT	4	Pstat Model
PSTATSECTION	LABEL	REF600-10037	Pstat Section
PSTATSERIALNO	LABEL	10037	Pstat Serial Number
CTRLMODE	IQUANT	1	Control Mode
IESTAB	IQUANT	0	I/E Stability
CASPEED	IQUANT	1	Control Amp Speed
CONVENTION	IQUANT	1	Current Convention
ICHRANGE	IQUANT	2	Ich Range
ICHRANGEMODE	TOGGLE	F	Ich Auto Range
ICHOFFSETENABLE	TOGGLE	T	Ich Offset Enable
ICHOFFSET	QUANT	0	Ich Offset (V)
ICHFILTER	IQUANT	3	Ich Filter
VCHRANGE	IQUANT	2	Vch Range
VCHRANGEMODE	TOGGLE	F	Vch Auto Range
VCHOFFSETENABLE	TOGGLE	T	Vch Offset Enable
VCHOFFSET	QUANT	0	Vch Offset (V)
VCHFILTER	IQUANT	3	Vch Filter
ACHRANGE	IQUANT	2	Ach Range
ACHOFFSETENABLE	TOGGLE	F	Ach Offset Enable
ACHOFFSET	QUANT	0	Ach Offset (V)
ACHFILTER	IQUANT	3	Ach Filter
IERANGELOWERLIMIT	IQUANT	1	I/E Range Lower Limit
IERANGEMODE	TOGGLE	F	I/E AutoRange
IERANGE	IQUANT	8	I/E Range
POSFEEDENABLE	TOGGLE	F	Positive Feedback IR Comp
POSFEEDRESISTANCE	QUANT	0	Positive Feedback Resistance (ohm)
ACHSELECT	IQUANT	0	Ach Select
CABLEID	IQUANT	14	Cable ID
DCCALDATE	LABEL	6/8/2020	DC Calibration Date
ACCALDATE	LABEL	6/8/2020	AC Calibration Date
THERMOSELECT	IQUANT	1	Thermo Select
FRAMEWORKVERSION	QUANT	6.33	Framework Version
INSTRUMENTVERSION	LABEL	3.50	Instrument Version
ZCURVE	TABLE
	Pt	Time	Freq	Zreal	Zimag	Zsig	Zmod	Zphz	Idc	Vdc	IERange
	#	s	Hz	ohm	ohm	V	ohm	°	A	V	#
	0	2	1000078	1997.866	-2026.605	1	2845.804	-45.40914	5.267267E-008	0.0716986	8
	1	3	794390.6	2415.909	-2134.449	1	3223.739	-41.4605	1.133383E-007	0.0714549	8
	2	3	630984.4	2858.85	-2170.129	1	3589.218	-37.20182	7.399853E-008	0.0712591	8
	3	3	501234.4	3294.178	-2124.224	1	3919.685	-32.81562	5.561259E-008	0.0711936	8
	4	4	398109.4	3695.145	-2016.667	1	4209.637	-28.62401	1.148536E-007	0.0711	8
	5	4	316265.6	4041.588	-1867.829	1	4452.327	-24.80413	8.977371E-008	0.0711301	8
	6	4	251203.1	4333.409	-1698.025	1	4654.216	-21.39748	6.901006E-008	0.0711397	8
	7	5	199546.9	4568.083	-1529.423	1	4817.314	-18.51088	1.15411E-007	0.0711471	8
	8	5	158578.1	4756.959	-1373.833	1	4951.371	-16.10898	6.096209E-008	0.0712107	8
	9	5	125953.1	4981.32	-1133.173	1	5108.584	-12.81581	2.110866E-009	0.0712138	7
	10	5	100078.1	5101.301	-1020.016	1	5202.279	-11.30729	5.139655E-009	0.0711902	7
	11	6	79453.13	5202.771	-956.154	1	5289.901	-10.4135	2.392045E-008	0.0711698	7
	12	6	63140.62	5279.423	-908.1871	1	5356.968	-9.76071	6.664965E-009	0.0711502	7
	13	6	50203.12	5362.092	-887.0513	1	5434.969	-9.393373	-2.601959E-009	0.0711322	7
	14	7	39890.62	5453.9	-887.3096	1	5525.608	-9.240641	-3.284806E-009	0.0711143	7
	15	7	31640.63	5528.154	-904.2787	1	5601.625	-9.289994	-3.581742E-009	0.0711264	7
	16	7	25171.88	5613.373	-940.4028	1	5691.6	-9.51039	-6.225946E-009	0.0711189	7
	17	8	20015.62	5703.783	-995.854	1	5790.066	-9.90375	-5.378829E-009	0.0711187	7
	18	8	15890.62	5800.219	-1072.57	1	5898.555	-10.47672	1.283612E-008	0.0711304	7
	19	8	12609.37	5903.762	-1170.717	1	6018.72	-11.21626	5.30686E-009	0.0711301	7
	20	9	10078.13	6014.696	-1292.293	1	6151.958	-12.12599	-2.664452E-009	0.0711203	7
	21	9	8015.625	6137.305	-1440.986	1	6304.202	-13.21322	-4.516269E-009	0.0711231	7
	22	9	6328.125	6288.128	-1629.91	1	6495.934	-14.5315	1.286423E-008	0.0711152	7
	23	10	5015.625	6433.808	-1852.111	1	6695.087	-16.05961	-4.933518E-009	0.0711182	7
	24	10	3984.375	6605.056	-2112.438	1	6934.635	-17.73539	-1.476843E-009	0.071124	7
	25	10	3170.956	6798.817	-2420.346	1	7216.785	-19.59548	-2.075339E-009	0.0711282	7
	26	11	2527.573	7016.374	-2779.842	1	7546.988	-21.61315	9.654362E-009	0.07113	7
	27	11	1976.103	7285.246	-3242.975	1	7974.44	-23.9959	7.938482E-009	0.0711245	7
	28	11	1577.524	7566.036	-3744.523	1	8441.94	-26.33137	5.217809E-009	0.07113	7
	29	11	1265.625	7875.914	-4326.007	1	8985.786	-28.77869	-6.107149E-009	0.0711207	7
	30	12	998.264	8251.585	-5052.501	1	9675.56	-31.47942	5.288831E-009	0.0711343	7
	31	12	796.875	8656.346	-5884.388	1	10467.01	-34.20698	-2.962971E-009	0.071127	7
	32	12	627.7902	9139.645	-6918.287	1	11462.8	-37.12403	1.472414E-008	0.0711083	7
	33	13	505.5147	9648.53	-8076.741	1	12582.84	-39.93254	1.827737E-008	0.0711327	7
	34	13	397.9953	10285.99	-9574	1	14052.15	-42.94681	8.561837E-009	0.0711536	7
	35	13	315.5048	11018.71	-11335.71	1	15808.55	-45.81244	7.887844E-009	0.0711474	7
	36	14	252.4038	11850.63	-13363.61	1	17861.23	-48.43391	8.277354E-009	0.0711458	7
	37	14	198.6229	12924.49	-15974.13	1	20547.88	-51.02406	7.587819E-009	0.0711451	7
	38	14	158.3615	14147.22	-18922.94	1	23626.71	-53.21737	8.232985E-009	0.0711465	7
	39	15	125.558	15666.62	-22516.15	1	27430.28	-55.17002	7.884323E-009	0.0711471	7
	40	15	100.4464	17410.27	-26586.89	1	31780.19	-56.78145	8.562179E-009	0.0711477	7
	41	15	79.00281	19606.53	-31616.05	1	37202.03	-58.19509	9.195449E-009	0.0711306	7
	42	16	63.3446	22088.27	-37436.62	1	43467.14	-59.45865	8.234596E-010	0.0711395	6
	43	16	49.86702	25200.62	-44723.27	1	51334.61	-60.59966	2.648444E-010	0.071137	6
	44	16	39.72458	28713.73	-53018.27	1	60294.41	-61.56083	1.195211E-009	0.0711387	6
	45	17	31.6723	32930.85	-62927.55	1	71023.36	-62.37632	-1.591043E-009	0.0711391	6
	46	17	24.93351	38445.13	-75440.26	1	84671.48	-62.99614	3.156534E-009	0.0711373	6
	47	17	19.86229	45144.5	-89983	1	100672.6	-63.35707	-5.555806E-009	0.0625659	6
	48	18	15.83615	53674.61	-106902.5	1	119620.7	-63.33926	-4.511912E-009	0.0625613	6
	49	18	12.40079	65202.66	-128031.3	1	143678.1	-63.01155	-3.979038E-009	0.0625671	6
	50	18	9.93114	78712.16	-150088.1	1	169475.8	-62.3257	-3.318019E-009	0.0625669	6
	51	19	7.944915	95661.9	-174925.2	1	199374.1	-61.32693	-3.163941E-009	0.0625647	6
	52	19	6.317385	116988.1	-202701.3	1	234038.6	-60.00882	-1.800652E-009	0.0625676	6
	53	20	5.008013	142824.9	-233159.5	1	273427	-58.5099	-1.348166E-009	0.0625656	6
	54	21	3.945707	173560.2	-266403.9	1	317953.1	-56.91605	-8.88436E-010	0.0625613	6
	55	22	3.158693	205354.7	-299272.7	1	362952.8	-55.5429	-6.9613E-010	0.0625647	6
	56	24	2.504006	241436	-335811.6	1	413594.9	-54.28528	-7.40026E-010	0.0625714	5
	57	25	1.998082	276664.4	-375028.9	1	466036.4	-53.58325	-5.257542E-010	0.0625678	5
	58	27	1.584686	314190.8	-422429	1	526461.9	-53.35917	-3.195236E-010	0.062568	5
	59	30	1.266892	351061.6	-476933.2	1	592207.3	-53.64391	-2.12416E-010	0.0625691	5
	60	33	0.999041	391465	-548073.1	1	673519.8	-54.46341	-2.589642E-010	0.0625674	5
