EXPLAIN
TAG	EISPOT
TITLE	LABEL	Potentiostatic EIS	Test &Identifier
DATE	LABEL	3/17/2020	Date
TIME	LABEL	15:40:46	Time
NOTES	NOTES	1	&Notes...
	
PSTAT	PSTAT	REF600-11020	Potentiostat
VDC	POTEN	0.00000E+000	T	DC &Voltage (V)
FREQINIT	QUANT	1.00000E+006	Initial Fre&q. (Hz)
FREQFINAL	QUANT	1.00000E+000	Final Fre&q. (Hz)
PTSPERDEC	QUANT	1.00000E+001	Points/&decade
VAC	QUANT	2.50000E+001	AC &Voltage (mV rms)
AREA	QUANT	4.00000E-004	&Area (cm^2)
CONDIT	TWOPARAM	F	5.00000E+000	0.00000E+000	Conditionin&g	Time(s)	E(V)
DELAY	TWOPARAM	T	3.00000E+000	0.00000E+000	Init. De&lay	Time(s)	Stab.(mV/s)
SPEED	SELECTOR	0	&Optimize for:
ZGUESS	QUANT	5.00000E+003	E&stimated Z (ohms)
OCVCURVE	TABLE	12
	Pt	T	Vf	Vm	Ach	Over
	#	s	V vs. Ref.	V	V	bits
	0	0.258333	1.66929E-001	1.66929E-001	5.61964E-004	...........
	1	0.516667	1.66929E-001	1.66931E-001	5.65864E-004	...........
	2	0.775	1.66929E-001	1.66933E-001	5.63464E-004	...........
	3	1.03333	1.66930E-001	1.66935E-001	5.71963E-004	...........
	4	1.29167	1.66931E-001	1.66940E-001	5.62963E-004	...........
	5	1.55	1.66933E-001	1.66943E-001	5.60930E-004	...........
	6	1.80833	1.66936E-001	1.66946E-001	5.63297E-004	...........
	7	2.06667	1.66939E-001	1.66945E-001	5.61864E-004	...........
	8	2.325	1.66942E-001	1.66948E-001	5.60097E-004	...........
	9	2.58333	1.66944E-001	1.66949E-001	5.61964E-004	...........
	10	2.84167	1.66946E-001	1.66948E-001	5.58330E-004	...........
	11	3.1	1.66947E-001	1.66948E-001	5.60497E-004	...........
EOC	QUANT	0.1669473	Open Circuit (V)
PSTATMODEL	IQUANT	4	Pstat Model
PSTATSECTION	LABEL	REF600-11020	Pstat Section
PSTATSERIALNO	LABEL	11020	Pstat Serial Number
CTRLMODE	IQUANT	1	Control Mode
IESTAB	IQUANT	0	I/E Stability
CASPEED	IQUANT	1	Control Amp Speed
CONVENTION	IQUANT	1	Current Convention
ICHRANGE	IQUANT	2	Ich Range
ICHRANGEMODE	TOGGLE	F	Ich Auto Range
ICHOFFSETENABLE	TOGGLE	T	Ich Offset Enable
ICHOFFSET	QUANT	0	Ich Offset (V)
ICHFILTER	IQUANT	3	Ich Filter
VCHRANGE	IQUANT	2	Vch Range
VCHRANGEMODE	TOGGLE	F	Vch Auto Range
VCHOFFSETENABLE	TOGGLE	T	Vch Offset Enable
VCHOFFSET	QUANT	0	Vch Offset (V)
VCHFILTER	IQUANT	3	Vch Filter
ACHRANGE	IQUANT	2	Ach Range
ACHOFFSETENABLE	TOGGLE	F	Ach Offset Enable
ACHOFFSET	QUANT	0	Ach Offset (V)
ACHFILTER	IQUANT	3	Ach Filter
IERANGELOWERLIMIT	IQUANT	1	I/E Range Lower Limit
IERANGEMODE	TOGGLE	F	I/E AutoRange
IERANGE	IQUANT	7	I/E Range
POSFEEDENABLE	TOGGLE	F	Positive Feedback IR Comp
POSFEEDRESISTANCE	QUANT	0	Positive Feedback Resistance (ohm)
ACHSELECT	IQUANT	0	Ach Select
CABLEID	IQUANT	14	Cable ID
DCCALDATE	LABEL	2/27/2020	DC Calibration Date
ACCALDATE	LABEL	2/27/2020	AC Calibration Date
THERMOSELECT	IQUANT	1	Thermo Select
FRAMEWORKVERSION	QUANT	6.33	Framework Version
INSTRUMENTVERSION	LABEL	3.50	Instrument Version
ZCURVE	TABLE
	Pt	Time	Freq	Zreal	Zimag	Zsig	Zmod	Zphz	Idc	Vdc	IERange
	#	s	Hz	ohm	ohm	V	ohm	°	A	V	#
	0	1	1000078	2066.474	-2167.816	1	2994.952	-46.37104	9.777824E-009	0.1694199	8
	1	1	794390.6	2519.774	-2262.246	1	3386.299	-41.9174	5.047304E-008	0.169039	8
	2	1	630984.4	2993.709	-2279.211	1	3762.591	-37.28323	3.028448E-008	0.1688725	8
	3	2	501234.4	3454.391	-2211.844	1	4101.837	-32.63141	4.840201E-008	0.1687587	8
	4	2	398109.4	3872.882	-2082.595	1	4397.319	-28.26859	3.726458E-008	0.1686898	8
	5	2	316265.6	4235.266	-1904.187	1	4643.642	-24.20881	3.837859E-008	0.168652	8
	6	3	251203.1	4533.034	-1700.484	1	4841.492	-20.56265	8.001027E-008	0.1686167	8
	7	3	199546.9	4768.814	-1503.872	1	5000.322	-17.50296	2.970268E-008	0.168641	8
	8	3	158578.1	4959.186	-1316.716	1	5131.01	-14.86955	2.653615E-008	0.168636	8
	9	4	125953.1	5145.159	-1071.131	1	5255.472	-11.76	-1.82929E-010	0.1685815	7
	10	4	100078.1	5236.535	-938.289	1	5319.933	-10.15853	6.996201E-010	0.1685616	7
	11	4	79453.13	5325.453	-835.3984	1	5390.579	-8.915276	3.010732E-010	0.1685698	7
	12	5	63140.62	5400.621	-752.2825	1	5452.764	-7.93002	1.291845E-009	0.1685603	7
	13	5	50203.12	5464.536	-687.9507	1	5507.67	-7.175429	1.011209E-010	0.1685573	7
	14	5	39890.62	5522.09	-641.233	1	5559.196	-6.623603	3.652061E-010	0.1685602	7
	15	6	31640.63	5574.156	-611.1119	1	5607.555	-6.256526	1.227839E-009	0.1685683	7
	16	6	25171.88	5622.973	-597.206	1	5654.598	-6.062556	9.574775E-010	0.1685536	7
	17	6	20015.62	5669.461	-598.8041	1	5700.996	-6.029183	1.132514E-009	0.1685536	7
	18	7	15890.62	5715.312	-616.8359	1	5748.502	-6.159913	6.668345E-010	0.1685528	7
	19	7	12609.37	5760.447	-651.9472	1	5797.223	-6.457059	-1.285981E-010	0.168548	7
	20	7	10078.13	5803.822	-704.0272	1	5846.367	-6.916419	7.402587E-010	0.1685479	7
	21	7	8015.625	5849.325	-779.9777	1	5901.099	-7.595295	1.743513E-009	0.1685518	7
	22	8	6328.125	5895.168	-884.7319	1	5961.187	-8.535107	8.591461E-010	0.1685427	7
	23	8	5015.625	5944.814	-1021.53	1	6031.943	-9.75022	1.529541E-009	0.1685524	7
	24	8	3984.375	5996.897	-1194.336	1	6114.672	-11.26359	1.263572E-009	0.1685447	7
	25	9	3170.956	6055.033	-1412.722	1	6217.653	-13.13296	2.157903E-009	0.1685538	7
	26	9	2527.573	6121.381	-1683.302	1	6348.607	-15.37557	2.061184E-009	0.1685557	7
	27	9	1976.103	6205.521	-2052.211	1	6536.059	-18.29943	1.332188E-009	0.1685425	7
	28	10	1577.524	6299.139	-2472.75	1	6767.1	-21.43267	1.894745E-009	0.1685436	7
	29	10	1265.625	6409.354	-2975.59	1	7066.396	-24.90343	1.988177E-009	0.1685484	7
	30	10	998.264	6555.1	-3644.168	1	7499.953	-29.07094	1.195561E-009	0.1685409	7
	31	11	796.875	6728.287	-4418.061	1	8049.168	-33.2905	7.228562E-010	0.1685365	7
	32	11	627.7902	6956.084	-5425.107	1	8821.502	-37.95096	1.475784E-009	0.1685352	7
	33	11	505.5147	7215.805	-6534.649	1	9734.96	-42.16406	-8.059005E-010	0.1685959	6
	34	12	397.9953	7570.08	-8032.77	1	11037.73	-46.69856	6.486818E-010	0.1686077	6
	35	12	315.5048	7999.201	-9808.49	1	12656.77	-50.80144	6.667001E-010	0.1686102	6
	36	12	252.4038	8511.699	-11879.28	1	14613.91	-54.37777	6.491304E-010	0.168605	6
	37	13	198.6229	9198.363	-14584.04	1	17242.51	-57.75978	5.084885E-010	0.1686109	6
	38	13	158.3615	10012.54	-17699.44	1	20335.22	-60.50323	5.38156E-010	0.1686046	6
	39	13	125.558	11062.53	-21576.09	1	24246.8	-62.8548	5.0784E-010	0.1686108	6
	40	14	100.4464	12336.15	-26089.72	1	28859.21	-64.69355	5.620768E-010	0.1686069	6
	41	14	79.00281	14095.09	-31987.51	1	34955.29	-66.21962	4.071423E-010	0.1686026	6
	42	14	63.3446	16181.15	-38542.85	1	41801.68	-67.22625	3.793267E-010	0.1685998	6
	43	15	49.86702	19116	-47088.91	1	50821.13	-67.90504	2.821149E-010	0.1686011	6
	44	15	39.72458	22775.11	-56832.86	1	61226.46	-68.16212	5.128015E-010	0.1686031	6
	45	15	31.6723	27503.77	-68315.05	1	73643.77	-68.07019	2.663617E-010	0.168604	6
	46	16	24.93351	34065.52	-82592.88	1	89342.28	-67.58625	8.710002E-010	0.1686071	6
	47	16	19.86229	42112.63	-98289.9	1	106931.6	-66.80712	1.471358E-009	0.1686089	5
	48	16	15.83615	52382.35	-116454.2	1	127693	-65.78127	4.825462E-011	0.1686006	5
	49	16	12.40079	66544.3	-138491	1	153648.6	-64.33592	1.188112E-009	0.1686034	5
	50	17	9.93114	82190.13	-160955	1	180725.5	-62.9493	9.232065E-010	0.1686064	5
	51	17	7.944915	101432.1	-185862.6	1	211738.9	-61.37706	-5.963195E-010	0.1685994	5
	52	18	6.317385	124750.5	-213714.1	1	247459.9	-59.72678	4.618503E-010	0.1685932	5
	53	18	5.008013	152415.5	-244537.3	1	288147.4	-58.06549	6.810101E-010	0.1686104	5
	54	19	3.945707	185566.5	-278500.6	1	334660.3	-56.32426	1.116282E-010	0.1685985	5
	55	20	3.158693	220484.3	-313168.6	1	382998.6	-54.85278	4.558952E-010	0.1686125	5
	56	21	2.504006	261581.7	-351685.7	1	438301	-53.35835	1.510918E-010	0.1686109	5
	57	22	1.998082	305878.1	-393150.1	1	498124.9	-52.11642	-4.204599E-011	0.1685704	5
	58	24	1.584686	355398.1	-437711.4	1	563825.4	-50.92526	9.05782E-011	0.1686169	5
	59	26	1.266892	409629.9	-485710.6	1	635382.9	-49.85698	1.878988E-010	0.1686367	5
	60	28	0.999041	471612.7	-543327.4	1	719460.4	-49.04175	2.549453E-010	0.1686395	5
