EXPLAIN
TAG	EISPOT
TITLE	LABEL	Potentiostatic EIS	Test &Identifier
DATE	LABEL	3/19/2020	Date
TIME	LABEL	20:50:55	Time
NOTES	NOTES	1	&Notes...
	
PSTAT	PSTAT	REF600-11020	Potentiostat
VDC	POTEN	0.00000E+000	T	DC &Voltage (V)
FREQINIT	QUANT	1.00000E+006	Initial Fre&q. (Hz)
FREQFINAL	QUANT	1.00000E+000	Final Fre&q. (Hz)
PTSPERDEC	QUANT	1.00000E+001	Points/&decade
VAC	QUANT	2.50000E+001	AC &Voltage (mV rms)
AREA	QUANT	4.00000E-004	&Area (cm^2)
CONDIT	TWOPARAM	F	5.00000E+000	0.00000E+000	Conditionin&g	Time(s)	E(V)
DELAY	TWOPARAM	T	3.00000E+000	0.00000E+000	Init. De&lay	Time(s)	Stab.(mV/s)
SPEED	SELECTOR	0	&Optimize for:
ZGUESS	QUANT	1.00000E+003	E&stimated Z (ohms)
OCVCURVE	TABLE	12
	Pt	T	Vf	Vm	Ach	Over
	#	s	V vs. Ref.	V	V	bits
	0	0.258333	-5.79800E-002	-5.79800E-002	5.87130E-004	...........
	1	0.516667	-5.79815E-002	-5.80610E-002	5.89630E-004	...........
	2	0.775	-5.79916E-002	-5.81661E-002	5.89863E-004	...........
	3	1.03333	-5.80208E-002	-5.82143E-002	5.83363E-004	...........
	4	1.29167	-5.80739E-002	-5.83531E-002	5.83730E-004	...........
	5	1.55	-5.81465E-002	-5.83990E-002	5.84730E-004	...........
	6	1.80833	-5.82294E-002	-5.84505E-002	5.84297E-004	...........
	7	2.06667	-5.83107E-002	-5.84723E-002	5.87630E-004	...........
	8	2.325	-5.83804E-002	-5.85480E-002	5.86530E-004	...........
	9	2.58333	-5.84371E-002	-5.85767E-002	5.87797E-004	...........
	10	2.84167	-5.84862E-002	-5.86227E-002	5.84030E-004	...........
	11	3.1	-5.85315E-002	-5.86335E-002	5.87330E-004	...........
EOC	QUANT	-0.0585315	Open Circuit (V)
PSTATMODEL	IQUANT	4	Pstat Model
PSTATSECTION	LABEL	REF600-11020	Pstat Section
PSTATSERIALNO	LABEL	11020	Pstat Serial Number
CTRLMODE	IQUANT	1	Control Mode
IESTAB	IQUANT	0	I/E Stability
CASPEED	IQUANT	1	Control Amp Speed
CONVENTION	IQUANT	1	Current Convention
ICHRANGE	IQUANT	2	Ich Range
ICHRANGEMODE	TOGGLE	F	Ich Auto Range
ICHOFFSETENABLE	TOGGLE	T	Ich Offset Enable
ICHOFFSET	QUANT	0	Ich Offset (V)
ICHFILTER	IQUANT	3	Ich Filter
VCHRANGE	IQUANT	2	Vch Range
VCHRANGEMODE	TOGGLE	F	Vch Auto Range
VCHOFFSETENABLE	TOGGLE	T	Vch Offset Enable
VCHOFFSET	QUANT	0	Vch Offset (V)
VCHFILTER	IQUANT	3	Vch Filter
ACHRANGE	IQUANT	2	Ach Range
ACHOFFSETENABLE	TOGGLE	F	Ach Offset Enable
ACHOFFSET	QUANT	0	Ach Offset (V)
ACHFILTER	IQUANT	3	Ach Filter
IERANGELOWERLIMIT	IQUANT	1	I/E Range Lower Limit
IERANGEMODE	TOGGLE	F	I/E AutoRange
IERANGE	IQUANT	8	I/E Range
POSFEEDENABLE	TOGGLE	F	Positive Feedback IR Comp
POSFEEDRESISTANCE	QUANT	0	Positive Feedback Resistance (ohm)
ACHSELECT	IQUANT	0	Ach Select
CABLEID	IQUANT	14	Cable ID
DCCALDATE	LABEL	2/27/2020	DC Calibration Date
ACCALDATE	LABEL	2/27/2020	AC Calibration Date
THERMOSELECT	IQUANT	1	Thermo Select
FRAMEWORKVERSION	QUANT	6.33	Framework Version
INSTRUMENTVERSION	LABEL	3.50	Instrument Version
ZCURVE	TABLE
	Pt	Time	Freq	Zreal	Zimag	Zsig	Zmod	Zphz	Idc	Vdc	IERange
	#	s	Hz	ohm	ohm	V	ohm	°	A	V	#
	0	1	1000078	1601.454	-2001.222	1	2563.113	-51.33187	-1.49983E-007	-0.0562654	8
	1	1	794390.6	1973.004	-2192.215	1	2949.33	-48.01263	-2.833058E-007	-0.0565307	8
	2	1	630984.4	2402.521	-2335.677	1	3350.745	-44.19177	-3.771025E-007	-0.0565978	8
	3	2	501234.4	2855.383	-2426.103	1	3746.89	-40.35321	-5.627874E-007	-0.0566967	8
	4	2	398109.4	3323.32	-2455.645	1	4132.148	-36.46119	-4.888943E-008	-0.0568032	8
	5	2	316265.6	3777.094	-2412.681	1	4481.905	-32.56908	2.699516E-007	-0.0569053	8
	6	3	251203.1	4193.679	-2327.297	1	4796.171	-29.02824	1.019947E-007	-0.0568791	8
	7	3	199546.9	4572.063	-2215.662	1	5080.642	-25.85523	-3.705125E-007	-0.0568329	8
	8	3	158578.1	4893.549	-2089.254	1	5320.884	-23.1196	-1.514006E-007	-0.0568571	8
	9	3	125953.1	5211.375	-1931.054	1	5557.643	-20.33198	-1.308168E-007	-0.0566164	7
	10	4	100078.1	5434.82	-1834.169	1	5735.978	-18.64875	3.632866E-009	-0.0569378	7
	11	4	79453.13	5649.54	-1772.724	1	5921.136	-17.42092	2.077924E-009	-0.0569565	7
	12	4	63140.62	5848.212	-1740.627	1	6101.751	-16.5748	2.748148E-009	-0.05694	7
	13	5	50203.12	6034.174	-1735.449	1	6278.777	-16.04541	5.052215E-009	-0.0569726	7
	14	5	39890.62	6218.165	-1762.242	1	6463.055	-15.82285	1.079441E-008	-0.0569774	7
	15	5	31640.63	6403.759	-1823.53	1	6658.333	-15.8948	3.729224E-009	-0.0569718	7
	16	6	25171.88	6594.112	-1919.991	1	6867.946	-16.23384	4.557133E-009	-0.056949	7
	17	6	20015.62	6791.734	-2049.555	1	7094.246	-16.79235	1.085519E-008	-0.0569811	7
	18	6	15890.62	7007.233	-2222.01	1	7351.098	-17.59395	-2.185643E-009	-0.0569479	7
	19	7	12609.37	7238.706	-2436.68	1	7637.819	-18.60417	3.759417E-010	-0.0569546	7
	20	7	10078.13	7486.079	-2691.523	1	7955.229	-19.77539	-2.94684E-009	-0.0569501	7
	21	7	8015.625	7763.726	-3000.783	1	8323.469	-21.13218	-2.260967E-009	-0.0569523	7
	22	8	6328.125	8082.894	-3382.387	1	8762.062	-22.70748	-2.719617E-009	-0.0569582	7
	23	8	5015.625	8455.204	-3798.013	1	9269.055	-24.18925	1.116059E-009	-0.0569014	6
	24	8	3984.375	8851.571	-4323.299	1	9850.95	-26.03188	2.229747E-010	-0.0569182	6
	25	9	3170.956	9294.857	-4930.279	1	10521.5	-27.94286	-3.339664E-010	-0.056889	6
	26	9	2527.573	9795.68	-5626.5	1	11296.59	-29.87244	1.846831E-010	-0.0569113	6
	27	9	1976.103	10419.68	-6506.949	1	12284.55	-31.98422	8.105484E-010	-0.0569248	6
	28	9	1577.524	11070.3	-7443.106	1	13339.84	-33.91489	6.666288E-010	-0.0569354	6
	29	10	1265.625	11788.56	-8496.341	1	14531.27	-35.78134	3.097038E-010	-0.0569204	6
	30	10	998.264	12653.23	-9804.54	1	16007.29	-37.77082	5.309044E-010	-0.056936	6
	31	10	796.875	13575.11	-11251.23	1	17631.62	-39.65239	-6.591822E-010	-0.056916	6
	32	11	627.7902	14658.55	-13049.72	1	19625.71	-41.67695	3.629886E-010	-0.056923	6
	33	11	505.5147	15753.85	-14973.67	1	21734.64	-43.54556	2.126409E-010	-0.056929	6
	34	11	397.9953	17101.57	-17492.45	1	24463.23	-45.64736	4.435909E-010	-0.0569044	6
	35	12	315.5048	18583.29	-20436.18	1	27622.02	-47.71872	4.568374E-010	-0.0569008	6
	36	12	252.4038	20212.09	-23825.16	1	31243.67	-49.69036	5.436856E-010	-0.0569056	6
	37	12	198.6229	22254.04	-28199.59	1	35922.97	-51.72084	4.813764E-010	-0.0569007	6
	38	13	158.3615	24543.35	-33162.82	1	41257.1	-53.49537	4.935376E-010	-0.0569054	6
	39	13	125.558	27354.98	-39224.91	1	47821.42	-55.10854	6.177527E-010	-0.0569104	6
	40	13	100.4464	30595.92	-46131	1	55355.03	-56.44608	4.240924E-010	-0.0569074	6
	41	14	79.00281	34816.21	-54918.98	1	65025.1	-57.6271	4.847367E-010	-0.0569129	6
	42	14	63.3446	39579.55	-64464.65	1	75645.44	-58.4512	3.68531E-010	-0.0569128	6
	43	14	49.86702	45722.77	-76581.59	1	89192.55	-59.16084	4.813898E-010	-0.0569091	6
	44	15	39.72458	52819.94	-89942.71	1	104305.5	-59.5759	1.66583E-010	-0.0568975	5
	45	15	31.6723	61321.22	-105543.3	1	122064.3	-59.84319	-1.267305E-011	-0.0569032	5
	46	15	24.93351	72285.83	-124603.8	1	144053.3	-59.88089	2.714324E-010	-0.0569052	5
	47	16	19.86229	84632.93	-145443.1	1	168274.9	-59.805	6.178045E-010	-0.0568955	5
	48	16	15.83615	99562.7	-169584.7	1	196651.2	-59.58291	-4.108279E-010	-0.0569069	5
	49	16	12.40079	117961.5	-199181.3	1	231491	-59.36464	-2.986622E-010	-0.0569016	5
	50	17	9.93114	137821.4	-229927	1	268069.3	-59.06094	-5.082927E-010	-0.0569046	5
	51	17	7.944915	160633.7	-265819.3	1	310585.1	-58.85558	-2.917306E-011	-0.0569055	5
	52	17	6.317385	188013.8	-308639.1	1	361396.3	-58.65146	8.291853E-011	-0.0569104	5
	53	18	5.008013	221312.2	-358444.7	1	421262	-58.30785	-4.585738E-011	-0.056904	5
	54	19	3.945707	261993.5	-418097.3	1	493402.4	-57.92739	-8.945901E-011	-0.0569049	5
	55	20	3.158693	306539.9	-481013.1	1	570386.1	-57.49146	-4.326393E-011	-0.0569217	5
	56	21	2.504006	363006.9	-556851.8	1	664724	-56.90001	2.012476E-010	-0.056913	5
	57	22	1.998082	426891.3	-637816.8	1	767493.6	-56.20557	8.055431E-011	-0.0569271	5
	58	24	1.584686	507657.7	-732802.9	1	891468.8	-55.28727	-1.496021E-011	-0.0569577	5
	59	26	1.266892	597910.1	-834485.4	1	1026578	-54.37835	-7.251073E-011	-0.0569423	4
	60	28	0.999041	707062.8	-950710	1	1184815	-53.36105	-5.780363E-011	-0.0569191	4
