EXPLAIN
TAG	EISPOT
TITLE	LABEL	Potentiostatic EIS	Test &Identifier
DATE	LABEL	3/3/2020	Date
TIME	LABEL	16:20:04	Time
NOTES	NOTES	1	&Notes...
	
PSTAT	PSTAT	REF600-11020	Potentiostat
VDC	POTEN	0.00000E+000	T	DC &Voltage (V)
FREQINIT	QUANT	1.00000E+006	Initial Fre&q. (Hz)
FREQFINAL	QUANT	1.00000E+000	Final Fre&q. (Hz)
PTSPERDEC	QUANT	1.00000E+001	Points/&decade
VAC	QUANT	2.50000E+001	AC &Voltage (mV rms)
AREA	QUANT	1.60000E-004	&Area (cm^2)
CONDIT	TWOPARAM	F	1.50000E+001	0.00000E+000	Conditionin&g	Time(s)	E(V)
DELAY	TWOPARAM	F	1.00000E+002	0.00000E+000	Init. De&lay	Time(s)	Stab.(mV/s)
SPEED	SELECTOR	1	&Optimize for:
ZGUESS	QUANT	1.00000E+004	E&stimated Z (ohms)
OCVCURVE	TABLE	39
	Pt	T	Vf	Vm	Ach	Over
	#	s	V vs. Ref.	V	V	bits
	0	0.258333	1.54774E-001	1.54774E-001	5.76697E-004	...........
	1	0.516667	1.54796E-001	1.55888E-001	5.72730E-004	...........
	2	0.775	1.54899E-001	1.55541E-001	5.76930E-004	...........
	3	1.03333	1.55102E-001	1.55095E-001	5.70097E-004	...........
	4	1.29167	1.55292E-001	1.55187E-001	5.71063E-004	...........
	5	1.55	1.55355E-001	1.55149E-001	5.72063E-004	...........
	6	1.80833	1.55330E-001	1.56396E-001	5.70430E-004	...........
	7	2.06667	1.55366E-001	1.55800E-001	5.68163E-004	...........
	8	2.325	1.55532E-001	1.55936E-001	5.70597E-004	...........
	9	2.58333	1.55737E-001	1.55959E-001	5.66597E-004	...........
	10	2.84167	1.55872E-001	1.55798E-001	5.69197E-004	...........
	11	3.1	1.55920E-001	1.55910E-001	5.69997E-004	...........
	12	3.35833	1.55914E-001	1.55802E-001	5.72297E-004	...........
	13	3.61667	1.55881E-001	1.55479E-001	5.71630E-004	...........
	14	3.875	1.55823E-001	1.55633E-001	5.73897E-004	...........
	15	4.13333	1.55739E-001	1.55509E-001	5.73230E-004	...........
	16	4.39167	1.55653E-001	1.55511E-001	5.71963E-004	...........
	17	4.65	1.55589E-001	1.55615E-001	5.71197E-004	...........
	18	4.90833	1.55557E-001	1.55645E-001	5.71030E-004	...........
	19	5.16667	1.55559E-001	1.55598E-001	5.68363E-004	...........
	20	5.425	1.55580E-001	1.55538E-001	5.74797E-004	...........
	21	5.68333	1.55593E-001	1.55555E-001	5.67030E-004	...........
	22	5.94167	1.55585E-001	1.55412E-001	5.72430E-004	...........
	23	6.2	1.55560E-001	1.55613E-001	5.72230E-004	...........
	24	6.45833	1.55536E-001	1.55613E-001	5.67863E-004	...........
	25	6.71667	1.55534E-001	1.55567E-001	5.73497E-004	...........
	26	6.975	1.55552E-001	1.55564E-001	5.73630E-004	...........
	27	7.23333	1.55570E-001	1.55579E-001	5.75730E-004	...........
	28	7.49167	1.55577E-001	1.55594E-001	5.78530E-004	...........
	29	7.75	1.55579E-001	1.55587E-001	5.75230E-004	...........
	30	8.00833	1.55581E-001	1.55597E-001	5.67863E-004	...........
	31	8.26667	1.55585E-001	1.55586E-001	5.66397E-004	...........
	32	8.525	1.55589E-001	1.55601E-001	5.75330E-004	...........
	33	8.78333	1.55591E-001	1.55581E-001	5.74963E-004	...........
	34	9.04167	1.55592E-001	1.55584E-001	5.71730E-004	...........
	35	9.3	1.55589E-001	1.55532E-001	5.72397E-004	...........
	36	9.5583	1.55582E-001	1.55550E-001	5.71363E-004	...........
	37	9.8167	1.55570E-001	1.55539E-001	5.73697E-004	...........
	38	10.075	1.55557E-001	1.55542E-001	5.70997E-004	...........
EOC	QUANT	0.1555572	Open Circuit (V)
PSTATMODEL	IQUANT	4	Pstat Model
PSTATSECTION	LABEL	REF600-11020	Pstat Section
PSTATSERIALNO	LABEL	11020	Pstat Serial Number
CTRLMODE	IQUANT	1	Control Mode
IESTAB	IQUANT	0	I/E Stability
CASPEED	IQUANT	1	Control Amp Speed
CONVENTION	IQUANT	1	Current Convention
ICHRANGE	IQUANT	2	Ich Range
ICHRANGEMODE	TOGGLE	F	Ich Auto Range
ICHOFFSETENABLE	TOGGLE	T	Ich Offset Enable
ICHOFFSET	QUANT	0	Ich Offset (V)
ICHFILTER	IQUANT	3	Ich Filter
VCHRANGE	IQUANT	2	Vch Range
VCHRANGEMODE	TOGGLE	F	Vch Auto Range
VCHOFFSETENABLE	TOGGLE	T	Vch Offset Enable
VCHOFFSET	QUANT	0	Vch Offset (V)
VCHFILTER	IQUANT	3	Vch Filter
ACHRANGE	IQUANT	2	Ach Range
ACHOFFSETENABLE	TOGGLE	F	Ach Offset Enable
ACHOFFSET	QUANT	0	Ach Offset (V)
ACHFILTER	IQUANT	3	Ach Filter
IERANGELOWERLIMIT	IQUANT	1	I/E Range Lower Limit
IERANGEMODE	TOGGLE	F	I/E AutoRange
IERANGE	IQUANT	7	I/E Range
POSFEEDENABLE	TOGGLE	F	Positive Feedback IR Comp
POSFEEDRESISTANCE	QUANT	0	Positive Feedback Resistance (ohm)
ACHSELECT	IQUANT	0	Ach Select
CABLEID	IQUANT	14	Cable ID
DCCALDATE	LABEL	2/27/2020	DC Calibration Date
ACCALDATE	LABEL	2/27/2020	AC Calibration Date
THERMOSELECT	IQUANT	1	Thermo Select
FRAMEWORKVERSION	QUANT	6.33	Framework Version
INSTRUMENTVERSION	LABEL	3.50	Instrument Version
ZCURVE	TABLE
	Pt	Time	Freq	Zreal	Zimag	Zsig	Zmod	Zphz	Idc	Vdc	IERange
	#	s	Hz	ohm	ohm	V	ohm	°	A	V	#
	0	1	1000078	1674.591	-2309.61	1	2852.815	-54.05588	-1.304377E-006	0.1576586	8
	1	3	794390.6	1925.046	-2654.248	1	3278.846	-54.04776	1.22426E-006	0.1572076	8
	2	4	630984.4	2199.221	-3036.372	1	3749.15	-54.08447	2.495075E-006	0.1566713	8
	3	5	501234.4	2535.842	-3489.658	1	4313.723	-53.99509	-2.55411E-007	0.1571537	8
	4	7	398109.4	2912.688	-4025.558	1	4968.789	-54.11243	-1.819919E-007	0.1571079	8
	5	8	316265.6	3392.489	-4643.292	1	5750.578	-53.84733	1.050906E-006	0.156859	8
	6	9	251203.1	3968.196	-5361.205	1	6670.015	-53.49231	1.302289E-006	0.15685	8
	7	11	199546.9	4648.808	-6159.202	1	7716.682	-52.95543	-1.106704E-006	0.1572002	8
	8	13	158578.1	5490.145	-7002.684	1	8898.273	-51.90335	5.889694E-008	0.1570616	8
	9	14	125953.1	6570.187	-7893.573	1	10270.14	-50.22782	7.367984E-008	0.1566455	7
	10	16	100078.1	7718.946	-8831.463	1	11729.32	-48.84563	1.033112E-007	0.156857	7
	11	17	79453.13	9099.48	-9805.96	1	13377.5	-47.1401	1.036727E-007	0.1568502	7
	12	18	63140.62	10655.17	-10725.06	1	15118.18	-45.18728	-1.242783E-008	0.1569384	7
	13	20	50203.12	12373.92	-11597.58	1	16959.3	-43.14506	2.151227E-008	0.1569397	7
	14	21	39890.62	14192.68	-12385.95	1	18837.3	-41.11119	-3.443051E-008	0.1569674	7
	15	22	31640.63	16130.43	-13171.6	1	20825.03	-39.234	6.964867E-008	0.156949	7
	16	24	25171.88	18063.37	-13918.57	1	22803.77	-37.61574	8.828965E-008	0.1568247	7
	17	25	20015.62	20063.47	-14636.73	1	24834.99	-36.11155	-1.20048E-008	0.1569302	7
	18	26	15890.62	22130.33	-15482.51	1	27008.51	-34.97686	-5.759757E-008	0.1570316	7
	19	28	12609.37	24439	-16289.01	1	29369.99	-33.68413	-4.735988E-009	0.1570758	6
	20	29	10078.13	26605.7	-17336.26	1	31755.46	-33.08825	-5.080252E-009	0.1570745	6
	21	31	8015.625	29005.23	-18462.46	1	34382.64	-32.47765	-4.735364E-009	0.1570749	6
	22	32	6328.125	31722.91	-19787.3	1	37388.24	-31.95403	-4.908198E-009	0.1571747	6
	23	33	5015.625	34650.8	-21179.56	1	40610.98	-31.43447	-1.064742E-009	0.1569835	6
	24	35	3984.375	37837.57	-22645.47	1	44096.48	-30.90017	1.117682E-008	0.1569499	6
	25	36	3170.956	41333.73	-24034.18	1	47813.37	-30.17657	5.938417E-009	0.1570622	6
	26	38	2527.573	45159.52	-25362.86	1	51794.37	-29.3198	-4.094343E-009	0.1569762	6
	27	39	1976.103	49626.4	-26503.46	1	56260.23	-28.10488	-7.329129E-009	0.1571625	6
	28	41	1577.524	53834.08	-27459.9	1	60433.05	-27.0254	2.75606E-009	0.1571019	6
	29	42	1265.625	58272.48	-27963.33	1	64634.59	-25.63504	1.227712E-008	0.1568944	6
	30	43	998.264	62790.62	-28292.38	1	68870.32	-24.25552	9.571052E-009	0.1569901	6
	31	45	796.875	67012.41	-28457.4	1	72804.45	-23.00892	-1.002052E-009	0.1571295	6
	32	46	627.7902	71072.15	-28570.53	1	76599.77	-21.8998	-7.086778E-009	0.1571637	6
	33	48	505.5147	74301.54	-28570.19	1	79605.12	-21.03259	-4.079584E-009	0.1569752	6
	34	49	397.9953	77797.91	-29256.51	1	83117.13	-20.60916	1.508447E-009	0.1570359	6
	35	50	315.5048	80970.88	-30345.49	1	86470.41	-20.54451	1.626737E-009	0.1570379	6
	36	52	252.4038	83761.66	-31906.79	1	89632.91	-20.85302	1.638549E-009	0.1570334	6
	37	53	198.6229	87092.73	-34446.29	1	93657.3	-21.57943	1.050212E-009	0.1570371	5
	38	54	158.3615	90278.01	-37812.18	1	97876.9	-22.72596	8.369833E-010	0.1570357	5
	39	56	125.558	93839.11	-42319.85	1	102940.5	-24.27457	9.310617E-010	0.1570326	5
	40	57	100.4464	97795.3	-47497.66	1	108719.6	-25.90512	7.020218E-010	0.157032	5
	41	59	79.00281	102381.9	-54829.2	1	116139.1	-28.17066	1.065457E-009	0.1570288	5
	42	60	63.3446	105942.6	-62065.34	1	122784.1	-30.36346	8.463323E-010	0.1570291	5
	43	61	49.86702	115212.6	-70874.92	1	135267.2	-31.59842	6.414787E-010	0.1570236	5
	44	63	39.72458	121794.7	-81965.8	1	146807.1	-33.9399	9.206871E-010	0.157034	5
	45	64	31.6723	129731.1	-94556.37	1	160533.7	-36.08697	6.144226E-010	0.1570338	5
	46	66	24.93351	140899.3	-109032.1	1	178159	-37.73379	4.800647E-010	0.1570239	5
	47	67	19.86229	153099.4	-125174.8	1	197757.9	-39.2696	1.165911E-009	0.1570345	5
	48	68	15.83615	166821.8	-143613.5	1	220123.5	-40.72448	4.488138E-010	0.1570319	5
	49	70	12.40079	186911.3	-164997.2	1	249318.9	-41.43668	1.588335E-009	0.1570308	5
	50	71	9.93114	204709.6	-188568.4	1	278323.6	-42.64974	2.218521E-010	0.1570361	5
	51	73	7.944915	227367.5	-213842.8	1	312129.3	-43.24423	8.567245E-010	0.157035	5
	52	74	6.317385	253832.9	-242524.7	1	351068.9	-43.6949	3.204996E-010	0.1570452	5
	53	76	5.008013	284380.8	-274752.3	1	395425.4	-44.01345	3.198071E-010	0.1570298	5
	54	79	3.945707	319639.5	-311360.6	1	446222.8	-44.2483	4.969458E-010	0.1570313	5
	55	82	3.158693	357908	-348770.1	1	499738.6	-44.25916	-2.988704E-011	0.1570263	5
	56	85	2.504006	402762.2	-392014.7	1	562043.5	-44.22526	5.948285E-010	0.1570225	5
	57	88	1.998082	450602.8	-436695.3	1	627491.6	-44.10202	1.257354E-010	0.1570672	5
	58	91	1.584686	503499	-488194.9	1	701316.9	-44.11587	3.038293E-010	0.1570102	5
	59	94	1.266892	563762.6	-543094	1	782802.3	-43.93023	1.986474E-010	0.1570659	5
	60	99	0.999041	629906.9	-606701.7	1	874568.3	-43.92496	-7.463701E-011	0.1569891	5
