EXPLAIN
TAG	EISPOT
TITLE	LABEL	Potentiostatic EIS	Test &Identifier
DATE	LABEL	6/14/2020	Date
TIME	LABEL	21:53:29	Time
NOTES	NOTES	1	&Notes...
	
PSTAT	PSTAT	REF600-10037	Potentiostat
VDC	POTEN	0.00000E+000	T	DC &Voltage (V)
FREQINIT	QUANT	1.00000E+006	Initial Fre&q. (Hz)
FREQFINAL	QUANT	1.00000E+000	Final Fre&q. (Hz)
PTSPERDEC	QUANT	1.00000E+001	Points/&decade
VAC	QUANT	2.50000E+001	AC &Voltage (mV rms)
AREA	QUANT	2.50000E-001	&Area (cm^2)
CONDIT	TWOPARAM	F	5.00000E+000	0.00000E+000	Conditionin&g	Time(s)	E(V)
DELAY	TWOPARAM	F	3.00000E+000	0.00000E+000	Init. De&lay	Time(s)	Stab.(mV/s)
SPEED	SELECTOR	0	&Optimize for:
ZGUESS	QUANT	1.00000E+003	E&stimated Z (ohms)
OCVCURVE	TABLE	39
	Pt	T	Vf	Vm	Ach	Over
	#	s	V vs. Ref.	V	V	bits
	0	0.258333	-1.67692E-001	-1.67692E-001	5.50754E-004	...........
	1	0.516667	-1.67691E-001	-1.67685E-001	5.51320E-004	...........
	2	0.775	-1.67691E-001	-1.67681E-001	5.53520E-004	...........
	3	1.03333	-1.67689E-001	-1.67680E-001	5.49887E-004	...........
	4	1.29167	-1.67686E-001	-1.67670E-001	5.47387E-004	...........
	5	1.55	-1.67682E-001	-1.67670E-001	5.49854E-004	...........
	6	1.80833	-1.67678E-001	-1.67658E-001	5.44987E-004	...........
	7	2.06667	-1.67672E-001	-1.67644E-001	5.46420E-004	...........
	8	2.325	-1.67665E-001	-1.67631E-001	5.42820E-004	...........
	9	2.58333	-1.67656E-001	-1.67624E-001	5.45654E-004	...........
	10	2.84167	-1.67646E-001	-1.67620E-001	5.45987E-004	...........
	11	3.1	-1.67636E-001	-1.67618E-001	5.43154E-004	...........
	12	3.35833	-1.67627E-001	-1.67614E-001	5.46120E-004	...........
	13	3.61667	-1.67622E-001	-1.67602E-001	5.43587E-004	...........
	14	3.875	-1.67617E-001	-1.67599E-001	5.43820E-004	...........
	15	4.13333	-1.67611E-001	-1.67596E-001	5.49854E-004	...........
	16	4.39167	-1.67606E-001	-1.67590E-001	5.48054E-004	...........
	17	4.65	-1.67600E-001	-1.67578E-001	5.44654E-004	...........
	18	4.90833	-1.67595E-001	-1.67570E-001	5.45754E-004	...........
	19	5.16667	-1.67588E-001	-1.67559E-001	5.50487E-004	...........
	20	5.425	-1.67579E-001	-1.67547E-001	5.42820E-004	...........
	21	5.68333	-1.67570E-001	-1.67542E-001	5.45887E-004	...........
	22	5.94167	-1.67560E-001	-1.67538E-001	5.50620E-004	...........
	23	6.2	-1.67551E-001	-1.67522E-001	5.43420E-004	...........
	24	6.45833	-1.67543E-001	-1.67519E-001	5.49520E-004	...........
	25	6.71667	-1.67535E-001	-1.67515E-001	5.44421E-004	...........
	26	6.975	-1.67527E-001	-1.67510E-001	5.41420E-004	...........
	27	7.23333	-1.67520E-001	-1.67494E-001	5.49554E-004	...........
	28	7.49167	-1.67514E-001	-1.67481E-001	5.48720E-004	...........
	29	7.75	-1.67505E-001	-1.67468E-001	5.48387E-004	...........
	30	8.00833	-1.67495E-001	-1.67463E-001	5.43320E-004	...........
	31	8.26667	-1.67483E-001	-1.67459E-001	5.47854E-004	...........
	32	8.525	-1.67473E-001	-1.67455E-001	5.47987E-004	...........
	33	8.78333	-1.67465E-001	-1.67445E-001	5.48820E-004	...........
	34	9.04167	-1.67459E-001	-1.67439E-001	5.49620E-004	...........
	35	9.3	-1.67453E-001	-1.67435E-001	5.47687E-004	...........
	36	9.5583	-1.67447E-001	-1.67432E-001	5.48120E-004	...........
	37	9.8167	-1.67441E-001	-1.67417E-001	5.44387E-004	...........
	38	10.075	-1.67435E-001	-1.67411E-001	5.48487E-004	...........
EOC	QUANT	-0.167435	Open Circuit (V)
PSTATMODEL	IQUANT	4	Pstat Model
PSTATSECTION	LABEL	REF600-10037	Pstat Section
PSTATSERIALNO	LABEL	10037	Pstat Serial Number
CTRLMODE	IQUANT	1	Control Mode
IESTAB	IQUANT	0	I/E Stability
CASPEED	IQUANT	1	Control Amp Speed
CONVENTION	IQUANT	1	Current Convention
ICHRANGE	IQUANT	2	Ich Range
ICHRANGEMODE	TOGGLE	F	Ich Auto Range
ICHOFFSETENABLE	TOGGLE	T	Ich Offset Enable
ICHOFFSET	QUANT	0	Ich Offset (V)
ICHFILTER	IQUANT	3	Ich Filter
VCHRANGE	IQUANT	2	Vch Range
VCHRANGEMODE	TOGGLE	F	Vch Auto Range
VCHOFFSETENABLE	TOGGLE	T	Vch Offset Enable
VCHOFFSET	QUANT	0	Vch Offset (V)
VCHFILTER	IQUANT	3	Vch Filter
ACHRANGE	IQUANT	2	Ach Range
ACHOFFSETENABLE	TOGGLE	F	Ach Offset Enable
ACHOFFSET	QUANT	0	Ach Offset (V)
ACHFILTER	IQUANT	3	Ach Filter
IERANGELOWERLIMIT	IQUANT	1	I/E Range Lower Limit
IERANGEMODE	TOGGLE	F	I/E AutoRange
IERANGE	IQUANT	8	I/E Range
POSFEEDENABLE	TOGGLE	F	Positive Feedback IR Comp
POSFEEDRESISTANCE	QUANT	0	Positive Feedback Resistance (ohm)
ACHSELECT	IQUANT	0	Ach Select
CABLEID	IQUANT	14	Cable ID
DCCALDATE	LABEL	6/8/2020	DC Calibration Date
ACCALDATE	LABEL	6/8/2020	AC Calibration Date
THERMOSELECT	IQUANT	1	Thermo Select
FRAMEWORKVERSION	QUANT	6.33	Framework Version
INSTRUMENTVERSION	LABEL	3.50	Instrument Version
ZCURVE	TABLE
	Pt	Time	Freq	Zreal	Zimag	Zsig	Zmod	Zphz	Idc	Vdc	IERange
	#	s	Hz	ohm	ohm	V	ohm	°	A	V	#
	0	1	1000078	1749.046	-2538.632	1	3082.826	-55.43425	4.298838E-007	-0.1583122	8
	1	2	794390.6	2099.874	-2904.139	1	3583.782	-54.13072	4.051639E-007	-0.1585805	8
	2	2	630984.4	2516.132	-3293.183	1	4144.39	-52.61864	-1.024057E-007	-0.1587169	8
	3	2	501234.4	3013.347	-3699.265	1	4771.249	-50.83443	2.641762E-007	-0.1587476	8
	4	3	398109.4	3577.045	-4114.366	1	5451.904	-48.99618	-3.919845E-008	-0.1588059	8
	5	3	316265.6	4227.463	-4522.435	1	6190.627	-46.93079	4.048147E-007	-0.1588446	8
	6	3	251203.1	4954.813	-4943.443	1	6999.128	-44.93419	-7.726786E-008	-0.1588212	8
	7	4	199546.9	5767.865	-5320.206	1	7846.838	-42.68805	1.041942E-007	-0.1587703	8
	8	5	158578.1	6646.589	-5645.655	1	8720.697	-40.34478	1.010582E-007	-0.1587999	8
	9	5	125953.1	7879.816	-5732.006	1	9744.1	-36.03323	-1.980146E-007	-0.1585355	7
	10	5	100078.1	8809.916	-6002.006	1	10660.15	-34.26576	-2.35098E-008	-0.1588585	7
	11	5	79453.13	9787.5	-6205.283	1	11588.82	-32.37473	-3.31083E-008	-0.1587305	7
	12	6	63140.62	10773.08	-6371.752	1	12516.33	-30.60225	3.309167E-008	-0.1587994	7
	13	6	50203.12	11773	-6509.436	1	13452.75	-28.93874	-3.242477E-008	-0.1587391	7
	14	6	39890.62	12761.06	-6627.358	1	14379.38	-27.44476	3.344953E-008	-0.158806	7
	15	7	31640.63	13763.61	-6720.58	1	15316.76	-26.02562	5.236506E-008	-0.1589299	7
	16	7	25171.88	14733.07	-6805.558	1	16228.95	-24.79335	-3.142245E-008	-0.1587374	7
	17	7	20015.62	15693.83	-6913.99	1	17149.33	-23.77612	-6.43113E-008	-0.1587283	7
	18	8	15890.62	16639.02	-7054.705	1	18072.79	-22.97624	7.242797E-008	-0.1588765	7
	19	8	12609.37	17995.67	-6628.017	1	19177.46	-20.21934	-8.165288E-009	-0.1586593	6
	20	8	10078.13	18842.52	-6915.535	1	20071.5	-20.15403	6.770509E-009	-0.1588165	6
	21	9	8015.625	19736.13	-7255.172	1	21027.42	-20.18387	-1.215908E-008	-0.1586706	6
	22	9	6328.125	20701.31	-7664.481	1	22074.62	-20.31663	1.071335E-008	-0.1589847	6
	23	9	5015.625	21688.31	-8152.461	1	23169.92	-20.60084	-6.437226E-010	-0.1587204	6
	24	10	3984.375	22704.5	-8696.347	1	24312.97	-20.95799	6.801907E-009	-0.1588174	6
	25	10	3170.956	23774.51	-9326.763	1	25538.51	-21.42013	-7.10929E-010	-0.1587154	6
	26	10	2527.573	24893.54	-10065.16	1	26851.36	-22.01487	1.252574E-008	-0.1589711	6
	27	10	1976.103	26204.75	-11005.42	1	28421.97	-22.78133	-1.183976E-009	-0.158709	6
	28	11	1577.524	27495.85	-12015.08	1	30006.4	-23.60427	9.009818E-009	-0.1589945	6
	29	11	1265.625	28855.43	-13154.66	1	31712.47	-24.50737	8.421311E-009	-0.1589826	6
	30	11	998.264	30455.24	-14570.26	1	33761.13	-25.56718	-9.735026E-009	-0.1587647	6
	31	12	796.875	32131.72	-16110.76	1	35944.46	-26.62907	3.176894E-009	-0.1587716	6
	32	12	627.7902	34082.2	-18021.81	1	38553.63	-27.86875	-1.050961E-008	-0.1587613	6
	33	12	505.5147	36045.74	-20042.76	1	41243.27	-29.07567	-1.06458E-008	-0.158761	6
	34	13	397.9953	38500.94	-22478.67	1	44582.66	-30.27841	4.822894E-010	-0.1588183	6
	35	13	315.5048	41151.96	-25234.56	1	48272.84	-31.51681	6.129446E-010	-0.1588207	6
	36	13	252.4038	44005.27	-28247.06	1	52291.12	-32.69648	5.269929E-010	-0.1588187	6
	37	14	198.6229	47418.51	-31903.18	1	57151.8	-33.93267	5.078424E-010	-0.1588182	6
	38	14	158.3615	51018.2	-35859.38	1	62359.86	-35.1024	5.927335E-010	-0.1588234	6
	39	14	125.558	55115.57	-40466.46	1	68375.88	-36.28653	6.522941E-010	-0.1588225	6
	40	15	100.4464	59462.72	-45488.61	1	74866.74	-37.41576	7.958501E-010	-0.1588254	6
	41	15	79.00281	64634.52	-51699.22	1	82767.33	-38.65527	6.529527E-010	-0.1588283	6
	42	15	63.3446	69891.77	-58047.23	1	90853.41	-39.71066	6.196369E-010	-0.158826	6
	43	16	49.86702	76167.76	-66168.63	1	100895.1	-40.98157	-1.86097E-011	-0.1588223	5
	44	16	39.72458	82535.15	-75447.88	1	111823.2	-42.43138	2.8185E-010	-0.1588159	5
	45	16	31.6723	89520.13	-86229.93	1	124295.8	-43.9275	3.293611E-010	-0.1588188	5
	46	17	24.93351	97643.5	-99658.1	1	139520.6	-45.58503	-3.386685E-010	-0.1588188	5
	47	17	19.86229	106516.7	-115404.8	1	157048	-47.29353	-3.536474E-009	-0.1674556	5
	48	17	15.83615	115860.7	-133607.1	1	176846.2	-49.069	-2.214316E-009	-0.1674624	5
	49	18	12.40079	128134.3	-157441.5	1	202993.2	-50.85947	-1.723438E-009	-0.1674568	5
	50	18	9.93114	140798.7	-183434.3	1	231241	-52.49124	-1.316431E-009	-0.167459	5
	51	18	7.944915	155945.6	-214571	1	265254.1	-53.99114	-1.077789E-009	-0.1674576	5
	52	19	6.317385	174151.4	-252429.8	1	306674.9	-55.39819	-7.090816E-010	-0.1674554	5
	53	20	5.008013	196683.7	-298017.6	1	357070	-56.57626	-5.441058E-010	-0.1674531	5
	54	21	3.945707	224700.1	-353149.9	1	418575	-57.53246	-4.123587E-010	-0.1674526	5
	55	22	3.158693	256646	-413318.2	1	486517.3	-58.16218	-3.480064E-010	-0.1674516	5
	56	23	2.504006	297013.8	-486167.9	1	569716.1	-58.57806	-2.805896E-010	-0.1674582	5
	57	25	1.998082	342645.3	-567550	1	662962.1	-58.87949	-2.317984E-010	-0.167463	5
	58	27	1.584686	397466.8	-663862.3	1	773752.6	-59.09025	-1.654006E-010	-0.1674615	5
	59	30	1.266892	458501.4	-770991.7	1	897023.8	-59.26046	-1.256788E-010	-0.1674642	5
	60	33	0.999041	533071.8	-903659.2	1	1049174	-59.46349	-1.326334E-010	-0.1674691	4
