EXPLAIN
TAG	EISPOT
TITLE	LABEL	Potentiostatic EIS	Test &Identifier
DATE	LABEL	7/30/2020	Date
TIME	LABEL	22:56:27	Time
NOTES	NOTES	1	&Notes...
	
PSTAT	PSTAT	REF600-11020	Potentiostat
VDC	POTEN	0.00000E+000	T	DC &Voltage (V)
FREQINIT	QUANT	1.00000E+006	Initial Fre&q. (Hz)
FREQFINAL	QUANT	1.00000E+000	Final Fre&q. (Hz)
PTSPERDEC	QUANT	1.00000E+001	Points/&decade
VAC	QUANT	2.50000E+001	AC &Voltage (mV rms)
AREA	QUANT	4.00000E-005	&Area (cm^2)
CONDIT	TWOPARAM	F	5.00000E+000	0.00000E+000	Conditionin&g	Time(s)	E(V)
DELAY	TWOPARAM	F	3.00000E+000	0.00000E+000	Init. De&lay	Time(s)	Stab.(mV/s)
SPEED	SELECTOR	0	&Optimize for:
ZGUESS	QUANT	1.00000E+003	E&stimated Z (ohms)
OCVCURVE	TABLE	39
	Pt	T	Vf	Vm	Ach	Over
	#	s	V vs. Ref.	V	V	bits
	0	0.258333	-7.61399E-002	-7.61399E-002	4.74551E-004	...........
	1	0.516667	-7.61396E-002	-7.61229E-002	4.74617E-004	...........
	2	0.775	-7.61376E-002	-7.61052E-002	4.62918E-004	...........
	3	1.03333	-7.61318E-002	-7.60906E-002	4.74117E-004	...........
	4	1.29167	-7.61214E-002	-7.60740E-002	4.78151E-004	...........
	5	1.55	-7.61075E-002	-7.60566E-002	4.67584E-004	...........
	6	1.80833	-7.60917E-002	-7.60430E-002	4.64784E-004	...........
	7	2.06667	-7.60755E-002	-7.60288E-002	4.72417E-004	...........
	8	2.325	-7.60596E-002	-7.60109E-002	4.76351E-004	...........
	9	2.58333	-7.60440E-002	-7.59965E-002	4.69551E-004	...........
	10	2.84167	-7.60286E-002	-7.59805E-002	4.66951E-004	...........
	11	3.1	-7.60131E-002	-7.59661E-002	4.86884E-004	...........
	12	3.35833	-7.59975E-002	-7.59488E-002	4.82751E-004	...........
	13	3.61667	-7.59820E-002	-7.59318E-002	4.63751E-004	...........
	14	3.875	-7.59662E-002	-7.59186E-002	4.62518E-004	...........
	15	4.13333	-7.59502E-002	-7.58972E-002	4.81817E-004	...........
	16	4.39167	-7.59340E-002	-7.58836E-002	4.76217E-004	...........
	17	4.65	-7.59175E-002	-7.58670E-002	4.66017E-004	...........
	18	4.90833	-7.59009E-002	-7.58498E-002	4.70584E-004	...........
	19	5.16667	-7.58844E-002	-7.58376E-002	4.76451E-004	...........
	20	5.425	-7.58684E-002	-7.58234E-002	4.67118E-004	...........
	21	5.68333	-7.58531E-002	-7.58114E-002	4.56351E-004	...........
	22	5.94167	-7.58387E-002	-7.57980E-002	4.65084E-004	...........
	23	6.2	-7.58251E-002	-7.57822E-002	4.75151E-004	...........
	24	6.45833	-7.58116E-002	-7.57657E-002	4.65551E-004	...........
	25	6.71667	-7.57976E-002	-7.57533E-002	4.56584E-004	...........
	26	6.975	-7.57831E-002	-7.57400E-002	4.68518E-004	...........
	27	7.23333	-7.57686E-002	-7.57234E-002	4.71617E-004	...........
	28	7.49167	-7.57542E-002	-7.57074E-002	4.57518E-004	...........
	29	7.75	-7.57396E-002	-7.56943E-002	4.56818E-004	...........
	30	8.00833	-7.57248E-002	-7.56824E-002	4.70551E-004	...........
	31	8.26667	-7.57103E-002	-7.56742E-002	4.78951E-004	...........
	32	8.525	-7.56968E-002	-7.56592E-002	4.62751E-004	...........
	33	8.78333	-7.56845E-002	-7.56453E-002	4.64418E-004	...........
	34	9.04167	-7.56723E-002	-7.56278E-002	4.75051E-004	...........
	35	9.3	-7.56593E-002	-7.56141E-002	4.75251E-004	...........
	36	9.5583	-7.56451E-002	-7.55997E-002	4.63051E-004	...........
	37	9.8167	-7.56304E-002	-7.55868E-002	4.61551E-004	...........
	38	10.075	-7.56158E-002	-7.55768E-002	4.78484E-004	...........
EOC	QUANT	-0.0756158	Open Circuit (V)
PSTATMODEL	IQUANT	4	Pstat Model
PSTATSECTION	LABEL	REF600-11020	Pstat Section
PSTATSERIALNO	LABEL	11020	Pstat Serial Number
CTRLMODE	IQUANT	1	Control Mode
IESTAB	IQUANT	0	I/E Stability
CASPEED	IQUANT	1	Control Amp Speed
CONVENTION	IQUANT	1	Current Convention
ICHRANGE	IQUANT	2	Ich Range
ICHRANGEMODE	TOGGLE	F	Ich Auto Range
ICHOFFSETENABLE	TOGGLE	T	Ich Offset Enable
ICHOFFSET	QUANT	0	Ich Offset (V)
ICHFILTER	IQUANT	3	Ich Filter
VCHRANGE	IQUANT	2	Vch Range
VCHRANGEMODE	TOGGLE	F	Vch Auto Range
VCHOFFSETENABLE	TOGGLE	T	Vch Offset Enable
VCHOFFSET	QUANT	0	Vch Offset (V)
VCHFILTER	IQUANT	3	Vch Filter
ACHRANGE	IQUANT	2	Ach Range
ACHOFFSETENABLE	TOGGLE	F	Ach Offset Enable
ACHOFFSET	QUANT	0	Ach Offset (V)
ACHFILTER	IQUANT	3	Ach Filter
IERANGELOWERLIMIT	IQUANT	1	I/E Range Lower Limit
IERANGEMODE	TOGGLE	F	I/E AutoRange
IERANGE	IQUANT	8	I/E Range
POSFEEDENABLE	TOGGLE	F	Positive Feedback IR Comp
POSFEEDRESISTANCE	QUANT	0	Positive Feedback Resistance (ohm)
ACHSELECT	IQUANT	0	Ach Select
CABLEID	IQUANT	14	Cable ID
DCCALDATE	LABEL	6/26/2020	DC Calibration Date
ACCALDATE	LABEL	6/26/2020	AC Calibration Date
THERMOSELECT	IQUANT	1	Thermo Select
FRAMEWORKVERSION	QUANT	6.33	Framework Version
INSTRUMENTVERSION	LABEL	3.50	Instrument Version
ZCURVE	TABLE
	Pt	Time	Freq	Zreal	Zimag	Zsig	Zmod	Zphz	Idc	Vdc	IERange
	#	s	Hz	ohm	ohm	V	ohm	°	A	V	#
	0	1	1000078	1696.786	-1646.618	1	2364.409	-44.14034	5.453713E-008	-0.0731292	8
	1	1	794390.6	2025.698	-1714.088	1	2653.592	-40.23695	9.93273E-008	-0.0734947	8
	2	1	630984.4	2365.069	-1731.162	1	2930.951	-36.20304	-1.016989E-008	-0.0736274	8
	3	2	501234.4	2698.677	-1702.076	1	3190.598	-32.23994	1.866065E-008	-0.073732	8
	4	2	398109.4	3012.882	-1634.111	1	3427.503	-28.47428	6.20358E-008	-0.0737987	8
	5	2	316265.6	3294.954	-1531.666	1	3633.555	-24.93145	1.41276E-008	-0.0738304	8
	6	3	251203.1	3542.906	-1411.405	1	3813.692	-21.72109	5.616945E-008	-0.0738537	8
	7	3	199546.9	3748.33	-1288.09	1	3963.477	-18.96495	6.002443E-008	-0.0738482	8
	8	3	158578.1	3925.986	-1163.311	1	4094.711	-16.50511	5.734445E-008	-0.0738531	8
	9	4	125953.1	4086.202	-1026.802	1	4213.237	-14.10552	-7.606485E-010	-0.0738548	7
	10	4	100078.1	4212.364	-926.4502	1	4313.041	-12.40392	9.540633E-010	-0.0738886	7
	11	4	79453.13	4311.368	-844.079	1	4393.218	-11.07725	1.122835E-009	-0.0738983	7
	12	5	63140.62	4396.928	-777.7621	1	4465.186	-10.03115	1.397848E-009	-0.0738958	7
	13	5	50203.12	4472.604	-726.9568	1	4531.297	-9.231867	1.260349E-009	-0.073896	7
	14	5	39890.62	4540.988	-691.1798	1	4593.289	-8.654513	1.022798E-009	-0.0738999	7
	15	6	31640.63	4605.384	-670.934	1	4654	-8.288806	6.017101E-011	-0.0739134	7
	16	6	25171.88	4665.908	-664.911	1	4713.046	-8.110278	-4.055221E-010	-0.0739053	7
	17	6	20015.62	4724.927	-674.6803	1	4772.854	-8.126427	8.321722E-010	-0.0739067	7
	18	7	15890.62	4782.699	-699.9081	1	4833.641	-8.325661	1.867624E-010	-0.073915	7
	19	7	12609.37	4840.568	-742.2639	1	4897.148	-8.717958	-8.102512E-010	-0.0739145	7
	20	7	10078.13	4896.676	-802.2581	1	4961.96	-9.30452	6.227545E-010	-0.0739139	7
	21	7	8015.625	4955.917	-886.5432	1	5034.587	-10.14213	2.112011E-009	-0.0739026	7
	22	8	6328.125	5018.775	-1001.248	1	5117.675	-11.28241	-3.983014E-011	-0.0739113	7
	23	8	5015.625	5083.592	-1146.763	1	5211.331	-12.71207	2.418314E-009	-0.0739116	7
	24	8	3984.375	5152.002	-1330.2	1	5320.955	-14.47708	4.993054E-010	-0.0739134	7
	25	9	3170.956	5227.733	-1559.184	1	5455.296	-16.60734	2.255796E-009	-0.0739116	7
	26	9	2527.573	5312.486	-1843.421	1	5623.229	-19.13667	5.524335E-010	-0.0739165	7
	27	9	1976.103	5418.856	-2230.493	1	5859.958	-22.3729	1.402549E-009	-0.0739164	7
	28	10	1577.524	5533.816	-2668.334	1	6143.543	-25.74276	1.4088E-009	-0.0739196	7
	29	10	1265.625	5667.059	-3194.256	1	6505.292	-29.40793	7.813124E-010	-0.073921	7
	30	10	998.264	5845.721	-3891.865	1	7022.753	-33.65421	2.198379E-009	-0.0739162	7
	31	11	796.875	6057.36	-4704.439	1	7669.639	-37.83464	1.035273E-009	-0.0739248	7
	32	11	627.7902	6339.733	-5745.723	1	8556.024	-42.18613	1.725738E-009	-0.0739206	7
	33	11	505.5147	6672.574	-6901.226	1	9599.49	-45.96507	4.928382E-010	-0.0739291	7
	34	12	397.9953	7132.696	-8443.466	1	11052.94	-49.81024	3.841913E-010	-0.0738992	6
	35	12	315.5048	7713.967	-10252.08	1	12830.06	-53.04113	4.913725E-010	-0.0739045	6
	36	12	252.4038	8427.483	-12328.36	1	14933.55	-55.64407	3.083049E-010	-0.0739108	6
	37	13	198.6229	9406.011	-14983.25	1	17690.98	-57.88069	4.719987E-010	-0.0739022	6
	38	13	158.3615	10578.82	-17958.73	1	20842.93	-59.49924	4.389992E-010	-0.073913	6
	39	13	125.558	12078.18	-21544.15	1	24698.85	-60.72394	3.608697E-010	-0.0739059	6
	40	14	100.4464	13847.54	-25579.07	1	29086.82	-61.57056	2.867793E-010	-0.0739086	6
	41	14	79.00281	16167.26	-30665.42	1	34666.24	-62.20115	4.997123E-010	-0.0739065	6
	42	14	63.3446	18750.47	-36172.62	1	40743.57	-62.59954	2.521722E-011	-0.0739107	6
	43	15	49.86702	22110.31	-43188.02	1	48518.76	-62.88961	1.682788E-010	-0.0739164	6
	44	15	39.72458	26025.99	-51095.56	1	57342.03	-63.00757	3.655568E-010	-0.0739065	6
	45	15	31.6723	30810.79	-60340.55	1	67751.65	-62.95046	1.083063E-009	-0.0739111	6
	46	16	24.93351	37187.09	-71819.3	1	80875.78	-62.62547	-6.279683E-010	-0.0739078	6
	47	16	19.86229	44768	-84530.28	1	95653.2	-62.0939	-1.932948E-009	-0.0739052	6
	48	16	15.83615	54467.63	-98685.1	1	112718.6	-61.10422	1.147134E-009	-0.0739207	5
	49	16	12.40079	67467.39	-115834.5	1	134050.3	-59.78149	2.192954E-009	-0.0739264	5
	50	17	9.93114	81515.58	-132592.9	1	155646	-58.41759	1.98736E-009	-0.0739189	5
	51	17	7.944915	98616.8	-150950.7	1	180309.2	-56.84324	-6.997479E-010	-0.073921	5
	52	17	6.317385	118498.2	-170778.8	1	207863.5	-55.2444	2.871112E-010	-0.073924	5
	53	18	5.008013	140944.4	-191859.6	1	238066	-53.69814	7.215432E-010	-0.0739113	5
	54	19	3.945707	166565.6	-214708.3	1	271742.1	-52.19655	2.075702E-010	-0.073925	5
	55	20	3.158693	191196.3	-238087.8	1	305355.2	-51.23381	3.486782E-010	-0.0739065	5
	56	21	2.504006	218648.2	-265040.2	1	343588.9	-50.47865	-1.487396E-010	-0.0739208	5
	57	22	1.998082	245375.1	-295943.1	1	384436.3	-50.33688	-1.496725E-010	-0.0739408	5
	58	24	1.584686	275048.6	-332471.5	1	431496.3	-50.39956	5.983486E-011	-0.0738986	5
	59	26	1.266892	305881.4	-376595.3	1	485167.5	-50.91551	9.872511E-011	-0.0738899	5
	60	28	0.999041	340515.1	-433280.7	1	551074.2	-51.83621	1.134267E-010	-0.0739027	5
