EXPLAIN
TAG	EISPOT
TITLE	LABEL	Potentiostatic EIS	Test &Identifier
DATE	LABEL	3/20/2020	Date
TIME	LABEL	15:21:22	Time
NOTES	NOTES	1	&Notes...
	
PSTAT	PSTAT	REF600-11020	Potentiostat
VDC	POTEN	0.00000E+000	T	DC &Voltage (V)
FREQINIT	QUANT	1.00000E+006	Initial Fre&q. (Hz)
FREQFINAL	QUANT	1.00000E+000	Final Fre&q. (Hz)
PTSPERDEC	QUANT	1.00000E+001	Points/&decade
VAC	QUANT	2.50000E+001	AC &Voltage (mV rms)
AREA	QUANT	4.00000E-004	&Area (cm^2)
CONDIT	TWOPARAM	F	5.00000E+000	0.00000E+000	Conditionin&g	Time(s)	E(V)
DELAY	TWOPARAM	T	3.00000E+000	0.00000E+000	Init. De&lay	Time(s)	Stab.(mV/s)
SPEED	SELECTOR	0	&Optimize for:
ZGUESS	QUANT	1.00000E+003	E&stimated Z (ohms)
OCVCURVE	TABLE	12
	Pt	T	Vf	Vm	Ach	Over
	#	s	V vs. Ref.	V	V	bits
	0	0.258333	8.29921E-002	8.29921E-002	5.85797E-004	...........
	1	0.516667	8.29918E-002	8.29729E-002	5.84130E-004	...........
	2	0.775	8.29894E-002	8.29490E-002	5.85663E-004	...........
	3	1.03333	8.29825E-002	8.29326E-002	5.84497E-004	...........
	4	1.29167	8.29698E-002	8.29109E-002	5.82430E-004	...........
	5	1.55	8.29526E-002	8.28845E-002	5.83397E-004	...........
	6	1.80833	8.29325E-002	8.28611E-002	5.80230E-004	...........
	7	2.06667	8.29106E-002	8.28411E-002	5.84963E-004	...........
	8	2.325	8.28875E-002	8.28113E-002	5.83297E-004	...........
	9	2.58333	8.28640E-002	8.27924E-002	5.82763E-004	...........
	10	2.84167	8.28403E-002	8.27729E-002	5.81163E-004	...........
	11	3.1	8.28173E-002	8.27596E-002	5.86763E-004	...........
EOC	QUANT	0.0828173	Open Circuit (V)
PSTATMODEL	IQUANT	4	Pstat Model
PSTATSECTION	LABEL	REF600-11020	Pstat Section
PSTATSERIALNO	LABEL	11020	Pstat Serial Number
CTRLMODE	IQUANT	1	Control Mode
IESTAB	IQUANT	0	I/E Stability
CASPEED	IQUANT	1	Control Amp Speed
CONVENTION	IQUANT	1	Current Convention
ICHRANGE	IQUANT	2	Ich Range
ICHRANGEMODE	TOGGLE	F	Ich Auto Range
ICHOFFSETENABLE	TOGGLE	T	Ich Offset Enable
ICHOFFSET	QUANT	0	Ich Offset (V)
ICHFILTER	IQUANT	3	Ich Filter
VCHRANGE	IQUANT	2	Vch Range
VCHRANGEMODE	TOGGLE	F	Vch Auto Range
VCHOFFSETENABLE	TOGGLE	T	Vch Offset Enable
VCHOFFSET	QUANT	0	Vch Offset (V)
VCHFILTER	IQUANT	3	Vch Filter
ACHRANGE	IQUANT	2	Ach Range
ACHOFFSETENABLE	TOGGLE	F	Ach Offset Enable
ACHOFFSET	QUANT	0	Ach Offset (V)
ACHFILTER	IQUANT	3	Ach Filter
IERANGELOWERLIMIT	IQUANT	1	I/E Range Lower Limit
IERANGEMODE	TOGGLE	F	I/E AutoRange
IERANGE	IQUANT	8	I/E Range
POSFEEDENABLE	TOGGLE	F	Positive Feedback IR Comp
POSFEEDRESISTANCE	QUANT	0	Positive Feedback Resistance (ohm)
ACHSELECT	IQUANT	0	Ach Select
CABLEID	IQUANT	14	Cable ID
DCCALDATE	LABEL	2/27/2020	DC Calibration Date
ACCALDATE	LABEL	2/27/2020	AC Calibration Date
THERMOSELECT	IQUANT	1	Thermo Select
FRAMEWORKVERSION	QUANT	6.33	Framework Version
INSTRUMENTVERSION	LABEL	3.50	Instrument Version
ZCURVE	TABLE
	Pt	Time	Freq	Zreal	Zimag	Zsig	Zmod	Zphz	Idc	Vdc	IERange
	#	s	Hz	ohm	ohm	V	ohm	°	A	V	#
	0	2	1000078	1780.589	-2234.5	1	2857.182	-51.44999	8.010817E-007	0.0849665	8
	1	2	794390.6	2132.622	-2453.573	1	3250.861	-49.00314	2.244635E-007	0.084655	8
	2	2	630984.4	2514.632	-2661.298	1	3661.404	-46.6231	4.127229E-007	0.0845152	8
	3	2	501234.4	2924.444	-2867.75	1	4095.896	-44.43921	1.446817E-007	0.0844535	8
	4	3	398109.4	3346.979	-3065.27	1	4538.519	-42.48444	2.894876E-007	0.08441	8
	5	3	316265.6	3792.278	-3275.791	1	5011.206	-40.82064	2.647037E-007	0.0843796	8
	6	3	251203.1	4264.926	-3513.8	1	5525.974	-39.48453	-9.635315E-008	0.0844162	8
	7	4	199546.9	4751.642	-3765.511	1	6062.77	-38.3956	-3.98604E-007	0.0844628	8
	8	4	158578.1	5295.816	-4030.715	1	6655.248	-37.27524	-2.643039E-007	0.0844724	8
	9	4	125953.1	5971.125	-4282.448	1	7348.04	-35.64782	3.035851E-008	0.0842647	7
	10	5	100078.1	6615.798	-4582.18	1	8047.68	-34.70693	5.34193E-009	0.0843115	7
	11	5	79453.13	7370.339	-4901.569	1	8851.399	-33.62549	-3.646005E-009	0.0843274	7
	12	5	63140.62	8210.229	-5190.865	1	9713.54	-32.30286	4.226947E-009	0.0843229	7
	13	6	50203.12	9131.536	-5410.691	1	10614.17	-30.64793	3.362446E-009	0.0843106	7
	14	6	39890.62	10118.92	-5544.067	1	11538.16	-28.71795	1.516734E-008	0.0842885	7
	15	6	31640.63	11143.84	-5578.582	1	12462.18	-26.59244	3.597798E-009	0.0843213	7
	16	7	25171.88	12145.95	-5480.015	1	13324.96	-24.28397	3.379716E-010	0.0843032	7
	17	7	20015.62	13105.83	-5280.386	1	14129.59	-21.94468	5.186761E-009	0.0843034	7
	18	7	15890.62	14008.82	-5002.492	1	14875.21	-19.65144	3.578876E-009	0.0843202	7
	19	8	12609.37	14878.6	-4518.72	1	15549.65	-16.89385	-1.222564E-011	0.0843638	6
	20	8	10078.13	15518.75	-4177.171	1	16071.11	-15.0652	-1.369174E-010	0.084373	6
	21	8	8015.625	16060.67	-3831.201	1	16511.31	-13.41691	1.477814E-009	0.0843713	6
	22	9	6328.125	16533.13	-3510.966	1	16901.81	-11.98919	1.232155E-009	0.0843642	6
	23	9	5015.625	16901.81	-3243.999	1	17210.31	-10.86477	1.246373E-009	0.0843603	6
	24	9	3984.375	17206.46	-3049.999	1	17474.69	-10.05178	4.134632E-010	0.084371	6
	25	9	3170.956	17451.57	-2935.873	1	17696.8	-9.54944	-5.338539E-010	0.0843593	6
	26	10	2527.573	17647.41	-2908.034	1	17885.41	-9.357409	1.282787E-009	0.0843627	6
	27	10	1976.103	17837.21	-2986.839	1	18085.55	-9.50598	5.16127E-010	0.0843677	6
	28	10	1577.524	17997.93	-3169.973	1	18274.96	-9.98905	1.083701E-009	0.0843619	6
	29	11	1265.625	18142.71	-3464.427	1	18470.52	-10.81073	2.107106E-009	0.0843315	6
	30	11	998.264	18318.03	-3928.321	1	18734.51	-12.10382	3.845268E-010	0.0843636	6
	31	11	796.875	18481.61	-4527.861	1	19028.17	-13.76591	1.159951E-009	0.0843573	6
	32	12	627.7902	18678.96	-5355.643	1	19431.59	-15.99868	6.081674E-010	0.0843497	6
	33	12	505.5147	18915.84	-6318.759	1	19943.32	-18.47168	1.949915E-011	0.0843674	6
	34	12	397.9953	19227.56	-7647.79	1	20692.7	-21.69026	7.552547E-010	0.0843676	6
	35	13	315.5048	19616.61	-9261.616	1	21693.06	-25.27347	7.418485E-010	0.0843687	6
	36	13	252.4038	20104.98	-11167.43	1	22998.3	-29.05024	8.390149E-010	0.0843573	6
	37	13	198.6229	20782.54	-13676.21	1	24878.76	-33.34741	4.661243E-010	0.0843623	6
	38	14	158.3615	21612.51	-16565.19	1	27230.61	-37.46883	4.430853E-010	0.0843582	6
	39	14	125.558	22755.64	-20145.12	1	30391.53	-41.51784	4.074964E-010	0.0843593	6
	40	14	100.4464	24196.07	-24268.17	1	34269.43	-45.08525	5.477866E-010	0.084354	6
	41	15	79.00281	26256.86	-29568.49	1	39543.88	-48.39488	4.097473E-010	0.0843583	6
	42	15	63.3446	28782.95	-35317.34	1	45560.64	-50.82064	4.602688E-010	0.0843528	6
	43	15	49.86702	32323.8	-42632.62	1	53501.11	-52.83081	5.926983E-010	0.0843486	6
	44	16	39.72458	36686.09	-50656.3	1	62545.42	-54.08735	7.825606E-010	0.0843544	6
	45	16	31.6723	42245.69	-59732.12	1	73161.63	-54.73005	7.385864E-010	0.0843557	6
	46	16	24.93351	49717.58	-70486.87	1	86256.8	-54.80295	5.479296E-010	0.0843531	6
	47	17	19.86229	58505.72	-81714.81	1	100499.9	-54.3983	6.795401E-010	0.084347	6
	48	17	15.83615	68891.42	-93577.59	1	116201.5	-53.63966	8.181293E-010	0.0843528	5
	49	17	12.40079	82261.91	-107336.9	1	135234	-52.5338	-1.127755E-009	0.0843548	5
	50	17	9.93114	96162.8	-120580.6	1	154230.2	-51.42771	4.690487E-010	0.0843467	5
	51	18	7.944915	110942	-134182.8	1	174106.8	-50.41614	2.016653E-009	0.0843501	5
	52	18	6.317385	128222.9	-149778.5	1	197166.8	-49.43372	-4.37034E-010	0.0843632	5
	53	19	5.008013	146758.8	-166856.9	1	222214.7	-48.66679	-3.725622E-010	0.0843506	5
	54	20	3.945707	166236.8	-186442.4	1	249790.8	-48.27899	5.138869E-010	0.0843537	5
	55	21	3.158693	186193.6	-207766.3	1	278989	-48.13431	-2.267081E-010	0.0843582	5
	56	22	2.504006	207831.6	-234029.3	1	312991.5	-48.39306	-1.718894E-010	0.084345	5
	57	23	1.998082	231241.4	-263869.3	1	350855.5	-48.77035	2.916238E-010	0.0843905	5
	58	25	1.584686	257039.3	-301354.3	1	396085.3	-49.53757	2.07523E-010	0.0843689	5
	59	27	1.266892	285622.2	-342835.6	1	446224.5	-50.20174	4.986632E-011	0.0843315	5
	60	29	0.999041	321202.9	-395234	1	509294.8	-50.89957	-7.516663E-012	0.0843119	5
