EXPLAIN
TAG	EISPOT
TITLE	LABEL	Potentiostatic EIS	Test &Identifier
DATE	LABEL	7/13/2020	Date
TIME	LABEL	20:53:19	Time
NOTES	NOTES	1	&Notes...
	
PSTAT	PSTAT	REF600-11020	Potentiostat
VDC	POTEN	0.00000E+000	T	DC &Voltage (V)
FREQINIT	QUANT	1.00000E+006	Initial Fre&q. (Hz)
FREQFINAL	QUANT	1.00000E+000	Final Fre&q. (Hz)
PTSPERDEC	QUANT	1.00000E+001	Points/&decade
VAC	QUANT	2.50000E+001	AC &Voltage (mV rms)
AREA	QUANT	4.00000E-004	&Area (cm^2)
CONDIT	TWOPARAM	F	5.00000E+000	0.00000E+000	Conditionin&g	Time(s)	E(V)
DELAY	TWOPARAM	F	3.00000E+000	0.00000E+000	Init. De&lay	Time(s)	Stab.(mV/s)
SPEED	SELECTOR	0	&Optimize for:
ZGUESS	QUANT	1.00000E+003	E&stimated Z (ohms)
OCVCURVE	TABLE	39
	Pt	T	Vf	Vm	Ach	Over
	#	s	V vs. Ref.	V	V	bits
	0	0.258333	1.73688E-001	1.73688E-001	5.14550E-004	...........
	1	0.516667	1.73688E-001	1.73679E-001	5.12717E-004	...........
	2	0.775	1.73687E-001	1.73673E-001	5.11450E-004	...........
	3	1.03333	1.73684E-001	1.73668E-001	5.13017E-004	...........
	4	1.29167	1.73680E-001	1.73671E-001	5.12750E-004	...........
	5	1.55	1.73675E-001	1.73662E-001	5.10850E-004	...........
	6	1.80833	1.73671E-001	1.73661E-001	5.16283E-004	...........
	7	2.06667	1.73668E-001	1.73656E-001	5.15150E-004	...........
	8	2.325	1.73664E-001	1.73653E-001	5.16717E-004	...........
	9	2.58333	1.73660E-001	1.73648E-001	5.11317E-004	...........
	10	2.84167	1.73657E-001	1.73645E-001	5.07317E-004	...........
	11	3.1	1.73653E-001	1.73640E-001	5.12317E-004	...........
	12	3.35833	1.73649E-001	1.73635E-001	5.11117E-004	...........
	13	3.61667	1.73645E-001	1.73630E-001	5.21183E-004	...........
	14	3.875	1.73640E-001	1.73627E-001	5.10817E-004	...........
	15	4.13333	1.73636E-001	1.73624E-001	5.13750E-004	...........
	16	4.39167	1.73631E-001	1.73618E-001	5.09717E-004	...........
	17	4.65	1.73628E-001	1.73617E-001	5.09484E-004	...........
	18	4.90833	1.73624E-001	1.73610E-001	5.13017E-004	...........
	19	5.16667	1.73620E-001	1.73607E-001	5.10884E-004	...........
	20	5.425	1.73616E-001	1.73602E-001	5.17183E-004	...........
	21	5.68333	1.73611E-001	1.73602E-001	5.09517E-004	...........
	22	5.94167	1.73608E-001	1.73594E-001	5.10050E-004	...........
	23	6.2	1.73604E-001	1.73593E-001	5.12050E-004	...........
	24	6.45833	1.73600E-001	1.73586E-001	5.11483E-004	...........
	25	6.71667	1.73596E-001	1.73585E-001	5.14183E-004	...........
	26	6.975	1.73592E-001	1.73580E-001	5.14483E-004	...........
	27	7.23333	1.73588E-001	1.73579E-001	5.14117E-004	...........
	28	7.49167	1.73585E-001	1.73574E-001	5.16417E-004	...........
	29	7.75	1.73581E-001	1.73573E-001	5.13717E-004	...........
	30	8.00833	1.73578E-001	1.73569E-001	5.14183E-004	...........
	31	8.26667	1.73575E-001	1.73567E-001	5.18350E-004	...........
	32	8.525	1.73572E-001	1.73564E-001	5.15583E-004	...........
	33	8.78333	1.73570E-001	1.73562E-001	5.18150E-004	...........
	34	9.04167	1.73567E-001	1.73558E-001	5.19417E-004	...........
	35	9.3	1.73564E-001	1.73556E-001	5.21650E-004	...........
	36	9.5583	1.73562E-001	1.73551E-001	5.15350E-004	...........
	37	9.8167	1.73559E-001	1.73549E-001	5.21617E-004	...........
	38	10.075	1.73555E-001	1.73546E-001	5.22283E-004	...........
EOC	QUANT	0.1735555	Open Circuit (V)
PSTATMODEL	IQUANT	4	Pstat Model
PSTATSECTION	LABEL	REF600-11020	Pstat Section
PSTATSERIALNO	LABEL	11020	Pstat Serial Number
CTRLMODE	IQUANT	1	Control Mode
IESTAB	IQUANT	0	I/E Stability
CASPEED	IQUANT	1	Control Amp Speed
CONVENTION	IQUANT	1	Current Convention
ICHRANGE	IQUANT	2	Ich Range
ICHRANGEMODE	TOGGLE	F	Ich Auto Range
ICHOFFSETENABLE	TOGGLE	T	Ich Offset Enable
ICHOFFSET	QUANT	0	Ich Offset (V)
ICHFILTER	IQUANT	3	Ich Filter
VCHRANGE	IQUANT	2	Vch Range
VCHRANGEMODE	TOGGLE	F	Vch Auto Range
VCHOFFSETENABLE	TOGGLE	T	Vch Offset Enable
VCHOFFSET	QUANT	0	Vch Offset (V)
VCHFILTER	IQUANT	3	Vch Filter
ACHRANGE	IQUANT	2	Ach Range
ACHOFFSETENABLE	TOGGLE	F	Ach Offset Enable
ACHOFFSET	QUANT	0	Ach Offset (V)
ACHFILTER	IQUANT	3	Ach Filter
IERANGELOWERLIMIT	IQUANT	1	I/E Range Lower Limit
IERANGEMODE	TOGGLE	F	I/E AutoRange
IERANGE	IQUANT	8	I/E Range
POSFEEDENABLE	TOGGLE	F	Positive Feedback IR Comp
POSFEEDRESISTANCE	QUANT	0	Positive Feedback Resistance (ohm)
ACHSELECT	IQUANT	0	Ach Select
CABLEID	IQUANT	14	Cable ID
DCCALDATE	LABEL	6/26/2020	DC Calibration Date
ACCALDATE	LABEL	6/26/2020	AC Calibration Date
THERMOSELECT	IQUANT	1	Thermo Select
FRAMEWORKVERSION	QUANT	6.33	Framework Version
INSTRUMENTVERSION	LABEL	3.50	Instrument Version
ZCURVE	TABLE
	Pt	Time	Freq	Zreal	Zimag	Zsig	Zmod	Zphz	Idc	Vdc	IERange
	#	s	Hz	ohm	ohm	V	ohm	°	A	V	#
	0	1	1000078	1577.848	-1706.752	1	2324.351	-47.24743	-6.61888E-008	0.1758018	8
	1	1	794390.6	1812.218	-1848.007	1	2588.294	-45.56021	7.660518E-008	0.1755	8
	2	2	630984.4	2046.435	-1998.945	1	2860.713	-44.32743	1.554724E-008	0.1753562	8
	3	2	501234.4	2274.158	-2167.784	1	3141.828	-43.62816	-2.954335E-008	0.1752524	8
	4	2	398109.4	2503.174	-2375.591	1	3450.987	-43.50202	1.522712E-009	0.1751998	8
	5	3	316265.6	2735.043	-2622.512	1	3789.199	-43.79673	1.45398E-007	0.1751778	8
	6	3	251203.1	2970.592	-2948.275	1	4185.301	-44.78397	2.128618E-008	0.1751615	8
	7	3	199546.9	3217.701	-3343.377	1	4640.234	-46.09735	-4.608911E-009	0.1751593	8
	8	4	158578.1	3499.187	-3833.287	1	5190.221	-47.60884	1.012382E-008	0.1751665	8
	9	4	125953.1	3899.184	-4386.385	1	5868.901	-48.36518	-1.329178E-008	0.1751512	7
	10	4	100078.1	4250.118	-5112.735	1	6648.576	-50.26391	1.311822E-008	0.1751335	7
	11	5	79453.13	4647.608	-6002.41	1	7591.389	-52.24973	-1.248237E-008	0.1751433	7
	12	5	63140.62	5100.296	-7063.27	1	8712.222	-54.16744	2.519678E-009	0.1751188	7
	13	5	50203.12	5637.301	-8338.251	1	10065.07	-55.93827	-1.501288E-008	0.1751332	7
	14	6	39890.62	6265.531	-9869.62	1	11690.43	-57.59138	-1.330779E-008	0.17515	7
	15	6	31640.63	6996.512	-11747.39	1	13673.05	-59.22281	1.068829E-008	0.1751044	7
	16	6	25171.88	7890.393	-13975.68	1	16049.24	-60.55178	-1.553731E-008	0.1751428	7
	17	7	20015.62	8948.722	-16684.8	1	18933.1	-61.79358	1.403484E-008	0.1751079	7
	18	7	15890.62	10327.11	-19956.29	1	22470.04	-62.63906	1.343804E-008	0.1751165	7
	19	7	12609.37	12552.62	-23847.62	1	26949.53	-62.23913	1.824829E-009	0.1750894	6
	20	7	10078.13	14725.88	-28401.24	1	31991.91	-62.59352	2.540386E-009	0.1751127	6
	21	8	8015.625	17625.7	-33868.09	1	38180.01	-62.50653	-1.504505E-009	0.1751502	6
	22	8	6328.125	21600.28	-40429.28	1	45837.74	-61.88561	-6.200204E-010	0.1751263	6
	23	8	5015.625	26791.53	-47764.29	1	54765.08	-60.71144	3.26843E-009	0.1750852	6
	24	9	3984.375	33449.92	-55765.01	1	65027.94	-59.04311	-1.301256E-010	0.1751103	6
	25	9	3170.956	41882.19	-64226.32	1	76675.53	-56.8915	-2.43556E-010	0.1751115	6
	26	9	2527.573	52286.3	-72751.91	1	89591.84	-54.29546	-9.531446E-010	0.1751499	6
	27	10	1976.103	66250.45	-81409.16	1	104959.9	-50.86144	2.512782E-009	0.17511	6
	28	10	1577.524	81072.83	-88558.7	1	120064.3	-47.52684	2.548798E-009	0.1751053	6
	29	10	1265.625	100230	-91708.88	1	135855	-42.45803	6.596626E-010	0.1750865	5
	30	11	998.264	118600.8	-95221.4	1	152096.3	-38.76003	8.96388E-010	0.1750918	5
	31	11	796.875	136491.7	-96432.8	1	167120.5	-35.24158	7.951507E-010	0.1750713	5
	32	11	627.7902	155082	-95143.1	1	181941.3	-31.52919	9.206942E-010	0.1750624	5
	33	12	505.5147	170930.3	-92215.61	1	194218.7	-28.34653	1.007393E-009	0.1750609	5
	34	12	397.9953	186546.7	-87199.66	1	205921	-25.05334	7.840801E-010	0.1751178	5
	35	12	315.5048	199622.6	-81517.38	1	215625.3	-22.21301	7.498513E-010	0.1751117	5
	36	13	252.4038	211556	-76808.35	1	225067.7	-19.95413	5.560158E-010	0.1751068	5
	37	13	198.6229	221287	-71175.8	1	232452	-17.83012	6.818984E-010	0.1751074	5
	38	13	158.3615	229519.5	-67014.13	1	239102.7	-16.27653	6.175578E-010	0.1751071	5
	39	14	125.558	236799.5	-63717.09	1	245222.1	-15.06022	6.531881E-010	0.1751071	5
	40	14	100.4464	242880.8	-61719.4	1	250600	-14.25787	8.353551E-010	0.1751051	5
	41	14	79.00281	249883.6	-61250.56	1	257280.8	-13.77259	6.445067E-010	0.1750995	5
	42	15	63.3446	254190.9	-61913.33	1	261622.4	-13.68899	6.042194E-010	0.1750968	5
	43	15	49.86702	259549.7	-64661.94	1	267483.1	-13.98938	5.542559E-010	0.1750964	5
	44	16	39.72458	265263.8	-69217.74	1	274145.9	-14.62461	6.305092E-010	0.1751023	5
	45	16	31.6723	271566.4	-75582.22	1	281888.2	-15.55292	7.212207E-010	0.1750991	5
	46	16	24.93351	279800.8	-84297.34	1	292223.4	-16.76631	4.054767E-010	0.1751034	5
	47	17	19.86229	286686.4	-94078.37	1	301728.1	-18.16765	9.896235E-010	0.1751013	5
	48	17	15.83615	299964.6	-106454.5	1	318294.4	-19.53928	-3.444899E-010	0.1751023	5
	49	17	12.40079	310586.8	-119915	1	332932	-21.11116	1.59014E-009	0.1751026	5
	50	18	9.93114	327826.5	-135153.4	1	354593.7	-22.40493	-4.132225E-010	0.1750993	5
	51	18	7.944915	345402.4	-150090.3	1	376603.2	-23.48676	-1.301666E-009	0.1751065	5
	52	19	6.317385	364848.4	-166198.4	1	400919.3	-24.49056	-7.163615E-010	0.1751158	5
	53	20	5.008013	384743.7	-182939.2	1	426021.6	-25.43031	5.825329E-010	0.1751079	5
	54	21	3.945707	408964.2	-200190.3	1	455332.7	-26.08201	-1.012347E-011	0.1750938	5
	55	22	3.158693	431067.9	-219801.9	1	483872.3	-27.01707	3.355637E-010	0.1751177	5
	56	23	2.504006	454627.2	-241644.2	1	514857.1	-27.99161	-1.507158E-010	0.1751073	5
	57	24	1.998082	477004.7	-269649.3	1	547945.4	-29.47934	-2.318509E-010	0.1750772	5
	58	25	1.584686	499148.9	-302950.4	1	583890.9	-31.25498	7.113084E-012	0.1751207	5
	59	27	1.266892	523373.5	-343482.1	1	626019	-33.27628	1.252495E-010	0.1751412	5
	60	30	0.999041	551300	-398685.9	1	680354.4	-35.87348	1.779644E-010	0.1751331	5
