EXPLAIN
TAG	EISPOT
TITLE	LABEL	Potentiostatic EIS	Test &Identifier
DATE	LABEL	1/21/2020	Date
TIME	LABEL	16:05:42	Time
NOTES	NOTES	6	&Notes...
	
	
	
	
	
	
PSTAT	PSTAT	REF600-11020	Potentiostat
VDC	POTEN	0.00000E+000	T	DC &Voltage (V)
FREQINIT	QUANT	1.00000E+006	Initial Fre&q. (Hz)
FREQFINAL	QUANT	1.00000E+000	Final Fre&q. (Hz)
PTSPERDEC	QUANT	1.00000E+001	Points/&decade
VAC	QUANT	2.50000E+001	AC &Voltage (mV rms)
AREA	QUANT	1.00000E-001	&Area (cm^2)
CONDIT	TWOPARAM	F	5.00000E+000	0.00000E+000	Conditionin&g	Time(s)	E(V)
DELAY	TWOPARAM	F	5.00000E+000	0.00000E+000	Init. De&lay	Time(s)	Stab.(mV/s)
SPEED	SELECTOR	0	&Optimize for:
ZGUESS	QUANT	5.00000E+002	E&stimated Z (ohms)
OCVCURVE	TABLE	39
	Pt	T	Vf	Vm	Ach	Over
	#	s	V vs. Ref.	V	V	bits
	0	0.258333	-2.23279E-001	-2.23279E-001	6.62013E-004	...........
	1	0.516667	-2.23275E-001	-2.23091E-001	6.63346E-004	...........
	2	0.775	-2.23254E-001	-2.22983E-001	6.66179E-004	...........
	3	1.03333	-2.23201E-001	-2.22885E-001	6.60013E-004	...........
	4	1.29167	-2.23108E-001	-2.22513E-001	6.57746E-004	...........
	5	1.55	-2.22969E-001	-2.22061E-001	6.60446E-004	...........
	6	1.80833	-2.22766E-001	-2.21985E-001	6.59646E-004	...........
	7	2.06667	-2.22514E-001	-2.22082E-001	6.61646E-004	...........
	8	2.325	-2.22281E-001	-2.22088E-001	6.62313E-004	...........
	9	2.58333	-2.22128E-001	-2.21910E-001	6.61446E-004	...........
	10	2.84167	-2.22047E-001	-2.21737E-001	6.56213E-004	...........
	11	3.1	-2.21982E-001	-2.21632E-001	6.58279E-004	...........
	12	3.35833	-2.21895E-001	-2.21672E-001	6.60846E-004	...........
	13	3.61667	-2.21794E-001	-2.21544E-001	6.56046E-004	...........
	14	3.875	-2.21702E-001	-2.21411E-001	6.52646E-004	...........
	15	4.13333	-2.21619E-001	-2.21304E-001	6.60079E-004	...........
	16	4.39167	-2.21527E-001	-2.21133E-001	6.58779E-004	...........
	17	4.65	-2.21417E-001	-2.20946E-001	6.59579E-004	...........
	18	4.90833	-2.21285E-001	-2.20789E-001	6.58146E-004	...........
	19	5.16667	-2.21134E-001	-2.20622E-001	6.59579E-004	...........
	20	5.425	-2.20971E-001	-2.20468E-001	6.63846E-004	...........
	21	5.68333	-2.20803E-001	-2.20237E-001	6.63613E-004	...........
	22	5.94167	-2.20632E-001	-2.20070E-001	6.60279E-004	...........
	23	6.2	-2.20454E-001	-2.19902E-001	6.59846E-004	...........
	24	6.45833	-2.20272E-001	-2.19731E-001	6.63413E-004	...........
	25	6.71667	-2.20091E-001	-2.19548E-001	6.59979E-004	...........
	26	6.975	-2.19915E-001	-2.19378E-001	6.58346E-004	...........
	27	7.23333	-2.19740E-001	-2.19232E-001	6.66346E-004	...........
	28	7.49167	-2.19569E-001	-2.19071E-001	6.61313E-004	...........
	29	7.75	-2.19403E-001	-2.18909E-001	6.55046E-004	...........
	30	8.00833	-2.19241E-001	-2.18744E-001	6.65946E-004	...........
	31	8.26667	-2.19081E-001	-2.18601E-001	6.67379E-004	...........
	32	8.525	-2.18921E-001	-2.18413E-001	6.60413E-004	...........
	33	8.78333	-2.18760E-001	-2.18221E-001	6.62779E-004	...........
	34	9.04167	-2.18593E-001	-2.17978E-001	6.65179E-004	...........
	35	9.3	-2.18412E-001	-2.17747E-001	6.61779E-004	...........
	36	9.5583	-2.18212E-001	-2.17520E-001	6.64679E-004	...........
	37	9.8167	-2.17996E-001	-2.17299E-001	6.63813E-004	...........
	38	10.075	-2.17770E-001	-2.17082E-001	6.63746E-004	...........
EOC	QUANT	-0.2177703	Open Circuit (V)
PSTATMODEL	IQUANT	4	Pstat Model
PSTATSECTION	LABEL	REF600-11020	Pstat Section
PSTATSERIALNO	LABEL	11020	Pstat Serial Number
CTRLMODE	IQUANT	1	Control Mode
IESTAB	IQUANT	0	I/E Stability
CASPEED	IQUANT	1	Control Amp Speed
CONVENTION	IQUANT	1	Current Convention
ICHRANGE	IQUANT	2	Ich Range
ICHRANGEMODE	TOGGLE	F	Ich Auto Range
ICHOFFSETENABLE	TOGGLE	T	Ich Offset Enable
ICHOFFSET	QUANT	0	Ich Offset (V)
ICHFILTER	IQUANT	3	Ich Filter
VCHRANGE	IQUANT	2	Vch Range
VCHRANGEMODE	TOGGLE	F	Vch Auto Range
VCHOFFSETENABLE	TOGGLE	T	Vch Offset Enable
VCHOFFSET	QUANT	0	Vch Offset (V)
VCHFILTER	IQUANT	3	Vch Filter
ACHRANGE	IQUANT	2	Ach Range
ACHOFFSETENABLE	TOGGLE	F	Ach Offset Enable
ACHOFFSET	QUANT	0	Ach Offset (V)
ACHFILTER	IQUANT	3	Ach Filter
IERANGELOWERLIMIT	IQUANT	1	I/E Range Lower Limit
IERANGEMODE	TOGGLE	F	I/E AutoRange
IERANGE	IQUANT	8	I/E Range
POSFEEDENABLE	TOGGLE	F	Positive Feedback IR Comp
POSFEEDRESISTANCE	QUANT	0	Positive Feedback Resistance (ohm)
ACHSELECT	IQUANT	0	Ach Select
CABLEID	IQUANT	14	Cable ID
DCCALDATE	LABEL	12/22/2019	DC Calibration Date
ACCALDATE	LABEL	12/22/2019	AC Calibration Date
THERMOSELECT	IQUANT	1	Thermo Select
FRAMEWORKVERSION	QUANT	6.33	Framework Version
INSTRUMENTVERSION	LABEL	3.50	Instrument Version
ZCURVE	TABLE
	Pt	Time	Freq	Zreal	Zimag	Zsig	Zmod	Zphz	Idc	Vdc	IERange
	#	s	Hz	ohm	ohm	V	ohm	°	A	V	#
	0	1	1000078	2089.78	-2236.388	1	3060.819	-46.94094	9.533072E-007	-0.215807	8
	1	1	794390.6	2463.02	-2449.281	1	3473.535	-44.83976	-2.553758E-006	-0.2155012	8
	2	2	630984.4	2901.67	-2634.691	1	3919.347	-42.23917	2.936012E-006	-0.2165111	8
	3	2	501234.4	3368.756	-2780.731	1	4368.178	-39.53788	-1.297575E-006	-0.2159235	8
	4	2	398109.4	3872.928	-2874.189	1	4822.917	-36.57996	2.238121E-006	-0.2165833	8
	5	3	316265.6	4454.617	-2895.817	1	5313.131	-33.02672	-2.549819E-007	-0.2161296	8
	6	3	251203.1	4988.586	-2863.059	1	5751.791	-29.85246	5.511761E-007	-0.2162521	8
	7	3	199546.9	5503.702	-2780.167	1	6166.041	-26.80039	-1.039301E-006	-0.2158273	8
	8	4	158578.1	5987.086	-2611.131	1	6531.708	-23.56332	-9.992443E-007	-0.2158399	8
	9	4	125953.1	6432.598	-2375.575	1	6857.235	-20.26932	-5.625385E-008	-0.2161596	7
	10	4	100078.1	6762.256	-2172.484	1	7102.662	-17.81046	-2.024717E-008	-0.2161021	7
	11	5	79453.13	7067.626	-1980.479	1	7339.866	-15.65385	7.12142E-008	-0.2162976	7
	12	5	63140.62	7308.507	-1802.997	1	7527.621	-13.85806	-2.010434E-008	-0.2160834	7
	13	5	50203.12	7505.912	-1647.6	1	7684.614	-12.38047	-1.987133E-008	-0.2161186	7
	14	6	39890.62	7677.667	-1522.427	1	7827.155	-11.21585	9.15015E-008	-0.2163046	7
	15	6	31640.63	7820.937	-1432.521	1	7951.048	-10.37952	-2.471404E-008	-0.2161327	7
	16	6	25171.88	7950.889	-1371.972	1	8068.392	-9.79031	3.240079E-008	-0.2162329	7
	17	7	20015.62	8068.626	-1354.449	1	8181.519	-9.52918	3.788951E-008	-0.2163045	7
	18	7	15890.62	8185.788	-1366.965	1	8299.14	-9.480486	-1.938783E-008	-0.2161229	7
	19	7	12609.37	8301.009	-1412.647	1	8420.352	-9.65794	9.627524E-009	-0.2162443	7
	20	8	10078.13	8430.29	-1490.882	1	8561.105	-10.02896	1.008023E-008	-0.2161906	7
	21	8	8015.625	8552.524	-1616.549	1	8703.959	-10.70345	-2.197321E-008	-0.2160928	7
	22	8	6328.125	8687.177	-1780.751	1	8867.813	-11.58437	1.14159E-008	-0.2162759	7
	23	9	5015.625	8851.876	-1966.66	1	9067.716	-12.5262	4.748955E-010	-0.2163088	6
	24	9	3984.375	9017.446	-2225.092	1	9287.915	-13.86107	-6.02608E-009	-0.2160974	6
	25	9	3170.956	9198.89	-2538.806	1	9542.8	-15.429	-8.07243E-009	-0.2161577	6
	26	10	2527.573	9397.298	-2913.918	1	9838.71	-17.22764	8.267463E-009	-0.2162926	6
	27	10	1976.103	9635.83	-3410.896	1	10221.72	-19.49296	-2.977248E-009	-0.2161007	6
	28	10	1577.524	9883.84	-3961.416	1	10648.15	-21.84078	-4.915775E-009	-0.2161992	6
	29	10	1265.625	10139.83	-4612.552	1	11139.65	-24.46052	-4.49338E-009	-0.2162211	6
	30	11	998.264	10458.03	-5468.01	1	11801.25	-27.60294	-8.115994E-009	-0.2160938	6
	31	11	796.875	10797.48	-6452.22	1	12578.42	-30.86116	-4.744822E-009	-0.2162051	6
	32	11	627.7902	11209.65	-7734.25	1	13618.91	-34.60427	-9.662032E-009	-0.2161055	6
	33	12	505.5147	11644.94	-9147.351	1	14808.06	-38.15041	7.469549E-009	-0.2163914	6
	34	12	397.9953	12210.89	-11045.36	1	16465.29	-42.13091	-4.165045E-010	-0.2161894	6
	35	12	315.5048	12867.13	-13302.91	1	18507.58	-45.95398	-3.455098E-010	-0.2161928	6
	36	13	252.4038	13627.83	-15936.71	1	20968.94	-49.46553	-9.394825E-010	-0.2161941	6
	37	13	198.6229	14616.95	-19372.92	1	24268.61	-52.96529	-5.59552E-010	-0.2161911	6
	38	13	158.3615	15753.01	-23319.58	1	28141.79	-55.9599	-9.584593E-010	-0.2161976	6
	39	14	125.558	17187.17	-28235.88	1	33055.47	-58.67114	-5.397754E-010	-0.2161947	6
	40	14	100.4464	18893.1	-33950.2	1	38853.13	-60.9043	-2.284509E-010	-0.2161984	6
	41	14	79.00281	21036	-41475.44	1	46505.11	-63.10625	-3.073635E-010	-0.2162037	6
	42	15	63.3446	23850.57	-49179.81	1	54658.06	-64.12816	-6.397358E-010	-0.2162024	6
	43	15	49.86702	27278.45	-60283.43	1	66168.02	-65.65309	-7.355305E-010	-0.2162058	6
	44	15	39.72458	31251.34	-73099.91	1	79499.95	-66.85254	-8.364195E-010	-0.2161976	6
	45	16	31.6723	36485.92	-88094.35	1	95351.1	-67.5022	-7.260083E-010	-0.2162066	6
	46	16	24.93351	44188.28	-107354	1	116092.6	-67.62731	-1.053267E-009	-0.2162062	5
	47	16	19.86229	53771.85	-128992.3	1	139751.3	-67.37065	-1.155568E-009	-0.2162023	5
	48	17	15.83615	65625.78	-153569.3	1	167003.8	-66.8612	-7.111791E-010	-0.2162081	5
	49	17	12.40079	82974.59	-185394.5	1	203115.5	-65.88877	-2.206287E-009	-0.2162072	5
	50	17	9.93114	104738.3	-218910.1	1	242676.2	-64.43106	-1.346591E-009	-0.2162046	5
	51	18	7.944915	131695.8	-255611.6	1	287543.1	-62.74165	-7.763813E-010	-0.2162104	5
	52	19	6.317385	164980.5	-296775.7	1	339550.2	-60.92989	-7.239437E-010	-0.2162227	5
	53	19	5.008013	207798.5	-340593.8	1	398979.1	-58.61236	-1.04242E-009	-0.2162119	5
	54	20	3.945707	258641.3	-386882.1	1	465374.2	-56.23619	-1.135243E-009	-0.2162087	5
	55	22	3.158693	313920.8	-430483	1	532786.9	-53.89938	-1.477582E-009	-0.2162154	5
	56	23	2.504006	376650.9	-475724.7	1	606778.3	-51.62988	-1.331883E-009	-0.2162169	5
	57	25	1.998082	442144.9	-521659.8	1	683828.3	-49.71628	-1.272526E-009	-0.216179	5
	58	26	1.584686	512043.2	-570139.4	1	766320.5	-48.07293	-1.415597E-009	-0.2162169	5
	59	28	1.266892	586434.6	-621383.9	1	854414.1	-46.65744	-1.533416E-009	-0.2162483	5
	60	31	0.999041	671422.8	-683294.5	1	957967	-45.50208	-1.585843E-009	-0.2162551	5
