EXPLAIN
TAG	EISPOT
TITLE	LABEL	Potentiostatic EIS	Test &Identifier
DATE	LABEL	7/13/2020	Date
TIME	LABEL	20:36:56	Time
NOTES	NOTES	1	&Notes...
	
PSTAT	PSTAT	REF600-11020	Potentiostat
VDC	POTEN	0.00000E+000	T	DC &Voltage (V)
FREQINIT	QUANT	1.00000E+006	Initial Fre&q. (Hz)
FREQFINAL	QUANT	1.00000E+000	Final Fre&q. (Hz)
PTSPERDEC	QUANT	1.00000E+001	Points/&decade
VAC	QUANT	2.50000E+001	AC &Voltage (mV rms)
AREA	QUANT	4.00000E-004	&Area (cm^2)
CONDIT	TWOPARAM	F	5.00000E+000	0.00000E+000	Conditionin&g	Time(s)	E(V)
DELAY	TWOPARAM	F	3.00000E+000	0.00000E+000	Init. De&lay	Time(s)	Stab.(mV/s)
SPEED	SELECTOR	0	&Optimize for:
ZGUESS	QUANT	1.00000E+003	E&stimated Z (ohms)
OCVCURVE	TABLE	39
	Pt	T	Vf	Vm	Ach	Over
	#	s	V vs. Ref.	V	V	bits
	0	0.258333	1.49223E-001	1.49223E-001	4.56451E-004	...........
	1	0.516667	1.49223E-001	1.49226E-001	4.47451E-004	...........
	2	0.775	1.49224E-001	1.49226E-001	4.50584E-004	...........
	3	1.03333	1.49224E-001	1.49226E-001	4.52151E-004	...........
	4	1.29167	1.49225E-001	1.49227E-001	4.54318E-004	...........
	5	1.55	1.49226E-001	1.49228E-001	4.39051E-004	...........
	6	1.80833	1.49226E-001	1.49227E-001	4.36685E-004	...........
	7	2.06667	1.49227E-001	1.49228E-001	4.59051E-004	...........
	8	2.325	1.49228E-001	1.49230E-001	4.56318E-004	...........
	9	2.58333	1.49228E-001	1.49227E-001	4.48384E-004	...........
	10	2.84167	1.49228E-001	1.49225E-001	4.42685E-004	...........
	11	3.1	1.49228E-001	1.49227E-001	4.52818E-004	...........
	12	3.35833	1.49227E-001	1.49230E-001	4.52151E-004	...........
	13	3.61667	1.49227E-001	1.49231E-001	4.41418E-004	...........
	14	3.875	1.49228E-001	1.49233E-001	4.49551E-004	...........
	15	4.13333	1.49229E-001	1.49233E-001	4.60051E-004	...........
	16	4.39167	1.49231E-001	1.49235E-001	4.53918E-004	...........
	17	4.65	1.49232E-001	1.49235E-001	4.50818E-004	...........
	18	4.90833	1.49233E-001	1.49234E-001	4.58384E-004	...........
	19	5.16667	1.49234E-001	1.49237E-001	4.56484E-004	...........
	20	5.425	1.49235E-001	1.49238E-001	4.51118E-004	...........
	21	5.68333	1.49236E-001	1.49238E-001	4.48984E-004	...........
	22	5.94167	1.49236E-001	1.49237E-001	4.55818E-004	...........
	23	6.2	1.49237E-001	1.49240E-001	4.55618E-004	...........
	24	6.45833	1.49238E-001	1.49239E-001	4.49484E-004	...........
	25	6.71667	1.49238E-001	1.49240E-001	4.50118E-004	...........
	26	6.975	1.49239E-001	1.49241E-001	4.60884E-004	...........
	27	7.23333	1.49240E-001	1.49245E-001	4.57551E-004	...........
	28	7.49167	1.49241E-001	1.49248E-001	4.50484E-004	...........
	29	7.75	1.49242E-001	1.49247E-001	4.55684E-004	...........
	30	8.00833	1.49244E-001	1.49249E-001	4.56384E-004	...........
	31	8.26667	1.49246E-001	1.49249E-001	4.57084E-004	...........
	32	8.525	1.49247E-001	1.49248E-001	4.47118E-004	...........
	33	8.78333	1.49248E-001	1.49247E-001	4.40585E-004	...........
	34	9.04167	1.49248E-001	1.49248E-001	4.56351E-004	...........
	35	9.3	1.49248E-001	1.49248E-001	4.57151E-004	...........
	36	9.5583	1.49248E-001	1.49250E-001	4.52651E-004	...........
	37	9.8167	1.49248E-001	1.49250E-001	4.55751E-004	...........
	38	10.075	1.49248E-001	1.49254E-001	4.61784E-004	...........
EOC	QUANT	0.1492485	Open Circuit (V)
PSTATMODEL	IQUANT	4	Pstat Model
PSTATSECTION	LABEL	REF600-11020	Pstat Section
PSTATSERIALNO	LABEL	11020	Pstat Serial Number
CTRLMODE	IQUANT	1	Control Mode
IESTAB	IQUANT	0	I/E Stability
CASPEED	IQUANT	1	Control Amp Speed
CONVENTION	IQUANT	1	Current Convention
ICHRANGE	IQUANT	2	Ich Range
ICHRANGEMODE	TOGGLE	F	Ich Auto Range
ICHOFFSETENABLE	TOGGLE	T	Ich Offset Enable
ICHOFFSET	QUANT	0	Ich Offset (V)
ICHFILTER	IQUANT	3	Ich Filter
VCHRANGE	IQUANT	2	Vch Range
VCHRANGEMODE	TOGGLE	F	Vch Auto Range
VCHOFFSETENABLE	TOGGLE	T	Vch Offset Enable
VCHOFFSET	QUANT	0	Vch Offset (V)
VCHFILTER	IQUANT	3	Vch Filter
ACHRANGE	IQUANT	2	Ach Range
ACHOFFSETENABLE	TOGGLE	F	Ach Offset Enable
ACHOFFSET	QUANT	0	Ach Offset (V)
ACHFILTER	IQUANT	3	Ach Filter
IERANGELOWERLIMIT	IQUANT	1	I/E Range Lower Limit
IERANGEMODE	TOGGLE	F	I/E AutoRange
IERANGE	IQUANT	8	I/E Range
POSFEEDENABLE	TOGGLE	F	Positive Feedback IR Comp
POSFEEDRESISTANCE	QUANT	0	Positive Feedback Resistance (ohm)
ACHSELECT	IQUANT	0	Ach Select
CABLEID	IQUANT	14	Cable ID
DCCALDATE	LABEL	6/26/2020	DC Calibration Date
ACCALDATE	LABEL	6/26/2020	AC Calibration Date
THERMOSELECT	IQUANT	1	Thermo Select
FRAMEWORKVERSION	QUANT	6.33	Framework Version
INSTRUMENTVERSION	LABEL	3.50	Instrument Version
ZCURVE	TABLE
	Pt	Time	Freq	Zreal	Zimag	Zsig	Zmod	Zphz	Idc	Vdc	IERange
	#	s	Hz	ohm	ohm	V	ohm	°	A	V	#
	0	1	1000078	1318.425	-807.3755	1	1545.995	-31.48241	-9.592759E-008	0.1516018	8
	1	1	794390.6	1435.416	-824.2967	1	1655.26	-29.86686	3.16453E-008	0.1512567	8
	2	2	630984.4	1549.109	-843.5038	1	1763.87	-28.56869	-2.824581E-008	0.1511032	8
	3	2	501234.4	1661.509	-866.2761	1	1873.779	-27.53659	6.776923E-008	0.1509866	8
	4	2	398109.4	1775.564	-899.6724	1	1990.487	-26.87118	2.19521E-007	0.1509406	8
	5	2	316265.6	1892.014	-941.7104	1	2113.418	-26.46087	3.570816E-008	0.1509085	8
	6	3	251203.1	2011.379	-993.619	1	2243.418	-26.28933	5.786253E-008	0.1509043	8
	7	3	199546.9	2140.816	-1053.795	1	2386.122	-26.20825	-4.922779E-008	0.1508985	8
	8	3	158578.1	2274.521	-1120.378	1	2535.486	-26.22382	4.233308E-008	0.1509035	8
	9	4	125953.1	2448.435	-1176.791	1	2716.555	-25.67034	5.777066E-008	0.1508336	7
	10	4	100078.1	2607.429	-1269.576	1	2900.088	-25.96179	-1.004277E-008	0.1508644	7
	11	4	79453.13	2769.024	-1380.936	1	3094.266	-26.50583	1.256812E-008	0.1508618	7
	12	5	63140.62	2949.1	-1506.61	1	3311.656	-27.06117	-1.837671E-008	0.1508852	7
	13	5	50203.12	3149.493	-1646.224	1	3553.781	-27.59584	-1.139921E-008	0.1508609	7
	14	5	39890.62	3372.776	-1798.445	1	3822.306	-28.06761	1.715937E-008	0.1508282	7
	15	6	31640.63	3623.457	-1964.504	1	4121.737	-28.46491	1.485594E-008	0.1508255	7
	16	6	25171.88	3897.683	-2136.288	1	4444.734	-28.72678	-1.941122E-008	0.1508763	7
	17	6	20015.62	4198.46	-2316.581	1	4795.166	-28.88856	-1.456369E-008	0.1508814	7
	18	7	15890.62	4528.073	-2506.848	1	5175.687	-28.96995	1.79798E-008	0.1508413	7
	19	7	12609.37	4880.627	-2701.381	1	5578.349	-28.96412	1.843455E-008	0.1508415	7
	20	7	10078.13	5239.779	-2898.644	1	5988.106	-28.95135	1.882368E-008	0.1508406	7
	21	8	8015.625	5618.478	-3110.955	1	6422.253	-28.97333	2.032868E-008	0.1508282	7
	22	8	6328.125	6015.297	-3349.432	1	6884.947	-29.10989	8.368127E-009	0.1508515	7
	23	8	5015.625	6414.418	-3623.618	1	7367.182	-29.46287	2.059339E-008	0.1508233	7
	24	8	3984.375	6802.379	-3946.87	1	7864.486	-30.12312	-9.808892E-009	0.1508449	7
	25	9	3170.956	7191.247	-4334.404	1	8396.493	-31.07877	-1.981195E-008	0.1508653	7
	26	9	2527.573	7587.872	-4825.968	1	8992.54	-32.4568	-1.731208E-008	0.1508516	7
	27	9	1976.103	8066.221	-5478.57	1	9750.83	-34.18431	2.847633E-009	0.1508227	6
	28	10	1577.524	8533.151	-6260.679	1	10583.51	-36.26709	2.039405E-009	0.1508332	6
	29	10	1265.625	9062.782	-7194.594	1	11571.35	-38.44471	-2.475237E-009	0.1508679	6
	30	10	998.264	9761.32	-8419.952	1	12891.04	-40.78051	-6.0408E-010	0.1508274	6
	31	11	796.875	10585.11	-9801.04	1	14425.84	-42.79745	1.06953E-009	0.1507935	6
	32	11	627.7902	11675.46	-11491.47	1	16382.01	-44.54498	1.715987E-009	0.1507918	6
	33	11	505.5147	12896.66	-13231.81	1	18477.14	-45.73488	4.600892E-010	0.1508094	6
	34	12	397.9953	14546.89	-15367.11	1	21160.34	-46.57061	5.968295E-010	0.1508507	6
	35	12	315.5048	16451.48	-17618.26	1	24105.06	-46.96144	3.815012E-010	0.1508481	6
	36	12	252.4038	18548.58	-19940.42	1	27233.63	-47.07103	2.247404E-010	0.1508439	6
	37	13	198.6229	21027.72	-22606.29	1	30874.09	-47.07191	1.888018E-010	0.1508471	6
	38	13	158.3615	23531.46	-25367.9	1	34601.44	-47.15077	2.07077E-010	0.1508457	6
	39	13	125.558	26191.36	-28578.36	1	38764.8	-47.49551	5.737716E-011	0.1508472	6
	40	14	100.4464	28802.18	-32185.09	1	43190.81	-48.17489	1.936781E-010	0.1508437	6
	41	14	79.00281	31722.74	-36909.86	1	48668.98	-49.32209	-1.079297E-010	0.1508414	6
	42	14	63.3446	34614.59	-42265.74	1	54631.15	-50.68338	-1.473157E-010	0.15084	6
	43	15	49.86702	38130.65	-49464.04	1	62455.08	-52.37223	1.487353E-010	0.1508365	6
	44	15	39.72458	42048.61	-57873.18	1	71535.95	-53.99917	2.597674E-011	0.1508424	6
	45	15	31.6723	46853.85	-68067.09	1	82634.2	-55.4585	-2.678689E-010	0.1508399	6
	46	16	24.93351	53240.15	-80991.53	1	96923.4	-56.6809	1.098423E-010	0.1508414	6
	47	16	19.86229	60902.98	-95505.2	1	113271.4	-57.47463	-4.676132E-010	0.1508371	5
	48	16	15.83615	70560.33	-112356.4	1	132675.2	-57.87098	1.167291E-009	0.1508305	5
	49	17	12.40079	83850.44	-133277.3	1	157460.2	-57.82424	1.113122E-009	0.1508266	5
	50	17	9.93114	98876.5	-154285	1	183249.6	-57.34545	1.555624E-009	0.1508312	5
	51	17	7.944915	116979.4	-178236.1	1	213195.4	-56.72243	6.30613E-010	0.1508298	5
	52	18	6.317385	139492.1	-204754	1	247754.4	-55.7347	-2.385908E-010	0.1508419	5
	53	18	5.008013	166177.5	-233281.4	1	286417.8	-54.53592	1.984477E-010	0.1508508	5
	54	19	3.945707	197385.5	-264979.6	1	330416.7	-53.31727	3.952684E-010	0.1508344	5
	55	20	3.158693	229064.7	-295901.9	1	374203.9	-52.25569	1.071902E-010	0.1508466	5
	56	21	2.504006	265261.5	-331573.3	1	424622.8	-51.33989	-2.114374E-010	0.1508362	5
	57	23	1.998082	300816.7	-369073.7	1	476136.7	-50.81795	2.646458E-011	0.1508459	5
	58	24	1.584686	340808.2	-414531	1	536643.4	-50.57454	1.556831E-010	0.1508757	5
	59	26	1.266892	379350.8	-466823.6	1	601524.1	-50.90195	1.179584E-010	0.1508519	5
	60	29	0.999041	422771.2	-532193.9	1	679680.6	-51.53661	9.048432E-011	0.1508209	5
