EXPLAIN
TAG	EISPOT
TITLE	LABEL	Potentiostatic EIS	Test &Identifier
DATE	LABEL	2/6/2020	Date
TIME	LABEL	17:20:32	Time
NOTES	NOTES	6	&Notes...
	
	
	
	
	
	
PSTAT	PSTAT	REF600-11020	Potentiostat
VDC	POTEN	0.00000E+000	T	DC &Voltage (V)
FREQINIT	QUANT	1.00000E+006	Initial Fre&q. (Hz)
FREQFINAL	QUANT	1.00000E+000	Final Fre&q. (Hz)
PTSPERDEC	QUANT	1.00000E+001	Points/&decade
VAC	QUANT	2.50000E+001	AC &Voltage (mV rms)
AREA	QUANT	1.60000E-004	&Area (cm^2)
CONDIT	TWOPARAM	F	5.00000E+000	0.00000E+000	Conditionin&g	Time(s)	E(V)
DELAY	TWOPARAM	F	5.00000E+000	0.00000E+000	Init. De&lay	Time(s)	Stab.(mV/s)
SPEED	SELECTOR	0	&Optimize for:
ZGUESS	QUANT	1.00000E+003	E&stimated Z (ohms)
OCVCURVE	TABLE	39
	Pt	T	Vf	Vm	Ach	Over
	#	s	V vs. Ref.	V	V	bits
	0	0.258333	6.26007E-002	6.26007E-002	5.73404E-004	...........
	1	0.516667	6.25997E-002	6.25465E-002	5.75871E-004	...........
	2	0.775	6.25926E-002	6.24559E-002	5.77904E-004	...........
	3	1.03333	6.25707E-002	6.24076E-002	5.83037E-004	...........
	4	1.29167	6.25298E-002	6.23520E-002	5.77404E-004	...........
	5	1.55	6.24772E-002	6.23949E-002	5.76138E-004	...........
	6	1.80833	6.24271E-002	6.22999E-002	5.81204E-004	...........
	7	2.06667	6.23869E-002	6.22689E-002	5.77171E-004	...........
	8	2.325	6.23517E-002	6.22446E-002	5.74937E-004	...........
	9	2.58333	6.23158E-002	6.22067E-002	5.78671E-004	...........
	10	2.84167	6.22793E-002	6.21715E-002	5.84171E-004	...........
	11	3.1	6.22439E-002	6.21403E-002	5.76437E-004	...........
	12	3.35833	6.22096E-002	6.21150E-002	5.85104E-004	...........
	13	3.61667	6.21770E-002	6.20993E-002	5.76504E-004	...........
	14	3.875	6.21473E-002	6.20704E-002	5.74671E-004	...........
	15	4.13333	6.21208E-002	6.20396E-002	5.79437E-004	...........
	16	4.39167	6.20956E-002	6.20068E-002	5.82637E-004	...........
	17	4.65	6.20692E-002	6.19794E-002	5.79937E-004	...........
	18	4.90833	6.20410E-002	6.19575E-002	5.77437E-004	...........
	19	5.16667	6.20123E-002	6.19308E-002	5.78371E-004	...........
	20	5.425	6.19847E-002	6.19076E-002	5.83937E-004	...........
	21	5.68333	6.19585E-002	6.18785E-002	5.82204E-004	...........
	22	5.94167	6.19328E-002	6.18442E-002	5.78271E-004	...........
	23	6.2	6.19063E-002	6.18133E-002	5.74571E-004	...........
	24	6.45833	6.18779E-002	6.17874E-002	5.79537E-004	...........
	25	6.71667	6.18481E-002	6.17568E-002	5.77504E-004	...........
	26	6.975	6.18182E-002	6.17331E-002	5.76271E-004	...........
	27	7.23333	6.17893E-002	6.17114E-002	5.82171E-004	...........
	28	7.49167	6.17619E-002	6.16833E-002	5.79804E-004	...........
	29	7.75	6.17360E-002	6.16533E-002	5.80037E-004	...........
	30	8.00833	6.17102E-002	6.16214E-002	5.78937E-004	...........
	31	8.26667	6.16830E-002	6.15839E-002	5.82504E-004	...........
	32	8.525	6.16537E-002	6.15620E-002	5.76138E-004	...........
	33	8.78333	6.16229E-002	6.15315E-002	5.80371E-004	...........
	34	9.04167	6.15921E-002	6.14938E-002	5.75004E-004	...........
	35	9.3	6.15616E-002	6.14666E-002	5.82871E-004	...........
	36	9.5583	6.15308E-002	6.14384E-002	5.70304E-004	...........
	37	9.8167	6.15001E-002	6.14134E-002	5.75538E-004	...........
	38	10.075	6.14704E-002	6.13897E-002	5.75638E-004	...........
EOC	QUANT	0.0614704	Open Circuit (V)
PSTATMODEL	IQUANT	4	Pstat Model
PSTATSECTION	LABEL	REF600-11020	Pstat Section
PSTATSERIALNO	LABEL	11020	Pstat Serial Number
CTRLMODE	IQUANT	1	Control Mode
IESTAB	IQUANT	0	I/E Stability
CASPEED	IQUANT	1	Control Amp Speed
CONVENTION	IQUANT	1	Current Convention
ICHRANGE	IQUANT	2	Ich Range
ICHRANGEMODE	TOGGLE	F	Ich Auto Range
ICHOFFSETENABLE	TOGGLE	T	Ich Offset Enable
ICHOFFSET	QUANT	0	Ich Offset (V)
ICHFILTER	IQUANT	3	Ich Filter
VCHRANGE	IQUANT	2	Vch Range
VCHRANGEMODE	TOGGLE	F	Vch Auto Range
VCHOFFSETENABLE	TOGGLE	T	Vch Offset Enable
VCHOFFSET	QUANT	0	Vch Offset (V)
VCHFILTER	IQUANT	3	Vch Filter
ACHRANGE	IQUANT	2	Ach Range
ACHOFFSETENABLE	TOGGLE	F	Ach Offset Enable
ACHOFFSET	QUANT	0	Ach Offset (V)
ACHFILTER	IQUANT	3	Ach Filter
IERANGELOWERLIMIT	IQUANT	1	I/E Range Lower Limit
IERANGEMODE	TOGGLE	F	I/E AutoRange
IERANGE	IQUANT	8	I/E Range
POSFEEDENABLE	TOGGLE	F	Positive Feedback IR Comp
POSFEEDRESISTANCE	QUANT	0	Positive Feedback Resistance (ohm)
ACHSELECT	IQUANT	0	Ach Select
CABLEID	IQUANT	14	Cable ID
DCCALDATE	LABEL	1/27/2020	DC Calibration Date
ACCALDATE	LABEL	1/27/2020	AC Calibration Date
THERMOSELECT	IQUANT	1	Thermo Select
FRAMEWORKVERSION	QUANT	6.33	Framework Version
INSTRUMENTVERSION	LABEL	3.50	Instrument Version
ZCURVE	TABLE
	Pt	Time	Freq	Zreal	Zimag	Zsig	Zmod	Zphz	Idc	Vdc	IERange
	#	s	Hz	ohm	ohm	V	ohm	°	A	V	#
	0	1	1000078	2317.446	-1447.346	1	2732.282	-31.98657	5.757795E-006	0.0630911	8
	1	1	794390.6	2595.577	-1341.27	1	2921.648	-27.32775	-1.756301E-006	0.0634333	8
	2	2	630984.4	2832.114	-1217.909	1	3082.884	-23.26941	4.993184E-007	0.0632881	8
	3	2	501234.4	3022.807	-1087.158	1	3212.363	-19.78121	1.005492E-006	0.0629504	8
	4	2	398109.4	3176.768	-949.2191	1	3315.55	-16.63616	9.475758E-007	0.0629141	8
	5	3	316265.6	3286.865	-831.0477	1	3390.298	-14.18924	2.878046E-006	0.0626653	8
	6	3	251203.1	3367.748	-721.7623	1	3444.222	-12.09642	1.727404E-006	0.062742	8
	7	3	199546.9	3429.826	-632.832	1	3487.719	-10.45399	-8.114853E-008	0.0630336	8
	8	4	158578.1	3488.615	-558.4333	1	3533.027	-9.094359	-9.779956E-007	0.0632515	8
	9	4	125953.1	3540.444	-472.4386	1	3571.826	-7.600676	3.887754E-007	0.0623962	7
	10	4	100078.1	3584.601	-434.8698	1	3610.883	-6.917097	-3.960306E-008	0.0631039	7
	11	4	79453.13	3617.117	-421.2076	1	3641.559	-6.642088	-1.460366E-009	0.0630094	7
	12	5	63140.62	3650.994	-417.048	1	3674.736	-6.516573	-6.46263E-009	0.0630014	7
	13	5	50203.12	3684.162	-423.109	1	3708.378	-6.551455	-3.830447E-008	0.063064	7
	14	5	39890.62	3719.499	-439.9852	1	3745.432	-6.746255	-4.075945E-008	0.0631513	7
	15	6	31640.63	3757.681	-468.4004	1	3786.761	-7.105353	6.184515E-008	0.0629725	7
	16	6	25171.88	3797.406	-507.7397	1	3831.199	-7.615678	3.015488E-008	0.0629316	7
	17	6	20015.62	3840.924	-559.8802	1	3881.515	-8.293428	9.725519E-009	0.0629644	7
	18	7	15890.62	3890.48	-627.2959	1	3940.728	-9.159463	-1.742975E-008	0.0630125	7
	19	7	12609.37	3944.632	-709.9861	1	4008.018	-10.2033	-2.137713E-008	0.063074	7
	20	7	10078.13	4001.869	-807.8649	1	4082.597	-11.41302	-3.824506E-008	0.0630564	7
	21	8	8015.625	4066.983	-929.6996	1	4171.893	-12.87639	6.138413E-008	0.062966	7
	22	8	6328.125	4144.273	-1082.102	1	4283.216	-14.63365	5.046388E-008	0.0629036	7
	23	8	5015.625	4229.401	-1263.82	1	4414.19	-16.63707	1.769744E-009	0.0630421	7
	24	9	3984.375	4324.94	-1482.406	1	4571.939	-18.91953	-9.353639E-009	0.0629917	7
	25	9	3170.956	4433.583	-1741.652	1	4763.403	-21.44647	3.14238E-008	0.0629284	7
	26	9	2527.573	4558.454	-2052.226	1	4999.113	-24.23738	-1.690934E-008	0.0630075	7
	27	10	1976.103	4711.614	-2461.322	1	5315.771	-27.58232	-1.975193E-008	0.0630684	7
	28	10	1577.524	4881.095	-2907.087	1	5681.218	-30.77723	-3.164417E-008	0.0630422	7
	29	10	1265.625	5064.215	-3438.706	1	6121.354	-34.17731	3.120033E-008	0.0629193	7
	30	10	998.264	5292.36	-4125.938	1	6710.621	-37.94007	-1.502179E-008	0.0630355	7
	31	11	796.875	5550.961	-4912.525	1	7412.562	-41.50839	5.210187E-008	0.0628997	7
	32	11	627.7902	5863.56	-5921.648	1	8333.501	-45.28241	-2.970765E-008	0.0630393	7
	33	11	505.5147	6190.859	-7039.42	1	9374.443	-48.6698	6.337887E-008	0.0629579	7
	34	12	397.9953	6623.716	-8526.955	1	10797.34	-52.16003	1.023674E-009	0.0630157	6
	35	12	315.5048	7120.375	-10296.09	1	12518.36	-55.33378	1.433622E-009	0.063015	6
	36	12	252.4038	7689.295	-12356.6	1	14553.72	-58.10671	1.080655E-009	0.0630132	6
	37	13	198.6229	8422.864	-15053.28	1	17249.52	-60.77138	7.364591E-010	0.0630168	6
	38	13	158.3615	9266.893	-18159.25	1	20387.1	-62.96421	6.830813E-010	0.0630135	6
	39	13	125.558	10309.38	-22018.43	1	24312.44	-64.91025	7.154752E-010	0.0630135	6
	40	14	100.4464	11519.11	-26486.67	1	28883.1	-66.49567	9.840087E-010	0.0630121	6
	41	14	79.00281	13160.36	-32378.35	1	34950.72	-67.88044	1.265108E-009	0.0630127	6
	42	14	63.3446	14890.45	-39305.95	1	42031.93	-69.25159	8.482335E-010	0.0630131	6
	43	15	49.86702	17318.34	-47931.17	1	50963.93	-70.13436	1.090608E-009	0.0630111	6
	44	15	39.72458	20354.17	-57790.09	1	61269.79	-70.5973	7.776764E-010	0.0630169	6
	45	15	31.6723	24070.46	-69778.92	1	73813.85	-70.96796	9.426723E-010	0.06301	6
	46	16	24.93351	29144.01	-85505.95	1	90336.27	-71.17874	6.986136E-010	0.0630086	6
	47	16	19.86229	35529.45	-103292.5	1	109232.3	-71.01836	-1.288625E-010	0.0630098	5
	48	16	15.83615	42514.27	-123826.9	1	130921.9	-71.05078	-2.691014E-010	0.0630097	5
	49	17	12.40079	56474.02	-150746.1	1	160977.4	-69.46255	1.34583E-009	0.0630038	5
	50	17	9.93114	69331.03	-179847.7	1	192748.5	-68.91842	-2.16208E-010	0.0630125	5
	51	17	7.944915	86790.48	-212759.2	1	229780.5	-67.80806	-8.174751E-011	0.0630107	5
	52	18	6.317385	109292.5	-251409	1	274137.4	-66.50445	-1.887618E-011	0.0630194	5
	53	19	5.008013	137939.5	-295728.8	1	326317.1	-64.9938	-3.615827E-011	0.0630089	5
	54	20	3.945707	174480.1	-346945.4	1	388348.3	-63.30201	3.557671E-010	0.0630159	5
	55	21	3.158693	213698.2	-398687.9	1	452348.3	-61.80853	2.205645E-010	0.0630335	5
	56	23	2.504006	262622.4	-458978	1	528801.8	-60.22226	3.41717E-011	0.0630165	5
	57	24	1.998082	315494.6	-521959.7	1	609900.6	-58.84945	1.709145E-010	0.0630219	5
	58	26	1.584686	379132.7	-594393.1	1	705014	-57.4683	2.726096E-010	0.0630537	5
	59	28	1.266892	445152.1	-673375.9	1	807214.7	-56.5323	2.651391E-010	0.0630376	5
	60	30	0.999041	522603.3	-766284.9	1	927527.3	-55.70616	2.655042E-010	0.0630122	5
