EXPLAIN
TAG	EISPOT
TITLE	LABEL	Potentiostatic EIS	Test &Identifier
DATE	LABEL	1/28/2020	Date
TIME	LABEL	11:55:14	Time
NOTES	NOTES	6	&Notes...
	
	
	
	
	
	
PSTAT	PSTAT	REF600-11020	Potentiostat
VDC	POTEN	0.00000E+000	T	DC &Voltage (V)
FREQINIT	QUANT	1.00000E+006	Initial Fre&q. (Hz)
FREQFINAL	QUANT	1.00000E+000	Final Fre&q. (Hz)
PTSPERDEC	QUANT	1.00000E+001	Points/&decade
VAC	QUANT	2.50000E+001	AC &Voltage (mV rms)
AREA	QUANT	1.60000E-004	&Area (cm^2)
CONDIT	TWOPARAM	F	5.00000E+000	0.00000E+000	Conditionin&g	Time(s)	E(V)
DELAY	TWOPARAM	F	5.00000E+000	0.00000E+000	Init. De&lay	Time(s)	Stab.(mV/s)
SPEED	SELECTOR	0	&Optimize for:
ZGUESS	QUANT	1.00000E+003	E&stimated Z (ohms)
OCVCURVE	TABLE	39
	Pt	T	Vf	Vm	Ach	Over
	#	s	V vs. Ref.	V	V	bits
	0	0.258333	8.27106E-002	8.27106E-002	5.66004E-004	...........
	1	0.516667	8.27238E-002	8.34023E-002	5.71204E-004	...........
	2	0.775	8.27845E-002	8.29862E-002	5.62571E-004	...........
	3	1.03333	8.28901E-002	8.26967E-002	5.67238E-004	...........
	4	1.29167	8.29554E-002	8.23569E-002	5.72971E-004	...........
	5	1.55	8.28999E-002	8.25127E-002	5.68138E-004	...........
	6	1.80833	8.27559E-002	8.27517E-002	5.64404E-004	...........
	7	2.06667	8.26376E-002	8.29252E-002	5.64904E-004	...........
	8	2.325	8.26344E-002	8.33923E-002	5.62704E-004	...........
	9	2.58333	8.27597E-002	8.33566E-002	5.61238E-004	...........
	10	2.84167	8.29677E-002	8.36528E-002	5.61938E-004	...........
	11	3.1	8.31891E-002	8.34264E-002	5.65404E-004	...........
	12	3.35833	8.33619E-002	8.34021E-002	5.58604E-004	...........
	13	3.61667	8.34538E-002	8.35243E-002	5.59971E-004	...........
	14	3.875	8.34780E-002	8.34071E-002	5.56004E-004	...........
	15	4.13333	8.34707E-002	8.33787E-002	5.52338E-004	...........
	16	4.39167	8.34523E-002	8.33864E-002	5.58238E-004	...........
	17	4.65	8.34266E-002	8.33158E-002	5.59504E-004	...........
	18	4.90833	8.33973E-002	8.33165E-002	5.51205E-004	...........
	19	5.16667	8.33686E-002	8.33480E-002	5.60871E-004	...........
	20	5.425	8.33465E-002	8.33387E-002	5.56571E-004	...........
	21	5.68333	8.33354E-002	8.33128E-002	5.61004E-004	...........
	22	5.94167	8.33318E-002	8.33318E-002	5.63104E-004	...........
	23	6.2	8.33304E-002	8.33578E-002	5.62538E-004	...........
	24	6.45833	8.33308E-002	8.33148E-002	5.57004E-004	...........
	25	6.71667	8.33322E-002	8.33015E-002	5.60071E-004	...........
	26	6.975	8.33298E-002	8.32985E-002	5.66371E-004	...........
	27	7.23333	8.33213E-002	8.32860E-002	5.62004E-004	...........
	28	7.49167	8.33088E-002	8.32329E-002	5.63538E-004	...........
	29	7.75	8.32934E-002	8.32472E-002	5.60938E-004	...........
	30	8.00833	8.32746E-002	8.31925E-002	5.64871E-004	...........
	31	8.26667	8.32540E-002	8.32241E-002	5.62104E-004	...........
	32	8.525	8.32354E-002	8.32180E-002	5.63704E-004	...........
	33	8.78333	8.32231E-002	8.32291E-002	5.61538E-004	...........
	34	9.04167	8.32195E-002	8.32599E-002	5.55771E-004	...........
	35	9.3	8.32241E-002	8.32594E-002	5.64104E-004	...........
	36	9.5583	8.32345E-002	8.32607E-002	5.60704E-004	...........
	37	9.8167	8.32460E-002	8.32578E-002	5.63004E-004	...........
	38	10.075	8.32545E-002	8.32675E-002	5.62038E-004	...........
EOC	QUANT	0.0832545	Open Circuit (V)
PSTATMODEL	IQUANT	4	Pstat Model
PSTATSECTION	LABEL	REF600-11020	Pstat Section
PSTATSERIALNO	LABEL	11020	Pstat Serial Number
CTRLMODE	IQUANT	1	Control Mode
IESTAB	IQUANT	0	I/E Stability
CASPEED	IQUANT	1	Control Amp Speed
CONVENTION	IQUANT	1	Current Convention
ICHRANGE	IQUANT	2	Ich Range
ICHRANGEMODE	TOGGLE	F	Ich Auto Range
ICHOFFSETENABLE	TOGGLE	T	Ich Offset Enable
ICHOFFSET	QUANT	0	Ich Offset (V)
ICHFILTER	IQUANT	3	Ich Filter
VCHRANGE	IQUANT	2	Vch Range
VCHRANGEMODE	TOGGLE	F	Vch Auto Range
VCHOFFSETENABLE	TOGGLE	T	Vch Offset Enable
VCHOFFSET	QUANT	0	Vch Offset (V)
VCHFILTER	IQUANT	3	Vch Filter
ACHRANGE	IQUANT	2	Ach Range
ACHOFFSETENABLE	TOGGLE	F	Ach Offset Enable
ACHOFFSET	QUANT	0	Ach Offset (V)
ACHFILTER	IQUANT	3	Ach Filter
IERANGELOWERLIMIT	IQUANT	1	I/E Range Lower Limit
IERANGEMODE	TOGGLE	F	I/E AutoRange
IERANGE	IQUANT	8	I/E Range
POSFEEDENABLE	TOGGLE	F	Positive Feedback IR Comp
POSFEEDRESISTANCE	QUANT	0	Positive Feedback Resistance (ohm)
ACHSELECT	IQUANT	0	Ach Select
CABLEID	IQUANT	14	Cable ID
DCCALDATE	LABEL	1/27/2020	DC Calibration Date
ACCALDATE	LABEL	1/27/2020	AC Calibration Date
THERMOSELECT	IQUANT	1	Thermo Select
FRAMEWORKVERSION	QUANT	6.33	Framework Version
INSTRUMENTVERSION	LABEL	3.50	Instrument Version
ZCURVE	TABLE
	Pt	Time	Freq	Zreal	Zimag	Zsig	Zmod	Zphz	Idc	Vdc	IERange
	#	s	Hz	ohm	ohm	V	ohm	°	A	V	#
	0	1	1000078	1985.425	-1927.243	1	2766.979	-44.14806	-3.653566E-006	0.0854918	8
	1	2	794390.6	2364.553	-1983.691	1	3086.445	-39.99424	-6.020282E-007	0.0856676	8
	2	2	630984.4	2762.09	-2014.658	1	3418.77	-36.10686	2.089134E-007	0.0852967	8
	3	2	501234.4	3163.271	-1988.2	1	3736.205	-32.15046	-3.734737E-006	0.0856963	8
	4	2	398109.4	3542.757	-1910.517	1	4025.072	-28.33683	-3.601147E-006	0.0856425	8
	5	3	316265.6	3884.255	-1776.038	1	4271.036	-24.57179	5.27733E-007	0.0848319	8
	6	3	251203.1	4156.39	-1619.143	1	4460.628	-21.28366	2.286782E-006	0.0842276	8
	7	3	199546.9	4420.114	-1424.013	1	4643.837	-17.85721	-1.53055E-006	0.0851843	8
	8	4	158578.1	4589.612	-1233.304	1	4752.429	-15.04101	1.637692E-006	0.0845542	8
	9	4	125953.1	4800.038	-1047.192	1	4912.94	-12.307	5.731685E-007	0.0832594	7
	10	4	100078.1	4913.848	-913.2184	1	4997.987	-10.52807	-2.202409E-008	0.0847992	7
	11	5	79453.13	5001.636	-792.6884	1	5064.061	-9.005667	2.946417E-008	0.0847751	7
	12	5	63140.62	5073.401	-694.7542	1	5120.75	-7.797613	2.572302E-008	0.0847088	7
	13	5	50203.12	5130.64	-614.3926	1	5167.296	-6.828636	-1.815483E-008	0.0849263	7
	14	6	39890.62	5177.667	-551.7333	1	5206.98	-6.082497	8.15322E-008	0.0846259	7
	15	6	31640.63	5219.032	-507.0464	1	5243.605	-5.549061	-5.786024E-008	0.0848659	7
	16	6	25171.88	5251.563	-475.4443	1	5273.042	-5.173106	-7.665913E-009	0.0848342	7
	17	7	20015.62	5287.729	-457.9355	1	5307.521	-4.949662	-3.978121E-008	0.0848403	7
	18	7	15890.62	5313.119	-462.2634	1	5333.19	-4.972449	-6.609503E-009	0.0848318	7
	19	7	12609.37	5338.313	-476.2233	1	5359.513	-5.09778	-1.654522E-008	0.0848371	7
	20	8	10078.13	5368	-508.3487	1	5392.016	-5.409768	-7.714364E-009	0.0848284	7
	21	8	8015.625	5393.054	-557.1763	1	5421.76	-5.898511	-7.625283E-009	0.0848245	7
	22	8	6328.125	5421.698	-631.2178	1	5458.319	-6.640729	-5.771336E-008	0.0848984	7
	23	9	5015.625	5450.012	-728.8651	1	5498.534	-7.617334	-1.837829E-008	0.0849152	7
	24	9	3984.375	5483.535	-849.7822	1	5548.99	-8.809041	8.181661E-008	0.0846144	7
	25	9	3170.956	5519.193	-1008.625	1	5610.599	-10.35644	-2.484169E-008	0.0847875	7
	26	10	2527.573	5558.768	-1208.861	1	5688.694	-12.26904	6.178264E-008	0.0847752	7
	27	10	1976.103	5610.868	-1476.275	1	5801.83	-14.741	1.361874E-009	0.0847139	7
	28	10	1577.524	5676.175	-1773.432	1	5946.766	-17.35059	2.684817E-008	0.0846887	7
	29	10	1265.625	5734.631	-2163.042	1	6129.008	-20.66594	6.518349E-008	0.0847704	7
	30	11	998.264	5824.7	-2659.182	1	6402.998	-24.53838	-5.680736E-008	0.0848886	7
	31	11	796.875	5930.766	-3243.981	1	6759.985	-28.67756	-1.586614E-008	0.0848262	7
	32	11	627.7902	6074.141	-4005.359	1	7275.857	-33.40132	8.397694E-008	0.0846129	7
	33	12	505.5147	6237.124	-4855.553	1	7904.31	-37.90049	2.007996E-009	0.0847091	7
	34	12	397.9953	6465.883	-6010.813	1	8828.223	-42.91114	6.480508E-009	0.0847845	7
	35	12	315.5048	6760.316	-7388.238	1	10014.39	-47.54116	1.766307E-009	0.0847818	6
	36	13	252.4038	7121.624	-9003.428	1	11479.51	-51.65635	1.36095E-009	0.0847789	6
	37	13	198.6229	7629.014	-11121.91	1	13486.98	-55.55203	1.099403E-009	0.0847808	6
	38	13	158.3615	8257.331	-13563.56	1	15879.35	-58.66745	1.290297E-009	0.084779	6
	39	14	125.558	9091.556	-16588.37	1	18916.41	-61.27427	9.703667E-010	0.0847807	6
	40	14	100.4464	10128.53	-20099.83	1	22507.56	-63.25595	1.368433E-009	0.0847823	6
	41	14	79.00281	11567	-24600.02	1	27183.75	-64.81695	1.035131E-009	0.084779	6
	42	15	63.3446	13582.51	-29716.06	1	32673.06	-65.43597	4.775577E-010	0.0847778	6
	43	15	49.86702	15997.69	-36193.38	1	39571.29	-66.15428	-3.40435E-010	0.0847761	6
	44	15	39.72458	18907.65	-43252.8	1	47204.92	-66.3878	7.575551E-010	0.0847785	6
	45	16	31.6723	22651.02	-51606.53	1	56358.7	-66.30247	5.105114E-010	0.0847799	6
	46	16	24.93351	27962.83	-62028.96	1	68040.52	-65.73402	2.125289E-010	0.0847721	6
	47	16	19.86229	34242.13	-73274.91	1	80881	-64.95283	4.272043E-010	0.0847755	6
	48	17	15.83615	41576.89	-85597.33	1	95160.6	-64.09293	-4.017301E-010	0.0847786	6
	49	17	12.40079	51633.63	-100722	1	113185.5	-62.85874	-1.813536E-009	0.0847801	5
	50	17	9.93114	62259.62	-116887	1	132434.3	-61.9581	4.980757E-010	0.084778	5
	51	18	7.944915	74297.39	-134620.4	1	153762	-61.10556	6.202442E-010	0.0847729	5
	52	19	6.317385	87785.64	-155050.8	1	178177.1	-60.48262	5.730062E-010	0.0847646	5
	53	19	5.008013	103241	-179168.5	1	206785	-60.04846	4.930425E-010	0.0847826	5
	54	20	3.945707	120766.4	-207817.9	1	240359.7	-59.83842	6.018189E-011	0.0847767	5
	55	22	3.158693	138975.3	-239584.9	1	276974.8	-59.8834	1.15962E-011	0.0847573	5
	56	23	2.504006	160568.5	-278806.8	1	321738.2	-60.06179	2.791244E-010	0.084772	5
	57	25	1.998082	184029.8	-323962.8	1	372584.1	-60.4009	8.021109E-011	0.0847565	5
	58	26	1.584686	213532.5	-380553.3	1	436367.9	-60.70276	-2.228803E-011	0.0847162	5
	59	28	1.266892	245846.6	-445249.8	1	508613.7	-61.09452	2.583872E-011	0.0847371	5
	60	31	0.999041	287466.7	-524882.2	1	598446.7	-61.29142	3.163603E-011	0.0847639	5
