EXPLAIN
TAG	EISPOT
TITLE	LABEL	Potentiostatic EIS	Test &Identifier
DATE	LABEL	3/20/2020	Date
TIME	LABEL	15:13:17	Time
NOTES	NOTES	1	&Notes...
	
PSTAT	PSTAT	REF600-11020	Potentiostat
VDC	POTEN	0.00000E+000	T	DC &Voltage (V)
FREQINIT	QUANT	1.00000E+006	Initial Fre&q. (Hz)
FREQFINAL	QUANT	1.00000E+000	Final Fre&q. (Hz)
PTSPERDEC	QUANT	1.00000E+001	Points/&decade
VAC	QUANT	2.50000E+001	AC &Voltage (mV rms)
AREA	QUANT	4.00000E-004	&Area (cm^2)
CONDIT	TWOPARAM	F	5.00000E+000	0.00000E+000	Conditionin&g	Time(s)	E(V)
DELAY	TWOPARAM	T	3.00000E+000	0.00000E+000	Init. De&lay	Time(s)	Stab.(mV/s)
SPEED	SELECTOR	0	&Optimize for:
ZGUESS	QUANT	1.00000E+003	E&stimated Z (ohms)
OCVCURVE	TABLE	12
	Pt	T	Vf	Vm	Ach	Over
	#	s	V vs. Ref.	V	V	bits
	0	0.258333	8.28133E-002	8.28133E-002	5.88763E-004	...........
	1	0.516667	8.28182E-002	8.30668E-002	5.81797E-004	...........
	2	0.775	8.28440E-002	8.31041E-002	5.82597E-004	...........
	3	1.03333	8.28871E-002	8.22408E-002	5.83663E-004	...........
	4	1.29167	8.28664E-002	8.15196E-002	5.76830E-004	...........
	5	1.55	8.26761E-002	8.17615E-002	5.81963E-004	...........
	6	1.80833	8.23396E-002	8.17154E-002	5.85230E-004	...........
	7	2.06667	8.20099E-002	8.16760E-002	5.82230E-004	...........
	8	2.325	8.17961E-002	8.14851E-002	5.75963E-004	...........
	9	2.58333	8.16853E-002	8.16048E-002	5.82830E-004	...........
	10	2.84167	8.16287E-002	8.17816E-002	5.88497E-004	...........
	11	3.1	8.16168E-002	8.18902E-002	5.86330E-004	...........
EOC	QUANT	0.0816168	Open Circuit (V)
PSTATMODEL	IQUANT	4	Pstat Model
PSTATSECTION	LABEL	REF600-11020	Pstat Section
PSTATSERIALNO	LABEL	11020	Pstat Serial Number
CTRLMODE	IQUANT	1	Control Mode
IESTAB	IQUANT	0	I/E Stability
CASPEED	IQUANT	1	Control Amp Speed
CONVENTION	IQUANT	1	Current Convention
ICHRANGE	IQUANT	2	Ich Range
ICHRANGEMODE	TOGGLE	F	Ich Auto Range
ICHOFFSETENABLE	TOGGLE	T	Ich Offset Enable
ICHOFFSET	QUANT	0	Ich Offset (V)
ICHFILTER	IQUANT	3	Ich Filter
VCHRANGE	IQUANT	2	Vch Range
VCHRANGEMODE	TOGGLE	F	Vch Auto Range
VCHOFFSETENABLE	TOGGLE	T	Vch Offset Enable
VCHOFFSET	QUANT	0	Vch Offset (V)
VCHFILTER	IQUANT	3	Vch Filter
ACHRANGE	IQUANT	2	Ach Range
ACHOFFSETENABLE	TOGGLE	F	Ach Offset Enable
ACHOFFSET	QUANT	0	Ach Offset (V)
ACHFILTER	IQUANT	3	Ach Filter
IERANGELOWERLIMIT	IQUANT	1	I/E Range Lower Limit
IERANGEMODE	TOGGLE	F	I/E AutoRange
IERANGE	IQUANT	8	I/E Range
POSFEEDENABLE	TOGGLE	F	Positive Feedback IR Comp
POSFEEDRESISTANCE	QUANT	0	Positive Feedback Resistance (ohm)
ACHSELECT	IQUANT	0	Ach Select
CABLEID	IQUANT	14	Cable ID
DCCALDATE	LABEL	2/27/2020	DC Calibration Date
ACCALDATE	LABEL	2/27/2020	AC Calibration Date
THERMOSELECT	IQUANT	1	Thermo Select
FRAMEWORKVERSION	QUANT	6.33	Framework Version
INSTRUMENTVERSION	LABEL	3.50	Instrument Version
ZCURVE	TABLE
	Pt	Time	Freq	Zreal	Zimag	Zsig	Zmod	Zphz	Idc	Vdc	IERange
	#	s	Hz	ohm	ohm	V	ohm	°	A	V	#
	0	1	1000078	1463.66	-725.7418	1	1633.708	-26.37407	-8.307292E-008	0.0837896	8
	1	1	794390.6	1580.144	-706.2236	1	1730.782	-24.0816	-3.747991E-007	0.0835005	8
	2	1	630984.4	1686.057	-683.8959	1	1819.478	-22.07839	3.026412E-007	0.0832707	8
	3	2	501234.4	1782.584	-662.0377	1	1901.552	-20.3746	-1.308359E-007	0.0832302	8
	4	2	398109.4	1873.132	-642.6755	1	1980.317	-18.9372	1.879838E-008	0.0831691	8
	5	2	316265.6	1955.648	-629.8208	1	2054.564	-17.85127	-1.627454E-007	0.0831885	8
	6	3	251203.1	2037.129	-620.6478	1	2129.577	-16.9443	-2.726415E-007	0.0832178	8
	7	3	199546.9	2117.977	-618.5771	1	2206.459	-16.28099	-2.315713E-007	0.0831614	8
	8	3	158578.1	2196.415	-620.056	1	2282.259	-15.76457	-3.908258E-008	0.0831409	8
	9	4	125953.1	2298.801	-589.7513	1	2373.245	-14.38877	-1.346402E-007	0.0833632	7
	10	4	100078.1	2373.477	-602.5845	1	2448.776	-14.24542	4.720506E-009	0.0830597	7
	11	4	79453.13	2453.837	-628.384	1	2533.018	-14.36376	-1.378734E-009	0.0830662	7
	12	4	63140.62	2537.324	-656.8981	1	2620.979	-14.51484	4.523533E-009	0.0830492	7
	13	5	50203.12	2623.727	-688.0497	1	2712.444	-14.69444	4.645345E-009	0.0830625	7
	14	5	39890.62	2712.523	-722.6349	1	2807.13	-14.91752	2.993784E-010	0.0830467	7
	15	5	31640.63	2804.675	-763.591	1	2906.763	-15.23001	1.365139E-009	0.0830617	7
	16	6	25171.88	2897.323	-810.6064	1	3008.582	-15.63043	-2.324418E-009	0.0830597	7
	17	6	20015.62	2992.314	-866.7488	1	3115.317	-16.1541	4.807818E-009	0.0830415	7
	18	6	15890.62	3090.113	-934.9036	1	3228.442	-16.83302	9.097466E-009	0.0830308	7
	19	7	12609.37	3191.983	-1019.232	1	3350.759	-17.7088	4.265565E-009	0.0830597	7
	20	7	10078.13	3293.631	-1118.203	1	3478.273	-18.7526	2.659115E-009	0.0830469	7
	21	7	8015.625	3403.827	-1243.558	1	3623.875	-20.06933	-7.601098E-010	0.0830588	7
	22	8	6328.125	3526.902	-1402.615	1	3795.572	-21.68724	1.248391E-008	0.0830364	7
	23	8	5015.625	3662.409	-1594.831	1	3994.587	-23.53118	4.028042E-009	0.0830578	7
	24	8	3984.375	3816.75	-1824.755	1	4230.522	-25.55206	2.373136E-009	0.0830497	7
	25	9	3170.956	3995.199	-2095.48	1	4511.392	-27.67698	2.812305E-009	0.0830491	7
	26	9	2527.573	4205.266	-2407.218	1	4845.509	-29.78809	2.396645E-009	0.0830411	7
	27	9	1976.103	4473.893	-2801.727	1	5278.768	-32.05641	1.266867E-009	0.083046	7
	28	10	1577.524	4758.211	-3209.583	1	5739.512	-34.00107	5.836293E-009	0.0830514	7
	29	10	1265.625	5068.565	-3655.814	1	6249.426	-35.80186	1.446401E-008	0.0830198	7
	30	10	998.264	5430.99	-4198.981	1	6864.918	-37.70947	1.809871E-009	0.083036	7
	31	11	796.875	5794.164	-4807.522	1	7528.918	-39.68311	2.435157E-009	0.0830373	7
	32	11	627.7902	6191.908	-5570.917	1	8329.156	-41.97801	6.438889E-010	0.0830283	7
	33	11	505.5147	6579.238	-6427.026	1	9197.447	-44.3295	1.352728E-008	0.0830244	7
	34	11	397.9953	7032.667	-7567.566	1	10330.85	-47.09817	6.724802E-010	0.0831057	6
	35	12	315.5048	7520.443	-8954.09	1	11693.28	-49.97346	5.737341E-010	0.0831054	6
	36	12	252.4038	8058.527	-10594.86	1	13311.31	-52.74313	5.622182E-010	0.0831027	6
	37	12	198.6229	8743.246	-12763.74	1	15471.18	-55.5886	5.78808E-010	0.0831006	6
	38	13	158.3615	9532.03	-15277.25	1	18007.05	-58.03848	5.372656E-010	0.0830985	6
	39	13	125.558	10527.65	-18411.35	1	21208.7	-60.23899	5.470664E-010	0.0831018	6
	40	13	100.4464	11716.91	-22053.63	1	24972.96	-62.01865	3.979815E-010	0.0831035	6
	41	14	79.00281	13327.02	-26791.25	1	29922.91	-63.55244	5.050748E-010	0.0831	6
	42	14	63.3446	15194.3	-32052.49	1	35471.52	-64.63698	6.515499E-010	0.0830965	6
	43	14	49.86702	17748.34	-38839.98	1	42703.01	-65.44147	2.821257E-010	0.0830921	6
	44	15	39.72458	20840.01	-46517.57	1	50972.45	-65.86748	4.042034E-010	0.0830982	6
	45	15	31.6723	24726.07	-55571.39	1	60823.99	-66.01369	2.872706E-011	0.0830992	6
	46	15	24.93351	29891.33	-66782.01	1	73166.44	-65.88692	-2.532672E-010	0.0830948	6
	47	16	19.86229	36028.86	-79308.46	1	87108.62	-65.56828	-1.000205E-009	0.0830953	6
	48	16	15.83615	43686.92	-93652.04	1	103340.5	-64.99183	4.740445E-010	0.0830969	6
	49	16	12.40079	53760.86	-111432.1	1	123722.9	-64.24483	6.30122E-012	0.0831013	5
	50	17	9.93114	64829.02	-129997.1	1	145265.4	-63.49475	-3.214889E-010	0.0830964	5
	51	17	7.944915	77951.14	-151198.2	1	170109.6	-62.72636	8.738297E-010	0.0830954	5
	52	17	6.317385	94175.35	-175846.6	1	199476.9	-61.82855	1.166022E-010	0.0831076	5
	53	18	5.008013	113354.7	-204341.6	1	233676.7	-60.98149	4.147758E-010	0.0831079	5
	54	19	3.945707	136612.2	-237722.9	1	274180.8	-60.11531	2.055941E-010	0.0830957	5
	55	20	3.158693	161749.7	-273455.6	1	317712.1	-59.39557	3.932812E-010	0.0831098	5
	56	21	2.504006	192397.4	-315499.3	1	369535.6	-58.62437	1.376538E-010	0.083107	5
	57	22	1.998082	226249.3	-362372.3	1	427203.1	-58.02116	1.181325E-010	0.083063	5
	58	24	1.584686	266599	-416016.1	1	494109.8	-57.3467	2.245666E-010	0.0831037	5
	59	26	1.266892	313536.6	-475949.1	1	569941	-56.62468	2.649479E-010	0.0831264	5
	60	28	0.999041	370545.2	-548919.9	1	662281.5	-55.97891	2.795771E-010	0.0831289	5
