EXPLAIN
TAG	EISPOT
TITLE	LABEL	Potentiostatic EIS	Test &Identifier
DATE	LABEL	7/5/2020	Date
TIME	LABEL	16:45:30	Time
NOTES	NOTES	1	&Notes...
	
PSTAT	PSTAT	REF600-11020	Potentiostat
VDC	POTEN	0.00000E+000	T	DC &Voltage (V)
FREQINIT	QUANT	1.00000E+006	Initial Fre&q. (Hz)
FREQFINAL	QUANT	1.00000E+000	Final Fre&q. (Hz)
PTSPERDEC	QUANT	1.00000E+001	Points/&decade
VAC	QUANT	2.50000E+001	AC &Voltage (mV rms)
AREA	QUANT	4.00000E-004	&Area (cm^2)
CONDIT	TWOPARAM	F	5.00000E+000	0.00000E+000	Conditionin&g	Time(s)	E(V)
DELAY	TWOPARAM	F	3.00000E+000	0.00000E+000	Init. De&lay	Time(s)	Stab.(mV/s)
SPEED	SELECTOR	0	&Optimize for:
ZGUESS	QUANT	1.00000E+003	E&stimated Z (ohms)
OCVCURVE	TABLE	39
	Pt	T	Vf	Vm	Ach	Over
	#	s	V vs. Ref.	V	V	bits
	0	0.258333	2.98033E-002	2.98033E-002	5.16450E-004	...........
	1	0.516667	2.98040E-002	2.98391E-002	5.21983E-004	...........
	2	0.775	2.98080E-002	2.98631E-002	5.18217E-004	...........
	3	1.03333	2.98140E-002	2.96382E-002	5.15383E-004	...........
	4	1.29167	2.98078E-002	2.96834E-002	5.17550E-004	...........
	5	1.55	2.97782E-002	2.97307E-002	5.14617E-004	...........
	6	1.80833	2.97411E-002	2.97824E-002	5.18317E-004	...........
	7	2.06667	2.97240E-002	2.98102E-002	5.17017E-004	...........
	8	2.325	2.97357E-002	2.98337E-002	5.16917E-004	...........
	9	2.58333	2.97651E-002	2.98536E-002	5.17883E-004	...........
	10	2.84167	2.97981E-002	2.98771E-002	5.18483E-004	...........
	11	3.1	2.98275E-002	2.98987E-002	5.19183E-004	...........
	12	3.35833	2.98527E-002	2.99200E-002	5.19483E-004	...........
	13	3.61667	2.98755E-002	2.99453E-002	5.19350E-004	...........
	14	3.875	2.98973E-002	2.99560E-002	5.17283E-004	...........
	15	4.13333	2.99188E-002	2.99945E-002	5.19650E-004	...........
	16	4.39167	2.99403E-002	3.00019E-002	5.23550E-004	...........
	17	4.65	2.99619E-002	3.00167E-002	5.18850E-004	...........
	18	4.90833	2.99823E-002	3.00351E-002	5.13217E-004	...........
	19	5.16667	3.00010E-002	3.00690E-002	5.18550E-004	...........
	20	5.425	3.00198E-002	3.00992E-002	5.20483E-004	...........
	21	5.68333	3.00414E-002	3.01164E-002	5.14650E-004	...........
	22	5.94167	3.00657E-002	3.01349E-002	5.26283E-004	...........
	23	6.2	3.00905E-002	3.01616E-002	5.18250E-004	...........
	24	6.45833	3.01141E-002	3.01906E-002	5.21117E-004	...........
	25	6.71667	3.01376E-002	3.02251E-002	5.18517E-004	...........
	26	6.975	3.01630E-002	3.02560E-002	5.16617E-004	...........
	27	7.23333	3.01912E-002	3.02885E-002	5.18950E-004	...........
	28	7.49167	3.02217E-002	3.03164E-002	5.21917E-004	...........
	29	7.75	3.02529E-002	3.03409E-002	5.18383E-004	...........
	30	8.00833	3.02832E-002	3.03597E-002	5.18617E-004	...........
	31	8.26667	3.03110E-002	3.03774E-002	5.17450E-004	...........
	32	8.525	3.03357E-002	3.04069E-002	5.14017E-004	...........
	33	8.78333	3.03585E-002	3.04410E-002	5.15617E-004	...........
	34	9.04167	3.03820E-002	3.04658E-002	5.23250E-004	...........
	35	9.3	3.04079E-002	3.04974E-002	5.19950E-004	...........
	36	9.5583	3.04359E-002	3.05242E-002	5.17250E-004	...........
	37	9.8167	3.04648E-002	3.05556E-002	5.18750E-004	...........
	38	10.075	3.04939E-002	3.05831E-002	5.19050E-004	...........
EOC	QUANT	0.0304939	Open Circuit (V)
PSTATMODEL	IQUANT	4	Pstat Model
PSTATSECTION	LABEL	REF600-11020	Pstat Section
PSTATSERIALNO	LABEL	11020	Pstat Serial Number
CTRLMODE	IQUANT	1	Control Mode
IESTAB	IQUANT	0	I/E Stability
CASPEED	IQUANT	1	Control Amp Speed
CONVENTION	IQUANT	1	Current Convention
ICHRANGE	IQUANT	2	Ich Range
ICHRANGEMODE	TOGGLE	F	Ich Auto Range
ICHOFFSETENABLE	TOGGLE	T	Ich Offset Enable
ICHOFFSET	QUANT	0	Ich Offset (V)
ICHFILTER	IQUANT	3	Ich Filter
VCHRANGE	IQUANT	2	Vch Range
VCHRANGEMODE	TOGGLE	F	Vch Auto Range
VCHOFFSETENABLE	TOGGLE	T	Vch Offset Enable
VCHOFFSET	QUANT	0	Vch Offset (V)
VCHFILTER	IQUANT	3	Vch Filter
ACHRANGE	IQUANT	2	Ach Range
ACHOFFSETENABLE	TOGGLE	F	Ach Offset Enable
ACHOFFSET	QUANT	0	Ach Offset (V)
ACHFILTER	IQUANT	3	Ach Filter
IERANGELOWERLIMIT	IQUANT	1	I/E Range Lower Limit
IERANGEMODE	TOGGLE	F	I/E AutoRange
IERANGE	IQUANT	7	I/E Range
POSFEEDENABLE	TOGGLE	F	Positive Feedback IR Comp
POSFEEDRESISTANCE	QUANT	0	Positive Feedback Resistance (ohm)
ACHSELECT	IQUANT	0	Ach Select
CABLEID	IQUANT	14	Cable ID
DCCALDATE	LABEL	6/26/2020	DC Calibration Date
ACCALDATE	LABEL	6/26/2020	AC Calibration Date
THERMOSELECT	IQUANT	1	Thermo Select
FRAMEWORKVERSION	QUANT	6.33	Framework Version
INSTRUMENTVERSION	LABEL	3.50	Instrument Version
ZCURVE	TABLE
	Pt	Time	Freq	Zreal	Zimag	Zsig	Zmod	Zphz	Idc	Vdc	IERange
	#	s	Hz	ohm	ohm	V	ohm	°	A	V	#
	0	1	1000078	1378.948	-1923.161	1	2366.441	-54.35865	8.018148E-006	0.0334132	8
	1	1	794390.6	1603.785	-2158.441	1	2689.051	-53.38656	2.230427E-006	0.0326107	8
	2	1	630984.4	1850.13	-2429.32	1	3053.617	-52.7077	-3.756563E-006	0.0323296	8
	3	2	501234.4	2124.512	-2744.159	1	3470.441	-52.25317	-7.334216E-007	0.0328036	8
	4	2	398109.4	2415.534	-3110.184	1	3938.027	-52.16519	-2.815948E-006	0.0321729	8
	5	2	316265.6	2713.486	-3508.796	1	4435.612	-52.28385	7.461615E-006	0.0314757	8
	6	3	251203.1	3154.631	-4081.044	1	5158.16	-52.29612	-8.069083E-007	0.0318406	8
	7	3	199546.9	3651.727	-4679.982	1	5936.105	-52.03556	-4.32329E-006	0.0324225	8
	8	3	158578.1	4248.382	-5346.261	1	6828.708	-51.52775	5.547142E-007	0.0325847	8
	9	4	125953.1	4957.192	-6189.821	1	7930.173	-51.31009	4.569984E-006	0.026621	7
	10	4	100078.1	5873.289	-6904.525	1	9064.655	-49.61407	-1.152659E-006	0.0342979	7
	11	5	79453.13	6954.089	-7770.808	1	10428.08	-48.17467	-7.951858E-007	0.0341722	7
	12	5	63140.62	8269.606	-8667.477	1	11979.63	-46.34569	1.062006E-006	0.0318587	7
	13	5	50203.12	9809.76	-9521.98	1	13671.12	-44.14714	1.423752E-006	0.0306579	7
	14	5	39890.62	11564.82	-10213.99	1	15429.54	-41.45078	1.424242E-006	0.0306535	7
	15	6	31640.63	13504.84	-10731.47	1	17249.5	-38.47203	1.302468E-006	0.0312224	7
	16	6	25171.88	15508.91	-10771.28	1	18882.45	-34.78082	1.287947E-007	0.0304118	7
	17	6	20015.62	17615.46	-10982.59	1	20758.65	-31.94202	4.939873E-007	0.0328236	7
	18	7	15890.62	19571.4	-10446.08	1	22184.68	-28.09071	1.28241E-007	0.0304044	7
	19	7	12609.37	21467.47	-10035.82	1	23697.47	-25.0556	4.691429E-008	0.0292725	6
	20	7	10078.13	23279.1	-9424.876	1	25114.64	-22.04126	2.137855E-007	0.0306262	6
	21	8	8015.625	24498.18	-8476.65	1	25923.24	-19.0862	-1.662264E-007	0.0322112	6
	22	8	6328.125	25960.03	-7710.454	1	27080.88	-16.54208	2.139593E-007	0.0306104	6
	23	8	5015.625	26938.94	-6900.826	1	27808.77	-14.36823	1.788412E-007	0.0315879	6
	24	9	3984.375	27580.19	-6151.753	1	28257.93	-12.57398	-1.689611E-007	0.0358456	6
	25	9	3170.956	27916.62	-5525.036	1	28458.11	-11.19486	-9.85109E-008	0.0310205	6
	26	9	2527.573	28646.13	-5202.645	1	29114.74	-10.29373	1.783356E-007	0.0315908	6
	27	10	1976.103	28923.33	-4941.833	1	29342.47	-9.69591	-1.690257E-007	0.035842	6
	28	10	1577.524	29044.54	-4874.109	1	29450.68	-9.52632	4.299897E-008	0.0294429	6
	29	10	1265.625	29227.99	-4991.435	1	29651.14	-9.69124	-1.005462E-007	0.0311882	6
	30	11	998.264	29497.44	-5340.662	1	29977.02	-10.26252	-1.039274E-007	0.0312195	6
	31	11	796.875	30013.59	-5937.997	1	30595.35	-11.19108	-8.333507E-008	0.0351501	6
	32	11	627.7902	30198.29	-6722.498	1	30937.49	-12.55008	1.843514E-007	0.0291163	6
	33	11	505.5147	30339.21	-7678.714	1	31295.86	-14.20304	-8.896344E-008	0.0311017	6
	34	12	397.9953	30900.97	-9130.093	1	32221.56	-16.46046	8.232764E-010	0.0321252	6
	35	12	315.5048	31391.3	-10858.64	1	33216.32	-19.08113	6.070173E-010	0.032128	6
	36	12	252.4038	31960.06	-12918.53	1	34472.22	-22.00899	7.033204E-010	0.032129	6
	37	13	198.6229	32779.17	-15651.02	1	36323.94	-25.52301	-3.550202E-010	0.0321304	6
	38	13	158.3615	33744.91	-18815.94	1	38636.23	-29.14375	-2.603954E-010	0.0321323	6
	39	13	125.558	35076.92	-22741.64	1	41803.98	-32.9568	2.638247E-010	0.0321327	6
	40	14	100.4464	36783.03	-27251.86	1	45778.33	-36.53406	2.24707E-010	0.0321265	6
	41	14	79.00281	39247.55	-33082.68	1	51330.63	-40.12833	6.734956E-011	0.0321261	6
	42	14	63.3446	42215.7	-39641.95	1	57910.7	-43.19912	1.367811E-010	0.0321249	6
	43	15	49.86702	46271.5	-47434.64	1	66265.34	-45.71115	-5.580487E-012	0.0321238	6
	44	15	39.72458	51343.26	-55918.2	1	75914.26	-47.44231	2.715926E-010	0.0321224	6
	45	15	31.6723	57728.17	-65512.2	1	87317.75	-48.61407	1.150807E-010	0.0321153	6
	46	16	24.93351	65940.74	-76714.41	1	101159.7	-49.31892	8.341869E-010	0.0321117	5
	47	16	19.86229	75443.76	-88422.09	1	116233.5	-49.52843	1.841144E-009	0.0321267	5
	48	16	15.83615	86831.68	-100696.7	1	132964.5	-49.22851	3.312434E-010	0.0321199	5
	49	17	12.40079	101442.8	-115266.2	1	153547.8	-48.64981	1.753927E-009	0.032116	5
	50	17	9.93114	115941.5	-129451.2	1	173781.7	-48.15115	3.886284E-010	0.0321199	5
	51	17	7.944915	132573.2	-143610.3	1	195447.1	-47.2885	-1.015323E-009	0.0321119	5
	52	18	6.317385	150682.1	-160724.2	1	220312	-46.84701	8.198091E-010	0.0321015	5
	53	18	5.008013	171272.3	-178843.1	1	247626.9	-46.23877	4.367399E-010	0.032109	5
	54	19	3.945707	193041	-199441.6	1	277564	-45.9343	-3.942567E-010	0.032107	5
	55	20	3.158693	214970.4	-220937.5	1	308262.3	-45.78428	3.431927E-010	0.0321009	5
	56	21	2.504006	238423.2	-247165.1	1	343418.4	-46.03137	2.912942E-010	0.0321097	5
	57	23	1.998082	262727.9	-276702	1	381562.6	-46.48393	-8.782233E-011	0.0320668	5
	58	24	1.584686	288516.7	-314672.4	1	426919.9	-47.48292	-5.116058E-011	0.0320723	5
	59	26	1.266892	315317.2	-357987.5	1	477053.4	-48.62624	6.784957E-011	0.0321083	5
	60	29	0.999041	347672.4	-414242.1	1	540807.4	-49.99335	1.249082E-010	0.0321251	5
