EXPLAIN
TAG	EISPOT
TITLE	LABEL	Potentiostatic EIS	Test &Identifier
DATE	LABEL	6/6/2020	Date
TIME	LABEL	13:45:40	Time
NOTES	NOTES	1	&Notes...
	
PSTAT	PSTAT	REF600-11020	Potentiostat
VDC	POTEN	0.00000E+000	T	DC &Voltage (V)
FREQINIT	QUANT	1.00000E+006	Initial Fre&q. (Hz)
FREQFINAL	QUANT	1.00000E+000	Final Fre&q. (Hz)
PTSPERDEC	QUANT	1.00000E+001	Points/&decade
VAC	QUANT	2.50000E+001	AC &Voltage (mV rms)
AREA	QUANT	2.50000E-001	&Area (cm^2)
CONDIT	TWOPARAM	F	5.00000E+000	0.00000E+000	Conditionin&g	Time(s)	E(V)
DELAY	TWOPARAM	T	3.00000E+000	0.00000E+000	Init. De&lay	Time(s)	Stab.(mV/s)
SPEED	SELECTOR	0	&Optimize for:
ZGUESS	QUANT	1.00000E+003	E&stimated Z (ohms)
OCVCURVE	TABLE	12
	Pt	T	Vf	Vm	Ach	Over
	#	s	V vs. Ref.	V	V	bits
	0	0.258333	1.23545E-001	1.23545E-001	5.92163E-004	...........
	1	0.516667	1.23546E-001	1.23604E-001	5.94263E-004	...........
	2	0.775	1.23553E-001	1.23657E-001	5.95763E-004	...........
	3	1.03333	1.23572E-001	1.23709E-001	5.93263E-004	...........
	4	1.29167	1.23606E-001	1.23761E-001	5.92930E-004	...........
	5	1.55	1.23652E-001	1.23807E-001	5.91096E-004	...........
	6	1.80833	1.23702E-001	1.23855E-001	5.90263E-004	...........
	7	2.06667	1.23753E-001	1.23900E-001	5.89696E-004	...........
	8	2.325	1.23802E-001	1.23942E-001	5.90330E-004	...........
	9	2.58333	1.23849E-001	1.23984E-001	5.86663E-004	...........
	10	2.84167	1.23894E-001	1.24021E-001	5.91463E-004	...........
	11	3.1	1.23937E-001	1.24061E-001	5.92830E-004	...........
EOC	QUANT	0.1239375	Open Circuit (V)
PSTATMODEL	IQUANT	4	Pstat Model
PSTATSECTION	LABEL	REF600-11020	Pstat Section
PSTATSERIALNO	LABEL	11020	Pstat Serial Number
CTRLMODE	IQUANT	1	Control Mode
IESTAB	IQUANT	0	I/E Stability
CASPEED	IQUANT	1	Control Amp Speed
CONVENTION	IQUANT	1	Current Convention
ICHRANGE	IQUANT	2	Ich Range
ICHRANGEMODE	TOGGLE	F	Ich Auto Range
ICHOFFSETENABLE	TOGGLE	T	Ich Offset Enable
ICHOFFSET	QUANT	0	Ich Offset (V)
ICHFILTER	IQUANT	3	Ich Filter
VCHRANGE	IQUANT	2	Vch Range
VCHRANGEMODE	TOGGLE	F	Vch Auto Range
VCHOFFSETENABLE	TOGGLE	T	Vch Offset Enable
VCHOFFSET	QUANT	0	Vch Offset (V)
VCHFILTER	IQUANT	3	Vch Filter
ACHRANGE	IQUANT	2	Ach Range
ACHOFFSETENABLE	TOGGLE	F	Ach Offset Enable
ACHOFFSET	QUANT	0	Ach Offset (V)
ACHFILTER	IQUANT	3	Ach Filter
IERANGELOWERLIMIT	IQUANT	1	I/E Range Lower Limit
IERANGEMODE	TOGGLE	F	I/E AutoRange
IERANGE	IQUANT	8	I/E Range
POSFEEDENABLE	TOGGLE	F	Positive Feedback IR Comp
POSFEEDRESISTANCE	QUANT	0	Positive Feedback Resistance (ohm)
ACHSELECT	IQUANT	0	Ach Select
CABLEID	IQUANT	14	Cable ID
DCCALDATE	LABEL	2/27/2020	DC Calibration Date
ACCALDATE	LABEL	2/27/2020	AC Calibration Date
THERMOSELECT	IQUANT	1	Thermo Select
FRAMEWORKVERSION	QUANT	6.33	Framework Version
INSTRUMENTVERSION	LABEL	3.50	Instrument Version
ZCURVE	TABLE
	Pt	Time	Freq	Zreal	Zimag	Zsig	Zmod	Zphz	Idc	Vdc	IERange
	#	s	Hz	ohm	ohm	V	ohm	°	A	V	#
	0	1	1000078	1978.391	-1546.287	1	2510.982	-38.01077	7.113792E-008	0.1262735	8
	1	2	794390.6	2286.457	-1558.608	1	2767.155	-34.28106	4.49048E-008	0.125948	8
	2	2	630984.4	2589.1	-1527.857	1	3006.292	-30.54533	3.870544E-008	0.1258044	8
	3	2	501234.4	2872.574	-1453.118	1	3219.198	-26.83299	2.854292E-008	0.1257341	8
	4	3	398109.4	3124.579	-1352.11	1	3404.584	-23.39975	1.042978E-007	0.1256251	8
	5	3	316265.6	3339.362	-1232.056	1	3559.396	-20.25152	3.903111E-008	0.125639	8
	6	3	251203.1	3519.184	-1110.186	1	3690.144	-17.50875	5.243462E-008	0.1256114	8
	7	4	199546.9	3661.425	-989.765	1	3792.844	-15.12679	9.574944E-008	0.1255942	8
	8	4	158578.1	3779.845	-884.2017	1	3881.886	-13.16619	5.5105E-008	0.1256127	8
	9	4	125953.1	3904.259	-727.8209	1	3971.519	-10.55971	8.766458E-009	0.1255364	7
	10	5	100078.1	3965.385	-659.5831	1	4019.867	-9.443843	2.891967E-009	0.1255379	7
	11	5	79453.13	4029.295	-615.7711	1	4076.075	-8.688916	3.46861E-009	0.1255344	7
	12	5	63140.62	4086.214	-584.8422	1	4127.855	-8.14518	1.607395E-009	0.1255339	7
	13	6	50203.12	4140.103	-566.4398	1	4178.673	-7.79071	1.135481E-009	0.1255242	7
	14	6	39890.62	4191.667	-561.0383	1	4229.047	-7.623508	2.907609E-009	0.1255309	7
	15	6	31640.63	4243.829	-568.8845	1	4281.789	-7.634974	2.346603E-009	0.1255275	7
	16	6	25171.88	4295.515	-589.3671	1	4335.759	-7.812499	1.948085E-009	0.1255318	7
	17	7	20015.62	4350.406	-623.1937	1	4394.816	-8.152135	2.656009E-009	0.1255285	7
	18	7	15890.62	4408.467	-670.7747	1	4459.206	-8.651539	2.498198E-009	0.1255257	7
	19	7	12609.37	4471.001	-734.7505	1	4530.972	-9.332397	3.207678E-009	0.1255281	7
	20	8	10078.13	4536.931	-811.5079	1	4608.936	-10.14109	2.46536E-009	0.1255205	7
	21	8	8015.625	4609.782	-909.6737	1	4698.68	-11.16307	1.788733E-009	0.1255211	7
	22	8	6328.125	4693.52	-1033.615	1	4805.985	-12.41953	2.601338E-009	0.1255244	7
	23	9	5015.625	4784.716	-1181.766	1	4928.497	-13.87369	3.343658E-009	0.1255272	7
	24	9	3984.375	4885.27	-1359.041	1	5070.784	-15.54612	2.895184E-009	0.1255315	7
	25	9	3170.956	4996.932	-1570.395	1	5237.888	-17.44647	1.685649E-009	0.1255226	7
	26	10	2527.573	5119.661	-1821.4	1	5434.006	-19.58381	2.22486E-009	0.1255236	7
	27	10	1976.103	5269.592	-2148.418	1	5690.72	-22.18077	1.093455E-009	0.1255169	7
	28	10	1577.524	5423.554	-2514.396	1	5978.054	-24.87276	3.623476E-009	0.1255286	7
	29	11	1265.625	5591.196	-2940.941	1	6317.484	-27.74414	4.088622E-009	0.125529	7
	30	11	998.264	5794.761	-3498.192	1	6768.796	-31.11862	4.767202E-009	0.1255257	7
	31	11	796.875	6015.535	-4142.041	1	7303.641	-34.54964	3.589983E-009	0.1255192	7
	32	12	627.7902	6285.453	-4977.397	1	8017.568	-38.3754	4.266787E-009	0.1255253	7
	33	12	505.5147	6569.646	-5892.448	1	8825.032	-41.88957	2.169474E-009	0.1255138	7
	34	12	397.9953	6950.215	-7131.855	1	9958.36	-45.739	5.950396E-010	0.1255952	6
	35	13	315.5048	7392.538	-8603.39	1	11343.19	-49.32889	4.782657E-010	0.1255961	6
	36	13	252.4038	7911.243	-10317.39	1	13001.39	-52.51947	6.00312E-010	0.1255914	6
	37	13	198.6229	8601.461	-12548.98	1	15213.87	-55.57204	5.252887E-010	0.1255944	6
	38	14	158.3615	9413.991	-15101.89	1	17795.79	-58.06203	3.146842E-010	0.1255858	6
	39	14	125.558	10447.88	-18250.82	1	21029.75	-60.21055	2.699468E-010	0.1255904	6
	40	14	100.4464	11681	-21879.99	1	24802.82	-61.90372	2.276418E-010	0.125588	6
	41	15	79.00281	13339.9	-26574.85	1	29735.09	-63.34451	4.079279E-010	0.1255816	6
	42	15	63.3446	15250.08	-31757.73	1	35229.51	-64.34965	2.768172E-010	0.1255781	6
	43	15	49.86702	17863.72	-38478.41	1	42422.88	-65.09676	1.246823E-010	0.1255787	6
	44	16	39.72458	21045.21	-46104.54	1	50680.66	-65.46486	7.825706E-010	0.1255777	6
	45	16	31.6723	25102.82	-55085.93	1	60536.03	-65.50111	9.589793E-010	0.125576	6
	46	16	24.93351	30610.83	-66196.3	1	72931.29	-65.18299	3.587486E-010	0.1255767	6
	47	17	19.86229	37317.62	-78455.32	1	86878.31	-64.5617	2.217781E-009	0.1255822	6
	48	17	15.83615	45890.02	-92487.03	1	103246	-63.61041	-1.255707E-009	0.1255798	6
	49	17	12.40079	57433.33	-109113.1	1	123305.5	-62.23925	3.241761E-010	0.1255852	5
	50	17	9.93114	70188.94	-126079.7	1	144300.3	-60.89518	1.30794E-010	0.1255901	5
	51	18	7.944915	85427.95	-144300.3	1	167691.7	-59.37383	-1.720704E-009	0.1255879	5
	52	18	6.317385	103616.9	-164950.3	1	194794.9	-57.86416	4.998532E-010	0.1255717	5
	53	19	5.008013	124706	-187585	1	225254.8	-56.38414	7.0233E-010	0.1255934	5
	54	20	3.945707	149053.7	-212044.1	1	259190.5	-54.89518	-1.294538E-010	0.125576	5
	55	21	3.158693	173766.7	-237603.5	1	294364.2	-53.82085	3.967414E-010	0.1255884	5
	56	22	2.504006	201400.5	-266378.1	1	333945.3	-52.90816	-5.673101E-013	0.1255878	5
	57	23	1.998082	229774	-298920.1	1	377027	-52.45122	-2.082757E-010	0.1255467	5
	58	25	1.584686	260239.6	-336635.8	1	425497.7	-52.29382	-3.09125E-011	0.125598	5
	59	27	1.266892	293218.2	-380839.2	1	480640.6	-52.40638	5.819451E-011	0.1256198	5
	60	29	0.999041	330592.7	-437990.6	1	548750.7	-52.95471	8.608819E-011	0.1256242	5
