EXPLAIN
TAG	EISPOT
TITLE	LABEL	Potentiostatic EIS	Test &Identifier
DATE	LABEL	1/21/2020	Date
TIME	LABEL	16:38:15	Time
NOTES	NOTES	6	&Notes...
	
	
	
	
	
	
PSTAT	PSTAT	REF600-11020	Potentiostat
VDC	POTEN	0.00000E+000	T	DC &Voltage (V)
FREQINIT	QUANT	1.00000E+006	Initial Fre&q. (Hz)
FREQFINAL	QUANT	1.00000E+000	Final Fre&q. (Hz)
PTSPERDEC	QUANT	1.00000E+001	Points/&decade
VAC	QUANT	2.50000E+001	AC &Voltage (mV rms)
AREA	QUANT	1.00000E-001	&Area (cm^2)
CONDIT	TWOPARAM	F	5.00000E+000	0.00000E+000	Conditionin&g	Time(s)	E(V)
DELAY	TWOPARAM	F	5.00000E+000	0.00000E+000	Init. De&lay	Time(s)	Stab.(mV/s)
SPEED	SELECTOR	0	&Optimize for:
ZGUESS	QUANT	5.00000E+002	E&stimated Z (ohms)
OCVCURVE	TABLE	39
	Pt	T	Vf	Vm	Ach	Over
	#	s	V vs. Ref.	V	V	bits
	0	0.258333	-5.82136E-002	-5.82136E-002	6.67713E-004	...........
	1	0.516667	-5.82166E-002	-5.83723E-002	6.66513E-004	...........
	2	0.775	-5.82356E-002	-5.85410E-002	6.60246E-004	...........
	3	1.03333	-5.82902E-002	-5.86920E-002	6.65346E-004	...........
	4	1.29167	-5.83891E-002	-5.88282E-002	6.65313E-004	...........
	5	1.55	-5.85216E-002	-5.90065E-002	6.63446E-004	...........
	6	1.80833	-5.86698E-002	-5.90820E-002	6.68879E-004	...........
	7	2.06667	-5.88171E-002	-5.91524E-002	6.67446E-004	...........
	8	2.325	-5.89490E-002	-5.92347E-002	6.66413E-004	...........
	9	2.58333	-5.90581E-002	-5.92952E-002	6.67279E-004	...........
	10	2.84167	-5.91469E-002	-5.93509E-002	6.64679E-004	...........
	11	3.1	-5.92219E-002	-5.94318E-002	6.68546E-004	...........
	12	3.35833	-5.92899E-002	-5.94983E-002	6.74079E-004	...........
	13	3.61667	-5.93561E-002	-5.95551E-002	6.66013E-004	...........
	14	3.875	-5.94219E-002	-5.95972E-002	6.66646E-004	...........
	15	4.13333	-5.94849E-002	-5.96414E-002	6.72079E-004	...........
	16	4.39167	-5.95413E-002	-5.96630E-002	6.66779E-004	...........
	17	4.65	-5.95897E-002	-5.97132E-002	6.62979E-004	...........
	18	4.90833	-5.96315E-002	-5.97523E-002	6.64813E-004	...........
	19	5.16667	-5.96702E-002	-5.97864E-002	6.66013E-004	...........
	20	5.425	-5.97082E-002	-5.98120E-002	6.69546E-004	...........
	21	5.68333	-5.97451E-002	-5.98482E-002	6.67079E-004	...........
	22	5.94167	-5.97797E-002	-5.98725E-002	6.66413E-004	...........
	23	6.2	-5.98128E-002	-5.99470E-002	6.69746E-004	...........
	24	6.45833	-5.98474E-002	-5.99636E-002	6.69679E-004	...........
	25	6.71667	-5.98852E-002	-5.99919E-002	6.71979E-004	...........
	26	6.975	-5.99231E-002	-5.99897E-002	6.69646E-004	...........
	27	7.23333	-5.99413E-002	-5.92960E-002	6.71879E-004	...........
	28	7.49167	-5.99012E-002	-5.96951E-002	6.72913E-004	...........
	29	7.75	-5.98007E-002	-5.98017E-002	6.71946E-004	...........
	30	8.00833	-5.97117E-002	-5.98752E-002	6.65679E-004	...........
	31	8.26667	-5.97000E-002	-5.99391E-002	6.67346E-004	...........
	32	8.525	-5.97570E-002	-5.99688E-002	6.71546E-004	...........
	33	8.78333	-5.98358E-002	-5.99491E-002	6.67246E-004	...........
	34	9.04167	-5.99018E-002	-6.00052E-002	6.64413E-004	...........
	35	9.3	-5.99453E-002	-6.00324E-002	6.59113E-004	...........
	36	9.5583	-5.99748E-002	-6.00523E-002	6.65113E-004	...........
	37	9.8167	-6.00004E-002	-6.00716E-002	6.68046E-004	...........
	38	10.075	-6.00253E-002	-6.00976E-002	6.67813E-004	...........
EOC	QUANT	-0.0600253	Open Circuit (V)
PSTATMODEL	IQUANT	4	Pstat Model
PSTATSECTION	LABEL	REF600-11020	Pstat Section
PSTATSERIALNO	LABEL	11020	Pstat Serial Number
CTRLMODE	IQUANT	1	Control Mode
IESTAB	IQUANT	0	I/E Stability
CASPEED	IQUANT	1	Control Amp Speed
CONVENTION	IQUANT	1	Current Convention
ICHRANGE	IQUANT	2	Ich Range
ICHRANGEMODE	TOGGLE	F	Ich Auto Range
ICHOFFSETENABLE	TOGGLE	T	Ich Offset Enable
ICHOFFSET	QUANT	0	Ich Offset (V)
ICHFILTER	IQUANT	3	Ich Filter
VCHRANGE	IQUANT	2	Vch Range
VCHRANGEMODE	TOGGLE	F	Vch Auto Range
VCHOFFSETENABLE	TOGGLE	T	Vch Offset Enable
VCHOFFSET	QUANT	0	Vch Offset (V)
VCHFILTER	IQUANT	3	Vch Filter
ACHRANGE	IQUANT	2	Ach Range
ACHOFFSETENABLE	TOGGLE	F	Ach Offset Enable
ACHOFFSET	QUANT	0	Ach Offset (V)
ACHFILTER	IQUANT	3	Ach Filter
IERANGELOWERLIMIT	IQUANT	1	I/E Range Lower Limit
IERANGEMODE	TOGGLE	F	I/E AutoRange
IERANGE	IQUANT	8	I/E Range
POSFEEDENABLE	TOGGLE	F	Positive Feedback IR Comp
POSFEEDRESISTANCE	QUANT	0	Positive Feedback Resistance (ohm)
ACHSELECT	IQUANT	0	Ach Select
CABLEID	IQUANT	14	Cable ID
DCCALDATE	LABEL	12/22/2019	DC Calibration Date
ACCALDATE	LABEL	12/22/2019	AC Calibration Date
THERMOSELECT	IQUANT	1	Thermo Select
FRAMEWORKVERSION	QUANT	6.33	Framework Version
INSTRUMENTVERSION	LABEL	3.50	Instrument Version
ZCURVE	TABLE
	Pt	Time	Freq	Zreal	Zimag	Zsig	Zmod	Zphz	Idc	Vdc	IERange
	#	s	Hz	ohm	ohm	V	ohm	°	A	V	#
	0	1	1000078	1936.022	-2062.196	1	2828.574	-46.80752	1.046592E-006	-0.0580756	8
	1	2	794390.6	2329.387	-2200.822	1	3204.631	-43.37441	-1.415698E-006	-0.0577613	8
	2	2	630984.4	2749.092	-2283.236	1	3573.607	-39.71105	4.195456E-007	-0.0582804	8
	3	2	501234.4	3209.357	-2301.911	1	3949.528	-35.64998	9.652872E-008	-0.0584222	8
	4	3	398109.4	3600.039	-2259.839	1	4250.547	-32.11758	-3.692298E-006	-0.0575563	8
	5	3	316265.6	3973.269	-2199.826	1	4541.597	-28.97139	1.464396E-006	-0.058693	8
	6	3	251203.1	4324.955	-2108.947	1	4811.746	-25.99492	1.137279E-006	-0.0587777	8
	7	4	199546.9	4610.313	-2017.051	1	5032.245	-23.62978	1.516184E-007	-0.0584742	8
	8	4	158578.1	4903.281	-1955.816	1	5278.957	-21.74602	-2.062136E-006	-0.0580072	8
	9	4	125953.1	5134.635	-1835.041	1	5452.692	-19.66612	-2.382684E-007	-0.0573583	7
	10	5	100078.1	5346.663	-1809.994	1	5644.721	-18.70239	1.237128E-008	-0.0585468	7
	11	5	79453.13	5551.293	-1816.948	1	5841.075	-18.12336	6.021374E-008	-0.0585715	7
	12	5	63140.62	5748.477	-1853.299	1	6039.843	-17.86924	-1.808442E-008	-0.0584987	7
	13	6	50203.12	5946.734	-1921.325	1	6249.411	-17.90508	3.314323E-009	-0.0585172	7
	14	6	39890.62	6151.976	-2026.075	1	6477.02	-18.22864	-3.836387E-008	-0.0583408	7
	15	6	31640.63	6367.141	-2166.006	1	6725.479	-18.78753	1.230305E-008	-0.058557	7
	16	6	25171.88	6597.592	-2346.231	1	7002.358	-19.57637	-2.024233E-008	-0.058441	7
	17	7	20015.62	6846.351	-2567.456	1	7311.932	-20.55659	-3.777174E-008	-0.0583405	7
	18	7	15890.62	7119.346	-2839.339	1	7664.655	-21.74311	3.430887E-008	-0.0585906	7
	19	7	12609.37	7415.255	-3169.657	1	8064.288	-23.14433	1.37087E-008	-0.0585632	7
	20	8	10078.13	7739.899	-3553.471	1	8516.642	-24.66036	9.44944E-008	-0.0586168	7
	21	8	8015.625	8112.556	-3988.296	1	9039.915	-26.17966	1.730293E-008	-0.0584268	7
	22	8	6328.125	8554.88	-4503.648	1	9667.93	-27.7642	6.880563E-009	-0.0586198	6
	23	9	5015.625	9024.146	-5138.365	1	10384.51	-29.65726	4.410405E-009	-0.0586364	6
	24	9	3984.375	9547.05	-5868.418	1	11206.45	-31.57836	3.698898E-010	-0.0585068	6
	25	9	3170.956	10135	-6717.678	1	12159.17	-33.53722	1.312198E-008	-0.0587025	6
	26	10	2527.573	10804.99	-7701.245	1	13268.65	-35.47933	-7.191546E-009	-0.05845	6
	27	10	1976.103	11635.14	-8955.253	1	14682.4	-37.58451	-5.235814E-009	-0.0584479	6
	28	10	1577.524	12510.75	-10304.31	1	16207.95	-39.47613	-4.80358E-009	-0.0584456	6
	29	11	1265.625	13490.96	-11813.99	1	17932.55	-41.20854	3.514505E-009	-0.0585908	6
	30	11	998.264	14727.03	-13730.9	1	20135.12	-42.99527	-7.476681E-009	-0.0584121	6
	31	11	796.875	16079.66	-15831.02	1	22564.94	-44.55357	8.894415E-009	-0.0585292	6
	32	12	627.7902	17738.67	-18433.2	1	25582.09	-46.09998	-2.077727E-009	-0.0585252	6
	33	12	505.5147	19516.92	-21141.25	1	28772.6	-47.28781	3.890183E-009	-0.0586456	6
	34	12	397.9953	21750.46	-24601.45	1	32837.68	-48.51968	6.480478E-010	-0.0584895	6
	35	12	315.5048	24301.38	-28498.27	1	37452.75	-49.54472	9.43573E-010	-0.0584896	6
	36	13	252.4038	27118.52	-32792.67	1	42553.19	-50.41031	4.407779E-010	-0.0584936	6
	37	13	198.6229	30601.08	-38154.71	1	48910.2	-51.26947	5.675566E-010	-0.0584945	6
	38	13	158.3615	34384.27	-44035.76	1	55869.72	-52.01636	6.205573E-010	-0.0584968	6
	39	14	125.558	38896.51	-51002.01	1	64141.59	-52.66917	6.647333E-010	-0.0584944	6
	40	14	100.4464	43862.35	-58850.88	1	73398.45	-53.30235	1.306842E-009	-0.0584985	6
	41	14	79.00281	49847.09	-68425.69	1	84656.99	-53.92722	9.802614E-010	-0.0584989	6
	42	15	63.3446	58431.07	-78403.48	1	97781.9	-53.30426	3.890346E-010	-0.0585009	6
	43	15	49.86702	66616.65	-91597.34	1	113260.1	-53.97246	-5.321829E-010	-0.0585052	5
	44	16	39.72458	74849.12	-105732.1	1	129544.1	-54.70483	2.361811E-010	-0.0585	5
	45	16	31.6723	85363.08	-121948.4	1	148856.5	-55.00823	-7.708299E-011	-0.0585002	5
	46	16	24.93351	99294.8	-141590.7	1	172937.5	-54.95876	6.51782E-011	-0.0584965	5
	47	16	19.86229	113938.4	-162749.5	1	198669	-55.00472	5.737131E-010	-0.0584958	5
	48	17	15.83615	129128.6	-186511.4	1	226849.5	-55.30373	-1.578361E-010	-0.0585017	5
	49	17	12.40079	149326.5	-214171.2	1	261089.5	-55.11465	1.126001E-009	-0.0585092	5
	50	17	9.93114	168976.1	-249517	1	301349.7	-55.89364	-1.421114E-010	-0.0585053	5
	51	18	7.944915	191012.8	-287614.9	1	345265.4	-56.41079	-3.065973E-010	-0.0584992	5
	52	19	6.317385	217610.8	-334434	1	398999.4	-56.94859	-1.70552E-010	-0.0584841	5
	53	19	5.008013	248513.8	-390671	1	463015	-57.53873	-6.174966E-011	-0.0585008	5
	54	20	3.945707	288188.8	-459843.4	1	542686.6	-57.92418	1.751541E-010	-0.0585047	5
	55	22	3.158693	329340.6	-535811.1	1	628934.7	-58.4227	1.013135E-010	-0.0584875	5
	56	24	2.504006	384189.2	-628698.3	1	736792.3	-58.57145	1.165465E-011	-0.0584961	5
	57	25	1.998082	446794.9	-732240.8	1	857789.2	-58.60951	6.319689E-011	-0.0585053	5
	58	26	1.584686	528999.5	-855212.8	1	1005599	-58.26077	1.215351E-010	-0.0584648	5
	59	28	1.266892	623714.3	-994093	1	1173559	-57.895	9.603162E-011	-0.0584264	4
	60	31	0.999041	743648.6	-1155928	1	1374476	-57.24543	8.865642E-011	-0.0584568	4
