EXPLAIN
TAG	EISPOT
TITLE	LABEL	Potentiostatic EIS	Test &Identifier
DATE	LABEL	2/6/2020	Date
TIME	LABEL	17:53:39	Time
NOTES	NOTES	6	&Notes...
	
	
	
	
	
	
PSTAT	PSTAT	REF600-11020	Potentiostat
VDC	POTEN	0.00000E+000	T	DC &Voltage (V)
FREQINIT	QUANT	1.00000E+006	Initial Fre&q. (Hz)
FREQFINAL	QUANT	1.00000E+000	Final Fre&q. (Hz)
PTSPERDEC	QUANT	1.00000E+001	Points/&decade
VAC	QUANT	2.50000E+001	AC &Voltage (mV rms)
AREA	QUANT	1.60000E-004	&Area (cm^2)
CONDIT	TWOPARAM	F	5.00000E+000	0.00000E+000	Conditionin&g	Time(s)	E(V)
DELAY	TWOPARAM	F	5.00000E+000	0.00000E+000	Init. De&lay	Time(s)	Stab.(mV/s)
SPEED	SELECTOR	0	&Optimize for:
ZGUESS	QUANT	1.00000E+003	E&stimated Z (ohms)
OCVCURVE	TABLE	39
	Pt	T	Vf	Vm	Ach	Over
	#	s	V vs. Ref.	V	V	bits
	0	0.258333	-1.35536E-002	-1.35536E-002	5.70571E-004	...........
	1	0.516667	-1.35536E-002	-1.35551E-002	5.72404E-004	...........
	2	0.775	-1.35540E-002	-1.35669E-002	5.67571E-004	...........
	3	1.03333	-1.35557E-002	-1.35778E-002	5.68171E-004	...........
	4	1.29167	-1.35599E-002	-1.35809E-002	5.66538E-004	...........
	5	1.55	-1.35665E-002	-1.35967E-002	5.67471E-004	...........
	6	1.80833	-1.35748E-002	-1.36054E-002	5.66171E-004	...........
	7	2.06667	-1.35842E-002	-1.36179E-002	5.71038E-004	...........
	8	2.325	-1.35944E-002	-1.36270E-002	5.68704E-004	...........
	9	2.58333	-1.36053E-002	-1.36432E-002	5.72138E-004	...........
	10	2.84167	-1.36165E-002	-1.36527E-002	5.71271E-004	...........
	11	3.1	-1.36283E-002	-1.36658E-002	5.73671E-004	...........
	12	3.35833	-1.36403E-002	-1.36750E-002	5.72271E-004	...........
	13	3.61667	-1.36522E-002	-1.36871E-002	5.68404E-004	...........
	14	3.875	-1.36637E-002	-1.36975E-002	5.71604E-004	...........
	15	4.13333	-1.36749E-002	-1.37078E-002	5.69204E-004	...........
	16	4.39167	-1.36858E-002	-1.37203E-002	5.65904E-004	...........
	17	4.65	-1.36967E-002	-1.37299E-002	5.68838E-004	...........
	18	4.90833	-1.37076E-002	-1.37398E-002	5.73004E-004	...........
	19	5.16667	-1.37184E-002	-1.37503E-002	5.63871E-004	...........
	20	5.425	-1.37290E-002	-1.37649E-002	5.69171E-004	...........
	21	5.68333	-1.37397E-002	-1.37743E-002	5.67638E-004	...........
	22	5.94167	-1.37508E-002	-1.37825E-002	5.73671E-004	...........
	23	6.2	-1.37619E-002	-1.37935E-002	5.70471E-004	...........
	24	6.45833	-1.37725E-002	-1.38039E-002	5.70404E-004	...........
	25	6.71667	-1.37828E-002	-1.38167E-002	5.67571E-004	...........
	26	6.975	-1.37931E-002	-1.38249E-002	5.67104E-004	...........
	27	7.23333	-1.38036E-002	-1.38324E-002	5.65571E-004	...........
	28	7.49167	-1.38140E-002	-1.38483E-002	5.69638E-004	...........
	29	7.75	-1.38242E-002	-1.38570E-002	5.71304E-004	...........
	30	8.00833	-1.38347E-002	-1.38685E-002	5.72304E-004	...........
	31	8.26667	-1.38454E-002	-1.38719E-002	5.67904E-004	...........
	32	8.525	-1.38557E-002	-1.38848E-002	5.71504E-004	...........
	33	8.78333	-1.38652E-002	-1.38939E-002	5.66604E-004	...........
	34	9.04167	-1.38744E-002	-1.39047E-002	5.66404E-004	...........
	35	9.3	-1.38837E-002	-1.39114E-002	5.70004E-004	...........
	36	9.5583	-1.38932E-002	-1.39229E-002	5.69904E-004	...........
	37	9.8167	-1.39026E-002	-1.39305E-002	5.68104E-004	...........
	38	10.075	-1.39120E-002	-1.39441E-002	5.70471E-004	...........
EOC	QUANT	-0.013912	Open Circuit (V)
PSTATMODEL	IQUANT	4	Pstat Model
PSTATSECTION	LABEL	REF600-11020	Pstat Section
PSTATSERIALNO	LABEL	11020	Pstat Serial Number
CTRLMODE	IQUANT	1	Control Mode
IESTAB	IQUANT	0	I/E Stability
CASPEED	IQUANT	1	Control Amp Speed
CONVENTION	IQUANT	1	Current Convention
ICHRANGE	IQUANT	2	Ich Range
ICHRANGEMODE	TOGGLE	F	Ich Auto Range
ICHOFFSETENABLE	TOGGLE	T	Ich Offset Enable
ICHOFFSET	QUANT	0	Ich Offset (V)
ICHFILTER	IQUANT	3	Ich Filter
VCHRANGE	IQUANT	2	Vch Range
VCHRANGEMODE	TOGGLE	F	Vch Auto Range
VCHOFFSETENABLE	TOGGLE	T	Vch Offset Enable
VCHOFFSET	QUANT	0	Vch Offset (V)
VCHFILTER	IQUANT	3	Vch Filter
ACHRANGE	IQUANT	2	Ach Range
ACHOFFSETENABLE	TOGGLE	F	Ach Offset Enable
ACHOFFSET	QUANT	0	Ach Offset (V)
ACHFILTER	IQUANT	3	Ach Filter
IERANGELOWERLIMIT	IQUANT	1	I/E Range Lower Limit
IERANGEMODE	TOGGLE	F	I/E AutoRange
IERANGE	IQUANT	7	I/E Range
POSFEEDENABLE	TOGGLE	F	Positive Feedback IR Comp
POSFEEDRESISTANCE	QUANT	0	Positive Feedback Resistance (ohm)
ACHSELECT	IQUANT	0	Ach Select
CABLEID	IQUANT	14	Cable ID
DCCALDATE	LABEL	1/27/2020	DC Calibration Date
ACCALDATE	LABEL	1/27/2020	AC Calibration Date
THERMOSELECT	IQUANT	1	Thermo Select
FRAMEWORKVERSION	QUANT	6.33	Framework Version
INSTRUMENTVERSION	LABEL	3.50	Instrument Version
ZCURVE	TABLE
	Pt	Time	Freq	Zreal	Zimag	Zsig	Zmod	Zphz	Idc	Vdc	IERange
	#	s	Hz	ohm	ohm	V	ohm	°	A	V	#
	0	1	1000078	2328.224	-2055.532	1	3105.775	-41.44049	-5.674273E-007	-0.0114215	8
	1	2	794390.6	2754.354	-2102.042	1	3464.83	-37.34981	3.323383E-007	-0.0121226	8
	2	2	630984.4	3179.928	-2036.497	1	3776.144	-32.6364	2.708165E-007	-0.0124357	8
	3	2	501234.4	3568.077	-1924.61	1	4054.047	-28.34229	2.882026E-007	-0.0125157	8
	4	3	398109.4	3915.397	-1782.401	1	4302.009	-24.47639	-5.713345E-008	-0.0124012	8
	5	3	316265.6	4205.091	-1613.011	1	4503.842	-20.98608	3.782032E-007	-0.0125492	8
	6	3	251203.1	4401.511	-1436.589	1	4630.021	-18.07593	1.593947E-006	-0.0127745	8
	7	4	199546.9	4591.852	-1276.184	1	4765.895	-15.53187	8.901532E-007	-0.0127031	8
	8	4	158578.1	4732.036	-1097.48	1	4857.636	-13.0575	-1.986559E-006	-0.0120748	8
	9	4	125953.1	4867.814	-937.0847	1	4957.191	-10.8965	4.320202E-007	-0.01332	7
	10	5	100078.1	4960.354	-842.9817	1	5031.475	-9.64492	-1.057099E-008	-0.0124528	7
	11	5	79453.13	5032.782	-772.2231	1	5091.682	-8.72335	-1.031627E-008	-0.0124545	7
	12	5	63140.62	5096.424	-720.5052	1	5147.103	-8.046844	-2.442446E-008	-0.0124796	7
	13	5	50203.12	5154.326	-689.7603	1	5200.273	-7.62213	1.194694E-009	-0.0124689	7
	14	6	39890.62	5210.309	-677.0033	1	5254.108	-7.40327	1.716092E-008	-0.0125629	7
	15	6	31640.63	5266.627	-683.9573	1	5310.853	-7.399378	-2.15053E-008	-0.0124111	7
	16	6	25171.88	5322.013	-708.4317	1	5368.957	-7.582267	-1.125701E-008	-0.0124678	7
	17	7	20015.62	5382.098	-750.9541	1	5434.235	-7.943093	6.076373E-008	-0.0126025	7
	18	7	15890.62	5444.04	-813.2788	1	5504.452	-8.496516	-2.70748E-008	-0.0124895	7
	19	7	12609.37	5513.211	-899.2216	1	5586.063	-9.263546	-2.077395E-008	-0.0124163	7
	20	8	10078.13	5586.467	-1001.747	1	5675.572	-10.16605	-2.354932E-008	-0.0124962	7
	21	8	8015.625	5667.649	-1132.469	1	5779.683	-11.29962	-9.27081E-009	-0.0124747	7
	22	8	6328.125	5762.95	-1302.743	1	5908.361	-12.7379	2.630591E-008	-0.0125317	7
	23	9	5015.625	5866.182	-1503.128	1	6055.698	-14.37203	-2.68417E-008	-0.0124758	7
	24	9	3984.375	5986.819	-1749.472	1	6237.199	-16.28946	-1.720165E-008	-0.0125093	7
	25	9	3170.956	6116.189	-2041.07	1	6447.77	-18.45467	6.185851E-008	-0.0126078	7
	26	10	2527.573	6267.66	-2387.337	1	6706.932	-20.85172	-2.474158E-008	-0.0125007	7
	27	10	1976.103	6453.026	-2849.155	1	7054.022	-23.82253	2.83816E-008	-0.0125399	7
	28	10	1577.524	6651.55	-3358.161	1	7451.198	-26.78779	2.99207E-011	-0.0124316	7
	29	11	1265.625	6872.141	-3947.87	1	7925.402	-29.87627	-2.706142E-008	-0.0124763	7
	30	11	998.264	8150.22	-4720.282	1	8567.771	-33.43116	-2.09898E-008	-0.0125121	7
	31	11	796.875	7454.316	-5615.477	1	9332.76	-36.9914	-2.104327E-008	-0.0124208	7
	32	11	627.7902	7826.509	-6743.399	1	10330.91	-40.74852	2.346602E-009	-0.012594	6
	33	12	505.5147	8219.301	-7989.653	1	11462.61	-44.18829	1.018171E-008	-0.0126386	6
	34	12	397.9953	8731.271	-9656.8	1	13018.79	-47.88144	6.32652E-010	-0.0125056	6
	35	12	315.5048	9317.557	-11630.39	1	14902.45	-51.30043	5.011537E-010	-0.0125079	6
	36	13	252.4038	9986.31	-13926.16	1	17136.64	-54.35607	7.495454E-010	-0.0125113	6
	37	13	198.6229	10852.36	-16928.68	1	20108.55	-57.33754	8.960558E-010	-0.0125115	6
	38	13	158.3615	11841.92	-20378.11	1	23569.02	-59.83871	5.803905E-010	-0.0125179	6
	39	14	125.558	13081.87	-24663.94	1	27918.54	-62.0583	7.498553E-010	-0.0125134	6
	40	14	100.4464	14539.55	-29677.57	1	33047.8	-63.89897	1.417547E-009	-0.0125122	6
	41	14	79.00281	16459.27	-36225.64	1	39789.51	-65.56512	4.605805E-010	-0.0125234	6
	42	15	63.3446	18701.96	-43026.64	1	46915.4	-66.50735	6.994645E-010	-0.0125163	6
	43	15	49.86702	21700.22	-52642.44	1	56939.67	-67.59761	7.89006E-010	-0.012519	6
	44	15	39.72458	25177.56	-63795.09	1	68583.7	-68.46268	8.101031E-010	-0.0125181	6
	45	16	31.6723	29572.76	-76774.9	1	82273.52	-68.93392	9.848413E-010	-0.0125123	6
	46	16	24.93351	35745.79	-93674.73	1	100263.2	-69.11341	8.741972E-010	-0.0125193	6
	47	16	19.86229	43369.57	-112655.7	1	120715.5	-68.94456	-1.908189E-010	-0.0125177	5
	48	17	15.83615	52462.8	-134836.7	1	144683.4	-68.73979	2.555674E-010	-0.0125182	5
	49	17	12.40079	67219	-164427.3	1	177636.5	-67.76493	1.925575E-010	-0.0125173	5
	50	17	9.93114	83433.84	-193203.3	1	210448.9	-66.64315	-1.636065E-010	-0.0125137	5
	51	18	7.944915	104361.8	-227303.1	1	250116.1	-65.3387	5.943719E-010	-0.0125249	5
	52	19	6.317385	130773.9	-267086.2	1	297383.3	-63.91217	5.869059E-010	-0.0125279	5
	53	19	5.008013	164570.5	-311346.5	1	352164.9	-62.14011	1.598954E-010	-0.0125241	5
	54	20	3.945707	207458.1	-359615.8	1	415165.5	-60.01986	1.667541E-010	-0.012517	5
	55	22	3.158693	253961	-409369.2	1	481746.1	-58.18571	-8.815493E-011	-0.0125259	5
	56	23	2.504006	309845.9	-461984.4	1	556268	-56.15085	5.799166E-011	-0.0125287	5
	57	25	1.998082	370723.4	-516262.7	1	635580.8	-54.31823	2.615224E-010	-0.0124901	5
	58	26	1.584686	436918.9	-573638.4	1	721081.9	-52.70483	1.58975E-010	-0.0125253	5
	59	28	1.266892	507486.8	-632576.6	1	810984.5	-51.26155	6.696487E-011	-0.0125582	5
	60	31	0.999041	585679.3	-703177.9	1	915138.9	-50.20897	1.092703E-011	-0.0125787	5
