EXPLAIN
TAG	EISPOT
TITLE	LABEL	Potentiostatic EIS	Test &Identifier
DATE	LABEL	6/19/2020	Date
TIME	LABEL	16:15:03	Time
NOTES	NOTES	1	&Notes...
	
PSTAT	PSTAT	REF600-10037	Potentiostat
VDC	POTEN	0.00000E+000	T	DC &Voltage (V)
FREQINIT	QUANT	1.00000E+006	Initial Fre&q. (Hz)
FREQFINAL	QUANT	1.00000E+000	Final Fre&q. (Hz)
PTSPERDEC	QUANT	1.00000E+001	Points/&decade
VAC	QUANT	1.00000E+002	AC &Voltage (mV rms)
AREA	QUANT	2.50000E-001	&Area (cm^2)
CONDIT	TWOPARAM	F	5.00000E+000	0.00000E+000	Conditionin&g	Time(s)	E(V)
DELAY	TWOPARAM	F	5.00000E+000	0.00000E+000	Init. De&lay	Time(s)	Stab.(mV/s)
SPEED	SELECTOR	0	&Optimize for:
ZGUESS	QUANT	1.00000E+003	E&stimated Z (ohms)
OCVCURVE	TABLE	39
	Pt	T	Vf	Vm	Ach	Over
	#	s	V vs. Ref.	V	V	bits
	0	0.258333	1.03544E-001	1.03544E-001	5.35787E-004	...........
	1	0.516667	1.03544E-001	1.03547E-001	5.37087E-004	...........
	2	0.775	1.03545E-001	1.03553E-001	5.37887E-004	...........
	3	1.03333	1.03546E-001	1.03556E-001	5.42321E-004	...........
	4	1.29167	1.03548E-001	1.03561E-001	5.42921E-004	...........
	5	1.55	1.03552E-001	1.03564E-001	5.42120E-004	...........
	6	1.80833	1.03556E-001	1.03575E-001	5.44921E-004	...........
	7	2.06667	1.03561E-001	1.03578E-001	5.42754E-004	...........
	8	2.325	1.03566E-001	1.03582E-001	5.38587E-004	...........
	9	2.58333	1.03572E-001	1.03587E-001	5.38554E-004	...........
	10	2.84167	1.03577E-001	1.03589E-001	5.39621E-004	...........
	11	3.1	1.03582E-001	1.03594E-001	5.39821E-004	...........
	12	3.35833	1.03586E-001	1.03597E-001	5.39387E-004	...........
	13	3.61667	1.03590E-001	1.03599E-001	5.40921E-004	...........
	14	3.875	1.03593E-001	1.03601E-001	5.38821E-004	...........
	15	4.13333	1.03596E-001	1.03603E-001	5.38621E-004	...........
	16	4.39167	1.03599E-001	1.03610E-001	5.38321E-004	...........
	17	4.65	1.03602E-001	1.03616E-001	5.41654E-004	...........
	18	4.90833	1.03605E-001	1.03625E-001	5.40987E-004	...........
	19	5.16667	1.03610E-001	1.03635E-001	5.44087E-004	...........
	20	5.425	1.03617E-001	1.03632E-001	5.34154E-004	...........
	21	5.68333	1.03624E-001	1.03647E-001	5.40987E-004	...........
	22	5.94167	1.03630E-001	1.03647E-001	5.41554E-004	...........
	23	6.2	1.03637E-001	1.03652E-001	5.41887E-004	...........
	24	6.45833	1.03642E-001	1.03652E-001	5.35787E-004	...........
	25	6.71667	1.03647E-001	1.03657E-001	5.36454E-004	...........
	26	6.975	1.03650E-001	1.03658E-001	5.44187E-004	...........
	27	7.23333	1.03653E-001	1.03660E-001	5.37587E-004	...........
	28	7.49167	1.03656E-001	1.03661E-001	5.35287E-004	...........
	29	7.75	1.03658E-001	1.03668E-001	5.39787E-004	...........
	30	8.00833	1.03660E-001	1.03669E-001	5.41287E-004	...........
	31	8.26667	1.03663E-001	1.03674E-001	5.43320E-004	...........
	32	8.525	1.03666E-001	1.03676E-001	5.47454E-004	...........
	33	8.78333	1.03669E-001	1.03677E-001	5.46854E-004	...........
	34	9.04167	1.03672E-001	1.03678E-001	5.45621E-004	...........
	35	9.3	1.03675E-001	1.03683E-001	5.38854E-004	...........
	36	9.5583	1.03677E-001	1.03685E-001	5.40654E-004	...........
	37	9.8167	1.03680E-001	1.03692E-001	5.44020E-004	...........
	38	10.075	1.03683E-001	1.03700E-001	5.44887E-004	...........
EOC	QUANT	0.1036829	Open Circuit (V)
PSTATMODEL	IQUANT	4	Pstat Model
PSTATSECTION	LABEL	REF600-10037	Pstat Section
PSTATSERIALNO	LABEL	10037	Pstat Serial Number
CTRLMODE	IQUANT	1	Control Mode
IESTAB	IQUANT	0	I/E Stability
CASPEED	IQUANT	1	Control Amp Speed
CONVENTION	IQUANT	1	Current Convention
ICHRANGE	IQUANT	2	Ich Range
ICHRANGEMODE	TOGGLE	F	Ich Auto Range
ICHOFFSETENABLE	TOGGLE	T	Ich Offset Enable
ICHOFFSET	QUANT	0	Ich Offset (V)
ICHFILTER	IQUANT	3	Ich Filter
VCHRANGE	IQUANT	2	Vch Range
VCHRANGEMODE	TOGGLE	F	Vch Auto Range
VCHOFFSETENABLE	TOGGLE	T	Vch Offset Enable
VCHOFFSET	QUANT	0	Vch Offset (V)
VCHFILTER	IQUANT	3	Vch Filter
ACHRANGE	IQUANT	2	Ach Range
ACHOFFSETENABLE	TOGGLE	F	Ach Offset Enable
ACHOFFSET	QUANT	0	Ach Offset (V)
ACHFILTER	IQUANT	3	Ach Filter
IERANGELOWERLIMIT	IQUANT	1	I/E Range Lower Limit
IERANGEMODE	TOGGLE	F	I/E AutoRange
IERANGE	IQUANT	8	I/E Range
POSFEEDENABLE	TOGGLE	F	Positive Feedback IR Comp
POSFEEDRESISTANCE	QUANT	0	Positive Feedback Resistance (ohm)
ACHSELECT	IQUANT	0	Ach Select
CABLEID	IQUANT	14	Cable ID
DCCALDATE	LABEL	6/8/2020	DC Calibration Date
ACCALDATE	LABEL	6/8/2020	AC Calibration Date
THERMOSELECT	IQUANT	1	Thermo Select
FRAMEWORKVERSION	QUANT	6.33	Framework Version
INSTRUMENTVERSION	LABEL	3.50	Instrument Version
ZCURVE	TABLE
	Pt	Time	Freq	Zreal	Zimag	Zsig	Zmod	Zphz	Idc	Vdc	IERange
	#	s	Hz	ohm	ohm	V	ohm	°	A	V	#
	0	2	1000078	1702.674	-2141.034	1	2735.53	-51.50626	1.214888E-007	0.1126241	8
	1	2	794390.6	1992.876	-2409.421	1	3126.798	-50.40524	5.704862E-008	0.1123575	8
	2	3	630984.4	2324.609	-2698.23	1	3561.496	-49.25408	6.74612E-008	0.1122138	8
	3	3	501234.4	2703.635	-3003.226	1	4040.917	-48.00507	1.614123E-007	0.1122078	8
	4	3	398109.4	3141.408	-3338.163	1	4583.86	-46.73927	1.318563E-007	0.1121257	8
	5	4	316265.6	3642.15	-3689.182	1	5184.142	-45.36756	1.641952E-007	0.1120791	8
	6	4	251203.1	4227.593	-4053.721	1	5857.063	-43.79721	4.276449E-008	0.1121049	8
	7	4	199546.9	4901.673	-4403.462	1	6589.148	-41.93522	5.594726E-008	0.1121356	8
	8	4	158578.1	5649.888	-4731.747	1	7369.577	-39.94596	7.232981E-009	0.1121663	8
	9	5	125953.1	6622.106	-4909.72	1	8243.643	-36.55374	1.632903E-008	0.1122063	7
	10	5	100078.1	7529.173	-5108.698	1	9098.75	-34.15769	3.355132E-008	0.1121476	7
	11	5	79453.13	8478.988	-5218.29	1	9956.09	-31.60971	-7.016675E-009	0.1121307	7
	12	6	63140.62	9447.207	-5240.643	1	10803.43	-29.01842	-1.225489E-008	0.1120896	7
	13	6	50203.12	10383.9	-5153.976	1	11592.62	-26.39717	3.213545E-008	0.1120906	7
	14	6	39890.62	11294.08	-4960.476	1	12335.42	-23.71157	-1.275497E-008	0.1120707	7
	15	7	31640.63	12117.83	-4672.015	1	12987.29	-21.08408	-8.627444E-010	0.1120764	7
	16	7	25171.88	12852.79	-4365.865	1	13574.06	-18.76171	-3.042706E-009	0.1120686	7
	17	7	20015.62	13472.46	-4028.553	1	14061.88	-16.64779	3.689867E-008	0.1120574	7
	18	8	15890.62	14033.86	-3700.598	1	14513.57	-14.77211	3.256366E-008	0.1120804	7
	19	8	12609.37	14457.18	-3380.105	1	14847.05	-13.15944	3.257459E-008	0.1120714	7
	20	8	10078.13	14836.41	-3138.194	1	15164.68	-11.94315	-4.342952E-009	0.1120581	7
	21	9	8015.625	15133.62	-2932.803	1	15415.18	-10.96762	-1.420991E-008	0.1120749	7
	22	9	6328.125	15399.18	-2796.808	1	15651.09	-10.29389	-1.382862E-008	0.1120749	7
	23	9	5015.625	15632.79	-2740.964	1	15871.27	-9.94483	-1.777292E-008	0.1120692	7
	24	10	3984.375	15818.76	-2759.452	1	16057.64	-9.8952	2.369521E-008	0.1120618	7
	25	10	3170.956	16004.5	-2857.604	1	16257.61	-10.12349	3.206197E-008	0.1120659	7
	26	10	2527.573	16224.81	-3070.915	1	16512.87	-10.71775	3.756434E-008	0.1120609	7
	27	11	1976.103	16392.95	-3343.548	1	16730.45	-11.52807	3.701799E-009	0.1120777	7
	28	11	1577.524	16544.87	-3742.574	1	16962.89	-12.74622	3.042421E-008	0.1120671	7
	29	11	1265.625	16682.33	-4229.502	1	17210.14	-14.22654	1.383132E-008	0.1120855	7
	30	12	998.264	16914.15	-4931.495	1	17618.41	-16.25458	-1.860178E-008	0.1120657	7
	31	12	796.875	17078.04	-5730.604	1	18013.87	-18.54938	-2.158373E-009	0.1120806	7
	32	12	627.7902	17331.99	-6826.204	1	18627.8	-21.497	-1.602156E-008	0.11207	7
	33	12	505.5147	17557.03	-8015.085	1	19300.02	-24.53751	-2.361599E-008	0.1120682	7
	34	13	397.9953	17833.32	-9605.4	1	20255.64	-28.30785	4.708933E-009	0.1120971	7
	35	13	315.5048	18220.4	-11625.31	1	21613.21	-32.53942	7.987867E-009	0.1120812	7
	36	13	252.4038	18608.59	-13747.62	1	23136.05	-36.45618	3.182894E-009	0.1120982	7
	37	14	198.6229	19180.15	-16680.11	1	25418.58	-41.01201	3.630259E-009	0.1120934	7
	38	14	158.3615	19934.47	-20076.09	1	28291.91	-45.2028	5.59569E-009	0.112091	7
	39	14	125.558	20970.09	-24311.13	1	32105.69	-49.21988	5.541989E-009	0.1120986	7
	40	15	100.4464	22278.6	-29246.37	1	36765.29	-52.70144	6.815522E-009	0.1120896	7
	41	15	79.00281	24145.05	-35707.2	1	43104.37	-55.93362	-4.061674E-010	0.1120904	6
	42	15	63.3446	26369.94	-42907.53	1	50362.98	-58.42611	-4.132993E-010	0.1120902	6
	43	16	49.86702	29503.29	-52325.05	1	60069.59	-60.58368	-3.598747E-010	0.1120866	6
	44	17	39.72458	33536.57	-63043.77	1	71408.81	-61.98895	3.527152E-009	0.1120766	6
	45	17	31.6723	38459.86	-75861.09	1	85053.3	-63.11602	3.54075E-010	0.1120904	6
	46	17	24.93351	45531.11	-91795	1	102466.6	-63.61819	1.905146E-009	0.1120922	6
	47	18	19.86229	55166.41	-110121.1	1	123166.5	-63.39089	-4.253288E-009	0.1035159	6
	48	18	15.83615	66667.09	-130542.9	1	146580.9	-62.94701	-3.81261E-009	0.1035169	6
	49	18	12.40079	82466.19	-155463	1	175981.3	-62.05604	-3.600868E-009	0.1035173	6
	50	19	9.93114	100502.9	-180627.5	1	206705.4	-60.90801	-3.133241E-009	0.1035136	6
	51	19	7.944915	122467.5	-208140.2	1	241496.7	-59.52789	-2.809219E-009	0.1035209	6
	52	20	6.317385	149208.3	-238393.1	1	281237.3	-57.95788	-1.758616E-009	0.1035196	6
	53	20	5.008013	180559.8	-271201.2	1	325809.6	-56.34519	-1.254225E-009	0.1035216	6
	54	21	3.945707	217048.8	-307083.1	1	376045.5	-54.74702	-9.269631E-010	0.1035139	6
	55	23	3.158693	254336.5	-342451.6	1	426567.9	-53.39897	-1.217878E-009	0.1035203	5
	56	24	2.504006	297838.5	-382877.9	1	485080.7	-52.12086	-1.057689E-009	0.1035137	5
	57	26	1.998082	341475	-425578.4	1	545639.3	-51.25719	-8.246927E-010	0.103518	5
	58	28	1.584686	389578.5	-476191.2	1	615247.4	-50.71294	-6.070738E-010	0.1035172	5
	59	30	1.266892	438554.7	-532455.1	1	689810.6	-50.52355	-4.55997E-010	0.1035134	5
	60	34	0.999041	493953.1	-603201.3	1	779641.9	-50.68644	-5.041325E-010	0.1035205	5
