EXPLAIN
TAG	EISPOT
TITLE	LABEL	Potentiostatic EIS	Test &Identifier
DATE	LABEL	3/3/2020	Date
TIME	LABEL	16:26:43	Time
NOTES	NOTES	1	&Notes...
	
PSTAT	PSTAT	REF600-11020	Potentiostat
VDC	POTEN	0.00000E+000	T	DC &Voltage (V)
FREQINIT	QUANT	1.00000E+006	Initial Fre&q. (Hz)
FREQFINAL	QUANT	1.00000E+000	Final Fre&q. (Hz)
PTSPERDEC	QUANT	1.00000E+001	Points/&decade
VAC	QUANT	2.50000E+001	AC &Voltage (mV rms)
AREA	QUANT	1.60000E-004	&Area (cm^2)
CONDIT	TWOPARAM	F	1.50000E+001	0.00000E+000	Conditionin&g	Time(s)	E(V)
DELAY	TWOPARAM	F	1.00000E+002	0.00000E+000	Init. De&lay	Time(s)	Stab.(mV/s)
SPEED	SELECTOR	1	&Optimize for:
ZGUESS	QUANT	1.00000E+004	E&stimated Z (ohms)
OCVCURVE	TABLE	39
	Pt	T	Vf	Vm	Ach	Over
	#	s	V vs. Ref.	V	V	bits
	0	0.258333	6.65203E-002	6.65203E-002	5.80063E-004	...........
	1	0.516667	6.65206E-002	6.65327E-002	5.75863E-004	...........
	2	0.775	6.65198E-002	6.64287E-002	5.73730E-004	...........
	3	1.03333	6.65094E-002	6.62819E-002	5.75830E-004	...........
	4	1.29167	6.64740E-002	6.62126E-002	5.77063E-004	...........
	5	1.55	6.64072E-002	6.61349E-002	5.80330E-004	...........
	6	1.80833	6.63185E-002	6.59693E-002	5.75163E-004	...........
	7	2.06667	6.62193E-002	6.58937E-002	5.74330E-004	...........
	8	2.325	6.61132E-002	6.57535E-002	5.74963E-004	...........
	9	2.58333	6.60007E-002	6.55975E-002	5.75797E-004	...........
	10	2.84167	6.58828E-002	6.55698E-002	5.79863E-004	...........
	11	3.1	6.57655E-002	6.54985E-002	5.76430E-004	...........
	12	3.35833	6.56624E-002	6.55216E-002	5.75797E-004	...........
	13	3.61667	6.55855E-002	6.54941E-002	5.70463E-004	...........
	14	3.875	6.55369E-002	6.54545E-002	5.75097E-004	...........
	15	4.13333	6.55070E-002	6.54203E-002	5.74963E-004	...........
	16	4.39167	6.54824E-002	6.53878E-002	5.81097E-004	...........
	17	4.65	6.54549E-002	6.53533E-002	5.75197E-004	...........
	18	4.90833	6.54238E-002	6.53215E-002	5.73863E-004	...........
	19	5.16667	6.53905E-002	6.52805E-002	5.81597E-004	...........
	20	5.425	6.53563E-002	6.52531E-002	5.73230E-004	...........
	21	5.68333	6.53218E-002	6.52181E-002	5.73863E-004	...........
	22	5.94167	6.52871E-002	6.51585E-002	5.75763E-004	...........
	23	6.2	6.52499E-002	6.50715E-002	5.72530E-004	...........
	24	6.45833	6.52083E-002	6.51861E-002	5.76263E-004	...........
	25	6.71667	6.51691E-002	6.50791E-002	5.76730E-004	...........
	26	6.975	6.51384E-002	6.49471E-002	5.70863E-004	...........
	27	7.23333	6.51055E-002	6.49432E-002	5.76897E-004	...........
	28	7.49167	6.50590E-002	6.49522E-002	5.75197E-004	...........
	29	7.75	6.50082E-002	6.49304E-002	5.77663E-004	...........
	30	8.00833	6.49683E-002	6.48700E-002	5.74097E-004	...........
	31	8.26667	6.49395E-002	6.48532E-002	5.73697E-004	...........
	32	8.525	6.49129E-002	6.48171E-002	5.73163E-004	...........
	33	8.78333	6.48838E-002	6.47933E-002	5.80330E-004	...........
	34	9.04167	6.48532E-002	6.47514E-002	5.76963E-004	...........
	35	9.3	6.48221E-002	6.47317E-002	5.84930E-004	...........
	36	9.5583	6.47912E-002	6.47028E-002	5.75530E-004	...........
	37	9.8167	6.47611E-002	6.46727E-002	5.84030E-004	...........
	38	10.075	6.47318E-002	6.46302E-002	5.73997E-004	...........
EOC	QUANT	0.0647318	Open Circuit (V)
PSTATMODEL	IQUANT	4	Pstat Model
PSTATSECTION	LABEL	REF600-11020	Pstat Section
PSTATSERIALNO	LABEL	11020	Pstat Serial Number
CTRLMODE	IQUANT	1	Control Mode
IESTAB	IQUANT	0	I/E Stability
CASPEED	IQUANT	1	Control Amp Speed
CONVENTION	IQUANT	1	Current Convention
ICHRANGE	IQUANT	2	Ich Range
ICHRANGEMODE	TOGGLE	F	Ich Auto Range
ICHOFFSETENABLE	TOGGLE	T	Ich Offset Enable
ICHOFFSET	QUANT	0	Ich Offset (V)
ICHFILTER	IQUANT	3	Ich Filter
VCHRANGE	IQUANT	2	Vch Range
VCHRANGEMODE	TOGGLE	F	Vch Auto Range
VCHOFFSETENABLE	TOGGLE	T	Vch Offset Enable
VCHOFFSET	QUANT	0	Vch Offset (V)
VCHFILTER	IQUANT	3	Vch Filter
ACHRANGE	IQUANT	2	Ach Range
ACHOFFSETENABLE	TOGGLE	F	Ach Offset Enable
ACHOFFSET	QUANT	0	Ach Offset (V)
ACHFILTER	IQUANT	3	Ach Filter
IERANGELOWERLIMIT	IQUANT	1	I/E Range Lower Limit
IERANGEMODE	TOGGLE	F	I/E AutoRange
IERANGE	IQUANT	7	I/E Range
POSFEEDENABLE	TOGGLE	F	Positive Feedback IR Comp
POSFEEDRESISTANCE	QUANT	0	Positive Feedback Resistance (ohm)
ACHSELECT	IQUANT	0	Ach Select
CABLEID	IQUANT	14	Cable ID
DCCALDATE	LABEL	2/27/2020	DC Calibration Date
ACCALDATE	LABEL	2/27/2020	AC Calibration Date
THERMOSELECT	IQUANT	1	Thermo Select
FRAMEWORKVERSION	QUANT	6.33	Framework Version
INSTRUMENTVERSION	LABEL	3.50	Instrument Version
ZCURVE	TABLE
	Pt	Time	Freq	Zreal	Zimag	Zsig	Zmod	Zphz	Idc	Vdc	IERange
	#	s	Hz	ohm	ohm	V	ohm	°	A	V	#
	0	2	1000078	2140.403	-2135.936	1	3023.829	-44.94015	-7.600907E-007	0.0672869	8
	1	3	794390.6	2560.236	-2240.615	1	3402.229	-41.19111	6.112315E-008	0.0666738	8
	2	5	630984.4	3018.121	-2272.679	1	3778.111	-36.98016	3.400932E-007	0.0664238	8
	3	6	501234.4	3460.492	-2248.021	1	4126.573	-33.00875	-3.648146E-007	0.0665103	8
	4	8	398109.4	3867.979	-2148.205	1	4424.483	-29.04699	-2.40344E-007	0.0663972	8
	5	9	316265.6	4251.03	-1991.777	1	4694.511	-25.10497	-2.76144E-007	0.0664105	8
	6	10	251203.1	4557.046	-1852.653	1	4919.247	-22.12405	7.819644E-007	0.0661873	8
	7	12	199546.9	4815.73	-1681.699	1	5100.918	-19.24969	2.956163E-007	0.0662574	8
	8	13	158578.1	5026.037	-1539.066	1	5256.402	-17.02556	-1.092127E-006	0.066536	8
	9	15	125953.1	5232.461	-1371.711	1	5409.274	-14.68976	8.482911E-007	0.064906	7
	10	16	100078.1	5372.25	-1268.498	1	5519.978	-13.28537	2.91535E-008	0.066306	7
	11	17	79453.13	5504.035	-1198.444	1	5632.998	-12.28381	-3.708808E-009	0.0662043	7
	12	19	63140.62	5627.962	-1147.159	1	5743.687	-11.52089	-4.00106E-008	0.066313	7
	13	20	50203.12	5742.267	-1120.605	1	5850.588	-11.0425	-5.538614E-008	0.0663211	7
	14	21	39890.62	5853.327	-1118.021	1	5959.145	-10.81359	1.897869E-008	0.0662281	7
	15	23	31640.63	5960.622	-1139.489	1	6068.562	-10.82263	-3.731201E-008	0.066348	7
	16	24	25171.88	6074.016	-1184.04	1	6188.346	-11.03064	8.598919E-008	0.0661059	7
	17	26	20015.62	6193.811	-1256.401	1	6319.955	-11.46674	9.977215E-008	0.0661217	7
	18	27	15890.62	6317.648	-1350.056	1	6460.289	-12.06245	-2.609859E-008	0.066346	7
	19	28	12609.37	6454.161	-1477.818	1	6621.188	-12.89678	-2.649866E-008	0.0663456	7
	20	30	10078.13	6599.674	-1621.203	1	6795.881	-13.80137	8.61242E-008	0.0661051	7
	21	31	8015.625	6765.895	-1807.544	1	7003.181	-14.95755	9.962775E-008	0.0661138	7
	22	32	6328.125	6955.072	-2033.304	1	7246.195	-16.2962	9.937506E-008	0.0661181	7
	23	34	5015.625	7161.825	-2301.291	1	7522.478	-17.81363	1.00612E-007	0.0661168	7
	24	35	3984.375	7391.988	-2613.685	1	7840.461	-19.47275	1.000631E-007	0.0661167	7
	25	36	3170.956	7652.789	-2978.321	1	8211.917	-21.26505	1.926666E-008	0.0662181	7
	26	38	2527.573	7942.608	-3401.095	1	8640.166	-23.18103	-5.16585E-008	0.0663135	7
	27	39	1976.103	8295.161	-3942.659	1	9184.457	-25.42156	-5.003058E-009	0.0662104	7
	28	41	1577.524	8689.731	-4520.354	1	9795.15	-27.48322	1.270473E-008	0.0660598	6
	29	42	1265.625	9105.579	-5187.334	1	10479.5	-29.66962	-4.138197E-009	0.0663134	6
	30	43	998.264	9623.32	-6020.117	1	11351.22	-32.0291	-9.502662E-009	0.0663659	6
	31	45	796.875	10184.54	-6948.119	1	12328.88	-34.30267	-4.507319E-009	0.0663152	6
	32	46	627.7902	10857.78	-8098.232	1	13545.21	-36.71728	-3.890137E-009	0.0664041	6
	33	47	505.5147	11559.53	-9320.649	1	14849.15	-38.87984	-4.915801E-009	0.0663088	6
	34	49	397.9953	12437.24	-10893.8	1	16533.6	-41.21517	2.916427E-010	0.0663175	6
	35	50	315.5048	13406.8	-12701.59	1	18468.15	-43.45277	2.292779E-010	0.0663165	6
	36	52	252.4038	14461.95	-14746.16	1	20654.23	-45.55751	3.408955E-010	0.0663136	6
	37	53	198.6229	15738.09	-17344.27	1	23420.31	-47.77958	2.819184E-010	0.066314	6
	38	54	158.3615	17110.12	-20274.61	1	26529.53	-49.83835	3.993308E-010	0.0663146	6
	39	56	125.558	18681.95	-23848.13	1	30294.36	-51.92586	1.986138E-010	0.0663141	6
	40	57	100.4464	20395.05	-27954.48	1	34603.63	-53.88622	5.962283E-010	0.0663084	6
	41	58	79.00281	22505.31	-33368.16	1	40248.27	-56.00212	3.521944E-011	0.0663156	6
	42	60	63.3446	24748.29	-39521.02	1	46630.35	-57.94496	-5.416022E-012	0.0663119	6
	43	61	49.86702	27331.93	-47054.33	1	54416.4	-59.84946	-3.26954E-010	0.0663097	6
	44	63	39.72458	30586.94	-56319.69	1	64089.53	-61.49384	2.756614E-010	0.0663167	6
	45	64	31.6723	34477.81	-67481.67	1	75779.26	-62.93655	-9.442118E-011	0.0663078	6
	46	65	24.93351	39543.07	-81586.05	1	90663.88	-64.14149	-2.445614E-011	0.0663118	6
	47	67	19.86229	45604.41	-97798.2	1	107908.5	-64.99983	2.838141E-010	0.066324	5
	48	68	15.83615	53559.88	-117340.8	1	128986.6	-65.46581	-2.770703E-010	0.0663157	5
	49	70	12.40079	64034.78	-142231	1	155981.1	-65.76192	2.226073E-010	0.0663085	5
	50	71	9.93114	77547.19	-168842.2	1	185798.9	-65.33125	1.779047E-010	0.0663203	5
	51	73	7.944915	93912.7	-199396.3	1	220405.3	-64.78027	3.647797E-010	0.0663148	5
	52	74	6.317385	114983.5	-235364.4	1	261949.6	-63.96293	4.181764E-010	0.0663209	5
	53	76	5.008013	141674.7	-276735.3	1	310892.5	-62.88982	3.316999E-010	0.0663187	5
	54	79	3.945707	174816	-324144.1	1	368279.8	-61.66131	2.879753E-010	0.0663163	5
	55	82	3.158693	212134.6	-372981.9	1	429088.1	-60.37081	1.798458E-011	0.0663198	5
	56	85	2.504006	257222.3	-429487.2	1	500622.1	-59.08237	3.803723E-010	0.0663108	5
	57	88	1.998082	307048.6	-488602.9	1	577071.6	-57.85386	-7.960747E-012	0.0663572	5
	58	91	1.584686	363963.3	-557486.4	1	665778	-56.86089	2.667879E-010	0.0663202	5
	59	94	1.266892	428029.2	-630615.4	1	762157.9	-55.83336	1.196884E-010	0.0663566	5
	60	99	0.999041	502333.6	-717142.7	1	875575.6	-54.99009	4.742071E-011	0.0662759	5
