EXPLAIN
TAG	EISPOT
TITLE	LABEL	Potentiostatic EIS	Test &Identifier
DATE	LABEL	2/18/2020	Date
TIME	LABEL	16:01:35	Time
NOTES	NOTES	1	&Notes...
	
PSTAT	PSTAT	REF600-11020	Potentiostat
VDC	POTEN	0.00000E+000	T	DC &Voltage (V)
FREQINIT	QUANT	1.00000E+006	Initial Fre&q. (Hz)
FREQFINAL	QUANT	1.00000E+000	Final Fre&q. (Hz)
PTSPERDEC	QUANT	1.00000E+001	Points/&decade
VAC	QUANT	2.50000E+001	AC &Voltage (mV rms)
AREA	QUANT	1.60000E-004	&Area (cm^2)
CONDIT	TWOPARAM	F	1.50000E+001	0.00000E+000	Conditionin&g	Time(s)	E(V)
DELAY	TWOPARAM	F	1.00000E+002	0.00000E+000	Init. De&lay	Time(s)	Stab.(mV/s)
SPEED	SELECTOR	1	&Optimize for:
ZGUESS	QUANT	1.00000E+003	E&stimated Z (ohms)
OCVCURVE	TABLE	39
	Pt	T	Vf	Vm	Ach	Over
	#	s	V vs. Ref.	V	V	bits
	0	0.258333	-3.16632E-002	-3.16632E-002	5.74071E-004	...........
	1	0.516667	-3.16644E-002	-3.17302E-002	5.76038E-004	...........
	2	0.775	-3.16717E-002	-3.17640E-002	5.80737E-004	...........
	3	1.03333	-3.16903E-002	-3.17836E-002	5.69504E-004	...........
	4	1.29167	-3.17189E-002	-3.18167E-002	5.67604E-004	...........
	5	1.55	-3.17510E-002	-3.18198E-002	5.77737E-004	...........
	6	1.80833	-3.17801E-002	-3.18387E-002	5.76637E-004	...........
	7	2.06667	-3.18036E-002	-3.18547E-002	5.78204E-004	...........
	8	2.325	-3.18220E-002	-3.18611E-002	5.71304E-004	...........
	9	2.58333	-3.18372E-002	-3.18791E-002	5.78704E-004	...........
	10	2.84167	-3.18512E-002	-3.19098E-002	5.79804E-004	...........
	11	3.1	-3.18662E-002	-3.19307E-002	5.73937E-004	...........
	12	3.35833	-3.18841E-002	-3.19423E-002	5.77804E-004	...........
	13	3.61667	-3.19040E-002	-3.19544E-002	5.78404E-004	...........
	14	3.875	-3.19228E-002	-3.19537E-002	5.80804E-004	...........
	15	4.13333	-3.19377E-002	-3.19545E-002	5.69238E-004	...........
	16	4.39167	-3.19476E-002	-3.19647E-002	5.69738E-004	...........
	17	4.65	-3.19539E-002	-3.19768E-002	5.78071E-004	...........
	18	4.90833	-3.19594E-002	-3.19809E-002	5.74171E-004	...........
	19	5.16667	-3.19659E-002	-3.19889E-002	5.72671E-004	...........
	20	5.425	-3.19732E-002	-3.19953E-002	5.71738E-004	...........
	21	5.68333	-3.19807E-002	-3.19995E-002	5.75271E-004	...........
	22	5.94167	-3.19876E-002	-3.20036E-002	5.71538E-004	...........
	23	6.2	-3.19938E-002	-3.20166E-002	5.71271E-004	...........
	24	6.45833	-3.19999E-002	-3.20232E-002	5.71971E-004	...........
	25	6.71667	-3.20065E-002	-3.20220E-002	5.73138E-004	...........
	26	6.975	-3.20134E-002	-3.20368E-002	5.78404E-004	...........
	27	7.23333	-3.20200E-002	-3.20366E-002	5.72638E-004	...........
	28	7.49167	-3.20263E-002	-3.20481E-002	5.80171E-004	...........
	29	7.75	-3.20328E-002	-3.20633E-002	5.77004E-004	...........
	30	8.00833	-3.20403E-002	-3.20664E-002	5.73071E-004	...........
	31	8.26667	-3.20489E-002	-3.20703E-002	5.72171E-004	...........
	32	8.525	-3.20575E-002	-3.20786E-002	5.75071E-004	...........
	33	8.78333	-3.20652E-002	-3.20963E-002	5.80304E-004	...........
	34	9.04167	-3.20728E-002	-3.20965E-002	5.74204E-004	...........
	35	9.3	-3.20809E-002	-3.20967E-002	5.72104E-004	...........
	36	9.5583	-3.20884E-002	-3.20970E-002	5.80871E-004	...........
	37	9.8167	-3.20935E-002	-3.20905E-002	5.78437E-004	...........
	38	10.075	-3.20953E-002	-3.20857E-002	5.67704E-004	...........
EOC	QUANT	-0.0320953	Open Circuit (V)
PSTATMODEL	IQUANT	4	Pstat Model
PSTATSECTION	LABEL	REF600-11020	Pstat Section
PSTATSERIALNO	LABEL	11020	Pstat Serial Number
CTRLMODE	IQUANT	1	Control Mode
IESTAB	IQUANT	0	I/E Stability
CASPEED	IQUANT	1	Control Amp Speed
CONVENTION	IQUANT	1	Current Convention
ICHRANGE	IQUANT	2	Ich Range
ICHRANGEMODE	TOGGLE	F	Ich Auto Range
ICHOFFSETENABLE	TOGGLE	T	Ich Offset Enable
ICHOFFSET	QUANT	0	Ich Offset (V)
ICHFILTER	IQUANT	3	Ich Filter
VCHRANGE	IQUANT	2	Vch Range
VCHRANGEMODE	TOGGLE	F	Vch Auto Range
VCHOFFSETENABLE	TOGGLE	T	Vch Offset Enable
VCHOFFSET	QUANT	0	Vch Offset (V)
VCHFILTER	IQUANT	3	Vch Filter
ACHRANGE	IQUANT	2	Ach Range
ACHOFFSETENABLE	TOGGLE	F	Ach Offset Enable
ACHOFFSET	QUANT	0	Ach Offset (V)
ACHFILTER	IQUANT	3	Ach Filter
IERANGELOWERLIMIT	IQUANT	1	I/E Range Lower Limit
IERANGEMODE	TOGGLE	F	I/E AutoRange
IERANGE	IQUANT	7	I/E Range
POSFEEDENABLE	TOGGLE	F	Positive Feedback IR Comp
POSFEEDRESISTANCE	QUANT	0	Positive Feedback Resistance (ohm)
ACHSELECT	IQUANT	0	Ach Select
CABLEID	IQUANT	14	Cable ID
DCCALDATE	LABEL	1/27/2020	DC Calibration Date
ACCALDATE	LABEL	1/27/2020	AC Calibration Date
THERMOSELECT	IQUANT	1	Thermo Select
FRAMEWORKVERSION	QUANT	6.33	Framework Version
INSTRUMENTVERSION	LABEL	3.50	Instrument Version
ZCURVE	TABLE
	Pt	Time	Freq	Zreal	Zimag	Zsig	Zmod	Zphz	Idc	Vdc	IERange
	#	s	Hz	ohm	ohm	V	ohm	°	A	V	#
	0	2	1000078	1776.064	-1577.651	1	2375.581	-41.6142	-1.170208E-006	-0.0292286	8
	1	3	794390.6	2088.983	-1587.071	1	2623.479	-37.22517	-4.797278E-007	-0.0298389	8
	2	4	630984.4	2392.359	-1559.261	1	2855.639	-33.095	-7.688892E-007	-0.0301485	8
	3	6	501234.4	2678.542	-1487.21	1	3063.72	-29.0404	-1.199879E-006	-0.0301155	8
	4	7	398109.4	2922.55	-1383.063	1	3233.29	-25.32531	2.075987E-006	-0.030786	8
	5	9	316265.6	3135.929	-1274.522	1	3385.035	-22.11808	2.134574E-007	-0.0305676	8
	6	10	251203.1	3308.368	-1173.194	1	3510.225	-19.52522	-1.637832E-006	-0.0301199	8
	7	11	199546.9	3466.486	-1084.212	1	3632.085	-17.36811	-8.837448E-008	-0.0303468	8
	8	13	158578.1	3594.628	-1003.246	1	3732.003	-15.5942	2.227255E-008	-0.0305846	8
	9	14	125953.1	3723.659	-911.5363	1	3833.606	-13.75527	-5.435938E-007	-0.0292522	7
	10	15	100078.1	3834.924	-861.045	1	3930.399	-12.6546	8.061176E-008	-0.0306097	7
	11	17	79453.13	3934.681	-823.763	1	4019.988	-11.82463	4.268511E-009	-0.0304937	7
	12	18	63140.62	4031.982	-797.0314	1	4110.005	-11.18191	-2.69748E-008	-0.0304909	7
	13	19	50203.12	4126.211	-775.5194	1	4198.458	-10.64454	2.611684E-008	-0.0305906	7
	14	21	39890.62	4218.604	-762.6404	1	4286.985	-10.24727	-1.335417E-008	-0.0305222	7
	15	22	31640.63	4306.938	-756.1495	1	4372.812	-9.95768	3.491488E-008	-0.0305593	7
	16	23	25171.88	4391.358	-759.4302	1	4456.541	-9.81154	8.383095E-008	-0.0306232	7
	17	25	20015.62	4473.133	-770.9221	1	4539.08	-9.77858	-1.38902E-008	-0.0305267	7
	18	26	15890.62	4550.173	-798.9053	1	4619.776	-9.95831	-1.998946E-008	-0.0304635	7
	19	27	12609.37	4626.924	-842.5792	1	4703.017	-10.32067	-8.197223E-009	-0.0304707	7
	20	29	10078.13	4699.629	-900.9041	1	4785.2	-10.85177	6.565736E-009	-0.0305016	7
	21	30	8015.625	4774.599	-983.227	1	4874.785	-11.63618	5.170311E-008	-0.0306176	7
	22	31	6328.125	4852.639	-1096.295	1	4974.934	-12.7304	8.348714E-008	-0.0306279	7
	23	33	5015.625	4932.944	-1240.457	1	5086.519	-14.11516	5.518642E-008	-0.0306039	7
	24	34	3984.375	5018.019	-1421.332	1	5215.429	-15.81455	2.812097E-009	-0.0305121	7
	25	35	3170.956	5106.324	-1648.255	1	5365.752	-17.88941	-2.559179E-008	-0.0304981	7
	26	37	2527.573	5205.333	-1927.49	1	5550.74	-20.31916	3.551341E-008	-0.0305632	7
	27	38	1976.103	5324.58	-2306.851	1	5802.819	-23.42447	-1.197117E-008	-0.0305279	7
	28	40	1577.524	5451.731	-2740.135	1	6101.615	-26.6849	5.43066E-008	-0.0306139	7
	29	41	1265.625	5592.865	-3256.57	1	6471.892	-30.21106	-2.364784E-008	-0.0304996	7
	30	42	998.264	5771.14	-3935.438	1	6985.25	-34.29074	-2.664454E-008	-0.0305011	7
	31	44	796.875	5974.482	-4731.059	1	7620.85	-38.37491	-1.979294E-008	-0.0304719	7
	32	45	627.7902	6234.03	-5760.954	1	8488.329	-42.74146	8.517797E-008	-0.0306365	7
	33	46	505.5147	6514.657	-6899.351	1	9489.036	-46.64271	-1.104424E-008	-0.0305315	7
	34	48	397.9953	6892.945	-8435.111	1	10893.29	-50.74523	1.604125E-009	-0.0305158	6
	35	49	315.5048	7339.35	-10266.2	1	12619.86	-54.43887	1.406737E-009	-0.0305151	6
	36	50	252.4038	7862.247	-12403.86	1	14685.73	-57.63123	8.812091E-010	-0.0305183	6
	37	52	198.6229	8564.056	-15215.43	1	17460.03	-60.62688	1.431864E-009	-0.0305169	6
	38	53	158.3615	9389.848	-18459.33	1	20710.29	-63.03858	1.643688E-009	-0.0305191	6
	39	54	125.558	10464.78	-22505.18	1	24819.24	-65.06184	1.332562E-009	-0.0305148	6
	40	56	100.4464	11758.15	-27216.05	1	29647.39	-66.63421	1.681419E-009	-0.0305218	6
	41	57	79.00281	13588.44	-33310.46	1	35975.45	-67.80782	8.981352E-010	-0.030523	6
	42	58	63.3446	15553.7	-39910.75	1	42834.39	-68.70854	8.16978E-010	-0.0305251	6
	43	60	49.86702	18721.28	-49064.35	1	52514.73	-69.11485	7.597074E-010	-0.0305313	6
	44	61	39.72458	21996.35	-59229.76	1	63182.31	-69.62635	1.409788E-009	-0.0305262	6
	45	63	31.6723	26502.51	-71325.3	1	76089.95	-69.61633	6.95252E-010	-0.0305232	6
	46	64	24.93351	32463.71	-86545.56	1	92433.91	-69.43866	1.172299E-009	-0.0305233	6
	47	65	19.86229	39884.96	-103674.3	1	111081.8	-68.95756	4.729975E-010	-0.0305102	5
	48	67	15.83615	48880.98	-123418.8	1	132746.2	-68.39357	5.819461E-010	-0.0305223	5
	49	68	12.40079	63548.03	-148929.5	1	161920.8	-66.89212	-7.54275E-010	-0.0305138	5
	50	70	9.93114	78535.68	-176312.9	1	193013.2	-65.9902	-1.275317E-010	-0.0305091	5
	51	71	7.944915	98918.1	-205857.6	1	228390.4	-64.33492	6.865777E-010	-0.0305204	5
	52	73	6.317385	123901.1	-239703.3	1	269831.8	-62.66584	7.17837E-010	-0.0305228	5
	53	75	5.008013	155461.7	-277579.5	1	318148.9	-60.74848	4.253135E-010	-0.0305135	5
	54	77	3.945707	193950.3	-318098.7	1	372563.4	-58.62861	-1.097271E-010	-0.030525	5
	55	80	3.158693	235574	-357962.7	1	428523.5	-56.65123	3.050197E-010	-0.030511	5
	56	83	2.504006	283356.3	-401120.8	1	491109.7	-54.76218	-1.984257E-010	-0.0305081	5
	57	86	1.998082	332281.6	-444536.5	1	554998.9	-53.22267	3.22861E-010	-0.0305556	5
	58	89	1.584686	386136.8	-495675.7	1	628327.9	-52.08102	1.103318E-011	-0.0305469	5
	59	93	1.266892	439277.6	-548487.4	1	702711.3	-51.30914	3.199924E-010	-0.0305468	5
	60	97	0.999041	498129.6	-616846.4	1	792863.5	-51.07765	-7.205896E-011	-0.0305012	5
