EXPLAIN
TAG	EISPOT
TITLE	LABEL	Potentiostatic EIS	Test &Identifier
DATE	LABEL	6/1/2020	Date
TIME	LABEL	13:22:06	Time
NOTES	NOTES	1	&Notes...
	
PSTAT	PSTAT	REF600-11020	Potentiostat
VDC	POTEN	0.00000E+000	T	DC &Voltage (V)
FREQINIT	QUANT	1.00000E+006	Initial Fre&q. (Hz)
FREQFINAL	QUANT	1.00000E+000	Final Fre&q. (Hz)
PTSPERDEC	QUANT	1.00000E+001	Points/&decade
VAC	QUANT	2.50000E+001	AC &Voltage (mV rms)
AREA	QUANT	4.00000E-004	&Area (cm^2)
CONDIT	TWOPARAM	F	5.00000E+000	0.00000E+000	Conditionin&g	Time(s)	E(V)
DELAY	TWOPARAM	T	3.00000E+000	0.00000E+000	Init. De&lay	Time(s)	Stab.(mV/s)
SPEED	SELECTOR	0	&Optimize for:
ZGUESS	QUANT	1.00000E+003	E&stimated Z (ohms)
OCVCURVE	TABLE	12
	Pt	T	Vf	Vm	Ach	Over
	#	s	V vs. Ref.	V	V	bits
	0	0.258333	-2.15826E-003	-2.15826E-003	5.70163E-004	...........
	1	0.516667	-2.15630E-003	-2.05591E-003	5.71297E-004	...........
	2	0.775	-2.14428E-003	-1.95830E-003	5.69763E-004	...........
	3	1.03333	-2.11033E-003	-1.86906E-003	5.73563E-004	...........
	4	1.29167	-2.04984E-003	-1.78081E-003	5.74697E-004	...........
	5	1.55	-1.96980E-003	-1.69655E-003	5.69230E-004	...........
	6	1.80833	-1.88131E-003	-1.61346E-003	5.68663E-004	...........
	7	2.06667	-1.79214E-003	-1.53494E-003	5.72197E-004	...........
	8	2.325	-1.70569E-003	-1.45924E-003	5.72297E-004	...........
	9	2.58333	-1.62274E-003	-1.38386E-003	5.71297E-004	...........
	10	2.84167	-1.54314E-003	-1.31599E-003	5.70963E-004	...........
	11	3.1	-1.46662E-003	-1.24720E-003	5.64930E-004	...........
EOC	QUANT	-0.0014666	Open Circuit (V)
PSTATMODEL	IQUANT	4	Pstat Model
PSTATSECTION	LABEL	REF600-11020	Pstat Section
PSTATSERIALNO	LABEL	11020	Pstat Serial Number
CTRLMODE	IQUANT	1	Control Mode
IESTAB	IQUANT	0	I/E Stability
CASPEED	IQUANT	1	Control Amp Speed
CONVENTION	IQUANT	1	Current Convention
ICHRANGE	IQUANT	2	Ich Range
ICHRANGEMODE	TOGGLE	F	Ich Auto Range
ICHOFFSETENABLE	TOGGLE	T	Ich Offset Enable
ICHOFFSET	QUANT	0	Ich Offset (V)
ICHFILTER	IQUANT	3	Ich Filter
VCHRANGE	IQUANT	2	Vch Range
VCHRANGEMODE	TOGGLE	F	Vch Auto Range
VCHOFFSETENABLE	TOGGLE	T	Vch Offset Enable
VCHOFFSET	QUANT	0	Vch Offset (V)
VCHFILTER	IQUANT	3	Vch Filter
ACHRANGE	IQUANT	2	Ach Range
ACHOFFSETENABLE	TOGGLE	F	Ach Offset Enable
ACHOFFSET	QUANT	0	Ach Offset (V)
ACHFILTER	IQUANT	3	Ach Filter
IERANGELOWERLIMIT	IQUANT	1	I/E Range Lower Limit
IERANGEMODE	TOGGLE	F	I/E AutoRange
IERANGE	IQUANT	6	I/E Range
POSFEEDENABLE	TOGGLE	F	Positive Feedback IR Comp
POSFEEDRESISTANCE	QUANT	0	Positive Feedback Resistance (ohm)
ACHSELECT	IQUANT	0	Ach Select
CABLEID	IQUANT	14	Cable ID
DCCALDATE	LABEL	2/27/2020	DC Calibration Date
ACCALDATE	LABEL	2/27/2020	AC Calibration Date
THERMOSELECT	IQUANT	1	Thermo Select
FRAMEWORKVERSION	QUANT	6.33	Framework Version
INSTRUMENTVERSION	LABEL	3.50	Instrument Version
ZCURVE	TABLE
	Pt	Time	Freq	Zreal	Zimag	Zsig	Zmod	Zphz	Idc	Vdc	IERange
	#	s	Hz	ohm	ohm	V	ohm	°	A	V	#
	0	1	1000078	2153.354	-1966.764	1	2916.349	-42.40699	5.5463E-008	0.0009115	8
	1	2	794390.6	2552.663	-2033.727	1	3263.761	-38.54462	3.160608E-008	0.0005457	8
	2	2	630984.4	2961.669	-2032.162	1	3591.819	-34.45613	5.916149E-008	0.0003939	8
	3	2	501234.4	3356.672	-1969.343	1	3891.73	-30.39994	1.555943E-008	0.0002801	8
	4	3	398109.4	3712.843	-1857.187	1	4151.427	-26.5745	3.534279E-008	0.0001859	8
	5	3	316265.6	4020.902	-1716.116	1	4371.808	-23.11273	4.519343E-008	0.0001705	8
	6	3	251203.1	4280.671	-1562.41	1	4556.892	-20.05167	3.960346E-008	0.0001519	8
	7	4	199546.9	4489.002	-1407.52	1	4704.493	-17.40874	6.022775E-008	0.0001609	8
	8	4	158578.1	4660.11	-1272.256	1	4830.659	-15.27019	6.18888E-008	0.0001764	8
	9	4	125953.1	4841.013	-1071.267	1	4958.127	-12.47789	7.322753E-009	0.000097	7
	10	5	100078.1	4932.271	-987.958	1	5030.244	-11.32673	2.038806E-009	7.220177E-005	7
	11	5	79453.13	5026.71	-936.8919	1	5113.275	-10.5578	1.462135E-009	7.085031E-005	7
	12	5	63140.62	5112.291	-907.5416	1	5192.22	-10.06636	1.955981E-009	7.228777E-005	7
	13	6	50203.12	5193.581	-900.27	1	5271.031	-9.83409	1.516878E-009	6.675659E-005	7
	14	6	39890.62	5273.274	-914.7625	1	5352.029	-9.84125	1.723182E-009	6.56316E-005	7
	15	6	31640.63	5356.542	-952.802	1	5440.622	-10.08607	1.6779E-009	5.62412E-005	7
	16	6	25171.88	5443.331	-1013.606	1	5536.899	-10.54827	1.420065E-009	6.656125E-005	7
	17	7	20015.62	5537.607	-1098.445	1	5645.5	-11.21961	2.045145E-009	6.435035E-005	7
	18	7	15890.62	5643.41	-1208.993	1	5771.459	-12.09176	3.429715E-009	7.102991E-005	7
	19	7	12609.37	5760.988	-1346.723	1	5916.304	-13.15753	2.223274E-009	5.889721E-005	7
	20	8	10078.13	5889.008	-1509.118	1	6079.297	-14.37332	2.7033E-009	6.146752E-005	7
	21	8	8015.625	6037.681	-1707.09	1	6274.373	-15.78768	3.234779E-009	6.135825E-005	7
	22	8	6328.125	6213.702	-1949.779	1	6512.429	-17.42118	2.881912E-009	5.890508E-005	7
	23	9	5015.625	6411.604	-2233.428	1	6789.468	-19.20535	3.743277E-009	6.482699E-005	7
	24	9	3984.375	6635.678	-2558.026	1	7111.661	-21.08144	2.694841E-009	5.617081E-005	7
	25	9	3170.956	6892.2	-2937.815	1	7492.208	-23.08623	3.513096E-009	6.213171E-005	7
	26	10	2527.573	7182.569	-3371.953	1	7934.694	-25.14833	3.088641E-009	5.676445E-005	7
	27	10	1976.103	7546.514	-3924.335	1	8505.896	-27.47531	2.125403E-009	4.375707E-005	7
	28	10	1577.524	7930.514	-4517.411	1	9126.886	-29.66688	4.67685E-009	5.659275E-005	7
	29	11	1265.625	8370.763	-5168.465	1	9837.82	-31.69295	-1.464338E-010	0.0001025	6
	30	11	998.264	8896.213	-6000.962	1	10730.99	-34.00173	-2.975096E-011	0.0001109	6
	31	11	796.875	9467.062	-6923.993	1	11728.89	-36.18089	-3.096718E-011	0.0001092	6
	32	12	627.7902	10158.35	-8058.64	1	12966.64	-38.42504	2.477114E-011	0.0001031	6
	33	12	505.5147	10868.76	-9257.064	1	14276.66	-40.42148	-7.888789E-010	0.0001024	6
	34	12	397.9953	11762.69	-10815.53	1	15979.26	-42.59784	3.713443E-010	0.0001263	6
	35	13	315.5048	12753.65	-12597.2	1	17926.11	-44.64641	3.200643E-010	0.0001247	6
	36	13	252.4038	13837.72	-14614.65	1	20126.36	-46.56414	4.360191E-010	0.0001197	6
	37	13	198.6229	15176.36	-17183.14	1	22925.58	-48.54867	3.15312E-010	0.0001231	6
	38	14	158.3615	16643.03	-20068.68	1	26071.87	-50.33097	4.482167E-010	0.0001145	6
	39	14	125.558	18395.05	-23576.46	1	29903.64	-52.03761	3.734652E-010	0.0001237	6
	40	14	100.4464	20371.65	-27563.12	1	34274.32	-53.53223	4.214314E-010	0.0001205	6
	41	14	79.00281	22886.9	-32652.11	1	39874.43	-54.97217	1.586756E-010	0.0001177	6
	42	15	63.3446	25631.38	-38177.8	1	45983.83	-56.12383	4.584069E-011	0.0001139	6
	43	15	49.86702	29154.72	-45232.03	1	53813.89	-57.19583	3.64543E-010	0.0001147	6
	44	16	39.72458	33137.74	-53152.08	1	62635.88	-58.05847	3.223472E-010	0.0001183	6
	45	16	31.6723	37852.4	-62422.42	1	73002.48	-58.76775	2.009098E-010	0.0001186	6
	46	16	24.93351	43835.1	-73960.13	1	85974.51	-59.34539	7.578304E-010	0.0001168	6
	47	17	19.86229	50624.47	-86865.83	1	100541.1	-59.76683	1.747957E-009	0.0001242	6
	48	17	15.83615	58938.67	-101887.4	1	117706.5	-59.95198	-1.616723E-010	0.000123	5
	49	17	12.40079	69944.4	-120789.7	1	139579.3	-59.92662	1.152382E-009	0.0001233	5
	50	17	9.93114	81860.5	-140700.6	1	162781.4	-59.80888	8.96799E-010	0.000128	5
	51	18	7.944915	96614.2	-163560.9	1	189964.3	-59.42997	-8.326401E-010	0.0001296	5
	52	18	6.317385	114685.3	-190337.3	1	222218.4	-58.92949	2.604807E-010	0.0001157	5
	53	19	5.008013	136766.8	-220990.8	1	259888.6	-58.24746	4.643005E-010	0.000132	5
	54	20	3.945707	164017.2	-255591.2	1	303691.4	-57.31102	-6.670262E-011	0.0001115	5
	55	21	3.158693	193372.6	-291873.5	1	350118.7	-56.47465	2.486275E-010	0.0001275	5
	56	22	2.504006	228551.8	-332691.1	1	403632.6	-55.51175	-8.257581E-011	0.0001234	5
	57	23	1.998082	266296.5	-377211.5	1	461738.4	-54.7794	-1.976806E-010	8.506649E-005	5
	58	25	1.584686	309386.3	-426630.7	1	527004.4	-54.05092	-4.230755E-011	0.0001312	5
	59	27	1.266892	356232.9	-482175.7	1	599495.9	-53.5429	2.097113E-011	0.000147	5
	60	29	0.999041	409488.5	-550497.9	1	686096.8	-53.35624	5.70375E-011	0.0001415	5
