EXPLAIN
TAG	EISPOT
TITLE	LABEL	Potentiostatic EIS	Test &Identifier
DATE	LABEL	1/14/2020	Date
TIME	LABEL	17:47:25	Time
NOTES	NOTES	5	&Notes...
	
	
	
	
	
PSTAT	PSTAT	REF600-11020	Potentiostat
VDC	POTEN	0.00000E+000	T	DC &Voltage (V)
FREQINIT	QUANT	1.00000E+006	Initial Fre&q. (Hz)
FREQFINAL	QUANT	1.00000E+000	Final Fre&q. (Hz)
PTSPERDEC	QUANT	1.00000E+001	Points/&decade
VAC	QUANT	2.50000E+001	AC &Voltage (mV rms)
AREA	QUANT	1.00000E-001	&Area (cm^2)
CONDIT	TWOPARAM	T	5.00000E+000	0.00000E+000	Conditionin&g	Time(s)	E(V)
DELAY	TWOPARAM	T	5.00000E+000	0.00000E+000	Init. De&lay	Time(s)	Stab.(mV/s)
SPEED	SELECTOR	0	&Optimize for:
ZGUESS	QUANT	5.00000E+002	E&stimated Z (ohms)
OCVCURVE	TABLE	19
	Pt	T	Vf	Vm	Ach	Over
	#	s	V vs. Ref.	V	V	bits
	0	0.258333	1.01157E-002	1.01157E-002	6.46713E-004	...........
	1	0.516667	1.01151E-002	1.00848E-002	6.49213E-004	...........
	2	0.775	1.01130E-002	1.01394E-002	6.48280E-004	...........
	3	1.03333	1.01113E-002	1.01205E-002	6.46513E-004	...........
	4	1.29167	1.01135E-002	1.01531E-002	6.46980E-004	...........
	5	1.55	1.01228E-002	1.02520E-002	6.50180E-004	...........
	6	1.80833	1.01445E-002	1.03358E-002	6.47446E-004	...........
	7	2.06667	1.01857E-002	1.03831E-002	6.47280E-004	...........
	8	2.325	1.02445E-002	1.04354E-002	6.48080E-004	...........
	9	2.58333	1.03096E-002	1.04560E-002	6.51880E-004	...........
	10	2.84167	1.03700E-002	1.05483E-002	6.50946E-004	...........
	11	3.1	1.04253E-002	1.06461E-002	6.48146E-004	...........
	12	3.35833	1.04839E-002	1.07091E-002	6.52646E-004	...........
	13	3.61667	1.05513E-002	1.07613E-002	6.48746E-004	...........
	14	3.875	1.06235E-002	1.08215E-002	6.50846E-004	...........
	15	4.13333	1.06937E-002	1.09112E-002	6.53046E-004	...........
	16	4.39167	1.07619E-002	1.10221E-002	6.56713E-004	...........
	17	4.65	1.08345E-002	1.10946E-002	6.55846E-004	...........
	18	4.90833	1.09148E-002	1.11608E-002	6.46980E-004	...........
EOC	QUANT	0.0109148	Open Circuit (V)
PSTATMODEL	IQUANT	4	Pstat Model
PSTATSECTION	LABEL	REF600-11020	Pstat Section
PSTATSERIALNO	LABEL	11020	Pstat Serial Number
CTRLMODE	IQUANT	1	Control Mode
IESTAB	IQUANT	0	I/E Stability
CASPEED	IQUANT	1	Control Amp Speed
CONVENTION	IQUANT	1	Current Convention
ICHRANGE	IQUANT	2	Ich Range
ICHRANGEMODE	TOGGLE	F	Ich Auto Range
ICHOFFSETENABLE	TOGGLE	T	Ich Offset Enable
ICHOFFSET	QUANT	0	Ich Offset (V)
ICHFILTER	IQUANT	3	Ich Filter
VCHRANGE	IQUANT	2	Vch Range
VCHRANGEMODE	TOGGLE	F	Vch Auto Range
VCHOFFSETENABLE	TOGGLE	T	Vch Offset Enable
VCHOFFSET	QUANT	0	Vch Offset (V)
VCHFILTER	IQUANT	3	Vch Filter
ACHRANGE	IQUANT	2	Ach Range
ACHOFFSETENABLE	TOGGLE	F	Ach Offset Enable
ACHOFFSET	QUANT	0	Ach Offset (V)
ACHFILTER	IQUANT	3	Ach Filter
IERANGELOWERLIMIT	IQUANT	1	I/E Range Lower Limit
IERANGEMODE	TOGGLE	F	I/E AutoRange
IERANGE	IQUANT	7	I/E Range
POSFEEDENABLE	TOGGLE	F	Positive Feedback IR Comp
POSFEEDRESISTANCE	QUANT	0	Positive Feedback Resistance (ohm)
ACHSELECT	IQUANT	0	Ach Select
CABLEID	IQUANT	14	Cable ID
DCCALDATE	LABEL	12/22/2019	DC Calibration Date
ACCALDATE	LABEL	12/22/2019	AC Calibration Date
THERMOSELECT	IQUANT	1	Thermo Select
FRAMEWORKVERSION	QUANT	6.33	Framework Version
INSTRUMENTVERSION	LABEL	3.50	Instrument Version
ZCURVE	TABLE
	Pt	Time	Freq	Zreal	Zimag	Zsig	Zmod	Zphz	Idc	Vdc	IERange
	#	s	Hz	ohm	ohm	V	ohm	°	A	V	#
	0	1	1000078	2335.033	-2191.718	1	3202.5	-43.18665	9.778325E-007	0.0131521	8
	1	1	794390.6	2723.359	-2290.856	1	3558.75	-40.07013	1.055935E-006	0.0127464	8
	2	2	630984.4	3111.551	-2354.933	1	3902.238	-37.11974	5.428566E-007	0.0126469	8
	3	2	501234.4	3493.048	-2391.227	1	4233.125	-34.39428	1.105383E-006	0.0125064	8
	4	2	398109.4	3874.852	-2413.892	1	4565.233	-31.9214	-1.958429E-006	0.0130079	8
	5	3	316265.6	4233.282	-2426.142	1	4879.226	-29.81751	-1.65601E-006	0.0129598	8
	6	3	251203.1	4564.845	-2417.622	1	5165.531	-27.90648	-1.875741E-007	0.0127137	8
	7	3	199546.9	4934.26	-2470.985	1	5518.395	-26.60085	-1.712561E-006	0.012935	8
	8	3	158578.1	5241.023	-2528.701	1	5819.163	-25.75649	1.139044E-007	0.0125477	8
	9	4	125953.1	5614.445	-2529.34	1	6157.885	-24.25184	6.578685E-008	0.0124	7
	10	4	100078.1	5954.422	-2631.086	1	6509.82	-23.83924	-1.196745E-008	0.0126027	7
	11	4	79453.13	6293.779	-2721.027	1	6856.795	-23.38056	4.609171E-009	0.0125625	7
	12	5	63140.62	6650.542	-2844.125	1	7233.17	-23.15413	6.450059E-009	0.0124893	7
	13	5	50203.12	7022.523	-2991.772	1	7633.251	-23.07523	-2.612813E-008	0.0125971	7
	14	5	39890.62	7409.505	-3160.073	1	8055.236	-23.09772	-1.271662E-008	0.0125897	7
	15	6	31640.63	7818.437	-3354.695	1	8507.757	-23.22295	-2.785713E-008	0.0125757	7
	16	6	25171.88	8242.125	-3579.418	1	8985.814	-23.47451	2.966696E-008	0.0125089	7
	17	6	20015.62	8693.795	-3833.625	1	9501.51	-23.79561	-2.721406E-008	0.0125775	7
	18	7	15890.62	9172.421	-4146.739	1	10066.22	-24.32714	-1.217014E-008	0.0125948	7
	19	7	12609.37	9697.83	-4453.825	1	10671.66	-24.66743	2.185434E-009	0.012613	6
	20	7	10078.13	10227.9	-4847.252	1	11318.38	-25.35742	2.061351E-009	0.0125928	6
	21	8	8015.625	10788.25	-5302.353	1	12020.87	-26.1738	6.529422E-009	0.0125337	6
	22	8	6328.125	11413.27	-5867.457	1	12833.15	-27.20728	-4.982975E-009	0.0126045	6
	23	8	5015.625	12088.91	-6518.922	1	13734.55	-28.33569	-5.305991E-009	0.0125998	6
	24	8	3984.375	12815.39	-7270.374	1	14734.06	-29.56692	-4.590738E-009	0.0126046	6
	25	9	3170.956	13609.58	-8160.041	1	15868.42	-30.94609	-1.248752E-009	0.0126115	6
	26	9	2527.573	14507.54	-9181.615	1	17168.89	-32.32914	-6.294084E-009	0.0125845	6
	27	9	1976.103	15635.2	-10462.37	1	18812.78	-33.78867	-1.729907E-009	0.0125185	6
	28	10	1577.524	16800.79	-11802.41	1	20532.01	-35.0877	-1.17875E-009	0.0126173	6
	29	10	1265.625	18079.13	-13304.21	1	22446.75	-36.34889	1.163835E-008	0.0123466	6
	30	10	998.264	19663.57	-15105.51	1	24795.81	-37.53139	-1.502655E-009	0.0125247	6
	31	11	796.875	21316.01	-17038.38	1	27288.8	-38.63614	-4.682313E-009	0.0125999	6
	32	11	627.7902	23240.97	-19393.23	1	30269.46	-39.84302	6.264654E-009	0.0125226	6
	33	11	505.5147	25187.47	-21832.49	1	33332.66	-40.91874	1.060651E-008	0.0124113	6
	34	12	397.9953	27558.58	-24999.46	1	37208.17	-42.21239	3.726658E-010	0.0125489	6
	35	12	315.5048	30155.34	-28625.81	1	41578.62	-43.50946	4.261633E-010	0.0125529	6
	36	12	252.4038	33023.45	-32734.54	1	46498.37	-44.74827	6.89835E-010	0.0125495	6
	37	13	198.6229	36646.11	-37911	1	52727.43	-45.97195	6.634718E-010	0.0125468	6
	38	13	158.3615	40684.41	-43551.18	1	59598.04	-46.94918	5.421979E-010	0.012542	6
	39	13	125.558	45628.72	-50133.65	1	67789.11	-47.69337	6.172578E-010	0.0125464	6
	40	14	100.4464	51102.3	-57310.28	1	76784.84	-48.27732	6.450152E-010	0.0125488	6
	41	14	79.00281	57803.81	-65693.25	1	87503.63	-48.65529	4.145406E-010	0.0125394	6
	42	14	63.3446	65838.2	-74163.05	1	99170.7	-48.40295	4.243389E-012	0.0125351	5
	43	15	49.86702	73775.27	-84867.89	1	112451.5	-48.99972	-3.426841E-010	0.0125372	5
	44	15	39.72458	81608.81	-95957.2	1	125967.4	-49.61981	1.738507E-011	0.0125439	5
	45	15	31.6723	90063.08	-109169.6	1	141525.1	-50.47795	-2.120427E-010	0.0125395	5
	46	16	24.93351	100009.8	-126237.4	1	161052.3	-51.61248	-3.333375E-010	0.0125374	5
	47	16	19.86229	109791.5	-145936.4	1	182624.2	-53.04498	-4.599195E-010	0.0125399	5
	48	16	15.83615	121174.6	-169577.8	1	208422.4	-54.45169	-2.038159E-010	0.0125393	5
	49	16	12.40079	135825.4	-202172.2	1	243561.4	-56.10561	-3.662943E-010	0.0125411	5
	50	17	9.93114	149122.8	-237589.6	1	280511	-57.88562	-4.359213E-011	0.0125428	5
	51	17	7.944915	167199.5	-281119.1	1	327083.5	-59.25735	2.168593E-010	0.0125313	5
	52	18	6.317385	190315.2	-335081.1	1	385356	-60.40483	2.011134E-010	0.0125245	5
	53	19	5.008013	221039.9	-400735.4	1	457654.3	-61.1195	1.257356E-010	0.0125418	5
	54	20	3.945707	261713	-479487.9	1	546262.2	-61.3735	-4.952392E-011	0.0125339	5
	55	21	3.158693	309457.3	-564846.8	1	644061.9	-61.2834	-9.975436E-011	0.0125171	5
	56	23	2.504006	374584.3	-666560.1	1	764601.7	-60.66548	-6.254621E-012	0.0125319	5
	57	24	1.998082	451561.1	-776115.8	1	897921.6	-59.80822	-2.294209E-011	0.0125309	5
	58	26	1.584686	553509.1	-901623.6	1	1057969	-58.45412	-1.502361E-010	0.012537	4
	59	28	1.266892	667269.5	-1034612	1	1231125	-57.18013	-1.47661E-010	0.0125392	4
	60	30	0.999041	809144.6	-1181223	1	1431783	-55.58863	-1.544508E-010	0.0125598	4
