EXPLAIN
TAG	EISPOT
TITLE	LABEL	Potentiostatic EIS	Test &Identifier
DATE	LABEL	2/18/2020	Date
TIME	LABEL	15:50:34	Time
NOTES	NOTES	1	&Notes...
	
PSTAT	PSTAT	REF600-11020	Potentiostat
VDC	POTEN	0.00000E+000	T	DC &Voltage (V)
FREQINIT	QUANT	1.00000E+006	Initial Fre&q. (Hz)
FREQFINAL	QUANT	1.00000E+000	Final Fre&q. (Hz)
PTSPERDEC	QUANT	1.00000E+001	Points/&decade
VAC	QUANT	2.50000E+001	AC &Voltage (mV rms)
AREA	QUANT	1.60000E-004	&Area (cm^2)
CONDIT	TWOPARAM	F	1.50000E+001	0.00000E+000	Conditionin&g	Time(s)	E(V)
DELAY	TWOPARAM	F	1.00000E+002	0.00000E+000	Init. De&lay	Time(s)	Stab.(mV/s)
SPEED	SELECTOR	1	&Optimize for:
ZGUESS	QUANT	1.00000E+003	E&stimated Z (ohms)
OCVCURVE	TABLE	39
	Pt	T	Vf	Vm	Ach	Over
	#	s	V vs. Ref.	V	V	bits
	0	0.258333	-7.45800E-002	-7.45800E-002	5.57304E-004	...........
	1	0.516667	-7.45841E-002	-7.47984E-002	5.48905E-004	...........
	2	0.775	-7.46046E-002	-7.47362E-002	5.51105E-004	...........
	3	1.03333	-7.46510E-002	-7.49664E-002	5.53771E-004	...........
	4	1.29167	-7.47237E-002	-7.51183E-002	5.56571E-004	...........
	5	1.55	-7.48248E-002	-7.53121E-002	5.54638E-004	...........
	6	1.80833	-7.49567E-002	-7.54435E-002	5.51205E-004	...........
	7	2.06667	-7.51101E-002	-7.55491E-002	5.47271E-004	...........
	8	2.325	-7.52658E-002	-7.56408E-002	5.53705E-004	...........
	9	2.58333	-7.54076E-002	-7.57682E-002	5.51171E-004	...........
	10	2.84167	-7.55329E-002	-7.59142E-002	5.51438E-004	...........
	11	3.1	-7.56513E-002	-7.60485E-002	5.55938E-004	...........
	12	3.35833	-7.57706E-002	-7.60438E-002	5.49838E-004	...........
	13	3.61667	-7.58848E-002	-7.61206E-002	5.51038E-004	...........
	14	3.875	-7.59810E-002	-7.61963E-002	5.56271E-004	...........
	15	4.13333	-7.60562E-002	-7.61782E-002	5.53271E-004	...........
	16	4.39167	-7.61146E-002	-7.62284E-002	5.58171E-004	...........
	17	4.65	-7.61595E-002	-7.62761E-002	5.54804E-004	...........
	18	4.90833	-7.61966E-002	-7.63232E-002	5.55204E-004	...........
	19	5.16667	-7.62334E-002	-7.63621E-002	5.54438E-004	...........
	20	5.425	-7.62734E-002	-7.63993E-002	5.55371E-004	...........
	21	5.68333	-7.63151E-002	-7.64282E-002	5.51905E-004	...........
	22	5.94167	-7.63552E-002	-7.64591E-002	5.56871E-004	...........
	23	6.2	-7.63920E-002	-7.64904E-002	5.53505E-004	...........
	24	6.45833	-7.64256E-002	-7.65236E-002	5.54704E-004	...........
	25	6.71667	-7.64574E-002	-7.65472E-002	5.47238E-004	...........
	26	6.975	-7.64880E-002	-7.65736E-002	5.56071E-004	...........
	27	7.23333	-7.65173E-002	-7.65995E-002	5.51271E-004	...........
	28	7.49167	-7.65449E-002	-7.66205E-002	5.50938E-004	...........
	29	7.75	-7.65711E-002	-7.66490E-002	5.53205E-004	...........
	30	8.00833	-7.65962E-002	-7.66713E-002	5.56471E-004	...........
	31	8.26667	-7.66209E-002	-7.66953E-002	5.52505E-004	...........
	32	8.525	-7.66453E-002	-7.67187E-002	5.47338E-004	...........
	33	8.78333	-7.66695E-002	-7.67426E-002	5.54704E-004	...........
	34	9.04167	-7.66933E-002	-7.67610E-002	5.56871E-004	...........
	35	9.3	-7.67164E-002	-7.67799E-002	5.53438E-004	...........
	36	9.5583	-7.67384E-002	-7.68021E-002	5.52505E-004	...........
	37	9.8167	-7.67593E-002	-7.68229E-002	5.55238E-004	...........
	38	10.075	-7.67797E-002	-7.68381E-002	5.49171E-004	...........
EOC	QUANT	-0.0767797	Open Circuit (V)
PSTATMODEL	IQUANT	4	Pstat Model
PSTATSECTION	LABEL	REF600-11020	Pstat Section
PSTATSERIALNO	LABEL	11020	Pstat Serial Number
CTRLMODE	IQUANT	1	Control Mode
IESTAB	IQUANT	0	I/E Stability
CASPEED	IQUANT	1	Control Amp Speed
CONVENTION	IQUANT	1	Current Convention
ICHRANGE	IQUANT	2	Ich Range
ICHRANGEMODE	TOGGLE	F	Ich Auto Range
ICHOFFSETENABLE	TOGGLE	T	Ich Offset Enable
ICHOFFSET	QUANT	0	Ich Offset (V)
ICHFILTER	IQUANT	3	Ich Filter
VCHRANGE	IQUANT	2	Vch Range
VCHRANGEMODE	TOGGLE	F	Vch Auto Range
VCHOFFSETENABLE	TOGGLE	T	Vch Offset Enable
VCHOFFSET	QUANT	0	Vch Offset (V)
VCHFILTER	IQUANT	3	Vch Filter
ACHRANGE	IQUANT	2	Ach Range
ACHOFFSETENABLE	TOGGLE	F	Ach Offset Enable
ACHOFFSET	QUANT	0	Ach Offset (V)
ACHFILTER	IQUANT	3	Ach Filter
IERANGELOWERLIMIT	IQUANT	1	I/E Range Lower Limit
IERANGEMODE	TOGGLE	F	I/E AutoRange
IERANGE	IQUANT	8	I/E Range
POSFEEDENABLE	TOGGLE	F	Positive Feedback IR Comp
POSFEEDRESISTANCE	QUANT	0	Positive Feedback Resistance (ohm)
ACHSELECT	IQUANT	0	Ach Select
CABLEID	IQUANT	14	Cable ID
DCCALDATE	LABEL	1/27/2020	DC Calibration Date
ACCALDATE	LABEL	1/27/2020	AC Calibration Date
THERMOSELECT	IQUANT	1	Thermo Select
FRAMEWORKVERSION	QUANT	6.33	Framework Version
INSTRUMENTVERSION	LABEL	3.50	Instrument Version
ZCURVE	TABLE
	Pt	Time	Freq	Zreal	Zimag	Zsig	Zmod	Zphz	Idc	Vdc	IERange
	#	s	Hz	ohm	ohm	V	ohm	°	A	V	#
	0	1	1000078	1510.082	-2049.952	1	2546.105	-53.62306	-2.265843E-006	-0.0736729	8
	1	3	794390.6	1878.936	-2274.194	1	2949.976	-50.43653	4.36453E-007	-0.0749028	8
	2	4	630984.4	2318.113	-2459.075	1	3379.452	-46.69016	2.075153E-006	-0.0755579	8
	3	6	501234.4	2798.012	-2571.186	1	3799.983	-42.58094	-8.042235E-007	-0.07485	8
	4	7	398109.4	3292.594	-2647.686	1	4225.093	-38.80394	-3.084185E-006	-0.0745875	8
	5	9	316265.6	3787.416	-2637.675	1	4615.393	-34.85456	3.758523E-006	-0.0757688	8
	6	10	251203.1	4248.295	-2580.874	1	4970.807	-31.27902	-3.126012E-006	-0.0746604	8
	7	12	199546.9	4666.494	-2462.576	1	5276.404	-27.82126	-5.648067E-008	-0.0752623	8
	8	13	158578.1	5028.808	-2321.008	1	5538.591	-24.77533	3.408203E-006	-0.0757551	8
	9	15	125953.1	5370.634	-2230.193	1	5815.279	-22.55101	2.881981E-007	-0.0760931	7
	10	16	100078.1	5654.53	-2151.552	1	6050.031	-20.83185	6.272025E-008	-0.0753975	7
	11	17	79453.13	5904.454	-2100.208	1	6266.853	-19.58042	-3.146859E-008	-0.0752358	7
	12	19	63140.62	6137.199	-2083.773	1	6481.306	-18.75397	-2.307995E-008	-0.0752603	7
	13	20	50203.12	6361.905	-2101.945	1	6700.15	-18.28333	4.114866E-008	-0.0754009	7
	14	21	39890.62	6582.929	-2159.691	1	6928.146	-18.16334	6.560542E-008	-0.0754105	7
	15	23	31640.63	6809.807	-2260.956	1	7175.332	-18.36692	-1.774485E-010	-0.075207	7
	16	24	25171.88	7040.567	-2401.339	1	7438.818	-18.83306	2.712877E-008	-0.0753625	7
	17	25	20015.62	7288.57	-2591.855	1	7735.694	-19.57566	-4.13954E-008	-0.0752037	7
	18	27	15890.62	7556.436	-2828.842	1	8068.585	-20.52399	5.985882E-009	-0.0753507	7
	19	28	12609.37	7849.708	-3124.579	1	8448.723	-21.70505	-3.340947E-008	-0.0752567	7
	20	30	10078.13	8163.54	-3472.996	1	8871.589	-23.04624	1.047139E-007	-0.0754403	7
	21	31	8015.625	8514.145	-3893.749	1	9362.262	-24.5759	-8.777373E-009	-0.0753028	7
	22	32	6328.125	8934.327	-4397.281	1	9957.83	-26.20541	4.669731E-009	-0.0754459	6
	23	34	5015.625	9381.802	-5005.345	1	10633.52	-28.08065	-7.036439E-009	-0.0752318	6
	24	35	3984.375	9879.09	-5708.646	1	11409.86	-30.02154	2.105999E-009	-0.0753488	6
	25	36	3170.956	10438.62	-6534.989	1	12315.47	-32.04819	6.779107E-009	-0.075433	6
	26	38	2527.573	11068.63	-7495.552	1	13367.79	-34.10541	-2.34359E-009	-0.0751867	6
	27	39	1976.103	11847.64	-8730.239	1	14716.78	-36.3856	-3.093985E-009	-0.0752052	6
	28	40	1577.524	12678.89	-10051.56	1	16179.87	-38.40664	6.613492E-009	-0.0754371	6
	29	42	1265.625	13613.16	-11572.17	1	17867.1	-40.36694	-3.370271E-009	-0.0752311	6
	30	43	998.264	14783.64	-13482.15	1	20008.11	-42.3637	-2.994988E-009	-0.0752983	6
	31	44	796.875	16074.2	-15596.95	1	22397.43	-44.13668	-3.341207E-009	-0.0752964	6
	32	46	627.7902	17666.5	-18207.31	1	25369.49	-45.86368	-8.011306E-010	-0.0752968	6
	33	47	505.5147	19376.22	-20986.36	1	28563.36	-47.28443	5.23645E-009	-0.0752885	6
	34	49	397.9953	21559.43	-24511.74	1	32644.06	-48.66659	1.085656E-009	-0.0752853	6
	35	50	315.5048	24059.39	-28493.63	1	37292.64	-49.82299	1.251251E-009	-0.0752862	6
	36	51	252.4038	26857.46	-32912.41	1	42479.99	-50.78458	1.085724E-009	-0.0752864	6
	37	53	198.6229	30381.79	-38397.39	1	48963.39	-51.64732	8.853065E-010	-0.07528	6
	38	54	158.3615	34266.78	-44401.91	1	56086.91	-52.34116	5.774843E-010	-0.0752846	6
	39	55	125.558	38857.6	-51505.83	1	64519.48	-52.96796	1.100072E-009	-0.0752871	6
	40	57	100.4464	44085.07	-59483.32	1	74038.91	-53.45662	6.800481E-010	-0.0752893	6
	41	58	79.00281	50577.68	-68858.66	1	85437.8	-53.70218	9.398742E-010	-0.0752893	6
	42	59	63.3446	56423.86	-78892.65	1	96993.3	-54.42773	9.763359E-010	-0.0752891	6
	43	61	49.86702	67127.45	-92199.3	1	114047.4	-53.9428	-4.534301E-011	-0.0752951	5
	44	62	39.72458	76116.05	-106397.5	1	130820.8	-54.42033	9.229241E-012	-0.0752922	5
	45	64	31.6723	87701.38	-122131	1	150358	-54.31816	2.874602E-010	-0.0752918	5
	46	65	24.93351	100998.5	-141100.8	1	173522.7	-54.40531	1.438521E-010	-0.0752939	5
	47	66	19.86229	115460.5	-161786.6	1	198761.2	-54.48611	-2.131209E-010	-0.0752857	5
	48	68	15.83615	133755.9	-185156.8	1	228415.6	-54.15593	8.182859E-010	-0.0752909	5
	49	69	12.40079	154274.5	-215049.1	1	264663.4	-54.34464	-6.616638E-010	-0.0752847	5
	50	70	9.93114	172445.2	-246587.8	1	300903.4	-55.03392	-4.972591E-011	-0.0752801	5
	51	72	7.944915	193857.5	-282734.4	1	342811.2	-55.56342	5.954257E-010	-0.0752852	5
	52	74	6.317385	222532.2	-328053.5	1	396408.4	-55.84934	1.948944E-010	-0.0752729	5
	53	76	5.008013	254928.5	-381693.3	1	458997	-56.2615	2.702876E-010	-0.0752763	5
	54	78	3.945707	293994.7	-446938	1	534963.9	-56.66318	9.362991E-011	-0.0752881	5
	55	81	3.158693	337520.4	-518260.1	1	618476.8	-56.92554	2.388501E-010	-0.0752638	5
	56	84	2.504006	392942.4	-604371.5	1	720880.5	-56.96941	-7.461004E-011	-0.0752836	5
	57	87	1.998082	457039.3	-699767	1	835798.3	-56.85021	7.187165E-011	-0.0753104	5
	58	90	1.584686	536034.2	-809475.3	1	970867	-56.48749	1.099942E-010	-0.0752471	5
	59	94	1.266892	628775	-934530.5	1	1126368	-56.06637	-1.652701E-011	-0.0753647	4
	60	98	0.999041	745048.1	-1078119	1	1310510	-55.35308	1.764075E-010	-0.0752965	4
