EXPLAIN
TAG	EISPOT
TITLE	LABEL	Potentiostatic EIS	Test &Identifier
DATE	LABEL	6/26/2020	Date
TIME	LABEL	12:52:14	Time
NOTES	NOTES	1	&Notes...
	
PSTAT	PSTAT	REF600-11020	Potentiostat
VDC	POTEN	0.00000E+000	T	DC &Voltage (V)
FREQINIT	QUANT	1.00000E+006	Initial Fre&q. (Hz)
FREQFINAL	QUANT	1.00000E+000	Final Fre&q. (Hz)
PTSPERDEC	QUANT	1.00000E+001	Points/&decade
VAC	QUANT	2.50000E+001	AC &Voltage (mV rms)
AREA	QUANT	4.00000E-004	&Area (cm^2)
CONDIT	TWOPARAM	F	5.00000E+000	0.00000E+000	Conditionin&g	Time(s)	E(V)
DELAY	TWOPARAM	F	3.00000E+000	0.00000E+000	Init. De&lay	Time(s)	Stab.(mV/s)
SPEED	SELECTOR	0	&Optimize for:
ZGUESS	QUANT	1.00000E+003	E&stimated Z (ohms)
OCVCURVE	TABLE	39
	Pt	T	Vf	Vm	Ach	Over
	#	s	V vs. Ref.	V	V	bits
	0	0.258333	9.31919E-002	9.31919E-002	5.06617E-004	...........
	1	0.516667	9.31918E-002	9.31887E-002	5.11284E-004	...........
	2	0.775	9.31915E-002	9.31870E-002	5.10250E-004	...........
	3	1.03333	9.31906E-002	9.31837E-002	5.11717E-004	...........
	4	1.29167	9.31890E-002	9.31849E-002	5.12584E-004	...........
	5	1.55	9.31872E-002	9.31826E-002	5.12117E-004	...........
	6	1.80833	9.31855E-002	9.31807E-002	5.11084E-004	...........
	7	2.06667	9.31840E-002	9.31822E-002	5.14517E-004	...........
	8	2.325	9.31829E-002	9.31818E-002	5.13017E-004	...........
	9	2.58333	9.31821E-002	9.31821E-002	5.14150E-004	...........
	10	2.84167	9.31818E-002	9.31803E-002	5.06384E-004	...........
	11	3.1	9.31816E-002	9.31796E-002	5.10450E-004	...........
	12	3.35833	9.31812E-002	9.31768E-002	5.08784E-004	...........
	13	3.61667	9.31804E-002	9.31778E-002	5.08217E-004	...........
	14	3.875	9.31793E-002	9.31752E-002	5.12717E-004	...........
	15	4.13333	9.31781E-002	9.31750E-002	5.13184E-004	...........
	16	4.39167	9.31769E-002	9.31718E-002	5.12650E-004	...........
	17	4.65	9.31757E-002	9.31720E-002	5.13184E-004	...........
	18	4.90833	9.31743E-002	9.31688E-002	5.13250E-004	...........
	19	5.16667	9.31728E-002	9.31705E-002	5.14350E-004	...........
	20	5.425	9.31715E-002	9.31679E-002	5.13483E-004	...........
	21	5.68333	9.31704E-002	9.31693E-002	5.13017E-004	...........
	22	5.94167	9.31695E-002	9.31652E-002	5.10284E-004	...........
	23	6.2	9.31687E-002	9.31652E-002	5.13917E-004	...........
	24	6.45833	9.31677E-002	9.31648E-002	5.13483E-004	...........
	25	6.71667	9.31666E-002	9.31649E-002	5.08784E-004	...........
	26	6.975	9.31656E-002	9.31629E-002	5.10184E-004	...........
	27	7.23333	9.31649E-002	9.31631E-002	5.10884E-004	...........
	28	7.49167	9.31643E-002	9.31640E-002	5.07983E-004	...........
	29	7.75	9.31637E-002	9.31612E-002	5.17917E-004	...........
	30	8.00833	9.31633E-002	9.31609E-002	5.15017E-004	...........
	31	8.26667	9.31627E-002	9.31582E-002	5.12417E-004	...........
	32	8.525	9.31617E-002	9.31566E-002	5.19483E-004	...........
	33	8.78333	9.31603E-002	9.31578E-002	5.14450E-004	...........
	34	9.04167	9.31590E-002	9.31570E-002	5.17317E-004	...........
	35	9.3	9.31580E-002	9.31568E-002	5.12517E-004	...........
	36	9.5583	9.31574E-002	9.31583E-002	5.18983E-004	...........
	37	9.8167	9.31572E-002	9.31561E-002	5.15450E-004	...........
	38	10.075	9.31571E-002	9.31542E-002	5.09517E-004	...........
EOC	QUANT	0.0931571	Open Circuit (V)
PSTATMODEL	IQUANT	4	Pstat Model
PSTATSECTION	LABEL	REF600-11020	Pstat Section
PSTATSERIALNO	LABEL	11020	Pstat Serial Number
CTRLMODE	IQUANT	1	Control Mode
IESTAB	IQUANT	0	I/E Stability
CASPEED	IQUANT	1	Control Amp Speed
CONVENTION	IQUANT	1	Current Convention
ICHRANGE	IQUANT	2	Ich Range
ICHRANGEMODE	TOGGLE	F	Ich Auto Range
ICHOFFSETENABLE	TOGGLE	T	Ich Offset Enable
ICHOFFSET	QUANT	0	Ich Offset (V)
ICHFILTER	IQUANT	3	Ich Filter
VCHRANGE	IQUANT	2	Vch Range
VCHRANGEMODE	TOGGLE	F	Vch Auto Range
VCHOFFSETENABLE	TOGGLE	T	Vch Offset Enable
VCHOFFSET	QUANT	0	Vch Offset (V)
VCHFILTER	IQUANT	3	Vch Filter
ACHRANGE	IQUANT	2	Ach Range
ACHOFFSETENABLE	TOGGLE	F	Ach Offset Enable
ACHOFFSET	QUANT	0	Ach Offset (V)
ACHFILTER	IQUANT	3	Ach Filter
IERANGELOWERLIMIT	IQUANT	1	I/E Range Lower Limit
IERANGEMODE	TOGGLE	F	I/E AutoRange
IERANGE	IQUANT	8	I/E Range
POSFEEDENABLE	TOGGLE	F	Positive Feedback IR Comp
POSFEEDRESISTANCE	QUANT	0	Positive Feedback Resistance (ohm)
ACHSELECT	IQUANT	0	Ach Select
CABLEID	IQUANT	14	Cable ID
DCCALDATE	LABEL	6/26/2020	DC Calibration Date
ACCALDATE	LABEL	6/26/2020	AC Calibration Date
THERMOSELECT	IQUANT	1	Thermo Select
FRAMEWORKVERSION	QUANT	6.33	Framework Version
INSTRUMENTVERSION	LABEL	3.50	Instrument Version
ZCURVE	TABLE
	Pt	Time	Freq	Zreal	Zimag	Zsig	Zmod	Zphz	Idc	Vdc	IERange
	#	s	Hz	ohm	ohm	V	ohm	°	A	V	#
	0	1	1000078	1818.652	-2047.412	1	2738.501	-48.38631	-4.263228E-008	0.0957748	8
	1	2	794390.6	2149.179	-2239.897	1	3104.208	-46.18409	1.694307E-008	0.095416	8
	2	2	630984.4	2521.271	-2418.446	1	3493.664	-43.80751	2.696503E-007	0.095221	8
	3	2	501234.4	2923.638	-2591.408	1	3906.796	-41.55262	-3.067304E-008	0.0951323	8
	4	3	398109.4	3359.931	-2740.621	1	4335.913	-39.20337	7.186581E-008	0.095062	8
	5	3	316265.6	3828.897	-2864.338	1	4781.725	-36.79959	1.007868E-007	0.0950425	8
	6	3	251203.1	4319.342	-2960.329	1	5236.437	-34.4254	8.610434E-008	0.0950205	8
	7	4	199546.9	4832.86	-3029.975	1	5704.146	-32.08577	2.139818E-008	0.0950134	8
	8	4	158578.1	5344.713	-3068.971	1	6163.16	-29.86474	-4.642917E-008	0.0950189	8
	9	4	125953.1	5926.741	-2988.896	1	6637.752	-26.76212	2.593693E-008	0.0950215	7
	10	5	100078.1	6441.602	-2950.313	1	7085.096	-24.60822	-2.068037E-008	0.0949991	7
	11	5	79453.13	6924.207	-2878.666	1	7498.757	-22.57458	2.488288E-008	0.0949504	7
	12	5	63140.62	7378.897	-2776.594	1	7884.009	-20.62074	-1.028942E-009	0.0949453	7
	13	6	50203.12	7793.064	-2656.691	1	8233.459	-18.82447	1.396577E-008	0.0949673	7
	14	6	39890.62	8177.171	-2533.331	1	8560.601	-17.21326	-9.590733E-010	0.0949403	7
	15	6	31640.63	8517.945	-2408.549	1	8851.921	-15.78887	1.357588E-008	0.094963	7
	16	7	25171.88	8825.413	-2303.664	1	9121.117	-14.62928	-5.330772E-009	0.0949786	7
	17	7	20015.62	9109.143	-2224.491	1	9376.824	-13.72328	-1.460858E-009	0.094937	7
	18	7	15890.62	9361.837	-2163.807	1	9608.64	-13.01427	1.418034E-008	0.0949577	7
	19	7	12609.37	9657.24	-2039.782	1	9870.31	-11.92659	-2.0944E-009	0.0949937	6
	20	8	10078.13	9867.76	-2065.466	1	10081.61	-11.82216	2.465198E-010	0.094973	6
	21	8	8015.625	10074.97	-2130.141	1	10297.7	-11.93817	3.296916E-009	0.094887	6
	22	8	6328.125	10291.47	-2240.965	1	10532.63	-12.28438	3.882773E-009	0.0948986	6
	23	9	5015.625	10506.78	-2398.207	1	10777.01	-12.85767	-4.270313E-009	0.0949872	6
	24	9	3984.375	10736.7	-2608.475	1	11049.02	-13.65541	3.268311E-009	0.094919	6
	25	9	3170.956	10973.72	-2875.972	1	11344.32	-14.68569	-1.029589E-009	0.0949111	6
	26	10	2527.573	11239.92	-3205.95	1	11688.2	-15.91967	1.250231E-009	0.0949476	6
	27	10	1976.103	11557.17	-3645.219	1	12118.41	-17.50567	1.420408E-009	0.0949515	6
	28	10	1577.524	11877.56	-4131.936	1	12575.74	-19.18163	-9.127252E-010	0.0949154	6
	29	11	1265.625	12229	-4695.863	1	13099.6	-21.00649	-1.149018E-009	0.0949774	6
	30	11	998.264	12647.07	-5420.646	1	13759.79	-23.2004	1.395645E-009	0.0949483	6
	31	11	796.875	13081.4	-6242.544	1	14494.56	-25.51084	2.434875E-009	0.0949331	6
	32	12	627.7902	13585.68	-7289.166	1	15417.61	-28.21502	1.409182E-009	0.0948853	6
	33	12	505.5147	14097.8	-8430.895	1	16426.44	-30.88065	-1.047761E-009	0.0949766	6
	34	12	397.9953	14717.05	-9965.43	1	17773.61	-34.10331	4.329123E-010	0.0949615	6
	35	13	315.5048	15401.15	-11780.96	1	19390.37	-37.41384	5.015051E-010	0.0949596	6
	36	13	252.4038	16149.03	-13899.83	1	21307.2	-40.71932	4.245468E-010	0.0949601	6
	37	13	198.6229	17081.36	-16674.43	1	23870.68	-44.30932	4.474058E-010	0.0949599	6
	38	13	158.3615	18116.44	-19875.42	1	26893.08	-47.65083	5.193934E-010	0.094958	6
	39	14	125.558	19375.02	-23867.97	1	30742.01	-50.93176	4.949378E-010	0.0949613	6
	40	14	100.4464	20827.79	-28531.43	1	35324.77	-53.87076	5.057771E-010	0.0949611	6
	41	14	79.00281	22741.59	-34659.83	1	41454.6	-56.72964	5.202827E-010	0.0949544	6
	42	15	63.3446	24918.88	-41530.52	1	48432.78	-59.03567	4.92774E-010	0.0949535	6
	43	15	49.86702	27927.61	-50568.71	1	57768.04	-61.08942	4.991697E-010	0.0949504	6
	44	16	39.72458	31636.46	-60987.36	1	68704.61	-62.58251	3.833374E-010	0.0949562	6
	45	16	31.6723	36457.12	-73421.67	1	81974.77	-63.59356	4.138259E-010	0.0949579	6
	46	16	24.93351	43193.08	-89109.27	1	99025.8	-64.13959	7.665031E-011	0.0949503	6
	47	17	19.86229	51686.33	-106702.9	1	118562.1	-64.15469	-1.205689E-009	0.0949448	5
	48	17	15.83615	62789.21	-126876.4	1	141563	-63.66988	1.200105E-009	0.0949389	5
	49	17	12.40079	78543.35	-151715.2	1	170840.8	-62.62928	5.98571E-010	0.0949405	5
	50	17	9.93114	96852.4	-176741.9	1	201539.3	-61.27779	1.126936E-009	0.0949372	5
	51	18	7.944915	118919.7	-203993.9	1	236125.9	-59.75964	1.316169E-009	0.0949281	5
	52	18	6.317385	147216.7	-233707.5	1	276210	-57.7924	-3.07278E-011	0.0949426	5
	53	19	5.008013	180566.6	-264624.9	1	320360.1	-55.69236	3.795394E-010	0.094941	5
	54	20	3.945707	219663.1	-297565.8	1	369861.2	-53.56525	4.579978E-010	0.0949337	5
	55	21	3.158693	259042.7	-327834.1	1	417825.7	-51.68548	2.080818E-010	0.0949483	5
	56	22	2.504006	303508.9	-360918.8	1	471571.9	-49.93838	-1.772097E-010	0.0949274	5
	57	23	1.998082	345865	-394336.4	1	524522.4	-48.74661	2.753428E-011	0.0949339	5
	58	25	1.584686	392049.3	-432863.5	1	584015	-47.83252	2.153565E-010	0.0949735	5
	59	27	1.266892	434578.2	-477742.1	1	645829.5	-47.70877	1.827094E-010	0.0949583	5
	60	29	0.999041	478446.5	-534296.1	1	717205.2	-48.15649	1.559555E-010	0.0949353	5
