EXPLAIN
TAG	EISPOT
TITLE	LABEL	Potentiostatic EIS	Test &Identifier
DATE	LABEL	2/13/2020	Date
TIME	LABEL	10:26:20	Time
NOTES	NOTES	1	&Notes...
	
PSTAT	PSTAT	REF600-11020	Potentiostat
VDC	POTEN	0.00000E+000	T	DC &Voltage (V)
FREQINIT	QUANT	1.00000E+006	Initial Fre&q. (Hz)
FREQFINAL	QUANT	1.00000E+000	Final Fre&q. (Hz)
PTSPERDEC	QUANT	1.00000E+001	Points/&decade
VAC	QUANT	2.50000E+001	AC &Voltage (mV rms)
AREA	QUANT	5.00000E-004	&Area (cm^2)
CONDIT	TWOPARAM	F	1.50000E+001	0.00000E+000	Conditionin&g	Time(s)	E(V)
DELAY	TWOPARAM	F	1.00000E+002	0.00000E+000	Init. De&lay	Time(s)	Stab.(mV/s)
SPEED	SELECTOR	0	&Optimize for:
ZGUESS	QUANT	1.00000E+003	E&stimated Z (ohms)
OCVCURVE	TABLE	39
	Pt	T	Vf	Vm	Ach	Over
	#	s	V vs. Ref.	V	V	bits
	0	0.258333	4.05676E-002	4.05676E-002	5.74971E-004	...........
	1	0.516667	4.05670E-002	4.05330E-002	5.69738E-004	...........
	2	0.775	4.05628E-002	4.04950E-002	5.79637E-004	...........
	3	1.03333	4.05510E-002	4.04741E-002	5.79771E-004	...........
	4	1.29167	4.05304E-002	4.04445E-002	5.76138E-004	...........
	5	1.55	4.05040E-002	4.04164E-002	5.74371E-004	...........
	6	1.80833	4.04756E-002	4.03884E-002	5.74437E-004	...........
	7	2.06667	4.04472E-002	4.03670E-002	5.76004E-004	...........
	8	2.325	4.04196E-002	4.03427E-002	5.75338E-004	...........
	9	2.58333	4.03932E-002	4.03088E-002	5.71371E-004	...........
	10	2.84167	4.03674E-002	4.02894E-002	5.71938E-004	...........
	11	3.1	4.03414E-002	4.02613E-002	5.78571E-004	...........
	12	3.35833	4.03154E-002	4.02375E-002	5.75771E-004	...........
	13	3.61667	4.02897E-002	4.02141E-002	5.74004E-004	...........
	14	3.875	4.02645E-002	4.01896E-002	5.76504E-004	...........
	15	4.13333	4.02399E-002	4.01697E-002	5.77837E-004	...........
	16	4.39167	4.02162E-002	4.01551E-002	5.74204E-004	...........
	17	4.65	4.01944E-002	4.01497E-002	5.73904E-004	...........
	18	4.90833	4.01753E-002	4.01208E-002	5.76871E-004	...........
	19	5.16667	4.01591E-002	4.01298E-002	5.78871E-004	...........
	20	5.425	4.01452E-002	4.01146E-002	5.76838E-004	...........
	21	5.68333	4.01337E-002	4.01042E-002	5.77504E-004	...........
	22	5.94167	4.01241E-002	4.00963E-002	5.81304E-004	...........
	23	6.2	4.01152E-002	4.00918E-002	5.79171E-004	...........
	24	6.45833	4.01066E-002	4.00855E-002	5.76038E-004	...........
	25	6.71667	4.00988E-002	4.00767E-002	5.77671E-004	...........
	26	6.975	4.00918E-002	4.00747E-002	5.79104E-004	...........
	27	7.23333	4.00854E-002	4.00701E-002	5.74671E-004	...........
	28	7.49167	4.00798E-002	4.00705E-002	5.70838E-004	...........
	29	7.75	4.00753E-002	4.00647E-002	5.71838E-004	...........
	30	8.00833	4.00717E-002	4.00599E-002	5.76871E-004	...........
	31	8.26667	4.00683E-002	4.00507E-002	5.75771E-004	...........
	32	8.525	4.00641E-002	4.00484E-002	5.78304E-004	...........
	33	8.78333	4.00591E-002	4.00455E-002	5.80704E-004	...........
	34	9.04167	4.00539E-002	4.00390E-002	5.82104E-004	...........
	35	9.3	4.00490E-002	4.00355E-002	5.75071E-004	...........
	36	9.5583	4.00446E-002	4.00340E-002	5.80871E-004	...........
	37	9.8167	4.00404E-002	4.00272E-002	5.79537E-004	...........
	38	10.075	4.00365E-002	4.00268E-002	5.76504E-004	...........
EOC	QUANT	0.0400365	Open Circuit (V)
PSTATMODEL	IQUANT	4	Pstat Model
PSTATSECTION	LABEL	REF600-11020	Pstat Section
PSTATSERIALNO	LABEL	11020	Pstat Serial Number
CTRLMODE	IQUANT	1	Control Mode
IESTAB	IQUANT	0	I/E Stability
CASPEED	IQUANT	1	Control Amp Speed
CONVENTION	IQUANT	1	Current Convention
ICHRANGE	IQUANT	2	Ich Range
ICHRANGEMODE	TOGGLE	F	Ich Auto Range
ICHOFFSETENABLE	TOGGLE	T	Ich Offset Enable
ICHOFFSET	QUANT	0	Ich Offset (V)
ICHFILTER	IQUANT	3	Ich Filter
VCHRANGE	IQUANT	2	Vch Range
VCHRANGEMODE	TOGGLE	F	Vch Auto Range
VCHOFFSETENABLE	TOGGLE	T	Vch Offset Enable
VCHOFFSET	QUANT	0	Vch Offset (V)
VCHFILTER	IQUANT	3	Vch Filter
ACHRANGE	IQUANT	2	Ach Range
ACHOFFSETENABLE	TOGGLE	F	Ach Offset Enable
ACHOFFSET	QUANT	0	Ach Offset (V)
ACHFILTER	IQUANT	3	Ach Filter
IERANGELOWERLIMIT	IQUANT	1	I/E Range Lower Limit
IERANGEMODE	TOGGLE	F	I/E AutoRange
IERANGE	IQUANT	7	I/E Range
POSFEEDENABLE	TOGGLE	F	Positive Feedback IR Comp
POSFEEDRESISTANCE	QUANT	0	Positive Feedback Resistance (ohm)
ACHSELECT	IQUANT	0	Ach Select
CABLEID	IQUANT	14	Cable ID
DCCALDATE	LABEL	1/27/2020	DC Calibration Date
ACCALDATE	LABEL	1/27/2020	AC Calibration Date
THERMOSELECT	IQUANT	1	Thermo Select
FRAMEWORKVERSION	QUANT	6.33	Framework Version
INSTRUMENTVERSION	LABEL	3.50	Instrument Version
ZCURVE	TABLE
	Pt	Time	Freq	Zreal	Zimag	Zsig	Zmod	Zphz	Idc	Vdc	IERange
	#	s	Hz	ohm	ohm	V	ohm	°	A	V	#
	0	1	1000078	1816.054	-1679.545	1	2473.646	-42.76363	-3.443208E-006	0.0423824	8
	1	1	794390.6	2141.475	-1761.149	1	2772.645	-39.43389	2.297105E-007	0.0419959	8
	2	1	630984.4	2482.162	-1796.277	1	3063.942	-35.8923	2.818063E-006	0.041392	8
	3	2	501234.4	2845.181	-1783.864	1	3358.158	-32.08678	-6.173868E-008	0.0416042	8
	4	2	398109.4	3192.439	-1709.924	1	3621.534	-28.17426	8.599288E-007	0.0414628	8
	5	2	316265.6	3497.877	-1600.641	1	3846.712	-24.589	-2.366206E-006	0.0420969	8
	6	3	251203.1	3749.83	-1462.979	1	4025.113	-21.31301	-1.238543E-006	0.0417171	8
	7	3	199546.9	3977.816	-1328.21	1	4193.705	-18.46439	2.280307E-006	0.041061	8
	8	3	158578.1	4139.34	-1190.353	1	4307.096	-16.04369	-1.016325E-006	0.0416786	8
	9	4	125953.1	4316.945	-994.023	1	4429.909	-12.96695	-9.408488E-007	0.0435437	7
	10	4	100078.1	4425.25	-883.947	1	4512.671	-11.2962	-2.519953E-008	0.0415557	7
	11	4	79453.13	4513.678	-794.9943	1	4583.154	-9.98906	-2.588712E-008	0.0415484	7
	12	4	63140.62	4588.996	-725.6143	1	4646.009	-8.985248	2.542141E-008	0.041514	7
	13	5	50203.12	4653.562	-673.6607	1	4702.069	-8.237053	3.169103E-008	0.0414225	7
	14	5	39890.62	4711.798	-638.117	1	4754.812	-7.712621	8.519113E-009	0.0415383	7
	15	5	31640.63	4766.468	-620.5	1	4806.687	-7.417068	-1.91831E-008	0.0415057	7
	16	6	25171.88	4819.647	-617.2624	1	4859.013	-7.298262	-1.986287E-008	0.0415092	7
	17	6	20015.62	4871.748	-628.6255	1	4912.138	-7.352529	-2.448539E-008	0.041479	7
	18	6	15890.62	4927.642	-655.3476	1	4971.029	-7.575549	4.302226E-008	0.0413663	7
	19	7	12609.37	4981.769	-699.045	1	5030.575	-7.987628	-5.645305E-009	0.0414659	7
	20	7	10078.13	5036.973	-757.7997	1	5093.659	-8.555837	1.124136E-008	0.04147	7
	21	7	8015.625	5096.136	-839.1591	1	5164.765	-9.35074	-3.929209E-008	0.0415256	7
	22	7	6328.125	5162.518	-946.2967	1	5248.53	-10.38709	-3.254429E-008	0.0415236	7
	23	8	5015.625	5229.867	-1082.48	1	5340.719	-11.69398	-1.7947E-008	0.0415052	7
	24	8	3984.375	5300.554	-1250.202	1	5445.996	-13.27137	-1.324637E-008	0.0415488	7
	25	8	3170.956	5378.714	-1457.643	1	5572.728	-15.16308	-3.322251E-008	0.0415218	7
	26	9	2527.573	5464.087	-1714.114	1	5726.643	-17.41692	1.568415E-008	0.0413959	7
	27	9	1976.103	5568.501	-2061.701	1	5937.914	-20.31674	-3.20833E-008	0.0415205	7
	28	9	1577.524	5685.776	-2453.721	1	6192.641	-23.34282	7.46651E-008	0.0414044	7
	29	10	1265.625	5806.366	-2925.206	1	6501.593	-26.73864	-3.922356E-008	0.0415178	7
	30	10	998.264	5971.997	-3551.651	1	6948.307	-30.74069	-2.638237E-008	0.0415262	7
	31	10	796.875	6158.061	-4275.333	1	7496.678	-34.77094	-3.150031E-008	0.0415185	7
	32	10	627.7902	6403.765	-5211.932	1	8256.66	-39.14165	1.692093E-008	0.0413946	7
	33	11	505.5147	6681.706	-6256.147	1	9153.392	-43.11608	9.656865E-009	0.0415172	7
	34	11	397.9953	7061.24	-7638.528	1	10402.32	-47.24896	8.953585E-010	0.0414847	6
	35	11	315.5048	7524.112	-9282.57	1	11948.99	-50.97304	5.31629E-010	0.0414814	6
	36	12	252.4038	8076.021	-11187.65	1	13798.03	-54.17564	1.434603E-009	0.0414778	6
	37	12	198.6229	8817.747	-13657.07	1	16256.33	-57.15152	9.015275E-010	0.0414763	6
	38	12	158.3615	9695.93	-16473.67	1	19115.25	-59.52016	6.987027E-010	0.0414794	6
	39	13	125.558	10806.74	-19941.33	1	22681.32	-61.54556	7.477698E-010	0.0414785	6
	40	13	100.4464	12144.03	-23919.96	1	26826.14	-63.08335	6.268248E-011	0.0414733	6
	41	13	79.00281	13968.3	-29105.2	1	32283.52	-64.36251	8.098442E-010	0.0414741	6
	42	14	63.3446	15659.7	-34819.09	1	38178.47	-65.78442	1.178276E-009	0.0414698	6
	43	14	49.86702	18495.13	-42160.16	1	46038.55	-66.31355	1.123424E-009	0.0414691	6
	44	14	39.72458	22087.73	-50576.39	1	55189.12	-66.40813	1.254103E-009	0.0414745	6
	45	15	31.6723	26350.65	-60215.21	1	65728.45	-66.36543	5.071614E-010	0.0414736	6
	46	15	24.93351	31817.62	-72502.23	1	79176.6	-66.30572	6.489514E-010	0.0414726	6
	47	15	19.86229	38441.16	-86132.82	1	94321.71	-65.94875	1.587664E-009	0.0414764	6
	48	16	15.83615	47496.02	-101002.2	1	111612.3	-64.81486	-2.076825E-009	0.0414755	5
	49	16	12.40079	56407.98	-121005.9	1	133507.6	-65.007	4.375391E-010	0.0414751	5
	50	16	9.93114	69076.95	-141560.2	1	157514.8	-63.98907	6.107561E-010	0.0414711	5
	51	17	7.944915	83028.41	-165694.6	1	185333.3	-63.38487	-3.679625E-010	0.0414747	5
	52	17	6.317385	100556.1	-193289	1	217881.1	-62.51488	-1.812834E-010	0.0414807	5
	53	18	5.008013	121920	-225620.9	1	256455.2	-61.6143	1.953768E-010	0.0414778	5
	54	19	3.945707	148471.2	-263093.5	1	302095.8	-60.56271	-3.404508E-011	0.041464	5
	55	21	3.158693	178218	-303101.2	1	351613.4	-59.54524	2.780556E-010	0.0414677	5
	56	22	2.504006	214155.4	-348867.6	1	409354.5	-58.45595	2.269089E-010	0.0414729	5
	57	24	1.998082	255293.8	-398369.6	1	473152.4	-57.34636	-3.872975E-011	0.0414199	5
	58	25	1.584686	301919.3	-454693	1	545803	-56.41557	4.902476E-013	0.0414467	5
	59	27	1.266892	354235.2	-513664.7	1	623966.3	-55.40894	9.587507E-011	0.0414838	5
	60	30	0.999041	416497.3	-584588.9	1	717784.3	-54.53157	1.303326E-010	0.0414977	5
