EXPLAIN
TAG	EISPOT
TITLE	LABEL	Potentiostatic EIS	Test &Identifier
DATE	LABEL	1/14/2020	Date
TIME	LABEL	14:46:49	Time
NOTES	NOTES	5	&Notes...
	
	
	
	
	
PSTAT	PSTAT	REF600-11020	Potentiostat
VDC	POTEN	0.00000E+000	T	DC &Voltage (V)
FREQINIT	QUANT	1.00000E+006	Initial Fre&q. (Hz)
FREQFINAL	QUANT	1.00000E+000	Final Fre&q. (Hz)
PTSPERDEC	QUANT	1.00000E+001	Points/&decade
VAC	QUANT	2.50000E+001	AC &Voltage (mV rms)
AREA	QUANT	1.00000E-001	&Area (cm^2)
CONDIT	TWOPARAM	T	5.00000E+000	0.00000E+000	Conditionin&g	Time(s)	E(V)
DELAY	TWOPARAM	T	5.00000E+000	0.00000E+000	Init. De&lay	Time(s)	Stab.(mV/s)
SPEED	SELECTOR	0	&Optimize for:
ZGUESS	QUANT	5.00000E+002	E&stimated Z (ohms)
OCVCURVE	TABLE	19
	Pt	T	Vf	Vm	Ach	Over
	#	s	V vs. Ref.	V	V	bits
	0	0.258333	9.05265E-003	9.05265E-003	5.45981E-004	...........
	1	0.516667	9.05393E-003	9.11962E-003	5.58681E-004	...........
	2	0.775	9.06209E-003	9.19886E-003	5.56581E-004	...........
	3	1.03333	9.08651E-003	9.29314E-003	5.43181E-004	...........
	4	1.29167	9.13393E-003	9.39740E-003	5.40781E-004	...........
	5	1.55	9.20391E-003	9.49474E-003	5.45515E-004	...........
	6	1.80833	9.29061E-003	9.59893E-003	5.37548E-004	...........
	7	2.06667	9.38707E-003	9.70522E-003	5.36181E-004	...........
	8	2.325	9.48847E-003	9.81878E-003	5.54181E-004	...........
	9	2.58333	9.59290E-003	9.92510E-003	5.49414E-004	...........
	10	2.84167	9.69988E-003	1.00429E-002	5.41781E-004	...........
	11	3.1	9.80892E-003	1.01452E-002	5.49881E-004	...........
	12	3.35833	9.91899E-003	1.02529E-002	5.53781E-004	...........
	13	3.61667	1.00285E-002	1.03511E-002	5.59248E-004	...........
	14	3.875	1.01360E-002	1.04471E-002	5.39548E-004	...........
	15	4.13333	1.02402E-002	1.05414E-002	5.45814E-004	...........
	16	4.39167	1.03408E-002	1.06310E-002	5.54914E-004	...........
	17	4.65	1.04377E-002	1.07164E-002	5.52581E-004	...........
	18	4.90833	1.05313E-002	1.08067E-002	5.36515E-004	...........
EOC	QUANT	0.0105313	Open Circuit (V)
PSTATMODEL	IQUANT	4	Pstat Model
PSTATSECTION	LABEL	REF600-11020	Pstat Section
PSTATSERIALNO	LABEL	11020	Pstat Serial Number
CTRLMODE	IQUANT	1	Control Mode
IESTAB	IQUANT	0	I/E Stability
CASPEED	IQUANT	1	Control Amp Speed
CONVENTION	IQUANT	1	Current Convention
ICHRANGE	IQUANT	2	Ich Range
ICHRANGEMODE	TOGGLE	F	Ich Auto Range
ICHOFFSETENABLE	TOGGLE	T	Ich Offset Enable
ICHOFFSET	QUANT	0	Ich Offset (V)
ICHFILTER	IQUANT	3	Ich Filter
VCHRANGE	IQUANT	2	Vch Range
VCHRANGEMODE	TOGGLE	F	Vch Auto Range
VCHOFFSETENABLE	TOGGLE	T	Vch Offset Enable
VCHOFFSET	QUANT	0	Vch Offset (V)
VCHFILTER	IQUANT	3	Vch Filter
ACHRANGE	IQUANT	2	Ach Range
ACHOFFSETENABLE	TOGGLE	F	Ach Offset Enable
ACHOFFSET	QUANT	0	Ach Offset (V)
ACHFILTER	IQUANT	3	Ach Filter
IERANGELOWERLIMIT	IQUANT	1	I/E Range Lower Limit
IERANGEMODE	TOGGLE	F	I/E AutoRange
IERANGE	IQUANT	7	I/E Range
POSFEEDENABLE	TOGGLE	F	Positive Feedback IR Comp
POSFEEDRESISTANCE	QUANT	0	Positive Feedback Resistance (ohm)
ACHSELECT	IQUANT	0	Ach Select
CABLEID	IQUANT	14	Cable ID
DCCALDATE	LABEL	12/22/2019	DC Calibration Date
ACCALDATE	LABEL	12/22/2019	AC Calibration Date
THERMOSELECT	IQUANT	1	Thermo Select
FRAMEWORKVERSION	QUANT	6.33	Framework Version
INSTRUMENTVERSION	LABEL	3.50	Instrument Version
ZCURVE	TABLE
	Pt	Time	Freq	Zreal	Zimag	Zsig	Zmod	Zphz	Idc	Vdc	IERange
	#	s	Hz	ohm	ohm	V	ohm	°	A	V	#
	0	1	1000078	2503.24	-1726.012	1	3040.614	-34.5867	-2.970911E-006	0.0126319	8
	1	1	794390.6	2836.199	-1665.331	1	3288.975	-30.42018	1.15517E-006	0.0122467	8
	2	1	630984.4	3143.998	-1575.156	1	3516.51	-26.61106	-1.588819E-007	0.0121004	8
	3	2	501234.4	3406.736	-1441.377	1	3699.111	-22.93303	-3.033185E-006	0.0127635	8
	4	2	398109.4	3617.79	-1286.039	1	3839.57	-19.5691	3.408918E-007	0.0119643	8
	5	2	316265.6	3809.762	-1151.561	1	3979.997	-16.81828	7.533216E-007	0.011871	8
	6	3	251203.1	3938.241	-1015.856	1	4067.15	-14.46396	8.51243E-008	0.0120044	8
	7	3	199546.9	4044.945	-913.9001	1	4146.901	-12.73144	-2.804907E-006	0.0126227	8
	8	3	158578.1	4113.59	-818.2384	1	4194.179	-11.24992	5.244491E-007	0.011824	8
	9	4	125953.1	4229.682	-695.5397	1	4286.488	-9.33829	2.135562E-007	0.0119841	7
	10	4	100078.1	4276.606	-649.0875	1	4325.584	-8.630274	7.712227E-008	0.0118543	7
	11	4	79453.13	4331.545	-620.7467	1	4375.798	-8.155437	7.648001E-008	0.0118486	7
	12	5	63140.62	4383.443	-609.4153	1	4425.603	-7.914906	-1.931268E-008	0.0119812	7
	13	5	50203.12	4434.333	-612.8288	1	4476.48	-7.868485	-8.208097E-009	0.0119688	7
	14	5	39890.62	4485.989	-632.558	1	4530.367	-8.026217	-7.290783E-009	0.0119668	7
	15	6	31640.63	4540.918	-671.3818	1	4590.283	-8.410338	-1.882671E-008	0.0119837	7
	16	6	25171.88	4599.945	-723.1414	1	4656.439	-8.93415	-7.875231E-009	0.0119717	7
	17	6	20015.62	4667.351	-795.6226	1	4734.679	-9.67397	8.220721E-009	0.0119925	7
	18	6	15890.62	4742.588	-882.314	1	4823.963	-10.53886	-2.432907E-008	0.0119985	7
	19	7	12609.37	4824.488	-996.653	1	4926.357	-11.67209	-5.336058E-010	0.0120004	7
	20	7	10078.13	4916.937	-1125.589	1	5044.127	-12.89402	-1.625606E-008	0.012066	7
	21	7	8015.625	5021.439	-1281.982	1	5182.502	-14.32178	-1.872358E-008	0.0119801	7
	22	8	6328.125	5146.348	-1474.177	1	5353.326	-15.98441	2.740928E-008	0.0118911	7
	23	8	5015.625	5282.687	-1698.685	1	5549.082	-17.82556	-1.829539E-008	0.0120376	7
	24	8	3984.375	5433.558	-1958.774	1	5775.841	-19.82401	-1.668892E-008	0.0120601	7
	25	9	3170.956	5600.539	-2264.295	1	6040.95	-22.01346	-4.144541E-008	0.012051	7
	26	9	2527.573	5783.524	-2625.461	1	6351.551	-24.41592	-2.471449E-008	0.0119917	7
	27	9	1976.103	6003.051	-3094.759	1	6753.825	-27.27251	8.491607E-008	0.0118632	7
	28	10	1577.524	6228.472	-3615.459	1	7201.764	-30.134	2.698239E-008	0.0118845	7
	29	10	1265.625	6472.725	-4227.462	1	7730.951	-33.14933	2.751105E-008	0.0118833	7
	30	10	998.264	6766.246	-5023.139	1	8426.98	-36.58953	7.363307E-009	0.0119867	7
	31	11	796.875	7083.154	-5941.242	1	9244.968	-39.98941	2.845741E-008	0.0118807	7
	32	11	627.7902	7469.069	-7123.252	1	10321.23	-43.64243	1.887886E-009	0.0120163	6
	33	11	505.5147	7874.456	-8444.088	1	11545.98	-46.99921	1.217952E-008	0.0117768	6
	34	12	397.9953	8400.64	-10204.96	1	13217.87	-50.53907	8.017075E-010	0.0119714	6
	35	12	315.5048	9006.43	-12294.07	1	15240.08	-53.77412	6.80095E-010	0.0119689	6
	36	12	252.4038	9698.12	-14727	1	17633.44	-56.63404	5.892192E-010	0.0119642	6
	37	13	198.6229	10587.31	-17906.72	1	20802.45	-59.40638	7.812428E-010	0.0119662	6
	38	13	158.3615	11597.34	-21567.43	1	24487.8	-61.73199	6.03792E-010	0.0119646	6
	39	13	125.558	12842.86	-26131.65	1	29117.04	-63.82738	8.077884E-010	0.0119654	6
	40	14	100.4464	14295.82	-31448.14	1	34544.98	-65.55422	1.038672E-009	0.0119612	6
	41	14	79.00281	16250.24	-38453.64	1	41746.29	-67.09142	8.435619E-010	0.011962	6
	42	14	63.3446	18282.77	-46413.14	1	49884.26	-68.49984	3.388185E-010	0.0119621	6
	43	15	49.86702	21316.99	-56718.67	1	60592.25	-69.40191	6.673825E-010	0.0119615	6
	44	15	39.72458	25172.25	-68705.27	1	73171.42	-69.87817	6.005016E-010	0.0119659	6
	45	15	31.6723	30084.46	-83068.79	1	88348.73	-70.09148	8.601078E-010	0.011964	6
	46	16	24.93351	36726.61	-101425.8	1	107870.5	-70.09451	-2.70455E-010	0.011961	5
	47	16	19.86229	45245.17	-122188.2	1	130296.1	-69.68087	4.023771E-010	0.0119649	5
	48	16	15.83615	55632.48	-146626.7	1	156825.9	-69.22247	-4.630457E-010	0.0119607	5
	49	16	12.40079	72187.52	-177176.8	1	191318.2	-67.83244	-6.546929E-010	0.0119609	5
	50	17	9.93114	91357.58	-208575.7	1	227706	-66.34626	-1.03619E-009	0.0119617	5
	51	17	7.944915	114920.5	-243547.6	1	269299.3	-64.73923	-6.703462E-010	0.0119619	5
	52	18	6.317385	144820.6	-284123	1	318902.7	-62.99157	-1.518573E-010	0.0119614	5
	53	18	5.008013	181338.3	-328073.9	1	374854.7	-61.06898	-2.675343E-010	0.0119527	5
	54	19	3.945707	225113.4	-376218.6	1	438425	-59.10546	1.081738E-010	0.0119627	5
	55	20	3.158693	271969.1	-424328	1	504005.4	-57.34254	-1.873858E-010	0.011971	5
	56	22	2.504006	325259	-478818.8	1	578844.4	-55.81195	-2.100795E-010	0.0119601	5
	57	23	1.998082	381761.9	-535785.1	1	657881.3	-54.52906	1.959407E-011	0.0120007	5
	58	25	1.584686	442324.8	-603525.6	1	748260.9	-53.76226	-1.440359E-011	0.0119845	5
	59	27	1.266892	506868.3	-676050.3	1	844961.2	-53.13929	-1.005563E-010	0.0119453	5
	60	29	0.999041	584201.3	-768428.6	1	965284	-52.75592	-1.183094E-010	0.0119211	5
