EXPLAIN
TAG	EISPOT
TITLE	LABEL	Potentiostatic EIS	Test &Identifier
DATE	LABEL	6/14/2020	Date
TIME	LABEL	20:48:43	Time
NOTES	NOTES	1	&Notes...
	
PSTAT	PSTAT	REF600-10037	Potentiostat
VDC	POTEN	0.00000E+000	T	DC &Voltage (V)
FREQINIT	QUANT	1.00000E+006	Initial Fre&q. (Hz)
FREQFINAL	QUANT	1.00000E+000	Final Fre&q. (Hz)
PTSPERDEC	QUANT	1.00000E+001	Points/&decade
VAC	QUANT	2.50000E+001	AC &Voltage (mV rms)
AREA	QUANT	2.50000E-001	&Area (cm^2)
CONDIT	TWOPARAM	F	5.00000E+000	0.00000E+000	Conditionin&g	Time(s)	E(V)
DELAY	TWOPARAM	F	3.00000E+000	0.00000E+000	Init. De&lay	Time(s)	Stab.(mV/s)
SPEED	SELECTOR	0	&Optimize for:
ZGUESS	QUANT	1.00000E+003	E&stimated Z (ohms)
OCVCURVE	TABLE	39
	Pt	T	Vf	Vm	Ach	Over
	#	s	V vs. Ref.	V	V	bits
	0	0.258333	-7.04758E-002	-7.04758E-002	5.72387E-004	...........
	1	0.516667	-7.04792E-002	-7.06574E-002	5.64554E-004	...........
	2	0.775	-7.05005E-002	-7.08288E-002	5.64353E-004	...........
	3	1.03333	-7.05608E-002	-7.09954E-002	5.64687E-004	...........
	4	1.29167	-7.06686E-002	-7.11551E-002	5.62154E-004	...........
	5	1.55	-7.08123E-002	-7.13077E-002	5.67020E-004	...........
	6	1.80833	-7.09722E-002	-7.14565E-002	5.65587E-004	...........
	7	2.06667	-7.11339E-002	-7.16049E-002	5.70520E-004	...........
	8	2.325	-7.12913E-002	-7.17519E-002	5.71120E-004	...........
	9	2.58333	-7.14434E-002	-7.18808E-002	5.56520E-004	...........
	10	2.84167	-7.15906E-002	-7.20150E-002	5.58554E-004	...........
	11	3.1	-7.17329E-002	-7.21549E-002	5.60887E-004	...........
	12	3.35833	-7.18710E-002	-7.22800E-002	5.54187E-004	...........
	13	3.61667	-7.20061E-002	-7.24064E-002	5.60654E-004	...........
	14	3.875	-7.21389E-002	-7.25416E-002	5.63254E-004	...........
	15	4.13333	-7.22696E-002	-7.26618E-002	5.64820E-004	...........
	16	4.39167	-7.23989E-002	-7.27921E-002	5.64120E-004	...........
	17	4.65	-7.25267E-002	-7.28996E-002	5.63287E-004	...........
	18	4.90833	-7.26524E-002	-7.30313E-002	5.60620E-004	...........
	19	5.16667	-7.27756E-002	-7.31480E-002	5.58220E-004	...........
	20	5.425	-7.28971E-002	-7.32607E-002	5.64220E-004	...........
	21	5.68333	-7.30173E-002	-7.33755E-002	5.67087E-004	...........
	22	5.94167	-7.31355E-002	-7.34883E-002	5.64087E-004	...........
	23	6.2	-7.32516E-002	-7.36007E-002	5.57787E-004	...........
	24	6.45833	-7.33659E-002	-7.37059E-002	5.57287E-004	...........
	25	6.71667	-7.34784E-002	-7.38170E-002	5.56487E-004	...........
	26	6.975	-7.35893E-002	-7.39250E-002	5.60120E-004	...........
	27	7.23333	-7.36989E-002	-7.40271E-002	5.55587E-004	...........
	28	7.49167	-7.38073E-002	-7.41409E-002	5.61754E-004	...........
	29	7.75	-7.39150E-002	-7.42449E-002	5.60587E-004	...........
	30	8.00833	-7.40222E-002	-7.43395E-002	5.65420E-004	...........
	31	8.26667	-7.41282E-002	-7.44412E-002	5.64220E-004	...........
	32	8.525	-7.42321E-002	-7.45491E-002	5.63954E-004	...........
	33	8.78333	-7.43342E-002	-7.46437E-002	5.65953E-004	...........
	34	9.04167	-7.44357E-002	-7.47424E-002	5.58387E-004	...........
	35	9.3	-7.45366E-002	-7.48470E-002	5.63487E-004	...........
	36	9.5583	-7.46368E-002	-7.49435E-002	5.61754E-004	...........
	37	9.8167	-7.47368E-002	-7.50422E-002	5.62787E-004	...........
	38	10.075	-7.48364E-002	-7.51331E-002	5.64887E-004	...........
EOC	QUANT	-0.0748364	Open Circuit (V)
PSTATMODEL	IQUANT	4	Pstat Model
PSTATSECTION	LABEL	REF600-10037	Pstat Section
PSTATSERIALNO	LABEL	10037	Pstat Serial Number
CTRLMODE	IQUANT	1	Control Mode
IESTAB	IQUANT	0	I/E Stability
CASPEED	IQUANT	1	Control Amp Speed
CONVENTION	IQUANT	1	Current Convention
ICHRANGE	IQUANT	2	Ich Range
ICHRANGEMODE	TOGGLE	F	Ich Auto Range
ICHOFFSETENABLE	TOGGLE	T	Ich Offset Enable
ICHOFFSET	QUANT	0	Ich Offset (V)
ICHFILTER	IQUANT	3	Ich Filter
VCHRANGE	IQUANT	2	Vch Range
VCHRANGEMODE	TOGGLE	F	Vch Auto Range
VCHOFFSETENABLE	TOGGLE	T	Vch Offset Enable
VCHOFFSET	QUANT	0	Vch Offset (V)
VCHFILTER	IQUANT	3	Vch Filter
ACHRANGE	IQUANT	2	Ach Range
ACHOFFSETENABLE	TOGGLE	F	Ach Offset Enable
ACHOFFSET	QUANT	0	Ach Offset (V)
ACHFILTER	IQUANT	3	Ach Filter
IERANGELOWERLIMIT	IQUANT	1	I/E Range Lower Limit
IERANGEMODE	TOGGLE	F	I/E AutoRange
IERANGE	IQUANT	8	I/E Range
POSFEEDENABLE	TOGGLE	F	Positive Feedback IR Comp
POSFEEDRESISTANCE	QUANT	0	Positive Feedback Resistance (ohm)
ACHSELECT	IQUANT	0	Ach Select
CABLEID	IQUANT	14	Cable ID
DCCALDATE	LABEL	6/8/2020	DC Calibration Date
ACCALDATE	LABEL	6/8/2020	AC Calibration Date
THERMOSELECT	IQUANT	1	Thermo Select
FRAMEWORKVERSION	QUANT	6.33	Framework Version
INSTRUMENTVERSION	LABEL	3.50	Instrument Version
ZCURVE	TABLE
	Pt	Time	Freq	Zreal	Zimag	Zsig	Zmod	Zphz	Idc	Vdc	IERange
	#	s	Hz	ohm	ohm	V	ohm	°	A	V	#
	0	1	1000078	1886.224	-2208.383	1	2904.272	-49.49871	-1.251388E-007	-0.0656565	8
	1	1	794390.6	2229.511	-2457.444	1	3318.094	-47.78417	-4.363309E-008	-0.0659267	8
	2	1	630984.4	2624.833	-2713.955	1	3775.619	-45.95637	-2.226523E-007	-0.0660468	8
	3	2	501234.4	3079.369	-2963.969	1	4274.063	-43.90604	-2.833174E-007	-0.0660876	8
	4	2	398109.4	3601.74	-3187.774	1	4809.827	-41.51092	-4.52461E-008	-0.0661779	8
	5	2	316265.6	4185.609	-3368.867	1	5372.95	-38.82951	1.666424E-007	-0.0661663	8
	6	3	251203.1	4823.052	-3508.823	1	5964.367	-36.0363	-7.890036E-008	-0.0661708	8
	7	3	199546.9	5473.66	-3567.131	1	6533.404	-33.0919	-4.991654E-008	-0.0661874	8
	8	3	158578.1	6134.333	-3549.885	1	7087.435	-30.05759	-4.888538E-008	-0.0661858	8
	9	4	125953.1	6964.07	-3209.948	1	7668.249	-24.74639	9.6939E-008	-0.0660913	7
	10	4	100078.1	7527.74	-3077.056	1	8132.352	-22.23289	-5.715627E-008	-0.0660562	7
	11	4	79453.13	8039.577	-2901.822	1	8547.243	-19.84665	-5.447152E-008	-0.0661651	7
	12	5	63140.62	8483.018	-2690.521	1	8899.466	-17.59724	-4.776608E-008	-0.066172	7
	13	5	50203.12	8867.21	-2470.802	1	9205.014	-15.57022	-7.658345E-008	-0.0661357	7
	14	5	39890.62	9194.757	-2264.646	1	9469.539	-13.83641	8.798814E-009	-0.0662599	7
	15	6	31640.63	9462.436	-2066.353	1	9685.43	-12.31854	5.535188E-008	-0.0661764	7
	16	6	25171.88	9705.65	-1910.158	1	9891.83	-11.13402	8.827732E-009	-0.0662453	7
	17	6	20015.62	9908.39	-1779.269	1	10066.88	-10.18021	-4.530903E-008	-0.0661789	7
	18	7	15890.62	10077.21	-1685.545	1	10217.2	-9.495568	1.275747E-008	-0.0661251	7
	19	7	12609.37	10380.2	-1267.112	1	10457.25	-6.959671	2.777677E-009	-0.0660946	6
	20	7	10078.13	10482.88	-1313.476	1	10564.85	-7.141785	9.865144E-009	-0.0662153	6
	21	7	8015.625	10590.56	-1391.625	1	10681.6	-7.485912	1.26544E-008	-0.0663237	6
	22	8	6328.125	10705.31	-1508.362	1	10811.05	-8.020094	1.062946E-008	-0.0662135	6
	23	8	5015.625	10832.38	-1664.613	1	10959.53	-8.736309	1.029958E-008	-0.0663682	6
	24	8	3984.375	10962.4	-1866.115	1	11120.1	-9.66077	-5.444682E-010	-0.0662836	6
	25	9	3170.956	11098.88	-2119.406	1	11299.42	-10.81086	-1.888703E-009	-0.0660659	6
	26	9	2527.573	11257.07	-2432.894	1	11516.97	-12.19527	1.110686E-008	-0.0662784	6
	27	9	1976.103	11443.87	-2852.572	1	11794.04	-13.99667	1.136736E-008	-0.0663092	6
	28	10	1577.524	11634.17	-3324.295	1	12099.78	-15.94652	-1.311966E-008	-0.0660591	6
	29	10	1265.625	11849.24	-3885.335	1	12469.98	-18.15418	-6.266759E-009	-0.0660009	6
	30	10	998.264	12114.4	-4623.558	1	12966.72	-20.88976	1.123245E-008	-0.0663161	6
	31	11	796.875	12399.01	-5472.777	1	13553.11	-23.8161	6.761927E-009	-0.0663497	6
	32	11	627.7902	12751.77	-6562.789	1	14341.47	-27.23294	-1.44764E-009	-0.0660479	6
	33	11	505.5147	13122.67	-7760.219	1	15245.51	-30.59836	-1.526088E-008	-0.0659967	6
	34	12	397.9953	13587.31	-9372.536	1	16506.35	-34.59793	9.074849E-010	-0.0661712	6
	35	12	315.5048	14123.75	-11284.09	1	18077.91	-38.62291	8.582607E-010	-0.066164	6
	36	12	252.4038	14726.5	-13518.19	1	19990.28	-42.55037	8.852249E-010	-0.0661694	6
	37	13	198.6229	15494.98	-16455.27	1	22602.44	-46.72155	9.50083E-010	-0.0661694	6
	38	13	158.3615	16372.55	-19859.27	1	25738.12	-50.49687	7.965618E-010	-0.0661692	6
	39	13	125.558	17466.38	-24136.86	1	29793.66	-54.10903	7.856355E-010	-0.0661691	6
	40	13	100.4464	18760.51	-29155.19	1	34669.61	-57.23991	7.126364E-010	-0.0661745	6
	41	14	79.00281	20537.83	-35784.75	1	41259.55	-60.14733	6.470679E-010	-0.0661725	6
	42	14	63.3446	22600.12	-43164.54	1	48723.13	-62.36432	7.156135E-010	-0.0661744	6
	43	15	49.86702	25558.13	-52951.18	1	58796.64	-64.23463	5.551153E-010	-0.0661742	6
	44	15	39.72458	29254.13	-64253.33	1	70599.53	-65.52053	6.395018E-010	-0.066165	6
	45	15	31.6723	34119.87	-77722.33	1	84881.84	-66.29867	6.716606E-010	-0.066169	6
	46	16	24.93351	40943.35	-94627.45	1	103105.3	-66.60286	3.58133E-010	-0.0661686	6
	47	16	19.86229	48809.91	-112835.5	1	122940.1	-66.60786	-5.073955E-009	-0.0748066	5
	48	16	15.83615	59727.83	-134720.8	1	147367.3	-66.09013	-3.455456E-009	-0.0748088	5
	49	17	12.40079	75467.81	-162107	1	178813	-65.03599	-2.542219E-009	-0.0748057	5
	50	17	9.93114	93347.2	-190083.1	1	211767.1	-63.84498	-1.875476E-009	-0.074807	5
	51	17	7.944915	115723	-221085	1	249540.3	-62.37099	-1.495305E-009	-0.0748066	5
	52	18	6.317385	143633.1	-255836.5	1	293398.7	-60.68903	-9.039549E-010	-0.0748024	5
	53	19	5.008013	177328.4	-293801.7	1	343168.8	-58.88629	-5.818935E-010	-0.0748021	5
	54	20	3.945707	217375.4	-335211.7	1	399523.4	-57.03772	-3.308503E-010	-0.0748065	5
	55	21	3.158693	259949	-376412.6	1	457449.4	-55.3712	-2.413785E-010	-0.0748064	5
	56	22	2.504006	309966.6	-422245.5	1	523803.9	-53.71794	-1.062209E-010	-0.0748106	5
	57	24	1.998082	361335.1	-469891.6	1	592757.3	-52.4406	-4.468223E-011	-0.0748101	5
	58	26	1.584686	417611.9	-523823.7	1	669918.6	-51.43683	7.034348E-011	-0.0748078	5
	59	28	1.266892	474740.6	-582377.5	1	751360.2	-50.81388	1.305051E-010	-0.0748076	5
	60	32	0.999041	538474.1	-654756	1	847738	-50.56598	1.323122E-010	-0.0748098	5
