EXPLAIN
TAG	EISPOT
TITLE	LABEL	Potentiostatic EIS	Test &Identifier
DATE	LABEL	9/1/2020	Date
TIME	LABEL	21:51:47	Time
NOTES	NOTES	1	&Notes...
	
PSTAT	PSTAT	REF600-11020	Potentiostat
VDC	POTEN	0.00000E+000	T	DC &Voltage (V)
FREQINIT	QUANT	1.00000E+006	Initial Fre&q. (Hz)
FREQFINAL	QUANT	1.00000E+000	Final Fre&q. (Hz)
PTSPERDEC	QUANT	1.00000E+001	Points/&decade
VAC	QUANT	2.50000E+001	AC &Voltage (mV rms)
AREA	QUANT	4.00000E-005	&Area (cm^2)
CONDIT	TWOPARAM	F	5.00000E+000	0.00000E+000	Conditionin&g	Time(s)	E(V)
DELAY	TWOPARAM	F	3.00000E+000	0.00000E+000	Init. De&lay	Time(s)	Stab.(mV/s)
SPEED	SELECTOR	0	&Optimize for:
ZGUESS	QUANT	1.00000E+003	E&stimated Z (ohms)
OCVCURVE	TABLE	39
	Pt	T	Vf	Vm	Ach	Over
	#	s	V vs. Ref.	V	V	bits
	0	0.258333	1.50718E-001	1.50718E-001	5.67025E-004	...........
	1	0.516667	1.50717E-001	1.50697E-001	5.66392E-004	...........
	2	0.775	1.50715E-001	1.50676E-001	5.68458E-004	...........
	3	1.03333	1.50708E-001	1.50652E-001	5.68992E-004	...........
	4	1.29167	1.50695E-001	1.50629E-001	5.67558E-004	...........
	5	1.55	1.50676E-001	1.50612E-001	5.69225E-004	...........
	6	1.80833	1.50655E-001	1.50592E-001	5.65758E-004	...........
	7	2.06667	1.50634E-001	1.50576E-001	5.67525E-004	...........
	8	2.325	1.50614E-001	1.50558E-001	5.70858E-004	...........
	9	2.58333	1.50595E-001	1.50543E-001	5.65825E-004	...........
	10	2.84167	1.50577E-001	1.50527E-001	5.71758E-004	...........
	11	3.1	1.50560E-001	1.50510E-001	5.68325E-004	...........
	12	3.35833	1.50544E-001	1.50499E-001	5.65325E-004	...........
	13	3.61667	1.50528E-001	1.50487E-001	5.65925E-004	...........
	14	3.875	1.50514E-001	1.50472E-001	5.66658E-004	...........
	15	4.13333	1.50500E-001	1.50465E-001	5.68292E-004	...........
	16	4.39167	1.50487E-001	1.50456E-001	5.67058E-004	...........
	17	4.65	1.50476E-001	1.50443E-001	5.67925E-004	...........
	18	4.90833	1.50465E-001	1.50431E-001	5.68325E-004	...........
	19	5.16667	1.50455E-001	1.50419E-001	5.72792E-004	...........
	20	5.425	1.50444E-001	1.50408E-001	5.68858E-004	...........
	21	5.68333	1.50432E-001	1.50400E-001	5.69892E-004	...........
	22	5.94167	1.50421E-001	1.50390E-001	5.70125E-004	...........
	23	6.2	1.50410E-001	1.50382E-001	5.69592E-004	...........
	24	6.45833	1.50401E-001	1.50367E-001	5.67092E-004	...........
	25	6.71667	1.50391E-001	1.50359E-001	5.65592E-004	...........
	26	6.975	1.50381E-001	1.50352E-001	5.67592E-004	...........
	27	7.23333	1.50370E-001	1.50344E-001	5.69492E-004	...........
	28	7.49167	1.50361E-001	1.50334E-001	5.69125E-004	...........
	29	7.75	1.50352E-001	1.50321E-001	5.72592E-004	...........
	30	8.00833	1.50343E-001	1.50313E-001	5.70658E-004	...........
	31	8.26667	1.50334E-001	1.50307E-001	5.66159E-004	...........
	32	8.525	1.50324E-001	1.50301E-001	5.69958E-004	...........
	33	8.78333	1.50315E-001	1.50290E-001	5.69458E-004	...........
	34	9.04167	1.50307E-001	1.50284E-001	5.65958E-004	...........
	35	9.3	1.50300E-001	1.50275E-001	5.64825E-004	...........
	36	9.5583	1.50292E-001	1.50267E-001	5.65392E-004	...........
	37	9.8167	1.50284E-001	1.50260E-001	5.63692E-004	...........
	38	10.075	1.50276E-001	1.50252E-001	5.65725E-004	...........
EOC	QUANT	0.150276	Open Circuit (V)
PSTATMODEL	IQUANT	4	Pstat Model
PSTATSECTION	LABEL	REF600-11020	Pstat Section
PSTATSERIALNO	LABEL	11020	Pstat Serial Number
CTRLMODE	IQUANT	1	Control Mode
IESTAB	IQUANT	0	I/E Stability
CASPEED	IQUANT	1	Control Amp Speed
CONVENTION	IQUANT	1	Current Convention
ICHRANGE	IQUANT	2	Ich Range
ICHRANGEMODE	TOGGLE	F	Ich Auto Range
ICHOFFSETENABLE	TOGGLE	T	Ich Offset Enable
ICHOFFSET	QUANT	0	Ich Offset (V)
ICHFILTER	IQUANT	3	Ich Filter
VCHRANGE	IQUANT	2	Vch Range
VCHRANGEMODE	TOGGLE	F	Vch Auto Range
VCHOFFSETENABLE	TOGGLE	T	Vch Offset Enable
VCHOFFSET	QUANT	0	Vch Offset (V)
VCHFILTER	IQUANT	3	Vch Filter
ACHRANGE	IQUANT	2	Ach Range
ACHOFFSETENABLE	TOGGLE	F	Ach Offset Enable
ACHOFFSET	QUANT	0	Ach Offset (V)
ACHFILTER	IQUANT	3	Ach Filter
IERANGELOWERLIMIT	IQUANT	1	I/E Range Lower Limit
IERANGEMODE	TOGGLE	F	I/E AutoRange
IERANGE	IQUANT	8	I/E Range
POSFEEDENABLE	TOGGLE	F	Positive Feedback IR Comp
POSFEEDRESISTANCE	QUANT	0	Positive Feedback Resistance (ohm)
ACHSELECT	IQUANT	0	Ach Select
CABLEID	IQUANT	14	Cable ID
DCCALDATE	LABEL	9/1/2020	DC Calibration Date
ACCALDATE	LABEL	9/1/2020	AC Calibration Date
THERMOSELECT	IQUANT	1	Thermo Select
FRAMEWORKVERSION	QUANT	6.33	Framework Version
INSTRUMENTVERSION	LABEL	3.50	Instrument Version
ZCURVE	TABLE
	Pt	Time	Freq	Zreal	Zimag	Zsig	Zmod	Zphz	Idc	Vdc	IERange
	#	s	Hz	ohm	ohm	V	ohm	°	A	V	#
	0	1	1000078	2198.455	-2307.899	1	3187.413	-46.39125	8.339656E-008	0.152325	8
	1	1	794390.6	2609.749	-2446.587	1	3577.23	-43.15178	8.102149E-008	0.1520526	8
	2	2	630984.4	3033.672	-2550.513	1	3963.368	-40.05493	8.737757E-008	0.1519127	8
	3	2	501234.4	3451.832	-2619.03	1	4332.951	-37.18891	7.340946E-008	0.1518312	8
	4	2	398109.4	3858.779	-2673.242	1	4694.294	-34.71302	7.764E-008	0.1517845	8
	5	3	316265.6	4244.289	-2722.85	1	5042.608	-32.6815	6.331666E-008	0.1517594	8
	6	3	251203.1	4616.075	-2782.009	1	5389.594	-31.07646	8.177059E-008	0.1517696	8
	7	3	199546.9	4982.436	-2864.982	1	5747.416	-29.89961	6.35932E-008	0.1517518	8
	8	4	158578.1	5339.438	-2979.091	1	6114.293	-29.15894	8.096136E-008	0.1517634	8
	9	4	125953.1	5763.211	-3095.615	1	6541.975	-28.24174	9.17595E-009	0.1517558	7
	10	4	100078.1	6158.312	-3278.469	1	6976.615	-28.02927	2.646332E-009	0.1517321	7
	11	5	79453.13	6582.044	-3521.174	1	7464.715	-28.1453	4.123099E-009	0.1517308	7
	12	5	63140.62	7054.619	-3796.748	1	8011.425	-28.28883	4.069498E-009	0.1517264	7
	13	5	50203.12	7582.034	-4098.963	1	8619.092	-28.39633	3.327361E-009	0.1517162	7
	14	6	39890.62	8179.25	-4436.101	1	9304.79	-28.47365	4.914294E-009	0.1517245	7
	15	6	31640.63	8856.918	-4777.644	1	10063.34	-28.34354	3.553018E-009	0.1517159	7
	16	6	25171.88	9611.17	-5128.051	1	10893.65	-28.08219	5.011192E-009	0.1517175	7
	17	6	20015.62	10446.93	-5441.812	1	11779.29	-27.51502	4.142784E-009	0.1517164	7
	18	7	15890.62	11368.05	-5712.78	1	12722.75	-26.68088	3.976674E-009	0.1517082	7
	19	7	12609.37	12450.02	-5828.49	1	13746.79	-25.08669	1.036388E-009	0.1517084	6
	20	7	10078.13	13407.42	-5953.259	1	14669.7	-23.94253	7.63385E-010	0.1517053	6
	21	8	8015.625	14383.63	-6018.357	1	15591.97	-22.70527	7.350978E-010	0.1517114	6
	22	8	6328.125	15361.39	-6020.583	1	16499.08	-21.40168	9.437068E-010	0.1517033	6
	23	8	5015.625	16266.55	-5991.103	1	17334.76	-20.21916	1.051221E-009	0.1517086	6
	24	9	3984.375	17099.59	-5959.381	1	18108.29	-19.21396	6.386697E-010	0.1517101	6
	25	9	3170.956	17866.32	-5956.308	1	18833.03	-18.43745	1.138584E-009	0.1517088	6
	26	9	2527.573	18577.64	-6011.864	1	19526.17	-17.93197	8.405742E-010	0.1517053	6
	27	10	1976.103	19311.84	-6153.144	1	20268.41	-17.67294	4.194252E-010	0.1517002	6
	28	10	1577.524	19953.49	-6377.283	1	20947.83	-17.72426	7.308717E-010	0.1517029	6
	29	10	1265.625	20592.58	-6705.894	1	21656.95	-18.03764	8.119794E-010	0.1517026	6
	30	11	998.264	21274.22	-7192.886	1	22457.29	-18.68057	1.024577E-009	0.151706	6
	31	11	796.875	21917.22	-7808.308	1	23266.59	-19.60914	6.44923E-010	0.1517031	6
	32	11	627.7902	22632.48	-8638.526	1	24225.05	-20.89121	4.604365E-010	0.1517007	6
	33	12	505.5147	23298.12	-9600.86	1	25198.78	-22.39594	2.725329E-010	0.1516959	6
	34	12	397.9953	24078.45	-10921.74	1	26439.67	-24.39856	6.311132E-010	0.1517229	6
	35	12	315.5048	24899.53	-12537.23	1	27877.74	-26.72583	5.402859E-010	0.1517235	6
	36	13	252.4038	25747.89	-14463.9	1	29532.33	-29.32513	4.584851E-010	0.1517197	6
	37	13	198.6229	26764.79	-17031.34	1	31724.13	-32.46997	4.319178E-010	0.1517146	6
	38	13	158.3615	27898.99	-20036.04	1	34348.17	-35.68454	2.186649E-010	0.1517123	6
	39	13	125.558	29281.07	-23795.89	1	37730.96	-39.09977	2.444009E-011	0.1517131	6
	40	14	100.4464	30898.85	-28189.96	1	41825.98	-42.37514	5.527488E-013	0.1517126	6
	41	14	79.00281	33060.36	-33918.73	1	47365.26	-45.73424	-2.999818E-011	0.1517115	6
	42	14	63.3446	35539.61	-40260.82	1	53702.86	-48.56404	-1.521607E-010	0.1517117	6
	43	15	49.86702	38912.82	-48480.76	1	62165.84	-51.24792	1.982714E-010	0.151714	6
	44	15	39.72458	42918.86	-57795.29	1	71988.36	-53.40237	-4.656409E-011	0.1517155	6
	45	16	31.6723	47971.05	-68786.55	1	83861.85	-55.10847	2.495183E-010	0.1517132	6
	46	16	24.93351	54737.96	-82501.31	1	99008.6	-56.43652	-9.55595E-011	0.1517125	6
	47	16	19.86229	63006.27	-97707.7	1	116260.8	-57.18427	-3.037189E-010	0.1517066	5
	48	16	15.83615	73412.89	-115143.4	1	136555.7	-57.47931	4.294373E-010	0.1517068	5
	49	17	12.40079	87820.55	-136584.9	1	162381.9	-57.26004	1.414579E-009	0.151702	5
	50	17	9.93114	103925.6	-158322.7	1	189384.8	-56.71846	1.347362E-009	0.1517093	5
	51	17	7.944915	123913.7	-182347.7	1	220466.1	-55.80207	-4.342818E-010	0.1517099	5
	52	18	6.317385	148635.6	-208537.1	1	256086.4	-54.52048	7.478203E-010	0.1516933	5
	53	19	5.008013	178469.8	-236605.3	1	296367.3	-52.973	5.382003E-010	0.1517095	5
	54	19	3.945707	212822.9	-265936.8	1	340611.2	-51.33055	-2.830178E-010	0.1517036	5
	55	20	3.158693	249329.9	-293987.3	1	385478.8	-49.6988	3.610537E-010	0.1516974	5
	56	21	2.504006	289644.3	-324127	1	434686.2	-48.21559	3.214523E-010	0.1517031	5
	57	23	1.998082	331746.9	-354640.3	1	485618.9	-46.91031	-7.28745E-011	0.1516575	5
	58	24	1.584686	375448.6	-389946.8	1	541313.4	-46.08518	-3.850392E-011	0.1516844	5
	59	26	1.266892	419727.4	-426552	1	598429.3	-45.46204	1.051425E-010	0.1517107	5
	60	29	0.999041	469676.6	-472393.2	1	666146.6	-45.16522	1.926979E-010	0.1517264	5
