EXPLAIN
TAG	EISPOT
TITLE	LABEL	Potentiostatic EIS	Test &Identifier
DATE	LABEL	2/11/2020	Date
TIME	LABEL	12:31:34	Time
NOTES	NOTES	6	&Notes...
	
	
	
	
	
	
PSTAT	PSTAT	REF600-11020	Potentiostat
VDC	POTEN	0.00000E+000	T	DC &Voltage (V)
FREQINIT	QUANT	1.00000E+006	Initial Fre&q. (Hz)
FREQFINAL	QUANT	1.00000E+000	Final Fre&q. (Hz)
PTSPERDEC	QUANT	1.00000E+001	Points/&decade
VAC	QUANT	2.50000E+001	AC &Voltage (mV rms)
AREA	QUANT	4.00000E-005	&Area (cm^2)
CONDIT	TWOPARAM	F	5.00000E+000	0.00000E+000	Conditionin&g	Time(s)	E(V)
DELAY	TWOPARAM	F	5.00000E+000	0.00000E+000	Init. De&lay	Time(s)	Stab.(mV/s)
SPEED	SELECTOR	0	&Optimize for:
ZGUESS	QUANT	1.00000E+003	E&stimated Z (ohms)
OCVCURVE	TABLE	39
	Pt	T	Vf	Vm	Ach	Over
	#	s	V vs. Ref.	V	V	bits
	0	0.258333	1.15692E-002	1.15692E-002	5.58871E-004	...........
	1	0.516667	1.15696E-002	1.15908E-002	5.55438E-004	...........
	2	0.775	1.15699E-002	1.14922E-002	5.51505E-004	...........
	3	1.03333	1.15725E-002	1.18939E-002	5.59404E-004	...........
	4	1.29167	1.15977E-002	1.19498E-002	5.60638E-004	...........
	5	1.55	1.16675E-002	1.18581E-002	5.59871E-004	...........
	6	1.80833	1.17661E-002	1.20261E-002	5.57171E-004	...........
	7	2.06667	1.18537E-002	1.18606E-002	5.60038E-004	...........
	8	2.325	1.19064E-002	1.18772E-002	5.55304E-004	...........
	9	2.58333	1.19228E-002	1.19477E-002	5.50605E-004	...........
	10	2.84167	1.19197E-002	1.19824E-002	5.53905E-004	...........
	11	3.1	1.19223E-002	1.20145E-002	5.48071E-004	...........
	12	3.35833	1.19416E-002	1.20379E-002	5.55304E-004	...........
	13	3.61667	1.19720E-002	1.20612E-002	5.55904E-004	...........
	14	3.875	1.20041E-002	1.20819E-002	5.49538E-004	...........
	15	4.13333	1.20328E-002	1.20935E-002	5.54038E-004	...........
	16	4.39167	1.20566E-002	1.21024E-002	5.51771E-004	...........
	17	4.65	1.20756E-002	1.21157E-002	5.51071E-004	...........
	18	4.90833	1.20907E-002	1.21307E-002	5.55904E-004	...........
	19	5.16667	1.21037E-002	1.21456E-002	5.55504E-004	...........
	20	5.425	1.21163E-002	1.21485E-002	5.59471E-004	...........
	21	5.68333	1.21286E-002	1.21593E-002	5.53505E-004	...........
	22	5.94167	1.21401E-002	1.21824E-002	5.52805E-004	...........
	23	6.2	1.21514E-002	1.21954E-002	5.55738E-004	...........
	24	6.45833	1.21635E-002	1.21769E-002	5.49271E-004	...........
	25	6.71667	1.21748E-002	1.22049E-002	5.47771E-004	...........
	26	6.975	1.21849E-002	1.22680E-002	5.49305E-004	...........
	27	7.23333	1.21984E-002	1.22780E-002	5.49205E-004	...........
	28	7.49167	1.22211E-002	1.23609E-002	5.49005E-004	...........
	29	7.75	1.22515E-002	1.22482E-002	5.55005E-004	...........
	30	8.00833	1.22776E-002	1.22285E-002	5.48838E-004	...........
	31	8.26667	1.22836E-002	1.21718E-002	5.49838E-004	...........
	32	8.525	1.22654E-002	1.21933E-002	5.44238E-004	...........
	33	8.78333	1.22353E-002	1.21991E-002	5.43471E-004	...........
	34	9.04167	1.22100E-002	1.21966E-002	5.47871E-004	...........
	35	9.3	1.21969E-002	1.21892E-002	5.48538E-004	...........
	36	9.5583	1.21924E-002	1.21539E-002	5.46238E-004	...........
	37	9.8167	1.21885E-002	1.21806E-002	5.54104E-004	...........
	38	10.075	1.21832E-002	1.22216E-002	5.48605E-004	...........
EOC	QUANT	0.0121832	Open Circuit (V)
PSTATMODEL	IQUANT	4	Pstat Model
PSTATSECTION	LABEL	REF600-11020	Pstat Section
PSTATSERIALNO	LABEL	11020	Pstat Serial Number
CTRLMODE	IQUANT	1	Control Mode
IESTAB	IQUANT	0	I/E Stability
CASPEED	IQUANT	1	Control Amp Speed
CONVENTION	IQUANT	1	Current Convention
ICHRANGE	IQUANT	2	Ich Range
ICHRANGEMODE	TOGGLE	F	Ich Auto Range
ICHOFFSETENABLE	TOGGLE	T	Ich Offset Enable
ICHOFFSET	QUANT	0	Ich Offset (V)
ICHFILTER	IQUANT	3	Ich Filter
VCHRANGE	IQUANT	2	Vch Range
VCHRANGEMODE	TOGGLE	F	Vch Auto Range
VCHOFFSETENABLE	TOGGLE	T	Vch Offset Enable
VCHOFFSET	QUANT	0	Vch Offset (V)
VCHFILTER	IQUANT	3	Vch Filter
ACHRANGE	IQUANT	2	Ach Range
ACHOFFSETENABLE	TOGGLE	F	Ach Offset Enable
ACHOFFSET	QUANT	0	Ach Offset (V)
ACHFILTER	IQUANT	3	Ach Filter
IERANGELOWERLIMIT	IQUANT	1	I/E Range Lower Limit
IERANGEMODE	TOGGLE	F	I/E AutoRange
IERANGE	IQUANT	7	I/E Range
POSFEEDENABLE	TOGGLE	F	Positive Feedback IR Comp
POSFEEDRESISTANCE	QUANT	0	Positive Feedback Resistance (ohm)
ACHSELECT	IQUANT	0	Ach Select
CABLEID	IQUANT	14	Cable ID
DCCALDATE	LABEL	1/27/2020	DC Calibration Date
ACCALDATE	LABEL	1/27/2020	AC Calibration Date
THERMOSELECT	IQUANT	1	Thermo Select
FRAMEWORKVERSION	QUANT	6.33	Framework Version
INSTRUMENTVERSION	LABEL	3.50	Instrument Version
ZCURVE	TABLE
	Pt	Time	Freq	Zreal	Zimag	Zsig	Zmod	Zphz	Idc	Vdc	IERange
	#	s	Hz	ohm	ohm	V	ohm	°	A	V	#
	0	1	1000078	2118.108	-2135.727	1	3007.941	-45.23731	2.733654E-006	0.0143117	8
	1	1	794390.6	2588.765	-2229.088	1	3416.217	-40.73049	-7.637028E-007	0.0145036	8
	2	2	630984.4	3027.671	-2263.713	1	3780.368	-36.78453	-9.828542E-007	0.0142637	8
	3	2	501234.4	3483.182	-2188.25	1	4113.513	-32.13839	-2.940805E-006	0.0145957	8
	4	2	398109.4	3872.364	-2051.981	1	4382.446	-27.9193	1.661805E-006	0.0136524	8
	5	3	316265.6	4248.306	-1888.536	1	4649.158	-23.96699	3.261246E-007	0.0136919	8
	6	3	251203.1	4548.767	-1689.064	1	4852.239	-20.37115	-1.008349E-006	0.0140993	8
	7	3	199546.9	4771.75	-1495.566	1	5000.631	-17.40209	1.84644E-006	0.013386	8
	8	3	158578.1	4974.506	-1321.423	1	5147.025	-14.87643	1.80866E-006	0.0133924	8
	9	4	125953.1	5153.787	-1120.223	1	5274.127	-12.26301	1.123652E-006	0.0118722	7
	10	4	100078.1	5259.185	-984.695	1	5350.575	-10.6049	2.148806E-008	0.0137321	7
	11	4	79453.13	5348.326	-880.4635	1	5420.314	-9.348419	6.136069E-008	0.0137983	7
	12	5	63140.62	5421.284	-799.1398	1	5479.867	-8.385459	3.155507E-008	0.0137756	7
	13	5	50203.12	5482.583	-741.0081	1	5532.432	-7.697269	-3.569159E-008	0.0138214	7
	14	5	39890.62	5538.819	-705.3253	1	5583.547	-7.257111	-2.044833E-009	0.0137434	7
	15	6	31640.63	5592.183	-688.8521	1	5634.45	-7.022391	-2.718732E-008	0.0138056	7
	16	6	25171.88	5644.044	-693.619	1	5686.505	-7.006176	-6.227743E-010	0.0137379	7
	17	6	20015.62	5694.993	-718.4113	1	5740.127	-7.189764	7.332169E-008	0.0136508	7
	18	7	15890.62	5747.183	-765.3246	1	5797.917	-7.585177	7.479063E-008	0.0136717	7
	19	7	12609.37	5803.41	-835.7858	1	5863.285	-8.19518	4.504752E-008	0.0136684	7
	20	7	10078.13	5863.383	-926.9777	1	5936.207	-8.983879	-1.90887E-009	0.0138286	7
	21	8	8015.625	5926.386	-1045.182	1	6017.845	-10.00188	-8.467932E-009	0.0138405	7
	22	8	6328.125	6003.595	-1205.297	1	6123.389	-11.35194	3.2224E-008	0.0137653	7
	23	8	5015.625	6086.421	-1401.218	1	6245.633	-12.96476	-4.063766E-008	0.013822	7
	24	8	3984.375	6180.49	-1640.188	1	6394.425	-14.86265	-2.913624E-008	0.0139008	7
	25	9	3170.956	6285.412	-1929.874	1	6575.014	-17.06859	2.048319E-008	0.0137133	7
	26	9	2527.573	6406.495	-2284.278	1	6801.552	-19.62402	6.235826E-008	0.0137753	7
	27	9	1976.103	6560.338	-2748.945	1	7112.998	-22.7349	2.059632E-008	0.0137098	7
	28	10	1577.524	6723.835	-3274.069	1	7478.603	-25.96306	-2.530915E-008	0.0137931	7
	29	10	1265.625	6911.522	-3896.965	1	7934.449	-29.41587	4.311456E-008	0.01365	7
	30	10	998.264	7150.376	-4708.696	1	8561.524	-33.36588	-9.109015E-009	0.0138987	7
	31	11	796.875	7415.84	-5637.589	1	9315.423	-37.24243	4.400405E-008	0.0136498	7
	32	11	627.7902	7759.311	-6836.93	1	10341.69	-41.38411	5.950179E-009	0.013801	6
	33	11	505.5147	8126.313	-8160.317	1	11516.41	-45.11963	-2.451452E-009	0.0137332	6
	34	12	397.9953	8601.757	-9929.61	1	13137.25	-49.09848	1.165702E-009	0.0137954	6
	35	12	315.5048	9155.902	-12025.12	1	15114.04	-52.71443	5.594764E-011	0.0138003	6
	36	12	252.4038	9791.7	-14472.93	1	17474.07	-55.91959	3.045686E-010	0.0137963	6
	37	13	198.6229	10608	-17680.12	1	20618.34	-59.03641	4.797878E-010	0.0137952	6
	38	13	158.3615	11552.39	-21388.92	1	24309.33	-61.62604	2.674055E-011	0.0137892	6
	39	13	125.558	12740.03	-26016.47	1	28968.35	-63.90944	4.124816E-010	0.0137932	6
	40	14	100.4464	14120.46	-31376.98	1	34407.88	-65.77101	1.114604E-009	0.013791	6
	41	14	79.00281	16074.19	-38377.77	1	41608.09	-67.27406	6.030462E-010	0.0137879	6
	42	14	63.3446	18719.65	-46695.05	1	50307.58	-68.15457	6.438438E-011	0.0137869	6
	43	15	49.86702	21408.89	-57083.93	1	60966.52	-69.44183	2.342499E-010	0.0137872	6
	44	15	39.72458	24832.52	-68603.42	1	72959.47	-70.10116	3.65223E-010	0.0137939	6
	45	15	31.6723	29040.79	-82612.74	1	87568.45	-70.63194	7.785099E-011	0.0137881	6
	46	16	24.93351	35104.18	-101167.5	1	107084.8	-70.86369	-4.728174E-011	0.0137832	5
	47	16	19.86229	42454.05	-122286.4	1	129446.1	-70.85458	5.330374E-010	0.0137872	5
	48	16	15.83615	51486.26	-146545.6	1	155326.9	-70.64196	-3.952001E-010	0.0137838	5
	49	17	12.40079	64970.48	-179787	1	191166.2	-70.13142	2.181063E-010	0.0137859	5
	50	17	9.93114	79256.88	-214247.1	1	228437	-69.69895	-2.462263E-010	0.0137828	5
	51	18	7.944915	98703.7	-254541.9	1	273009.2	-68.8052	-6.289393E-010	0.0137855	5
	52	18	6.317385	125727.7	-303204.3	1	328238.1	-67.478	-3.320789E-010	0.0137985	5
	53	19	5.008013	159649.1	-359126.3	1	393013.4	-66.03252	-1.609283E-010	0.01378	5
	54	20	3.945707	205248.1	-423856.7	1	470936.7	-64.16191	1.5001E-010	0.0137755	5
	55	21	3.158693	254873.7	-490379.5	1	552659.6	-62.53694	1.39554E-010	0.013793	5
	56	23	2.504006	319681.3	-565400.3	1	649518	-60.51588	-7.112311E-011	0.0137891	5
	57	24	1.998082	391461.6	-643474.4	1	753194.1	-58.6855	-3.312008E-011	0.0137639	5
	58	26	1.584686	479404	-726822.4	1	870688.8	-56.5916	8.223969E-011	0.0138164	5
	59	28	1.266892	574327.4	-815099.7	1	997116	-54.83109	1.212305E-010	0.0138173	5
	60	30	0.999041	684844.8	-915101.6	1	1142989	-53.18951	1.03012E-010	0.0137502	4
