EXPLAIN
TAG	EISPOT
TITLE	LABEL	Potentiostatic EIS	Test &Identifier
DATE	LABEL	1/21/2020	Date
TIME	LABEL	18:09:54	Time
NOTES	NOTES	6	&Notes...
	
	
	
	
	
	
PSTAT	PSTAT	REF600-11020	Potentiostat
VDC	POTEN	0.00000E+000	T	DC &Voltage (V)
FREQINIT	QUANT	1.00000E+006	Initial Fre&q. (Hz)
FREQFINAL	QUANT	1.00000E+000	Final Fre&q. (Hz)
PTSPERDEC	QUANT	1.00000E+001	Points/&decade
VAC	QUANT	2.50000E+001	AC &Voltage (mV rms)
AREA	QUANT	1.00000E-001	&Area (cm^2)
CONDIT	TWOPARAM	F	5.00000E+000	0.00000E+000	Conditionin&g	Time(s)	E(V)
DELAY	TWOPARAM	F	5.00000E+000	0.00000E+000	Init. De&lay	Time(s)	Stab.(mV/s)
SPEED	SELECTOR	0	&Optimize for:
ZGUESS	QUANT	5.00000E+002	E&stimated Z (ohms)
OCVCURVE	TABLE	39
	Pt	T	Vf	Vm	Ach	Over
	#	s	V vs. Ref.	V	V	bits
	0	0.258333	-8.56692E-002	-8.56692E-002	6.85612E-004	...........
	1	0.516667	-8.56722E-002	-8.58278E-002	6.79679E-004	...........
	2	0.775	-8.56899E-002	-8.59319E-002	6.87379E-004	...........
	3	1.03333	-8.57374E-002	-8.60466E-002	6.85479E-004	...........
	4	1.29167	-8.58186E-002	-8.61951E-002	6.90479E-004	...........
	5	1.55	-8.59242E-002	-8.62550E-002	6.94079E-004	...........
	6	1.80833	-8.60388E-002	-8.63323E-002	6.87379E-004	...........
	7	2.06667	-8.61469E-002	-8.63681E-002	6.82546E-004	...........
	8	2.325	-8.62375E-002	-8.64002E-002	6.80379E-004	...........
	9	2.58333	-8.63067E-002	-8.64169E-002	6.77446E-004	...........
	10	2.84167	-8.63560E-002	-8.64180E-002	6.87379E-004	...........
	11	3.1	-8.63894E-002	-8.64765E-002	6.90212E-004	...........
	12	3.35833	-8.64143E-002	-8.65036E-002	6.92779E-004	...........
	13	3.61667	-8.64396E-002	-8.65525E-002	6.85646E-004	...........
	14	3.875	-8.64707E-002	-8.66115E-002	6.91612E-004	...........
	15	4.13333	-8.65081E-002	-8.66047E-002	6.94746E-004	...........
	16	4.39167	-8.65474E-002	-8.66319E-002	6.87846E-004	...........
	17	4.65	-8.65815E-002	-8.66332E-002	6.87046E-004	...........
	18	4.90833	-8.66075E-002	-8.66967E-002	6.89979E-004	...........
	19	5.16667	-8.66298E-002	-8.67253E-002	6.88879E-004	...........
	20	5.425	-8.66549E-002	-8.67335E-002	6.92946E-004	...........
	21	5.68333	-8.66821E-002	-8.66942E-002	6.91512E-004	...........
	22	5.94167	-8.67033E-002	-8.67164E-002	6.93512E-004	...........
	23	6.2	-8.67143E-002	-8.67769E-002	6.89079E-004	...........
	24	6.45833	-8.67222E-002	-8.67826E-002	6.91812E-004	...........
	25	6.71667	-8.67360E-002	-8.67811E-002	6.94779E-004	...........
	26	6.975	-8.67542E-002	-8.67789E-002	6.91479E-004	...........
	27	7.23333	-8.67695E-002	-8.67873E-002	6.84412E-004	...........
	28	7.49167	-8.67793E-002	-8.68245E-002	6.85612E-004	...........
	29	7.75	-8.67858E-002	-8.67424E-002	6.90346E-004	...........
	30	8.00833	-8.67879E-002	-8.67273E-002	6.92312E-004	...........
	31	8.26667	-8.67829E-002	-8.68836E-002	6.85846E-004	...........
	32	8.525	-8.67825E-002	-8.69537E-002	6.91112E-004	...........
	33	8.78333	-8.68067E-002	-8.69831E-002	6.87012E-004	...........
	34	9.04167	-8.68564E-002	-8.69653E-002	6.89146E-004	...........
	35	9.3	-8.69102E-002	-8.69613E-002	6.85146E-004	...........
	36	9.5583	-8.69476E-002	-8.69722E-002	6.80812E-004	...........
	37	9.8167	-8.69650E-002	-8.69776E-002	6.80979E-004	...........
	38	10.075	-8.69703E-002	-8.69516E-002	6.83179E-004	...........
EOC	QUANT	-0.0869703	Open Circuit (V)
PSTATMODEL	IQUANT	4	Pstat Model
PSTATSECTION	LABEL	REF600-11020	Pstat Section
PSTATSERIALNO	LABEL	11020	Pstat Serial Number
CTRLMODE	IQUANT	1	Control Mode
IESTAB	IQUANT	0	I/E Stability
CASPEED	IQUANT	1	Control Amp Speed
CONVENTION	IQUANT	1	Current Convention
ICHRANGE	IQUANT	2	Ich Range
ICHRANGEMODE	TOGGLE	F	Ich Auto Range
ICHOFFSETENABLE	TOGGLE	T	Ich Offset Enable
ICHOFFSET	QUANT	0	Ich Offset (V)
ICHFILTER	IQUANT	3	Ich Filter
VCHRANGE	IQUANT	2	Vch Range
VCHRANGEMODE	TOGGLE	F	Vch Auto Range
VCHOFFSETENABLE	TOGGLE	T	Vch Offset Enable
VCHOFFSET	QUANT	0	Vch Offset (V)
VCHFILTER	IQUANT	3	Vch Filter
ACHRANGE	IQUANT	2	Ach Range
ACHOFFSETENABLE	TOGGLE	F	Ach Offset Enable
ACHOFFSET	QUANT	0	Ach Offset (V)
ACHFILTER	IQUANT	3	Ach Filter
IERANGELOWERLIMIT	IQUANT	1	I/E Range Lower Limit
IERANGEMODE	TOGGLE	F	I/E AutoRange
IERANGE	IQUANT	8	I/E Range
POSFEEDENABLE	TOGGLE	F	Positive Feedback IR Comp
POSFEEDRESISTANCE	QUANT	0	Positive Feedback Resistance (ohm)
ACHSELECT	IQUANT	0	Ach Select
CABLEID	IQUANT	14	Cable ID
DCCALDATE	LABEL	12/22/2019	DC Calibration Date
ACCALDATE	LABEL	12/22/2019	AC Calibration Date
THERMOSELECT	IQUANT	1	Thermo Select
FRAMEWORKVERSION	QUANT	6.33	Framework Version
INSTRUMENTVERSION	LABEL	3.50	Instrument Version
ZCURVE	TABLE
	Pt	Time	Freq	Zreal	Zimag	Zsig	Zmod	Zphz	Idc	Vdc	IERange
	#	s	Hz	ohm	ohm	V	ohm	°	A	V	#
	0	1	1000078	1663.935	-2622.841	1	3106.119	-57.60888	4.023729E-007	-0.0847053	8
	1	2	794390.6	2066.979	-2964.862	1	3614.25	-55.11739	1.355853E-007	-0.0850065	8
	2	2	630984.4	2572.899	-3333.898	1	4211.257	-52.34124	3.108519E-007	-0.0852688	8
	3	2	501234.4	3153.362	-3662.382	1	4832.88	-49.27109	-2.365194E-006	-0.0848567	8
	4	2	398109.4	3767.287	-3966.587	1	5470.49	-46.47617	4.336392E-007	-0.0852747	8
	5	3	316265.6	4500.076	-4212.467	1	6164.054	-43.1093	-1.306118E-006	-0.0851871	8
	6	3	251203.1	5266.02	-4379.164	1	6848.944	-39.74654	-8.035026E-007	-0.0852317	8
	7	4	199546.9	6010.117	-4479.247	1	7495.676	-36.69659	-5.315216E-007	-0.0851774	8
	8	4	158578.1	6781.09	-4523.597	1	8151.448	-33.70686	-1.17986E-007	-0.085427	8
	9	4	125953.1	7576.258	-4464.487	1	8793.823	-30.50971	9.152433E-007	-0.0874083	7
	10	5	100078.1	8260.672	-4414.547	1	9366.266	-28.12028	3.015156E-008	-0.0855194	7
	11	5	79453.13	8930.247	-4358.111	1	9936.92	-26.01316	1.489698E-009	-0.0854608	7
	12	5	63140.62	9555.27	-4309.927	1	10482.3	-24.27787	-4.410887E-008	-0.0853622	7
	13	6	50203.12	10143.03	-4261.974	1	11002.06	-22.79154	-3.520233E-008	-0.0853961	7
	14	6	39890.62	10714.13	-4248.147	1	11525.6	-21.6283	1.632523E-009	-0.0854707	7
	15	6	31640.63	11267.89	-4269.2	1	12049.54	-20.75079	6.717908E-009	-0.0854159	7
	16	7	25171.88	11802.71	-4320.391	1	12568.6	-20.10519	1.099364E-008	-0.0855023	7
	17	7	20015.62	12344.17	-4419.219	1	13111.37	-19.69739	-9.03127E-009	-0.0854216	7
	18	7	15890.62	12885.99	-4564.241	1	13670.44	-19.50424	8.968968E-008	-0.0855642	7
	19	8	12609.37	13477.9	-4693.638	1	14271.79	-19.20052	1.232922E-008	-0.085648	6
	20	8	10078.13	14018.66	-4955.445	1	14868.73	-19.46796	2.259978E-009	-0.0854114	6
	21	8	8015.625	14621.42	-5280.231	1	15545.63	-19.85616	-6.180318E-009	-0.0853058	6
	22	9	6328.125	15260.33	-5680.278	1	16283.22	-20.41653	1.200794E-008	-0.0856482	6
	23	9	5015.625	15939.76	-6158.472	1	17088.09	-21.1245	2.945536E-009	-0.0855819	6
	24	9	3984.375	16655.59	-6716.484	1	17958.84	-21.9621	1.347796E-008	-0.0856157	6
	25	9	3170.956	17429.55	-7364.472	1	18921.54	-22.90541	-6.443007E-009	-0.0853112	6
	26	10	2527.573	18258.62	-8120.115	1	19982.83	-23.97605	2.961149E-009	-0.0855448	6
	27	10	1976.103	19247.47	-9073.487	1	21278.94	-25.23975	1.346359E-008	-0.0856238	6
	28	10	1577.524	20215.56	-10097.63	1	22597.15	-26.54204	5.21316E-009	-0.0855701	6
	29	11	1265.625	21335.72	-11264.64	1	24126.86	-27.83276	1.80601E-009	-0.0853558	6
	30	11	998.264	22643.57	-12708.15	1	25965.9	-29.30225	-7.611068E-009	-0.0853983	6
	31	11	796.875	24031.73	-14290.55	1	27959.68	-30.73798	9.040367E-009	-0.0855063	6
	32	12	627.7902	25694.44	-16221.64	1	30386.61	-32.2654	-7.46852E-009	-0.0853674	6
	33	12	505.5147	27428.29	-18234.83	1	32936.6	-33.61668	4.675598E-010	-0.0853954	6
	34	12	397.9953	29531.11	-20779.9	1	36109.43	-35.13258	3.415872E-010	-0.0854379	6
	35	13	315.5048	31874.36	-23609.89	1	39666.13	-36.52799	8.785648E-010	-0.0854388	6
	36	13	252.4038	34426.86	-26705.02	1	43570.25	-37.80084	9.375184E-010	-0.0854483	6
	37	13	198.6229	37514.99	-30508.64	1	48354.43	-39.11934	6.109205E-010	-0.085442	6
	38	14	158.3615	40816.28	-34593.91	1	53504.27	-40.283	4.283428E-010	-0.0854465	6
	39	14	125.558	44569.58	-39387.34	1	59479.49	-41.4679	2.589532E-010	-0.0854481	6
	40	14	100.4464	48487.13	-44656.23	1	65917.98	-42.64481	7.152256E-010	-0.0854536	6
	41	15	79.00281	53238.95	-51315.33	1	73943.55	-43.94597	4.115964E-010	-0.0854534	6
	42	15	63.3446	57865.09	-57484.28	1	81564.77	-44.81084	4.845486E-010	-0.0854561	6
	43	15	49.86702	63644.26	-66705.47	1	92196.59	-46.34532	4.41885E-010	-0.08545	6
	44	16	39.72458	69354.1	-77162.55	1	103749.9	-48.05063	-2.359802E-010	-0.0854524	5
	45	16	31.6723	75960.95	-89522.6	1	117406.8	-49.68501	2.99029E-010	-0.085457	5
	46	16	24.93351	83661.83	-104902.6	1	134178.5	-51.42698	-4.322149E-010	-0.0854559	5
	47	17	19.86229	92139.09	-122920.8	1	153620.1	-53.14546	-1.049942E-009	-0.0854545	5
	48	17	15.83615	102448.4	-145120.5	1	177639	-54.77967	-2.236614E-010	-0.0854554	5
	49	17	12.40079	114672.5	-171442.7	1	206258.1	-56.22271	1.083706E-009	-0.0854582	5
	50	17	9.93114	130276.5	-202264.7	1	240588.8	-57.21486	3.218298E-010	-0.0854566	5
	51	18	7.944915	149393.2	-237535.7	1	280609.2	-57.83301	-5.02886E-010	-0.0854557	5
	52	18	6.317385	172450.3	-279878.6	1	328741.8	-58.36024	-3.551128E-010	-0.0854425	5
	53	19	5.008013	202121.3	-329471.3	1	386528.7	-58.47206	-2.133395E-010	-0.0854622	5
	54	20	3.945707	238456.6	-386383.8	1	454041.8	-58.31921	3.671543E-011	-0.0854632	5
	55	21	3.158693	279448.8	-446581.7	1	526808.1	-57.9637	1.025721E-010	-0.0854466	5
	56	23	2.504006	329570.7	-516850.2	1	612985.3	-57.47629	-3.68221E-011	-0.0854561	5
	57	24	1.998082	382669.6	-593175.4	1	705898.8	-57.17311	-1.404093E-011	-0.085473	5
	58	26	1.584686	446808.7	-681603.1	1	814997.4	-56.75411	8.836128E-011	-0.0854232	5
	59	28	1.266892	515184.1	-782853.6	1	937162.9	-56.65169	9.426176E-011	-0.0854219	5
	60	30	0.999041	596037.7	-908083.7	1	1086221	-56.72036	8.279886E-011	-0.0853926	4
