EXPLAIN
TAG	EISPOT
TITLE	LABEL	Potentiostatic EIS	Test &Identifier
DATE	LABEL	7/30/2020	Date
TIME	LABEL	22:55:19	Time
NOTES	NOTES	1	&Notes...
	
PSTAT	PSTAT	REF600-11020	Potentiostat
VDC	POTEN	0.00000E+000	T	DC &Voltage (V)
FREQINIT	QUANT	1.00000E+006	Initial Fre&q. (Hz)
FREQFINAL	QUANT	1.00000E+000	Final Fre&q. (Hz)
PTSPERDEC	QUANT	1.00000E+001	Points/&decade
VAC	QUANT	2.50000E+001	AC &Voltage (mV rms)
AREA	QUANT	4.00000E-005	&Area (cm^2)
CONDIT	TWOPARAM	F	5.00000E+000	0.00000E+000	Conditionin&g	Time(s)	E(V)
DELAY	TWOPARAM	F	3.00000E+000	0.00000E+000	Init. De&lay	Time(s)	Stab.(mV/s)
SPEED	SELECTOR	0	&Optimize for:
ZGUESS	QUANT	1.00000E+003	E&stimated Z (ohms)
OCVCURVE	TABLE	39
	Pt	T	Vf	Vm	Ach	Over
	#	s	V vs. Ref.	V	V	bits
	0	0.258333	-9.56127E-002	-9.56127E-002	5.01650E-004	...........
	1	0.516667	-9.56129E-002	-9.56244E-002	4.90817E-004	...........
	2	0.775	-9.56142E-002	-9.56344E-002	4.95950E-004	...........
	3	1.03333	-9.56180E-002	-9.56443E-002	4.97284E-004	...........
	4	1.29167	-9.56246E-002	-9.56541E-002	5.03717E-004	...........
	5	1.55	-9.56334E-002	-9.56655E-002	4.96117E-004	...........
	6	1.80833	-9.56433E-002	-9.56729E-002	5.00284E-004	...........
	7	2.06667	-9.56533E-002	-9.56775E-002	5.02984E-004	...........
	8	2.325	-9.56625E-002	-9.56804E-002	4.97784E-004	...........
	9	2.58333	-9.56702E-002	-9.56887E-002	5.01750E-004	...........
	10	2.84167	-9.56764E-002	-9.56914E-002	5.00817E-004	...........
	11	3.1	-9.56818E-002	-9.56977E-002	4.99684E-004	...........
	12	3.35833	-9.56869E-002	-9.57030E-002	5.00017E-004	...........
	13	3.61667	-9.56920E-002	-9.57079E-002	4.96750E-004	...........
	14	3.875	-9.56971E-002	-9.57099E-002	4.96684E-004	...........
	15	4.13333	-9.57020E-002	-9.57139E-002	4.98850E-004	...........
	16	4.39167	-9.57063E-002	-9.57168E-002	5.00250E-004	...........
	17	4.65	-9.57100E-002	-9.57179E-002	4.89417E-004	...........
	18	4.90833	-9.57132E-002	-9.57204E-002	4.94250E-004	...........
	19	5.16667	-9.57158E-002	-9.57210E-002	4.94184E-004	...........
	20	5.425	-9.57179E-002	-9.57214E-002	4.98550E-004	...........
	21	5.68333	-9.57195E-002	-9.57207E-002	4.98117E-004	...........
	22	5.94167	-9.57205E-002	-9.57217E-002	4.93284E-004	...........
	23	6.2	-9.57210E-002	-9.57217E-002	4.93850E-004	...........
	24	6.45833	-9.57213E-002	-9.57213E-002	4.88417E-004	...........
	25	6.71667	-9.57214E-002	-9.57194E-002	4.96717E-004	...........
	26	6.975	-9.57213E-002	-9.57194E-002	4.90284E-004	...........
	27	7.23333	-9.57208E-002	-9.57197E-002	4.98684E-004	...........
	28	7.49167	-9.57202E-002	-9.57172E-002	4.99150E-004	...........
	29	7.75	-9.57195E-002	-9.57159E-002	4.94817E-004	...........
	30	8.00833	-9.57187E-002	-9.57160E-002	4.92684E-004	...........
	31	8.26667	-9.57176E-002	-9.57130E-002	4.97350E-004	...........
	32	8.525	-9.57163E-002	-9.57047E-002	4.94717E-004	...........
	33	8.78333	-9.57142E-002	-9.57036E-002	4.91384E-004	...........
	34	9.04167	-9.57112E-002	-9.57007E-002	4.94084E-004	...........
	35	9.3	-9.57075E-002	-9.56943E-002	4.90817E-004	...........
	36	9.5583	-9.57036E-002	-9.56871E-002	4.91950E-004	...........
	37	9.8167	-9.56992E-002	-9.56857E-002	4.92884E-004	...........
	38	10.075	-9.56945E-002	-9.56801E-002	4.91250E-004	...........
EOC	QUANT	-0.0956945	Open Circuit (V)
PSTATMODEL	IQUANT	4	Pstat Model
PSTATSECTION	LABEL	REF600-11020	Pstat Section
PSTATSERIALNO	LABEL	11020	Pstat Serial Number
CTRLMODE	IQUANT	1	Control Mode
IESTAB	IQUANT	0	I/E Stability
CASPEED	IQUANT	1	Control Amp Speed
CONVENTION	IQUANT	1	Current Convention
ICHRANGE	IQUANT	2	Ich Range
ICHRANGEMODE	TOGGLE	F	Ich Auto Range
ICHOFFSETENABLE	TOGGLE	T	Ich Offset Enable
ICHOFFSET	QUANT	0	Ich Offset (V)
ICHFILTER	IQUANT	3	Ich Filter
VCHRANGE	IQUANT	2	Vch Range
VCHRANGEMODE	TOGGLE	F	Vch Auto Range
VCHOFFSETENABLE	TOGGLE	T	Vch Offset Enable
VCHOFFSET	QUANT	0	Vch Offset (V)
VCHFILTER	IQUANT	3	Vch Filter
ACHRANGE	IQUANT	2	Ach Range
ACHOFFSETENABLE	TOGGLE	F	Ach Offset Enable
ACHOFFSET	QUANT	0	Ach Offset (V)
ACHFILTER	IQUANT	3	Ach Filter
IERANGELOWERLIMIT	IQUANT	1	I/E Range Lower Limit
IERANGEMODE	TOGGLE	F	I/E AutoRange
IERANGE	IQUANT	8	I/E Range
POSFEEDENABLE	TOGGLE	F	Positive Feedback IR Comp
POSFEEDRESISTANCE	QUANT	0	Positive Feedback Resistance (ohm)
ACHSELECT	IQUANT	0	Ach Select
CABLEID	IQUANT	14	Cable ID
DCCALDATE	LABEL	6/26/2020	DC Calibration Date
ACCALDATE	LABEL	6/26/2020	AC Calibration Date
THERMOSELECT	IQUANT	1	Thermo Select
FRAMEWORKVERSION	QUANT	6.33	Framework Version
INSTRUMENTVERSION	LABEL	3.50	Instrument Version
ZCURVE	TABLE
	Pt	Time	Freq	Zreal	Zimag	Zsig	Zmod	Zphz	Idc	Vdc	IERange
	#	s	Hz	ohm	ohm	V	ohm	°	A	V	#
	0	1	1000078	1448.626	-1757.548	1	2277.606	-50.50359	4.737861E-008	-0.0934814	8
	1	1	794390.6	1709.454	-1947.147	1	2591.064	-48.71921	4.061248E-008	-0.0937945	8
	2	1	630984.4	2002.158	-2138.27	1	2929.306	-46.88285	3.010782E-008	-0.0939119	8
	3	2	501234.4	2321.169	-2336.302	1	3293.347	-45.18617	-4.326239E-008	-0.0939794	8
	4	2	398109.4	2674.116	-2539.014	1	3687.477	-43.51548	-3.942568E-008	-0.0940389	8
	5	2	316265.6	3065.448	-2761.652	1	4125.978	-42.01558	4.328346E-008	-0.0940859	8
	6	3	251203.1	3502.447	-2974.689	1	4595.205	-40.34182	1.897742E-008	-0.0941003	8
	7	3	199546.9	3990.614	-3177.223	1	5100.955	-38.52589	5.408523E-008	-0.0940772	8
	8	3	158578.1	4537.916	-3359.265	1	5646.002	-36.51129	-2.945972E-008	-0.0940671	8
	9	4	125953.1	5167.012	-3493.555	1	6237.222	-34.06368	-1.672843E-009	-0.0940949	7
	10	4	100078.1	5801.332	-3591.756	1	6823.208	-31.76273	1.445146E-009	-0.0941088	7
	11	4	79453.13	6454.193	-3628.377	1	7404.17	-29.34355	1.026183E-009	-0.094123	7
	12	4	63140.62	7096.056	-3593.163	1	7953.919	-26.85585	8.73816E-010	-0.0941261	7
	13	5	50203.12	7722.818	-3499.837	1	8478.843	-24.37914	5.534634E-010	-0.0941326	7
	14	5	39890.62	8310.53	-3355.245	1	8962.287	-21.98561	-1.012949E-010	-0.094139	7
	15	5	31640.63	8856.877	-3172.1	1	9407.789	-19.70504	-2.22409E-010	-0.0941373	7
	16	6	25171.88	9336.529	-2962.597	1	9795.29	-17.60488	9.662006E-010	-0.0941377	7
	17	6	20015.62	9768.48	-2749.167	1	10147.96	-15.71832	8.438452E-010	-0.0941374	7
	18	6	15890.62	10134.71	-2530.816	1	10445.93	-14.02101	7.656991E-010	-0.094149	7
	19	7	12609.37	10473.5	-2280.716	1	10718.95	-12.28498	7.227452E-011	-0.0941493	6
	20	7	10078.13	10721.48	-2121.872	1	10929.43	-11.19466	4.438908E-010	-0.0941517	6
	21	7	8015.625	10931.14	-1998.213	1	11112.28	-10.3593	1.533797E-010	-0.0941552	6
	22	8	6328.125	11111.35	-1918.778	1	11275.8	-9.79757	1.982238E-010	-0.0941579	6
	23	8	5015.625	11268.95	-1891.522	1	11426.59	-9.52842	5.897889E-011	-0.0941552	6
	24	8	3984.375	11406.33	-1922.861	1	11567.27	-9.56886	-7.757647E-011	-0.0941608	6
	25	9	3170.956	11538.03	-2014.263	1	11712.53	-9.90268	-4.209241E-010	-0.0941644	6
	26	9	2527.573	11663.23	-2170.917	1	11863.55	-10.54399	-7.322457E-011	-0.0941568	6
	27	9	1976.103	11797.63	-2424.795	1	12044.24	-11.6144	-2.679387E-010	-0.0941553	6
	28	10	1577.524	11934.09	-2744.471	1	12245.6	-12.95108	-4.567149E-010	-0.0941602	6
	29	10	1265.625	12079.27	-3150.226	1	12483.3	-14.61693	-3.992188E-010	-0.094155	6
	30	10	998.264	12267.58	-3710.517	1	12816.46	-16.82874	-2.72096E-010	-0.0941535	6
	31	10	796.875	12472.48	-4376.878	1	13218.17	-19.33713	-2.034288E-010	-0.0941493	6
	32	11	627.7902	12744.87	-5255.411	1	13785.9	-22.40905	-7.728229E-011	-0.0941549	6
	33	11	505.5147	13039.53	-6232.275	1	14452.35	-25.54559	-5.222285E-010	-0.0941625	6
	34	11	397.9953	13451.15	-7543.626	1	15422.06	-29.28442	1.873934E-010	-0.0941266	6
	35	12	315.5048	13960.96	-9093.288	1	16661.22	-33.07769	6.612816E-011	-0.0941332	6
	36	12	252.4038	14577.75	-10882.98	1	18192.03	-36.74307	9.754297E-011	-0.0941293	6
	37	12	198.6229	15427.44	-13188.41	1	20296.31	-40.52604	-1.020879E-010	-0.094125	6
	38	13	158.3615	16456.34	-15793.67	1	22809.02	-43.82287	-1.996967E-010	-0.094131	6
	39	13	125.558	17793.58	-18958.3	1	26000.55	-46.81519	2.69029E-010	-0.094131	6
	40	13	100.4464	19423.58	-22534.04	1	29749.93	-49.23978	1.486473E-011	-0.0941344	6
	41	14	79.00281	21655.42	-27039.84	1	34642.6	-51.30978	4.437132E-010	-0.0941369	6
	42	14	63.3446	24236.35	-31842.31	1	40016.66	-52.72391	3.718272E-010	-0.0941396	6
	43	14	49.86702	27719.28	-37825.5	1	46894.85	-53.76529	-7.393577E-011	-0.0941435	6
	44	15	39.72458	31796.18	-44294.47	1	54525.2	-54.32784	-2.062103E-011	-0.0941354	6
	45	15	31.6723	36726.74	-51574.46	1	63314.92	-54.54491	2.179974E-010	-0.0941358	6
	46	15	24.93351	42993.45	-60184.86	1	73963.87	-54.45963	-8.179915E-010	-0.0941418	6
	47	16	19.86229	50078.56	-69431.14	1	85606.92	-54.19824	-2.472625E-009	-0.0941362	6
	48	16	15.83615	58604.1	-79482.55	1	98751.8	-53.59789	2.474018E-009	-0.0941373	6
	49	16	12.40079	69180.87	-91112.77	1	114400.7	-52.79102	1.464907E-009	-0.0941466	5
	50	16	9.93114	80057.58	-102330.8	1	129926.1	-51.96246	2.292919E-009	-0.0941474	5
	51	17	7.944915	91919.61	-115150.1	1	147338.9	-51.40106	9.051566E-010	-0.0941505	5
	52	17	6.317385	105282.2	-129123	1	166604.5	-50.80744	-1.442551E-010	-0.094142	5
	53	18	5.008013	119507.9	-145008.9	1	187908.8	-50.50662	2.474555E-010	-0.0941386	5
	54	19	3.945707	134693.8	-164290.7	1	212447.3	-50.65337	4.77732E-010	-0.0941445	5
	55	20	3.158693	149368.3	-185301.3	1	238007.3	-51.12828	8.749336E-011	-0.0941279	5
	56	21	2.504006	165790.4	-212262.5	1	269335.9	-52.00791	-2.001603E-010	-0.0941412	5
	57	22	1.998082	182639.8	-243603.6	1	304466.8	-53.13958	5.499214E-011	-0.0941288	5
	58	24	1.584686	203051.5	-283807.2	1	348964.8	-54.41796	1.635892E-010	-0.094105	5
	59	26	1.266892	224631	-331137.7	1	400139	-55.84856	9.04486E-011	-0.0941249	5
	60	28	0.999041	251955.7	-390969.3	1	465122.2	-57.2007	7.401375E-011	-0.0941577	5
