EXPLAIN
TAG	EISPOT
TITLE	LABEL	Potentiostatic EIS	Test &Identifier
DATE	LABEL	2/28/2020	Date
TIME	LABEL	15:37:22	Time
NOTES	NOTES	1	&Notes...
	
PSTAT	PSTAT	REF600-11020	Potentiostat
VDC	POTEN	0.00000E+000	T	DC &Voltage (V)
FREQINIT	QUANT	1.00000E+006	Initial Fre&q. (Hz)
FREQFINAL	QUANT	1.00000E+000	Final Fre&q. (Hz)
PTSPERDEC	QUANT	1.00000E+001	Points/&decade
VAC	QUANT	2.50000E+001	AC &Voltage (mV rms)
AREA	QUANT	1.60000E-004	&Area (cm^2)
CONDIT	TWOPARAM	F	1.50000E+001	0.00000E+000	Conditionin&g	Time(s)	E(V)
DELAY	TWOPARAM	F	1.00000E+002	0.00000E+000	Init. De&lay	Time(s)	Stab.(mV/s)
SPEED	SELECTOR	1	&Optimize for:
ZGUESS	QUANT	1.00000E+003	E&stimated Z (ohms)
OCVCURVE	TABLE	39
	Pt	T	Vf	Vm	Ach	Over
	#	s	V vs. Ref.	V	V	bits
	0	0.258333	-8.84135E-002	-8.84135E-002	6.03230E-004	...........
	1	0.516667	-8.84125E-002	-8.83598E-002	6.01463E-004	...........
	2	0.775	-8.84059E-002	-8.82949E-002	5.99530E-004	...........
	3	1.03333	-8.83865E-002	-8.82379E-002	5.98463E-004	...........
	4	1.29167	-8.83507E-002	-8.81850E-002	5.97063E-004	...........
	5	1.55	-8.83029E-002	-8.81868E-002	6.02030E-004	...........
	6	1.80833	-8.82546E-002	-8.81910E-002	5.99763E-004	...........
	7	2.06667	-8.82173E-002	-8.81704E-002	6.02996E-004	...........
	8	2.325	-8.81942E-002	-8.81412E-002	5.99196E-004	...........
	9	2.58333	-8.81787E-002	-8.81140E-002	5.98130E-004	...........
	10	2.84167	-8.81621E-002	-8.80743E-002	5.96130E-004	...........
	11	3.1	-8.81399E-002	-8.80493E-002	6.00430E-004	...........
	12	3.35833	-8.81125E-002	-8.80231E-002	5.96996E-004	...........
	13	3.61667	-8.80828E-002	-8.80026E-002	5.97663E-004	...........
	14	3.875	-8.80542E-002	-8.79838E-002	6.02296E-004	...........
	15	4.13333	-8.80286E-002	-8.79684E-002	6.02696E-004	...........
	16	4.39167	-8.80063E-002	-8.79519E-002	5.95130E-004	...........
	17	4.65	-8.79860E-002	-8.78881E-002	5.98996E-004	...........
	18	4.90833	-8.79620E-002	-8.77746E-002	5.95330E-004	...........
	19	5.16667	-8.79257E-002	-8.77753E-002	5.98363E-004	...........
	20	5.425	-8.78769E-002	-8.77809E-002	5.95630E-004	...........
	21	5.68333	-8.78232E-002	-8.74605E-002	5.96030E-004	...........
	22	5.94167	-8.77607E-002	-8.75435E-002	5.95663E-004	...........
	23	6.2	-8.76836E-002	-8.75444E-002	5.94363E-004	...........
	24	6.45833	-8.76102E-002	-8.76036E-002	5.93563E-004	...........
	25	6.71667	-8.75649E-002	-8.74305E-002	5.98363E-004	...........
	26	6.975	-8.75427E-002	-8.74884E-002	5.92763E-004	...........
	27	7.23333	-8.75250E-002	-8.75520E-002	5.95996E-004	...........
	28	7.49167	-8.75132E-002	-8.76539E-002	5.95896E-004	...........
	29	7.75	-8.75283E-002	-8.78782E-002	5.99063E-004	...........
	30	8.00833	-8.75899E-002	-8.80768E-002	5.99896E-004	...........
	31	8.26667	-8.77009E-002	-8.80312E-002	6.00430E-004	...........
	32	8.525	-8.78301E-002	-8.78153E-002	5.99396E-004	...........
	33	8.78333	-8.79157E-002	-8.75924E-002	6.04930E-004	...........
	34	9.04167	-8.79077E-002	-8.74553E-002	5.98763E-004	...........
	35	9.3	-8.78094E-002	-8.74711E-002	5.93596E-004	...........
	36	9.5583	-8.76752E-002	-8.75178E-002	5.96596E-004	...........
	37	9.8167	-8.75663E-002	-8.75044E-002	5.98863E-004	...........
	38	10.075	-8.75112E-002	-8.75716E-002	5.97563E-004	...........
EOC	QUANT	-0.0875112	Open Circuit (V)
PSTATMODEL	IQUANT	4	Pstat Model
PSTATSECTION	LABEL	REF600-11020	Pstat Section
PSTATSERIALNO	LABEL	11020	Pstat Serial Number
CTRLMODE	IQUANT	1	Control Mode
IESTAB	IQUANT	0	I/E Stability
CASPEED	IQUANT	1	Control Amp Speed
CONVENTION	IQUANT	1	Current Convention
ICHRANGE	IQUANT	2	Ich Range
ICHRANGEMODE	TOGGLE	F	Ich Auto Range
ICHOFFSETENABLE	TOGGLE	T	Ich Offset Enable
ICHOFFSET	QUANT	0	Ich Offset (V)
ICHFILTER	IQUANT	3	Ich Filter
VCHRANGE	IQUANT	2	Vch Range
VCHRANGEMODE	TOGGLE	F	Vch Auto Range
VCHOFFSETENABLE	TOGGLE	T	Vch Offset Enable
VCHOFFSET	QUANT	0	Vch Offset (V)
VCHFILTER	IQUANT	3	Vch Filter
ACHRANGE	IQUANT	2	Ach Range
ACHOFFSETENABLE	TOGGLE	F	Ach Offset Enable
ACHOFFSET	QUANT	0	Ach Offset (V)
ACHFILTER	IQUANT	3	Ach Filter
IERANGELOWERLIMIT	IQUANT	1	I/E Range Lower Limit
IERANGEMODE	TOGGLE	F	I/E AutoRange
IERANGE	IQUANT	8	I/E Range
POSFEEDENABLE	TOGGLE	F	Positive Feedback IR Comp
POSFEEDRESISTANCE	QUANT	0	Positive Feedback Resistance (ohm)
ACHSELECT	IQUANT	0	Ach Select
CABLEID	IQUANT	14	Cable ID
DCCALDATE	LABEL	2/27/2020	DC Calibration Date
ACCALDATE	LABEL	2/27/2020	AC Calibration Date
THERMOSELECT	IQUANT	1	Thermo Select
FRAMEWORKVERSION	QUANT	6.33	Framework Version
INSTRUMENTVERSION	LABEL	3.50	Instrument Version
ZCURVE	TABLE
	Pt	Time	Freq	Zreal	Zimag	Zsig	Zmod	Zphz	Idc	Vdc	IERange
	#	s	Hz	ohm	ohm	V	ohm	°	A	V	#
	0	2	1000078	1969.971	-1950.589	1	2772.289	-44.71675	1.019723E-006	-0.0855474	8
	1	3	794390.6	2343.636	-2068.595	1	3125.975	-41.43302	1.692686E-006	-0.086009	8
	2	4	630984.4	2746.602	-2107.667	1	3462.092	-37.50164	9.929277E-007	-0.0859535	8
	3	6	501234.4	3154.198	-2108.4	1	3793.984	-33.76044	-1.264077E-006	-0.0856091	8
	4	7	398109.4	3556.989	-2051.411	1	4106.149	-29.9732	-2.064867E-007	-0.0858296	8
	5	8	316265.6	3931.245	-1956.071	1	4391.002	-26.45358	3.605421E-009	-0.0859122	8
	6	10	251203.1	4248.177	-1817.127	1	4620.494	-23.15846	8.23839E-007	-0.0860806	8
	7	11	199546.9	4551.71	-1669.877	1	4848.355	-20.14647	1.605586E-006	-0.0861758	8
	8	12	158578.1	4801.784	-1460.961	1	5019.117	-16.92259	2.419539E-007	-0.0857942	8
	9	14	125953.1	5025.935	-1289.088	1	5188.62	-14.38554	6.137066E-007	-0.0871686	7
	10	15	100078.1	5165.992	-1143.684	1	5291.076	-12.48321	-1.416489E-008	-0.0860135	7
	11	16	79453.13	5293.634	-1025.266	1	5392.006	-10.96128	-3.147832E-009	-0.0859448	7
	12	18	63140.62	5397.25	-929.104	1	5476.637	-9.76739	-3.63742E-008	-0.0859528	7
	13	19	50203.12	5483.909	-852.8785	1	5549.834	-8.840039	-1.314755E-008	-0.0859033	7
	14	21	39890.62	5563.545	-795.5599	1	5620.138	-8.137851	-4.538582E-009	-0.085965	7
	15	22	31640.63	5631.392	-761.4301	1	5682.636	-7.70036	4.336171E-008	-0.0861076	7
	16	23	25171.88	5695.978	-746.5215	1	5744.689	-7.466695	-1.217242E-008	-0.0859085	7
	17	25	20015.62	5755.989	-748.7662	1	5804.486	-7.411685	9.894585E-008	-0.0861513	7
	18	26	15890.62	5824.444	-774.7952	1	5875.752	-7.577271	6.090472E-008	-0.0861084	7
	19	27	12609.37	5889.178	-818.8929	1	5945.839	-7.916245	2.259948E-008	-0.085953	7
	20	29	10078.13	5947.6	-870.3846	1	6010.949	-8.325689	6.134383E-008	-0.0861109	7
	21	30	8015.625	6028.313	-962.958	1	6104.739	-9.075707	-2.823242E-008	-0.0859249	7
	22	32	6328.125	6106.61	-1084.94	1	6202.24	-10.07442	7.137047E-008	-0.0860433	7
	23	33	5015.625	6193.562	-1231.848	1	6314.875	-11.24886	-3.216473E-008	-0.0859974	7
	24	35	3984.375	6285.635	-1412.658	1	6442.423	-12.66641	-9.312243E-009	-0.08591	7
	25	36	3170.956	6388.478	-1630.867	1	6593.358	-14.32076	5.372412E-009	-0.0860017	7
	26	37	2527.573	6501.059	-1897.569	1	6772.336	-16.2718	-3.946672E-009	-0.0860573	7
	27	39	1976.103	6640.786	-2251.26	1	7012.005	-18.72692	-3.453443E-008	-0.085944	7
	28	40	1577.524	6797.727	-2655.775	1	7298.098	-21.33988	-3.335812E-009	-0.0859506	7
	29	41	1265.625	6938.972	-3129.049	1	7611.851	-24.27245	-4.80516E-008	-0.0859503	7
	30	43	998.264	7131.263	-3756.085	1	8059.968	-27.77608	6.477416E-008	-0.0860386	7
	31	44	796.875	7340.084	-4483.13	1	8600.889	-31.41549	2.868794E-010	-0.086043	7
	32	45	627.7902	7609.321	-5429.377	1	9347.722	-35.50849	-3.875088E-008	-0.0859717	7
	33	47	505.5147	7892.493	-6464.567	1	10202.06	-39.32015	-2.165599E-009	-0.0858764	6
	34	48	397.9953	8265.958	-7868.747	1	11412.42	-43.58975	3.16691E-010	-0.0859437	6
	35	49	315.5048	8706.849	-9542.12	1	12917.48	-47.62064	2.58212E-010	-0.0859417	6
	36	51	252.4038	9223.598	-11498.72	1	14740.94	-51.26547	-1.326106E-010	-0.085948	6
	37	52	198.6229	9912.76	-14059.06	1	17202.32	-54.8131	2.06889E-010	-0.0859416	6
	38	53	158.3615	10723.99	-17007.07	1	20105.83	-57.7661	4.912779E-010	-0.0859499	6
	39	55	125.558	11762.43	-20665.64	1	23778.64	-60.35241	3.392298E-010	-0.0859396	6
	40	56	100.4464	12999.93	-24910.22	1	28098.34	-62.44124	-3.378154E-010	-0.0859404	6
	41	58	79.00281	14674.88	-30443.41	1	33795.76	-64.26417	-7.755352E-011	-0.0859384	6
	42	59	63.3446	16472.03	-36654.22	1	40185.31	-65.80135	-1.079246E-010	-0.0859417	6
	43	60	49.86702	19277.4	-44328.64	1	48338.87	-66.49699	-2.277125E-010	-0.0859446	6
	44	62	39.72458	22451.66	-53570.62	1	58085.18	-67.26125	2.469469E-010	-0.0859363	6
	45	63	31.6723	26269.58	-64478.6	1	69624.57	-67.83326	4.048925E-010	-0.0859383	6
	46	65	24.93351	31689.93	-78151.63	1	84332.25	-67.9278	-2.631426E-010	-0.0859413	6
	47	66	19.86229	38325.09	-93707.76	1	101242.1	-67.75616	-4.427901E-010	-0.0859387	6
	48	67	15.83615	46917.95	-111445.5	1	120918.9	-67.16917	-4.687943E-010	-0.0859426	5
	49	69	12.40079	58533.08	-135498.6	1	147600.8	-66.63648	7.297097E-010	-0.0859408	5
	50	70	9.93114	71962.64	-159452.5	1	174939.2	-65.70983	5.657447E-010	-0.0859428	5
	51	72	7.944915	88938.78	-186955.2	1	207032.2	-64.55852	-6.649469E-010	-0.0859383	5
	52	73	6.317385	110903.3	-218688.7	1	245202.6	-63.10913	-4.147062E-010	-0.0859405	5
	53	75	5.008013	138011.2	-254555.3	1	289560.9	-61.53495	-2.459284E-010	-0.0859454	5
	54	78	3.945707	171618.7	-293918.6	1	340354.4	-59.7194	3.613021E-010	-0.0859355	5
	55	80	3.158693	208200.4	-333828.7	1	393432.3	-58.04926	-9.766139E-011	-0.0859471	5
	56	84	2.504006	251319.6	-377764.5	1	453726.3	-56.36493	4.913251E-010	-0.0859605	5
	57	86	1.998082	296371.6	-422483.7	1	516070.3	-54.95041	-7.77719E-011	-0.0859146	5
	58	90	1.584686	346758.1	-475368.2	1	588401.3	-53.89106	2.126874E-010	-0.0859168	5
	59	93	1.266892	397726.6	-530018.5	1	662650.8	-53.11539	-7.918955E-011	-0.0859129	5
	60	97	0.999041	455530.2	-599398.8	1	752852.3	-52.76595	2.412075E-010	-0.0859699	5
