EXPLAIN
TAG	EISPOT
TITLE	LABEL	Potentiostatic EIS	Test &Identifier
DATE	LABEL	5/26/2020	Date
TIME	LABEL	18:43:02	Time
NOTES	NOTES	1	&Notes...
	
PSTAT	PSTAT	REF600-11020	Potentiostat
VDC	POTEN	0.00000E+000	T	DC &Voltage (V)
FREQINIT	QUANT	1.00000E+006	Initial Fre&q. (Hz)
FREQFINAL	QUANT	1.00000E+000	Final Fre&q. (Hz)
PTSPERDEC	QUANT	1.00000E+001	Points/&decade
VAC	QUANT	2.50000E+001	AC &Voltage (mV rms)
AREA	QUANT	5.00000E-004	&Area (cm^2)
CONDIT	TWOPARAM	F	5.00000E+000	0.00000E+000	Conditionin&g	Time(s)	E(V)
DELAY	TWOPARAM	T	3.00000E+000	0.00000E+000	Init. De&lay	Time(s)	Stab.(mV/s)
SPEED	SELECTOR	0	&Optimize for:
ZGUESS	QUANT	1.00000E+003	E&stimated Z (ohms)
OCVCURVE	TABLE	12
	Pt	T	Vf	Vm	Ach	Over
	#	s	V vs. Ref.	V	V	bits
	0	0.258333	1.12793E-001	1.12793E-001	5.91830E-004	...........
	1	0.516667	1.12792E-001	1.12760E-001	5.92930E-004	...........
	2	0.775	1.12789E-001	1.12732E-001	5.84230E-004	...........
	3	1.03333	1.12778E-001	1.12703E-001	5.89730E-004	...........
	4	1.29167	1.12759E-001	1.12674E-001	5.86630E-004	...........
	5	1.55	1.12735E-001	1.12650E-001	5.84197E-004	...........
	6	1.80833	1.12707E-001	1.12627E-001	5.84863E-004	...........
	7	2.06667	1.12679E-001	1.12603E-001	5.84230E-004	...........
	8	2.325	1.12653E-001	1.12579E-001	5.93063E-004	...........
	9	2.58333	1.12629E-001	1.12557E-001	5.87797E-004	...........
	10	2.84167	1.12605E-001	1.12535E-001	5.91996E-004	...........
	11	3.1	1.12582E-001	1.12513E-001	5.90263E-004	...........
EOC	QUANT	0.1125816	Open Circuit (V)
PSTATMODEL	IQUANT	4	Pstat Model
PSTATSECTION	LABEL	REF600-11020	Pstat Section
PSTATSERIALNO	LABEL	11020	Pstat Serial Number
CTRLMODE	IQUANT	1	Control Mode
IESTAB	IQUANT	0	I/E Stability
CASPEED	IQUANT	1	Control Amp Speed
CONVENTION	IQUANT	1	Current Convention
ICHRANGE	IQUANT	2	Ich Range
ICHRANGEMODE	TOGGLE	F	Ich Auto Range
ICHOFFSETENABLE	TOGGLE	T	Ich Offset Enable
ICHOFFSET	QUANT	0	Ich Offset (V)
ICHFILTER	IQUANT	3	Ich Filter
VCHRANGE	IQUANT	2	Vch Range
VCHRANGEMODE	TOGGLE	F	Vch Auto Range
VCHOFFSETENABLE	TOGGLE	T	Vch Offset Enable
VCHOFFSET	QUANT	0	Vch Offset (V)
VCHFILTER	IQUANT	3	Vch Filter
ACHRANGE	IQUANT	2	Ach Range
ACHOFFSETENABLE	TOGGLE	F	Ach Offset Enable
ACHOFFSET	QUANT	0	Ach Offset (V)
ACHFILTER	IQUANT	3	Ach Filter
IERANGELOWERLIMIT	IQUANT	1	I/E Range Lower Limit
IERANGEMODE	TOGGLE	F	I/E AutoRange
IERANGE	IQUANT	8	I/E Range
POSFEEDENABLE	TOGGLE	F	Positive Feedback IR Comp
POSFEEDRESISTANCE	QUANT	0	Positive Feedback Resistance (ohm)
ACHSELECT	IQUANT	0	Ach Select
CABLEID	IQUANT	14	Cable ID
DCCALDATE	LABEL	2/27/2020	DC Calibration Date
ACCALDATE	LABEL	2/27/2020	AC Calibration Date
THERMOSELECT	IQUANT	1	Thermo Select
FRAMEWORKVERSION	QUANT	6.33	Framework Version
INSTRUMENTVERSION	LABEL	3.50	Instrument Version
ZCURVE	TABLE
	Pt	Time	Freq	Zreal	Zimag	Zsig	Zmod	Zphz	Idc	Vdc	IERange
	#	s	Hz	ohm	ohm	V	ohm	°	A	V	#
	0	1	1000078	1850.939	-2374.451	1	3010.647	-52.06277	6.981283E-008	0.1149577	8
	1	2	794390.6	2247.572	-2636.896	1	3464.794	-49.55722	5.788101E-008	0.1145852	8
	2	2	630984.4	2705.557	-2875.817	1	3948.463	-46.74726	5.451282E-008	0.1144171	8
	3	2	501234.4	3215.084	-3083.605	1	4454.816	-43.80418	5.470282E-008	0.1143073	8
	4	3	398109.4	3762.149	-3255.62	1	4975.222	-40.87166	5.751744E-008	0.1142315	8
	5	3	316265.6	4330.591	-3373.022	1	5489.198	-37.91441	5.309731E-008	0.1142105	8
	6	3	251203.1	4926.371	-3452.003	1	6015.435	-35.01967	6.35721E-008	0.114185	8
	7	4	199546.9	5518.054	-3481.941	1	6524.786	-32.25229	8.199575E-008	0.1141535	8
	8	4	158578.1	6108.239	-3489.734	1	7034.829	-29.74001	5.799053E-008	0.1141874	8
	9	4	125953.1	6766.437	-3353.893	1	7552.037	-26.36605	2.008703E-009	0.114132	7
	10	5	100078.1	7295.411	-3290.943	1	8003.333	-24.28003	3.099755E-009	0.1141149	7
	11	5	79453.13	7823.604	-3206.984	1	8455.384	-22.28928	3.491528E-009	0.114112	7
	12	5	63140.62	8318.939	-3094.178	1	8875.736	-20.40237	2.218383E-009	0.1140938	7
	13	6	50203.12	8777.852	-2969.858	1	9266.646	-18.6925	2.693137E-009	0.1140991	7
	14	6	39890.62	9198.176	-2838.77	1	9626.27	-17.15144	2.480147E-009	0.1140955	7
	15	6	31640.63	9582.96	-2714.682	1	9960.05	-15.81648	2.349506E-009	0.1140894	7
	16	7	25171.88	9927.75	-2612.751	1	10265.8	-14.74456	3.136333E-009	0.1140963	7
	17	7	20015.62	10237.59	-2533.869	1	10546.5	-13.9017	3.700948E-009	0.1141011	7
	18	7	15890.62	10524.6	-2488.257	1	10814.75	-13.30179	2.800194E-009	0.1140891	7
	19	7	12609.37	10864.55	-2339.487	1	11113.58	-12.15207	1.892121E-010	0.114143	6
	20	8	10078.13	11107.11	-2399.468	1	11363.34	-12.19027	8.703161E-011	0.1141419	6
	21	8	8015.625	11352.57	-2503.922	1	11625.42	-12.43802	2.822029E-010	0.1141434	6
	22	8	6328.125	11620.79	-2661.729	1	11921.73	-12.90099	2.857926E-010	0.1141352	6
	23	9	5015.625	11897.18	-2870.072	1	12238.48	-13.56287	1.168642E-010	0.1141389	6
	24	9	3984.375	12192.09	-3133.925	1	12588.42	-14.41556	1.949971E-010	0.1141414	6
	25	9	3170.956	12514.84	-3457.658	1	12983.7	-15.44466	1.460864E-010	0.1141385	6
	26	10	2527.573	12866.49	-3844.532	1	13428.59	-16.63625	-1.008166E-010	0.1141359	6
	27	10	1976.103	13293.8	-4348.114	1	13986.82	-18.1118	6.389349E-011	0.1141364	6
	28	10	1577.524	13738.53	-4891.631	1	14583.39	-19.59838	4.763581E-011	0.1141263	6
	29	11	1265.625	14227.62	-5508.296	1	15256.69	-21.16417	-8.410091E-011	0.1141283	6
	30	11	998.264	14818.57	-6276.638	1	16093.04	-22.95585	2.094878E-011	0.1141318	6
	31	11	796.875	15444.54	-7112.959	1	17003.77	-24.72836	-3.335118E-010	0.1141307	6
	32	12	627.7902	16179.47	-8140.256	1	18111.85	-26.70799	-7.837761E-011	0.114128	6
	33	12	505.5147	16900.45	-9224.821	1	19254.16	-28.62716	-3.203927E-010	0.114129	6
	34	12	397.9953	17769.78	-10633.04	1	20708.13	-30.89535	3.491215E-010	0.1141485	6
	35	13	315.5048	18677.83	-12260.39	1	22342.3	-33.28146	2.885103E-010	0.1141502	6
	36	13	252.4038	19619.43	-14133.64	1	24180.2	-35.7686	3.506783E-010	0.1141463	6
	37	13	198.6229	20714.61	-16571.07	1	26527.26	-38.65876	4.247225E-010	0.1141462	6
	38	14	158.3615	21853.58	-19383.74	1	29211.44	-41.57246	4.27235E-010	0.1141462	6
	39	14	125.558	23153.33	-22902.76	1	32567.06	-44.68828	4.434331E-010	0.1141465	6
	40	14	100.4464	24568.37	-27032.04	1	36528.57	-47.73352	3.600398E-010	0.1141451	6
	41	14	79.00281	26335.87	-32472.08	1	41809.26	-50.95687	3.037404E-010	0.1141413	6
	42	15	63.3446	28237.93	-38583.18	1	47812.58	-53.80067	2.583691E-010	0.1141345	6
	43	15	49.86702	30677.19	-46646.28	1	55829.79	-56.66885	4.192331E-010	0.1141367	6
	44	16	39.72458	33465.96	-56023.51	1	65257.98	-59.14778	3.244968E-010	0.1141401	6
	45	16	31.6723	36814.59	-67362.95	1	76766.41	-61.34291	4.004632E-010	0.1141393	6
	46	16	24.93351	41199.7	-82024.25	1	91789.94	-63.33023	4.950781E-010	0.114137	6
	47	17	19.86229	46442.76	-98992.6	1	109345.6	-64.8662	6.015595E-010	0.1141483	5
	48	17	15.83615	53128.28	-119522.1	1	130798.1	-66.03457	-5.730961E-010	0.1141451	5
	49	17	12.40079	62567.15	-146292.6	1	159110.5	-66.84433	-1.658966E-010	0.1141467	5
	50	17	9.93114	73856.62	-175505.3	1	190412.5	-67.17754	-3.78131E-010	0.1141475	5
	51	18	7.944915	88273.65	-209950.6	1	227753.1	-67.19569	-4.954716E-010	0.1141457	5
	52	18	6.317385	107738.7	-251381.2	1	273496.1	-66.80067	5.412255E-011	0.1141371	5
	53	19	5.008013	133116	-300241.8	1	328428.1	-66.08929	-8.349801E-011	0.1141379	5
	54	20	3.945707	166371.1	-357977.2	1	394749.3	-65.0732	-1.006248E-010	0.1141491	5
	55	21	3.158693	204701.3	-418338.4	1	465735.6	-63.92657	-4.732666E-011	0.1141314	5
	56	22	2.504006	254139.7	-489054.2	1	551145.2	-62.54111	1.673878E-010	0.1141431	5
	57	23	1.998082	310131.7	-563838.3	1	643502.3	-61.18759	8.471936E-011	0.1141272	5
	58	25	1.584686	380376.9	-649739.3	1	752892.9	-59.65401	1.27342E-011	0.114087	5
	59	27	1.266892	456258.5	-742094.4	1	871134.9	-58.41574	1.988998E-011	0.1140989	5
	60	29	0.999041	549129.8	-849374.6	1	1011425	-57.1169	-1.329556E-011	0.1141184	4
