EXPLAIN
TAG	EISPOT
TITLE	LABEL	Potentiostatic EIS	Test &Identifier
DATE	LABEL	6/6/2020	Date
TIME	LABEL	13:35:54	Time
NOTES	NOTES	1	&Notes...
	
PSTAT	PSTAT	REF600-11020	Potentiostat
VDC	POTEN	0.00000E+000	T	DC &Voltage (V)
FREQINIT	QUANT	1.00000E+006	Initial Fre&q. (Hz)
FREQFINAL	QUANT	1.00000E+000	Final Fre&q. (Hz)
PTSPERDEC	QUANT	1.00000E+001	Points/&decade
VAC	QUANT	2.50000E+001	AC &Voltage (mV rms)
AREA	QUANT	2.50000E-001	&Area (cm^2)
CONDIT	TWOPARAM	F	5.00000E+000	0.00000E+000	Conditionin&g	Time(s)	E(V)
DELAY	TWOPARAM	T	3.00000E+000	0.00000E+000	Init. De&lay	Time(s)	Stab.(mV/s)
SPEED	SELECTOR	0	&Optimize for:
ZGUESS	QUANT	1.00000E+003	E&stimated Z (ohms)
OCVCURVE	TABLE	12
	Pt	T	Vf	Vm	Ach	Over
	#	s	V vs. Ref.	V	V	bits
	0	0.258333	-3.71655E-002	-3.71655E-002	6.02196E-004	...........
	1	0.516667	-3.71656E-002	-3.71690E-002	6.04763E-004	...........
	2	0.775	-3.71660E-002	-3.71739E-002	6.08129E-004	...........
	3	1.03333	-3.71674E-002	-3.71785E-002	6.02530E-004	...........
	4	1.29167	-3.71700E-002	-3.71863E-002	6.01563E-004	...........
	5	1.55	-3.71740E-002	-3.71897E-002	6.00463E-004	...........
	6	1.80833	-3.71790E-002	-3.71955E-002	6.05496E-004	...........
	7	2.06667	-3.71844E-002	-3.72015E-002	5.97696E-004	...........
	8	2.325	-3.71900E-002	-3.72137E-002	6.01030E-004	...........
	9	2.58333	-3.71961E-002	-3.72189E-002	6.00730E-004	...........
	10	2.84167	-3.72031E-002	-3.72235E-002	6.00830E-004	...........
	11	3.1	-3.72104E-002	-3.72284E-002	6.02330E-004	...........
EOC	QUANT	-0.0372104	Open Circuit (V)
PSTATMODEL	IQUANT	4	Pstat Model
PSTATSECTION	LABEL	REF600-11020	Pstat Section
PSTATSERIALNO	LABEL	11020	Pstat Serial Number
CTRLMODE	IQUANT	1	Control Mode
IESTAB	IQUANT	0	I/E Stability
CASPEED	IQUANT	1	Control Amp Speed
CONVENTION	IQUANT	1	Current Convention
ICHRANGE	IQUANT	2	Ich Range
ICHRANGEMODE	TOGGLE	F	Ich Auto Range
ICHOFFSETENABLE	TOGGLE	T	Ich Offset Enable
ICHOFFSET	QUANT	0	Ich Offset (V)
ICHFILTER	IQUANT	3	Ich Filter
VCHRANGE	IQUANT	2	Vch Range
VCHRANGEMODE	TOGGLE	F	Vch Auto Range
VCHOFFSETENABLE	TOGGLE	T	Vch Offset Enable
VCHOFFSET	QUANT	0	Vch Offset (V)
VCHFILTER	IQUANT	3	Vch Filter
ACHRANGE	IQUANT	2	Ach Range
ACHOFFSETENABLE	TOGGLE	F	Ach Offset Enable
ACHOFFSET	QUANT	0	Ach Offset (V)
ACHFILTER	IQUANT	3	Ach Filter
IERANGELOWERLIMIT	IQUANT	1	I/E Range Lower Limit
IERANGEMODE	TOGGLE	F	I/E AutoRange
IERANGE	IQUANT	7	I/E Range
POSFEEDENABLE	TOGGLE	F	Positive Feedback IR Comp
POSFEEDRESISTANCE	QUANT	0	Positive Feedback Resistance (ohm)
ACHSELECT	IQUANT	0	Ach Select
CABLEID	IQUANT	14	Cable ID
DCCALDATE	LABEL	2/27/2020	DC Calibration Date
ACCALDATE	LABEL	2/27/2020	AC Calibration Date
THERMOSELECT	IQUANT	1	Thermo Select
FRAMEWORKVERSION	QUANT	6.33	Framework Version
INSTRUMENTVERSION	LABEL	3.50	Instrument Version
ZCURVE	TABLE
	Pt	Time	Freq	Zreal	Zimag	Zsig	Zmod	Zphz	Idc	Vdc	IERange
	#	s	Hz	ohm	ohm	V	ohm	°	A	V	#
	0	1	1000078	1805.969	-1490.197	1	2341.412	-39.52777	1.831748E-008	-0.0348213	8
	1	1	794390.6	2000.976	-1596.406	1	2559.769	-38.58335	9.572659E-008	-0.0351597	8
	2	2	630984.4	2189.524	-1724.185	1	2786.903	-38.21938	1.141857E-007	-0.03534	8
	3	2	501234.4	2401.249	-1876.691	1	3047.617	-38.00933	8.194935E-008	-0.0354437	8
	4	2	398109.4	2632.302	-2055.495	1	3339.772	-37.98533	9.854934E-008	-0.0354901	8
	5	3	316265.6	2892.17	-2269.546	1	3676.341	-38.12201	9.722145E-008	-0.0355196	8
	6	3	251203.1	3202.394	-2517.993	1	4073.771	-38.17743	9.111975E-008	-0.0355428	8
	7	3	199546.9	3557.588	-2793.542	1	4523.307	-38.14023	9.429415E-008	-0.0355458	8
	8	3	158578.1	3977.662	-3089.116	1	5036.311	-37.83349	7.74476E-008	-0.035547	8
	9	4	125953.1	4554.195	-3314.492	1	5632.633	-36.0467	3.544352E-009	-0.0355959	7
	10	4	100078.1	5110.075	-3598.45	1	6249.937	-35.15273	5.775315E-009	-0.035611	7
	11	4	79453.13	5766.364	-3850.243	1	6933.637	-33.73132	5.94561E-009	-0.0356216	7
	12	5	63140.62	6496.13	-4030.614	1	7644.969	-31.8181	5.069088E-009	-0.0356271	7
	13	5	50203.12	7270.09	-4125.469	1	8359.049	-29.57308	6.672592E-009	-0.0356276	7
	14	5	39890.62	8072.809	-4110.884	1	9059.228	-26.98637	6.900126E-009	-0.0356301	7
	15	6	31640.63	8838.35	-3985.218	1	9695.28	-24.27064	6.502558E-009	-0.0356286	7
	16	6	25171.88	9533.42	-3776.678	1	10254.23	-21.61107	6.125333E-009	-0.0356368	7
	17	6	20015.62	10140.7	-3508.213	1	10730.4	-19.08325	6.40788E-009	-0.035633	7
	18	7	15890.62	10662.66	-3220.127	1	11138.29	-16.80433	6.364903E-009	-0.0356356	7
	19	7	12609.37	11182.1	-2775.131	1	11521.32	-13.93785	7.894514E-010	-0.0355812	6
	20	7	10078.13	11484.93	-2559.098	1	11766.59	-12.56156	7.624235E-010	-0.0355791	6
	21	8	8015.625	11741.95	-2388.959	1	11982.51	-11.50015	4.764433E-010	-0.0355833	6
	22	8	6328.125	11978.65	-2276.971	1	12193.14	-10.76271	5.948924E-010	-0.0355848	6
	23	8	5015.625	12181.8	-2224.13	1	12383.18	-10.34698	5.144179E-010	-0.0355884	6
	24	9	3984.375	12363.96	-2233.12	1	12564.01	-10.23811	4.451864E-010	-0.0355868	6
	25	9	3170.956	12548.15	-2302.553	1	12757.66	-10.39796	1.867151E-010	-0.0355928	6
	26	9	2527.573	12728.11	-2433.41	1	12958.63	-10.82343	3.651788E-010	-0.0355838	6
	27	10	1976.103	12926.19	-2649.822	1	13195	-11.58492	5.700568E-011	-0.0355915	6
	28	10	1577.524	13128.23	-2923.129	1	13449.72	-12.5527	6.819347E-010	-0.0355865	6
	29	10	1265.625	13330.91	-3265.875	1	13725.13	-13.76549	5.2113E-010	-0.0355912	6
	30	11	998.264	13563.66	-3736.17	1	14068.82	-15.40046	3.775959E-010	-0.0355905	6
	31	11	796.875	13815.06	-4303.482	1	14469.83	-17.30215	4.334659E-010	-0.0355954	6
	32	11	627.7902	14106.91	-5053.461	1	14984.74	-19.70884	5.989788E-010	-0.03559	6
	33	11	505.5147	14397.11	-5895.223	1	15557.33	-22.26776	3.528262E-010	-0.0355936	6
	34	12	397.9953	14770.16	-7038.215	1	16361.36	-25.47853	8.207013E-010	-0.0355759	6
	35	12	315.5048	15212.68	-8407.531	1	17381.37	-28.92794	7.413683E-010	-0.0355793	6
	36	12	252.4038	15726.46	-10008.89	1	18641.33	-32.47417	7.643857E-010	-0.0355798	6
	37	13	198.6229	16404.57	-12100.48	1	20384.59	-36.41356	7.710266E-010	-0.0355801	6
	38	13	158.3615	17183.07	-14498.08	1	22482.26	-40.15574	5.640599E-010	-0.0355767	6
	39	13	125.558	18175.38	-17461.21	1	25203.93	-43.85192	5.660116E-010	-0.0355764	6
	40	14	100.4464	19341.41	-20882.78	1	28463.67	-47.19447	6.116355E-010	-0.0355786	6
	41	14	79.00281	20901.4	-25319.38	1	32831.98	-50.45999	5.355439E-010	-0.0355813	6
	42	14	63.3446	22705.08	-30212.62	1	37793.16	-53.07477	6.774913E-010	-0.0355867	6
	43	15	49.86702	25139.01	-36557.92	1	44367.23	-55.48569	6.880346E-010	-0.0355891	6
	44	15	39.72458	28075.14	-43759.39	1	51991.32	-57.31659	5.235519E-010	-0.0355899	6
	45	15	31.6723	31745.61	-52244.66	1	61133.36	-58.71573	6.517981E-010	-0.0355931	6
	46	16	24.93351	36666.24	-62799.58	1	72720.02	-59.721	2.782073E-010	-0.0355906	6
	47	16	19.86229	42526.78	-74547.41	1	85824.48	-60.2967	-7.958824E-010	-0.0355919	6
	48	16	15.83615	49867.55	-88059.74	1	101199.3	-60.47746	1.049197E-009	-0.0355917	6
	49	17	12.40079	59879.09	-104874.8	1	120765.2	-60.27546	-1.425576E-009	-0.0355789	5
	50	17	9.93114	70891.88	-122160.1	1	141240.1	-59.87258	-1.581691E-009	-0.0355808	5
	51	17	7.944915	84155.87	-142007.5	1	165070.7	-59.34836	-3.572785E-010	-0.0355835	5
	52	18	6.317385	100686.8	-164700.2	1	193038.8	-58.56115	2.881498E-010	-0.0355902	5
	53	19	5.008013	120891.9	-190391.2	1	225529.7	-57.58585	-8.526028E-011	-0.0355932	5
	54	20	3.945707	145510	-219915.5	1	263696.7	-56.50885	-3.254415E-010	-0.0355882	5
	55	20	3.158693	172353.9	-249299.1	1	303077.4	-55.34182	1.157485E-010	-0.035601	5
	56	21	2.504006	204640.7	-283117.1	1	349332.3	-54.14011	4.871025E-010	-0.0355948	5
	57	23	1.998082	239448	-317530.8	1	397694.8	-52.98029	1.632259E-010	-0.035624	5
	58	24	1.584686	279783.5	-357695.9	1	454120.2	-51.9681	3.577678E-011	-0.0356442	5
	59	26	1.266892	320811.8	-399787.7	1	512591.8	-51.25451	1.122617E-010	-0.0356156	5
	60	29	0.999041	368785	-449397.9	1	581344	-50.62701	1.665261E-010	-0.0355896	5
