EXPLAIN
TAG	EISPOT
TITLE	LABEL	Potentiostatic EIS	Test &Identifier
DATE	LABEL	7/13/2020	Date
TIME	LABEL	20:31:21	Time
NOTES	NOTES	1	&Notes...
	
PSTAT	PSTAT	REF600-11020	Potentiostat
VDC	POTEN	0.00000E+000	T	DC &Voltage (V)
FREQINIT	QUANT	1.00000E+006	Initial Fre&q. (Hz)
FREQFINAL	QUANT	1.00000E+000	Final Fre&q. (Hz)
PTSPERDEC	QUANT	1.00000E+001	Points/&decade
VAC	QUANT	2.50000E+001	AC &Voltage (mV rms)
AREA	QUANT	4.00000E-004	&Area (cm^2)
CONDIT	TWOPARAM	F	5.00000E+000	0.00000E+000	Conditionin&g	Time(s)	E(V)
DELAY	TWOPARAM	F	3.00000E+000	0.00000E+000	Init. De&lay	Time(s)	Stab.(mV/s)
SPEED	SELECTOR	0	&Optimize for:
ZGUESS	QUANT	1.00000E+003	E&stimated Z (ohms)
OCVCURVE	TABLE	39
	Pt	T	Vf	Vm	Ach	Over
	#	s	V vs. Ref.	V	V	bits
	0	0.258333	1.59229E-001	1.59229E-001	5.35316E-004	...........
	1	0.516667	1.59228E-001	1.59190E-001	5.35750E-004	...........
	2	0.775	1.59224E-001	1.59157E-001	5.33517E-004	...........
	3	1.03333	1.59211E-001	1.59122E-001	5.37350E-004	...........
	4	1.29167	1.59189E-001	1.59094E-001	5.37816E-004	...........
	5	1.55	1.59160E-001	1.59065E-001	5.38983E-004	...........
	6	1.80833	1.59129E-001	1.59038E-001	5.37116E-004	...........
	7	2.06667	1.59098E-001	1.59015E-001	5.36583E-004	...........
	8	2.325	1.59069E-001	1.58989E-001	5.37216E-004	...........
	9	2.58333	1.59042E-001	1.58966E-001	5.39783E-004	...........
	10	2.84167	1.59016E-001	1.58946E-001	5.37150E-004	...........
	11	3.1	1.58992E-001	1.58929E-001	5.36816E-004	...........
	12	3.35833	1.58970E-001	1.58906E-001	5.33117E-004	...........
	13	3.61667	1.58949E-001	1.58885E-001	5.36583E-004	...........
	14	3.875	1.58928E-001	1.58867E-001	5.39683E-004	...........
	15	4.13333	1.58908E-001	1.58852E-001	5.36483E-004	...........
	16	4.39167	1.58889E-001	1.58835E-001	5.41650E-004	...........
	17	4.65	1.58870E-001	1.58821E-001	5.37383E-004	...........
	18	4.90833	1.58853E-001	1.58804E-001	5.37816E-004	...........
	19	5.16667	1.58837E-001	1.58791E-001	5.35716E-004	...........
	20	5.425	1.58822E-001	1.58777E-001	5.40683E-004	...........
	21	5.68333	1.58807E-001	1.58765E-001	5.37550E-004	...........
	22	5.94167	1.58793E-001	1.58751E-001	5.38483E-004	...........
	23	6.2	1.58779E-001	1.58740E-001	5.41916E-004	...........
	24	6.45833	1.58766E-001	1.58727E-001	5.36616E-004	...........
	25	6.71667	1.58753E-001	1.58714E-001	5.39816E-004	...........
	26	6.975	1.58740E-001	1.58704E-001	5.38450E-004	...........
	27	7.23333	1.58728E-001	1.58692E-001	5.36516E-004	...........
	28	7.49167	1.58716E-001	1.58679E-001	5.41150E-004	...........
	29	7.75	1.58704E-001	1.58671E-001	5.39050E-004	...........
	30	8.00833	1.58693E-001	1.58658E-001	5.35016E-004	...........
	31	8.26667	1.58682E-001	1.58648E-001	5.35216E-004	...........
	32	8.525	1.58670E-001	1.58638E-001	5.37883E-004	...........
	33	8.78333	1.58660E-001	1.58629E-001	5.38016E-004	...........
	34	9.04167	1.58649E-001	1.58621E-001	5.38016E-004	...........
	35	9.3	1.58639E-001	1.58610E-001	5.34050E-004	...........
	36	9.5583	1.58630E-001	1.58603E-001	5.39583E-004	...........
	37	9.8167	1.58621E-001	1.58595E-001	5.36983E-004	...........
	38	10.075	1.58612E-001	1.58586E-001	5.40716E-004	...........
EOC	QUANT	0.1586121	Open Circuit (V)
PSTATMODEL	IQUANT	4	Pstat Model
PSTATSECTION	LABEL	REF600-11020	Pstat Section
PSTATSERIALNO	LABEL	11020	Pstat Serial Number
CTRLMODE	IQUANT	1	Control Mode
IESTAB	IQUANT	0	I/E Stability
CASPEED	IQUANT	1	Control Amp Speed
CONVENTION	IQUANT	1	Current Convention
ICHRANGE	IQUANT	2	Ich Range
ICHRANGEMODE	TOGGLE	F	Ich Auto Range
ICHOFFSETENABLE	TOGGLE	T	Ich Offset Enable
ICHOFFSET	QUANT	0	Ich Offset (V)
ICHFILTER	IQUANT	3	Ich Filter
VCHRANGE	IQUANT	2	Vch Range
VCHRANGEMODE	TOGGLE	F	Vch Auto Range
VCHOFFSETENABLE	TOGGLE	T	Vch Offset Enable
VCHOFFSET	QUANT	0	Vch Offset (V)
VCHFILTER	IQUANT	3	Vch Filter
ACHRANGE	IQUANT	2	Ach Range
ACHOFFSETENABLE	TOGGLE	F	Ach Offset Enable
ACHOFFSET	QUANT	0	Ach Offset (V)
ACHFILTER	IQUANT	3	Ach Filter
IERANGELOWERLIMIT	IQUANT	1	I/E Range Lower Limit
IERANGEMODE	TOGGLE	F	I/E AutoRange
IERANGE	IQUANT	8	I/E Range
POSFEEDENABLE	TOGGLE	F	Positive Feedback IR Comp
POSFEEDRESISTANCE	QUANT	0	Positive Feedback Resistance (ohm)
ACHSELECT	IQUANT	0	Ach Select
CABLEID	IQUANT	14	Cable ID
DCCALDATE	LABEL	6/26/2020	DC Calibration Date
ACCALDATE	LABEL	6/26/2020	AC Calibration Date
THERMOSELECT	IQUANT	1	Thermo Select
FRAMEWORKVERSION	QUANT	6.33	Framework Version
INSTRUMENTVERSION	LABEL	3.50	Instrument Version
ZCURVE	TABLE
	Pt	Time	Freq	Zreal	Zimag	Zsig	Zmod	Zphz	Idc	Vdc	IERange
	#	s	Hz	ohm	ohm	V	ohm	°	A	V	#
	0	1	1000078	1769.727	-1900.239	1	2596.699	-47.03671	2.509383E-008	0.1606549	8
	1	1	794390.6	2153.594	-2017.424	1	2950.926	-43.13014	1.380804E-008	0.160392	8
	2	1	630984.4	2566.681	-2068.779	1	3296.619	-38.86927	5.442834E-009	0.160283	8
	3	2	501234.4	2981.569	-2054.239	1	3620.726	-34.56603	8.729159E-008	0.1601858	8
	4	2	398109.4	3370.96	-1978.431	1	3908.652	-30.40885	6.269583E-008	0.1601674	8
	5	2	316265.6	3724.232	-1857.19	1	4161.617	-26.50439	-1.814381E-009	0.1601501	8
	6	3	251203.1	4026.91	-1711.727	1	4375.616	-23.02899	8.036682E-008	0.1601167	8
	7	3	199546.9	4279.65	-1560.178	1	4555.168	-20.0297	5.293068E-008	0.1601492	8
	8	3	158578.1	4487.467	-1406.396	1	4702.691	-17.40127	1.500195E-008	0.16014	8
	9	4	125953.1	4695.519	-1214.517	1	4850.046	-14.50198	-1.6105E-008	0.1601859	7
	10	4	100078.1	4836.216	-1108.427	1	4961.612	-12.90884	1.136483E-008	0.1601109	7
	11	4	79453.13	4948.646	-1025.108	1	5053.706	-11.70325	2.677737E-009	0.1601036	7
	12	5	63140.62	5048.153	-964.506	1	5139.467	-10.81663	-6.78296E-009	0.1601105	7
	13	5	50203.12	5139.128	-924.8607	1	5221.687	-10.202	-1.124136E-008	0.1601264	7
	14	5	39890.62	5227.654	-906.671	1	5305.697	-9.83936	-1.512939E-008	0.1601191	7
	15	6	31640.63	5315.392	-907.3112	1	5392.272	-9.68675	-1.287128E-008	0.1601066	7
	16	6	25171.88	5402.58	-927.0895	1	5481.548	-9.73719	-1.988556E-009	0.1600944	7
	17	6	20015.62	5492.689	-965.677	1	5576.931	-9.97134	-1.319788E-008	0.1601041	7
	18	6	15890.62	5588.657	-1025.143	1	5681.901	-10.39437	1.077571E-008	0.1600805	7
	19	7	12609.37	5688.814	-1104.067	1	5794.961	-10.98325	-1.027092E-008	0.1601199	7
	20	7	10078.13	5794.393	-1203.629	1	5918.083	-11.73477	-1.141326E-008	0.1601201	7
	21	7	8015.625	5909.517	-1330.481	1	6057.439	-12.68814	-1.418336E-008	0.1601034	7
	22	8	6328.125	6040.434	-1491.945	1	6221.956	-13.87398	-7.404951E-009	0.1600938	7
	23	8	5015.625	6182.615	-1684.442	1	6407.969	-15.24023	1.277388E-008	0.160088	7
	24	8	3984.375	6338.736	-1913.055	1	6621.129	-16.79402	-1.461783E-008	0.1601126	7
	25	9	3170.956	6510.475	-2184.849	1	6867.302	-18.55123	2.217921E-009	0.1601086	7
	26	9	2527.573	6702.526	-2508.97	1	7156.73	-20.52249	1.300235E-008	0.1600864	7
	27	9	1976.103	6936.614	-2927.479	1	7529.06	-22.88134	1.266248E-008	0.1600842	7
	28	10	1577.524	7177.665	-3386.927	1	7936.633	-25.26123	-5.617518E-009	0.1600938	7
	29	10	1265.625	7442.621	-3919.166	1	8411.448	-27.77058	-1.092638E-008	0.1601011	7
	30	10	998.264	7762.447	-4608.845	1	9027.57	-30.69913	8.789729E-009	0.1600781	7
	31	11	796.875	8116.353	-5382.488	1	9738.91	-33.55098	1.842038E-009	0.1600562	6
	32	11	627.7902	8535.756	-6386.091	1	10660.27	-36.80228	-2.463481E-009	0.1601171	6
	33	11	505.5147	8978.505	-7482.608	1	11687.73	-39.80753	-1.597472E-009	0.1600751	6
	34	12	397.9953	9552.68	-8946.903	1	13088.19	-43.1245	3.266632E-010	0.1601	6
	35	12	315.5048	10224.28	-10663.4	1	14773.08	-46.20435	2.148903E-010	0.1601001	6
	36	12	252.4038	11003.07	-12639.13	1	16757.54	-48.9586	1.409073E-010	0.160101	6
	37	13	198.6229	12023.65	-15176.14	1	19361.9	-51.61115	1.153192E-010	0.1601046	6
	38	13	158.3615	13202.56	-18033.09	1	22349.5	-53.79103	2.87421E-010	0.1601023	6
	39	13	125.558	14671.3	-21494.62	1	26024.32	-55.68425	2.867375E-010	0.160103	6
	40	13	100.4464	16365.75	-25409.51	1	30223.85	-57.21524	2.715957E-010	0.1601023	6
	41	14	79.00281	18541	-30390.45	1	35599.84	-58.61293	1.746681E-010	0.1600974	6
	42	14	63.3446	20902.18	-35814.85	1	41468.12	-59.7314	2.2962E-010	0.160098	6
	43	15	49.86702	23941.33	-42808.82	1	49048.77	-60.78339	-2.53261E-010	0.1600937	6
	44	15	39.72458	27405.57	-50765.43	1	57690.51	-61.63774	6.935313E-010	0.1601064	6
	45	15	31.6723	31612.53	-60250.82	1	68040.53	-62.31481	5.999662E-010	0.1601015	6
	46	16	24.93351	37185.23	-72232.57	1	81242.14	-62.76065	7.621585E-011	0.1600997	6
	47	16	19.86229	43906.83	-85769.09	1	96354.3	-62.89123	1.005785E-009	0.1601016	6
	48	16	15.83615	52585.34	-101401.7	1	114225.8	-62.58946	-8.720027E-010	0.1600864	5
	49	16	12.40079	64575.2	-120992	1	137146	-61.91051	-1.663492E-009	0.1600912	5
	50	17	9.93114	78366.88	-140681.9	1	161036.6	-60.88	-1.698285E-009	0.1600866	5
	51	17	7.944915	94949.59	-162770.6	1	188440.2	-59.74355	-8.171909E-010	0.1600849	5
	52	18	6.317385	115837.9	-186847.4	1	219841.7	-58.20275	2.433258E-010	0.1600755	5
	53	18	5.008013	140511.5	-212647.2	1	254877	-56.54435	-1.748199E-010	0.1600715	5
	54	19	3.945707	168833	-240958	1	294219.8	-54.98207	-3.530975E-010	0.1600816	5
	55	20	3.158693	197092.4	-268204.1	1	332834.6	-53.68932	-3.53929E-011	0.1600674	5
	56	21	2.504006	228221.1	-299988.3	1	376932.2	-52.73734	2.927565E-010	0.160072	5
	57	22	1.998082	258104.5	-334213.8	1	422275.7	-52.32203	3.275967E-011	0.1600534	5
	58	24	1.584686	290881.3	-377177.1	1	476313.4	-52.36037	-8.125901E-011	0.1600212	5
	59	26	1.266892	321745.3	-427656.3	1	535172.8	-53.04419	-1.48058E-011	0.160046	5
	60	28	0.999041	356649.3	-492555.3	1	608119.6	-54.09246	1.218995E-011	0.1600779	5
