EXPLAIN
TAG	EISPOT
TITLE	LABEL	Potentiostatic EIS	Test &Identifier
DATE	LABEL	2/13/2020	Date
TIME	LABEL	14:00:15	Time
NOTES	NOTES	1	&Notes...
	
PSTAT	PSTAT	REF600-11020	Potentiostat
VDC	POTEN	0.00000E+000	T	DC &Voltage (V)
FREQINIT	QUANT	1.00000E+006	Initial Fre&q. (Hz)
FREQFINAL	QUANT	1.00000E+000	Final Fre&q. (Hz)
PTSPERDEC	QUANT	1.00000E+001	Points/&decade
VAC	QUANT	2.50000E+001	AC &Voltage (mV rms)
AREA	QUANT	5.00000E-004	&Area (cm^2)
CONDIT	TWOPARAM	F	1.50000E+001	0.00000E+000	Conditionin&g	Time(s)	E(V)
DELAY	TWOPARAM	F	1.00000E+002	0.00000E+000	Init. De&lay	Time(s)	Stab.(mV/s)
SPEED	SELECTOR	0	&Optimize for:
ZGUESS	QUANT	1.00000E+003	E&stimated Z (ohms)
OCVCURVE	TABLE	39
	Pt	T	Vf	Vm	Ach	Over
	#	s	V vs. Ref.	V	V	bits
	0	0.258333	5.45732E-002	5.45732E-002	5.67271E-004	...........
	1	0.516667	5.45538E-002	5.35591E-002	5.72638E-004	...........
	2	0.775	5.44761E-002	5.47576E-002	5.75704E-004	...........
	3	1.03333	5.44041E-002	5.64649E-002	5.74404E-004	...........
	4	1.29167	5.44846E-002	5.27340E-002	5.64238E-004	...........
	5	1.55	5.46013E-002	5.29526E-002	5.70238E-004	...........
	6	1.80833	5.44269E-002	5.33548E-002	5.70004E-004	...........
	7	2.06667	5.39528E-002	5.28823E-002	5.71838E-004	...........
	8	2.325	5.34779E-002	5.29964E-002	5.65204E-004	...........
	9	2.58333	5.31747E-002	5.28537E-002	5.65004E-004	...........
	10	2.84167	5.29776E-002	5.07884E-002	5.69304E-004	...........
	11	3.1	5.26285E-002	4.74523E-002	5.72738E-004	...........
	12	3.35833	5.18624E-002	5.08526E-002	5.73838E-004	...........
	13	3.61667	5.08768E-002	5.14491E-002	5.65204E-004	...........
	14	3.875	5.02479E-002	4.94737E-002	5.67438E-004	...........
	15	4.13333	5.01147E-002	4.88047E-002	5.67438E-004	...........
	16	4.39167	5.01195E-002	5.28759E-002	5.66171E-004	...........
	17	4.65	5.03446E-002	5.95395E-002	5.67971E-004	...........
	18	4.90833	5.15118E-002	6.08312E-002	5.70238E-004	...........
	19	5.16667	5.39201E-002	6.07612E-002	5.66271E-004	...........
	20	5.425	5.67879E-002	6.01953E-002	5.67004E-004	...........
	21	5.68333	5.90011E-002	5.97012E-002	5.67738E-004	...........
	22	5.94167	6.00834E-002	5.96453E-002	5.67471E-004	...........
	23	6.2	6.02742E-002	5.94571E-002	5.68004E-004	...........
	24	6.45833	6.00506E-002	5.92421E-002	5.68038E-004	...........
	25	6.71667	5.97436E-002	5.88777E-002	5.67604E-004	...........
	26	6.975	5.94619E-002	5.86754E-002	5.64904E-004	...........
	27	7.23333	5.92019E-002	5.84931E-002	5.63504E-004	...........
	28	7.49167	5.89527E-002	5.82573E-002	5.74337E-004	...........
	29	7.75	5.87168E-002	5.80347E-002	5.73538E-004	...........
	30	8.00833	5.84918E-002	5.77871E-002	5.69571E-004	...........
	31	8.26667	5.82594E-002	5.70613E-002	5.68004E-004	...........
	32	8.525	5.79861E-002	5.69879E-002	5.65504E-004	...........
	33	8.78333	5.76630E-002	5.68548E-002	5.67971E-004	...........
	34	9.04167	5.73374E-002	5.66595E-002	5.65671E-004	...........
	35	9.3	5.70642E-002	5.64963E-002	5.63838E-004	...........
	36	9.5583	5.68504E-002	5.63374E-002	5.66204E-004	...........
	37	9.8167	5.66678E-002	5.59591E-002	5.63238E-004	...........
	38	10.075	5.64755E-002	5.54496E-002	5.64971E-004	...........
EOC	QUANT	0.0564755	Open Circuit (V)
PSTATMODEL	IQUANT	4	Pstat Model
PSTATSECTION	LABEL	REF600-11020	Pstat Section
PSTATSERIALNO	LABEL	11020	Pstat Serial Number
CTRLMODE	IQUANT	1	Control Mode
IESTAB	IQUANT	0	I/E Stability
CASPEED	IQUANT	1	Control Amp Speed
CONVENTION	IQUANT	1	Current Convention
ICHRANGE	IQUANT	2	Ich Range
ICHRANGEMODE	TOGGLE	F	Ich Auto Range
ICHOFFSETENABLE	TOGGLE	T	Ich Offset Enable
ICHOFFSET	QUANT	0	Ich Offset (V)
ICHFILTER	IQUANT	3	Ich Filter
VCHRANGE	IQUANT	2	Vch Range
VCHRANGEMODE	TOGGLE	F	Vch Auto Range
VCHOFFSETENABLE	TOGGLE	T	Vch Offset Enable
VCHOFFSET	QUANT	0	Vch Offset (V)
VCHFILTER	IQUANT	3	Vch Filter
ACHRANGE	IQUANT	2	Ach Range
ACHOFFSETENABLE	TOGGLE	F	Ach Offset Enable
ACHOFFSET	QUANT	0	Ach Offset (V)
ACHFILTER	IQUANT	3	Ach Filter
IERANGELOWERLIMIT	IQUANT	1	I/E Range Lower Limit
IERANGEMODE	TOGGLE	F	I/E AutoRange
IERANGE	IQUANT	8	I/E Range
POSFEEDENABLE	TOGGLE	F	Positive Feedback IR Comp
POSFEEDRESISTANCE	QUANT	0	Positive Feedback Resistance (ohm)
ACHSELECT	IQUANT	0	Ach Select
CABLEID	IQUANT	14	Cable ID
DCCALDATE	LABEL	1/27/2020	DC Calibration Date
ACCALDATE	LABEL	1/27/2020	AC Calibration Date
THERMOSELECT	IQUANT	1	Thermo Select
FRAMEWORKVERSION	QUANT	6.33	Framework Version
INSTRUMENTVERSION	LABEL	3.50	Instrument Version
ZCURVE	TABLE
	Pt	Time	Freq	Zreal	Zimag	Zsig	Zmod	Zphz	Idc	Vdc	IERange
	#	s	Hz	ohm	ohm	V	ohm	°	A	V	#
	0	1	1000078	2173.833	-1966.434	1	2931.282	-42.13228	-3.833756E-006	0.0590243	8
	1	2	794390.6	2594.328	-2005.401	1	3279.051	-37.70382	2.721015E-006	0.0582284	8
	2	2	630984.4	2978.312	-1986.478	1	3580.005	-33.70255	2.79109E-007	0.0581646	8
	3	2	501234.4	3362.25	-1898.598	1	3861.269	-29.45259	-9.366795E-007	0.0582969	8
	4	3	398109.4	3698.878	-1760.475	1	4096.459	-25.45204	1.020901E-006	0.0578695	8
	5	3	316265.6	3982.196	-1603.912	1	4293.066	-21.93813	7.024063E-007	0.0579871	8
	6	3	251203.1	4239.508	-1453.157	1	4481.639	-18.91994	2.394594E-006	0.0577717	8
	7	4	199546.9	4435.277	-1278.342	1	4615.825	-16.07811	-9.61496E-007	0.0582594	8
	8	4	158578.1	4589.533	-1122.056	1	4724.703	-13.73827	4.661748E-007	0.0579461	8
	9	4	125953.1	4733.79	-949.6285	1	4828.101	-11.34334	1.381237E-007	0.0577461	7
	10	5	100078.1	4835.318	-829.7693	1	4905.999	-9.73745	8.615314E-008	0.057883	7
	11	5	79453.13	4908.481	-739.9055	1	4963.935	-8.572239	-2.567148E-008	0.0580881	7
	12	5	63140.62	4971.494	-666.3889	1	5015.957	-7.634533	-2.642784E-008	0.0580847	7
	13	6	50203.12	5023.836	-612.2237	1	5061.002	-6.948021	2.747482E-008	0.0580238	7
	14	6	39890.62	5071.87	-574.9089	1	5104.35	-6.467013	-1.929716E-008	0.0580414	7
	15	6	31640.63	5114.405	-553.9603	1	5144.318	-6.18182	1.365887E-008	0.0579995	7
	16	7	25171.88	5155.422	-550.5781	1	5184.739	-6.09585	-1.332226E-009	0.0579954	7
	17	7	20015.62	5193.241	-564.1473	1	5223.793	-6.19979	-2.58387E-008	0.0580783	7
	18	7	15890.62	5233.145	-592.8187	1	5266.616	-6.463002	2.439472E-008	0.0580376	7
	19	7	12609.37	5273.137	-641.2081	1	5311.979	-6.93307	4.055097E-010	0.0579641	7
	20	8	10078.13	5317.803	-707.0428	1	5364.601	-7.573496	4.606174E-008	0.0578991	7
	21	8	8015.625	5359.748	-799.3506	1	5419.028	-8.482546	6.92983E-009	0.0580554	7
	22	8	6328.125	5408.978	-920.5364	1	5486.75	-9.65845	-2.469949E-008	0.0580566	7
	23	9	5015.625	5463.354	-1072.253	1	5567.582	-11.1039	3.497272E-008	0.0579456	7
	24	9	3984.375	5526.051	-1260.928	1	5668.084	-12.85362	1.962688E-008	0.0579339	7
	25	9	3170.956	5593.378	-1496.152	1	5790.021	-14.97526	-2.059579E-008	0.0580029	7
	26	10	2527.573	5671.906	-1783.656	1	5945.75	-17.45691	-2.481981E-008	0.0580503	7
	27	10	1976.103	5771.93	-2167.54	1	6165.501	-20.58273	3.396143E-008	0.0579437	7
	28	10	1577.524	5881.14	-2607.692	1	6433.34	-23.91245	-2.006781E-008	0.0579988	7
	29	11	1265.625	6008.47	-3122.078	1	6771.195	-27.45697	-3.653927E-008	0.0580368	7
	30	11	998.264	6172.572	-3810.186	1	7253.838	-31.68607	-2.49103E-008	0.058065	7
	31	11	796.875	6360.658	-4604.674	1	7852.451	-35.90193	-1.216861E-008	0.0580692	7
	32	12	627.7902	6606.309	-5628.776	1	8679.081	-40.43201	-1.993237E-008	0.0579977	7
	33	12	505.5147	6876.478	-6767.486	1	9648.05	-44.54231	3.31996E-008	0.057934	7
	34	12	397.9953	7237.159	-8301.109	1	11012.94	-48.9171	9.193158E-010	0.0580144	6
	35	13	315.5048	7675.043	-10128.17	1	12707.72	-52.84546	1.065913E-009	0.0580161	6
	36	13	252.4038	8197.861	-12264.99	1	14752.45	-56.24142	4.106442E-010	0.0580125	6
	37	13	198.6229	8901.172	-15067.09	1	17499.95	-59.42672	1.201949E-009	0.0580105	6
	38	14	158.3615	9746.36	-18302.84	1	20736.1	-61.96446	1.330034E-009	0.0580056	6
	39	14	125.558	10855.85	-22323.34	1	24822.99	-64.06632	9.668943E-010	0.0580062	6
	40	14	100.4464	12212.2	-27026.19	1	29657.26	-65.68343	8.377855E-010	0.0580064	6
	41	14	79.00281	14071.62	-33114.8	1	35980.55	-66.97768	3.431187E-010	0.0580035	6
	42	15	63.3446	16503.57	-39523.98	1	42831.21	-67.33661	1.073888E-009	0.0579996	6
	43	15	49.86702	19694.25	-48337.41	1	52195.48	-67.83241	1.393379E-009	0.0579993	6
	44	16	39.72458	23368.91	-58358.82	1	62863.81	-68.17711	1.129479E-009	0.0580045	6
	45	16	31.6723	28283.51	-70099.98	1	75590.77	-68.02721	1.34299E-009	0.058005	6
	46	16	24.93351	35145.86	-84397.9	1	91423.39	-67.39166	7.060512E-010	0.0579971	6
	47	17	19.86229	43279.82	-100263.1	1	109205.4	-66.65195	1.059542E-009	0.0579996	5
	48	17	15.83615	54621.18	-119261.4	1	131174.5	-65.39244	-2.163391E-009	0.0579968	5
	49	17	12.40079	67065.09	-141721.3	1	156788.5	-64.67563	1.51019E-010	0.058003	5
	50	17	9.93114	84093.68	-164176.4	1	184460.4	-62.87778	9.065887E-010	0.0579965	5
	51	18	7.944915	104054.4	-190313.8	1	216902.5	-61.33229	6.210007E-011	0.0579984	5
	52	19	6.317385	128222.5	-219052.2	1	253820.5	-59.65737	-8.965649E-010	0.0579968	5
	53	19	5.008013	158786.7	-250876.9	1	296904.8	-57.66918	7.322642E-010	0.0580079	5
	54	20	3.945707	193084.1	-282819.6	1	342444.8	-55.67821	3.016528E-010	0.0579963	5
	55	22	3.158693	230260.4	-314974.1	1	390164.8	-53.8315	2.716077E-010	0.0579851	5
	56	23	2.504006	271818	-350232.9	1	443337.5	-52.18473	3.504942E-010	0.0579934	5
	57	25	1.998082	314242.2	-387030.5	1	498538.6	-50.92577	-2.190492E-010	0.0579624	5
	58	26	1.584686	363707.7	-429455.3	1	562774.5	-49.73859	-5.271746E-010	0.057952	5
	59	28	1.266892	403210.5	-472571.7	1	621210.7	-49.52833	2.313933E-010	0.0579807	5
	60	31	0.999041	451971.2	-529843.4	1	696428	-49.53489	1.086753E-010	0.0580122	5
