EXPLAIN
TAG	EISPOT
TITLE	LABEL	Potentiostatic EIS	Test &Identifier
DATE	LABEL	2/21/2020	Date
TIME	LABEL	16:41:54	Time
NOTES	NOTES	1	&Notes...
	
PSTAT	PSTAT	REF600-11020	Potentiostat
VDC	POTEN	0.00000E+000	T	DC &Voltage (V)
FREQINIT	QUANT	1.00000E+006	Initial Fre&q. (Hz)
FREQFINAL	QUANT	1.00000E+000	Final Fre&q. (Hz)
PTSPERDEC	QUANT	1.00000E+001	Points/&decade
VAC	QUANT	2.50000E+001	AC &Voltage (mV rms)
AREA	QUANT	2.08200E-005	&Area (cm^2)
CONDIT	TWOPARAM	F	1.50000E+001	0.00000E+000	Conditionin&g	Time(s)	E(V)
DELAY	TWOPARAM	F	1.00000E+002	0.00000E+000	Init. De&lay	Time(s)	Stab.(mV/s)
SPEED	SELECTOR	1	&Optimize for:
ZGUESS	QUANT	2.00000E+003	E&stimated Z (ohms)
OCVCURVE	TABLE	39
	Pt	T	Vf	Vm	Ach	Over
	#	s	V vs. Ref.	V	V	bits
	0	0.258333	8.16894E-002	8.16894E-002	5.81671E-004	...........
	1	0.516667	8.16905E-002	8.17467E-002	5.78837E-004	...........
	2	0.775	8.16970E-002	8.17895E-002	5.78104E-004	...........
	3	1.03333	8.17113E-002	8.16556E-002	5.78771E-004	...........
	4	1.29167	8.17239E-002	8.16823E-002	5.84937E-004	...........
	5	1.55	8.17220E-002	8.16978E-002	5.83671E-004	...........
	6	1.80833	8.17087E-002	8.16937E-002	5.82704E-004	...........
	7	2.06667	8.16970E-002	8.16968E-002	5.85237E-004	...........
	8	2.325	8.16926E-002	8.16970E-002	5.87104E-004	...........
	9	2.58333	8.16930E-002	8.16939E-002	5.87304E-004	...........
	10	2.84167	8.16934E-002	8.16414E-002	5.84904E-004	...........
	11	3.1	8.16868E-002	8.15308E-002	5.84237E-004	...........
	12	3.35833	8.16652E-002	8.15887E-002	5.85637E-004	...........
	13	3.61667	8.16332E-002	8.16795E-002	5.84071E-004	...........
	14	3.875	8.16128E-002	8.17113E-002	5.82337E-004	...........
	15	4.13333	8.16205E-002	8.17007E-002	5.82537E-004	...........
	16	4.39167	8.16486E-002	8.16901E-002	5.82437E-004	...........
	17	4.65	8.16764E-002	8.16998E-002	5.88437E-004	...........
	18	4.90833	8.16924E-002	8.16994E-002	5.87637E-004	...........
	19	5.16667	8.16985E-002	8.17183E-002	5.82804E-004	...........
	20	5.425	8.17017E-002	8.17192E-002	5.82404E-004	...........
	21	5.68333	8.17058E-002	8.17094E-002	5.86637E-004	...........
	22	5.94167	8.17116E-002	8.17788E-002	5.86971E-004	...........
	23	6.2	8.17226E-002	8.18736E-002	5.83671E-004	...........
	24	6.45833	8.17502E-002	8.20373E-002	5.84071E-004	...........
	25	6.71667	8.18115E-002	8.23634E-002	5.84704E-004	...........
	26	6.975	8.19251E-002	8.25891E-002	5.80137E-004	...........
	27	7.23333	8.21094E-002	8.33949E-002	5.81171E-004	...........
	28	7.49167	8.23808E-002	8.33973E-002	5.78471E-004	...........
	29	7.75	8.27252E-002	8.37336E-002	5.81537E-004	...........
	30	8.00833	8.30980E-002	8.46403E-002	5.83304E-004	...........
	31	8.26667	8.35623E-002	8.86926E-002	5.79437E-004	...........
	32	8.525	8.43940E-002	9.01133E-002	5.84237E-004	...........
	33	8.78333	8.57709E-002	8.91271E-002	5.83304E-004	...........
	34	9.04167	8.73537E-002	8.89040E-002	5.86304E-004	...........
	35	9.3	8.85370E-002	8.90387E-002	5.83204E-004	...........
	36	9.5583	8.90874E-002	8.96269E-002	5.83604E-004	...........
	37	9.8167	8.92391E-002	8.92971E-002	5.85637E-004	...........
	38	10.075	8.92777E-002	8.89872E-002	5.88371E-004	...........
EOC	QUANT	0.0892777	Open Circuit (V)
PSTATMODEL	IQUANT	4	Pstat Model
PSTATSECTION	LABEL	REF600-11020	Pstat Section
PSTATSERIALNO	LABEL	11020	Pstat Serial Number
CTRLMODE	IQUANT	1	Control Mode
IESTAB	IQUANT	0	I/E Stability
CASPEED	IQUANT	1	Control Amp Speed
CONVENTION	IQUANT	1	Current Convention
ICHRANGE	IQUANT	2	Ich Range
ICHRANGEMODE	TOGGLE	F	Ich Auto Range
ICHOFFSETENABLE	TOGGLE	T	Ich Offset Enable
ICHOFFSET	QUANT	0	Ich Offset (V)
ICHFILTER	IQUANT	3	Ich Filter
VCHRANGE	IQUANT	2	Vch Range
VCHRANGEMODE	TOGGLE	F	Vch Auto Range
VCHOFFSETENABLE	TOGGLE	T	Vch Offset Enable
VCHOFFSET	QUANT	0	Vch Offset (V)
VCHFILTER	IQUANT	3	Vch Filter
ACHRANGE	IQUANT	2	Ach Range
ACHOFFSETENABLE	TOGGLE	F	Ach Offset Enable
ACHOFFSET	QUANT	0	Ach Offset (V)
ACHFILTER	IQUANT	3	Ach Filter
IERANGELOWERLIMIT	IQUANT	1	I/E Range Lower Limit
IERANGEMODE	TOGGLE	F	I/E AutoRange
IERANGE	IQUANT	7	I/E Range
POSFEEDENABLE	TOGGLE	F	Positive Feedback IR Comp
POSFEEDRESISTANCE	QUANT	0	Positive Feedback Resistance (ohm)
ACHSELECT	IQUANT	0	Ach Select
CABLEID	IQUANT	14	Cable ID
DCCALDATE	LABEL	1/27/2020	DC Calibration Date
ACCALDATE	LABEL	1/27/2020	AC Calibration Date
THERMOSELECT	IQUANT	1	Thermo Select
FRAMEWORKVERSION	QUANT	6.33	Framework Version
INSTRUMENTVERSION	LABEL	3.50	Instrument Version
ZCURVE	TABLE
	Pt	Time	Freq	Zreal	Zimag	Zsig	Zmod	Zphz	Idc	Vdc	IERange
	#	s	Hz	ohm	ohm	V	ohm	°	A	V	#
	0	2	1000078	1688.86	-2074.943	1	2675.376	-50.8568	-7.802206E-007	0.0915573	8
	1	3	794390.6	2108.077	-2231.169	1	3069.544	-46.62488	1.253895E-006	0.090951	8
	2	4	630984.4	2582.068	-2325.696	1	3475.045	-42.00969	-4.014339E-008	0.0909689	8
	3	6	501234.4	3063.135	-2324.442	1	3845.234	-37.19282	-2.013586E-008	0.0909192	8
	4	7	398109.4	3536.046	-2250.011	1	4191.202	-32.46889	-9.344854E-007	0.0909753	8
	5	9	316265.6	3948.908	-2097.6	1	4471.442	-27.97656	-2.94373E-007	0.09084	8
	6	10	251203.1	4312.556	-1911.992	1	4717.399	-23.91032	-5.877226E-007	0.0909158	8
	7	11	199546.9	4604.025	-1697.719	1	4907.066	-20.24128	1.791115E-006	0.0905482	8
	8	13	158578.1	4822.578	-1502.774	1	5051.295	-17.30767	2.991546E-007	0.0907116	8
	9	14	125953.1	5031.281	-1293.081	1	5194.791	-14.41354	-2.585214E-008	0.0907142	7
	10	15	100078.1	5171.118	-1126.654	1	5292.43	-12.2912	3.224632E-009	0.0907782	7
	11	17	79453.13	5274.798	-994.151	1	5367.666	-10.67343	-6.179762E-009	0.0907232	7
	12	18	63140.62	5361.945	-887.0276	1	5434.82	-9.393378	4.823548E-008	0.0906532	7
	13	19	50203.12	5433.028	-806.3781	1	5492.544	-8.442293	-1.649992E-008	0.0907498	7
	14	21	39890.62	5496.365	-749.174	1	5547.188	-7.761786	-9.434885E-009	0.0907447	7
	15	22	31640.63	5553.855	-712.0045	1	5599.309	-7.305473	-1.042411E-008	0.0907403	7
	16	23	25171.88	5609.083	-696.4076	1	5652.149	-7.077462	1.13914E-008	0.0907181	7
	17	25	20015.62	5662.865	-700.3093	1	5706.003	-7.049801	-1.434494E-008	0.0907569	7
	18	26	15890.62	5717.991	-721.9951	1	5763.393	-7.196497	-4.555555E-010	0.0907565	7
	19	27	12609.37	5775.389	-765.5219	1	5825.903	-7.550483	-3.674108E-011	0.0907618	7
	20	29	10078.13	5831.877	-827.1736	1	5890.247	-8.07279	-2.186783E-008	0.09076	7
	21	30	8015.625	5896.054	-909.2954	1	5965.758	-8.767142	1.193366E-008	0.0907208	7
	22	32	6328.125	5961.986	-1023.918	1	6049.272	-9.74497	1.315641E-008	0.0907506	7
	23	33	5015.625	6032.442	-1166.663	1	6144.222	-10.94577	1.322954E-008	0.0906761	7
	24	34	3984.375	6110.669	-1345.255	1	6256.995	-12.41554	-1.110269E-008	0.0907263	7
	25	36	3170.956	6194.793	-1566.558	1	6389.802	-14.1916	1.099408E-008	0.0906893	7
	26	37	2527.573	6287.465	-1839.308	1	6550.975	-16.30609	1.199969E-008	0.0906974	7
	27	38	1976.103	6401.57	-2206.704	1	6771.236	-19.01973	-1.108581E-008	0.0907311	7
	28	40	1577.524	6522.216	-2623.842	1	7030.209	-21.91458	4.943447E-008	0.090645	7
	29	41	1265.625	6654.952	-3123.465	1	7351.491	-25.14276	-1.802684E-010	0.0907563	7
	30	42	998.264	6828.061	-3781.021	1	7805.032	-28.97538	1.340741E-008	0.0907098	7
	31	44	796.875	7022.387	-4552.468	1	8368.924	-32.9545	-8.57907E-009	0.0907524	7
	32	45	627.7902	7267.324	-5539.796	1	9138.017	-37.31785	5.462955E-008	0.0906621	7
	33	46	505.5147	7541.458	-6642.138	1	10049.46	-41.37198	4.081701E-009	0.0907019	6
	34	48	397.9953	7905.013	-8120.748	1	11332.95	-45.77126	1.547005E-009	0.0907318	6
	35	49	315.5048	8339.001	-9878.39	1	12927.55	-49.83007	1.484246E-009	0.0907426	6
	36	51	252.4038	8847.91	-11930.85	1	14853.64	-53.4394	1.358606E-009	0.0907355	6
	37	52	198.6229	9519.69	-14613.52	1	17440.74	-56.91857	2.473794E-009	0.0907404	6
	38	53	158.3615	10305.62	-17704.17	1	20485.2	-59.79626	9.891423E-010	0.0907401	6
	39	55	125.558	11290.28	-21552.67	1	24330.8	-62.35239	1.395591E-009	0.0907397	6
	40	56	100.4464	12451.24	-26043.77	1	28867.13	-64.44805	1.007899E-009	0.0907273	6
	41	57	79.00281	14016.88	-31927.62	1	34868.98	-66.29753	8.489118E-010	0.0907388	6
	42	59	63.3446	15973.16	-38467.6	1	41652.11	-67.44998	7.972905E-010	0.0907334	6
	43	60	49.86702	18049.47	-47163.44	1	50499.24	-69.05813	1.54457E-009	0.0907272	6
	44	62	39.72458	21062.74	-57065.34	1	60828.38	-69.74096	1.313096E-009	0.0907371	6
	45	63	31.6723	24921.02	-69133.67	1	73488.24	-70.17699	1.336292E-009	0.0907283	6
	46	64	24.93351	29866.51	-84523.52	1	89645.05	-70.53906	1.29397E-009	0.0907331	6
	47	66	19.86229	36159.32	-101981.2	1	108202	-70.4771	9.932897E-010	0.0907348	5
	48	67	15.83615	44167.26	-122938.8	1	130631.9	-70.23856	7.706967E-012	0.0907325	5
	49	68	12.40079	56502.38	-149845	1	160143.8	-69.33993	-2.403489E-010	0.0907367	5
	50	70	9.93114	70092.67	-178276.7	1	191560.9	-68.53684	2.30919E-010	0.0907383	5
	51	71	7.944915	88291.04	-210740.9	1	228488.6	-67.26849	8.281762E-010	0.0907366	5
	52	73	6.317385	111844.3	-249162.4	1	273113.6	-65.82559	3.887236E-010	0.0907476	5
	53	75	5.008013	141726.5	-292376.3	1	324915.8	-64.13867	6.427029E-010	0.0907399	5
	54	78	3.945707	179156	-341501.7	1	385642.7	-62.31794	7.222561E-011	0.0907305	5
	55	80	3.158693	221286.8	-390866.3	1	449159.5	-60.48387	4.390292E-010	0.0907558	5
	56	84	2.504006	273847.3	-446681.7	1	523943.6	-58.48877	-2.938865E-011	0.090734	5
	57	86	1.998082	329355.7	-503072.5	1	601296.2	-56.7877	1.330076E-010	0.090699	5
	58	89	1.584686	392364.7	-565677.8	1	688434.1	-55.2541	5.17443E-011	0.0907452	5
	59	93	1.266892	461447.4	-631880.7	1	782436.6	-53.86023	1.601407E-010	0.0906979	5
	60	97	0.999041	538813.3	-708751.3	1	890307.9	-52.75685	2.705593E-010	0.0907815	5
