EXPLAIN
TAG	EISPOT
TITLE	LABEL	Potentiostatic EIS	Test &Identifier
DATE	LABEL	7/30/2020	Date
TIME	LABEL	23:20:42	Time
NOTES	NOTES	1	&Notes...
	
PSTAT	PSTAT	REF600-11020	Potentiostat
VDC	POTEN	0.00000E+000	T	DC &Voltage (V)
FREQINIT	QUANT	1.00000E+006	Initial Fre&q. (Hz)
FREQFINAL	QUANT	1.00000E+000	Final Fre&q. (Hz)
PTSPERDEC	QUANT	1.00000E+001	Points/&decade
VAC	QUANT	2.50000E+001	AC &Voltage (mV rms)
AREA	QUANT	4.00000E-005	&Area (cm^2)
CONDIT	TWOPARAM	F	5.00000E+000	0.00000E+000	Conditionin&g	Time(s)	E(V)
DELAY	TWOPARAM	F	3.00000E+000	0.00000E+000	Init. De&lay	Time(s)	Stab.(mV/s)
SPEED	SELECTOR	0	&Optimize for:
ZGUESS	QUANT	1.00000E+003	E&stimated Z (ohms)
OCVCURVE	TABLE	39
	Pt	T	Vf	Vm	Ach	Over
	#	s	V vs. Ref.	V	V	bits
	0	0.258333	-3.12948E-003	-3.12948E-003	5.32717E-004	...........
	1	0.516667	-3.12958E-003	-3.13492E-003	5.29950E-004	...........
	2	0.775	-3.13028E-003	-3.14318E-003	5.31083E-004	...........
	3	1.03333	-3.13244E-003	-3.15060E-003	5.27883E-004	...........
	4	1.29167	-3.13666E-003	-3.15831E-003	5.27083E-004	...........
	5	1.55	-3.14262E-003	-3.16085E-003	5.27717E-004	...........
	6	1.80833	-3.14922E-003	-3.16496E-003	5.28883E-004	...........
	7	2.06667	-3.15527E-003	-3.16694E-003	5.32517E-004	...........
	8	2.325	-3.16021E-003	-3.17292E-003	5.28950E-004	...........
	9	2.58333	-3.16429E-003	-3.17558E-003	5.28417E-004	...........
	10	2.84167	-3.16802E-003	-3.17815E-003	5.26817E-004	...........
	11	3.1	-3.17159E-003	-3.18049E-003	5.31517E-004	...........
	12	3.35833	-3.17484E-003	-3.18192E-003	5.30616E-004	...........
	13	3.61667	-3.17757E-003	-3.18174E-003	5.27950E-004	...........
	14	3.875	-3.17967E-003	-3.18349E-003	5.29216E-004	...........
	15	4.13333	-3.18121E-003	-3.18649E-003	5.28583E-004	...........
	16	4.39167	-3.18263E-003	-3.19143E-003	5.25383E-004	...........
	17	4.65	-3.18454E-003	-3.19474E-003	5.26850E-004	...........
	18	4.90833	-3.18721E-003	-3.19539E-003	5.24683E-004	...........
	19	5.16667	-3.19023E-003	-3.19573E-003	5.23383E-004	...........
	20	5.425	-3.19288E-003	-3.19724E-003	5.26417E-004	...........
	21	5.68333	-3.19481E-003	-3.19996E-003	5.24917E-004	...........
	22	5.94167	-3.19625E-003	-3.19828E-003	5.24817E-004	...........
	23	6.2	-3.19749E-003	-3.20271E-003	5.30083E-004	...........
	24	6.45833	-3.19871E-003	-3.20279E-003	5.29916E-004	...........
	25	6.71667	-3.19997E-003	-3.20164E-003	5.26883E-004	...........
	26	6.975	-3.20107E-003	-3.20036E-003	5.32250E-004	...........
	27	7.23333	-3.20166E-003	-3.20297E-003	5.29250E-004	...........
	28	7.49167	-3.20181E-003	-3.20293E-003	5.30850E-004	...........
	29	7.75	-3.20188E-003	-3.20003E-003	5.27083E-004	...........
	30	8.00833	-3.20190E-003	-3.19985E-003	5.30116E-004	...........
	31	8.26667	-3.20159E-003	-3.19948E-003	5.25950E-004	...........
	32	8.525	-3.20087E-003	-3.19626E-003	5.23283E-004	...........
	33	8.78333	-3.19992E-003	-3.19882E-003	5.24550E-004	...........
	34	9.04167	-3.19904E-003	-3.20134E-003	5.26250E-004	...........
	35	9.3	-3.19873E-003	-3.20179E-003	5.23617E-004	...........
	36	9.5583	-3.19927E-003	-3.20318E-003	5.26150E-004	...........
	37	9.8167	-3.20044E-003	-3.20623E-003	5.25083E-004	...........
	38	10.075	-3.20196E-003	-3.20863E-003	5.25683E-004	...........
EOC	QUANT	-0.003202	Open Circuit (V)
PSTATMODEL	IQUANT	4	Pstat Model
PSTATSECTION	LABEL	REF600-11020	Pstat Section
PSTATSERIALNO	LABEL	11020	Pstat Serial Number
CTRLMODE	IQUANT	1	Control Mode
IESTAB	IQUANT	0	I/E Stability
CASPEED	IQUANT	1	Control Amp Speed
CONVENTION	IQUANT	1	Current Convention
ICHRANGE	IQUANT	2	Ich Range
ICHRANGEMODE	TOGGLE	F	Ich Auto Range
ICHOFFSETENABLE	TOGGLE	T	Ich Offset Enable
ICHOFFSET	QUANT	0	Ich Offset (V)
ICHFILTER	IQUANT	3	Ich Filter
VCHRANGE	IQUANT	2	Vch Range
VCHRANGEMODE	TOGGLE	F	Vch Auto Range
VCHOFFSETENABLE	TOGGLE	T	Vch Offset Enable
VCHOFFSET	QUANT	0	Vch Offset (V)
VCHFILTER	IQUANT	3	Vch Filter
ACHRANGE	IQUANT	2	Ach Range
ACHOFFSETENABLE	TOGGLE	F	Ach Offset Enable
ACHOFFSET	QUANT	0	Ach Offset (V)
ACHFILTER	IQUANT	3	Ach Filter
IERANGELOWERLIMIT	IQUANT	1	I/E Range Lower Limit
IERANGEMODE	TOGGLE	F	I/E AutoRange
IERANGE	IQUANT	6	I/E Range
POSFEEDENABLE	TOGGLE	F	Positive Feedback IR Comp
POSFEEDRESISTANCE	QUANT	0	Positive Feedback Resistance (ohm)
ACHSELECT	IQUANT	0	Ach Select
CABLEID	IQUANT	14	Cable ID
DCCALDATE	LABEL	6/26/2020	DC Calibration Date
ACCALDATE	LABEL	6/26/2020	AC Calibration Date
THERMOSELECT	IQUANT	1	Thermo Select
FRAMEWORKVERSION	QUANT	6.33	Framework Version
INSTRUMENTVERSION	LABEL	3.50	Instrument Version
ZCURVE	TABLE
	Pt	Time	Freq	Zreal	Zimag	Zsig	Zmod	Zphz	Idc	Vdc	IERange
	#	s	Hz	ohm	ohm	V	ohm	°	A	V	#
	0	1	1000078	1749.724	-1415.53	1	2250.613	-38.97294	3.295093E-008	-0.0009316	8
	1	2	794390.6	1961.506	-1479.722	1	2457.048	-37.0302	5.200612E-008	-0.0012754	8
	2	2	630984.4	2168.405	-1544.485	1	2662.22	-35.46105	4.166436E-008	-0.0014334	8
	3	2	501234.4	2374.337	-1618.825	1	2873.686	-34.2862	1.051561E-007	-0.0015478	8
	4	3	398109.4	2579.799	-1712.561	1	3096.486	-33.5776	6.493779E-008	-0.0015562	8
	5	3	316265.6	2791.799	-1828.541	1	3337.32	-33.22354	3.355137E-008	-0.0015905	8
	6	3	251203.1	3022.902	-1962.902	1	3604.292	-32.99742	4.900732E-008	-0.0015908	8
	7	4	199546.9	3282.375	-2131.895	1	3913.945	-33.00363	6.19611E-008	-0.0016033	8
	8	4	158578.1	3561.159	-2326.768	1	4253.904	-33.15954	3.480849E-008	-0.0016116	8
	9	4	125953.1	3920.833	-2500.743	1	4650.446	-32.53011	7.328709E-010	-0.001594	7
	10	4	100078.1	4287.588	-2724.979	1	5080.248	-32.43802	2.573012E-009	-0.0016295	7
	11	5	79453.13	4683.896	-2960.289	1	5540.956	-32.29347	2.660546E-009	-0.0016313	7
	12	5	63140.62	5121.863	-3196.123	1	6037.274	-31.96481	2.658969E-009	-0.0016419	7
	13	5	50203.12	5597.909	-3433.47	1	6566.986	-31.52281	1.526247E-009	-0.0016446	7
	14	6	39890.62	6115.635	-3676.184	1	7135.497	-31.0106	1.326541E-009	-0.0016429	7
	15	6	31640.63	6672.954	-3918.647	1	7738.482	-30.4233	1.709885E-009	-0.0016422	7
	16	6	25171.88	7263.092	-4158.932	1	8369.541	-29.79596	1.603152E-009	-0.0016444	7
	17	7	20015.62	7896.383	-4409.07	1	9043.936	-29.17749	2.339968E-009	-0.0016396	7
	18	7	15890.62	8572.716	-4646.575	1	9751.01	-28.45854	2.218234E-009	-0.0016431	7
	19	7	12609.37	9370.589	-4819.988	1	10537.56	-27.22012	8.631582E-010	-0.0016496	6
	20	8	10078.13	10112.62	-5046.408	1	11301.83	-26.52016	7.942352E-010	-0.0016522	6
	21	8	8015.625	10925.69	-5258.578	1	12125.32	-25.7017	8.30479E-010	-0.0016569	6
	22	8	6328.125	11801.31	-5435.98	1	12993.1	-24.73199	6.227693E-010	-0.0016553	6
	23	9	5015.625	12700.7	-5564.726	1	13866.29	-23.6603	5.357306E-010	-0.0016544	6
	24	9	3984.375	13609.69	-5638.541	1	14731.49	-22.50439	4.703986E-010	-0.0016617	6
	25	9	3170.956	14489.32	-5652.652	1	15552.91	-21.31202	5.71187E-010	-0.0016599	6
	26	9	2527.573	15329.06	-5629.976	1	16330.24	-20.167	4.121095E-010	-0.001659	6
	27	10	1976.103	16178.92	-5584.671	1	17115.67	-19.04374	3.874202E-010	-0.0016607	6
	28	10	1577.524	16864.56	-5549.881	1	17754.28	-18.21563	4.969667E-010	-0.0016662	6
	29	10	1265.625	17474.51	-5569.514	1	18340.61	-17.67823	6.396408E-010	-0.0016642	6
	30	11	998.264	18042.07	-5676.243	1	18913.91	-17.46417	4.550724E-010	-0.0016672	6
	31	11	796.875	18518.98	-5904.965	1	19437.62	-17.68541	3.897743E-010	-0.0016741	6
	32	11	627.7902	18969.54	-6327.303	1	19996.96	-18.44615	4.851118E-010	-0.001669	6
	33	12	505.5147	19357.43	-6885.043	1	20545.41	-19.57943	3.175737E-010	-0.0016709	6
	34	12	397.9953	19760.59	-7771.064	1	21233.71	-21.46777	5.152236E-010	-0.001644	6
	35	12	315.5048	20177.48	-8931.134	1	22065.71	-23.87556	3.585257E-010	-0.0016427	6
	36	13	252.4038	20619.74	-10377.71	1	23083.99	-26.71565	1.688488E-010	-0.0016508	6
	37	13	198.6229	21182.13	-12364.44	1	24526.77	-30.27298	2.01484E-010	-0.0016484	6
	38	13	158.3615	21830.76	-14728.49	1	26334.59	-34.00623	3.378888E-010	-0.0016488	6
	39	14	125.558	22677.59	-17734.54	1	28788.66	-38.02644	8.915658E-011	-0.0016466	6
	40	14	100.4464	23724.7	-21277.44	1	31868.34	-41.88727	-1.143941E-010	-0.0016488	6
	41	14	79.00281	25213.92	-25938.98	1	36174.2	-45.81208	1.171063E-010	-0.0016524	6
	42	15	63.3446	27049.55	-31128.11	1	41238.79	-49.01017	-1.613666E-010	-0.0016543	6
	43	15	49.86702	29669.65	-37858.38	1	48099.33	-51.91416	-7.276937E-011	-0.0016561	6
	44	15	39.72458	32961.14	-45443.3	1	56138.5	-54.0457	3.731786E-010	-0.0016501	6
	45	16	31.6723	37272.11	-54268.99	1	65835.66	-55.5186	9.462137E-010	-0.0016559	6
	46	16	24.93351	43222	-65018.48	1	78073.96	-56.38544	-7.357639E-010	-0.0016559	6
	47	16	19.86229	50455.73	-76614.91	1	91736.72	-56.63258	-4.224425E-010	-0.00165	6
	48	16	15.83615	59438.14	-89460.8	1	107406.4	-56.39976	-1.850633E-009	-0.0016665	5
	49	17	12.40079	71314.79	-104504.8	1	126519	-55.6901	-1.720421E-009	-0.00166	5
	50	17	9.93114	83684.88	-119214.9	1	145654.9	-54.93242	-1.555819E-009	-0.0016701	5
	51	17	7.944915	98041.5	-134979.9	1	166828.3	-54.00753	1.063224E-009	-0.0016622	5
	52	18	6.317385	114660.9	-153057.3	1	191242.4	-53.16176	-5.944497E-010	-0.0016475	5
	53	19	5.008013	133255.3	-173108.8	1	218457.4	-52.41173	-5.971694E-010	-0.0016624	5
	54	20	3.945707	153666.3	-195642.5	1	248775.6	-51.85233	3.195997E-010	-0.0016591	5
	55	20	3.158693	174965.8	-219944.2	1	281048.9	-51.49771	-3.428041E-010	-0.0016546	5
	56	21	2.504006	198394.7	-248851.2	1	318256.8	-51.43666	-1.945266E-010	-0.0016642	5
	57	23	1.998082	223685.6	-281039.3	1	359191.2	-51.48291	1.709203E-010	-0.0016235	5
	58	24	1.584686	251165.5	-320764.7	1	407399.2	-51.93832	1.412603E-010	-0.001638	5
	59	26	1.266892	280469.6	-364658.5	1	460042.4	-52.43505	5.905079E-011	-0.0016746	5
	60	29	0.999041	315632.5	-420239	1	525570.8	-53.09058	-8.282461E-012	-0.0016961	5
