EXPLAIN
TAG	EISPOT
TITLE	LABEL	Potentiostatic EIS	Test &Identifier
DATE	LABEL	3/17/2020	Date
TIME	LABEL	15:57:28	Time
NOTES	NOTES	1	&Notes...
	
PSTAT	PSTAT	REF600-11020	Potentiostat
VDC	POTEN	0.00000E+000	T	DC &Voltage (V)
FREQINIT	QUANT	1.00000E+006	Initial Fre&q. (Hz)
FREQFINAL	QUANT	1.00000E+000	Final Fre&q. (Hz)
PTSPERDEC	QUANT	1.00000E+001	Points/&decade
VAC	QUANT	2.50000E+001	AC &Voltage (mV rms)
AREA	QUANT	4.00000E-004	&Area (cm^2)
CONDIT	TWOPARAM	F	5.00000E+000	0.00000E+000	Conditionin&g	Time(s)	E(V)
DELAY	TWOPARAM	T	3.00000E+000	0.00000E+000	Init. De&lay	Time(s)	Stab.(mV/s)
SPEED	SELECTOR	0	&Optimize for:
ZGUESS	QUANT	5.00000E+003	E&stimated Z (ohms)
OCVCURVE	TABLE	12
	Pt	T	Vf	Vm	Ach	Over
	#	s	V vs. Ref.	V	V	bits
	0	0.258333	6.48394E-002	6.48394E-002	6.00030E-004	...........
	1	0.516667	6.48394E-002	6.48405E-002	5.99730E-004	...........
	2	0.775	6.48395E-002	6.48412E-002	6.04363E-004	...........
	3	1.03333	6.48399E-002	6.48451E-002	6.06830E-004	...........
	4	1.29167	6.48408E-002	6.48492E-002	5.96363E-004	...........
	5	1.55	6.48425E-002	6.48494E-002	5.96763E-004	...........
	6	1.80833	6.48448E-002	6.48466E-002	5.97163E-004	...........
	7	2.06667	6.48468E-002	6.48493E-002	5.98496E-004	...........
	8	2.325	6.48479E-002	6.48481E-002	5.98796E-004	...........
	9	2.58333	6.48483E-002	6.48483E-002	5.98663E-004	...........
	10	2.84167	6.48484E-002	6.48477E-002	5.99830E-004	...........
	11	3.1	6.48483E-002	6.48467E-002	5.99330E-004	...........
EOC	QUANT	0.0648483	Open Circuit (V)
PSTATMODEL	IQUANT	4	Pstat Model
PSTATSECTION	LABEL	REF600-11020	Pstat Section
PSTATSERIALNO	LABEL	11020	Pstat Serial Number
CTRLMODE	IQUANT	1	Control Mode
IESTAB	IQUANT	0	I/E Stability
CASPEED	IQUANT	1	Control Amp Speed
CONVENTION	IQUANT	1	Current Convention
ICHRANGE	IQUANT	2	Ich Range
ICHRANGEMODE	TOGGLE	F	Ich Auto Range
ICHOFFSETENABLE	TOGGLE	T	Ich Offset Enable
ICHOFFSET	QUANT	0	Ich Offset (V)
ICHFILTER	IQUANT	3	Ich Filter
VCHRANGE	IQUANT	2	Vch Range
VCHRANGEMODE	TOGGLE	F	Vch Auto Range
VCHOFFSETENABLE	TOGGLE	T	Vch Offset Enable
VCHOFFSET	QUANT	0	Vch Offset (V)
VCHFILTER	IQUANT	3	Vch Filter
ACHRANGE	IQUANT	2	Ach Range
ACHOFFSETENABLE	TOGGLE	F	Ach Offset Enable
ACHOFFSET	QUANT	0	Ach Offset (V)
ACHFILTER	IQUANT	3	Ach Filter
IERANGELOWERLIMIT	IQUANT	1	I/E Range Lower Limit
IERANGEMODE	TOGGLE	F	I/E AutoRange
IERANGE	IQUANT	7	I/E Range
POSFEEDENABLE	TOGGLE	F	Positive Feedback IR Comp
POSFEEDRESISTANCE	QUANT	0	Positive Feedback Resistance (ohm)
ACHSELECT	IQUANT	0	Ach Select
CABLEID	IQUANT	14	Cable ID
DCCALDATE	LABEL	2/27/2020	DC Calibration Date
ACCALDATE	LABEL	2/27/2020	AC Calibration Date
THERMOSELECT	IQUANT	1	Thermo Select
FRAMEWORKVERSION	QUANT	6.33	Framework Version
INSTRUMENTVERSION	LABEL	3.50	Instrument Version
ZCURVE	TABLE
	Pt	Time	Freq	Zreal	Zimag	Zsig	Zmod	Zphz	Idc	Vdc	IERange
	#	s	Hz	ohm	ohm	V	ohm	°	A	V	#
	0	1	1000078	1910.769	-1426.32	1	2384.414	-36.74002	4.197703E-008	0.0670831	8
	1	1	794390.6	2190.293	-1399.818	1	2599.399	-32.58269	1.913059E-008	0.0667393	8
	2	1	630984.4	2445.189	-1333.254	1	2785.052	-28.60169	1.221648E-008	0.0666189	8
	3	2	501234.4	2666.525	-1248.345	1	2944.269	-25.08684	3.024008E-008	0.0665027	8
	4	2	398109.4	2855.1	-1157.389	1	3080.77	-22.06645	7.881576E-008	0.0664152	8
	5	2	316265.6	3014.755	-1066.948	1	3197.988	-19.48931	3.785622E-008	0.0664173	8
	6	3	251203.1	3151.161	-985.943	1	3301.802	-17.37398	3.727071E-008	0.0664004	8
	7	3	199546.9	3267.256	-920.6016	1	3394.477	-15.73603	4.870213E-008	0.0664215	8
	8	3	158578.1	3376.327	-866.7324	1	3485.801	-14.39744	4.495504E-008	0.0664196	8
	9	4	125953.1	3506.251	-779.8348	1	3591.927	-12.53921	6.682543E-011	0.0663738	7
	10	4	100078.1	3591.75	-748.7166	1	3668.957	-11.77494	5.088102E-010	0.0663359	7
	11	4	79453.13	3686.724	-734.4271	1	3759.165	-11.26632	-4.037972E-010	0.0663277	7
	12	5	63140.62	3781.595	-722.954	1	3850.081	-10.82304	3.181575E-010	0.0663295	7
	13	5	50203.12	3874.44	-713.7396	1	3939.633	-10.43786	-9.147932E-010	0.0663249	7
	14	5	39890.62	3963.957	-708.0984	1	4026.706	-10.12816	-8.522784E-010	0.0663279	7
	15	6	31640.63	4051.421	-707.6407	1	4112.756	-9.90761	3.713153E-010	0.0663325	7
	16	6	25171.88	4133.675	-714.2657	1	4194.931	-9.80345	2.337992E-010	0.0663255	7
	17	6	20015.62	4213.06	-730.4122	1	4275.906	-9.83552	6.822961E-010	0.0663263	7
	18	6	15890.62	4289.97	-757.2858	1	4356.297	-10.01099	1.852769E-009	0.066332	7
	19	7	12609.37	4364.868	-797.3926	1	4437.105	-10.35287	1.437102E-009	0.066321	7
	20	7	10078.13	4437.925	-853.7479	1	4519.299	-10.88927	2.606019E-009	0.066329	7
	21	7	8015.625	4512.669	-929.8072	1	4607.464	-11.6425	1.629312E-009	0.0663224	7
	22	8	6328.125	4589.501	-1032.136	1	4704.128	-12.67442	6.729618E-010	0.0663158	7
	23	8	5015.625	4669.682	-1163.288	1	4812.397	-13.98851	4.526391E-010	0.0663157	7
	24	8	3984.375	4751.043	-1327.639	1	4933.056	-15.61257	1.937215E-009	0.0663238	7
	25	9	3170.956	4838.468	-1531.635	1	5075.104	-17.56538	2.210694E-009	0.0663158	7
	26	9	2527.573	4933.286	-1785.996	1	5246.626	-19.90176	1.487187E-009	0.0663176	7
	27	9	1976.103	5045.589	-2130.021	1	5476.766	-22.88729	2.406128E-009	0.0663144	7
	28	10	1577.524	5162.23	-2521.324	1	5745.058	-26.0317	1.340354E-009	0.0663169	7
	29	10	1265.625	5293.743	-2994.505	1	6082.004	-29.49549	2.304549E-009	0.0663223	7
	30	10	998.264	5458.54	-3613.394	1	6546.165	-33.5034	1.205089E-009	0.066318	7
	31	11	796.875	5646.695	-4338.85	1	7121.15	-37.53822	1.464999E-009	0.0663129	7
	32	11	627.7902	5887.923	-5284.695	1	7911.741	-41.90951	1.685539E-009	0.0663067	7
	33	11	505.5147	6149.936	-6339.549	1	8832.417	-45.86979	4.110357E-009	0.0663242	7
	34	12	397.9953	6503.684	-7740.87	1	10110.34	-49.96387	5.450292E-010	0.0663887	6
	35	12	315.5048	6930.539	-9423.918	1	11697.97	-53.66849	5.587305E-010	0.0663827	6
	36	12	252.4038	7435.47	-11387.73	1	13600.24	-56.85799	5.559611E-010	0.0663771	6
	37	13	198.6229	8122.749	-13966.65	1	16156.93	-59.81849	4.768438E-010	0.0663812	6
	38	13	158.3615	8944.192	-16932.42	1	19149.56	-62.1557	4.51764E-010	0.0663746	6
	39	13	125.558	10022.34	-20617.57	1	22924.47	-64.07531	3.954894E-010	0.0663785	6
	40	14	100.4464	11342.09	-24882.45	1	27345.55	-65.49522	5.471213E-010	0.0663724	6
	41	14	79.00281	13188.92	-30431.06	1	33166.2	-66.56793	9.512688E-011	0.0663743	6
	42	14	63.3446	15376.63	-36540.4	1	39643.94	-67.17808	6.678907E-011	0.0663671	6
	43	15	49.86702	18451.58	-44429.85	1	48108.96	-67.44704	2.09843E-010	0.0663689	6
	44	15	39.72458	22238.73	-53327.57	1	57778.81	-67.36282	5.46594E-010	0.0663721	6
	45	15	31.6723	27076.3	-63716.09	1	69230.53	-66.97682	4.796762E-010	0.0663714	6
	46	16	24.93351	33677.69	-76482.17	1	83568.59	-66.23448	6.567245E-010	0.0663709	6
	47	16	19.86229	41682.94	-90519.89	1	99656	-65.2747	1.936575E-009	0.0663769	6
	48	16	15.83615	51893.47	-106368.1	1	118351.6	-63.99379	-1.282104E-009	0.0663791	5
	49	16	12.40079	65492.56	-125441.4	1	141509	-62.43107	-8.056083E-010	0.0663817	5
	50	17	9.93114	80768.48	-144401.5	1	165455	-60.78028	-1.046516E-009	0.0663817	5
	51	17	7.944915	98394.6	-164887.5	1	192014	-59.17386	-1.374004E-009	0.0663823	5
	52	18	6.317385	120014.7	-187398.5	1	222534.8	-57.36349	4.453983E-010	0.0663593	5
	53	18	5.008013	144990	-211633.4	1	256536.1	-55.58495	1.685085E-010	0.0663765	5
	54	19	3.945707	172748	-238243.9	1	294282.3	-54.05456	-3.777869E-010	0.066371	5
	55	20	3.158693	201126.5	-264477.9	1	332265.6	-52.74824	1.626088E-010	0.066364	5
	56	21	2.504006	231896.6	-295480.9	1	375612.8	-51.87479	2.93133E-010	0.0663708	5
	57	22	1.998082	263392.9	-328871.5	1	421345.8	-51.30879	-6.358605E-011	0.0663368	5
	58	24	1.584686	297014.7	-370974.8	1	475226.3	-51.31808	-8.955373E-011	0.0663313	5
	59	26	1.266892	330948.3	-418008.9	1	533158.8	-51.63044	2.536759E-012	0.066366	5
	60	28	0.999041	371382.6	-478297.5	1	605552.3	-52.17181	5.424271E-011	0.0663926	5
