EXPLAIN
TAG	EISPOT
TITLE	LABEL	Potentiostatic EIS	Test &Identifier
DATE	LABEL	6/26/2020	Date
TIME	LABEL	13:35:28	Time
NOTES	NOTES	1	&Notes...
	
PSTAT	PSTAT	REF600-11020	Potentiostat
VDC	POTEN	0.00000E+000	T	DC &Voltage (V)
FREQINIT	QUANT	1.00000E+006	Initial Fre&q. (Hz)
FREQFINAL	QUANT	1.00000E+000	Final Fre&q. (Hz)
PTSPERDEC	QUANT	1.00000E+001	Points/&decade
VAC	QUANT	2.50000E+001	AC &Voltage (mV rms)
AREA	QUANT	4.00000E-004	&Area (cm^2)
CONDIT	TWOPARAM	F	5.00000E+000	0.00000E+000	Conditionin&g	Time(s)	E(V)
DELAY	TWOPARAM	F	3.00000E+000	0.00000E+000	Init. De&lay	Time(s)	Stab.(mV/s)
SPEED	SELECTOR	0	&Optimize for:
ZGUESS	QUANT	1.00000E+003	E&stimated Z (ohms)
OCVCURVE	TABLE	39
	Pt	T	Vf	Vm	Ach	Over
	#	s	V vs. Ref.	V	V	bits
	0	0.258333	1.07592E-001	1.07592E-001	5.30650E-004	...........
	1	0.516667	1.07592E-001	1.07585E-001	5.36516E-004	...........
	2	0.775	1.07591E-001	1.07575E-001	5.31783E-004	...........
	3	1.03333	1.07589E-001	1.07576E-001	5.29250E-004	...........
	4	1.29167	1.07585E-001	1.07570E-001	5.29150E-004	...........
	5	1.55	1.07580E-001	1.07561E-001	5.33517E-004	...........
	6	1.80833	1.07575E-001	1.07554E-001	5.29850E-004	...........
	7	2.06667	1.07569E-001	1.07547E-001	5.29050E-004	...........
	8	2.325	1.07562E-001	1.07541E-001	5.27817E-004	...........
	9	2.58333	1.07555E-001	1.07534E-001	5.32783E-004	...........
	10	2.84167	1.07548E-001	1.07528E-001	5.30983E-004	...........
	11	3.1	1.07542E-001	1.07522E-001	5.30583E-004	...........
	12	3.35833	1.07535E-001	1.07518E-001	5.30416E-004	...........
	13	3.61667	1.07529E-001	1.07511E-001	5.29650E-004	...........
	14	3.875	1.07523E-001	1.07501E-001	5.30383E-004	...........
	15	4.13333	1.07517E-001	1.07495E-001	5.30283E-004	...........
	16	4.39167	1.07510E-001	1.07492E-001	5.29250E-004	...........
	17	4.65	1.07503E-001	1.07486E-001	5.25383E-004	...........
	18	4.90833	1.07497E-001	1.07480E-001	5.28650E-004	...........
	19	5.16667	1.07491E-001	1.07475E-001	5.29750E-004	...........
	20	5.425	1.07486E-001	1.07473E-001	5.26383E-004	...........
	21	5.68333	1.07481E-001	1.07464E-001	5.36483E-004	...........
	22	5.94167	1.07476E-001	1.07455E-001	5.29983E-004	...........
	23	6.2	1.07470E-001	1.07450E-001	5.30683E-004	...........
	24	6.45833	1.07464E-001	1.07446E-001	5.29416E-004	...........
	25	6.71667	1.07458E-001	1.07439E-001	5.32650E-004	...........
	26	6.975	1.07452E-001	1.07435E-001	5.29850E-004	...........
	27	7.23333	1.07446E-001	1.07430E-001	5.28817E-004	...........
	28	7.49167	1.07440E-001	1.07424E-001	5.25350E-004	...........
	29	7.75	1.07435E-001	1.07417E-001	5.27583E-004	...........
	30	8.00833	1.07430E-001	1.07412E-001	5.24983E-004	...........
	31	8.26667	1.07424E-001	1.07402E-001	5.26217E-004	...........
	32	8.525	1.07418E-001	1.07400E-001	5.25083E-004	...........
	33	8.78333	1.07411E-001	1.07394E-001	5.32683E-004	...........
	34	9.04167	1.07405E-001	1.07390E-001	5.29816E-004	...........
	35	9.3	1.07400E-001	1.07382E-001	5.30783E-004	...........
	36	9.5583	1.07394E-001	1.07378E-001	5.32383E-004	...........
	37	9.8167	1.07389E-001	1.07372E-001	5.30983E-004	...........
	38	10.075	1.07383E-001	1.07365E-001	5.31150E-004	...........
EOC	QUANT	0.1073834	Open Circuit (V)
PSTATMODEL	IQUANT	4	Pstat Model
PSTATSECTION	LABEL	REF600-11020	Pstat Section
PSTATSERIALNO	LABEL	11020	Pstat Serial Number
CTRLMODE	IQUANT	1	Control Mode
IESTAB	IQUANT	0	I/E Stability
CASPEED	IQUANT	1	Control Amp Speed
CONVENTION	IQUANT	1	Current Convention
ICHRANGE	IQUANT	2	Ich Range
ICHRANGEMODE	TOGGLE	F	Ich Auto Range
ICHOFFSETENABLE	TOGGLE	T	Ich Offset Enable
ICHOFFSET	QUANT	0	Ich Offset (V)
ICHFILTER	IQUANT	3	Ich Filter
VCHRANGE	IQUANT	2	Vch Range
VCHRANGEMODE	TOGGLE	F	Vch Auto Range
VCHOFFSETENABLE	TOGGLE	T	Vch Offset Enable
VCHOFFSET	QUANT	0	Vch Offset (V)
VCHFILTER	IQUANT	3	Vch Filter
ACHRANGE	IQUANT	2	Ach Range
ACHOFFSETENABLE	TOGGLE	F	Ach Offset Enable
ACHOFFSET	QUANT	0	Ach Offset (V)
ACHFILTER	IQUANT	3	Ach Filter
IERANGELOWERLIMIT	IQUANT	1	I/E Range Lower Limit
IERANGEMODE	TOGGLE	F	I/E AutoRange
IERANGE	IQUANT	8	I/E Range
POSFEEDENABLE	TOGGLE	F	Positive Feedback IR Comp
POSFEEDRESISTANCE	QUANT	0	Positive Feedback Resistance (ohm)
ACHSELECT	IQUANT	0	Ach Select
CABLEID	IQUANT	14	Cable ID
DCCALDATE	LABEL	6/26/2020	DC Calibration Date
ACCALDATE	LABEL	6/26/2020	AC Calibration Date
THERMOSELECT	IQUANT	1	Thermo Select
FRAMEWORKVERSION	QUANT	6.33	Framework Version
INSTRUMENTVERSION	LABEL	3.50	Instrument Version
ZCURVE	TABLE
	Pt	Time	Freq	Zreal	Zimag	Zsig	Zmod	Zphz	Idc	Vdc	IERange
	#	s	Hz	ohm	ohm	V	ohm	°	A	V	#
	0	1	1000078	1773.492	-1865.913	1	2574.277	-46.45469	6.398872E-009	0.1101235	8
	1	1	794390.6	2024.297	-2017.442	1	2857.945	-44.90282	8.153933E-008	0.1097254	8
	2	1	630984.4	2276.694	-2188.139	1	3157.735	-43.86376	1.141701E-008	0.1095056	8
	3	2	501234.4	2530.728	-2379.751	1	3473.874	-43.23894	1.684674E-007	0.1093608	8
	4	2	398109.4	2793.731	-2616.638	1	3827.758	-43.12525	7.930227E-008	0.1092897	8
	5	2	316265.6	3062.098	-2902.68	1	4219.241	-43.46904	-1.336898E-008	0.1092917	8
	6	3	251203.1	3356.06	-3232.753	1	4659.81	-43.92785	6.097314E-008	0.1092519	8
	7	3	199546.9	3660.025	-3651.653	1	5170.14	-44.93439	6.120066E-008	0.1092495	8
	8	3	158578.1	3997.465	-4145.727	1	5759.061	-46.04306	1.497343E-007	0.1092256	8
	9	3	125953.1	4467.934	-4700.293	1	6484.998	-46.45179	3.806742E-009	0.1092517	7
	10	4	100078.1	4890.111	-5429.581	1	7307.088	-47.99246	3.359636E-009	0.109212	7
	11	4	79453.13	5360.504	-6310.786	1	8280.158	-49.65478	1.080362E-008	0.1091871	7
	12	4	63140.62	5906.602	-7358.242	1	9435.659	-51.24532	6.235657E-009	0.1091934	7
	13	5	50203.12	6550.274	-8606.509	1	10815.64	-52.72583	2.391366E-009	0.1091876	7
	14	5	39890.62	7311.789	-10096.85	1	12466.3	-54.08923	5.810283E-009	0.1091836	7
	15	5	31640.63	8236.959	-11881.22	1	14457.21	-55.26738	6.415211E-009	0.1091786	7
	16	6	25171.88	9350.46	-13947.89	1	16792.11	-56.16269	-7.818916E-009	0.1091915	7
	17	6	20015.62	10671.14	-16424.27	1	19586.47	-56.98751	1.042185E-008	0.1091722	7
	18	6	15890.62	12349.27	-19308.57	1	22919.98	-57.39805	-7.953151E-009	0.1091903	7
	19	7	12609.37	14756.12	-22601.03	1	26991.66	-56.85964	2.263788E-009	0.1091766	6
	20	7	10078.13	17221.07	-26413.82	1	31531.81	-56.89677	-4.62185E-010	0.109189	6
	21	7	8015.625	20412.07	-30885.45	1	37021.12	-56.53945	-3.081022E-010	0.1091873	6
	22	8	6328.125	24623.18	-36072.43	1	43675.18	-55.6824	-5.836097E-010	0.1091944	6
	23	8	5015.625	29931.66	-41627.96	1	51271.74	-54.28282	-5.74706E-010	0.1091907	6
	24	8	3984.375	36533.57	-47425.86	1	59865.8	-52.39185	-1.049683E-010	0.1091885	6
	25	8	3170.956	44545.14	-53174.08	1	69366.8	-50.04632	3.520506E-010	0.1091839	6
	26	9	2527.573	54092.64	-58368.11	1	79579.21	-47.17719	-3.587732E-010	0.1091903	6
	27	9	1976.103	65933.39	-63235.61	1	91356.2	-43.80351	-2.136127E-010	0.1091693	6
	28	9	1577.524	77908.15	-65965.07	1	102083.6	-40.25469	-8.075453E-010	0.1091774	6
	29	10	1265.625	91852.27	-65614.09	1	112880.7	-35.53988	6.229117E-010	0.1091382	5
	30	10	998.264	104767.8	-64998.46	1	123292.7	-31.81566	6.705115E-010	0.109149	5
	31	10	796.875	116524.2	-63077.39	1	132501.5	-28.42776	6.2438E-010	0.1091529	5
	32	11	627.7902	127695.2	-59515.99	1	140883.7	-24.98921	4.994987E-010	0.1091522	5
	33	11	505.5147	136752.2	-55829.26	1	147709.4	-22.20781	4.845468E-010	0.1091495	5
	34	11	397.9953	145128.8	-51359.84	1	153948.7	-19.48844	4.654588E-010	0.1091784	5
	35	12	315.5048	151554.2	-47072.21	1	158696.2	-17.25461	4.633897E-010	0.1091751	5
	36	12	252.4038	157096.1	-43790.38	1	163085.2	-15.57576	3.742141E-010	0.1091722	5
	37	12	198.6229	161206.6	-40748.48	1	166276.9	-14.18561	5.545713E-010	0.1091734	5
	38	13	158.3615	164733.8	-39141.03	1	169320	-13.36573	3.372146E-010	0.1091695	5
	39	13	125.558	168274.2	-38632.29	1	172651.9	-12.92987	3.31773E-010	0.109168	5
	40	13	100.4464	171118.2	-39271.9	1	175566.8	-12.92564	2.314738E-010	0.1091729	5
	41	14	79.00281	173932.5	-41446.82	1	178802.5	-13.4032	3.193159E-010	0.1091703	5
	42	14	63.3446	176761.9	-44614.64	1	182305.3	-14.16557	2.634436E-010	0.1091703	5
	43	14	49.86702	179937.7	-49658.29	1	186664.2	-15.42817	5.830885E-010	0.1091658	5
	44	15	39.72458	183863.7	-56112.43	1	192235.4	-16.9714	4.774204E-010	0.1091721	5
	45	15	31.6723	188792.1	-64326.53	1	199450.2	-18.81535	4.844068E-010	0.1091708	5
	46	15	24.93351	195124.9	-74635.18	1	208911.8	-20.93183	9.353043E-011	0.1091678	5
	47	16	19.86229	202897.1	-86480.59	1	220558.7	-23.0851	7.914155E-010	0.1091722	5
	48	16	15.83615	212614.4	-99490.4	1	234740.7	-25.07668	-7.461425E-010	0.1091634	5
	49	16	12.40079	225953.7	-115319.3	1	253680.2	-27.03827	-1.838242E-009	0.1091722	5
	50	16	9.93114	237772.6	-131676.9	1	271798.8	-28.9774	-1.716063E-009	0.1091605	5
	51	17	7.944915	252486.6	-149246	1	293298.3	-30.58753	5.118865E-010	0.1091686	5
	52	17	6.317385	271164.1	-169199.5	1	319622.3	-31.96312	-8.231228E-010	0.1091847	5
	53	18	5.008013	291429.9	-191515.7	1	348725.8	-33.31127	-6.944245E-010	0.1091687	5
	54	19	3.945707	313302.9	-216458.9	1	380806	-34.64034	2.578555E-010	0.1091747	5
	55	20	3.158693	337050.7	-243245.8	1	415658.2	-35.81758	-3.545122E-010	0.1091738	5
	56	21	2.504006	362556.9	-275042.1	1	455077.7	-37.18459	-1.784852E-010	0.1091576	5
	57	22	1.998082	390485.4	-310155.5	1	498673.5	-38.45948	2.530252E-010	0.109202	5
	58	24	1.584686	419865.2	-353500.6	1	548861.9	-40.09531	1.539398E-010	0.1091765	5
	59	26	1.266892	451213.2	-400894.9	1	603581.1	-41.62052	2.317016E-011	0.1091336	5
	60	28	0.999041	487977.9	-461495.1	1	671639.9	-43.40232	-4.556445E-011	0.1091163	5
