EXPLAIN
TAG	EISPOT
TITLE	LABEL	Potentiostatic EIS	Test &Identifier
DATE	LABEL	1/10/2020	Date
TIME	LABEL	14:11:24	Time
NOTES	NOTES	5	&Notes...
	
	
	
	
	
PSTAT	PSTAT	REF600-11020	Potentiostat
VDC	POTEN	0.00000E+000	T	DC &Voltage (V)
FREQINIT	QUANT	1.00000E+006	Initial Fre&q. (Hz)
FREQFINAL	QUANT	1.00000E+000	Final Fre&q. (Hz)
PTSPERDEC	QUANT	1.00000E+001	Points/&decade
VAC	QUANT	2.50000E+001	AC &Voltage (mV rms)
AREA	QUANT	1.00000E-001	&Area (cm^2)
CONDIT	TWOPARAM	T	5.00000E+000	0.00000E+000	Conditionin&g	Time(s)	E(V)
DELAY	TWOPARAM	T	5.00000E+000	0.00000E+000	Init. De&lay	Time(s)	Stab.(mV/s)
SPEED	SELECTOR	0	&Optimize for:
ZGUESS	QUANT	5.00000E+002	E&stimated Z (ohms)
OCVCURVE	TABLE	19
	Pt	T	Vf	Vm	Ach	Over
	#	s	V vs. Ref.	V	V	bits
	0	0.258333	8.64024E-003	8.64024E-003	6.30980E-004	...........
	1	0.516667	8.64460E-003	8.86863E-003	6.35480E-004	...........
	2	0.775	8.67090E-003	9.05942E-003	6.41313E-004	...........
	3	1.03333	8.74296E-003	9.20493E-003	6.29380E-004	...........
	4	1.29167	8.86539E-003	9.33467E-003	6.36480E-004	...........
	5	1.55	9.01868E-003	9.55822E-003	6.29647E-004	...........
	6	1.80833	9.18257E-003	9.67304E-003	6.32513E-004	...........
	7	2.06667	9.34826E-003	9.84019E-003	6.33146E-004	...........
	8	2.325	9.51164E-003	9.99249E-003	6.31580E-004	...........
	9	2.58333	9.67170E-003	1.02005E-002	6.29713E-004	...........
	10	2.84167	9.82908E-003	1.01576E-002	6.30180E-004	...........
	11	3.1	9.97803E-003	1.04274E-002	6.28547E-004	...........
	12	3.35833	1.01080E-002	1.02143E-002	6.23913E-004	...........
	13	3.61667	1.02113E-002	1.05183E-002	6.27347E-004	...........
	14	3.875	1.02951E-002	1.07347E-002	6.26747E-004	...........
	15	4.13333	1.03912E-002	1.09255E-002	6.31280E-004	...........
	16	4.39167	1.05266E-002	1.10014E-002	6.30147E-004	...........
	17	4.65	1.06900E-002	1.11206E-002	6.26247E-004	...........
	18	4.90833	1.08502E-002	1.12258E-002	6.30813E-004	...........
EOC	QUANT	0.0108502	Open Circuit (V)
PSTATMODEL	IQUANT	4	Pstat Model
PSTATSECTION	LABEL	REF600-11020	Pstat Section
PSTATSERIALNO	LABEL	11020	Pstat Serial Number
CTRLMODE	IQUANT	1	Control Mode
IESTAB	IQUANT	0	I/E Stability
CASPEED	IQUANT	1	Control Amp Speed
CONVENTION	IQUANT	1	Current Convention
ICHRANGE	IQUANT	2	Ich Range
ICHRANGEMODE	TOGGLE	F	Ich Auto Range
ICHOFFSETENABLE	TOGGLE	T	Ich Offset Enable
ICHOFFSET	QUANT	0	Ich Offset (V)
ICHFILTER	IQUANT	3	Ich Filter
VCHRANGE	IQUANT	2	Vch Range
VCHRANGEMODE	TOGGLE	F	Vch Auto Range
VCHOFFSETENABLE	TOGGLE	T	Vch Offset Enable
VCHOFFSET	QUANT	0	Vch Offset (V)
VCHFILTER	IQUANT	3	Vch Filter
ACHRANGE	IQUANT	2	Ach Range
ACHOFFSETENABLE	TOGGLE	F	Ach Offset Enable
ACHOFFSET	QUANT	0	Ach Offset (V)
ACHFILTER	IQUANT	3	Ach Filter
IERANGELOWERLIMIT	IQUANT	1	I/E Range Lower Limit
IERANGEMODE	TOGGLE	F	I/E AutoRange
IERANGE	IQUANT	7	I/E Range
POSFEEDENABLE	TOGGLE	F	Positive Feedback IR Comp
POSFEEDRESISTANCE	QUANT	0	Positive Feedback Resistance (ohm)
ACHSELECT	IQUANT	0	Ach Select
CABLEID	IQUANT	14	Cable ID
DCCALDATE	LABEL	12/22/2019	DC Calibration Date
ACCALDATE	LABEL	12/22/2019	AC Calibration Date
THERMOSELECT	IQUANT	1	Thermo Select
FRAMEWORKVERSION	QUANT	6.33	Framework Version
INSTRUMENTVERSION	LABEL	3.50	Instrument Version
ZCURVE	TABLE
	Pt	Time	Freq	Zreal	Zimag	Zsig	Zmod	Zphz	Idc	Vdc	IERange
	#	s	Hz	ohm	ohm	V	ohm	°	A	V	#
	0	1	1000078	1917.912	-1790.668	1	2623.906	-43.03491	1.315565E-006	0.0128389	8
	1	2	794390.6	2203.844	-1885.052	1	2900.06	-40.54194	-3.684798E-006	0.0133331	8
	2	2	630984.4	2480.656	-1949.912	1	3155.283	-38.16901	-6.413291E-008	0.0128109	8
	3	2	501234.4	2738.066	-2017.817	1	3401.264	-36.38835	3.519847E-006	0.0118912	8
	4	2	398109.4	3000.83	-2114.303	1	3670.866	-35.16749	5.473377E-007	0.0121879	8
	5	3	316265.6	3258.854	-2241.522	1	3955.319	-34.52118	-3.000182E-006	0.0130251	8
	6	3	251203.1	3542.375	-2402.87	1	4280.445	-34.1499	1.315476E-006	0.0121458	8
	7	3	199546.9	3848.07	-2616.113	1	4653.137	-34.20985	-9.520642E-007	0.0125748	8
	8	4	158578.1	4214.131	-2866.385	1	5096.573	-34.22291	-8.962693E-007	0.0125682	8
	9	4	125953.1	4669.558	-3133.756	1	5623.628	-33.86569	-8.642303E-007	0.0141124	7
	10	4	100078.1	5192.68	-3409.042	1	6211.722	-33.28526	-2.340075E-008	0.0123625	7
	11	5	79453.13	5821.133	-3674.523	1	6883.874	-32.2617	-3.11671E-009	0.0122915	7
	12	5	63140.62	6547.386	-3861.898	1	7601.481	-30.53373	-1.446983E-008	0.0123208	7
	13	5	50203.12	7328.53	-3924.776	1	8313.316	-28.17117	-3.766648E-009	0.0122886	7
	14	6	39890.62	8125.591	-3860.577	1	8996.07	-25.41302	-6.098523E-009	0.0123538	7
	15	6	31640.63	8871.22	-3663.714	1	9597.99	-22.44007	-9.030328E-009	0.0124128	7
	16	6	25171.88	9498.321	-3372.563	1	10079.3	-19.5484	-3.15845E-008	0.0123498	7
	17	7	20015.62	10026.53	-3039.989	1	10477.25	-16.86702	8.986973E-008	0.0121889	7
	18	7	15890.62	10428.55	-2710.992	1	10775.17	-14.57199	-1.45866E-009	0.0122844	7
	19	7	12609.37	10781.24	-2360.389	1	11036.6	-12.3492	2.968972E-009	0.0123494	6
	20	8	10078.13	11010.82	-2121.394	1	11213.31	-10.90524	2.944601E-009	0.012349	6
	21	8	8015.625	11187.32	-1936.509	1	11353.68	-9.82051	5.927378E-010	0.0123692	6
	22	8	6328.125	11343.38	-1810.366	1	11486.94	-9.067744	-2.519383E-009	0.0123611	6
	23	9	5015.625	11461.04	-1746.38	1	11593.33	-8.663818	-6.76102E-009	0.0123791	6
	24	9	3984.375	11560.56	-1741.767	1	11691.03	-8.568005	-6.511711E-010	0.0122804	6
	25	9	3170.956	11654.29	-1808.6	1	11793.79	-8.821224	2.921308E-009	0.0123393	6
	26	10	2527.573	11757.4	-1939.017	1	11916.22	-9.36486	-3.970188E-009	0.0123284	6
	27	10	1976.103	11857.62	-2162.521	1	12053.21	-10.33566	1.044358E-009	0.0123409	6
	28	10	1577.524	11956.47	-2454.711	1	12205.85	-11.60184	8.719548E-009	0.0122097	6
	29	10	1265.625	12061.54	-2818.66	1	12386.51	-13.15339	-6.54443E-009	0.0123931	6
	30	11	998.264	12180.76	-3336.4	1	12629.43	-15.31803	-4.401802E-009	0.0123305	6
	31	11	796.875	12321.53	-3961.974	1	12942.85	-17.82513	-8.743313E-010	0.0122503	6
	32	11	627.7902	12506.79	-4789.477	1	13392.49	-20.95435	-3.794789E-009	0.0123273	6
	33	12	505.5147	12690.79	-5726.788	1	13923.08	-24.28753	-4.172873E-009	0.0123273	6
	34	12	397.9953	12933.32	-7009.532	1	14710.68	-28.45658	1.89299E-010	0.012326	6
	35	12	315.5048	13236.06	-8553.1	1	15759.09	-32.87041	1.058731E-009	0.0123204	6
	36	13	252.4038	13588.1	-10384.65	1	17101.97	-37.38872	6.157901E-010	0.0123183	6
	37	13	198.6229	14066.57	-12813.01	1	19027.39	-42.32987	1.618249E-010	0.0123198	6
	38	13	158.3615	14634.29	-15631.96	1	21413.1	-46.88796	-3.414177E-010	0.0123145	6
	39	14	125.558	15396.33	-19186.26	1	24599.99	-51.25413	-7.218453E-011	0.0123181	6
	40	14	100.4464	16348.78	-23324.49	1	28483.58	-54.97232	4.22298E-010	0.0123218	6
	41	14	79.00281	17709.08	-28851.09	1	33852.57	-58.45799	7.820937E-010	0.0123192	6
	42	15	63.3446	18868.9	-35006.61	1	39768.05	-61.6749	4.314697E-011	0.0123211	6
	43	15	49.86702	21230.36	-42937.54	1	47899.48	-63.69003	6.529182E-010	0.0123176	6
	44	15	39.72458	24314.07	-52411.32	1	57776.47	-65.11301	4.273148E-010	0.0123186	6
	45	16	31.6723	28137.43	-63521.09	1	69474.05	-66.10848	1.088249E-009	0.0123193	6
	46	16	24.93351	33158.99	-77471.22	1	84269.26	-66.82825	-4.222855E-010	0.012317	6
	47	16	19.86229	39432.8	-93290.95	1	101282.5	-67.08689	-8.799251E-010	0.0123162	6
	48	17	15.83615	48312.94	-111011.7	1	121069.2	-66.48105	-1.702424E-009	0.0123187	5
	49	17	12.40079	59446.83	-134620.8	1	147162.1	-66.17435	9.622166E-010	0.012314	5
	50	17	9.93114	72180.39	-160244.1	1	175750.4	-65.75129	-7.596971E-010	0.0123125	5
	51	18	7.944915	88790.16	-188296.5	1	208180.8	-64.75404	-1.417439E-009	0.0123222	5
	52	19	6.317385	111345.2	-221068.2	1	247525.5	-63.26702	-9.443215E-010	0.0123306	5
	53	19	5.008013	139172.5	-258211.1	1	293329.1	-61.6759	-6.151441E-010	0.0123201	5
	54	20	3.945707	173815.4	-299196.7	1	346020.9	-59.84597	-2.016534E-010	0.0123122	5
	55	22	3.158693	211959.2	-340087.4	1	400732	-58.06681	-9.596529E-011	0.0123278	5
	56	23	2.504006	259003.6	-385609.6	1	464518.7	-56.11181	-3.547102E-010	0.0123223	5
	57	25	1.998082	308408.2	-431953.3	1	530753.5	-54.47374	-3.613264E-010	0.0123056	5
	58	26	1.584686	365528.2	-480182.3	1	603478.1	-52.72059	-1.644787E-010	0.0123481	5
	59	28	1.266892	424612.2	-532520	1	681082.3	-51.43241	-8.681378E-011	0.0123511	5
	60	31	0.999041	490465.8	-595526.9	1	771497.8	-50.52571	-9.87356E-011	0.0123435	5
