EXPLAIN
TAG	EISPOT
TITLE	LABEL	Potentiostatic EIS	Test &Identifier
DATE	LABEL	9/1/2020	Date
TIME	LABEL	21:43:09	Time
NOTES	NOTES	1	&Notes...
	
PSTAT	PSTAT	REF600-11020	Potentiostat
VDC	POTEN	0.00000E+000	T	DC &Voltage (V)
FREQINIT	QUANT	1.00000E+006	Initial Fre&q. (Hz)
FREQFINAL	QUANT	1.00000E+000	Final Fre&q. (Hz)
PTSPERDEC	QUANT	1.00000E+001	Points/&decade
VAC	QUANT	2.50000E+001	AC &Voltage (mV rms)
AREA	QUANT	4.00000E-005	&Area (cm^2)
CONDIT	TWOPARAM	F	5.00000E+000	0.00000E+000	Conditionin&g	Time(s)	E(V)
DELAY	TWOPARAM	F	3.00000E+000	0.00000E+000	Init. De&lay	Time(s)	Stab.(mV/s)
SPEED	SELECTOR	0	&Optimize for:
ZGUESS	QUANT	1.00000E+003	E&stimated Z (ohms)
OCVCURVE	TABLE	39
	Pt	T	Vf	Vm	Ach	Over
	#	s	V vs. Ref.	V	V	bits
	0	0.258333	2.01657E-001	2.01657E-001	5.42025E-004	...........
	1	0.516667	2.01655E-001	2.01597E-001	5.49559E-004	...........
	2	0.775	2.01649E-001	2.01544E-001	5.53359E-004	...........
	3	1.03333	2.01629E-001	2.01487E-001	5.52192E-004	...........
	4	1.29167	2.01594E-001	2.01438E-001	5.52959E-004	...........
	5	1.55	2.01548E-001	2.01385E-001	5.51259E-004	...........
	6	1.80833	2.01496E-001	2.01338E-001	5.52325E-004	...........
	7	2.06667	2.01443E-001	2.01298E-001	5.52092E-004	...........
	8	2.325	2.01393E-001	2.01254E-001	5.46992E-004	...........
	9	2.58333	2.01346E-001	2.01217E-001	5.49225E-004	...........
	10	2.84167	2.01302E-001	2.01181E-001	5.55159E-004	...........
	11	3.1	2.01260E-001	2.01139E-001	5.54892E-004	...........
	12	3.35833	2.01221E-001	2.01101E-001	5.51425E-004	...........
	13	3.61667	2.01182E-001	2.01064E-001	5.49092E-004	...........
	14	3.875	2.01143E-001	2.01025E-001	5.51425E-004	...........
	15	4.13333	2.01105E-001	2.00991E-001	5.51559E-004	...........
	16	4.39167	2.01067E-001	2.00963E-001	5.49559E-004	...........
	17	4.65	2.01031E-001	2.00932E-001	5.50259E-004	...........
	18	4.90833	2.00997E-001	2.00901E-001	5.53325E-004	...........
	19	5.16667	2.00965E-001	2.00875E-001	5.51525E-004	...........
	20	5.425	2.00935E-001	2.00848E-001	5.53159E-004	...........
	21	5.68333	2.00905E-001	2.00817E-001	5.55692E-004	...........
	22	5.94167	2.00877E-001	2.00791E-001	5.55559E-004	...........
	23	6.2	2.00849E-001	2.00766E-001	5.50859E-004	...........
	24	6.45833	2.00821E-001	2.00746E-001	5.55192E-004	...........
	25	6.71667	2.00795E-001	2.00722E-001	5.56759E-004	...........
	26	6.975	2.00770E-001	2.00697E-001	5.54925E-004	...........
	27	7.23333	2.00747E-001	2.00675E-001	5.49259E-004	...........
	28	7.49167	2.00723E-001	2.00650E-001	5.55792E-004	...........
	29	7.75	2.00700E-001	2.00629E-001	5.53492E-004	...........
	30	8.00833	2.00676E-001	2.00603E-001	5.51059E-004	...........
	31	8.26667	2.00653E-001	2.00579E-001	5.49725E-004	...........
	32	8.525	2.00629E-001	2.00560E-001	5.53192E-004	...........
	33	8.78333	2.00606E-001	2.00539E-001	5.54059E-004	...........
	34	9.04167	2.00583E-001	2.00519E-001	5.52459E-004	...........
	35	9.3	2.00561E-001	2.00498E-001	5.52159E-004	...........
	36	9.5583	2.00541E-001	2.00479E-001	5.53959E-004	...........
	37	9.8167	2.00520E-001	2.00462E-001	5.55392E-004	...........
	38	10.075	2.00500E-001	2.00441E-001	5.46292E-004	...........
EOC	QUANT	0.2005003	Open Circuit (V)
PSTATMODEL	IQUANT	4	Pstat Model
PSTATSECTION	LABEL	REF600-11020	Pstat Section
PSTATSERIALNO	LABEL	11020	Pstat Serial Number
CTRLMODE	IQUANT	1	Control Mode
IESTAB	IQUANT	0	I/E Stability
CASPEED	IQUANT	1	Control Amp Speed
CONVENTION	IQUANT	1	Current Convention
ICHRANGE	IQUANT	2	Ich Range
ICHRANGEMODE	TOGGLE	F	Ich Auto Range
ICHOFFSETENABLE	TOGGLE	T	Ich Offset Enable
ICHOFFSET	QUANT	0	Ich Offset (V)
ICHFILTER	IQUANT	3	Ich Filter
VCHRANGE	IQUANT	2	Vch Range
VCHRANGEMODE	TOGGLE	F	Vch Auto Range
VCHOFFSETENABLE	TOGGLE	T	Vch Offset Enable
VCHOFFSET	QUANT	0	Vch Offset (V)
VCHFILTER	IQUANT	3	Vch Filter
ACHRANGE	IQUANT	2	Ach Range
ACHOFFSETENABLE	TOGGLE	F	Ach Offset Enable
ACHOFFSET	QUANT	0	Ach Offset (V)
ACHFILTER	IQUANT	3	Ach Filter
IERANGELOWERLIMIT	IQUANT	1	I/E Range Lower Limit
IERANGEMODE	TOGGLE	F	I/E AutoRange
IERANGE	IQUANT	8	I/E Range
POSFEEDENABLE	TOGGLE	F	Positive Feedback IR Comp
POSFEEDRESISTANCE	QUANT	0	Positive Feedback Resistance (ohm)
ACHSELECT	IQUANT	0	Ach Select
CABLEID	IQUANT	14	Cable ID
DCCALDATE	LABEL	9/1/2020	DC Calibration Date
ACCALDATE	LABEL	9/1/2020	AC Calibration Date
THERMOSELECT	IQUANT	1	Thermo Select
FRAMEWORKVERSION	QUANT	6.33	Framework Version
INSTRUMENTVERSION	LABEL	3.50	Instrument Version
ZCURVE	TABLE
	Pt	Time	Freq	Zreal	Zimag	Zsig	Zmod	Zphz	Idc	Vdc	IERange
	#	s	Hz	ohm	ohm	V	ohm	°	A	V	#
	0	1	1000078	1410.298	-2179.751	1	2596.2	-57.09714	6.530865E-008	0.2026764	8
	1	2	794390.6	1664.305	-2507.335	1	3009.425	-56.4248	9.508754E-008	0.2023544	8
	2	2	630984.4	1955.167	-2878.848	1	3480.006	-55.81765	5.019412E-008	0.2021767	8
	3	2	501234.4	2294.142	-3291.873	1	4012.42	-55.12694	5.234293E-008	0.2020799	8
	4	2	398109.4	2686.358	-3763.968	1	4624.281	-54.48441	6.452643E-008	0.2020361	8
	5	3	316265.6	3137.581	-4293.003	1	5317.357	-53.83846	7.370846E-008	0.2020091	8
	6	3	251203.1	3663.45	-4872.784	1	6096.301	-53.06347	6.335415E-008	0.2020061	8
	7	3	199546.9	4250.645	-5532.99	1	6977.246	-52.46722	8.335363E-008	0.2020052	8
	8	4	158578.1	4957.35	-6270.003	1	7993.013	-51.6685	7.741981E-008	0.2019833	8
	9	4	125953.1	5804.718	-7054.234	1	9135.479	-50.55006	3.102069E-009	0.202006	7
	10	4	100078.1	6707.675	-7935.165	1	10390.37	-49.79182	3.748048E-009	0.2019604	7
	11	5	79453.13	7728.237	-8931.076	1	11810.58	-49.12971	3.504103E-009	0.2019533	7
	12	5	63140.62	8876.165	-10018.78	1	13385.15	-48.46056	3.500046E-009	0.2019466	7
	13	5	50203.12	10166.77	-11230.19	1	15148.61	-47.84521	4.417191E-009	0.2019508	7
	14	6	39890.62	11651	-12540.92	1	17117.84	-47.10674	3.951813E-009	0.2019478	7
	15	6	31640.63	13342.39	-14013.63	1	19349.45	-46.40559	4.878973E-009	0.2019458	7
	16	6	25171.88	15234.93	-15591.23	1	21798.84	-45.66223	5.01711E-009	0.2019462	7
	17	7	20015.62	17390.69	-17242.03	1	24489.26	-44.75405	4.106532E-009	0.201944	7
	18	7	15890.62	19842.23	-19096.21	1	27538.69	-43.9024	5.323562E-009	0.201942	7
	19	7	12609.37	22855.89	-20868.33	1	30949.62	-42.39731	8.665151E-010	0.2019349	6
	20	8	10078.13	25827.99	-22776	1	34435.9	-41.40694	9.171465E-010	0.2019387	6
	21	8	8015.625	29172.3	-24783.48	1	38278.5	-40.34974	1.043728E-009	0.2019412	6
	22	8	6328.125	32960.83	-26874.36	1	42528.2	-39.19181	6.446122E-010	0.2019372	6
	23	9	5015.625	37007.85	-28977.12	1	47002.7	-38.06092	7.854112E-010	0.201934	6
	24	9	3984.375	41328.91	-31054.84	1	51696.05	-36.92146	8.083841E-010	0.2019303	6
	25	9	3170.956	45910.55	-33161.36	1	56634.39	-35.84072	8.557303E-010	0.2019319	6
	26	9	2527.573	50709.52	-35231.08	1	61746.94	-34.79013	1.12858E-009	0.2019321	6
	27	10	1976.103	56202.96	-37466.36	1	67546.29	-33.68846	8.84851E-010	0.2019321	6
	28	10	1577.524	61424.83	-39643.21	1	73106.73	-32.83795	9.645337E-010	0.2019285	6
	29	10	1265.625	66738.61	-41907.83	1	78805.51	-32.12635	1.024369E-009	0.2019318	6
	30	11	998.264	72567.27	-44365.45	1	85054.7	-31.44036	9.22641E-010	0.2019317	6
	31	11	796.875	78314.46	-46940.32	1	91304.7	-30.93773	9.237477E-010	0.2019286	6
	32	11	627.7902	85108.62	-49464.81	1	98439	-30.165	3.392228E-010	0.2019216	5
	33	12	505.5147	90873.63	-52940.16	1	105169.8	-30.22375	2.738446E-010	0.2019203	5
	34	12	397.9953	97477.3	-57435.59	1	113140.1	-30.50745	3.848649E-010	0.2019438	5
	35	12	315.5048	104139.2	-62516.34	1	121463.1	-30.97702	3.855564E-010	0.2019432	5
	36	13	252.4038	110851.8	-68297.43	1	130202.4	-31.63783	3.964846E-010	0.2019398	5
	37	13	198.6229	118514.5	-75819.97	1	140692.4	-32.60919	4.026987E-010	0.2019438	5
	38	13	158.3615	126078.1	-84060.29	1	151531.6	-33.69265	3.785655E-010	0.2019349	5
	39	14	125.558	134460.1	-94461.34	1	164324.3	-35.08894	3.380108E-010	0.2019356	5
	40	14	100.4464	143175.4	-106538.5	1	178464.7	-36.65339	3.579848E-010	0.201936	5
	41	14	79.00281	153485.4	-122334	1	196273.7	-38.55626	3.574299E-010	0.2019323	5
	42	15	63.3446	164192.2	-139979.1	1	215761.9	-40.44866	3.060577E-010	0.2019306	5
	43	15	49.86702	177654.9	-163120.2	1	241183.4	-42.5577	2.750566E-010	0.2019295	5
	44	15	39.72458	193276.9	-189690.2	1	270810.5	-44.46341	3.622479E-010	0.2019321	5
	45	16	31.6723	212090.2	-221364.3	1	306568.8	-46.2257	3.886997E-010	0.2019354	5
	46	16	24.93351	237087.9	-260085	1	351930.3	-47.64838	1.909602E-010	0.2019285	5
	47	16	19.86229	266683.8	-301801.2	1	402745.8	-48.53487	5.849904E-010	0.2019329	5
	48	17	15.83615	303575.2	-347550.1	1	461463.9	-48.8637	1.748971E-010	0.201927	5
	49	17	12.40079	351591.7	-402087.5	1	534126.4	-48.83304	5.290771E-010	0.2019309	5
	50	17	9.93114	403837.9	-458876.1	1	611271.1	-48.65032	3.505285E-010	0.2019335	5
	51	17	7.944915	463530.5	-515833.4	1	693501.7	-48.05698	-6.595575E-011	0.2019347	5
	52	18	6.317385	536114.6	-580031.4	1	789845.1	-47.25325	3.872039E-010	0.2019145	5
	53	19	5.008013	618546.1	-647634.1	1	895560.9	-46.31602	3.945831E-010	0.2019358	5
	54	20	3.945707	716520.1	-721871.4	1	1017103	-45.21316	1.351661E-010	0.2019183	4
	55	20	3.158693	818487.9	-797016.1	1	1142435	-44.23853	3.504744E-010	0.2019281	4
	56	22	2.504006	934960.5	-873821.1	1	1279732	-43.06406	2.139311E-010	0.2019268	4
	57	23	1.998082	1064401	-954770	1	1429873	-41.89217	1.259661E-010	0.2018868	4
	58	24	1.584686	1205020	-1034893	1	1588420	-40.65658	1.357166E-010	0.2019362	4
	59	26	1.266892	1359173	-1110997	1	1755467	-39.2628	1.78626E-010	0.201964	4
	60	29	0.999041	1532147	-1190973	1	1940590	-37.85873	2.257115E-010	0.2019623	4
