EXPLAIN
TAG	EISPOT
TITLE	LABEL	Potentiostatic EIS	Test &Identifier
DATE	LABEL	1/18/2020	Date
TIME	LABEL	22:43:33	Time
NOTES	NOTES	6	&Notes...
	
	
	
	
	
	
PSTAT	PSTAT	REF600-11020	Potentiostat
VDC	POTEN	0.00000E+000	T	DC &Voltage (V)
FREQINIT	QUANT	1.00000E+006	Initial Fre&q. (Hz)
FREQFINAL	QUANT	1.00000E+000	Final Fre&q. (Hz)
PTSPERDEC	QUANT	1.00000E+001	Points/&decade
VAC	QUANT	2.50000E+001	AC &Voltage (mV rms)
AREA	QUANT	1.00000E-001	&Area (cm^2)
CONDIT	TWOPARAM	F	5.00000E+000	0.00000E+000	Conditionin&g	Time(s)	E(V)
DELAY	TWOPARAM	F	5.00000E+000	0.00000E+000	Init. De&lay	Time(s)	Stab.(mV/s)
SPEED	SELECTOR	0	&Optimize for:
ZGUESS	QUANT	5.00000E+002	E&stimated Z (ohms)
OCVCURVE	TABLE	39
	Pt	T	Vf	Vm	Ach	Over
	#	s	V vs. Ref.	V	V	bits
	0	0.258333	1.38404E-002	1.38404E-002	6.68079E-004	...........
	1	0.516667	1.38423E-002	1.39406E-002	6.67513E-004	...........
	2	0.775	1.38522E-002	1.39363E-002	6.63046E-004	...........
	3	1.03333	1.38732E-002	1.39047E-002	6.60113E-004	...........
	4	1.29167	1.38963E-002	1.38696E-002	6.64213E-004	...........
	5	1.55	1.39077E-002	1.39010E-002	6.62213E-004	...........
	6	1.80833	1.39063E-002	1.39377E-002	6.58946E-004	...........
	7	2.06667	1.39062E-002	1.40597E-002	6.56846E-004	...........
	8	2.325	1.39243E-002	1.40870E-002	6.58713E-004	...........
	9	2.58333	1.39658E-002	1.41285E-002	6.57813E-004	...........
	10	2.84167	1.40210E-002	1.41959E-002	6.66746E-004	...........
	11	3.1	1.40772E-002	1.41949E-002	6.62979E-004	...........
	12	3.35833	1.41267E-002	1.42013E-002	6.65379E-004	...........
	13	3.61667	1.41642E-002	1.42111E-002	6.59813E-004	...........
	14	3.875	1.41884E-002	1.42200E-002	6.58813E-004	...........
	15	4.13333	1.42024E-002	1.42212E-002	6.55613E-004	...........
	16	4.39167	1.42110E-002	1.42261E-002	6.57213E-004	...........
	17	4.65	1.42170E-002	1.42286E-002	6.59613E-004	...........
	18	4.90833	1.42214E-002	1.42235E-002	6.57313E-004	...........
	19	5.16667	1.42241E-002	1.42182E-002	6.57880E-004	...........
	20	5.425	1.42246E-002	1.42175E-002	6.57213E-004	...........
	21	5.68333	1.42230E-002	1.42095E-002	6.60113E-004	...........
	22	5.94167	1.42196E-002	1.41959E-002	6.64146E-004	...........
	23	6.2	1.42143E-002	1.41789E-002	6.63946E-004	...........
	24	6.45833	1.42061E-002	1.41703E-002	6.60279E-004	...........
	25	6.71667	1.41959E-002	1.41854E-002	6.67379E-004	...........
	26	6.975	1.41873E-002	1.42197E-002	6.60846E-004	...........
	27	7.23333	1.41881E-002	1.43341E-002	6.61146E-004	...........
	28	7.49167	1.42067E-002	1.43389E-002	6.58913E-004	...........
	29	7.75	1.42432E-002	1.43275E-002	6.65446E-004	...........
	30	8.00833	1.42839E-002	1.43148E-002	6.59213E-004	...........
	31	8.26667	1.43118E-002	1.43055E-002	6.59346E-004	...........
	32	8.525	1.43206E-002	1.42499E-002	6.63813E-004	...........
	33	8.78333	1.43090E-002	1.40545E-002	6.59579E-004	...........
	34	9.04167	1.42695E-002	1.39632E-002	6.64113E-004	...........
	35	9.3	1.41964E-002	1.39237E-002	6.66813E-004	...........
	36	9.5583	1.41030E-002	1.39136E-002	6.60379E-004	...........
	37	9.8167	1.40167E-002	1.39136E-002	6.58313E-004	...........
	38	10.075	1.39571E-002	1.39254E-002	6.62079E-004	...........
EOC	QUANT	0.0139571	Open Circuit (V)
PSTATMODEL	IQUANT	4	Pstat Model
PSTATSECTION	LABEL	REF600-11020	Pstat Section
PSTATSERIALNO	LABEL	11020	Pstat Serial Number
CTRLMODE	IQUANT	1	Control Mode
IESTAB	IQUANT	0	I/E Stability
CASPEED	IQUANT	1	Control Amp Speed
CONVENTION	IQUANT	1	Current Convention
ICHRANGE	IQUANT	2	Ich Range
ICHRANGEMODE	TOGGLE	F	Ich Auto Range
ICHOFFSETENABLE	TOGGLE	T	Ich Offset Enable
ICHOFFSET	QUANT	0	Ich Offset (V)
ICHFILTER	IQUANT	3	Ich Filter
VCHRANGE	IQUANT	2	Vch Range
VCHRANGEMODE	TOGGLE	F	Vch Auto Range
VCHOFFSETENABLE	TOGGLE	T	Vch Offset Enable
VCHOFFSET	QUANT	0	Vch Offset (V)
VCHFILTER	IQUANT	3	Vch Filter
ACHRANGE	IQUANT	2	Ach Range
ACHOFFSETENABLE	TOGGLE	F	Ach Offset Enable
ACHOFFSET	QUANT	0	Ach Offset (V)
ACHFILTER	IQUANT	3	Ach Filter
IERANGELOWERLIMIT	IQUANT	1	I/E Range Lower Limit
IERANGEMODE	TOGGLE	F	I/E AutoRange
IERANGE	IQUANT	7	I/E Range
POSFEEDENABLE	TOGGLE	F	Positive Feedback IR Comp
POSFEEDRESISTANCE	QUANT	0	Positive Feedback Resistance (ohm)
ACHSELECT	IQUANT	0	Ach Select
CABLEID	IQUANT	14	Cable ID
DCCALDATE	LABEL	12/22/2019	DC Calibration Date
ACCALDATE	LABEL	12/22/2019	AC Calibration Date
THERMOSELECT	IQUANT	1	Thermo Select
FRAMEWORKVERSION	QUANT	6.33	Framework Version
INSTRUMENTVERSION	LABEL	3.50	Instrument Version
ZCURVE	TABLE
	Pt	Time	Freq	Zreal	Zimag	Zsig	Zmod	Zphz	Idc	Vdc	IERange
	#	s	Hz	ohm	ohm	V	ohm	°	A	V	#
	0	2	1000078	2321.205	-1927.647	1	3017.253	-39.70797	8.119808E-006	0.0153084	8
	1	2	794390.6	2688.314	-1979.685	1	3338.591	-36.36808	-4.541248E-006	0.016184	8
	2	2	630984.4	3049.133	-1977.801	1	3634.406	-32.96921	-1.877818E-006	0.0163748	8
	3	2	501234.4	3396.327	-1939.047	1	3910.875	-29.72311	1.777762E-006	0.0153246	8
	4	3	398109.4	3757.889	-1851.841	1	4189.397	-26.23351	3.072354E-006	0.015042	8
	5	3	316265.6	4061.358	-1730.769	1	4414.77	-23.08153	9.004996E-007	0.0154115	8
	6	3	251203.1	4342.995	-1592.116	1	4625.628	-20.13263	1.332161E-006	0.015269	8
	7	4	199546.9	4576.109	-1449.975	1	4800.333	-17.5812	2.687939E-007	0.0155094	8
	8	4	158578.1	4767.274	-1301.066	1	4941.627	-15.26519	-7.287174E-007	0.0157771	8
	9	4	125953.1	4968.855	-1115.922	1	5092.622	-12.65766	6.826029E-008	0.0155127	7
	10	5	100078.1	5107.073	-990.376	1	5202.215	-10.97472	-3.141762E-009	0.0156032	7
	11	5	79453.13	5214.863	-874.1183	1	5287.616	-9.51549	-1.854074E-008	0.015562	7
	12	5	63140.62	5304.648	-774.3282	1	5360.865	-8.304904	-2.404168E-009	0.0155875	7
	13	6	50203.12	5375.955	-689.5681	1	5420	-7.309357	-4.459586E-008	0.0156454	7
	14	6	39890.62	5433.589	-623.845	1	5469.284	-6.549605	-2.78233E-009	0.0155114	7
	15	6	31640.63	5482.099	-573.6651	1	5512.033	-5.973879	-1.604057E-009	0.0155895	7
	16	7	25171.88	5523.555	-542.2294	1	5550.106	-5.606576	-5.773372E-009	0.0155924	7
	17	7	20015.62	5558.611	-527.8373	1	5583.616	-5.424456	6.168894E-008	0.0154513	7
	18	7	15890.62	5592.831	-530.6823	1	5617.952	-5.420349	1.921909E-008	0.0154852	7
	19	8	12609.37	5625.924	-552.4736	1	5652.985	-5.608543	-1.016303E-008	0.0155856	7
	20	8	10078.13	5653.835	-590.5497	1	5684.594	-5.962988	-4.404735E-008	0.0156369	7
	21	8	8015.625	5691.093	-651.2801	1	5728.237	-6.528442	-6.231253E-009	0.0155895	7
	22	9	6328.125	5726	-738.0708	1	5773.373	-7.34482	1.912377E-008	0.0154813	7
	23	9	5015.625	5761.895	-852.0135	1	5824.548	-8.411394	-1.840947E-008	0.0155505	7
	24	9	3984.375	5804.532	-997.672	1	5889.646	-9.7526	-2.683248E-008	0.0156502	7
	25	9	3170.956	5850.872	-1181.638	1	5969.001	-11.41783	-9.963003E-009	0.0155849	7
	26	10	2527.573	5901.598	-1408.053	1	6067.246	-13.41924	-9.879512E-009	0.015587	7
	27	10	1976.103	5969.622	-1717.621	1	6211.812	-16.05195	2.951478E-008	0.0155217	7
	28	10	1577.524	6040.67	-2075.328	1	6387.228	-18.96063	1.058933E-007	0.0153947	7
	29	11	1265.625	6128.31	-2499.696	1	6618.509	-22.19021	-4.699379E-008	0.0156193	7
	30	11	998.264	6241.654	-3066.766	1	6954.373	-26.16667	-3.390065E-008	0.0155692	7
	31	11	796.875	6378.076	-3730.971	1	7389.181	-30.32627	-1.740085E-008	0.0155403	7
	32	12	627.7902	6558.289	-4598.699	1	8009.943	-35.03829	5.60005E-008	0.0155272	7
	33	12	505.5147	6764.09	-5561.389	1	8756.823	-39.42681	5.689771E-008	0.0155303	7
	34	12	397.9953	7059.449	-6856.128	1	9840.85	-44.16291	6.218665E-009	0.0155529	7
	35	13	315.5048	7430.355	-8403.949	1	11217.69	-48.51848	1.152345E-009	0.0155543	6
	36	13	252.4038	7892.467	-10214.11	1	12908.1	-52.30666	8.333886E-010	0.0155545	6
	37	13	198.6229	8540.289	-12579.17	1	15204.34	-55.82651	9.300799E-010	0.0155451	6
	38	14	158.3615	9348.146	-15293.8	1	17924.51	-58.56516	9.471345E-010	0.0155462	6
	39	14	125.558	10440.27	-18642.48	1	21366.83	-60.75004	6.83116E-010	0.0155491	6
	40	14	100.4464	11830.02	-22482.3	1	25404.79	-62.24699	3.24962E-010	0.0155507	6
	41	15	79.00281	13812.6	-27424.7	1	30706.71	-63.26765	5.815413E-010	0.0155464	6
	42	15	63.3446	15993.46	-32766.01	1	36460.96	-63.98248	6.79787E-010	0.0155463	6
	43	15	49.86702	19389.86	-39490.74	1	43994.15	-63.84907	6.154097E-010	0.0155429	6
	44	16	39.72458	23595.59	-46908.87	1	52508.98	-63.29719	6.048689E-010	0.0155483	6
	45	16	31.6723	28861.38	-55239.54	1	62324.84	-62.41398	-1.933856E-010	0.0155451	6
	46	16	24.93351	35642.53	-64963.73	1	74099.09	-61.2485	1.596066E-009	0.0155437	6
	47	17	19.86229	43486.1	-75126.17	1	86804.28	-59.93599	3.211301E-009	0.0155528	6
	48	17	15.83615	52873.96	-86553.09	1	101425.3	-58.57988	-8.46872E-010	0.0155442	6
	49	17	12.40079	65170.94	-99000	1	118525.3	-56.6434	-9.336513E-011	0.0155434	5
	50	17	9.93114	77048.29	-111343.9	1	135402.7	-55.31735	-2.594047E-010	0.0155479	5
	51	18	7.944915	89404.01	-124856.9	1	153565.4	-54.39537	-2.345288E-009	0.0155457	5
	52	18	6.317385	104761.9	-139256.2	1	174262.3	-53.04601	6.640172E-010	0.0155344	5
	53	19	5.008013	120584.8	-156311.4	1	197418.2	-52.35197	4.338379E-010	0.0155449	5
	54	20	3.945707	137258.8	-176191.7	1	223346.1	-52.08029	-1.565689E-010	0.0155345	5
	55	21	3.158693	154327	-198592.7	1	251507.3	-52.14911	1.946528E-010	0.0155303	5
	56	22	2.504006	172852.8	-226332.5	1	284788.5	-52.63059	2.389456E-010	0.0155406	5
	57	24	1.998082	192754.7	-258719.4	1	322630	-53.31264	-1.536402E-010	0.015493	5
	58	25	1.584686	214966.8	-299147.9	1	368375.1	-54.29909	-2.472221E-011	0.015498	5
	59	27	1.266892	232196.7	-347071.2	1	417580.7	-56.21679	3.565748E-010	0.015547	5
	60	30	0.999041	268869.7	-403885.4	1	485195.2	-56.34798	4.743403E-010	0.0155689	5
