EXPLAIN
TAG	EISPOT
TITLE	LABEL	Potentiostatic EIS	Test &Identifier
DATE	LABEL	5/26/2020	Date
TIME	LABEL	17:50:46	Time
NOTES	NOTES	1	&Notes...
	
PSTAT	PSTAT	REF600-11020	Potentiostat
VDC	POTEN	0.00000E+000	T	DC &Voltage (V)
FREQINIT	QUANT	1.00000E+006	Initial Fre&q. (Hz)
FREQFINAL	QUANT	1.00000E+000	Final Fre&q. (Hz)
PTSPERDEC	QUANT	1.00000E+001	Points/&decade
VAC	QUANT	2.50000E+001	AC &Voltage (mV rms)
AREA	QUANT	5.00000E-004	&Area (cm^2)
CONDIT	TWOPARAM	F	5.00000E+000	0.00000E+000	Conditionin&g	Time(s)	E(V)
DELAY	TWOPARAM	T	3.00000E+000	0.00000E+000	Init. De&lay	Time(s)	Stab.(mV/s)
SPEED	SELECTOR	0	&Optimize for:
ZGUESS	QUANT	1.00000E+003	E&stimated Z (ohms)
OCVCURVE	TABLE	12
	Pt	T	Vf	Vm	Ach	Over
	#	s	V vs. Ref.	V	V	bits
	0	0.258333	8.86993E-002	8.86993E-002	5.86830E-004	...........
	1	0.516667	8.86989E-002	8.86767E-002	5.84696E-004	...........
	2	0.775	8.86962E-002	8.86567E-002	5.83030E-004	...........
	3	1.03333	8.86890E-002	8.86410E-002	5.80197E-004	...........
	4	1.29167	8.86764E-002	8.86236E-002	5.83430E-004	...........
	5	1.55	8.86604E-002	8.86110E-002	5.80830E-004	...........
	6	1.80833	8.86434E-002	8.85962E-002	5.80463E-004	...........
	7	2.06667	8.86272E-002	8.85851E-002	5.85463E-004	...........
	8	2.325	8.86123E-002	8.85754E-002	5.83630E-004	...........
	9	2.58333	8.85990E-002	8.85662E-002	5.83830E-004	...........
	10	2.84167	8.85872E-002	8.85593E-002	5.83463E-004	...........
	11	3.1	8.85769E-002	8.85494E-002	5.85197E-004	...........
EOC	QUANT	0.0885769	Open Circuit (V)
PSTATMODEL	IQUANT	4	Pstat Model
PSTATSECTION	LABEL	REF600-11020	Pstat Section
PSTATSERIALNO	LABEL	11020	Pstat Serial Number
CTRLMODE	IQUANT	1	Control Mode
IESTAB	IQUANT	0	I/E Stability
CASPEED	IQUANT	1	Control Amp Speed
CONVENTION	IQUANT	1	Current Convention
ICHRANGE	IQUANT	2	Ich Range
ICHRANGEMODE	TOGGLE	F	Ich Auto Range
ICHOFFSETENABLE	TOGGLE	T	Ich Offset Enable
ICHOFFSET	QUANT	0	Ich Offset (V)
ICHFILTER	IQUANT	3	Ich Filter
VCHRANGE	IQUANT	2	Vch Range
VCHRANGEMODE	TOGGLE	F	Vch Auto Range
VCHOFFSETENABLE	TOGGLE	T	Vch Offset Enable
VCHOFFSET	QUANT	0	Vch Offset (V)
VCHFILTER	IQUANT	3	Vch Filter
ACHRANGE	IQUANT	2	Ach Range
ACHOFFSETENABLE	TOGGLE	F	Ach Offset Enable
ACHOFFSET	QUANT	0	Ach Offset (V)
ACHFILTER	IQUANT	3	Ach Filter
IERANGELOWERLIMIT	IQUANT	1	I/E Range Lower Limit
IERANGEMODE	TOGGLE	F	I/E AutoRange
IERANGE	IQUANT	8	I/E Range
POSFEEDENABLE	TOGGLE	F	Positive Feedback IR Comp
POSFEEDRESISTANCE	QUANT	0	Positive Feedback Resistance (ohm)
ACHSELECT	IQUANT	0	Ach Select
CABLEID	IQUANT	14	Cable ID
DCCALDATE	LABEL	2/27/2020	DC Calibration Date
ACCALDATE	LABEL	2/27/2020	AC Calibration Date
THERMOSELECT	IQUANT	1	Thermo Select
FRAMEWORKVERSION	QUANT	6.33	Framework Version
INSTRUMENTVERSION	LABEL	3.50	Instrument Version
ZCURVE	TABLE
	Pt	Time	Freq	Zreal	Zimag	Zsig	Zmod	Zphz	Idc	Vdc	IERange
	#	s	Hz	ohm	ohm	V	ohm	°	A	V	#
	0	1	1000078	2103.946	-2469.798	1	3244.456	-49.57333	4.778732E-008	0.0909927	8
	1	1	794390.6	2582.301	-2689.67	1	3728.619	-46.16673	4.093399E-008	0.0906015	8
	2	2	630984.4	3126.812	-2838.973	1	4223.354	-42.23772	2.555299E-008	0.0904286	8
	3	2	501234.4	3710.278	-2900.604	1	4709.529	-38.01743	1.856278E-008	0.0903406	8
	4	2	398109.4	4296.452	-2873.316	1	5168.699	-33.77321	4.595204E-008	0.0902771	8
	5	3	316265.6	4849.387	-2749.266	1	5574.498	-29.55023	1.817855E-008	0.0902478	8
	6	3	251203.1	5345.619	-2571.359	1	5931.907	-25.68856	4.753298E-008	0.0902138	8
	7	3	199546.9	5771.426	-2339.617	1	6227.613	-22.06662	4.412828E-008	0.090211	8
	8	4	158578.1	6109.546	-2089.983	1	6457.135	-18.88504	5.234438E-008	0.0902096	8
	9	4	125953.1	6446.953	-1769.562	1	6685.399	-15.34857	5.495437E-009	0.0901392	7
	10	4	100078.1	6637.233	-1567.07	1	6819.719	-13.28442	1.940686E-009	0.0901275	7
	11	5	79453.13	6810.42	-1401.803	1	6953.192	-11.63087	1.805681E-009	0.0901215	7
	12	5	63140.62	6950.291	-1262.661	1	7064.054	-10.29664	2.643432E-009	0.0901182	7
	13	5	50203.12	7067.09	-1152.086	1	7160.381	-9.258985	1.811294E-009	0.0901168	7
	14	6	39890.62	7168.055	-1071.1	1	7247.639	-8.498651	2.363086E-009	0.0901196	7
	15	6	31640.63	7261.107	-1018.092	1	7332.134	-7.981507	3.073661E-009	0.0901169	7
	16	6	25171.88	7344.932	-991.683	1	7411.576	-7.689345	3.186648E-009	0.0901238	7
	17	7	20015.62	7427.854	-991.388	1	7493.721	-7.60228	2.615336E-009	0.0901126	7
	18	7	15890.62	7513.042	-1017.443	1	7581.622	-7.712277	3.451043E-009	0.0901195	7
	19	7	12609.37	7599.526	-1068.689	1	7674.301	-8.004774	3.182873E-009	0.0901048	7
	20	7	10078.13	7689.312	-1145.395	1	7774.152	-8.472445	3.480287E-009	0.0901131	7
	21	8	8015.625	7786.269	-1249.585	1	7885.902	-9.117408	2.389674E-009	0.0901045	7
	22	8	6328.125	7897.083	-1391.581	1	8018.755	-9.99376	3.028965E-009	0.0901099	7
	23	8	5015.625	8014.181	-1566.232	1	8165.793	-11.05808	2.742203E-009	0.0901058	7
	24	9	3984.375	8142.264	-1780.41	1	8334.646	-12.33432	2.332939E-009	0.090102	7
	25	9	3170.956	8281.979	-2040.686	1	8529.688	-13.84199	2.266073E-009	0.0901079	7
	26	9	2527.573	8436.26	-2355.93	1	8759.046	-15.60305	3.328702E-009	0.09011	7
	27	10	1976.103	8629.479	-2749.169	1	9056.813	-17.67078	-2.327033E-010	0.0901579	6
	28	10	1577.524	8818.779	-3217.592	1	9387.426	-20.04484	-6.439488E-011	0.0901604	6
	29	10	1265.625	9024.596	-3768.627	1	9779.87	-22.66518	-3.028748E-010	0.0901533	6
	30	11	998.264	9273.599	-4489.762	1	10303.28	-25.83369	-5.096674E-010	0.0901511	6
	31	11	796.875	9538.38	-5326.616	1	10924.9	-29.18076	-1.195657E-010	0.0901568	6
	32	11	627.7902	9868.74	-6408.646	1	11767.02	-32.99924	-4.902484E-011	0.0901523	6
	33	12	505.5147	10201.4	-7602.912	1	12722.92	-36.69647	-3.20223E-010	0.0901565	6
	34	12	397.9953	10640.31	-9214.735	1	14075.78	-40.89325	5.545185E-010	0.090173	6
	35	12	315.5048	11142.64	-11137.09	1	15754.15	-44.98571	5.549362E-010	0.0901731	6
	36	13	252.4038	11716.54	-13389.87	1	17792.3	-48.81309	4.516534E-010	0.0901689	6
	37	13	198.6229	12460.47	-16349.66	1	20556.63	-52.6881	5.44056E-010	0.090165	6
	38	13	158.3615	13318.98	-19773.28	1	23840.67	-56.0364	4.756628E-010	0.0901687	6
	39	13	125.558	14396.37	-24048.68	1	28028.46	-59.0938	5.592486E-010	0.0901697	6
	40	14	100.4464	15672.04	-29041.17	1	33000.04	-61.64652	4.901887E-010	0.0901662	6
	41	14	79.00281	17374.83	-35589.18	1	39603.97	-63.97812	4.542825E-010	0.0901666	6
	42	14	63.3446	19324.26	-42906.61	1	47057.46	-65.75417	4.902743E-010	0.0901652	6
	43	15	49.86702	21958.12	-52530.29	1	56934.96	-67.31464	3.164878E-010	0.0901612	6
	44	15	39.72458	25107.93	-63644.05	1	68417.63	-68.47049	3.969665E-010	0.0901699	6
	45	16	31.6723	29049.24	-77018.23	1	82314.44	-69.33485	2.940429E-010	0.0901655	6
	46	16	24.93351	34389.25	-94163.71	1	100246.8	-69.93745	4.249446E-010	0.0901639	6
	47	16	19.86229	40923.2	-113736	1	120874.3	-70.21083	1.429469E-010	0.0901753	5
	48	16	15.83615	49211.47	-137202.5	1	145761.1	-70.26823	-1.16052E-010	0.0901675	5
	49	17	12.40079	60964.35	-167528	1	178275.9	-70.00328	2.138574E-010	0.0901742	5
	50	17	9.93114	74840.37	-200259.3	1	213787	-69.50842	-2.750028E-010	0.0901722	5
	51	17	7.944915	92404.84	-238592.2	1	255861.1	-68.82902	-1.225827E-010	0.0901722	5
	52	18	6.317385	115554.3	-284110.1	1	306710.5	-67.86726	1.58223E-010	0.0901617	5
	53	19	5.008013	145392.4	-337420.8	1	367412.2	-66.68911	-4.739516E-013	0.0901595	5
	54	19	3.945707	183465	-400073.3	1	440134.2	-65.36484	-1.132028E-010	0.0901659	5
	55	20	3.158693	227108.6	-465040.2	1	517533.3	-63.97081	2.378117E-011	0.0901534	5
	56	21	2.504006	281891.8	-541440.9	1	610427.1	-62.49704	1.857E-010	0.0901596	5
	57	23	1.998082	344136.4	-621969.6	1	710827.7	-61.0442	4.980199E-011	0.0901321	5
	58	24	1.584686	419780.1	-716902.1	1	830761.1	-59.64901	-2.916888E-012	0.0901118	5
	59	26	1.266892	501668.3	-817019.6	1	958745	-58.44914	2.436989E-011	0.0901327	5
	60	29	0.999041	603870.3	-935130.8	1	1113162	-57.14723	-5.605903E-012	0.090165	4
