EXPLAIN
TAG	EISPOT
TITLE	LABEL	Potentiostatic EIS	Test &Identifier
DATE	LABEL	1/7/2020	Date
TIME	LABEL	17:30:10	Time
NOTES	NOTES	5	&Notes...
	
	
	
	
	
PSTAT	PSTAT	REF600-11020	Potentiostat
VDC	POTEN	0.00000E+000	T	DC &Voltage (V)
FREQINIT	QUANT	1.00000E+006	Initial Fre&q. (Hz)
FREQFINAL	QUANT	1.00000E+000	Final Fre&q. (Hz)
PTSPERDEC	QUANT	1.00000E+001	Points/&decade
VAC	QUANT	2.50000E+001	AC &Voltage (mV rms)
AREA	QUANT	1.00000E-001	&Area (cm^2)
CONDIT	TWOPARAM	T	5.00000E+000	0.00000E+000	Conditionin&g	Time(s)	E(V)
DELAY	TWOPARAM	T	5.00000E+000	0.00000E+000	Init. De&lay	Time(s)	Stab.(mV/s)
SPEED	SELECTOR	0	&Optimize for:
ZGUESS	QUANT	1.00000E+003	E&stimated Z (ohms)
OCVCURVE	TABLE	19
	Pt	T	Vf	Vm	Ach	Over
	#	s	V vs. Ref.	V	V	bits
	0	0.258333	3.11403E-003	3.11403E-003	6.48646E-004	...........
	1	0.516667	3.10859E-003	2.82922E-003	6.55246E-004	...........
	2	0.775	3.07526E-003	2.56349E-003	6.57613E-004	...........
	3	1.03333	2.98161E-003	2.32748E-003	6.52446E-004	...........
	4	1.29167	2.81640E-003	2.11407E-003	6.53946E-004	...........
	5	1.55	2.60193E-003	1.91662E-003	6.51480E-004	...........
	6	1.80833	2.37207E-003	1.73250E-003	6.53146E-004	...........
	7	2.06667	2.15008E-003	1.56002E-003	6.50113E-004	...........
	8	2.325	1.94461E-003	1.39830E-003	6.59479E-004	...........
	9	2.58333	1.75583E-003	1.25083E-003	6.57480E-004	...........
	10	2.84167	1.58140E-003	1.10569E-003	6.50146E-004	...........
	11	3.1	1.41912E-003	9.78242E-004	6.47113E-004	...........
	12	3.35833	1.26741E-003	8.47432E-004	6.53146E-004	...........
	13	3.61667	1.12494E-003	7.26939E-004	6.50513E-004	...........
	14	3.875	9.90347E-004	6.11614E-004	6.48713E-004	...........
	15	4.13333	8.62241E-004	4.90740E-004	6.52613E-004	...........
	16	4.39167	7.39242E-004	3.80560E-004	6.50180E-004	...........
	17	4.65	6.19929E-004	2.63759E-004	6.46946E-004	...........
	18	4.90833	5.03225E-004	1.56394E-004	6.52180E-004	...........
EOC	QUANT	0.0005032	Open Circuit (V)
PSTATMODEL	IQUANT	4	Pstat Model
PSTATSECTION	LABEL	REF600-11020	Pstat Section
PSTATSERIALNO	LABEL	11020	Pstat Serial Number
CTRLMODE	IQUANT	1	Control Mode
IESTAB	IQUANT	0	I/E Stability
CASPEED	IQUANT	1	Control Amp Speed
CONVENTION	IQUANT	1	Current Convention
ICHRANGE	IQUANT	2	Ich Range
ICHRANGEMODE	TOGGLE	F	Ich Auto Range
ICHOFFSETENABLE	TOGGLE	T	Ich Offset Enable
ICHOFFSET	QUANT	0	Ich Offset (V)
ICHFILTER	IQUANT	3	Ich Filter
VCHRANGE	IQUANT	2	Vch Range
VCHRANGEMODE	TOGGLE	F	Vch Auto Range
VCHOFFSETENABLE	TOGGLE	T	Vch Offset Enable
VCHOFFSET	QUANT	0	Vch Offset (V)
VCHFILTER	IQUANT	3	Vch Filter
ACHRANGE	IQUANT	2	Ach Range
ACHOFFSETENABLE	TOGGLE	F	Ach Offset Enable
ACHOFFSET	QUANT	0	Ach Offset (V)
ACHFILTER	IQUANT	3	Ach Filter
IERANGELOWERLIMIT	IQUANT	1	I/E Range Lower Limit
IERANGEMODE	TOGGLE	F	I/E AutoRange
IERANGE	IQUANT	5	I/E Range
POSFEEDENABLE	TOGGLE	F	Positive Feedback IR Comp
POSFEEDRESISTANCE	QUANT	0	Positive Feedback Resistance (ohm)
ACHSELECT	IQUANT	0	Ach Select
CABLEID	IQUANT	14	Cable ID
DCCALDATE	LABEL	12/22/2019	DC Calibration Date
ACCALDATE	LABEL	12/22/2019	AC Calibration Date
THERMOSELECT	IQUANT	1	Thermo Select
FRAMEWORKVERSION	QUANT	6.33	Framework Version
INSTRUMENTVERSION	LABEL	3.50	Instrument Version
ZCURVE	TABLE
	Pt	Time	Freq	Zreal	Zimag	Zsig	Zmod	Zphz	Idc	Vdc	IERange
	#	s	Hz	ohm	ohm	V	ohm	°	A	V	#
	0	1	1000078	2218.313	-1558.515	1	2711.066	-35.09064	-7.13792E-006	0.002986	8
	1	1	794390.6	2498.856	-1566.458	1	2949.249	-32.08237	5.680828E-006	0.0016951	8
	2	1	630984.4	2792.323	-1515.608	1	3177.127	-28.49208	-4.458367E-006	0.0031224	8
	3	2	501234.4	3054.799	-1451.635	1	3382.165	-25.41698	-8.521321E-006	0.0042721	8
	4	2	398109.4	3276.654	-1354.951	1	3545.752	-22.46591	-2.137365E-006	0.0028786	8
	5	2	316265.6	3514.44	-1279.432	1	3740.084	-20.00403	-2.067388E-006	0.002446	8
	6	3	251203.1	3712.143	-1160.348	1	3889.269	-17.35828	2.739183E-006	0.0016491	8
	7	3	199546.9	3809.098	-1048.058	1	3950.652	-15.38403	-2.736035E-006	0.0027851	8
	8	3	158578.1	3962.058	-957.501	1	4076.115	-13.58604	-2.636287E-006	0.0027846	8
	9	4	125953.1	4105.658	-800.9716	1	4183.059	-11.03916	-1.041536E-007	0.0011654	7
	10	4	100078.1	4177.235	-760.0569	1	4245.819	-10.31228	-3.477765E-009	0.0019744	7
	11	4	79453.13	4262.447	-728.3058	1	4324.221	-9.69624	2.347438E-007	0.0017474	7
	12	5	63140.62	4341.355	-708.0735	1	4398.72	-9.263356	-9.067088E-008	0.0021647	7
	13	5	50203.12	4418.131	-698.7839	1	4473.051	-8.98761	-5.100455E-008	0.0022598	7
	14	5	39890.62	4493.864	-700.5693	1	4548.144	-8.860782	-1.848453E-008	0.0021512	7
	15	6	31640.63	4573.201	-715.933	1	4628.901	-8.897418	-5.156089E-008	0.0020919	7
	16	6	25171.88	4651.289	-739.365	1	4709.687	-9.03212	-1.050479E-007	0.0022122	7
	17	6	20015.62	4729.73	-775.3765	1	4792.865	-9.310068	-1.922366E-008	0.0021521	7
	18	6	15890.62	4821.763	-826.0609	1	4892.012	-9.72149	-1.078857E-007	0.0022781	7
	19	7	12609.37	4911.937	-881.6287	1	4990.43	-10.1755	-8.073201E-008	0.0021294	7
	20	7	10078.13	5007.097	-955.961	1	5097.537	-10.8089	-4.132199E-008	0.0020577	7
	21	7	8015.625	5111.709	-1043.214	1	5217.075	-11.53471	1.464067E-007	0.0018091	7
	22	8	6328.125	5218.656	-1149.401	1	5343.734	-12.42099	1.436392E-007	0.00179	7
	23	8	5015.625	5329.663	-1279.369	1	5481.066	-13.49827	4.896378E-008	0.0020384	7
	24	8	3984.375	5445.521	-1431.627	1	5630.565	-14.72973	-7.925681E-008	0.0021317	7
	25	9	3170.956	5567.417	-1622.176	1	5798.93	-16.24452	-5.240629E-008	0.0020907	7
	26	9	2527.573	5695.458	-1850.012	1	5988.388	-17.99495	-1.035804E-007	0.0022086	7
	27	9	1976.103	5832.422	-2157.233	1	6218.585	-20.29788	-1.052855E-007	0.002279	7
	28	10	1577.524	5975.464	-2462.719	1	6463.061	-22.39844	-4.061058E-008	0.002058	7
	29	10	1265.625	6127.772	-2920.481	1	6788.137	-25.48235	1.083601E-007	0.0020692	7
	30	10	998.264	6305.279	-3472.155	1	7198.083	-28.84045	-3.189258E-008	0.0023099	7
	31	11	796.875	6498.209	-4117.925	1	7693.116	-32.3625	-4.022709E-008	0.0020509	7
	32	11	627.7902	6732.038	-4964.223	1	8364.439	-36.40517	-1.020372E-007	0.0022062	7
	33	11	505.5147	6974.594	-5890.144	1	9129.007	-40.18157	-3.336381E-008	0.0023053	7
	34	12	397.9953	7284.146	-7159.273	1	10213.42	-44.50465	4.027006E-010	0.0020826	6
	35	12	315.5048	7640.081	-8684.304	1	11566.67	-48.66005	8.018192E-010	0.0020825	6
	36	12	252.4038	8050.814	-10484.86	1	13219.23	-52.4811	1.438545E-009	0.0020787	6
	37	13	198.6229	8590.312	-12861.34	1	15466.33	-56.26035	1.005482E-009	0.0020776	6
	38	13	158.3615	9226.377	-15624.24	1	18145.05	-59.43744	1.21347E-009	0.0020671	6
	39	13	125.558	10036.09	-19085.57	1	21563.44	-62.2625	1.04948E-009	0.0020703	6
	40	13	100.4464	11025.75	-23127.37	1	25621.13	-64.51098	-1.659861E-011	0.0020703	6
	41	14	79.00281	12402.47	-28491.18	1	31073.6	-66.47606	3.388041E-010	0.0020636	6
	42	14	63.3446	13691.77	-34365.04	1	36992.17	-68.2766	7.607349E-010	0.0020618	6
	43	15	49.86702	15937.1	-42172.31	1	45083.2	-69.2982	1.206109E-009	0.0020589	6
	44	15	39.72458	18789.54	-51321.04	1	54652.5	-69.89143	1.36454E-009	0.0020653	6
	45	15	31.6723	22263.8	-62244.46	1	66106.35	-70.31872	1.224649E-009	0.0020637	6
	46	16	24.93351	27196.48	-75952.99	1	80675.3	-70.29909	8.801924E-010	0.0020599	6
	47	16	19.86229	33134.54	-91500.88	1	97315.5	-70.09353	1.974972E-009	0.002066	6
	48	16	15.83615	40301.39	-110158.3	1	117299	-69.90496	1.76011E-011	0.0020637	5
	49	16	12.40079	51790.03	-133433.1	1	143131.4	-68.78703	-7.84219E-011	0.0020594	5
	50	17	9.93114	64734.11	-157740.8	1	170507	-67.68759	7.744231E-010	0.0020595	5
	51	17	7.944915	80846.24	-185939	1	202754.6	-66.5006	1.392288E-010	0.0020625	5
	52	18	6.317385	101345.5	-218311.3	1	240688	-65.09811	1.730864E-010	0.0020608	5
	53	19	5.008013	126616.4	-255313.6	1	284985.5	-63.62204	3.830491E-010	0.0020679	5
	54	20	3.945707	157613.8	-296238.3	1	335558.1	-61.98476	2.348258E-010	0.0020466	5
	55	21	3.158693	191446.8	-339596.8	1	389843.4	-60.58799	3.49091E-010	0.0020449	5
	56	23	2.504006	231120.6	-389395.7	1	452819.8	-59.30931	4.081394E-010	0.0020514	5
	57	24	1.998082	274523.6	-442349.9	1	520611.8	-58.17615	1.314707E-010	0.0020065	5
	58	26	1.584686	322084.1	-505029.5	1	598993.3	-57.47218	1.705848E-010	0.0020181	5
	59	28	1.266892	373121.9	-573138.9	1	683891.9	-56.93527	2.27961E-010	0.0020561	5
	60	30	0.999041	435184	-657720.4	1	788657.9	-56.50919	2.544469E-010	0.0020804	5
