EXPLAIN
TAG	EISPOT
TITLE	LABEL	Potentiostatic EIS	Test &Identifier
DATE	LABEL	9/11/2020	Date
TIME	LABEL	20:34:59	Time
NOTES	NOTES	1	&Notes...
	
PSTAT	PSTAT	REF600-11020	Potentiostat
VDC	POTEN	0.00000E+000	T	DC &Voltage (V)
FREQINIT	QUANT	1.00000E+006	Initial Fre&q. (Hz)
FREQFINAL	QUANT	1.00000E+000	Final Fre&q. (Hz)
PTSPERDEC	QUANT	1.00000E+001	Points/&decade
VAC	QUANT	2.50000E+001	AC &Voltage (mV rms)
AREA	QUANT	4.00000E-005	&Area (cm^2)
CONDIT	TWOPARAM	F	5.00000E+000	0.00000E+000	Conditionin&g	Time(s)	E(V)
DELAY	TWOPARAM	F	3.00000E+000	0.00000E+000	Init. De&lay	Time(s)	Stab.(mV/s)
SPEED	SELECTOR	0	&Optimize for:
ZGUESS	QUANT	1.00000E+003	E&stimated Z (ohms)
OCVCURVE	TABLE	39
	Pt	T	Vf	Vm	Ach	Over
	#	s	V vs. Ref.	V	V	bits
	0	0.258333	-1.27838E-001	-1.27838E-001	5.54525E-004	...........
	1	0.516667	-1.27837E-001	-1.27826E-001	5.58692E-004	...........
	2	0.775	-1.27836E-001	-1.27816E-001	5.55392E-004	...........
	3	1.03333	-1.27832E-001	-1.27806E-001	5.56759E-004	...........
	4	1.29167	-1.27826E-001	-1.27798E-001	5.55592E-004	...........
	5	1.55	-1.27817E-001	-1.27787E-001	5.53992E-004	...........
	6	1.80833	-1.27808E-001	-1.27779E-001	5.54725E-004	...........
	7	2.06667	-1.27798E-001	-1.27774E-001	5.55792E-004	...........
	8	2.325	-1.27789E-001	-1.27765E-001	5.53759E-004	...........
	9	2.58333	-1.27781E-001	-1.27759E-001	5.54159E-004	...........
	10	2.84167	-1.27773E-001	-1.27754E-001	5.52225E-004	...........
	11	3.1	-1.27767E-001	-1.27751E-001	5.52192E-004	...........
	12	3.35833	-1.27761E-001	-1.27747E-001	5.56292E-004	...........
	13	3.61667	-1.27755E-001	-1.27739E-001	5.52459E-004	...........
	14	3.875	-1.27751E-001	-1.27736E-001	5.56192E-004	...........
	15	4.13333	-1.27746E-001	-1.27731E-001	5.54559E-004	...........
	16	4.39167	-1.27741E-001	-1.27727E-001	5.51692E-004	...........
	17	4.65	-1.27736E-001	-1.27722E-001	5.55959E-004	...........
	18	4.90833	-1.27732E-001	-1.27719E-001	5.47525E-004	...........
	19	5.16667	-1.27727E-001	-1.27715E-001	5.46892E-004	...........
	20	5.425	-1.27723E-001	-1.27711E-001	5.50992E-004	...........
	21	5.68333	-1.27719E-001	-1.27707E-001	5.51225E-004	...........
	22	5.94167	-1.27715E-001	-1.27703E-001	5.49825E-004	...........
	23	6.2	-1.27711E-001	-1.27698E-001	5.53925E-004	...........
	24	6.45833	-1.27707E-001	-1.27697E-001	5.57992E-004	...........
	25	6.71667	-1.27703E-001	-1.27695E-001	5.50092E-004	...........
	26	6.975	-1.27700E-001	-1.27694E-001	5.49825E-004	...........
	27	7.23333	-1.27697E-001	-1.27689E-001	5.57325E-004	...........
	28	7.49167	-1.27695E-001	-1.27687E-001	5.57725E-004	...........
	29	7.75	-1.27693E-001	-1.27685E-001	5.58025E-004	...........
	30	8.00833	-1.27690E-001	-1.27682E-001	5.48859E-004	...........
	31	8.26667	-1.27688E-001	-1.27679E-001	5.53225E-004	...........
	32	8.525	-1.27685E-001	-1.27676E-001	5.51159E-004	...........
	33	8.78333	-1.27682E-001	-1.27672E-001	5.55159E-004	...........
	34	9.04167	-1.27679E-001	-1.27668E-001	5.56325E-004	...........
	35	9.3	-1.27676E-001	-1.27664E-001	5.55159E-004	...........
	36	9.5583	-1.27672E-001	-1.27663E-001	5.60425E-004	...........
	37	9.8167	-1.27669E-001	-1.27662E-001	5.59392E-004	...........
	38	10.075	-1.27666E-001	-1.27662E-001	5.58259E-004	...........
EOC	QUANT	-0.1276659	Open Circuit (V)
PSTATMODEL	IQUANT	4	Pstat Model
PSTATSECTION	LABEL	REF600-11020	Pstat Section
PSTATSERIALNO	LABEL	11020	Pstat Serial Number
CTRLMODE	IQUANT	1	Control Mode
IESTAB	IQUANT	0	I/E Stability
CASPEED	IQUANT	1	Control Amp Speed
CONVENTION	IQUANT	1	Current Convention
ICHRANGE	IQUANT	2	Ich Range
ICHRANGEMODE	TOGGLE	F	Ich Auto Range
ICHOFFSETENABLE	TOGGLE	T	Ich Offset Enable
ICHOFFSET	QUANT	0	Ich Offset (V)
ICHFILTER	IQUANT	3	Ich Filter
VCHRANGE	IQUANT	2	Vch Range
VCHRANGEMODE	TOGGLE	F	Vch Auto Range
VCHOFFSETENABLE	TOGGLE	T	Vch Offset Enable
VCHOFFSET	QUANT	0	Vch Offset (V)
VCHFILTER	IQUANT	3	Vch Filter
ACHRANGE	IQUANT	2	Ach Range
ACHOFFSETENABLE	TOGGLE	F	Ach Offset Enable
ACHOFFSET	QUANT	0	Ach Offset (V)
ACHFILTER	IQUANT	3	Ach Filter
IERANGELOWERLIMIT	IQUANT	1	I/E Range Lower Limit
IERANGEMODE	TOGGLE	F	I/E AutoRange
IERANGE	IQUANT	8	I/E Range
POSFEEDENABLE	TOGGLE	F	Positive Feedback IR Comp
POSFEEDRESISTANCE	QUANT	0	Positive Feedback Resistance (ohm)
ACHSELECT	IQUANT	0	Ach Select
CABLEID	IQUANT	14	Cable ID
DCCALDATE	LABEL	9/1/2020	DC Calibration Date
ACCALDATE	LABEL	9/1/2020	AC Calibration Date
THERMOSELECT	IQUANT	1	Thermo Select
FRAMEWORKVERSION	QUANT	6.33	Framework Version
INSTRUMENTVERSION	LABEL	3.50	Instrument Version
ZCURVE	TABLE
	Pt	Time	Freq	Zreal	Zimag	Zsig	Zmod	Zphz	Idc	Vdc	IERange
	#	s	Hz	ohm	ohm	V	ohm	°	A	V	#
	0	1	1000078	1909.359	-1676.065	1	2540.638	-41.27716	7.464651E-008	-0.1257197	8
	1	2	794390.6	2204.71	-1733.239	1	2804.437	-38.17276	6.761946E-008	-0.1260274	8
	2	2	630984.4	2492.211	-1764.048	1	3053.356	-35.29179	8.433224E-008	-0.1261272	8
	3	2	501234.4	2766.934	-1780.452	1	3290.278	-32.76026	6.911775E-008	-0.1262013	8
	4	3	398109.4	3021.389	-1793.984	1	3513.854	-30.7002	7.415277E-008	-0.1262724	8
	5	3	316265.6	3252.795	-1816.653	1	3725.708	-29.18291	8.058334E-008	-0.1262686	8
	6	3	251203.1	3480.236	-1857.399	1	3944.866	-28.0888	8.16748E-008	-0.1262916	8
	7	3	199546.9	3689.294	-1923.869	1	4160.789	-27.54084	2.449521E-008	-0.1262616	8
	8	4	158578.1	3908.987	-2026.342	1	4402.98	-27.40133	5.326761E-008	-0.126297	8
	9	4	125953.1	4159.422	-2144.183	1	4679.564	-27.27112	5.415762E-009	-0.1262798	7
	10	4	100078.1	4392.266	-2320.015	1	4967.34	-27.84321	2.243278E-009	-0.1262952	7
	11	5	79453.13	4644.22	-2551.645	1	5299.026	-28.78544	1.986984E-009	-0.1263027	7
	12	5	63140.62	4925.457	-2830.22	1	5680.692	-29.88213	4.210718E-009	-0.1263035	7
	13	5	50203.12	5238.22	-3157.48	1	6116.259	-31.08061	4.318554E-009	-0.1263027	7
	14	6	39890.62	5594.233	-3542.383	1	6621.475	-32.34283	5.42047E-009	-0.1263018	7
	15	6	31640.63	6005.798	-3993.229	1	7212.177	-33.61976	4.787403E-009	-0.1263058	7
	16	6	25171.88	6471.533	-4499.974	1	7882.29	-34.81278	3.397361E-009	-0.1263073	7
	17	7	20015.62	7014.393	-5084.129	1	8663.145	-35.93512	4.120904E-009	-0.1263052	7
	18	7	15890.62	7652.135	-5733.65	1	9561.9	-36.84377	3.33346E-009	-0.126307	7
	19	7	12609.37	8476.353	-6425.764	1	10636.68	-37.16508	1.768659E-009	-0.1263049	6
	20	8	10078.13	9285.968	-7188.823	1	11743.44	-37.74559	1.80444E-009	-0.1263048	6
	21	8	8015.625	10224.38	-8040.289	1	13007.08	-38.18093	1.200938E-009	-0.1263103	6
	22	8	6328.125	11313.07	-8989.854	1	14450.01	-38.47218	1.277195E-009	-0.1263138	6
	23	9	5015.625	12505.64	-10006.27	1	16016.13	-38.6647	1.524884E-009	-0.126314	6
	24	9	3984.375	13803.39	-11093.09	1	17708.48	-38.78709	1.146078E-009	-0.1263136	6
	25	9	3170.956	15223.1	-12284.39	1	19561.42	-38.90206	1.065763E-009	-0.126315	6
	26	9	2527.573	16759.38	-13587.51	1	21575.38	-39.0331	1.029501E-009	-0.1263223	6
	27	10	1976.103	18591.87	-15159.96	1	23989.21	-39.19408	9.132369E-010	-0.1263279	6
	28	10	1577.524	20432	-16762.76	1	26428.33	-39.36604	1.20937E-009	-0.1263228	6
	29	10	1265.625	22410.51	-18522.02	1	29073.98	-39.57333	1.422212E-009	-0.1263276	6
	30	11	998.264	24729.23	-20618.44	1	32197.13	-39.82026	1.154972E-009	-0.1263276	6
	31	11	796.875	27147.19	-22871.6	1	35497.61	-40.11425	1.304699E-009	-0.1263276	6
	32	11	627.7902	29851.69	-25567.44	1	39304.16	-40.57946	1.209839E-009	-0.1263201	6
	33	12	505.5147	32556.92	-28385.33	1	43193.52	-41.08413	9.987187E-010	-0.1263272	6
	34	12	397.9953	35722.44	-32010.72	1	47966.44	-41.86338	9.900076E-010	-0.1263134	6
	35	12	315.5048	39113.07	-36205.23	1	53297.76	-42.78906	8.642222E-010	-0.1263153	6
	36	13	252.4038	42773.9	-40960.5	1	59223.04	-43.75937	8.141716E-010	-0.1263168	6
	37	13	198.6229	47278.12	-47139.68	1	66763.54	-44.91599	1.050313E-009	-0.1263146	6
	38	13	158.3615	52364.2	-54106.52	1	75296.25	-45.93752	8.372273E-010	-0.126321	6
	39	14	125.558	58690.02	-62362.62	1	85636.52	-46.73775	9.276273E-010	-0.1263205	6
	40	14	100.4464	66180.05	-71441.62	1	97384.3	-47.18947	7.929823E-010	-0.1263178	6
	41	14	79.00281	76209.32	-81962.72	1	111918.5	-47.08318	4.994071E-010	-0.1263286	5
	42	15	63.3446	87333.37	-92684.65	1	127348.2	-46.70269	5.509385E-010	-0.1263332	5
	43	15	49.86702	101614.2	-104465.1	1	145734	-45.79258	3.302543E-010	-0.1263321	5
	44	15	39.72458	117185.2	-115457.1	1	164507.5	-44.5744	8.519342E-010	-0.1263274	5
	45	16	31.6723	134574.8	-126586.3	1	184755.2	-43.24798	7.963489E-010	-0.1263285	5
	46	16	24.93351	154044.1	-137261.7	1	206325.8	-41.70279	-1.744914E-010	-0.126331	5
	47	16	19.86229	173882.3	-147979.2	1	228326.2	-40.39881	-1.550112E-011	-0.1263306	5
	48	17	15.83615	194113.9	-158853.8	1	250828.1	-39.29529	-6.565901E-011	-0.1263338	5
	49	17	12.40079	217688.2	-172100	1	277500.6	-38.3292	-1.212759E-009	-0.126329	5
	50	17	9.93114	238570.2	-185317	1	302089.6	-37.83942	-8.125615E-010	-0.1263389	5
	51	18	7.944915	260557.6	-198752.9	1	327708.7	-37.33633	1.195873E-009	-0.1263361	5
	52	18	6.317385	287499.7	-217676.1	1	360609.1	-37.13064	-2.819619E-010	-0.1263224	5
	53	19	5.008013	315528.7	-238337.6	1	395427.8	-37.06593	-5.675265E-010	-0.126337	5
	54	20	3.945707	345701.1	-260107	1	432625.5	-36.95796	3.408908E-011	-0.1263263	5
	55	21	3.158693	377115.9	-285125.6	1	472771.7	-37.09179	-3.867926E-010	-0.1263428	5
	56	22	2.504006	411383.4	-312085.3	1	516365.7	-37.18482	4.113901E-011	-0.1263402	5
	57	23	1.998082	449635	-343332.1	1	565728.3	-37.36462	3.220596E-010	-0.126307	5
	59	29	1.266892	535481.1	-418061.8	1	679349.4	-37.97994	5.449665E-010	-0.1263086	5
	60	31	0.999041	581815.6	-465642.3	1	745206.1	-38.67121	2.975374E-010	-0.126335	5
