EXPLAIN
TAG	EISPOT
TITLE	LABEL	Potentiostatic EIS	Test &Identifier
DATE	LABEL	2/6/2020	Date
TIME	LABEL	17:09:38	Time
NOTES	NOTES	6	&Notes...
	
	
	
	
	
	
PSTAT	PSTAT	REF600-11020	Potentiostat
VDC	POTEN	0.00000E+000	T	DC &Voltage (V)
FREQINIT	QUANT	1.00000E+006	Initial Fre&q. (Hz)
FREQFINAL	QUANT	1.00000E+000	Final Fre&q. (Hz)
PTSPERDEC	QUANT	1.00000E+001	Points/&decade
VAC	QUANT	2.50000E+001	AC &Voltage (mV rms)
AREA	QUANT	1.60000E-004	&Area (cm^2)
CONDIT	TWOPARAM	F	5.00000E+000	0.00000E+000	Conditionin&g	Time(s)	E(V)
DELAY	TWOPARAM	F	5.00000E+000	0.00000E+000	Init. De&lay	Time(s)	Stab.(mV/s)
SPEED	SELECTOR	0	&Optimize for:
ZGUESS	QUANT	1.00000E+003	E&stimated Z (ohms)
OCVCURVE	TABLE	39
	Pt	T	Vf	Vm	Ach	Over
	#	s	V vs. Ref.	V	V	bits
	0	0.258333	-1.47219E-001	-1.47219E-001	5.69004E-004	...........
	1	0.516667	-1.47216E-001	-1.47073E-001	5.68604E-004	...........
	2	0.775	-1.47203E-001	-1.47128E-001	5.73337E-004	...........
	3	1.03333	-1.47177E-001	-1.47189E-001	5.72738E-004	...........
	4	1.29167	-1.47155E-001	-1.47200E-001	5.70071E-004	...........
	5	1.55	-1.47154E-001	-1.47281E-001	5.68838E-004	...........
	6	1.80833	-1.47172E-001	-1.47106E-001	5.71671E-004	...........
	7	2.06667	-1.47191E-001	-1.47150E-001	5.68804E-004	...........
	8	2.325	-1.47190E-001	-1.47157E-001	5.72238E-004	...........
	9	2.58333	-1.47175E-001	-1.47149E-001	5.74337E-004	...........
	10	2.84167	-1.47161E-001	-1.47159E-001	5.69904E-004	...........
	11	3.1	-1.47153E-001	-1.47147E-001	5.69404E-004	...........
	12	3.35833	-1.47151E-001	-1.47137E-001	5.73504E-004	...........
	13	3.61667	-1.47150E-001	-1.47175E-001	5.69904E-004	...........
	14	3.875	-1.47151E-001	-1.47205E-001	5.69538E-004	...........
	15	4.13333	-1.47159E-001	-1.47239E-001	5.72371E-004	...........
	16	4.39167	-1.47178E-001	-1.47315E-001	5.69738E-004	...........
	17	4.65	-1.47210E-001	-1.47383E-001	5.74304E-004	...........
	18	4.90833	-1.47254E-001	-1.47407E-001	5.70238E-004	...........
	19	5.16667	-1.47306E-001	-1.47453E-001	5.72938E-004	...........
	20	5.425	-1.47360E-001	-1.47562E-001	5.72204E-004	...........
	21	5.68333	-1.47414E-001	-1.47620E-001	5.71138E-004	...........
	22	5.94167	-1.47474E-001	-1.47653E-001	5.65938E-004	...........
	23	6.2	-1.47538E-001	-1.47678E-001	5.70171E-004	...........
	24	6.45833	-1.47595E-001	-1.47703E-001	5.69571E-004	...........
	25	6.71667	-1.47640E-001	-1.47734E-001	5.64338E-004	...........
	26	6.975	-1.47675E-001	-1.47749E-001	5.76204E-004	...........
	27	7.23333	-1.47703E-001	-1.47805E-001	5.71004E-004	...........
	28	7.49167	-1.47731E-001	-1.47824E-001	5.69804E-004	...........
	29	7.75	-1.47760E-001	-1.47836E-001	5.68871E-004	...........
	30	8.00833	-1.47789E-001	-1.47849E-001	5.64271E-004	...........
	31	8.26667	-1.47814E-001	-1.47841E-001	5.62038E-004	...........
	32	8.525	-1.47831E-001	-1.47853E-001	5.70071E-004	...........
	33	8.78333	-1.47841E-001	-1.47864E-001	5.66371E-004	...........
	34	9.04167	-1.47848E-001	-1.47868E-001	5.72338E-004	...........
	35	9.3	-1.47854E-001	-1.47872E-001	5.73071E-004	...........
	36	9.5583	-1.47861E-001	-1.47915E-001	5.68104E-004	...........
	37	9.8167	-1.47872E-001	-1.47941E-001	5.68804E-004	...........
	38	10.075	-1.47887E-001	-1.47937E-001	5.73671E-004	...........
EOC	QUANT	-0.1478873	Open Circuit (V)
PSTATMODEL	IQUANT	4	Pstat Model
PSTATSECTION	LABEL	REF600-11020	Pstat Section
PSTATSERIALNO	LABEL	11020	Pstat Serial Number
CTRLMODE	IQUANT	1	Control Mode
IESTAB	IQUANT	0	I/E Stability
CASPEED	IQUANT	1	Control Amp Speed
CONVENTION	IQUANT	1	Current Convention
ICHRANGE	IQUANT	2	Ich Range
ICHRANGEMODE	TOGGLE	F	Ich Auto Range
ICHOFFSETENABLE	TOGGLE	T	Ich Offset Enable
ICHOFFSET	QUANT	0	Ich Offset (V)
ICHFILTER	IQUANT	3	Ich Filter
VCHRANGE	IQUANT	2	Vch Range
VCHRANGEMODE	TOGGLE	F	Vch Auto Range
VCHOFFSETENABLE	TOGGLE	T	Vch Offset Enable
VCHOFFSET	QUANT	0	Vch Offset (V)
VCHFILTER	IQUANT	3	Vch Filter
ACHRANGE	IQUANT	2	Ach Range
ACHOFFSETENABLE	TOGGLE	F	Ach Offset Enable
ACHOFFSET	QUANT	0	Ach Offset (V)
ACHFILTER	IQUANT	3	Ach Filter
IERANGELOWERLIMIT	IQUANT	1	I/E Range Lower Limit
IERANGEMODE	TOGGLE	F	I/E AutoRange
IERANGE	IQUANT	8	I/E Range
POSFEEDENABLE	TOGGLE	F	Positive Feedback IR Comp
POSFEEDRESISTANCE	QUANT	0	Positive Feedback Resistance (ohm)
ACHSELECT	IQUANT	0	Ach Select
CABLEID	IQUANT	14	Cable ID
DCCALDATE	LABEL	1/27/2020	DC Calibration Date
ACCALDATE	LABEL	1/27/2020	AC Calibration Date
THERMOSELECT	IQUANT	1	Thermo Select
FRAMEWORKVERSION	QUANT	6.33	Framework Version
INSTRUMENTVERSION	LABEL	3.50	Instrument Version
ZCURVE	TABLE
	Pt	Time	Freq	Zreal	Zimag	Zsig	Zmod	Zphz	Idc	Vdc	IERange
	#	s	Hz	ohm	ohm	V	ohm	°	A	V	#
	0	1	1000078	1786.31	-2063.414	1	2729.208	-49.11705	1.553106E-006	-0.1459173	8
	1	1	794390.6	2037.664	-2295.31	1	3069.287	-48.4029	-9.883316E-007	-0.1461309	8
	2	2	630984.4	2329.755	-2593.325	1	3486.128	-48.06455	4.503611E-007	-0.1461641	8
	3	2	501234.4	2640.05	-2917.005	1	3934.308	-47.85318	1.232762E-007	-0.1463039	8
	4	2	398109.4	3003.661	-3280.815	1	4448.115	-47.52518	-9.763398E-007	-0.1461865	8
	5	3	316265.6	3415.65	-3725.718	1	5054.467	-47.48614	4.726327E-007	-0.1463727	8
	6	3	251203.1	3925.299	-4193.694	1	5744.131	-46.89338	-2.125786E-006	-0.1459908	8
	7	3	199546.9	4505.564	-4711.751	1	6519.256	-46.28147	-1.388708E-006	-0.1460335	8
	8	4	158578.1	5200.874	-5248.623	1	7388.987	-45.26181	-1.226603E-007	-0.1464297	8
	9	4	125953.1	6093.757	-5745.131	1	8374.986	-43.31327	8.027512E-007	-0.1481428	7
	10	4	100078.1	7008.66	-6263.04	1	9399.308	-41.78444	9.678889E-009	-0.1464283	7
	11	5	79453.13	8024.953	-6772.063	1	10500.51	-40.16021	4.295203E-008	-0.1465062	7
	12	5	63140.62	9115.537	-7219.724	1	11628.3	-38.38007	-1.15715E-008	-0.1464724	7
	13	5	50203.12	10264.74	-7644.309	1	12798.45	-36.67562	1.852823E-009	-0.1464505	7
	14	6	39890.62	11457.77	-8010.647	1	13980.38	-34.95914	-1.453237E-008	-0.1464165	7
	15	6	31640.63	12711.66	-8355.481	1	15211.85	-33.31726	5.383365E-008	-0.1465408	7
	16	6	25171.88	13944.29	-8682.263	1	16426.35	-31.90801	-1.851105E-008	-0.1463891	7
	17	7	20015.62	15177.51	-8986.782	1	17638.57	-30.63028	-1.096049E-008	-0.1464821	7
	18	7	15890.62	16433.15	-9338.079	1	18901.01	-29.60725	9.27079E-010	-0.146488	7
	19	7	12609.37	17812.12	-9596	1	20232.52	-28.31285	8.998175E-009	-0.1465165	6
	20	7	10078.13	19024.33	-10061.43	1	21521.1	-27.8731	5.153762E-010	-0.1464859	6
	21	8	8015.625	20262.68	-10644.06	1	22888.26	-27.71312	-2.608773E-009	-0.1463619	6
	22	8	6328.125	21579.42	-11374.35	1	24393.59	-27.79336	2.830043E-009	-0.1465923	6
	23	8	5015.625	22938.71	-12278.83	1	26018.34	-28.15964	2.369672E-009	-0.1463884	6
	24	9	3984.375	24386.33	-13358.46	1	27805.42	-28.71325	-4.334931E-009	-0.1463944	6
	25	9	3170.956	25956.3	-14629.01	1	29794.92	-29.40568	3.162119E-009	-0.1465959	6
	26	9	2527.573	27691.21	-16104.61	1	32033.75	-30.18136	1.39611E-009	-0.146424	6
	27	10	1976.103	29792.43	-17905.28	1	34759	-31.00591	-4.402125E-009	-0.1464015	6
	28	10	1577.524	31964.42	-19711.14	1	37553.34	-31.66042	-3.969103E-009	-0.1464011	6
	29	10	1265.625	34227.3	-21799.42	1	40579.83	-32.49313	-3.944099E-009	-0.1464312	6
	30	11	998.264	36830.99	-24188.88	1	44063.86	-33.29504	2.458831E-009	-0.1465659	6
	31	11	796.875	39443.28	-26822.68	1	47699.36	-34.21694	2.370454E-009	-0.1464004	6
	32	11	627.7902	42265.49	-30084.69	1	51879.29	-35.44337	-2.674982E-009	-0.1464676	6
	33	12	505.5147	45044.95	-33651.63	1	56227.04	-36.76222	-2.732383E-009	-0.1464609	6
	34	12	397.9953	48296.11	-38526.02	1	61780	-38.57952	1.34194E-009	-0.1464595	6
	35	12	315.5048	51972.62	-44329.61	1	68310.08	-40.46224	7.434164E-010	-0.1464617	6
	36	13	252.4038	56107.88	-51065.11	1	75866.59	-42.30607	6.749112E-010	-0.1464661	6
	37	13	198.6229	61517.86	-59582.99	1	85642.16	-44.08464	1.184057E-009	-0.1464664	6
	38	13	158.3615	67684.78	-68962.83	1	96628.7	-45.53587	1.40331E-009	-0.1464703	6
	39	14	125.558	75446.23	-79758.05	1	109788.3	-46.59136	1.770083E-010	-0.1464657	5
	40	14	100.4464	83756.76	-91987.7	1	124406.3	-47.68147	-1.291192E-010	-0.1464728	5
	41	14	79.00281	95171.8	-106969.3	1	143178.5	-48.34015	5.318138E-010	-0.1464741	5
	42	15	63.3446	104572.5	-117954	1	157634.3	-48.44129	-2.14005E-010	-0.1464712	5
	43	15	49.86702	120617.9	-137175	1	182662.7	-48.67485	-4.568417E-010	-0.1464745	5
	44	15	39.72458	137339.2	-160742.2	1	211424	-49.4892	-1.297583E-010	-0.1464698	5
	45	16	31.6723	157935.9	-184830.9	1	243117.7	-49.48649	-4.966742E-010	-0.1464758	5
	46	16	24.93351	182318.7	-210410.9	1	278411.3	-49.09143	1.623565E-010	-0.1464739	5
	47	16	19.86229	210689.5	-238545.6	1	318267.3	-48.54824	-3.268151E-011	-0.1464683	5
	48	16	15.83615	242775.7	-270833.8	1	363718.3	-48.12691	9.681569E-011	-0.1464757	5
	49	17	12.40079	284222.4	-301383.8	1	414263.9	-46.6786	-7.621357E-010	-0.1464682	5
	50	17	9.93114	332216.3	-331611.2	1	469397.1	-44.94777	-6.74284E-012	-0.1464674	5
	51	18	7.944915	382242.6	-362232.8	1	526613.7	-43.46039	6.839236E-010	-0.1464777	5
	52	18	6.317385	437495.8	-393821.4	1	588640.7	-41.99265	6.900688E-010	-0.1464909	5
	53	19	5.008013	500097.7	-424106.8	1	655716.6	-40.29954	3.8838E-010	-0.1464751	5
	54	20	3.945707	567766.6	-454467.8	1	727255	-38.67547	9.24549E-010	-0.1464807	6
	55	22	3.158693	631683.5	-481282.6	1	794139.1	-37.30394	1.10643E-009	-0.1464625	6
	56	24	2.504006	700834.1	-508361.8	1	865794.6	-35.95589	-1.296717E-010	-0.1464701	5
	57	25	1.998082	766967	-539239.1	1	937559.2	-35.11028	-1.512598E-010	-0.146483	5
	58	27	1.584686	836852.5	-571637.9	1	1013455	-34.33623	-6.738236E-011	-0.1464873	4
	59	29	1.266892	905497.1	-612807.3	1	1093370	-34.0887	-3.814456E-011	-0.1464935	4
	60	31	0.999041	974947	-667069.1	1	1181314	-34.38036	-6.143992E-011	-0.1465088	4
