EXPLAIN
TAG	EISPOT
TITLE	LABEL	Potentiostatic EIS	Test &Identifier
DATE	LABEL	1/10/2020	Date
TIME	LABEL	14:10:25	Time
NOTES	NOTES	5	&Notes...
	
	
	
	
	
PSTAT	PSTAT	REF600-11020	Potentiostat
VDC	POTEN	0.00000E+000	T	DC &Voltage (V)
FREQINIT	QUANT	1.00000E+006	Initial Fre&q. (Hz)
FREQFINAL	QUANT	1.00000E+000	Final Fre&q. (Hz)
PTSPERDEC	QUANT	1.00000E+001	Points/&decade
VAC	QUANT	2.50000E+001	AC &Voltage (mV rms)
AREA	QUANT	1.00000E-001	&Area (cm^2)
CONDIT	TWOPARAM	T	5.00000E+000	0.00000E+000	Conditionin&g	Time(s)	E(V)
DELAY	TWOPARAM	T	5.00000E+000	0.00000E+000	Init. De&lay	Time(s)	Stab.(mV/s)
SPEED	SELECTOR	0	&Optimize for:
ZGUESS	QUANT	5.00000E+002	E&stimated Z (ohms)
OCVCURVE	TABLE	19
	Pt	T	Vf	Vm	Ach	Over
	#	s	V vs. Ref.	V	V	bits
	0	0.258333	7.02725E-003	7.02725E-003	6.65879E-004	...........
	1	0.516667	7.02717E-003	7.02311E-003	6.63546E-004	...........
	2	0.775	7.03018E-003	7.20225E-003	6.59779E-004	...........
	3	1.03333	7.05024E-003	7.36973E-003	6.59713E-004	...........
	4	1.29167	7.10813E-003	7.52348E-003	6.61979E-004	...........
	5	1.55	7.21275E-003	7.71189E-003	6.56313E-004	...........
	6	1.80833	7.35273E-003	7.78050E-003	6.58913E-004	...........
	7	2.06667	7.50522E-003	7.90281E-003	6.60913E-004	...........
	8	2.325	7.65049E-003	8.06309E-003	6.64679E-004	...........
	9	2.58333	7.78603E-003	8.28989E-003	6.67946E-004	...........
	10	2.84167	7.92626E-003	8.45714E-003	6.62879E-004	...........
	11	3.1	8.08340E-003	8.60013E-003	6.66879E-004	...........
	12	3.35833	8.25188E-003	8.67300E-003	6.60946E-004	...........
	13	3.61667	8.41432E-003	8.84374E-003	6.64646E-004	...........
	14	3.875	8.55907E-003	8.88818E-003	6.60813E-004	...........
	15	4.13333	8.68457E-003	8.95829E-003	6.61813E-004	...........
	16	4.39167	8.79078E-003	9.01952E-003	6.62513E-004	...........
	17	4.65	8.87828E-003	9.09139E-003	6.57080E-004	...........
	18	4.90833	8.95379E-003	9.23798E-003	6.67279E-004	...........
EOC	QUANT	0.0089538	Open Circuit (V)
PSTATMODEL	IQUANT	4	Pstat Model
PSTATSECTION	LABEL	REF600-11020	Pstat Section
PSTATSERIALNO	LABEL	11020	Pstat Serial Number
CTRLMODE	IQUANT	1	Control Mode
IESTAB	IQUANT	0	I/E Stability
CASPEED	IQUANT	1	Control Amp Speed
CONVENTION	IQUANT	1	Current Convention
ICHRANGE	IQUANT	2	Ich Range
ICHRANGEMODE	TOGGLE	F	Ich Auto Range
ICHOFFSETENABLE	TOGGLE	T	Ich Offset Enable
ICHOFFSET	QUANT	0	Ich Offset (V)
ICHFILTER	IQUANT	3	Ich Filter
VCHRANGE	IQUANT	2	Vch Range
VCHRANGEMODE	TOGGLE	F	Vch Auto Range
VCHOFFSETENABLE	TOGGLE	T	Vch Offset Enable
VCHOFFSET	QUANT	0	Vch Offset (V)
VCHFILTER	IQUANT	3	Vch Filter
ACHRANGE	IQUANT	2	Ach Range
ACHOFFSETENABLE	TOGGLE	F	Ach Offset Enable
ACHOFFSET	QUANT	0	Ach Offset (V)
ACHFILTER	IQUANT	3	Ach Filter
IERANGELOWERLIMIT	IQUANT	1	I/E Range Lower Limit
IERANGEMODE	TOGGLE	F	I/E AutoRange
IERANGE	IQUANT	7	I/E Range
POSFEEDENABLE	TOGGLE	F	Positive Feedback IR Comp
POSFEEDRESISTANCE	QUANT	0	Positive Feedback Resistance (ohm)
ACHSELECT	IQUANT	0	Ach Select
CABLEID	IQUANT	14	Cable ID
DCCALDATE	LABEL	12/22/2019	DC Calibration Date
ACCALDATE	LABEL	12/22/2019	AC Calibration Date
THERMOSELECT	IQUANT	1	Thermo Select
FRAMEWORKVERSION	QUANT	6.33	Framework Version
INSTRUMENTVERSION	LABEL	3.50	Instrument Version
ZCURVE	TABLE
	Pt	Time	Freq	Zreal	Zimag	Zsig	Zmod	Zphz	Idc	Vdc	IERange
	#	s	Hz	ohm	ohm	V	ohm	°	A	V	#
	0	1	1000078	1843.137	-993.964	1	2094.068	-28.33703	-2.346202E-006	0.0115188	8
	1	1	794390.6	2001.778	-957.788	1	2219.115	-25.56967	1.882787E-006	0.0107625	8
	2	1	630984.4	2153.174	-904.3076	1	2335.365	-22.78183	-1.284743E-006	0.0109503	8
	3	2	501234.4	2282.938	-848.5696	1	2435.545	-20.39013	-6.778155E-007	0.0109831	8
	4	2	398109.4	2412.796	-801.4547	1	2542.423	-18.37486	-2.982602E-006	0.0113382	8
	5	2	316265.6	2512.397	-743.0645	1	2619.978	-16.47606	-5.999146E-007	0.0107312	8
	6	3	251203.1	2608.327	-699.4041	1	2700.469	-15.01035	1.195603E-006	0.0104019	8
	7	3	199546.9	2696.822	-661.9034	1	2776.862	-13.78999	-2.196261E-006	0.0110407	8
	8	3	158578.1	2771.919	-638.0237	1	2844.4	-12.96223	1.165694E-006	0.0103342	8
	9	4	125953.1	2857.881	-591.3568	1	2918.422	-11.69074	6.545738E-007	0.0092639	7
	10	4	100078.1	2915.199	-574.2191	1	2971.214	-11.14314	5.112183E-008	0.0104772	7
	11	4	79453.13	2981.041	-577.9951	1	3036.558	-10.97295	-8.412875E-009	0.0105631	7
	12	5	63140.62	3047.836	-589.7642	1	3104.372	-10.95153	-1.599669E-008	0.0106316	7
	13	5	50203.12	3116.806	-607.1653	1	3175.394	-11.02337	-2.651214E-008	0.010578	7
	14	5	39890.62	3188.968	-632.1242	1	3251.015	-11.21196	4.987636E-008	0.0104621	7
	15	6	31640.63	3265.397	-665.6157	1	3332.546	-11.52128	8.13369E-008	0.0104357	7
	16	6	25171.88	3344.178	-704.7986	1	3417.641	-11.90114	5.868798E-009	0.0105757	7
	17	6	20015.62	3428.538	-752.0528	1	3510.05	-12.37194	6.207904E-009	0.0105732	7
	18	7	15890.62	3514.441	-808.6902	1	3606.283	-12.95847	5.08765E-008	0.0104594	7
	19	7	12609.37	3605.147	-877.5648	1	3710.419	-13.68087	-1.262429E-008	0.0106416	7
	20	7	10078.13	3694.714	-956.777	1	3816.587	-14.51829	3.654014E-008	0.0105552	7
	21	8	8015.625	3790.89	-1055.704	1	3935.144	-15.5617	8.324186E-008	0.0104337	7
	22	8	6328.125	3895.78	-1180.858	1	4070.814	-16.86269	3.076283E-008	0.0104567	7
	23	8	5015.625	4008.156	-1331.78	1	4223.618	-18.37996	1.671382E-009	0.0105138	7
	24	8	3984.375	4128.625	-1513.742	1	4397.38	-20.13524	-7.090762E-009	0.010576	7
	25	9	3170.956	4261.043	-1728.736	1	4598.371	-22.08276	2.707459E-009	0.0105129	7
	26	9	2527.573	4407.761	-1983.501	1	4833.491	-24.22784	-2.591361E-008	0.010571	7
	27	9	1976.103	4581.966	-2316.094	1	5134.073	-26.8157	-3.370219E-008	0.0106215	7
	28	10	1577.524	4752.188	-2683.208	1	5457.37	-29.45019	-1.536062E-008	0.0106138	7
	29	10	1265.625	4933.642	-3113.628	1	5833.995	-32.25608	-3.225042E-008	0.0105969	7
	30	10	998.264	5143.711	-3676.197	1	6322.356	-35.5533	-2.619055E-008	0.0105703	7
	31	11	796.875	5365.965	-4343.905	1	6903.846	-38.99118	-3.25018E-008	0.0106177	7
	32	11	627.7902	5632.888	-5206.406	1	7670.469	-42.74681	5.125852E-008	0.0104456	7
	33	11	505.5147	5917.683	-6176.956	1	8554.166	-46.22806	3.186868E-008	0.0104556	7
	34	12	397.9953	6293.114	-7501.564	1	9791.67	-50.00648	5.228259E-009	0.0105544	7
	35	12	315.5048	6758.081	-9077.162	1	11316.65	-53.33178	-4.798045E-011	0.0105581	6
	36	12	252.4038	7323.219	-10922.69	1	13150.47	-56.15976	-2.726501E-011	0.0105549	6
	37	13	198.6229	8102.188	-13317.71	1	15588.67	-58.68462	5.358877E-010	0.010555	6
	38	13	158.3615	9059.628	-16064.86	1	18443.33	-60.57957	-9.004925E-011	0.0105553	6
	39	13	125.558	10328.9	-19405.14	1	21982.84	-61.97468	1.781922E-010	0.0105552	6
	40	14	100.4464	11884.64	-23242.77	1	26105	-62.91814	6.948778E-010	0.0105544	6
	41	14	79.00281	14000.89	-28059.44	1	31358.52	-63.48206	1.047228E-009	0.0105529	6
	42	14	63.3446	16811.12	-33000.32	1	37035.59	-63.00467	-1.631304E-010	0.0105541	6
	43	15	49.86702	20268.88	-39577.88	1	44466.12	-62.88181	-6.706902E-010	0.0105506	6
	44	15	39.72458	24145.94	-46753.45	1	52620.45	-62.68579	-5.949217E-012	0.0105591	6
	45	15	31.6723	29130.9	-54828.95	1	62087.22	-62.01807	-2.97418E-010	0.0105557	6
	46	16	24.93351	35672.28	-64147.57	1	73399.06	-60.92169	-2.016944E-010	0.0105559	6
	47	16	19.86229	42902.34	-74070.01	1	85597.77	-59.92	-1.420069E-009	0.0105504	6
	48	16	15.83615	50534.1	-85122.67	1	98992.8	-59.304	-6.607156E-011	0.0105527	6
	49	17	12.40079	61286.89	-98071.9	1	115646.8	-57.998	-4.713755E-010	0.0105591	5
	50	17	9.93114	71577.25	-110795.6	1	131905.2	-57.13634	9.932992E-010	0.0105543	5
	51	18	7.944915	82666.72	-125902.4	1	150616.1	-56.71136	4.144064E-012	0.0105591	5
	52	18	6.317385	94623.19	-143947.1	1	172262.4	-56.68121	-1.998319E-010	0.0105571	5
	53	19	5.008013	107705.1	-165473.4	1	197438.2	-56.94027	1.394354E-011	0.0105631	5
	54	20	3.945707	122206.9	-192504.4	1	228018.5	-57.59155	-3.016344E-010	0.010549	5
	55	21	3.158693	137427.4	-222547	1	261559.7	-58.3038	-6.045754E-011	0.0105437	5
	56	23	2.504006	155506	-261010.5	1	303823.2	-59.21418	-1.272144E-011	0.0105506	5
	57	24	1.998082	176249.8	-306293.9	1	353383.6	-60.08271	-2.700952E-010	0.01051	5
	58	26	1.584686	200322	-362213.1	1	413916.9	-61.05521	-2.326205E-010	0.0105137	5
	59	28	1.266892	229174.2	-425770.6	1	483530.2	-61.70831	-1.285321E-010	0.0105539	5
	60	30	0.999041	265463.6	-506274.5	1	571650.9	-62.32986	-3.344151E-011	0.0105772	5
