EXPLAIN
TAG	EISPOT
TITLE	LABEL	Potentiostatic EIS	Test &Identifier
DATE	LABEL	2/18/2020	Date
TIME	LABEL	15:29:37	Time
NOTES	NOTES	1	&Notes...
	
PSTAT	PSTAT	REF600-11020	Potentiostat
VDC	POTEN	0.00000E+000	T	DC &Voltage (V)
FREQINIT	QUANT	1.00000E+006	Initial Fre&q. (Hz)
FREQFINAL	QUANT	1.00000E+000	Final Fre&q. (Hz)
PTSPERDEC	QUANT	1.00000E+001	Points/&decade
VAC	QUANT	2.50000E+001	AC &Voltage (mV rms)
AREA	QUANT	1.60000E-004	&Area (cm^2)
CONDIT	TWOPARAM	F	1.50000E+001	0.00000E+000	Conditionin&g	Time(s)	E(V)
DELAY	TWOPARAM	F	1.00000E+002	0.00000E+000	Init. De&lay	Time(s)	Stab.(mV/s)
SPEED	SELECTOR	1	&Optimize for:
ZGUESS	QUANT	1.00000E+003	E&stimated Z (ohms)
OCVCURVE	TABLE	38
	Pt	T	Vf	Vm	Ach	Over
	#	s	V vs. Ref.	V	V	bits
	0	0.258333	1.78397E-002	1.78397E-002	5.70338E-004	...........
	1	0.516667	1.78401E-002	1.78620E-002	5.67571E-004	...........
	2	0.775	1.78433E-002	1.79140E-002	5.73737E-004	...........
	3	1.03333	1.78551E-002	1.80025E-002	5.67138E-004	...........
	4	1.29167	1.78800E-002	1.79242E-002	5.68138E-004	...........
	5	1.55	1.79101E-002	1.78637E-002	5.68438E-004	...........
	6	1.80833	1.79272E-002	1.79407E-002	5.71738E-004	...........
	7	2.06667	1.79243E-002	1.78094E-002	5.69238E-004	...........
	8	2.325	1.79071E-002	1.78056E-002	5.72471E-004	...........
	9	2.58333	1.78810E-002	1.78483E-002	5.70171E-004	...........
	10	2.84167	1.78524E-002	1.77390E-002	5.70538E-004	...........
	11	3.1	1.78220E-002	1.75193E-002	5.70438E-004	...........
	12	3.35833	1.77712E-002	1.73765E-002	5.73704E-004	...........
	13	3.61667	1.76846E-002	1.74914E-002	5.69571E-004	...........
	14	3.875	1.75838E-002	1.75121E-002	5.68871E-004	...........
	15	4.13333	1.75117E-002	1.75315E-002	5.65738E-004	...........
	16	4.39167	1.74877E-002	1.75482E-002	5.64704E-004	...........
	17	4.65	1.74979E-002	1.75694E-002	5.65238E-004	...........
	18	4.90833	1.75209E-002	1.75899E-002	5.65538E-004	...........
	19	5.16667	1.75451E-002	1.76101E-002	5.65371E-004	...........
	20	5.425	1.75667E-002	1.75937E-002	5.68471E-004	...........
	21	5.68333	1.75847E-002	1.76488E-002	5.67504E-004	...........
	22	5.94167	1.75994E-002	1.76162E-002	5.70471E-004	...........
	23	6.2	1.76121E-002	1.76486E-002	5.68604E-004	...........
	24	6.45833	1.76235E-002	1.76800E-002	5.65271E-004	...........
	25	6.71667	1.76360E-002	1.76938E-002	5.66504E-004	...........
	26	6.975	1.76516E-002	1.76763E-002	5.64904E-004	...........
	27	7.23333	1.76698E-002	1.78241E-002	5.63538E-004	...........
	28	7.49167	1.76931E-002	1.77650E-002	5.69404E-004	...........
	29	7.75	1.77225E-002	1.77477E-002	5.70571E-004	...........
	30	8.00833	1.77530E-002	1.80016E-002	5.70038E-004	...........
	31	8.26667	1.77839E-002	1.77096E-002	5.75137E-004	...........
	32	8.525	1.78106E-002	1.77413E-002	5.67204E-004	...........
	33	8.78333	1.78156E-002	1.77745E-002	5.71371E-004	...........
	34	9.04167	1.77969E-002	1.77371E-002	5.64438E-004	...........
	35	9.3	1.77737E-002	1.77649E-002	5.70904E-004	...........
	36	9.5583	1.77595E-002	1.77598E-002	5.72004E-004	...........
	37	9.8167	1.77546E-002	1.77504E-002	5.68838E-004	...........
EOC	QUANT	0.0177543	Open Circuit (V)
PSTATMODEL	IQUANT	4	Pstat Model
PSTATSECTION	LABEL	REF600-11020	Pstat Section
PSTATSERIALNO	LABEL	11020	Pstat Serial Number
CTRLMODE	IQUANT	1	Control Mode
IESTAB	IQUANT	0	I/E Stability
CASPEED	IQUANT	1	Control Amp Speed
CONVENTION	IQUANT	1	Current Convention
ICHRANGE	IQUANT	2	Ich Range
ICHRANGEMODE	TOGGLE	F	Ich Auto Range
ICHOFFSETENABLE	TOGGLE	T	Ich Offset Enable
ICHOFFSET	QUANT	0	Ich Offset (V)
ICHFILTER	IQUANT	3	Ich Filter
VCHRANGE	IQUANT	2	Vch Range
VCHRANGEMODE	TOGGLE	F	Vch Auto Range
VCHOFFSETENABLE	TOGGLE	T	Vch Offset Enable
VCHOFFSET	QUANT	0	Vch Offset (V)
VCHFILTER	IQUANT	3	Vch Filter
ACHRANGE	IQUANT	2	Ach Range
ACHOFFSETENABLE	TOGGLE	F	Ach Offset Enable
ACHOFFSET	QUANT	0	Ach Offset (V)
ACHFILTER	IQUANT	3	Ach Filter
IERANGELOWERLIMIT	IQUANT	1	I/E Range Lower Limit
IERANGEMODE	TOGGLE	F	I/E AutoRange
IERANGE	IQUANT	7	I/E Range
POSFEEDENABLE	TOGGLE	F	Positive Feedback IR Comp
POSFEEDRESISTANCE	QUANT	0	Positive Feedback Resistance (ohm)
ACHSELECT	IQUANT	0	Ach Select
CABLEID	IQUANT	14	Cable ID
DCCALDATE	LABEL	1/27/2020	DC Calibration Date
ACCALDATE	LABEL	1/27/2020	AC Calibration Date
THERMOSELECT	IQUANT	1	Thermo Select
FRAMEWORKVERSION	QUANT	6.33	Framework Version
INSTRUMENTVERSION	LABEL	3.50	Instrument Version
ZCURVE	TABLE
	Pt	Time	Freq	Zreal	Zimag	Zsig	Zmod	Zphz	Idc	Vdc	IERange
	#	s	Hz	ohm	ohm	V	ohm	°	A	V	#
	0	2	1000078	1635.088	-1285.181	1	2079.712	-38.16739	-1.246124E-007	0.0202587	8
	1	3	794390.6	1835.893	-1332.484	1	2268.484	-35.97199	2.188277E-006	0.0193545	8
	2	4	630984.4	2036.657	-1384.088	1	2462.453	-34.19956	3.782305E-008	0.019475	8
	3	6	501234.4	2238.047	-1424.928	1	2653.163	-32.48423	-1.27304E-006	0.0198002	8
	4	7	398109.4	2445.52	-1484.536	1	2860.842	-31.25957	-2.385339E-007	0.0193726	8
	5	8	316265.6	2652.385	-1554.752	1	3074.476	-30.37761	-1.224816E-006	0.0195749	8
	6	10	251203.1	2873.715	-1613.865	1	3295.876	-29.31837	6.041964E-007	0.0191664	8
	7	11	199546.9	3099.027	-1692.926	1	3531.284	-28.64675	-1.122884E-006	0.0196375	8
	8	12	158578.1	3354.405	-1781.562	1	3798.157	-27.97328	-8.584702E-007	0.0195814	8
	9	14	125953.1	3635.669	-1847.925	1	4078.347	-26.94317	-2.891456E-007	0.0199814	7
	10	15	100078.1	3919.06	-1938.553	1	4372.302	-26.31919	-2.363685E-008	0.0193078	7
	11	16	79453.13	4230.619	-2030.357	1	4692.599	-25.63726	6.46627E-008	0.0192048	7
	12	17	63140.62	4565.891	-2110.929	1	5030.247	-24.81232	2.321645E-008	0.019249	7
	13	19	50203.12	4924.333	-2170.202	1	5381.341	-23.78356	4.168514E-009	0.0193198	7
	14	20	39890.62	5300.326	-2200.307	1	5738.885	-22.54465	-1.503254E-008	0.0192994	7
	15	21	31640.63	5689.851	-2199.292	1	6100.105	-21.13295	-2.250542E-008	0.0192914	7
	16	23	25171.88	6066.809	-2158.14	1	6439.234	-19.58195	-2.308781E-008	0.0192887	7
	17	24	20015.62	6431.015	-2088.622	1	6761.679	-17.99241	3.949693E-009	0.019319	7
	18	26	15890.62	6763.727	-1985.98	1	7049.264	-16.36341	-2.338106E-008	0.0192946	7
	19	27	12609.37	7066.283	-1873.858	1	7310.52	-14.85202	3.016549E-008	0.0192689	7
	20	29	10078.13	7313.855	-1755.449	1	7521.575	-13.49665	7.009445E-009	0.0192358	7
	21	31	8015.625	7531.32	-1646.61	1	7709.222	-12.3328	-5.476439E-009	0.0192419	7
	22	32	6328.125	7727.451	-1556.061	1	7882.565	-11.38527	5.535706E-008	0.0191717	7
	23	34	5015.625	7885.614	-1490.447	1	8025.232	-10.70312	-1.481672E-008	0.0192612	7
	24	35	3984.375	8011.794	-1456.706	1	8143.147	-10.30496	9.429496E-009	0.0192244	7
	25	37	3170.956	8133.367	-1468.456	1	8264.867	-10.23434	3.268914E-008	0.019226	7
	26	38	2527.573	8234.677	-1517.744	1	8373.377	-10.44306	2.745725E-008	0.0191845	7
	27	40	1976.103	8347.226	-1631.27	1	8505.129	-11.05776	-2.131376E-008	0.0193012	7
	28	41	1577.524	8445.27	-1785.349	1	8631.921	-11.93671	8.472156E-009	0.0192308	7
	29	43	1265.625	8543.699	-2000.061	1	8774.682	-13.17555	-1.751402E-008	0.0192699	7
	30	44	998.264	8658.321	-2304.513	1	8959.761	-14.9044	-1.012862E-009	0.0192416	6
	31	46	796.875	8775.753	-2678.955	1	9175.546	-16.97574	-1.423387E-009	0.0193233	6
	32	47	627.7902	8926.726	-3182.054	1	9476.914	-19.61931	-3.341123E-009	0.0193062	6
	33	48	505.5147	9082.033	-3751.342	1	9826.29	-22.44312	-4.542685E-009	0.0192806	6
	34	50	397.9953	9291.943	-4524.69	1	10335.04	-25.96366	1.557069E-009	0.0192707	6
	35	51	315.5048	9546.47	-5453.172	1	10994.19	-29.73604	1.557387E-009	0.0192645	6
	36	52	252.4038	9840.63	-6543.843	1	11817.78	-33.62319	1.986823E-009	0.0192674	6
	37	54	198.6229	10235.96	-7977.939	1	12977.77	-37.93296	1.574068E-009	0.0192713	6
	38	55	158.3615	10708.98	-9631.9	1	14403.32	-41.96893	1.520241E-009	0.0192678	6
	39	56	125.558	11309.88	-11693.74	1	16268.28	-45.95599	1.530678E-009	0.0192661	6
	40	57	100.4464	12056.96	-14083.55	1	18539.6	-49.43309	1.709099E-009	0.019266	6
	41	59	79.00281	13078.56	-17188.89	1	21598.77	-52.73347	1.747986E-009	0.0192667	6
	42	60	63.3446	14381.2	-20596.79	1	25120.65	-55.07629	1.008251E-009	0.0192615	6
	43	61	49.86702	15976.63	-25115.32	1	29766.29	-57.5383	1.269927E-009	0.019262	6
	44	63	39.72458	18151.98	-30086.18	1	35137.91	-58.89604	2.103237E-009	0.0192717	6
	45	64	31.6723	20824.91	-35909.33	1	41510.92	-59.88926	1.735893E-009	0.0192681	6
	46	65	24.93351	24509.99	-43058.02	1	49545.25	-60.35009	1.979627E-009	0.0192635	6
	47	67	19.86229	28922.2	-50879.33	1	58525.21	-60.38407	1.853203E-009	0.0192567	6
	48	68	15.83615	34276.23	-59792.76	1	68920.49	-60.17649	3.584839E-010	0.0192623	6
	49	69	12.40079	41464.82	-70105.97	1	81450.46	-59.39742	2.553333E-009	0.0192615	6
	50	71	9.93114	49008.09	-80982.19	1	94656.79	-58.81888	3.288584E-010	0.0192738	6
	51	72	7.944915	57541.36	-92689.64	1	109098	-58.16816	-9.051559E-010	0.0192674	5
	52	74	6.317385	67567.99	-106391.9	1	126034.4	-57.58096	-3.500691E-011	0.0192758	5
	53	76	5.008013	78648.71	-121921.7	1	145087.9	-57.17492	-2.430476E-010	0.0192534	5
	54	78	3.945707	90936.69	-140387	1	167266.2	-57.06656	6.435322E-010	0.0192655	5
	55	81	3.158693	103446.1	-160451.5	1	190907.8	-57.18935	2.115511E-010	0.0192791	5
	56	84	2.504006	117190.2	-185505.8	1	219421.9	-57.71804	-8.878086E-011	0.0192582	5
	57	87	1.998082	131938.1	-214711.5	1	252009.3	-58.42969	-7.605673E-011	0.0192276	5
	58	90	1.584686	148170.2	-250385.4	1	290942	-59.38429	8.538406E-011	0.019276	5
	59	93	1.266892	166776.5	-293040.8	1	337175.5	-60.35477	1.143441E-010	0.0192191	5
	60	98	0.999041	188436.8	-347510.5	1	395312.5	-61.53134	8.347065E-011	0.0192933	5
