EXPLAIN
TAG	EISPOT
TITLE	LABEL	Potentiostatic EIS	Test &Identifier
DATE	LABEL	7/5/2020	Date
TIME	LABEL	16:47:18	Time
NOTES	NOTES	1	&Notes...
	
PSTAT	PSTAT	REF600-11020	Potentiostat
VDC	POTEN	0.00000E+000	T	DC &Voltage (V)
FREQINIT	QUANT	1.00000E+006	Initial Fre&q. (Hz)
FREQFINAL	QUANT	1.00000E+000	Final Fre&q. (Hz)
PTSPERDEC	QUANT	1.00000E+001	Points/&decade
VAC	QUANT	2.50000E+001	AC &Voltage (mV rms)
AREA	QUANT	4.00000E-004	&Area (cm^2)
CONDIT	TWOPARAM	F	5.00000E+000	0.00000E+000	Conditionin&g	Time(s)	E(V)
DELAY	TWOPARAM	F	3.00000E+000	0.00000E+000	Init. De&lay	Time(s)	Stab.(mV/s)
SPEED	SELECTOR	0	&Optimize for:
ZGUESS	QUANT	1.00000E+003	E&stimated Z (ohms)
OCVCURVE	TABLE	39
	Pt	T	Vf	Vm	Ach	Over
	#	s	V vs. Ref.	V	V	bits
	0	0.258333	-1.12718E-002	-1.12718E-002	5.04250E-004	...........
	1	0.516667	-1.12733E-002	-1.13459E-002	5.07417E-004	...........
	2	0.775	-1.12819E-002	-1.14136E-002	5.09817E-004	...........
	3	1.03333	-1.13063E-002	-1.14854E-002	5.12584E-004	...........
	4	1.29167	-1.13502E-002	-1.15525E-002	5.13450E-004	...........
	5	1.55	-1.14112E-002	-1.17154E-002	5.07517E-004	...........
	6	1.80833	-1.14873E-002	-1.17690E-002	5.05850E-004	...........
	7	2.06667	-1.15759E-002	-1.18303E-002	5.11350E-004	...........
	8	2.325	-1.16672E-002	-1.18832E-002	5.10850E-004	...........
	9	2.58333	-1.17497E-002	-1.19402E-002	5.14950E-004	...........
	10	2.84167	-1.18196E-002	-1.19886E-002	5.14117E-004	...........
	11	3.1	-1.18796E-002	-1.20423E-002	5.14350E-004	...........
	12	3.35833	-1.19340E-002	-1.20823E-002	5.12083E-004	...........
	13	3.61667	-1.19852E-002	-1.21327E-002	5.16017E-004	...........
	14	3.875	-1.20340E-002	-1.21780E-002	5.17883E-004	...........
	15	4.13333	-1.20814E-002	-1.22235E-002	5.08717E-004	...........
	16	4.39167	-1.21281E-002	-1.22724E-002	5.13017E-004	...........
	17	4.65	-1.21747E-002	-1.23278E-002	5.14517E-004	...........
	18	4.90833	-1.22221E-002	-1.23683E-002	5.17683E-004	...........
	19	5.16667	-1.22695E-002	-1.23671E-002	5.09684E-004	...........
	20	5.425	-1.23118E-002	-1.23618E-002	5.16417E-004	...........
	21	5.68333	-1.23436E-002	-1.24305E-002	5.17683E-004	...........
	22	5.94167	-1.23669E-002	-1.24484E-002	5.11984E-004	...........
	23	6.2	-1.23903E-002	-1.25035E-002	5.15583E-004	...........
	24	6.45833	-1.24198E-002	-1.25434E-002	5.12950E-004	...........
	25	6.71667	-1.24562E-002	-1.25990E-002	5.16617E-004	...........
	26	6.975	-1.24983E-002	-1.26449E-002	5.09017E-004	...........
	27	7.23333	-1.25440E-002	-1.26779E-002	5.06917E-004	...........
	28	7.49167	-1.25905E-002	-1.27262E-002	5.14317E-004	...........
	29	7.75	-1.26356E-002	-1.27695E-002	5.11517E-004	...........
	30	8.00833	-1.26794E-002	-1.28180E-002	5.17383E-004	...........
	31	8.26667	-1.27230E-002	-1.28500E-002	5.12783E-004	...........
	32	8.525	-1.27660E-002	-1.28770E-002	5.11984E-004	...........
	33	8.78333	-1.28067E-002	-1.29156E-002	5.13983E-004	...........
	34	9.04167	-1.28439E-002	-1.29496E-002	5.09250E-004	...........
	35	9.3	-1.28788E-002	-1.29930E-002	5.14383E-004	...........
	36	9.5583	-1.29139E-002	-1.30325E-002	5.08250E-004	...........
	37	9.8167	-1.29504E-002	-1.30593E-002	5.12883E-004	...........
	38	10.075	-1.29877E-002	-1.30941E-002	5.10150E-004	...........
EOC	QUANT	-0.0129877	Open Circuit (V)
PSTATMODEL	IQUANT	4	Pstat Model
PSTATSECTION	LABEL	REF600-11020	Pstat Section
PSTATSERIALNO	LABEL	11020	Pstat Serial Number
CTRLMODE	IQUANT	1	Control Mode
IESTAB	IQUANT	0	I/E Stability
CASPEED	IQUANT	1	Control Amp Speed
CONVENTION	IQUANT	1	Current Convention
ICHRANGE	IQUANT	2	Ich Range
ICHRANGEMODE	TOGGLE	F	Ich Auto Range
ICHOFFSETENABLE	TOGGLE	T	Ich Offset Enable
ICHOFFSET	QUANT	0	Ich Offset (V)
ICHFILTER	IQUANT	3	Ich Filter
VCHRANGE	IQUANT	2	Vch Range
VCHRANGEMODE	TOGGLE	F	Vch Auto Range
VCHOFFSETENABLE	TOGGLE	T	Vch Offset Enable
VCHOFFSET	QUANT	0	Vch Offset (V)
VCHFILTER	IQUANT	3	Vch Filter
ACHRANGE	IQUANT	2	Ach Range
ACHOFFSETENABLE	TOGGLE	F	Ach Offset Enable
ACHOFFSET	QUANT	0	Ach Offset (V)
ACHFILTER	IQUANT	3	Ach Filter
IERANGELOWERLIMIT	IQUANT	1	I/E Range Lower Limit
IERANGEMODE	TOGGLE	F	I/E AutoRange
IERANGE	IQUANT	7	I/E Range
POSFEEDENABLE	TOGGLE	F	Positive Feedback IR Comp
POSFEEDRESISTANCE	QUANT	0	Positive Feedback Resistance (ohm)
ACHSELECT	IQUANT	0	Ach Select
CABLEID	IQUANT	14	Cable ID
DCCALDATE	LABEL	6/26/2020	DC Calibration Date
ACCALDATE	LABEL	6/26/2020	AC Calibration Date
THERMOSELECT	IQUANT	1	Thermo Select
FRAMEWORKVERSION	QUANT	6.33	Framework Version
INSTRUMENTVERSION	LABEL	3.50	Instrument Version
ZCURVE	TABLE
	Pt	Time	Freq	Zreal	Zimag	Zsig	Zmod	Zphz	Idc	Vdc	IERange
	#	s	Hz	ohm	ohm	V	ohm	°	A	V	#
	0	1	1000078	1588.259	-1710.653	1	2334.288	-47.12478	1.396815E-005	-0.0121348	8
	1	1	794390.6	1882.858	-1812.316	1	2613.359	-43.90633	-2.00263E-006	-0.0105369	8
	2	1	630984.4	2175.521	-1921.675	1	2902.71	-41.45472	-2.278982E-006	-0.010506	8
	3	2	501234.4	2474.521	-2019.468	1	3193.979	-39.21804	1.089633E-006	-0.0106855	8
	4	2	398109.4	2797.809	-2120.236	1	3510.432	-37.15559	6.2445E-007	-0.0107545	8
	5	2	316265.6	3133.707	-2234.365	1	3848.702	-35.48926	-1.536496E-006	-0.0115844	8
	6	3	251203.1	3481.263	-2333.356	1	4190.912	-33.83242	-1.644391E-006	-0.0113369	8
	7	3	199546.9	3861.276	-2413.946	1	4553.745	-32.01231	-1.666785E-006	-0.0113239	8
	8	3	158578.1	4243.862	-2483.942	1	4917.351	-30.34054	-7.760684E-007	-0.011711	8
	9	4	125953.1	4684.003	-2487.36	1	5303.475	-27.96978	-3.423434E-006	-0.0064302	7
	10	4	100078.1	5136.003	-2553.362	1	5735.694	-26.43425	1.147265E-006	-0.0116386	7
	11	4	79453.13	5549.321	-2527.99	1	6098.008	-24.49161	8.530618E-008	-0.0099885	7
	12	5	63140.62	5945.608	-2475.939	1	6440.538	-22.60839	-8.812224E-007	-0.0091224	7
	13	5	50203.12	6316.259	-2385.563	1	6751.743	-20.69085	-1.014729E-006	-0.0116138	7
	14	5	39890.62	6670.985	-2313.054	1	7060.613	-19.12315	-1.459291E-006	-0.0106841	7
	15	6	31640.63	7003.666	-2234.018	1	7351.338	-17.69156	-1.699254E-006	-0.0098868	7
	16	6	25171.88	7301.173	-2163.873	1	7615.083	-16.50842	-1.698348E-006	-0.009886	7
	17	6	20015.62	7589.167	-2120.201	1	7879.765	-15.60888	-1.735872E-006	-0.009322	7
	18	7	15890.62	7914.337	-2112.564	1	8191.438	-14.94543	1.145741E-006	-0.0116527	7
	19	7	12609.37	8178.724	-2089.063	1	8441.31	-14.32849	1.554688E-006	-0.0129737	7
	20	8	10078.13	8394.473	-2091.67	1	8651.142	-13.9916	1.37862E-006	-0.0137535	7
	21	8	8015.625	8627.704	-2129.94	1	8886.728	-13.86745	5.414543E-007	-0.0106197	7
	22	8	6328.125	8824.498	-2190.692	1	9092.354	-13.9419	6.758995E-007	-0.0137072	7
	23	9	5015.625	9039.68	-2305.306	1	9329	-14.30667	-8.771565E-007	-0.0091411	7
	24	9	3984.375	9236.021	-2466.375	1	9559.66	-14.95132	-1.266181E-006	-0.0090097	7
	25	9	3170.956	9478.067	-2687.407	1	9851.7	-15.83013	-8.766103E-007	-0.0091392	7
	26	10	2527.573	9690.62	-2970.622	1	10135.71	-17.04272	-1.266187E-006	-0.009016	7
	27	10	1976.103	9920.86	-3343.768	1	10469.2	-18.62609	-1.691874E-006	-0.0099121	7
	28	10	1577.524	10187.74	-3793.816	1	10871.21	-20.42485	-1.454082E-006	-0.0107096	7
	29	11	1265.625	10507.8	-4361.969	1	11377.2	-22.54418	6.75655E-007	-0.0137213	7
	30	11	998.264	10892.99	-5071.211	1	12015.59	-24.96425	2.417125E-007	-0.0141487	6
	31	11	796.875	11274.62	-5918.118	1	12733.46	-27.69527	1.742525E-007	-0.0115278	6
	32	12	627.7902	11714.22	-6995.041	1	13643.81	-30.84316	2.376005E-007	-0.0134236	6
	33	12	505.5147	12195.9	-8181.883	1	14686.16	-33.85654	1.080646E-007	-0.0103396	6
	34	12	397.9953	12783.74	-9747.1	1	16075.76	-37.32412	9.206491E-010	-0.011382	6
	35	12	315.5048	13510.97	-11601.48	1	17808.44	-40.65171	1.206361E-011	-0.0113767	6
	36	13	252.4038	14355.18	-13737.87	1	19869.58	-43.74119	4.944752E-010	-0.0113793	6
	37	13	198.6229	15459.55	-16490.06	1	22603.53	-46.84739	2.704268E-010	-0.0113844	6
	38	13	158.3615	16745.69	-19590.12	1	25771.91	-49.47609	-1.16859E-010	-0.0113723	6
	39	14	125.558	18338.64	-23412.53	1	29739.75	-51.92899	8.455014E-010	-0.011381	6
	40	14	100.4464	20240.38	-27765.93	1	34360.15	-53.90928	1.298511E-009	-0.0113801	6
	41	14	79.00281	22854.85	-33306.77	1	40394.12	-55.54239	1.374233E-010	-0.0113734	6
	42	15	63.3446	25550.49	-39401.47	1	46960.66	-57.03799	1.714851E-010	-0.0113734	6
	43	15	49.86702	29596.87	-46992.86	1	55536.51	-57.79661	-1.137969E-010	-0.0113723	6
	44	15	39.72458	34602.71	-55465.73	1	65374.27	-58.04171	2.774637E-010	-0.0113718	6
	45	16	31.6723	40661.98	-65014.61	1	76683.09	-57.97697	1.033861E-009	-0.0113749	6
	46	16	24.93351	48503.71	-76493.12	1	90574.87	-57.62152	1.637851E-009	-0.011378	6
	47	16	19.86229	57606.25	-88586.04	1	105669.1	-56.96462	2.369055E-009	-0.0113922	5
	48	17	15.83615	69067.48	-101791.1	1	123011.2	-55.84226	-1.788288E-009	-0.011386	5
	49	17	12.40079	82802.36	-117388.4	1	143653.3	-54.80198	-5.976704E-010	-0.0113763	5
	50	17	9.93114	97568.4	-131870.5	1	164040.9	-53.50299	-1.665277E-009	-0.0113937	5
	51	18	7.944915	115398.4	-148682.5	1	188210.7	-52.18356	-4.047432E-011	-0.01139	5
	52	18	6.317385	133439.6	-165777.6	1	212810.6	-51.16832	2.065086E-011	-0.0113891	5
	53	19	5.008013	154463.3	-185169.3	1	241136	-50.16604	-5.447464E-010	-0.0113964	5
	54	20	3.945707	178379.9	-206717.1	1	273041	-49.2085	-4.631674E-011	-0.0113876	5
	55	21	3.158693	201324.3	-229256.8	1	305106.8	-48.71167	-7.142103E-011	-0.0114013	5
	56	22	2.504006	227243	-255652.6	1	342049.1	-48.36693	4.026395E-010	-0.0114068	5
	57	24	1.998082	252667	-285871	1	381526.9	-48.52815	3.95511E-010	-0.0113933	5
	58	25	1.584686	281274.3	-321466.2	1	427148.4	-48.81494	1.07746E-010	-0.0114466	5
	59	27	1.266892	310726.7	-364226.1	1	478760.6	-49.53202	1.584147E-010	-0.0114482	5
	60	30	0.999041	343133.1	-418853.8	1	541459.9	-50.67501	7.860863E-011	-0.0114326	5
