EXPLAIN
TAG	EISPOT
TITLE	LABEL	Potentiostatic EIS	Test &Identifier
DATE	LABEL	9/1/2020	Date
TIME	LABEL	21:22:52	Time
NOTES	NOTES	1	&Notes...
	
PSTAT	PSTAT	REF600-11020	Potentiostat
VDC	POTEN	0.00000E+000	T	DC &Voltage (V)
FREQINIT	QUANT	1.00000E+006	Initial Fre&q. (Hz)
FREQFINAL	QUANT	1.00000E+000	Final Fre&q. (Hz)
PTSPERDEC	QUANT	1.00000E+001	Points/&decade
VAC	QUANT	2.50000E+001	AC &Voltage (mV rms)
AREA	QUANT	4.00000E-005	&Area (cm^2)
CONDIT	TWOPARAM	F	5.00000E+000	0.00000E+000	Conditionin&g	Time(s)	E(V)
DELAY	TWOPARAM	F	3.00000E+000	0.00000E+000	Init. De&lay	Time(s)	Stab.(mV/s)
SPEED	SELECTOR	0	&Optimize for:
ZGUESS	QUANT	1.00000E+003	E&stimated Z (ohms)
OCVCURVE	TABLE	39
	Pt	T	Vf	Vm	Ach	Over
	#	s	V vs. Ref.	V	V	bits
	0	0.258333	1.18161E-001	1.18161E-001	5.80825E-004	...........
	1	0.516667	1.18161E-001	1.18175E-001	5.79558E-004	...........
	2	0.775	1.18163E-001	1.18185E-001	5.80258E-004	...........
	3	1.03333	1.18167E-001	1.18194E-001	5.80325E-004	...........
	4	1.29167	1.18174E-001	1.18207E-001	5.84525E-004	...........
	5	1.55	1.18184E-001	1.18216E-001	5.80758E-004	...........
	6	1.80833	1.18194E-001	1.18224E-001	5.75925E-004	...........
	7	2.06667	1.18205E-001	1.18234E-001	5.76858E-004	...........
	8	2.325	1.18215E-001	1.18242E-001	5.77492E-004	...........
	9	2.58333	1.18224E-001	1.18250E-001	5.81858E-004	...........
	10	2.84167	1.18233E-001	1.18253E-001	5.78158E-004	...........
	11	3.1	1.18241E-001	1.18261E-001	5.78425E-004	...........
	12	3.35833	1.18248E-001	1.18267E-001	5.78492E-004	...........
	13	3.61667	1.18254E-001	1.18273E-001	5.75358E-004	...........
	14	3.875	1.18260E-001	1.18276E-001	5.75558E-004	...........
	15	4.13333	1.18266E-001	1.18282E-001	5.79858E-004	...........
	16	4.39167	1.18271E-001	1.18287E-001	5.78658E-004	...........
	17	4.65	1.18277E-001	1.18290E-001	5.78992E-004	...........
	18	4.90833	1.18281E-001	1.18294E-001	5.78858E-004	...........
	19	5.16667	1.18286E-001	1.18294E-001	5.85625E-004	...........
	20	5.425	1.18290E-001	1.18297E-001	5.80592E-004	...........
	21	5.68333	1.18293E-001	1.18296E-001	5.81658E-004	...........
	22	5.94167	1.18295E-001	1.18295E-001	5.81725E-004	...........
	23	6.2	1.18296E-001	1.18294E-001	5.81325E-004	...........
	24	6.45833	1.18296E-001	1.18292E-001	5.78125E-004	...........
	25	6.71667	1.18295E-001	1.18290E-001	5.79392E-004	...........
	26	6.975	1.18294E-001	1.18291E-001	5.83792E-004	...........
	27	7.23333	1.18292E-001	1.18287E-001	5.82092E-004	...........
	28	7.49167	1.18291E-001	1.18284E-001	5.79892E-004	...........
	29	7.75	1.18289E-001	1.18280E-001	5.82392E-004	...........
	30	8.00833	1.18287E-001	1.18277E-001	5.84958E-004	...........
	31	8.26667	1.18284E-001	1.18271E-001	5.76525E-004	...........
	32	8.525	1.18280E-001	1.18265E-001	5.80592E-004	...........
	33	8.78333	1.18276E-001	1.18259E-001	5.74925E-004	...........
	34	9.04167	1.18271E-001	1.18250E-001	5.76325E-004	...........
	35	9.3	1.18265E-001	1.18244E-001	5.74492E-004	...........
	36	9.5583	1.18258E-001	1.18238E-001	5.77158E-004	...........
	37	9.8167	1.18251E-001	1.18230E-001	5.79625E-004	...........
	38	10.075	1.18245E-001	1.18227E-001	5.79492E-004	...........
EOC	QUANT	0.1182446	Open Circuit (V)
PSTATMODEL	IQUANT	4	Pstat Model
PSTATSECTION	LABEL	REF600-11020	Pstat Section
PSTATSERIALNO	LABEL	11020	Pstat Serial Number
CTRLMODE	IQUANT	1	Control Mode
IESTAB	IQUANT	0	I/E Stability
CASPEED	IQUANT	1	Control Amp Speed
CONVENTION	IQUANT	1	Current Convention
ICHRANGE	IQUANT	2	Ich Range
ICHRANGEMODE	TOGGLE	F	Ich Auto Range
ICHOFFSETENABLE	TOGGLE	T	Ich Offset Enable
ICHOFFSET	QUANT	0	Ich Offset (V)
ICHFILTER	IQUANT	3	Ich Filter
VCHRANGE	IQUANT	2	Vch Range
VCHRANGEMODE	TOGGLE	F	Vch Auto Range
VCHOFFSETENABLE	TOGGLE	T	Vch Offset Enable
VCHOFFSET	QUANT	0	Vch Offset (V)
VCHFILTER	IQUANT	3	Vch Filter
ACHRANGE	IQUANT	2	Ach Range
ACHOFFSETENABLE	TOGGLE	F	Ach Offset Enable
ACHOFFSET	QUANT	0	Ach Offset (V)
ACHFILTER	IQUANT	3	Ach Filter
IERANGELOWERLIMIT	IQUANT	1	I/E Range Lower Limit
IERANGEMODE	TOGGLE	F	I/E AutoRange
IERANGE	IQUANT	8	I/E Range
POSFEEDENABLE	TOGGLE	F	Positive Feedback IR Comp
POSFEEDRESISTANCE	QUANT	0	Positive Feedback Resistance (ohm)
ACHSELECT	IQUANT	0	Ach Select
CABLEID	IQUANT	14	Cable ID
DCCALDATE	LABEL	9/1/2020	DC Calibration Date
ACCALDATE	LABEL	9/1/2020	AC Calibration Date
THERMOSELECT	IQUANT	1	Thermo Select
FRAMEWORKVERSION	QUANT	6.33	Framework Version
INSTRUMENTVERSION	LABEL	3.50	Instrument Version
ZCURVE	TABLE
	Pt	Time	Freq	Zreal	Zimag	Zsig	Zmod	Zphz	Idc	Vdc	IERange
	#	s	Hz	ohm	ohm	V	ohm	°	A	V	#
	0	1	1000078	2147.978	-2371.281	1	3199.497	-47.82876	9.906908E-008	0.120301	8
	1	1	794390.6	2553.789	-2531.758	1	3596.059	-44.75179	7.868984E-008	0.1200032	8
	2	1	630984.4	2965.667	-2656.689	1	3981.605	-41.85446	9.378152E-008	0.1199052	8
	3	2	501234.4	3367.978	-2760.388	1	4354.655	-39.33798	7.21765E-008	0.1198117	8
	4	2	398109.4	3748.703	-2853.971	1	4711.467	-37.28283	7.727716E-008	0.1197579	8
	5	2	316265.6	4089.909	-2972.497	1	5055.996	-36.00921	8.777802E-008	0.1197454	8
	6	3	251203.1	4409.996	-3120.454	1	5402.341	-35.28271	7.498569E-008	0.1197545	8
	7	3	199546.9	4709.444	-3359.366	1	5784.825	-35.50123	6.969486E-008	0.1197404	8
	8	3	158578.1	4987.204	-3674.02	1	6194.402	-36.37868	3.756007E-008	0.1197626	8
	9	4	125953.1	5350.587	-4079.511	1	6728.388	-37.32341	2.973152E-009	0.1197446	7
	10	4	100078.1	5683.506	-4642.211	1	7338.417	-39.24149	4.674716E-009	0.1197207	7
	11	4	79453.13	6071.749	-5374.278	1	8108.576	-41.51296	3.851827E-009	0.1197103	7
	12	4	63140.62	6555.925	-6290.735	1	9085.896	-43.81743	4.836484E-009	0.1197093	7
	13	5	50203.12	7180.682	-7398.026	1	10309.85	-45.85412	5.271996E-009	0.1197085	7
	14	5	39890.62	8014.81	-8712.932	1	11838.6	-47.38982	4.888821E-009	0.1197024	7
	15	5	31640.63	9131.859	-10232.29	1	13714.61	-48.25251	4.74537E-009	0.1196996	7
	16	6	25171.88	10608.51	-11906.27	1	15946.78	-48.29891	4.250923E-009	0.1196925	7
	17	6	20015.62	12525.62	-13666.76	1	18538.38	-47.49466	4.723952E-009	0.1196969	7
	18	6	15890.62	14977.97	-15399.08	1	21481.88	-45.79423	4.710038E-009	0.1196978	7
	19	7	12609.37	18184.02	-16845.6	1	24787.76	-42.81189	9.338674E-010	0.1196911	6
	20	7	10078.13	21479.98	-17919.87	1	27973.4	-39.83685	9.641825E-010	0.1196956	6
	21	7	8015.625	25103.54	-18438.02	1	31147.21	-36.29649	8.568256E-010	0.1196859	6
	22	8	6328.125	28842.62	-18393.99	1	34208.71	-32.52715	8.216609E-010	0.1196909	6
	23	8	5015.625	32280.93	-17784.82	1	36855.91	-28.85208	1.172177E-009	0.1196934	6
	24	8	3984.375	35269.3	-16800.69	1	39066.44	-25.471	9.498073E-010	0.1196857	6
	25	9	3170.956	37790.11	-15765.92	1	40947	-22.64575	1.006845E-009	0.119687	6
	26	9	2527.573	39828	-14702.61	1	42455.11	-20.26175	9.312111E-010	0.1196861	6
	27	9	1976.103	41582.7	-13763.76	1	43801.39	-18.3144	8.705789E-010	0.119689	6
	28	9	1577.524	42854.73	-13168.46	1	44832.31	-17.08122	5.796055E-010	0.1196904	6
	29	10	1265.625	44080.86	-12958.77	1	45946.19	-16.38214	6.167949E-010	0.1196842	6
	30	10	998.264	45226.27	-13112.45	1	47088.76	-16.16846	8.81326E-010	0.1196838	6
	31	10	796.875	46256.25	-13588.75	1	48210.93	-16.37126	8.136968E-010	0.1196862	6
	32	11	627.7902	47377.6	-14551.57	1	49561.93	-17.07383	6.58555E-010	0.1196836	6
	33	11	505.5147	48511.71	-15808.3	1	51022.43	-18.04901	5.567891E-010	0.1196783	6
	34	11	397.9953	49902.61	-17665.67	1	52937.2	-19.49412	7.599372E-010	0.1197045	6
	35	12	315.5048	51323.45	-19974.55	1	55073.39	-21.26546	6.654423E-010	0.1197018	6
	36	12	252.4038	52929.55	-22722.63	1	57600.83	-23.23382	6.319236E-010	0.1196995	6
	37	12	198.6229	54952.55	-26327.91	1	60933.91	-25.59921	6.813412E-010	0.119703	6
	38	13	158.3615	57264.61	-30430.49	1	64847.9	-27.98624	6.871621E-010	0.1196984	6
	39	13	125.558	59886.9	-35446.69	1	69591.01	-30.62103	6.168568E-010	0.1196991	6
	40	13	100.4464	62957.49	-41156.5	1	75216.38	-33.1734	5.858102E-010	0.1196991	6
	41	14	79.00281	66998.55	-48446.41	1	82679.27	-35.87056	5.01696E-010	0.119705	6
	42	14	63.3446	71309.56	-56348.13	1	90885.45	-38.31545	6.195934E-010	0.1196975	6
	43	14	49.86702	76863.06	-66310.48	1	101513.6	-40.78465	2.279778E-010	0.1196912	5
	44	15	39.72458	83207.13	-77565.41	1	113753.3	-42.99024	8.553201E-011	0.1196967	5
	45	15	31.6723	90806.44	-90646.96	1	128307	-44.94964	-1.336439E-010	0.1196906	5
	46	15	24.93351	100712.1	-106684.1	1	146712	-46.6494	5.002532E-010	0.1196894	5
	47	16	19.86229	112081.2	-124332.1	1	167393.8	-47.9664	7.087452E-010	0.119691	5
	48	16	15.83615	125839.3	-144557.1	1	191656.7	-48.9599	3.34122E-010	0.1196879	5
	49	16	12.40079	144286.8	-169149	1	222328.8	-49.53529	1.178684E-009	0.1196852	5
	50	16	9.93114	164289.9	-194451.9	1	254563.8	-49.80595	9.030884E-010	0.1196937	5
	51	17	7.944915	188707.9	-221953.4	1	291331.4	-49.62834	-6.236641E-010	0.1196912	5
	52	17	6.317385	218942.2	-252992.4	1	334575.6	-49.12675	4.773865E-010	0.1196731	5
	53	18	5.008013	254980.4	-286462.9	1	383504.8	-48.32775	6.585609E-010	0.1196862	5
	54	19	3.945707	297549.3	-321324.1	1	437932.4	-47.2	3.440207E-011	0.1196785	5
	55	20	3.158693	343187.2	-355167.5	1	493884	-45.98281	5.022308E-010	0.1196836	5
	56	21	2.504006	394668.9	-390074.4	1	554906.9	-44.66455	3.212016E-010	0.1196876	5
	57	22	1.998082	449004.8	-425210.7	1	618392.6	-43.44092	2.727997E-011	0.1196415	5
	58	24	1.584686	506187.5	-462426.8	1	685612.4	-42.41322	1.232632E-010	0.1196805	5
	59	26	1.266892	565665.5	-499733.3	1	754791.9	-41.45877	2.502818E-010	0.119712	5
	60	28	0.999041	632078.2	-544778.8	1	834450	-40.75756	3.425349E-010	0.1197164	5
