EXPLAIN
TAG	EISPOT
TITLE	LABEL	Potentiostatic EIS	Test &Identifier
DATE	LABEL	3/12/2020	Date
TIME	LABEL	14:06:53	Time
NOTES	NOTES	1	&Notes...
	
PSTAT	PSTAT	REF600-11020	Potentiostat
VDC	POTEN	0.00000E+000	T	DC &Voltage (V)
FREQINIT	QUANT	1.00000E+006	Initial Fre&q. (Hz)
FREQFINAL	QUANT	1.00000E+000	Final Fre&q. (Hz)
PTSPERDEC	QUANT	1.00000E+001	Points/&decade
VAC	QUANT	2.50000E+001	AC &Voltage (mV rms)
AREA	QUANT	2.50000E-001	&Area (cm^2)
CONDIT	TWOPARAM	F	5.00000E+000	0.00000E+000	Conditionin&g	Time(s)	E(V)
DELAY	TWOPARAM	T	5.00000E+000	0.00000E+000	Init. De&lay	Time(s)	Stab.(mV/s)
SPEED	SELECTOR	1	&Optimize for:
ZGUESS	QUANT	5.00000E+003	E&stimated Z (ohms)
OCVCURVE	TABLE	19
	Pt	T	Vf	Vm	Ach	Over
	#	s	V vs. Ref.	V	V	bits
	0	0.258333	1.25834E-002	1.25834E-002	5.71430E-004	...........
	1	0.516667	1.25824E-002	1.25313E-002	5.73063E-004	...........
	2	0.775	1.25767E-002	1.25040E-002	5.68330E-004	...........
	3	1.03333	1.25626E-002	1.25068E-002	5.70330E-004	...........
	4	1.29167	1.25468E-002	1.27362E-002	5.73830E-004	...........
	5	1.55	1.25514E-002	1.27624E-002	5.71430E-004	...........
	6	1.80833	1.25926E-002	1.27474E-002	5.68897E-004	...........
	7	2.06667	1.26568E-002	1.28103E-002	5.72430E-004	...........
	8	2.325	1.27190E-002	1.29073E-002	5.69297E-004	...........
	9	2.58333	1.27694E-002	1.27538E-002	5.69130E-004	...........
	10	2.84167	1.28025E-002	1.27137E-002	5.72797E-004	...........
	11	3.1	1.28080E-002	1.27833E-002	5.70130E-004	...........
	12	3.35833	1.27920E-002	1.28205E-002	5.71597E-004	...........
	13	3.61667	1.27783E-002	1.27863E-002	5.65397E-004	...........
	14	3.875	1.27744E-002	1.25567E-002	5.62730E-004	...........
	15	4.13333	1.27612E-002	1.26974E-002	5.67230E-004	...........
	16	4.39167	1.27271E-002	1.26286E-002	5.66030E-004	...........
	17	4.65	1.26874E-002	1.26261E-002	5.72997E-004	...........
	18	4.90833	1.26609E-002	1.27642E-002	5.71163E-004	...........
EOC	QUANT	0.0126609	Open Circuit (V)
PSTATMODEL	IQUANT	4	Pstat Model
PSTATSECTION	LABEL	REF600-11020	Pstat Section
PSTATSERIALNO	LABEL	11020	Pstat Serial Number
CTRLMODE	IQUANT	1	Control Mode
IESTAB	IQUANT	0	I/E Stability
CASPEED	IQUANT	1	Control Amp Speed
CONVENTION	IQUANT	1	Current Convention
ICHRANGE	IQUANT	2	Ich Range
ICHRANGEMODE	TOGGLE	F	Ich Auto Range
ICHOFFSETENABLE	TOGGLE	T	Ich Offset Enable
ICHOFFSET	QUANT	0	Ich Offset (V)
ICHFILTER	IQUANT	3	Ich Filter
VCHRANGE	IQUANT	2	Vch Range
VCHRANGEMODE	TOGGLE	F	Vch Auto Range
VCHOFFSETENABLE	TOGGLE	T	Vch Offset Enable
VCHOFFSET	QUANT	0	Vch Offset (V)
VCHFILTER	IQUANT	3	Vch Filter
ACHRANGE	IQUANT	2	Ach Range
ACHOFFSETENABLE	TOGGLE	F	Ach Offset Enable
ACHOFFSET	QUANT	0	Ach Offset (V)
ACHFILTER	IQUANT	3	Ach Filter
IERANGELOWERLIMIT	IQUANT	1	I/E Range Lower Limit
IERANGEMODE	TOGGLE	F	I/E AutoRange
IERANGE	IQUANT	6	I/E Range
POSFEEDENABLE	TOGGLE	F	Positive Feedback IR Comp
POSFEEDRESISTANCE	QUANT	0	Positive Feedback Resistance (ohm)
ACHSELECT	IQUANT	0	Ach Select
CABLEID	IQUANT	14	Cable ID
DCCALDATE	LABEL	2/27/2020	DC Calibration Date
ACCALDATE	LABEL	2/27/2020	AC Calibration Date
THERMOSELECT	IQUANT	1	Thermo Select
FRAMEWORKVERSION	QUANT	6.33	Framework Version
INSTRUMENTVERSION	LABEL	3.50	Instrument Version
ZCURVE	TABLE
	Pt	Time	Freq	Zreal	Zimag	Zsig	Zmod	Zphz	Idc	Vdc	IERange
	#	s	Hz	ohm	ohm	V	ohm	°	A	V	#
	0	1	1000078	1782.873	-2175.307	1	2812.578	-50.66208	3.541737E-007	0.0149029	8
	1	3	794390.6	2171.625	-2385.382	1	3225.834	-47.68562	-1.705282E-006	0.0149964	8
	2	4	630984.4	2576.272	-2547.616	1	3623.193	-44.67957	1.476769E-006	0.0144067	8
	3	6	501234.4	3044.515	-2678.006	1	4054.724	-41.3354	3.079417E-006	0.01386	8
	4	7	398109.4	3522.446	-2763.246	1	4476.958	-38.11305	-1.683345E-006	0.0147999	8
	5	8	316265.6	4001.465	-2812.615	1	4891.065	-35.10324	9.929746E-007	0.0143544	8
	6	10	251203.1	4484.877	-2844.04	1	5310.621	-32.38042	1.902667E-006	0.014173	8
	7	11	199546.9	4984.146	-2824.316	1	5728.741	-29.53849	1.623419E-007	0.0143212	8
	8	12	158578.1	5448.716	-2802.573	1	6127.228	-27.21924	-1.248263E-006	0.0145537	8
	9	14	125953.1	5959.611	-2658.213	1	6525.569	-24.03869	1.36169E-007	0.0140274	7
	10	15	100078.1	6382.649	-2545.423	1	6871.491	-21.74229	-2.963158E-008	0.01437	7
	11	17	79453.13	6806.48	-2415.16	1	7222.269	-19.53634	1.153325E-008	0.0143438	7
	12	18	63140.62	7185.855	-2254.451	1	7531.207	-17.41845	1.309659E-008	0.0143368	7
	13	19	50203.12	7513.322	-2074.527	1	7794.464	-15.43553	-1.061882E-008	0.0143079	7
	14	21	39890.62	7800.036	-1899.111	1	8027.9	-13.68383	1.372996E-008	0.014331	7
	15	22	31640.63	8038.012	-1732.569	1	8222.617	-12.16383	-1.869118E-008	0.0143211	7
	16	23	25171.88	8235.362	-1585.927	1	8386.678	-10.90031	2.130521E-008	0.0142727	7
	17	25	20015.62	8394.87	-1467.603	1	8522.188	-9.91632	-1.848989E-008	0.0143439	7
	18	26	15890.62	8536.852	-1379.089	1	8647.526	-9.176589	5.512512E-008	0.0142516	7
	19	27	12609.37	8651.882	-1325.41	1	8752.815	-8.709614	3.327602E-009	0.0143117	7
	20	29	10078.13	8767.358	-1265.674	1	8858.245	-8.214583	-4.847518E-009	0.0143909	6
	21	30	8015.625	8856.525	-1296.537	1	8950.925	-8.328566	-2.244687E-009	0.014414	6
	22	32	6328.125	8941.778	-1372.446	1	9046.491	-8.726052	4.428517E-009	0.0143328	6
	23	33	5015.625	9026.922	-1495.392	1	9149.946	-9.406145	2.157449E-009	0.0143842	6
	24	34	3984.375	9111.531	-1671.171	1	9263.521	-10.39326	2.663758E-009	0.0143842	6
	25	36	3170.956	9202.646	-1906.245	1	9398.004	-11.7028	-1.37113E-009	0.0143459	6
	26	37	2527.573	9297.591	-2211.08	1	9556.89	-13.37715	-1.209539E-009	0.0143516	6
	27	38	1976.103	9414.331	-2634.746	1	9776.07	-15.6351	-5.772836E-010	0.014339	6
	28	40	1577.524	9536.63	-3126.803	1	10036.15	-18.15291	4.020345E-009	0.014335	6
	29	41	1265.625	9680.89	-3722.945	1	10372.07	-21.03507	4.266469E-009	0.014335	6
	30	42	998.264	9867.27	-4518.591	1	10852.68	-24.60482	-4.232192E-009	0.0144414	6
	31	44	796.875	10077.56	-5452.265	1	11457.94	-28.41473	-1.260332E-009	0.0143635	6
	32	45	627.7902	10352.31	-6666.917	1	12313.33	-32.78165	-6.18817E-009	0.0144506	6
	33	47	505.5147	10660.1	-8020.386	1	13340.33	-36.95686	-1.055936E-009	0.0143947	6
	34	48	397.9953	11074.38	-9840	1	14814.44	-41.62229	6.41862E-010	0.0143753	6
	35	49	315.5048	11582.93	-12014.19	1	16688.47	-46.04701	7.762202E-010	0.0143776	6
	36	51	252.4038	12195.9	-14560.24	1	18993.17	-50.04988	8.325615E-010	0.0143798	6
	37	52	198.6229	13025.18	-17897.5	1	22135.4	-53.95416	7.009081E-010	0.014376	6
	38	53	158.3615	14030.47	-21750.76	1	25883.39	-57.17569	2.374702E-010	0.0143693	6
	39	55	125.558	15342.64	-26557.38	1	30670.68	-59.98425	7.224665E-010	0.0143789	6
	40	56	100.4464	17000.19	-32146.04	1	36364.47	-62.12822	4.546958E-010	0.0143688	6
	41	57	79.00281	19298.82	-39480.83	1	43945.2	-63.94992	6.94414E-010	0.0143662	6
	42	59	63.3446	22065.41	-47838.74	1	52682.32	-65.23869	5.287081E-010	0.0143671	6
	43	60	49.86702	25804.62	-57834.47	1	63330.13	-65.9545	2.789841E-010	0.0143728	6
	44	62	39.72458	30850.46	-69813.95	1	76326.52	-66.15959	7.433947E-010	0.0143728	6
	45	63	31.6723	37580.68	-83590.11	1	91649.41	-65.79213	5.582517E-010	0.0143663	6
	46	64	24.93351	46422.73	-100600.3	1	110794.8	-65.22871	3.014081E-010	0.0143717	5
	47	66	19.86229	57489.17	-119071	1	132222.9	-64.22808	6.126122E-010	0.0143685	5
	48	67	15.83615	71668.23	-138944.9	1	156339.5	-62.71517	6.197189E-010	0.0143726	5
	49	69	12.40079	90050.13	-164719.7	1	187727.5	-61.33515	5.368641E-010	0.0143764	5
	50	70	9.93114	111421.1	-187421.3	1	218039.9	-59.2687	-7.599772E-011	0.0143811	5
	51	72	7.944915	135591.7	-212348.9	1	251946.7	-57.44043	7.474027E-010	0.0143827	5
	52	73	6.317385	163363.4	-239652.4	1	290036	-55.71898	-1.948149E-010	0.0143911	5
	53	75	5.008013	194947.4	-268759.2	1	332018.1	-54.04434	5.964704E-012	0.0143715	5
	54	78	3.945707	229668.2	-300330.5	1	378081.8	-52.5942	5.202735E-010	0.0143863	5
	55	81	3.158693	264623.6	-333613.4	1	425821	-51.57839	-8.223625E-011	0.014369	5
	56	84	2.504006	302783.1	-372340.4	1	479911.4	-50.88238	5.820897E-010	0.0143814	5
	57	87	1.998082	342222.1	-415260	1	538104.8	-50.50755	3.166542E-010	0.0144126	5
	58	90	1.584686	384328	-465952.8	1	604003.3	-50.48344	2.229177E-010	0.0143418	5
	59	93	1.266892	428115.9	-526385.4	1	678501.9	-50.87811	3.109583E-010	0.0143975	5
	60	98	0.999041	479392.7	-602709.3	1	770114.2	-51.50139	-8.234715E-011	0.0143434	5
