EXPLAIN
TAG	EISPOT
TITLE	LABEL	Potentiostatic EIS	Test &Identifier
DATE	LABEL	1/21/2020	Date
TIME	LABEL	16:40:54	Time
NOTES	NOTES	6	&Notes...
	
	
	
	
	
	
PSTAT	PSTAT	REF600-11020	Potentiostat
VDC	POTEN	0.00000E+000	T	DC &Voltage (V)
FREQINIT	QUANT	1.00000E+006	Initial Fre&q. (Hz)
FREQFINAL	QUANT	1.00000E+000	Final Fre&q. (Hz)
PTSPERDEC	QUANT	1.00000E+001	Points/&decade
VAC	QUANT	2.50000E+001	AC &Voltage (mV rms)
AREA	QUANT	1.00000E-001	&Area (cm^2)
CONDIT	TWOPARAM	F	5.00000E+000	0.00000E+000	Conditionin&g	Time(s)	E(V)
DELAY	TWOPARAM	F	5.00000E+000	0.00000E+000	Init. De&lay	Time(s)	Stab.(mV/s)
SPEED	SELECTOR	0	&Optimize for:
ZGUESS	QUANT	5.00000E+002	E&stimated Z (ohms)
OCVCURVE	TABLE	39
	Pt	T	Vf	Vm	Ach	Over
	#	s	V vs. Ref.	V	V	bits
	0	0.258333	-1.32257E-001	-1.32257E-001	6.68779E-004	...........
	1	0.516667	-1.32257E-001	-1.32260E-001	6.66113E-004	...........
	2	0.775	-1.32258E-001	-1.32284E-001	6.70046E-004	...........
	3	1.03333	-1.32262E-001	-1.32311E-001	6.68079E-004	...........
	4	1.29167	-1.32271E-001	-1.32334E-001	6.59646E-004	...........
	5	1.55	-1.32286E-001	-1.32314E-001	6.65913E-004	...........
	6	1.80833	-1.32303E-001	-1.32356E-001	6.68779E-004	...........
	7	2.06667	-1.32317E-001	-1.32298E-001	6.63379E-004	...........
	8	2.325	-1.32325E-001	-1.32289E-001	6.65179E-004	...........
	9	2.58333	-1.32326E-001	-1.32475E-001	6.65779E-004	...........
	10	2.84167	-1.32336E-001	-1.32585E-001	6.63846E-004	...........
	11	3.1	-1.32377E-001	-1.32589E-001	6.69046E-004	...........
	12	3.35833	-1.32445E-001	-1.32586E-001	6.62046E-004	...........
	13	3.61667	-1.32515E-001	-1.32587E-001	6.65079E-004	...........
	14	3.875	-1.32561E-001	-1.32540E-001	6.60613E-004	...........
	15	4.13333	-1.32571E-001	-1.32182E-001	6.63413E-004	...........
	16	4.39167	-1.32534E-001	-1.32339E-001	6.65846E-004	...........
	17	4.65	-1.32460E-001	-1.32423E-001	6.59179E-004	...........
	18	4.90833	-1.32392E-001	-1.32474E-001	6.67913E-004	...........
	19	5.16667	-1.32374E-001	-1.32517E-001	6.69579E-004	...........
	20	5.425	-1.32400E-001	-1.32429E-001	6.67679E-004	...........
	21	5.68333	-1.32434E-001	-1.32304E-001	6.64079E-004	...........
	22	5.94167	-1.32441E-001	-1.32297E-001	6.67413E-004	...........
	23	6.2	-1.32410E-001	-1.32303E-001	6.65246E-004	...........
	24	6.45833	-1.32366E-001	-1.32383E-001	6.61879E-004	...........
	25	6.71667	-1.32336E-001	-1.32393E-001	6.66346E-004	...........
	26	6.975	-1.32336E-001	-1.32420E-001	6.67879E-004	...........
	27	7.23333	-1.32357E-001	-1.32420E-001	6.65813E-004	...........
	28	7.49167	-1.32384E-001	-1.32475E-001	6.64779E-004	...........
	29	7.75	-1.32410E-001	-1.32478E-001	6.60613E-004	...........
	30	8.00833	-1.32435E-001	-1.32496E-001	6.54646E-004	...........
	31	8.26667	-1.32457E-001	-1.32512E-001	6.64413E-004	...........
	32	8.525	-1.32477E-001	-1.32532E-001	6.64513E-004	...........
	33	8.78333	-1.32495E-001	-1.32545E-001	6.69279E-004	...........
	34	9.04167	-1.32512E-001	-1.32562E-001	6.64279E-004	...........
	35	9.3	-1.32528E-001	-1.32573E-001	6.65113E-004	...........
	36	9.5583	-1.32543E-001	-1.32530E-001	6.68779E-004	...........
	37	9.8167	-1.32552E-001	-1.32568E-001	6.63013E-004	...........
	38	10.075	-1.32556E-001	-1.32589E-001	6.63679E-004	...........
EOC	QUANT	-0.1325564	Open Circuit (V)
PSTATMODEL	IQUANT	4	Pstat Model
PSTATSECTION	LABEL	REF600-11020	Pstat Section
PSTATSERIALNO	LABEL	11020	Pstat Serial Number
CTRLMODE	IQUANT	1	Control Mode
IESTAB	IQUANT	0	I/E Stability
CASPEED	IQUANT	1	Control Amp Speed
CONVENTION	IQUANT	1	Current Convention
ICHRANGE	IQUANT	2	Ich Range
ICHRANGEMODE	TOGGLE	F	Ich Auto Range
ICHOFFSETENABLE	TOGGLE	T	Ich Offset Enable
ICHOFFSET	QUANT	0	Ich Offset (V)
ICHFILTER	IQUANT	3	Ich Filter
VCHRANGE	IQUANT	2	Vch Range
VCHRANGEMODE	TOGGLE	F	Vch Auto Range
VCHOFFSETENABLE	TOGGLE	T	Vch Offset Enable
VCHOFFSET	QUANT	0	Vch Offset (V)
VCHFILTER	IQUANT	3	Vch Filter
ACHRANGE	IQUANT	2	Ach Range
ACHOFFSETENABLE	TOGGLE	F	Ach Offset Enable
ACHOFFSET	QUANT	0	Ach Offset (V)
ACHFILTER	IQUANT	3	Ach Filter
IERANGELOWERLIMIT	IQUANT	1	I/E Range Lower Limit
IERANGEMODE	TOGGLE	F	I/E AutoRange
IERANGE	IQUANT	8	I/E Range
POSFEEDENABLE	TOGGLE	F	Positive Feedback IR Comp
POSFEEDRESISTANCE	QUANT	0	Positive Feedback Resistance (ohm)
ACHSELECT	IQUANT	0	Ach Select
CABLEID	IQUANT	14	Cable ID
DCCALDATE	LABEL	12/22/2019	DC Calibration Date
ACCALDATE	LABEL	12/22/2019	AC Calibration Date
THERMOSELECT	IQUANT	1	Thermo Select
FRAMEWORKVERSION	QUANT	6.33	Framework Version
INSTRUMENTVERSION	LABEL	3.50	Instrument Version
ZCURVE	TABLE
	Pt	Time	Freq	Zreal	Zimag	Zsig	Zmod	Zphz	Idc	Vdc	IERange
	#	s	Hz	ohm	ohm	V	ohm	°	A	V	#
	0	1	1000078	2109.976	-1812.861	1	2781.81	-40.6687	2.331484E-006	-0.1307113	8
	1	1	794390.6	2443.763	-1826.955	1	3051.187	-36.78175	3.391201E-006	-0.1313462	8
	2	1	630984.4	2818.521	-1808.87	1	3349.041	-32.69152	4.142228E-006	-0.131556	8
	3	2	501234.4	3139.524	-1736.413	1	3587.72	-28.94617	1.494979E-006	-0.131197	8
	4	2	398109.4	3450.919	-1634.703	1	3818.52	-25.34695	1.551568E-006	-0.1313013	8
	5	2	316265.6	3737.069	-1504.395	1	4028.51	-21.92774	1.872314E-006	-0.1312488	8
	6	3	251203.1	3954.392	-1364.229	1	4183.102	-19.03397	3.179224E-006	-0.1314737	8
	7	3	199546.9	4140.585	-1225.773	1	4318.213	-16.49079	5.249156E-007	-0.131012	8
	8	3	158578.1	4316.434	-1076.367	1	4448.614	-14.00198	1.554726E-006	-0.1311768	8
	9	4	125953.1	4436.113	-912.9952	1	4529.09	-11.62964	5.493013E-007	-0.1324184	7
	10	4	100078.1	4527.221	-815.0743	1	4600.008	-10.20611	-1.674385E-009	-0.1308782	7
	11	4	79453.13	4607.029	-736.3556	1	4665.505	-9.080952	1.080655E-007	-0.1310705	7
	12	4	63140.62	4671.7	-675.2145	1	4720.243	-8.224174	-2.035378E-009	-0.1308914	7
	13	5	50203.12	4727.712	-630.6425	1	4769.588	-7.597989	-1.433237E-008	-0.1308062	7
	14	5	39890.62	4777.569	-604.1444	1	4815.616	-7.207048	-4.489435E-008	-0.1308294	7
	15	5	31640.63	4825.152	-594.8774	1	4861.684	-7.028346	-4.548662E-008	-0.130829	7
	16	6	25171.88	4871.368	-603.4503	1	4908.603	-7.061652	-1.451989E-008	-0.1308095	7
	17	6	20015.62	4916.983	-628.6419	1	4957.007	-7.285804	-2.22225E-008	-0.1309236	7
	18	6	15890.62	4966.576	-671.8891	1	5011.817	-7.704324	-8.59094E-009	-0.1308959	7
	19	7	12609.37	5018.636	-733.0413	1	5071.889	-8.310077	6.155297E-008	-0.13103	7
	20	7	10078.13	5073.417	-811.8511	1	5137.962	-9.091428	-2.907968E-008	-0.1308921	7
	21	7	8015.625	5130.747	-917.7362	1	5212.178	-10.14124	-5.283136E-008	-0.1308478	7
	22	8	6328.125	5201.34	-1052.843	1	5306.828	-11.44307	-4.405515E-008	-0.1308336	7
	23	8	5015.625	5276.218	-1218.734	1	5415.145	-13.00642	-1.598416E-008	-0.1309341	7
	24	8	3984.375	5356.733	-1422.967	1	5542.511	-14.87653	-2.875151E-008	-0.1308943	7
	25	9	3170.956	5448.367	-1671.58	1	5699.025	-17.05622	-1.603571E-008	-0.1309334	7
	26	9	2527.573	5551.378	-1975.662	1	5892.456	-19.58998	1.087375E-007	-0.1310873	7
	27	9	1976.103	5677.689	-2376.375	1	6154.942	-22.71156	-4.5402E-009	-0.1308943	7
	28	10	1577.524	5814.223	-2836.218	1	6469.105	-26.00344	-3.824157E-009	-0.130977	7
	29	10	1265.625	5973.949	-3368.34	1	6858.118	-29.41596	-4.345206E-008	-0.1308428	7
	30	10	998.264	6175.026	-4070.238	1	7395.795	-33.39067	3.228268E-008	-0.1309603	7
	31	10	796.875	6394.463	-4884.297	1	8046.46	-37.37376	-3.493449E-008	-0.1309066	7
	32	11	627.7902	6676.937	-5935.806	1	8933.939	-41.63714	3.377056E-008	-0.1310405	7
	33	11	505.5147	6981.937	-7095.692	1	9954.71	-45.46297	2.344383E-011	-0.1308482	6
	34	11	397.9953	7389.104	-8654.871	1	11380.05	-49.51093	9.18556E-010	-0.130921	6
	35	12	315.5048	7865.897	-10504.94	1	13123.49	-53.17483	1.073106E-009	-0.1309212	6
	36	12	252.4038	8421.086	-12662.53	1	15207.05	-56.37451	1.102368E-009	-0.1309256	6
	37	12	198.6229	9148.486	-15486.88	1	17987.17	-59.4286	4.171247E-010	-0.1309213	6
	38	13	158.3615	9991.66	-18738.76	1	21236.15	-61.93309	3.472861E-010	-0.1309285	6
	39	13	125.558	11062.77	-22787.39	1	25330.81	-64.10446	7.723646E-010	-0.1309235	6
	40	13	100.4464	12302.73	-27513.73	1	30139.05	-65.90826	8.368622E-010	-0.1309247	6
	41	14	79.00281	13956.57	-33639.71	1	36420	-67.46724	1.002176E-009	-0.1309267	6
	42	14	63.3446	16260.91	-40608.46	1	43743.16	-68.17728	3.735047E-010	-0.1309308	6
	43	14	49.86702	18700.58	-49714.56	1	53115.43	-69.38576	2.89208E-010	-0.1309311	6
	44	15	39.72458	21691.91	-59984.57	1	63786.26	-70.11875	4.86108E-010	-0.1309259	6
	45	15	31.6723	25500.93	-72430.73	1	76788.72	-70.60419	5.952989E-010	-0.1309282	6
	46	15	24.93351	30872.49	-88577.87	1	93803.78	-70.78477	1.370657E-010	-0.1309289	6
	47	16	19.86229	37430.36	-106956.2	1	113316.6	-70.71201	-8.539153E-010	-0.1309297	5
	48	16	15.83615	45666.27	-130109.1	1	137890.5	-70.65971	1.530388E-009	-0.1309309	5
	49	16	12.40079	58035.29	-156816.6	1	167211.1	-69.69131	-4.758847E-010	-0.1309305	5
	50	17	9.93114	73102.16	-186496.6	1	200312	-68.59602	-4.855565E-011	-0.1309243	5
	51	17	7.944915	92062.27	-221089.4	1	239491.1	-67.39302	5.452293E-010	-0.1309302	5
	52	18	6.317385	116358.7	-261537.5	1	286253.8	-66.01559	6.093981E-010	-0.1309375	5
	53	19	5.008013	148425.4	-307874.3	1	341784.6	-64.26141	3.498805E-010	-0.130927	5
	54	20	3.945707	188796.8	-359537.1	1	406092.5	-62.29555	1.618262E-010	-0.130925	5
	55	21	3.158693	235161.1	-411982.1	1	474373.3	-60.2821	-8.229535E-011	-0.1309399	5
	56	23	2.504006	292429.5	-469189.3	1	552859.4	-58.06614	1.382148E-010	-0.1309428	5
	57	24	1.998082	355000.9	-527790.1	1	636072.4	-56.07453	2.359673E-010	-0.1309145	5
	58	26	1.584686	427584.3	-588383.6	1	727340.1	-53.99372	7.644442E-011	-0.1309577	5
	59	28	1.266892	506038.3	-651825.2	1	825197.4	-52.17636	-3.066575E-013	-0.1309792	5
	60	30	0.999041	594424.8	-724419.2	1	937082.7	-50.62928	-5.564937E-011	-0.1309702	5
