EXPLAIN
TAG	EISPOT
TITLE	LABEL	Potentiostatic EIS	Test &Identifier
DATE	LABEL	1/21/2020	Date
TIME	LABEL	16:28:59	Time
NOTES	NOTES	6	&Notes...
	
	
	
	
	
	
PSTAT	PSTAT	REF600-11020	Potentiostat
VDC	POTEN	0.00000E+000	T	DC &Voltage (V)
FREQINIT	QUANT	1.00000E+006	Initial Fre&q. (Hz)
FREQFINAL	QUANT	1.00000E+000	Final Fre&q. (Hz)
PTSPERDEC	QUANT	1.00000E+001	Points/&decade
VAC	QUANT	2.50000E+001	AC &Voltage (mV rms)
AREA	QUANT	1.00000E-001	&Area (cm^2)
CONDIT	TWOPARAM	F	5.00000E+000	0.00000E+000	Conditionin&g	Time(s)	E(V)
DELAY	TWOPARAM	F	5.00000E+000	0.00000E+000	Init. De&lay	Time(s)	Stab.(mV/s)
SPEED	SELECTOR	0	&Optimize for:
ZGUESS	QUANT	5.00000E+002	E&stimated Z (ohms)
OCVCURVE	TABLE	39
	Pt	T	Vf	Vm	Ach	Over
	#	s	V vs. Ref.	V	V	bits
	0	0.258333	-4.89671E-002	-4.89671E-002	5.94180E-004	...........
	1	0.516667	-4.89693E-002	-4.90808E-002	6.01747E-004	...........
	2	0.775	-4.89815E-002	-4.91308E-002	5.98647E-004	...........
	3	1.03333	-4.90123E-002	-4.91721E-002	5.94014E-004	...........
	4	1.29167	-4.90599E-002	-4.92191E-002	5.91947E-004	...........
	5	1.55	-4.91143E-002	-4.92888E-002	6.03914E-004	...........
	6	1.80833	-4.91692E-002	-4.93450E-002	6.03047E-004	...........
	7	2.06667	-4.92239E-002	-4.93654E-002	5.92614E-004	...........
	8	2.325	-4.92756E-002	-4.93392E-002	5.91914E-004	...........
	9	2.58333	-4.93162E-002	-4.93508E-002	6.01747E-004	...........
	10	2.84167	-4.93397E-002	-4.93438E-002	5.98914E-004	...........
	11	3.1	-4.93501E-002	-4.94304E-002	5.97614E-004	...........
	12	3.35833	-4.93621E-002	-4.95808E-002	6.01080E-004	...........
	13	3.61667	-4.93944E-002	-4.95961E-002	5.98980E-004	...........
	14	3.875	-4.94523E-002	-4.96475E-002	5.94414E-004	...........
	15	4.13333	-4.95216E-002	-4.96848E-002	5.97414E-004	...........
	16	4.39167	-4.95856E-002	-4.97312E-002	6.04247E-004	...........
	17	4.65	-4.96388E-002	-4.97618E-002	6.03480E-004	...........
	18	4.90833	-4.96835E-002	-4.97937E-002	5.97080E-004	...........
	19	5.16667	-4.97227E-002	-4.98238E-002	5.96347E-004	...........
	20	5.425	-4.97581E-002	-4.98596E-002	6.03247E-004	...........
	21	5.68333	-4.97910E-002	-4.98808E-002	5.99914E-004	...........
	22	5.94167	-4.98222E-002	-4.99008E-002	5.92047E-004	...........
	23	6.2	-4.98510E-002	-4.99251E-002	5.91047E-004	...........
	24	6.45833	-4.98769E-002	-4.99492E-002	6.02280E-004	...........
	25	6.71667	-4.99008E-002	-4.99717E-002	6.03080E-004	...........
	26	6.975	-4.99239E-002	-4.99953E-002	5.97647E-004	...........
	27	7.23333	-4.99470E-002	-5.00182E-002	5.99214E-004	...........
	28	7.49167	-4.99702E-002	-5.00427E-002	6.03214E-004	...........
	29	7.75	-4.99935E-002	-5.00661E-002	5.95714E-004	...........
	30	8.00833	-5.00168E-002	-5.00848E-002	5.94880E-004	...........
	31	8.26667	-5.00399E-002	-5.01056E-002	6.00280E-004	...........
	32	8.525	-5.00620E-002	-5.01199E-002	6.01080E-004	...........
	33	8.78333	-5.00827E-002	-5.01406E-002	5.97547E-004	...........
	34	9.04167	-5.01020E-002	-5.01587E-002	5.90480E-004	...........
	35	9.3	-5.01205E-002	-5.01769E-002	5.99547E-004	...........
	36	9.5583	-5.01388E-002	-5.01923E-002	6.02314E-004	...........
	37	9.8167	-5.01568E-002	-5.02113E-002	6.02214E-004	...........
	38	10.075	-5.01745E-002	-5.02235E-002	6.00980E-004	...........
EOC	QUANT	-0.0501745	Open Circuit (V)
PSTATMODEL	IQUANT	4	Pstat Model
PSTATSECTION	LABEL	REF600-11020	Pstat Section
PSTATSERIALNO	LABEL	11020	Pstat Serial Number
CTRLMODE	IQUANT	1	Control Mode
IESTAB	IQUANT	0	I/E Stability
CASPEED	IQUANT	1	Control Amp Speed
CONVENTION	IQUANT	1	Current Convention
ICHRANGE	IQUANT	2	Ich Range
ICHRANGEMODE	TOGGLE	F	Ich Auto Range
ICHOFFSETENABLE	TOGGLE	T	Ich Offset Enable
ICHOFFSET	QUANT	0	Ich Offset (V)
ICHFILTER	IQUANT	3	Ich Filter
VCHRANGE	IQUANT	2	Vch Range
VCHRANGEMODE	TOGGLE	F	Vch Auto Range
VCHOFFSETENABLE	TOGGLE	T	Vch Offset Enable
VCHOFFSET	QUANT	0	Vch Offset (V)
VCHFILTER	IQUANT	3	Vch Filter
ACHRANGE	IQUANT	2	Ach Range
ACHOFFSETENABLE	TOGGLE	F	Ach Offset Enable
ACHOFFSET	QUANT	0	Ach Offset (V)
ACHFILTER	IQUANT	3	Ach Filter
IERANGELOWERLIMIT	IQUANT	1	I/E Range Lower Limit
IERANGEMODE	TOGGLE	F	I/E AutoRange
IERANGE	IQUANT	8	I/E Range
POSFEEDENABLE	TOGGLE	F	Positive Feedback IR Comp
POSFEEDRESISTANCE	QUANT	0	Positive Feedback Resistance (ohm)
ACHSELECT	IQUANT	0	Ach Select
CABLEID	IQUANT	14	Cable ID
DCCALDATE	LABEL	12/22/2019	DC Calibration Date
ACCALDATE	LABEL	12/22/2019	AC Calibration Date
THERMOSELECT	IQUANT	1	Thermo Select
FRAMEWORKVERSION	QUANT	6.33	Framework Version
INSTRUMENTVERSION	LABEL	3.50	Instrument Version
ZCURVE	TABLE
	Pt	Time	Freq	Zreal	Zimag	Zsig	Zmod	Zphz	Idc	Vdc	IERange
	#	s	Hz	ohm	ohm	V	ohm	°	A	V	#
	0	1	1000078	2173.425	-2041.384	1	2981.782	-43.20562	-3.492959E-006	-0.0476821	8
	1	1	794390.6	2581.38	-2134.391	1	3349.5	-39.58534	-2.564518E-007	-0.0481954	8
	2	2	630984.4	2987.758	-2187.942	1	3703.213	-36.21541	2.188311E-006	-0.0489257	8
	3	2	501234.4	3412.341	-2169.577	1	4043.654	-32.44833	-1.029917E-006	-0.0484834	8
	4	2	398109.4	3821.436	-2088.129	1	4354.729	-28.65331	-5.991942E-007	-0.0485288	8
	5	3	316265.6	4201.219	-1980.13	1	4644.476	-25.23556	3.218517E-006	-0.0492227	8
	6	3	251203.1	4563.228	-1822.984	1	4913.891	-21.77643	1.352391E-006	-0.0489539	8
	7	3	199546.9	4798.485	-1662.54	1	5078.336	-19.10976	3.055513E-006	-0.0492111	8
	8	4	158578.1	5045.864	-1515.921	1	5268.659	-16.72176	5.957925E-008	-0.0486878	8
	9	4	125953.1	5257.623	-1301.583	1	5416.337	-13.90465	5.89885E-007	-0.0494549	7
	10	4	100078.1	5389.115	-1153.308	1	5511.142	-12.07948	-1.808912E-008	-0.0485548	7
	11	5	79453.13	5516.209	-1040.112	1	5613.412	-10.67807	6.70428E-008	-0.048802	7
	12	5	63140.62	5620.106	-944.4177	1	5698.905	-9.53901	-1.272773E-009	-0.0486631	7
	13	5	50203.12	5708.182	-869.7319	1	5774.06	-8.663289	5.487553E-008	-0.0487037	7
	14	6	39890.62	5785.077	-814.7181	1	5842.164	-8.016301	-5.068585E-009	-0.04866	7
	15	6	31640.63	5856.675	-782.6588	1	5908.739	-7.611644	-5.202972E-009	-0.0486642	7
	16	6	25171.88	5921.606	-769.653	1	5971.414	-7.40543	-1.852364E-008	-0.0486987	7
	17	7	20015.62	5984.052	-776.0417	1	6034.163	-7.389163	-3.801038E-008	-0.0486717	7
	18	7	15890.62	6051.368	-804.1821	1	6104.569	-7.569831	1.129241E-007	-0.0488618	7
	19	7	12609.37	6118.934	-852.6138	1	6178.05	-7.932532	1.128479E-007	-0.0488617	7
	20	7	10078.13	6185.332	-920.5051	1	6253.452	-8.464669	-3.746489E-009	-0.0486661	7
	21	8	8015.625	6256.265	-1012.2	1	6337.618	-9.190242	-5.601291E-009	-0.0486705	7
	22	8	6328.125	6332.845	-1137.849	1	6434.254	-10.18589	1.12457E-007	-0.048859	7
	23	8	5015.625	6414.053	-1293.328	1	6543.147	-11.40024	3.753993E-008	-0.0488221	7
	24	9	3984.375	6499.589	-1490.651	1	6668.335	-12.91713	-2.965581E-008	-0.0485984	7
	25	9	3170.956	6597.691	-1736.15	1	6822.298	-14.74287	-3.004913E-008	-0.0486018	7
	26	9	2527.573	6698.847	-2033.379	1	7000.656	-16.88523	-5.238142E-008	-0.0486272	7
	27	10	1976.103	6824.233	-2443.511	1	7248.511	-19.70061	-2.924496E-008	-0.048603	7
	28	10	1577.524	6958.27	-2881.078	1	7531.144	-22.49205	-3.293733E-008	-0.0486705	7
	29	10	1265.625	7111.924	-3458.086	1	7908.086	-25.93077	-3.161774E-010	-0.0486864	7
	30	11	998.264	7308.523	-4178.111	1	8418.499	-29.75559	1.824672E-008	-0.0487849	7
	31	11	796.875	7537.2	-5027.447	1	9060.056	-33.70399	5.134682E-010	-0.0486867	7
	32	11	627.7902	7833.171	-6116.01	1	9938.02	-37.98213	-3.327022E-009	-0.0485825	6
	33	12	505.5147	8161.347	-7317.709	1	10961.59	-41.88036	-9.156629E-009	-0.0486459	6
	34	12	397.9953	8600.785	-8930.083	1	12398.38	-46.07611	4.063386E-010	-0.0487089	6
	35	12	315.5048	9127.76	-10833.05	1	14165.84	-49.88303	1.029042E-009	-0.048712	6
	36	13	252.4038	9751.32	-13043.33	1	16285.47	-53.21783	6.058255E-010	-0.0487144	6
	37	13	198.6229	10572.96	-15926.69	1	19116.67	-56.42175	5.392188E-010	-0.048709	6
	38	13	158.3615	11539.38	-19232.33	1	22428.55	-59.03628	3.535333E-010	-0.0487095	6
	39	14	125.558	12779.5	-23338.79	1	26608.54	-61.29644	3.971439E-010	-0.0487111	6
	40	14	100.4464	14300.84	-28096.39	1	31526.52	-63.02428	8.924461E-010	-0.0487162	6
	41	14	79.00281	16387.43	-34319.59	1	38031.33	-64.47577	1.002343E-010	-0.0487156	6
	42	15	63.3446	18402.34	-41010.02	1	44949.62	-65.83289	2.053596E-010	-0.0487175	6
	43	15	49.86702	21854.62	-49831.64	1	54413.39	-66.31923	1.427048E-010	-0.0487222	6
	44	15	39.72458	26150.75	-59956.11	1	65410.98	-66.43486	6.035057E-010	-0.0487177	6
	45	16	31.6723	31329.64	-71670.39	1	78218.87	-66.38818	7.717055E-010	-0.0487196	6
	46	16	24.93351	38351.5	-85950.03	1	94118.25	-65.95324	1.83571E-010	-0.0487231	6
	47	16	19.86229	46605.74	-101702.2	1	111872.4	-65.38006	1.615143E-010	-0.0487271	5
	48	16	15.83615	58006.58	-119839.6	1	133140.1	-64.17138	-2.131621E-009	-0.0487242	5
	49	17	12.40079	70487.56	-142483.7	1	158965.7	-63.67811	-6.272699E-010	-0.0487195	5
	50	17	9.93114	84840.64	-165221.7	1	185731.4	-62.8197	8.841344E-010	-0.0487263	5
	51	18	7.944915	102620.5	-191447.5	1	217216.7	-61.80762	3.891905E-010	-0.0487197	5
	52	18	6.317385	124246.3	-222354.2	1	254712.6	-60.80457	1.360531E-010	-0.0487216	5
	53	19	5.008013	150338.4	-256904.7	1	297660.3	-59.66419	2.795514E-010	-0.0487148	5
	54	20	3.945707	181646.2	-297314.8	1	348412.8	-58.57691	-1.514346E-010	-0.0487301	5
	55	22	3.158693	215358.5	-337875.5	1	400673.3	-57.48697	1.600438E-010	-0.0487355	5
	56	23	2.504006	255106.6	-385957.6	1	462647.4	-56.53646	2.861202E-010	-0.0487258	5
	57	24	1.998082	298301.2	-436788.2	1	528930.6	-55.66917	2.574619E-011	-0.048767	5
	58	26	1.584686	346726	-497963	1	606783.4	-55.15094	9.633208E-012	-0.0487682	5
	59	28	1.266892	397885.9	-563366.9	1	689706.8	-54.76781	6.502354E-011	-0.0487327	5
	60	30	0.999041	459543.3	-643943.9	1	791102.9	-54.48687	1.062578E-010	-0.0487062	5
