EXPLAIN
TAG	EISPOT
TITLE	LABEL	Potentiostatic EIS	Test &Identifier
DATE	LABEL	6/6/2020	Date
TIME	LABEL	18:53:41	Time
NOTES	NOTES	1	&Notes...
	
PSTAT	PSTAT	REF600-11020	Potentiostat
VDC	POTEN	0.00000E+000	T	DC &Voltage (V)
FREQINIT	QUANT	1.00000E+006	Initial Fre&q. (Hz)
FREQFINAL	QUANT	1.00000E+000	Final Fre&q. (Hz)
PTSPERDEC	QUANT	1.00000E+001	Points/&decade
VAC	QUANT	2.50000E+001	AC &Voltage (mV rms)
AREA	QUANT	4.00000E-004	&Area (cm^2)
CONDIT	TWOPARAM	F	5.00000E+000	0.00000E+000	Conditionin&g	Time(s)	E(V)
DELAY	TWOPARAM	T	3.00000E+000	0.00000E+000	Init. De&lay	Time(s)	Stab.(mV/s)
SPEED	SELECTOR	0	&Optimize for:
ZGUESS	QUANT	1.00000E+003	E&stimated Z (ohms)
OCVCURVE	TABLE	12
	Pt	T	Vf	Vm	Ach	Over
	#	s	V vs. Ref.	V	V	bits
	0	0.258333	-1.49182E-002	-1.49182E-002	5.65930E-004	...........
	1	0.516667	-1.49191E-002	-1.49633E-002	5.67363E-004	...........
	2	0.775	-1.49244E-002	-1.50071E-002	5.67164E-004	...........
	3	1.03333	-1.49395E-002	-1.50482E-002	5.69763E-004	...........
	4	1.29167	-1.49666E-002	-1.50943E-002	5.65730E-004	...........
	5	1.55	-1.50034E-002	-1.51425E-002	5.71830E-004	...........
	6	1.80833	-1.50460E-002	-1.51907E-002	5.73063E-004	...........
	7	2.06667	-1.50916E-002	-1.52351E-002	5.67230E-004	...........
	8	2.325	-1.51383E-002	-1.52806E-002	5.68830E-004	...........
	9	2.58333	-1.51851E-002	-1.53246E-002	5.65830E-004	...........
	10	2.84167	-1.52312E-002	-1.53683E-002	5.69163E-004	...........
	11	3.1	-1.52763E-002	-1.54078E-002	5.62230E-004	...........
EOC	QUANT	-0.0152763	Open Circuit (V)
PSTATMODEL	IQUANT	4	Pstat Model
PSTATSECTION	LABEL	REF600-11020	Pstat Section
PSTATSERIALNO	LABEL	11020	Pstat Serial Number
CTRLMODE	IQUANT	1	Control Mode
IESTAB	IQUANT	0	I/E Stability
CASPEED	IQUANT	1	Control Amp Speed
CONVENTION	IQUANT	1	Current Convention
ICHRANGE	IQUANT	2	Ich Range
ICHRANGEMODE	TOGGLE	F	Ich Auto Range
ICHOFFSETENABLE	TOGGLE	T	Ich Offset Enable
ICHOFFSET	QUANT	0	Ich Offset (V)
ICHFILTER	IQUANT	3	Ich Filter
VCHRANGE	IQUANT	2	Vch Range
VCHRANGEMODE	TOGGLE	F	Vch Auto Range
VCHOFFSETENABLE	TOGGLE	T	Vch Offset Enable
VCHOFFSET	QUANT	0	Vch Offset (V)
VCHFILTER	IQUANT	3	Vch Filter
ACHRANGE	IQUANT	2	Ach Range
ACHOFFSETENABLE	TOGGLE	F	Ach Offset Enable
ACHOFFSET	QUANT	0	Ach Offset (V)
ACHFILTER	IQUANT	3	Ach Filter
IERANGELOWERLIMIT	IQUANT	1	I/E Range Lower Limit
IERANGEMODE	TOGGLE	F	I/E AutoRange
IERANGE	IQUANT	7	I/E Range
POSFEEDENABLE	TOGGLE	F	Positive Feedback IR Comp
POSFEEDRESISTANCE	QUANT	0	Positive Feedback Resistance (ohm)
ACHSELECT	IQUANT	0	Ach Select
CABLEID	IQUANT	14	Cable ID
DCCALDATE	LABEL	2/27/2020	DC Calibration Date
ACCALDATE	LABEL	2/27/2020	AC Calibration Date
THERMOSELECT	IQUANT	1	Thermo Select
FRAMEWORKVERSION	QUANT	6.33	Framework Version
INSTRUMENTVERSION	LABEL	3.50	Instrument Version
ZCURVE	TABLE
	Pt	Time	Freq	Zreal	Zimag	Zsig	Zmod	Zphz	Idc	Vdc	IERange
	#	s	Hz	ohm	ohm	V	ohm	°	A	V	#
	0	1	1000078	1333.678	-2695.669	1	3007.545	-63.67617	9.68103E-008	-0.0129599	8
	1	2	794390.6	1624.108	-3188.454	1	3578.262	-63.007	3.331891E-008	-0.0132434	8
	2	2	630984.4	2000.406	-3752.131	1	4252.072	-61.9362	3.501348E-008	-0.0133766	8
	3	2	501234.4	2468.634	-4382.338	1	5029.815	-60.60682	7.672499E-008	-0.0134863	8
	4	3	398109.4	3058.176	-5080.252	1	5929.705	-58.95318	8.608841E-008	-0.0135706	8
	5	3	316265.6	3772.649	-5824.194	1	6939.317	-57.06667	4.990864E-008	-0.0135632	8
	6	3	251203.1	4647.833	-6621.401	1	8089.827	-54.93341	4.770806E-008	-0.0135876	8
	7	3	199546.9	5684.674	-7402.069	1	9333.067	-52.4763	1.251048E-008	-0.0135599	8
	8	4	158578.1	6906.42	-8202.589	1	10722.92	-49.90327	5.105964E-008	-0.0135948	8
	9	4	125953.1	8400.7	-8871.525	1	12217.84	-46.56144	4.322067E-009	-0.0136382	7
	10	4	100078.1	9904.07	-9508.93	1	13729.91	-43.83395	2.256201E-009	-0.0136587	7
	11	5	79453.13	11557.15	-10093.05	1	15343.97	-41.13126	3.424021E-009	-0.0136559	7
	12	5	63140.62	13291.51	-10510.2	1	16944.87	-38.335	3.094598E-009	-0.0136614	7
	13	5	50203.12	15086.15	-10809.98	1	18559.3	-35.6235	2.819881E-009	-0.013666	7
	14	6	39890.62	16885.85	-10992.9	1	20148.84	-33.06462	2.791429E-009	-0.0136732	7
	15	6	31640.63	18672.65	-11091.65	1	21718.49	-30.71052	3.96331E-009	-0.0136652	7
	16	6	25171.88	20404.55	-11108.57	1	23232.44	-28.5646	3.440428E-009	-0.0136714	7
	17	7	20015.62	22066.12	-11092.81	1	24697.45	-26.68903	4.463226E-009	-0.013666	7
	18	7	15890.62	23667.27	-11067.09	1	26127	-25.06133	4.390553E-009	-0.0136711	7
	19	7	12609.37	25358.14	-10851.88	1	27582.58	-23.16825	7.204823E-010	-0.0136227	6
	20	8	10078.13	26783.41	-10915.19	1	28922.18	-22.17264	5.067057E-010	-0.0136199	6
	21	8	8015.625	28217.54	-11054.56	1	30305.65	-21.39335	7.001687E-010	-0.013624	6
	22	8	6328.125	29687.65	-11283.57	1	31759.65	-20.8106	7.007948E-010	-0.0136228	6
	23	9	5015.625	31125.13	-11612.53	1	33220.85	-20.46013	5.659329E-010	-0.0136226	6
	24	9	3984.375	32581.64	-12057.05	1	34740.98	-20.30733	6.915781E-010	-0.0136202	6
	25	9	3170.956	34066.14	-12619.25	1	36328.33	-20.32633	7.098597E-010	-0.0136187	6
	26	10	2527.573	35581.55	-13316.69	1	37991.86	-20.51878	5.503072E-010	-0.0136194	6
	27	10	1976.103	37312.06	-14244.31	1	39938.58	-20.89493	3.262161E-010	-0.0136311	6
	28	10	1577.524	38987.77	-15281.03	1	41875.48	-21.40241	4.040385E-010	-0.0136243	6
	29	11	1265.625	40735.5	-16461.74	1	43935.98	-22.00427	4.404525E-010	-0.0136258	6
	30	11	998.264	42761.57	-17979.86	1	46387.8	-22.80518	5.473588E-010	-0.0136274	6
	31	11	796.875	44857.33	-19661.68	1	48977.15	-23.6686	5.40777E-010	-0.0136218	6
	32	11	627.7902	47276.34	-21742.2	1	52036.29	-24.69752	6.593509E-010	-0.0136203	6
	33	12	505.5147	49704.99	-23868.58	1	55138.87	-25.65055	4.617051E-010	-0.0136297	6
	34	12	397.9953	52642.89	-26626.87	1	58993.77	-26.83037	6.054129E-010	-0.0136069	6
	35	12	315.5048	55805.97	-29663.84	1	63200.07	-27.99302	6.243607E-010	-0.0136112	6
	36	13	252.4038	59184.2	-32989.41	1	67757.44	-29.1354	5.944715E-010	-0.0136119	6
	37	13	198.6229	63196.7	-37054.53	1	73258.86	-30.38465	5.716355E-010	-0.013612	6
	38	13	158.3615	67403.84	-41435.06	1	79121.05	-31.58023	5.562202E-010	-0.0136149	6
	39	14	125.558	72172.89	-46553.37	1	85884.48	-32.82306	5.021556E-010	-0.0136104	6
	40	14	100.4464	77228.66	-52161.27	1	93193.69	-34.03562	5.079336E-010	-0.0136164	6
	41	14	79.00281	83240.69	-58969.78	1	102012	-35.31471	1.926914E-010	-0.0136153	5
	42	15	63.3446	89297.49	-66309.38	1	111224.9	-36.59636	1.662788E-010	-0.0136173	5
	43	15	49.86702	96497.2	-75524.44	1	122538.3	-38.04885	4.51697E-011	-0.0136179	5
	44	16	39.72458	103993.9	-85748.98	1	134787.3	-39.50754	3.018354E-010	-0.0136187	5
	45	16	31.6723	112222	-97706.6	1	148796.4	-41.04463	3.849945E-010	-0.0136182	5
	46	16	24.93351	121856.3	-112689.5	1	165975.6	-42.76184	1.666776E-010	-0.0136179	5
	47	16	19.86229	132059.7	-129801.7	1	185170.8	-44.50595	7.948421E-010	-0.0136142	5
	48	17	15.83615	143820.8	-149978.3	1	207793	-46.20063	-4.844249E-010	-0.0136177	5
	49	17	12.40079	158257.6	-176104.2	1	236766	-48.05526	-4.028327E-010	-0.0136135	5
	50	17	9.93114	173702.4	-204210.8	1	268094.3	-49.61539	-5.592707E-010	-0.013618	5
	51	18	7.944915	191701.3	-238121.6	1	305698	-51.16397	-2.802137E-010	-0.0136141	5
	52	18	6.317385	214520.8	-278580.4	1	351605.2	-52.40193	3.636544E-010	-0.0136296	5
	53	19	5.008013	242786.3	-326623.8	1	406974.6	-53.37581	2.392053E-010	-0.0136267	5
	54	20	3.945707	277404.6	-383952.5	1	473680.1	-54.152	-1.569201E-011	-0.0136232	5
	55	21	3.158693	316762.4	-444217.6	1	545589.3	-54.50811	2.572834E-010	-0.0136358	5
	56	22	2.504006	364635.6	-516365.8	1	632133.5	-54.77189	3.418951E-010	-0.0136292	5
	57	23	1.998082	418779.3	-593591.7	1	726448.4	-54.79701	1.480233E-010	-0.0136697	5
	58	25	1.584686	481212.8	-686737.8	1	838555	-54.9802	1.525092E-010	-0.0136698	5
	59	27	1.266892	548725.2	-786341.3	1	958870	-55.09187	2.068279E-010	-0.0136342	5
	60	29	0.999041	632303.4	-909986.7	1	1108099	-55.20653	1.921895E-010	-0.0136108	4
