EXPLAIN
TAG	EISPOT
TITLE	LABEL	Potentiostatic EIS	Test &Identifier
DATE	LABEL	3/20/2020	Date
TIME	LABEL	15:12:10	Time
NOTES	NOTES	1	&Notes...
	
PSTAT	PSTAT	REF600-11020	Potentiostat
VDC	POTEN	0.00000E+000	T	DC &Voltage (V)
FREQINIT	QUANT	1.00000E+006	Initial Fre&q. (Hz)
FREQFINAL	QUANT	1.00000E+000	Final Fre&q. (Hz)
PTSPERDEC	QUANT	1.00000E+001	Points/&decade
VAC	QUANT	2.50000E+001	AC &Voltage (mV rms)
AREA	QUANT	4.00000E-004	&Area (cm^2)
CONDIT	TWOPARAM	F	5.00000E+000	0.00000E+000	Conditionin&g	Time(s)	E(V)
DELAY	TWOPARAM	T	3.00000E+000	0.00000E+000	Init. De&lay	Time(s)	Stab.(mV/s)
SPEED	SELECTOR	0	&Optimize for:
ZGUESS	QUANT	1.00000E+003	E&stimated Z (ohms)
OCVCURVE	TABLE	12
	Pt	T	Vf	Vm	Ach	Over
	#	s	V vs. Ref.	V	V	bits
	0	0.258333	1.25591E-001	1.25591E-001	5.75097E-004	...........
	1	0.516667	1.24218E-001	5.37222E-002	5.83930E-004	...........
	2	0.775	1.20433E-001	2.28764E-001	5.77630E-004	...........
	3	1.03333	1.19039E-001	7.61895E-002	5.73997E-004	...........
	4	1.29167	1.24377E-001	1.73321E-001	5.72463E-004	...........
	5	1.55	1.31419E-001	9.32370E-002	5.76797E-004	...........
	6	1.80833	1.33015E-001	1.01310E-001	5.69630E-004	...........
	7	2.06667	1.26553E-001	6.53322E-002	5.68030E-004	...........
	8	2.325	1.13639E-001	1.06821E-001	5.73830E-004	...........
	9	2.58333	9.98419E-002	6.05972E-002	5.78797E-004	...........
	10	2.84167	8.99884E-002	9.79475E-002	5.82963E-004	...........
	11	3.1	8.47006E-002	7.46825E-002	5.83363E-004	...........
EOC	QUANT	0.0847006	Open Circuit (V)
PSTATMODEL	IQUANT	4	Pstat Model
PSTATSECTION	LABEL	REF600-11020	Pstat Section
PSTATSERIALNO	LABEL	11020	Pstat Serial Number
CTRLMODE	IQUANT	1	Control Mode
IESTAB	IQUANT	0	I/E Stability
CASPEED	IQUANT	1	Control Amp Speed
CONVENTION	IQUANT	1	Current Convention
ICHRANGE	IQUANT	2	Ich Range
ICHRANGEMODE	TOGGLE	F	Ich Auto Range
ICHOFFSETENABLE	TOGGLE	T	Ich Offset Enable
ICHOFFSET	QUANT	0	Ich Offset (V)
ICHFILTER	IQUANT	3	Ich Filter
VCHRANGE	IQUANT	2	Vch Range
VCHRANGEMODE	TOGGLE	F	Vch Auto Range
VCHOFFSETENABLE	TOGGLE	T	Vch Offset Enable
VCHOFFSET	QUANT	0	Vch Offset (V)
VCHFILTER	IQUANT	3	Vch Filter
ACHRANGE	IQUANT	2	Ach Range
ACHOFFSETENABLE	TOGGLE	F	Ach Offset Enable
ACHOFFSET	QUANT	0	Ach Offset (V)
ACHFILTER	IQUANT	3	Ach Filter
IERANGELOWERLIMIT	IQUANT	1	I/E Range Lower Limit
IERANGEMODE	TOGGLE	F	I/E AutoRange
IERANGE	IQUANT	8	I/E Range
POSFEEDENABLE	TOGGLE	F	Positive Feedback IR Comp
POSFEEDRESISTANCE	QUANT	0	Positive Feedback Resistance (ohm)
ACHSELECT	IQUANT	0	Ach Select
CABLEID	IQUANT	14	Cable ID
DCCALDATE	LABEL	2/27/2020	DC Calibration Date
ACCALDATE	LABEL	2/27/2020	AC Calibration Date
THERMOSELECT	IQUANT	1	Thermo Select
FRAMEWORKVERSION	QUANT	6.33	Framework Version
INSTRUMENTVERSION	LABEL	3.50	Instrument Version
ZCURVE	TABLE
	Pt	Time	Freq	Zreal	Zimag	Zsig	Zmod	Zphz	Idc	Vdc	IERange
	#	s	Hz	ohm	ohm	V	ohm	°	A	V	#
	0	1	1000078	780.945	-6166.902	1	6216.153	-82.78277	-2.921368E-007	0.0871502	8
	1	2	794390.6	864.4052	-7676.9	1	7725.412	-83.57566	-1.639968E-007	0.086818	8
	2	2	630984.4	997.154	-9560.73	1	9612.59	-84.04575	3.797569E-007	0.0865403	8
	3	2	501234.4	1115.129	-11883.91	1	11936.11	-84.63934	5.454602E-007	0.0864114	8
	4	3	398109.4	1316.393	-14811.03	1	14869.41	-84.92094	-3.358236E-007	0.0865243	8
	5	3	316265.6	1596.492	-18448.03	1	18516.98	-85.05395	-2.674323E-007	0.086505	8
	6	3	251203.1	1758.758	-23076.36	1	23143.28	-85.64165	-1.485125E-007	0.0864385	8
	7	4	199546.9	2082.581	-28669.5	1	28745.04	-85.84528	-2.692704E-007	0.086483	8
	8	4	158578.1	2375.582	-35861.6	1	35940.2	-86.21009	-1.571942E-007	0.0863991	8
	9	4	125953.1	3758.359	-44969.57	1	45126.35	-85.22257	1.77081E-007	0.0859754	7
	10	5	100078.1	4346.098	-55869.15	1	56037.94	-85.55188	6.301439E-009	0.0863359	7
	11	5	79453.13	5105.277	-69738.02	1	69924.63	-85.81304	2.339179E-009	0.0863314	7
	12	5	63140.62	6263.855	-87210.16	1	87434.83	-85.89179	-4.218698E-009	0.0863249	7
	13	6	50203.12	7096.868	-108871.1	1	109102.2	-86.27039	1.438209E-008	0.086294	7
	14	6	39890.62	8590.69	-136083.7	1	136354.6	-86.38783	4.665919E-009	0.0863117	7
	15	6	31640.63	11259.27	-170038.6	1	170410.9	-86.21163	-3.931627E-009	0.0863178	7
	16	7	25171.88	13931.59	-211605.2	1	212063.3	-86.23322	-2.52381E-009	0.0863143	7
	17	7	20015.62	17043.05	-263983	1	264532.6	-86.30605	-1.977908E-009	0.0863212	7
	18	7	15890.62	21458.94	-329684.9	1	330382.5	-86.27592	-1.821058E-009	0.0863203	7
	19	7	12609.37	33570.34	-413799.7	1	415159.2	-85.36192	7.947283E-010	0.086367	6
	20	8	10078.13	40810.69	-513293.8	1	514913.6	-85.45412	-4.181919E-010	0.0863741	6
	21	8	8015.625	52848.25	-638759.6	1	640942.1	-85.27036	-8.744843E-010	0.0863733	6
	22	8	6328.125	64463.04	-802065.3	1	804651.6	-85.40494	2.103991E-009	0.0863452	6
	23	9	5015.625	75866.75	-994645	1	997534	-85.6382	3.668666E-010	0.086378	6
	24	9	3984.375	111681.8	-1244171	1	1249174	-84.87065	-4.761894E-010	0.0863755	6
	25	9	3170.956	129009.2	-1550325	1	1555683	-85.24313	2.577305E-010	0.0863742	6
	26	10	2527.573	181149.5	-1925903	1	1934403	-84.62659	5.65787E-010	0.0863479	6
	27	10	1976.103	229984.7	-2435867	1	2446700	-84.60635	1.726866E-009	0.0863533	6
	28	10	1577.524	337119.7	-3030907	1	3049598	-83.65323	-1.778607E-010	0.086356	6
	29	11	1265.625	507209.5	-3705300	1	3739854	-82.20537	-6.626132E-012	0.0863611	5
	30	11	998.264	658561.4	-4631318	1	4677907	-81.90694	5.852188E-011	0.0863775	5
	31	11	796.875	854883.9	-5724645	1	5788125	-81.50656	2.023378E-010	0.0863433	5
	32	12	627.7902	1212035	-7145822	1	7247882	-80.37342	1.615742E-011	0.0863452	5
	33	12	505.5147	1598568	-8716434	1	8861808	-79.60761	9.844699E-012	0.0863472	5
	34	12	397.9953	2245962	-1.083032E+007	1	1.106075E+007	-78.28423	6.945762E-011	0.0863718	5
	35	13	315.5048	3263402	-1.340814E+007	1	1.379957E+007	-76.32078	6.954281E-011	0.0863727	5
	36	13	252.4038	4382973	-1.62623E+007	1	1.684259E+007	-74.9162	6.092252E-011	0.0863646	5
	37	13	198.6229	6440018	-1.975624E+007	1	2.077939E+007	-71.94539	4.671126E-011	0.0863678	5
	38	14	158.3615	9284726	-2.363017E+007	1	2.53888E+007	-68.54922	1.340327E-011	0.086367	5
	39	14	125.558	1.348406E+007	-2.788851E+007	1	3.097723E+007	-64.1963	2.210922E-011	0.0863612	4
	40	14	100.4464	1.600864E+007	-3.324228E+007	1	3.689615E+007	-64.28572	-2.824421E-011	0.0863599	4
	41	15	79.00281	3.005392E+007	-3.937704E+007	1	4.953574E+007	-52.64787	-1.349215E-011	0.0863568	4
	42	15	63.3446	1.129687E+007	-4.402397E+007	1	4.54503E+007	-75.60802	1.239827E-011	0.0863529	4
	43	16	49.86702	4.389234E+007	-4.176208E+007	1	6.058555E+007	-43.57532	-2.135528E-012	0.0863555	4
	44	16	39.72458	4.943177E+007	-4.574249E+007	1	6.734891E+007	-42.78013	-5.972983E-012	0.0863592	4
	45	17	31.6723	6.263829E+007	-3.453522E+007	1	7.152788E+007	-28.86986	1.878595E-011	0.0863569	4
	46	17	24.93351	6.698649E+007	-3.715286E+007	1	7.659977E+007	-29.01416	3.02338E-012	0.0863554	4
	47	18	19.86229	6.848536E+007	-3.646265E+007	1	7.758718E+007	-28.03152	1.376567E-011	0.0863554	4
	48	18	15.83615	6.555529E+007	-1.496862E+007	1	6.724251E+007	-12.86217	-5.441E-011	0.086354	4
	49	18	12.40079	8.276207E+007	-2.201979E+007	1	8.56413E+007	-14.89903	-2.177397E-012	0.0863617	4
	50	19	9.93114	8.101267E+007	-2.048422E+007	1	8.356229E+007	-14.18994	1.067941E-011	0.0863535	4
	51	20	7.944915	8.769483E+007	-2.175676E+007	1	9.035342E+007	-13.93354	1.71783E-011	0.0863579	4
	52	21	6.317385	9.561126E+007	-1.050644E+007	1	9.618679E+007	-6.270905	2.090262E-012	0.0863702	3
	53	22	5.008013	8.674486E+007	-1.989524E+007	1	8.899714E+007	-12.91758	-2.127035E-012	0.0863697	3
	54	23	3.945707	9.061075E+007	-1.614484E+007	1	9.203784E+007	-10.10283	-2.846901E-012	0.0863556	3
	55	25	3.158693	9.381445E+007	-1.223504E+007	1	9.460891E+007	-7.430432	-1.099528E-013	0.0863612	3
	56	27	2.504006	9.562562E+007	-1.373679E+007	1	9.660724E+007	-8.174716	-4.552641E-013	0.0863493	3
	57	28	1.998082	9.462768E+007	-1.316225E+007	1	9.55387E+007	-7.918756	1.223885E-012	0.0863944	3
	58	30	1.584686	9.705491E+007	-1.279853E+007	1	9.789514E+007	-7.512192	-7.762872E-013	0.0863796	3
	59	32	1.266892	9.853577E+007	-1.111989E+007	1	9.916123E+007	-6.438664	1.522939E-012	0.0863361	2
	60	34	0.999041	9.957373E+007	-1.257299E+007	1	1.003644E+008	-7.196548	5.166024E-012	0.0863088	2
