EXPLAIN
TAG	EISPOT
TITLE	LABEL	Potentiostatic EIS	Test &Identifier
DATE	LABEL	2/21/2020	Date
TIME	LABEL	15:30:19	Time
NOTES	NOTES	1	&Notes...
	
PSTAT	PSTAT	REF600-11020	Potentiostat
VDC	POTEN	0.00000E+000	T	DC &Voltage (V)
FREQINIT	QUANT	1.00000E+006	Initial Fre&q. (Hz)
FREQFINAL	QUANT	1.00000E+000	Final Fre&q. (Hz)
PTSPERDEC	QUANT	1.00000E+001	Points/&decade
VAC	QUANT	2.50000E+001	AC &Voltage (mV rms)
AREA	QUANT	2.08200E-005	&Area (cm^2)
CONDIT	TWOPARAM	F	1.50000E+001	0.00000E+000	Conditionin&g	Time(s)	E(V)
DELAY	TWOPARAM	F	1.00000E+002	0.00000E+000	Init. De&lay	Time(s)	Stab.(mV/s)
SPEED	SELECTOR	1	&Optimize for:
ZGUESS	QUANT	2.00000E+003	E&stimated Z (ohms)
OCVCURVE	TABLE	39
	Pt	T	Vf	Vm	Ach	Over
	#	s	V vs. Ref.	V	V	bits
	0	0.258333	2.54883E-002	2.54883E-002	4.89105E-004	...........
	1	0.516667	2.54902E-002	2.55882E-002	4.95239E-004	...........
	2	0.775	2.54980E-002	2.54786E-002	5.01672E-004	...........
	3	1.03333	2.55106E-002	2.55557E-002	5.05139E-004	...........
	4	1.29167	2.55236E-002	2.56440E-002	4.94505E-004	...........
	5	1.55	2.55419E-002	2.56803E-002	4.99505E-004	...........
	6	1.80833	2.55718E-002	2.55611E-002	4.99239E-004	...........
	7	2.06667	2.56000E-002	2.55188E-002	4.91139E-004	...........
	8	2.325	2.56071E-002	2.56559E-002	4.90205E-004	...........
	9	2.58333	2.56019E-002	2.57854E-002	4.92872E-004	...........
	10	2.84167	2.56135E-002	2.56866E-002	4.98405E-004	...........
	11	3.1	2.56467E-002	2.56006E-002	4.85205E-004	...........
	12	3.35833	2.56751E-002	2.57451E-002	4.91139E-004	...........
	13	3.61667	2.56822E-002	2.55745E-002	4.97139E-004	...........
	14	3.875	2.56726E-002	2.55610E-002	4.95705E-004	...........
	15	4.13333	2.56483E-002	2.54951E-002	4.83939E-004	...........
	16	4.39167	2.56066E-002	2.53489E-002	4.91572E-004	...........
	17	4.65	2.55467E-002	2.52843E-002	4.94372E-004	...........
	18	4.90833	2.54712E-002	2.52762E-002	4.91439E-004	...........
	19	5.16667	2.53933E-002	2.52904E-002	4.95639E-004	...........
	20	5.425	2.53333E-002	2.53322E-002	4.93372E-004	...........
	21	5.68333	2.53037E-002	2.53415E-002	4.95839E-004	...........
	22	5.94167	2.53025E-002	2.53726E-002	4.98472E-004	...........
	23	6.2	2.53187E-002	2.53919E-002	4.96672E-004	...........
	24	6.45833	2.53418E-002	2.54062E-002	4.96039E-004	...........
	25	6.71667	2.53651E-002	2.54132E-002	4.98872E-004	...........
	26	6.975	2.53852E-002	2.54214E-002	4.99972E-004	...........
	27	7.23333	2.54005E-002	2.54254E-002	4.91105E-004	...........
	28	7.49167	2.54115E-002	2.54314E-002	4.94139E-004	...........
	29	7.75	2.54195E-002	2.54388E-002	4.94539E-004	...........
	30	8.00833	2.54259E-002	2.54441E-002	4.96272E-004	...........
	31	8.26667	2.54317E-002	2.54454E-002	4.91439E-004	...........
	32	8.525	2.54371E-002	2.54445E-002	4.91372E-004	...........
	33	8.78333	2.54412E-002	2.54416E-002	4.95339E-004	...........
	34	9.04167	2.54434E-002	2.54480E-002	4.87006E-004	...........
	35	9.3	2.54445E-002	2.54554E-002	4.79706E-004	...........
	36	9.5583	2.54461E-002	2.54589E-002	4.97472E-004	...........
	37	9.8167	2.54491E-002	2.54609E-002	4.97172E-004	...........
	38	10.075	2.54530E-002	2.54555E-002	4.87239E-004	...........
EOC	QUANT	0.025453	Open Circuit (V)
PSTATMODEL	IQUANT	4	Pstat Model
PSTATSECTION	LABEL	REF600-11020	Pstat Section
PSTATSERIALNO	LABEL	11020	Pstat Serial Number
CTRLMODE	IQUANT	1	Control Mode
IESTAB	IQUANT	0	I/E Stability
CASPEED	IQUANT	1	Control Amp Speed
CONVENTION	IQUANT	1	Current Convention
ICHRANGE	IQUANT	2	Ich Range
ICHRANGEMODE	TOGGLE	F	Ich Auto Range
ICHOFFSETENABLE	TOGGLE	T	Ich Offset Enable
ICHOFFSET	QUANT	0	Ich Offset (V)
ICHFILTER	IQUANT	3	Ich Filter
VCHRANGE	IQUANT	2	Vch Range
VCHRANGEMODE	TOGGLE	F	Vch Auto Range
VCHOFFSETENABLE	TOGGLE	T	Vch Offset Enable
VCHOFFSET	QUANT	0	Vch Offset (V)
VCHFILTER	IQUANT	3	Vch Filter
ACHRANGE	IQUANT	2	Ach Range
ACHOFFSETENABLE	TOGGLE	F	Ach Offset Enable
ACHOFFSET	QUANT	0	Ach Offset (V)
ACHFILTER	IQUANT	3	Ach Filter
IERANGELOWERLIMIT	IQUANT	1	I/E Range Lower Limit
IERANGEMODE	TOGGLE	F	I/E AutoRange
IERANGE	IQUANT	7	I/E Range
POSFEEDENABLE	TOGGLE	F	Positive Feedback IR Comp
POSFEEDRESISTANCE	QUANT	0	Positive Feedback Resistance (ohm)
ACHSELECT	IQUANT	0	Ach Select
CABLEID	IQUANT	14	Cable ID
DCCALDATE	LABEL	1/27/2020	DC Calibration Date
ACCALDATE	LABEL	1/27/2020	AC Calibration Date
THERMOSELECT	IQUANT	1	Thermo Select
FRAMEWORKVERSION	QUANT	6.33	Framework Version
INSTRUMENTVERSION	LABEL	3.50	Instrument Version
ZCURVE	TABLE
	Pt	Time	Freq	Zreal	Zimag	Zsig	Zmod	Zphz	Idc	Vdc	IERange
	#	s	Hz	ohm	ohm	V	ohm	°	A	V	#
	0	1	1000078	1186.336	-5531.876	1	5657.654	-77.896	-1.6157E-006	0.0281359	8
	1	3	794390.6	1540.231	-6846.264	1	7017.381	-77.32104	9.664958E-007	0.0273978	8
	2	4	630984.4	2078.752	-8359.328	1	8613.918	-76.03526	-2.900356E-007	0.0272921	8
	3	5	501234.4	2821.823	-10156.3	1	10541.02	-74.4726	2.593768E-007	0.0271257	8
	4	7	398109.4	3853.984	-12326.11	1	12914.57	-72.63719	7.863495E-007	0.0269619	8
	5	8	316265.6	5388.97	-14833.57	1	15782.13	-70.03414	2.005589E-007	0.0270168	8
	6	10	251203.1	7333.176	-17681.02	1	19141.42	-67.47384	-4.647759E-007	0.0271185	8
	7	11	199546.9	10118.35	-20754.58	1	23089.69	-64.00967	-1.045347E-006	0.0273278	8
	8	13	158578.1	13604.22	-23772.45	1	27389.85	-60.21886	2.935743E-007	0.0269964	8
	9	14	125953.1	18147.09	-26723.31	1	32302.51	-55.82062	7.571504E-008	0.0267801	7
	10	16	100078.1	23154.17	-29220.17	1	37281.81	-51.60657	2.011703E-008	0.0270031	7
	11	17	79453.13	28921.83	-30961.04	1	42368.13	-46.95036	-1.303952E-008	0.0270416	7
	12	19	63140.62	35001.19	-31998.32	1	47423.37	-42.43376	-1.231974E-008	0.0270434	7
	13	20	50203.12	41265.27	-32156.18	1	52314.84	-37.92769	2.350218E-008	0.0269751	7
	14	21	39890.62	47211.23	-31528.13	1	56770.79	-33.73539	5.257708E-008	0.0269365	7
	15	23	31640.63	52661.56	-30168.99	1	60691.09	-29.80772	-1.58985E-008	0.0270246	7
	16	24	25171.88	57663.15	-28645.31	1	64386.27	-26.4168	2.239E-008	0.0270138	7
	17	26	20015.62	62015.73	-26899.25	1	67598.23	-23.44873	3.109934E-008	0.0269409	7
	18	27	15890.62	65811.6	-24984.22	1	70394.45	-20.78839	4.161233E-009	0.0269718	7
	19	28	12609.37	69323.31	-23182.57	1	73096.88	-18.49057	-1.515719E-009	0.0270102	6
	20	30	10078.13	72150.22	-21705.62	1	75344.46	-16.74335	7.059762E-009	0.0269427	6
	21	31	8015.625	74887.86	-20470.53	1	77635.27	-15.28827	1.964098E-009	0.0270403	6
	22	32	6328.125	77384.23	-19397.81	1	79778.41	-14.07231	2.375917E-009	0.0270369	6
	23	34	5015.625	79707.67	-18577.03	1	81843.87	-13.11942	8.639273E-010	0.0269449	6
	24	35	3984.375	81818.56	-17967.35	1	83768.15	-12.38555	-3.481813E-009	0.0270515	6
	25	36	3170.956	83880.69	-17592.45	1	85705.68	-11.84506	-3.399944E-009	0.0270476	6
	26	38	2527.573	85838.38	-17551.84	1	87614.47	-11.55628	1.644702E-010	0.0269538	6
	27	39	1976.103	87968.82	-17724.14	1	89736.61	-11.39156	-2.000127E-009	0.0270634	6
	28	41	1577.524	89691.25	-18188.8	1	91516.95	-11.46375	-1.59481E-009	0.0270092	6
	29	42	1265.625	91746.04	-18041.76	1	93503.16	-11.1252	6.750352E-010	0.0269251	5
	30	44	998.264	93778.99	-19178.93	1	95720.1	-11.55829	-3.51486E-010	0.0270586	5
	31	45	796.875	95723.5	-20605.71	1	97916.2	-12.14827	-4.031783E-010	0.027058	5
	32	46	627.7902	97805.6	-22563.91	1	100374.7	-12.99093	-1.6193E-010	0.0270045	5
	33	48	505.5147	99737.3	-24831.84	1	102782.1	-13.98082	4.581343E-010	0.0268764	5
	34	49	397.9953	102100.9	-27898.67	1	105843.9	-15.28279	-1.558499E-010	0.0270116	5
	35	50	315.5048	104521.6	-31656.9	1	109210.5	-16.85021	3.91751E-010	0.0270118	5
	36	52	252.4038	107101.7	-36026.2	1	112998.5	-18.59159	-1.188621E-010	0.0270059	5
	37	53	198.6229	110161.1	-41828.56	1	117835	-20.79195	6.045558E-012	0.0270088	5
	38	55	158.3615	113415	-48625.89	1	123399.5	-23.2069	-1.81196E-010	0.0270056	5
	39	56	125.558	117397.1	-56884.31	1	130452.6	-25.85234	2.141285E-010	0.0270076	5
	40	57	100.4464	121775.1	-66875.66	1	138930	-28.77442	3.626406E-010	0.0270045	5
	41	59	79.00281	127183.1	-78433.88	1	149423.6	-31.66216	1.72817E-010	0.0270026	5
	42	60	63.3446	131084.8	-92027.01	1	160163	-35.07046	-8.846895E-011	0.0270051	5
	43	61	49.86702	143851.4	-109256.9	1	180638.5	-37.2171	-2.180051E-010	0.0269993	5
	44	63	39.72458	152148.1	-130774.2	1	200626.4	-40.67968	1.407595E-010	0.0270074	5
	45	64	31.6723	163978.6	-153343.6	1	224506.7	-43.08045	1.247773E-010	0.0270011	5
	46	66	24.93351	179490.9	-182796.7	1	256186.7	-45.52279	1.381987E-010	0.0270058	5
	47	67	19.86229	197284.7	-214976.8	1	291781.3	-47.45732	1.409969E-010	0.0270086	5
	48	68	15.83615	217646.2	-253008.7	1	333741.3	-49.29683	3.19988E-010	0.0270011	5
	49	70	12.40079	247744	-298179	1	387669.7	-50.27827	1.19486E-010	0.0270118	5
	50	71	9.93114	281177	-344454.1	1	444644.9	-50.77532	-2.062387E-011	0.027008	5
	51	73	7.944915	317180	-398292	1	509155.8	-51.46792	4.488782E-010	0.0269961	5
	52	74	6.317385	366976	-457883.6	1	586795.4	-51.28918	3.212492E-010	0.026992	5
	53	77	5.008013	424079.1	-526261.7	1	675865.7	-51.13699	1.626235E-010	0.0270066	5
	54	79	3.945707	493111.4	-603890.4	1	779642.6	-50.76638	1.242049E-010	0.0270012	5
	55	82	3.158693	566477.3	-682556.4	1	887006.1	-50.30954	1.998871E-010	0.027019	5
	56	85	2.504006	656122.7	-774557.2	1	1015104	-49.73227	-1.019137E-010	0.0269426	4
	57	88	1.998082	753397.3	-869806.9	1	1150727	-49.102	-2.369438E-011	0.026908	4
	58	91	1.584686	864447	-976068	1	1303832	-48.47053	3.768838E-012	0.0269734	4
	59	95	1.266892	988087	-1093625	1	1473883	-47.90226	-1.652167E-011	0.0269187	4
	60	99	0.999041	1135604	-1226912	1	1671798	-47.21328	1.105695E-010	0.0269949	4
