EXPLAIN
TAG	EISPOT
TITLE	LABEL	Potentiostatic EIS	Test &Identifier
DATE	LABEL	6/19/2020	Date
TIME	LABEL	16:09:15	Time
NOTES	NOTES	1	&Notes...
	
PSTAT	PSTAT	REF600-10037	Potentiostat
VDC	POTEN	0.00000E+000	T	DC &Voltage (V)
FREQINIT	QUANT	1.00000E+006	Initial Fre&q. (Hz)
FREQFINAL	QUANT	1.00000E+000	Final Fre&q. (Hz)
PTSPERDEC	QUANT	1.00000E+001	Points/&decade
VAC	QUANT	1.00000E+002	AC &Voltage (mV rms)
AREA	QUANT	2.50000E-001	&Area (cm^2)
CONDIT	TWOPARAM	F	5.00000E+000	0.00000E+000	Conditionin&g	Time(s)	E(V)
DELAY	TWOPARAM	F	5.00000E+000	0.00000E+000	Init. De&lay	Time(s)	Stab.(mV/s)
SPEED	SELECTOR	0	&Optimize for:
ZGUESS	QUANT	1.00000E+003	E&stimated Z (ohms)
OCVCURVE	TABLE	39
	Pt	T	Vf	Vm	Ach	Over
	#	s	V vs. Ref.	V	V	bits
	0	0.258333	2.15339E-002	2.15339E-002	4.69788E-004	...........
	1	0.516667	2.15339E-002	2.15375E-002	4.69655E-004	...........
	2	0.775	2.15343E-002	2.15364E-002	4.71722E-004	...........
	3	1.03333	2.15350E-002	2.15373E-002	4.64688E-004	...........
	4	1.29167	2.15359E-002	2.15396E-002	4.59488E-004	...........
	5	1.55	2.15368E-002	2.15406E-002	4.66122E-004	...........
	6	1.80833	2.15379E-002	2.15417E-002	4.68022E-004	...........
	7	2.06667	2.15391E-002	2.15415E-002	4.61488E-004	...........
	8	2.325	2.15403E-002	2.15446E-002	4.65388E-004	...........
	9	2.58333	2.15414E-002	2.15448E-002	4.70588E-004	...........
	10	2.84167	2.15425E-002	2.15486E-002	4.67155E-004	...........
	11	3.1	2.15440E-002	2.15484E-002	4.61955E-004	...........
	12	3.35833	2.15457E-002	2.15535E-002	4.67522E-004	...........
	13	3.61667	2.15476E-002	2.15536E-002	4.69822E-004	...........
	14	3.875	2.15497E-002	2.15552E-002	4.64055E-004	...........
	15	4.13333	2.15517E-002	2.15564E-002	4.54922E-004	...........
	16	4.39167	2.15535E-002	2.15559E-002	4.64955E-004	...........
	17	4.65	2.15548E-002	2.15564E-002	4.69588E-004	...........
	18	4.90833	2.15558E-002	2.15626E-002	4.66522E-004	...........
	19	5.16667	2.15568E-002	2.15624E-002	4.66955E-004	...........
	20	5.425	2.15585E-002	2.15688E-002	4.68055E-004	...........
	21	5.68333	2.15609E-002	2.15691E-002	4.64688E-004	...........
	22	5.94167	2.15637E-002	2.15713E-002	4.61288E-004	...........
	23	6.2	2.15666E-002	2.15754E-002	4.65322E-004	...........
	24	6.45833	2.15693E-002	2.15771E-002	4.65488E-004	...........
	25	6.71667	2.15719E-002	2.15790E-002	4.68455E-004	...........
	26	6.975	2.15743E-002	2.15793E-002	4.58955E-004	...........
	27	7.23333	2.15765E-002	2.15815E-002	4.62355E-004	...........
	28	7.49167	2.15783E-002	2.15816E-002	4.67788E-004	...........
	29	7.75	2.15797E-002	2.15840E-002	4.70922E-004	...........
	30	8.00833	2.15810E-002	2.15868E-002	4.72388E-004	...........
	31	8.26667	2.15824E-002	2.15867E-002	4.72655E-004	...........
	32	8.525	2.15840E-002	2.15870E-002	4.74722E-004	...........
	33	8.78333	2.15854E-002	2.15890E-002	4.70188E-004	...........
	34	9.04167	2.15866E-002	2.15903E-002	4.76088E-004	...........
	35	9.3	2.15877E-002	2.15946E-002	4.69522E-004	...........
	36	9.5583	2.15892E-002	2.15969E-002	4.68088E-004	...........
	37	9.8167	2.15913E-002	2.15985E-002	4.64822E-004	...........
	38	10.075	2.15937E-002	2.15988E-002	4.66422E-004	...........
EOC	QUANT	0.0215937	Open Circuit (V)
PSTATMODEL	IQUANT	4	Pstat Model
PSTATSECTION	LABEL	REF600-10037	Pstat Section
PSTATSERIALNO	LABEL	10037	Pstat Serial Number
CTRLMODE	IQUANT	1	Control Mode
IESTAB	IQUANT	0	I/E Stability
CASPEED	IQUANT	1	Control Amp Speed
CONVENTION	IQUANT	1	Current Convention
ICHRANGE	IQUANT	2	Ich Range
ICHRANGEMODE	TOGGLE	F	Ich Auto Range
ICHOFFSETENABLE	TOGGLE	T	Ich Offset Enable
ICHOFFSET	QUANT	0	Ich Offset (V)
ICHFILTER	IQUANT	3	Ich Filter
VCHRANGE	IQUANT	2	Vch Range
VCHRANGEMODE	TOGGLE	F	Vch Auto Range
VCHOFFSETENABLE	TOGGLE	T	Vch Offset Enable
VCHOFFSET	QUANT	0	Vch Offset (V)
VCHFILTER	IQUANT	3	Vch Filter
ACHRANGE	IQUANT	2	Ach Range
ACHOFFSETENABLE	TOGGLE	F	Ach Offset Enable
ACHOFFSET	QUANT	0	Ach Offset (V)
ACHFILTER	IQUANT	3	Ach Filter
IERANGELOWERLIMIT	IQUANT	1	I/E Range Lower Limit
IERANGEMODE	TOGGLE	F	I/E AutoRange
IERANGE	IQUANT	7	I/E Range
POSFEEDENABLE	TOGGLE	F	Positive Feedback IR Comp
POSFEEDRESISTANCE	QUANT	0	Positive Feedback Resistance (ohm)
ACHSELECT	IQUANT	0	Ach Select
CABLEID	IQUANT	14	Cable ID
DCCALDATE	LABEL	6/8/2020	DC Calibration Date
ACCALDATE	LABEL	6/8/2020	AC Calibration Date
THERMOSELECT	IQUANT	1	Thermo Select
FRAMEWORKVERSION	QUANT	6.33	Framework Version
INSTRUMENTVERSION	LABEL	3.50	Instrument Version
ZCURVE	TABLE
	Pt	Time	Freq	Zreal	Zimag	Zsig	Zmod	Zphz	Idc	Vdc	IERange
	#	s	Hz	ohm	ohm	V	ohm	°	A	V	#
	0	2	1000078	1960.096	-2107.6	1	2878.186	-47.07677	2.02333E-007	0.030545	8
	1	2	794390.6	2366.795	-2269.402	1	3279.01	-43.79656	7.176561E-008	0.0301918	8
	2	2	630984.4	2820.704	-2370.835	1	3684.729	-40.04745	4.789107E-009	0.0300472	8
	3	3	501234.4	3299.183	-2394.21	1	4076.377	-35.96831	7.516801E-008	0.0299713	8
	4	3	398109.4	3767.793	-2349.837	1	4440.496	-31.95031	1.656847E-007	0.0299314	8
	5	3	316265.6	4207.868	-2238.203	1	4766.099	-28.00891	1.796456E-007	0.0299781	8
	6	4	251203.1	4598.13	-2079.378	1	5046.446	-24.33356	4.014229E-008	0.0299436	8
	7	4	199546.9	4934.525	-1903.255	1	5288.849	-21.09171	2.36236E-008	0.0299687	8
	8	4	158578.1	5199.99	-1700.751	1	5471.056	-18.11127	-3.612894E-008	0.0300034	8
	9	5	125953.1	5490.429	-1449.008	1	5678.418	-14.78414	1.002182E-007	0.0300305	7
	10	5	100078.1	5658.724	-1262.06	1	5797.754	-12.57285	3.554075E-008	0.0299881	7
	11	5	79453.13	5818.266	-1142.822	1	5929.44	-11.11255	-1.282831E-008	0.0299501	7
	12	6	63140.62	5905.452	-1021.745	1	5993.19	-9.81598	-2.119821E-008	0.0299416	7
	13	6	50203.12	6000.574	-936.66	1	6073.238	-8.871994	1.933542E-008	0.029925	7
	14	6	39890.62	6113.28	-881.4678	1	6176.502	-8.204872	3.265127E-008	0.029899	7
	15	6	31640.63	6162.486	-829.2998	1	6218.036	-7.664378	-2.365488E-008	0.0299175	7
	16	7	25171.88	6233.009	-806.3327	1	6284.948	-7.371126	2.702857E-008	0.029902	7
	17	7	20015.62	6300.824	-802.3969	1	6351.71	-7.257435	1.307204E-008	0.0299021	7
	18	7	15890.62	6368.209	-818.4072	1	6420.583	-7.323197	-8.710564E-009	0.0298985	7
	19	8	12609.37	6436.326	-855.3819	1	6492.917	-7.570196	-2.266251E-008	0.0299056	7
	20	8	10078.13	6503.519	-910.8132	1	6566.988	-7.97238	-1.065779E-008	0.029926	7
	21	8	8015.625	6575.482	-992.183	1	6649.917	-8.580703	2.647077E-008	0.0299002	7
	22	9	6328.125	6684.584	-1105.867	1	6775.441	-9.393672	1.347371E-008	0.0298866	7
	23	9	5015.625	6733.373	-1242.652	1	6847.079	-10.45635	1.248133E-008	0.0298992	7
	24	9	3984.375	6819.188	-1417.259	1	6964.908	-11.74087	-8.294934E-009	0.0298985	7
	25	10	3170.956	6910.926	-1633.039	1	7101.248	-13.29501	-2.260154E-008	0.0299027	7
	26	10	2527.573	7010.131	-1898.228	1	7262.589	-15.15141	2.737084E-008	0.029898	7
	27	10	1976.103	7128.829	-2255.579	1	7477.154	-17.5575	3.367796E-008	0.02992	7
	28	11	1577.524	7250.769	-2661.225	1	7723.715	-20.15448	-9.423165E-009	0.0299248	7
	29	11	1265.625	7384.994	-3146.967	1	8027.549	-23.0803	-1.095312E-008	0.0299231	7
	30	11	998.264	7551.821	-3792.739	1	8450.731	-26.6671	3.07454E-008	0.0299028	7
	31	12	796.875	7762.01	-4529.165	1	8986.775	-30.26374	2.808499E-008	0.0299109	7
	32	12	627.7902	7962.464	-5514.01	1	9685.3	-34.70262	3.113438E-008	0.0299226	7
	33	12	505.5147	8213.774	-6603.662	1	10539.19	-38.79838	-2.345021E-008	0.0299068	7
	34	13	397.9953	8546.76	-8055.808	1	11744.92	-43.30621	7.374242E-009	0.0299374	7
	35	13	315.5048	8948.906	-9792.67	1	13265.72	-47.57777	8.089413E-009	0.0299338	7
	36	13	252.4038	9427.415	-11823.57	1	15121.94	-51.43322	7.70307E-009	0.0299311	7
	37	13	198.6229	10066.23	-14484.23	1	17638.65	-55.20153	7.992185E-009	0.0299363	7
	38	14	158.3615	10817.86	-17549.97	1	20616.19	-58.35017	7.907049E-009	0.0299341	7
	39	14	125.558	11775.4	-21370.13	1	24399.64	-61.14428	7.745819E-009	0.0299343	7
	40	14	100.4464	12925.7	-25692.76	1	28760.93	-63.29362	9.490218E-009	0.029921	7
	41	15	79.00281	14443.61	-31689.37	1	34825.77	-65.49711	7.654882E-009	0.0299362	7
	42	15	63.3446	16204.84	-38227.44	1	41520.28	-67.02763	7.779539E-009	0.0299357	7
	43	16	49.86702	18605.61	-46821.63	1	50382.87	-68.32851	9.688423E-010	0.0299283	6
	44	16	39.72458	21518.15	-56770.44	1	60711.72	-69.24139	9.363946E-010	0.0299295	6
	45	16	31.6723	25244.12	-68741.12	1	73229.82	-69.83501	9.019117E-010	0.0299306	6
	46	17	24.93351	30368.82	-84022.94	1	89342.71	-70.12837	9.921972E-010	0.0299267	6
	47	17	19.86229	36831.79	-101744	1	108205.4	-70.0995	-2.584324E-009	0.0213541	6
	48	17	15.83615	45168.82	-122525.5	1	130586.1	-69.76368	-2.052225E-009	0.0213506	6
	49	18	12.40079	56676.82	-148815.7	1	159243.1	-69.15054	-1.737088E-009	0.0213559	6
	50	18	9.93114	70301.96	-176795	1	190259.9	-68.31492	-1.554909E-009	0.0213572	6
	51	18	7.944915	87600.53	-209077.3	1	226687.4	-67.26698	-1.402477E-009	0.0213521	6
	52	19	6.317385	109805.7	-246670.3	1	270006.5	-66.00369	-8.772094E-010	0.0213591	6
	53	20	5.008013	137601.3	-289778.3	1	320789	-64.59927	-6.189106E-010	0.0213576	6
	54	21	3.945707	172206.6	-339261.7	1	380465	-63.08801	-5.532588E-010	0.0213523	6
	55	22	3.158693	210129.5	-389905	1	442922.4	-61.67867	-8.559514E-010	0.0213569	5
	56	23	2.504006	257661.9	-449365.2	1	517994.9	-60.17044	-7.170732E-010	0.0213514	5
	57	25	1.998082	308841.1	-511705.9	1	597683.6	-58.88684	-5.638673E-010	0.0213574	5
	58	27	1.584686	369104.5	-585068.9	1	691768.6	-57.75326	-4.759214E-010	0.0213545	5
	59	30	1.266892	434361.8	-664108.8	1	793543.1	-56.81322	-3.73455E-010	0.0213509	5
	60	33	0.999041	511855.2	-759260.8	1	915681.5	-56.01414	-4.098213E-010	0.0213495	5
