EXPLAIN
TAG	EISPOT
TITLE	LABEL	Potentiostatic EIS	Test &Identifier
DATE	LABEL	1/28/2020	Date
TIME	LABEL	12:23:11	Time
NOTES	NOTES	6	&Notes...
	
	
	
	
	
	
PSTAT	PSTAT	REF600-11020	Potentiostat
VDC	POTEN	0.00000E+000	T	DC &Voltage (V)
FREQINIT	QUANT	1.00000E+006	Initial Fre&q. (Hz)
FREQFINAL	QUANT	1.00000E+000	Final Fre&q. (Hz)
PTSPERDEC	QUANT	1.00000E+001	Points/&decade
VAC	QUANT	2.50000E+001	AC &Voltage (mV rms)
AREA	QUANT	1.60000E-004	&Area (cm^2)
CONDIT	TWOPARAM	F	5.00000E+000	0.00000E+000	Conditionin&g	Time(s)	E(V)
DELAY	TWOPARAM	F	5.00000E+000	0.00000E+000	Init. De&lay	Time(s)	Stab.(mV/s)
SPEED	SELECTOR	0	&Optimize for:
ZGUESS	QUANT	1.00000E+003	E&stimated Z (ohms)
OCVCURVE	TABLE	39
	Pt	T	Vf	Vm	Ach	Over
	#	s	V vs. Ref.	V	V	bits
	0	0.258333	5.79552E-002	5.79552E-002	5.62704E-004	...........
	1	0.516667	5.79580E-002	5.81008E-002	5.66304E-004	...........
	2	0.775	5.79743E-002	5.81990E-002	5.61638E-004	...........
	3	1.03333	5.80180E-002	5.82966E-002	5.59771E-004	...........
	4	1.29167	5.80889E-002	5.82477E-002	5.62971E-004	...........
	5	1.55	5.81657E-002	5.82639E-002	5.61804E-004	...........
	6	1.80833	5.82260E-002	5.84047E-002	5.62371E-004	...........
	7	2.06667	5.82743E-002	5.86251E-002	5.66904E-004	...........
	8	2.325	5.83447E-002	5.89834E-002	5.63004E-004	...........
	9	2.58333	5.84709E-002	5.90423E-002	5.63571E-004	...........
	10	2.84167	5.86458E-002	5.89402E-002	5.64204E-004	...........
	11	3.1	5.88126E-002	5.88697E-002	5.64538E-004	...........
	12	3.35833	5.89118E-002	5.88532E-002	5.60571E-004	...........
	13	3.61667	5.89330E-002	5.88309E-002	5.65538E-004	...........
	14	3.875	5.89074E-002	5.87875E-002	5.60171E-004	...........
	15	4.13333	5.88660E-002	5.86548E-002	5.64104E-004	...........
	16	4.39167	5.88176E-002	5.86536E-002	5.64771E-004	...........
	17	4.65	5.87619E-002	5.85930E-002	5.58638E-004	...........
	18	4.90833	5.87050E-002	5.86211E-002	5.56971E-004	...........
	19	5.16667	5.86611E-002	5.87562E-002	5.64571E-004	...........
	20	5.425	5.86459E-002	5.87530E-002	5.61271E-004	...........
	21	5.68333	5.86616E-002	5.86341E-002	5.58271E-004	...........
	22	5.94167	5.86911E-002	5.89469E-002	5.55304E-004	...........
	23	6.2	5.87238E-002	5.87845E-002	5.58871E-004	...........
	24	6.45833	5.87618E-002	5.88286E-002	5.57038E-004	...........
	25	6.71667	5.87966E-002	5.88120E-002	5.50171E-004	...........
	26	6.975	5.88159E-002	5.88125E-002	5.57704E-004	...........
	27	7.23333	5.88205E-002	5.88108E-002	5.58071E-004	...........
	28	7.49167	5.88182E-002	5.88088E-002	5.56638E-004	...........
	29	7.75	5.88145E-002	5.88097E-002	5.53738E-004	...........
	30	8.00833	5.88116E-002	5.88049E-002	5.54704E-004	...........
	31	8.26667	5.88095E-002	5.88036E-002	5.57171E-004	...........
	32	8.525	5.88078E-002	5.88008E-002	5.62171E-004	...........
	33	8.78333	5.88057E-002	5.87941E-002	5.61771E-004	...........
	34	9.04167	5.88029E-002	5.87884E-002	5.65404E-004	...........
	35	9.3	5.87994E-002	5.87920E-002	5.61704E-004	...........
	36	9.5583	5.87956E-002	5.87907E-002	5.68238E-004	...........
	37	9.8167	5.87927E-002	5.87847E-002	5.61304E-004	...........
	38	10.075	5.87905E-002	5.87797E-002	5.62804E-004	...........
EOC	QUANT	0.0587905	Open Circuit (V)
PSTATMODEL	IQUANT	4	Pstat Model
PSTATSECTION	LABEL	REF600-11020	Pstat Section
PSTATSERIALNO	LABEL	11020	Pstat Serial Number
CTRLMODE	IQUANT	1	Control Mode
IESTAB	IQUANT	0	I/E Stability
CASPEED	IQUANT	1	Control Amp Speed
CONVENTION	IQUANT	1	Current Convention
ICHRANGE	IQUANT	2	Ich Range
ICHRANGEMODE	TOGGLE	F	Ich Auto Range
ICHOFFSETENABLE	TOGGLE	T	Ich Offset Enable
ICHOFFSET	QUANT	0	Ich Offset (V)
ICHFILTER	IQUANT	3	Ich Filter
VCHRANGE	IQUANT	2	Vch Range
VCHRANGEMODE	TOGGLE	F	Vch Auto Range
VCHOFFSETENABLE	TOGGLE	T	Vch Offset Enable
VCHOFFSET	QUANT	0	Vch Offset (V)
VCHFILTER	IQUANT	3	Vch Filter
ACHRANGE	IQUANT	2	Ach Range
ACHOFFSETENABLE	TOGGLE	F	Ach Offset Enable
ACHOFFSET	QUANT	0	Ach Offset (V)
ACHFILTER	IQUANT	3	Ach Filter
IERANGELOWERLIMIT	IQUANT	1	I/E Range Lower Limit
IERANGEMODE	TOGGLE	F	I/E AutoRange
IERANGE	IQUANT	8	I/E Range
POSFEEDENABLE	TOGGLE	F	Positive Feedback IR Comp
POSFEEDRESISTANCE	QUANT	0	Positive Feedback Resistance (ohm)
ACHSELECT	IQUANT	0	Ach Select
CABLEID	IQUANT	14	Cable ID
DCCALDATE	LABEL	1/27/2020	DC Calibration Date
ACCALDATE	LABEL	1/27/2020	AC Calibration Date
THERMOSELECT	IQUANT	1	Thermo Select
FRAMEWORKVERSION	QUANT	6.33	Framework Version
INSTRUMENTVERSION	LABEL	3.50	Instrument Version
ZCURVE	TABLE
	Pt	Time	Freq	Zreal	Zimag	Zsig	Zmod	Zphz	Idc	Vdc	IERange
	#	s	Hz	ohm	ohm	V	ohm	°	A	V	#
	0	1	1000078	1883.997	-2723.899	1	3311.959	-55.33015	5.680734E-006	0.0597968	8
	1	1	794390.6	2276.487	-3097.349	1	3843.951	-53.68488	6.914124E-007	0.0599721	8
	2	2	630984.4	2734.406	-3446.404	1	4399.395	-51.57122	2.304914E-006	0.059892	8
	3	2	501234.4	3307.677	-3891.465	1	5107.272	-49.63605	-1.322792E-006	0.0605158	8
	4	2	398109.4	3943.671	-4176.495	1	5744.184	-46.64235	2.570515E-006	0.0598996	8
	5	3	316265.6	4668.004	-4457.144	1	6454.176	-43.67627	-3.475002E-006	0.0609922	8
	6	3	251203.1	5462.475	-4740.063	1	7232.346	-40.94981	1.342056E-006	0.0601286	8
	7	4	199546.9	6225.522	-4967.627	1	7964.575	-38.58796	2.151079E-006	0.0598129	8
	8	4	158578.1	7045.716	-5074.563	1	8682.932	-35.76271	4.531335E-006	0.0595437	8
	9	5	125953.1	7927.284	-5151.966	1	9454.342	-33.01996	-8.726446E-007	0.0628299	7
	10	5	100078.1	8718.42	-5210.724	1	10156.89	-30.86543	8.44576E-010	0.0602476	7
	11	5	79453.13	9493.326	-5294.559	1	10869.94	-29.14901	-1.388666E-008	0.0604305	7
	12	6	63140.62	10235.63	-5381.361	1	11564.04	-27.73306	1.254455E-007	0.0601311	7
	13	6	50203.12	10952.06	-5487.363	1	12249.85	-26.61246	2.39103E-009	0.0602326	7
	14	6	39890.62	11666.71	-5637.579	1	12957.41	-25.79073	3.409129E-008	0.0602666	7
	15	7	31640.63	12384.09	-5859.782	1	13700.46	-25.32212	1.929246E-009	0.0602288	7
	16	7	25171.88	13112.48	-6134.822	1	14476.64	-25.07308	-1.223612E-008	0.0604217	7
	17	7	20015.62	13871.97	-6448.44	1	15297.51	-24.93155	3.443039E-008	0.0602636	7
	18	8	15890.62	14652.28	-6883.701	1	16188.72	-25.16433	-3.230464E-008	0.0603393	7
	19	8	12609.37	15576.43	-7283.132	1	17195.03	-25.05956	-5.137371E-009	0.0603691	6
	20	8	10078.13	16434.77	-7877.659	1	18225.24	-25.60974	2.616743E-009	0.0603379	6
	21	8	8015.625	17385.47	-8565.354	1	19380.92	-26.22822	3.669844E-009	0.0603457	6
	22	9	6328.125	18459.38	-9394.187	1	20712.3	-26.97206	3.096955E-009	0.0603371	6
	23	9	5015.625	19611.22	-10322.93	1	22162.19	-27.76137	8.106653E-009	0.0601133	6
	24	9	3984.375	20840.8	-11380.22	1	23745.49	-28.63695	2.907242E-009	0.0602036	6
	25	10	3170.956	22214.18	-12600.15	1	25538.87	-29.56243	-8.34575E-009	0.0604067	6
	26	10	2527.573	23693.04	-13962.23	1	27500.98	-30.51071	4.126613E-009	0.0603407	6
	27	10	1976.103	25501.13	-15660.92	1	29926.11	-31.55519	-8.076966E-009	0.0604092	6
	28	11	1577.524	27303.71	-17571.71	1	32469.33	-32.76392	-8.717987E-009	0.0604145	6
	29	11	1265.625	29286.85	-19367.89	1	35111.75	-33.47734	-1.950722E-009	0.0602378	6
	30	11	998.264	31626.58	-21755.85	1	38386.95	-34.52399	-1.494273E-009	0.0602881	6
	31	12	796.875	34118.37	-24347.01	1	41914.68	-35.51182	1.381675E-008	0.0601348	6
	32	12	627.7902	37117.37	-27449.95	1	46164.91	-36.48458	-1.255354E-009	0.0601934	6
	33	12	505.5147	40140.15	-30688.35	1	50527.29	-37.39899	-2.641279E-009	0.0604258	6
	34	13	397.9953	43816.13	-34705.66	1	55895.76	-38.38186	5.984446E-010	0.0602955	6
	35	13	315.5048	47833.92	-39189.43	1	61837.65	-39.32712	9.530897E-010	0.0602937	6
	36	13	252.4038	52186.07	-44075.11	1	68308.13	-40.18364	1.249218E-009	0.060291	6
	37	14	198.6229	57452.95	-50166.82	1	76272.88	-41.12684	8.071342E-010	0.0602934	6
	38	14	158.3615	63054.82	-56722.59	1	84813.7	-41.97379	8.879323E-010	0.0602889	6
	39	14	125.558	69667.32	-64328.82	1	94824.74	-42.7185	8.202925E-010	0.0602902	6
	40	15	100.4464	77271.04	-72183.19	1	105741.3	-43.05024	2.517433E-010	0.060292	5
	41	15	79.00281	85867.85	-83461.39	1	119745.9	-44.18578	-4.010074E-010	0.0602853	5
	42	15	63.3446	93740.93	-89863.69	1	129857	-43.79025	3.096068E-010	0.0602886	5
	43	16	49.86702	106004	-103291.2	1	148006.5	-44.25737	6.899581E-010	0.0602829	5
	44	16	39.72458	118487.6	-119466.2	1	168260.1	-45.23563	3.374654E-010	0.0602899	5
	45	16	31.6723	132737.6	-135376.3	1	189594.4	-45.56387	6.134334E-010	0.0602862	5
	46	17	24.93351	147736.9	-151980.1	1	211953.2	-45.81112	4.150567E-011	0.0602827	5
	47	17	19.86229	162642.4	-171551	1	236394.4	-46.52697	4.617099E-010	0.0602907	5
	48	17	15.83615	177537.5	-199732.4	1	267231.3	-48.36685	9.327046E-010	0.0602792	5
	49	18	12.40079	200136.2	-228345.6	1	303638.3	-48.76667	-1.053157E-010	0.0602822	5
	50	18	9.93114	222469.9	-257066.8	1	339965	-49.12654	-1.410252E-010	0.0602812	5
	51	18	7.944915	247519.3	-296380.4	1	386144	-50.13337	-1.068092E-010	0.0602836	5
	52	19	6.317385	275436.6	-343202	1	440060.2	-51.25123	-1.861915E-010	0.0602946	5
	53	20	5.008013	311571	-399712.4	1	506800.2	-52.06401	-1.778302E-010	0.060276	5
	54	21	3.945707	355051.7	-465133.1	1	585158.5	-52.64429	1.061341E-010	0.0602765	5
	55	22	3.158693	406144.8	-535736.1	1	672284.8	-52.83402	1.201057E-010	0.0602933	5
	56	24	2.504006	469023.5	-618098.7	1	775905.3	-52.80817	-3.296286E-011	0.0602821	5
	57	25	1.998082	538193.6	-705664.6	1	887476.8	-52.66809	8.075053E-011	0.0602907	5
	58	27	1.584686	624260.6	-808366.3	1	1021351	-52.3229	1.143248E-010	0.060276	4
	59	29	1.266892	714202.4	-917271.2	1	1162528	-52.09509	1.005684E-010	0.0602503	4
	60	31	0.999041	818661.6	-1043870	1	1326601	-51.89446	7.998494E-011	0.060223	4
