EXPLAIN
TAG	EISPOT
TITLE	LABEL	Potentiostatic EIS	Test &Identifier
DATE	LABEL	6/6/2020	Date
TIME	LABEL	13:42:56	Time
NOTES	NOTES	1	&Notes...
	
PSTAT	PSTAT	REF600-11020	Potentiostat
VDC	POTEN	0.00000E+000	T	DC &Voltage (V)
FREQINIT	QUANT	1.00000E+006	Initial Fre&q. (Hz)
FREQFINAL	QUANT	1.00000E+000	Final Fre&q. (Hz)
PTSPERDEC	QUANT	1.00000E+001	Points/&decade
VAC	QUANT	2.50000E+001	AC &Voltage (mV rms)
AREA	QUANT	2.50000E-001	&Area (cm^2)
CONDIT	TWOPARAM	F	5.00000E+000	0.00000E+000	Conditionin&g	Time(s)	E(V)
DELAY	TWOPARAM	T	3.00000E+000	0.00000E+000	Init. De&lay	Time(s)	Stab.(mV/s)
SPEED	SELECTOR	0	&Optimize for:
ZGUESS	QUANT	1.00000E+003	E&stimated Z (ohms)
OCVCURVE	TABLE	12
	Pt	T	Vf	Vm	Ach	Over
	#	s	V vs. Ref.	V	V	bits
	0	0.258333	7.46496E-002	7.46496E-002	5.82297E-004	...........
	1	0.516667	7.46496E-002	7.46479E-002	5.80463E-004	...........
	2	0.775	7.46495E-002	7.46530E-002	5.78997E-004	...........
	3	1.03333	7.46497E-002	7.46541E-002	5.84063E-004	...........
	4	1.29167	7.46505E-002	7.46569E-002	5.84130E-004	...........
	5	1.55	7.46520E-002	7.46545E-002	5.83997E-004	...........
	6	1.80833	7.46536E-002	7.46532E-002	5.82763E-004	...........
	7	2.06667	7.46545E-002	7.46542E-002	5.86063E-004	...........
	8	2.325	7.46546E-002	7.46560E-002	5.81630E-004	...........
	9	2.58333	7.46545E-002	7.46529E-002	5.83263E-004	...........
	10	2.84167	7.46544E-002	7.46526E-002	5.82330E-004	...........
	11	3.1	7.46541E-002	7.46479E-002	5.80930E-004	...........
EOC	QUANT	0.0746541	Open Circuit (V)
PSTATMODEL	IQUANT	4	Pstat Model
PSTATSECTION	LABEL	REF600-11020	Pstat Section
PSTATSERIALNO	LABEL	11020	Pstat Serial Number
CTRLMODE	IQUANT	1	Control Mode
IESTAB	IQUANT	0	I/E Stability
CASPEED	IQUANT	1	Control Amp Speed
CONVENTION	IQUANT	1	Current Convention
ICHRANGE	IQUANT	2	Ich Range
ICHRANGEMODE	TOGGLE	F	Ich Auto Range
ICHOFFSETENABLE	TOGGLE	T	Ich Offset Enable
ICHOFFSET	QUANT	0	Ich Offset (V)
ICHFILTER	IQUANT	3	Ich Filter
VCHRANGE	IQUANT	2	Vch Range
VCHRANGEMODE	TOGGLE	F	Vch Auto Range
VCHOFFSETENABLE	TOGGLE	T	Vch Offset Enable
VCHOFFSET	QUANT	0	Vch Offset (V)
VCHFILTER	IQUANT	3	Vch Filter
ACHRANGE	IQUANT	2	Ach Range
ACHOFFSETENABLE	TOGGLE	F	Ach Offset Enable
ACHOFFSET	QUANT	0	Ach Offset (V)
ACHFILTER	IQUANT	3	Ach Filter
IERANGELOWERLIMIT	IQUANT	1	I/E Range Lower Limit
IERANGEMODE	TOGGLE	F	I/E AutoRange
IERANGE	IQUANT	8	I/E Range
POSFEEDENABLE	TOGGLE	F	Positive Feedback IR Comp
POSFEEDRESISTANCE	QUANT	0	Positive Feedback Resistance (ohm)
ACHSELECT	IQUANT	0	Ach Select
CABLEID	IQUANT	14	Cable ID
DCCALDATE	LABEL	2/27/2020	DC Calibration Date
ACCALDATE	LABEL	2/27/2020	AC Calibration Date
THERMOSELECT	IQUANT	1	Thermo Select
FRAMEWORKVERSION	QUANT	6.33	Framework Version
INSTRUMENTVERSION	LABEL	3.50	Instrument Version
ZCURVE	TABLE
	Pt	Time	Freq	Zreal	Zimag	Zsig	Zmod	Zphz	Idc	Vdc	IERange
	#	s	Hz	ohm	ohm	V	ohm	°	A	V	#
	0	1	1000078	1900.445	-1139.215	1	2215.74	-30.94042	3.755882E-008	0.0771248	8
	1	1	794390.6	2116.489	-1084.783	1	2378.293	-27.1369	5.242084E-008	0.076798	8
	2	1	630984.4	2303.868	-1006.532	1	2514.143	-23.59993	4.891461E-008	0.0766398	8
	3	2	501234.4	2459.412	-917.0767	1	2624.831	-20.44971	4.736604E-009	0.0765718	8
	4	2	398109.4	2587.317	-828.7331	1	2716.801	-17.76057	8.818099E-008	0.0764927	8
	5	2	316265.6	2691.316	-748.5367	1	2793.472	-15.54287	4.369651E-008	0.0764609	8
	6	3	251203.1	2773.553	-677.3505	1	2855.066	-13.724	4.83551E-008	0.0764479	8
	7	3	199546.9	2845.138	-622.2118	1	2912.38	-12.33597	5.05527E-008	0.07645	8
	8	3	158578.1	2904.035	-580.4893	1	2961.484	-11.3039	4.256886E-008	0.0764673	8
	9	4	125953.1	2984.236	-501.4388	1	3026.071	-9.53826	4.960746E-009	0.0763839	7
	10	4	100078.1	3023.522	-489.4482	1	3062.882	-9.195282	4.554663E-009	0.0763775	7
	11	4	79453.13	3070.313	-498.9342	1	3110.588	-9.230036	4.584328E-009	0.0763751	7
	12	5	63140.62	3119.17	-518.2188	1	3161.926	-9.432956	2.924737E-009	0.076373	7
	13	5	50203.12	3171.221	-546.694	1	3217.999	-9.78121	2.113701E-009	0.0763677	7
	14	5	39890.62	3226.558	-585.7198	1	3279.29	-10.28891	2.313681E-009	0.0763676	7
	15	6	31640.63	3287.56	-636.7435	1	3348.655	-10.96148	3.417018E-009	0.0763721	7
	16	6	25171.88	3353.104	-699.4216	1	3425.273	-11.78234	3.75612E-009	0.0763704	7
	17	6	20015.62	3426.682	-775.7637	1	3513.397	-12.75612	3.695165E-009	0.0763692	7
	18	7	15890.62	3508.855	-867.3342	1	3614.462	-13.88431	3.521696E-009	0.0763686	7
	19	7	12609.37	3601.451	-976.146	1	3731.395	-15.16523	2.482508E-009	0.0763676	7
	20	7	10078.13	3702.684	-1099.593	1	3862.508	-16.53994	3.90301E-009	0.0763663	7
	21	7	8015.625	3819.534	-1245.058	1	4017.338	-18.05447	3.762422E-009	0.0763577	7
	22	8	6328.125	3956.383	-1421.19	1	4203.896	-19.75902	4.882885E-009	0.0763642	7
	23	8	5015.625	4109.732	-1620.456	1	4417.667	-21.51918	3.017015E-009	0.0763616	7
	24	8	3984.375	4281.457	-1849.722	1	4663.94	-23.36584	3.854638E-009	0.0763631	7
	25	9	3170.956	4474.223	-2111.896	1	4947.604	-25.26797	5.317363E-009	0.0763676	7
	26	9	2527.573	4692.147	-2413.598	1	5276.524	-27.22088	4.351647E-009	0.0763599	7
	27	9	1976.103	4960.226	-2793.05	1	5692.536	-29.38339	1.959199E-009	0.0763471	7
	28	10	1577.524	5239.748	-3198.71	1	6138.95	-31.40282	3.573464E-009	0.0763559	7
	29	10	1265.625	5551.521	-3653.28	1	6645.738	-33.34765	3.543408E-009	0.0763519	7
	30	10	998.264	5933.111	-4221.527	1	7281.696	-35.43261	2.080909E-009	0.0763418	7
	31	11	796.875	6348.271	-4857.429	1	7993.445	-37.42169	5.255368E-009	0.0763567	7
	32	11	627.7902	6850.794	-5632.968	1	8869.257	-39.42827	5.684871E-009	0.0763483	7
	33	11	505.5147	7375.922	-6434.303	1	9787.98	-41.09945	4.969247E-010	0.0764102	6
	34	12	397.9953	8022.219	-7476.913	1	10966.32	-42.98499	6.401849E-010	0.0764195	6
	35	12	315.5048	8734.001	-8660.746	1	12300.05	-44.75871	6.587402E-010	0.0764201	6
	36	12	252.4038	9502.38	-9990.56	1	13787.91	-46.4346	5.973566E-010	0.0764163	6
	37	13	198.6229	10430.49	-11673.23	1	15654.37	-48.21796	6.477648E-010	0.0764168	6
	38	13	158.3615	11419.55	-13558.48	1	17726.77	-49.89444	5.200773E-010	0.0764176	6
	39	13	125.558	12563.7	-15849.51	1	20225.08	-51.5966	6.67047E-010	0.0764147	6
	40	14	100.4464	13804.67	-18463.31	1	23053.48	-53.21523	6.100522E-010	0.0764149	6
	41	14	79.00281	15319.35	-21831.09	1	26669.81	-54.94182	5.795593E-010	0.0764099	6
	42	14	63.3446	16901.66	-25543.34	1	30628.88	-56.50797	3.583907E-010	0.0764141	6
	43	15	49.86702	18860.98	-30381.12	1	35759.61	-58.16747	3.461983E-010	0.076406	6
	44	15	39.72458	21013.59	-35948.5	1	41639.71	-59.69171	5.944695E-010	0.076411	6
	45	15	31.6723	23518.39	-42640.26	1	48696.06	-61.12091	4.254398E-010	0.0764046	6
	46	16	24.93351	26662.16	-51207.91	1	57733.19	-62.49559	5.318269E-010	0.0764084	6
	47	16	19.86229	30253.38	-61092.65	1	68173.15	-63.65516	-5.074675E-011	0.0764125	6
	48	16	15.83615	34654	-72911.06	1	80727.46	-64.57866	1.386582E-009	0.0764121	6
	49	17	12.40079	40524.84	-88312.68	1	97166.8	-65.3506	1.503082E-009	0.0764079	6
	50	17	9.93114	47205.41	-104923.5	1	115053.4	-65.77688	1.32514E-009	0.0764085	5
	51	17	7.944915	55394.07	-124901.5	1	136634.1	-66.08262	6.53821E-010	0.0764055	5
	52	18	6.317385	66037.63	-149019.1	1	162995.9	-66.09953	2.402121E-011	0.0764236	5
	53	18	5.008013	79590.2	-177871.8	1	194866.6	-65.89348	1.682476E-010	0.0764179	5
	54	19	3.945707	96743.3	-212608.5	1	233584.3	-65.53304	5.011319E-010	0.0764147	5
	55	20	3.158693	116794.8	-249942	1	275884.1	-64.9539	8.939769E-011	0.0764316	5
	56	21	2.504006	142059.1	-295207.9	1	327610.2	-64.30235	-5.458426E-011	0.0764128	5
	57	23	1.998082	171901.1	-344667.8	1	385157	-63.49253	2.238156E-010	0.076445	5
	58	24	1.584686	208069.5	-404446.3	1	454829.3	-62.77621	2.290597E-010	0.076449	5
	59	26	1.266892	249336.6	-468641.9	1	530842.7	-61.9852	1.556906E-010	0.0764114	5
	60	29	0.999041	302442	-546464.9	1	624575.9	-61.03758	1.220984E-010	0.0763811	5
