EXPLAIN
TAG	EISPOT
TITLE	LABEL	Potentiostatic EIS	Test &Identifier
DATE	LABEL	6/6/2020	Date
TIME	LABEL	13:37:37	Time
NOTES	NOTES	1	&Notes...
	
PSTAT	PSTAT	REF600-11020	Potentiostat
VDC	POTEN	0.00000E+000	T	DC &Voltage (V)
FREQINIT	QUANT	1.00000E+006	Initial Fre&q. (Hz)
FREQFINAL	QUANT	1.00000E+000	Final Fre&q. (Hz)
PTSPERDEC	QUANT	1.00000E+001	Points/&decade
VAC	QUANT	2.50000E+001	AC &Voltage (mV rms)
AREA	QUANT	2.50000E-001	&Area (cm^2)
CONDIT	TWOPARAM	F	5.00000E+000	0.00000E+000	Conditionin&g	Time(s)	E(V)
DELAY	TWOPARAM	T	3.00000E+000	0.00000E+000	Init. De&lay	Time(s)	Stab.(mV/s)
SPEED	SELECTOR	0	&Optimize for:
ZGUESS	QUANT	1.00000E+003	E&stimated Z (ohms)
OCVCURVE	TABLE	12
	Pt	T	Vf	Vm	Ach	Over
	#	s	V vs. Ref.	V	V	bits
	0	0.258333	6.01768E-003	6.01768E-003	5.80563E-004	...........
	1	0.516667	6.01746E-003	6.00662E-003	5.77730E-004	...........
	2	0.775	6.01619E-003	5.99746E-003	5.82030E-004	...........
	3	1.03333	6.01262E-003	5.98562E-003	5.79197E-004	...........
	4	1.29167	6.00610E-003	5.97257E-003	5.81763E-004	...........
	5	1.55	5.99690E-003	5.95770E-003	5.79897E-004	...........
	6	1.80833	5.98553E-003	5.94055E-003	5.81263E-004	...........
	7	2.06667	5.97237E-003	5.92414E-003	5.84830E-004	...........
	8	2.325	5.95770E-003	5.90830E-003	5.82197E-004	...........
	9	2.58333	5.94204E-003	5.89423E-003	5.89763E-004	...........
	10	2.84167	5.92614E-003	5.88104E-003	5.76897E-004	...........
	11	3.1	5.91073E-003	5.86853E-003	5.84730E-004	...........
EOC	QUANT	0.0059107	Open Circuit (V)
PSTATMODEL	IQUANT	4	Pstat Model
PSTATSECTION	LABEL	REF600-11020	Pstat Section
PSTATSERIALNO	LABEL	11020	Pstat Serial Number
CTRLMODE	IQUANT	1	Control Mode
IESTAB	IQUANT	0	I/E Stability
CASPEED	IQUANT	1	Control Amp Speed
CONVENTION	IQUANT	1	Current Convention
ICHRANGE	IQUANT	2	Ich Range
ICHRANGEMODE	TOGGLE	F	Ich Auto Range
ICHOFFSETENABLE	TOGGLE	T	Ich Offset Enable
ICHOFFSET	QUANT	0	Ich Offset (V)
ICHFILTER	IQUANT	3	Ich Filter
VCHRANGE	IQUANT	2	Vch Range
VCHRANGEMODE	TOGGLE	F	Vch Auto Range
VCHOFFSETENABLE	TOGGLE	T	Vch Offset Enable
VCHOFFSET	QUANT	0	Vch Offset (V)
VCHFILTER	IQUANT	3	Vch Filter
ACHRANGE	IQUANT	2	Ach Range
ACHOFFSETENABLE	TOGGLE	F	Ach Offset Enable
ACHOFFSET	QUANT	0	Ach Offset (V)
ACHFILTER	IQUANT	3	Ach Filter
IERANGELOWERLIMIT	IQUANT	1	I/E Range Lower Limit
IERANGEMODE	TOGGLE	F	I/E AutoRange
IERANGE	IQUANT	7	I/E Range
POSFEEDENABLE	TOGGLE	F	Positive Feedback IR Comp
POSFEEDRESISTANCE	QUANT	0	Positive Feedback Resistance (ohm)
ACHSELECT	IQUANT	0	Ach Select
CABLEID	IQUANT	14	Cable ID
DCCALDATE	LABEL	2/27/2020	DC Calibration Date
ACCALDATE	LABEL	2/27/2020	AC Calibration Date
THERMOSELECT	IQUANT	1	Thermo Select
FRAMEWORKVERSION	QUANT	6.33	Framework Version
INSTRUMENTVERSION	LABEL	3.50	Instrument Version
ZCURVE	TABLE
	Pt	Time	Freq	Zreal	Zimag	Zsig	Zmod	Zphz	Idc	Vdc	IERange
	#	s	Hz	ohm	ohm	V	ohm	°	A	V	#
	0	1	1000078	2090.985	-1534.512	1	2593.636	-36.27385	1.294399E-008	0.0084373	8
	1	1	794390.6	2387.976	-1543.457	1	2843.359	-32.87642	5.237173E-008	0.0081267	8
	2	2	630984.4	2674.367	-1514.8	1	3073.574	-29.52783	4.248954E-008	0.0079153	8
	3	2	501234.4	2943.763	-1454.146	1	3283.333	-26.28823	6.203058E-008	0.0078217	8
	4	2	398109.4	3183.657	-1368.933	1	3465.494	-23.2671	7.710744E-008	0.0077655	8
	5	3	316265.6	3393.675	-1271.969	1	3624.215	-20.54629	7.714799E-008	0.0077275	8
	6	3	251203.1	3568.224	-1175.547	1	3756.878	-18.2344	9.014546E-008	0.0077205	8
	7	3	199546.9	3717.762	-1086.458	1	3873.261	-16.29018	5.73153E-008	0.0077061	8
	8	4	158578.1	3845.06	-1010.693	1	3975.675	-14.72733	7.612714E-008	0.0077144	8
	9	4	125953.1	3990.135	-888.7736	1	4087.921	-12.55723	5.15834E-009	0.0076587	7
	10	4	100078.1	4070.836	-855.6426	1	4159.788	-11.87012	5.171996E-009	0.0076401	7
	11	5	79453.13	4159.243	-849.5054	1	4245.11	-11.54362	4.364041E-009	0.0076326	7
	12	5	63140.62	4244.858	-858.3069	1	4330.764	-11.43104	3.934322E-009	0.0076276	7
	13	5	50203.12	4331.747	-883.7476	1	4420.978	-11.53103	4.681283E-009	0.007633	7
	14	6	39890.62	4421.224	-926.3027	1	4517.218	-11.83304	4.156228E-009	0.0076297	7
	15	6	31640.63	4516.365	-987.961	1	4623.161	-12.33916	3.585853E-009	0.0076238	7
	16	6	25171.88	4617.171	-1067.56	1	4738.983	-13.01888	4.16875E-009	0.0076253	7
	17	7	20015.62	4728.243	-1168.564	1	4870.506	-13.88221	5.27517E-009	0.0076313	7
	18	7	15890.62	4849.926	-1291.881	1	5019.038	-14.91562	5.342381E-009	0.007629	7
	19	7	12609.37	4985.381	-1440.737	1	5189.388	-16.11889	4.129731E-009	0.0076272	7
	20	7	10078.13	5131.858	-1612.106	1	5379.113	-17.43943	4.573586E-009	0.0076256	7
	21	8	8015.625	5299.712	-1819.406	1	5603.319	-18.94749	5.020555E-009	0.0076266	7
	22	8	6328.125	5495.219	-2071.095	1	5872.552	-20.65094	5.047113E-009	0.0076276	7
	23	8	5015.625	5713.209	-2359.944	1	6181.431	-22.44396	4.404826E-009	0.0076229	7
	24	9	3984.375	5958.13	-2695.162	1	6539.358	-24.33963	6.785257E-009	0.0076291	7
	25	9	3170.956	6236.629	-3079.372	1	6955.435	-26.27813	6.725257E-009	0.007628	7
	26	9	2527.573	6551.205	-3525.137	1	7439.414	-28.28425	6.343476E-009	0.007623	7
	27	10	1976.103	6943.604	-4086.855	1	8057.048	-30.48015	7.217961E-009	0.0076265	7
	28	10	1577.524	7358.396	-4680.833	1	8721.021	-32.46132	6.161579E-009	0.007621	7
	29	10	1265.625	7835.627	-5343.745	1	9484.338	-34.29322	5.547445E-010	0.0076676	6
	30	11	998.264	8415.274	-6186.892	1	10444.83	-36.32325	9.057974E-010	0.0076742	6
	31	11	796.875	9047.2	-7107.62	1	11505.22	-38.15372	2.929847E-010	0.0076628	6
	32	11	627.7902	9826.93	-8234.229	1	12820.73	-39.96047	5.333373E-010	0.0076662	6
	33	12	505.5147	10644.04	-9406.215	1	14204.66	-41.46727	6.724126E-010	0.0076616	6
	34	12	397.9953	11684.89	-10893.17	1	15974.91	-42.99171	7.712161E-010	0.0076857	6
	35	12	315.5048	12849.79	-12547.24	1	17959.68	-44.31749	7.510647E-010	0.007683	6
	36	13	252.4038	14125.72	-14363.13	1	20145.36	-45.47746	7.942741E-010	0.007676	6
	37	13	198.6229	15679.05	-16599.94	1	22833.98	-46.63414	8.60695E-010	0.0076767	6
	38	13	158.3615	17334.93	-19038.05	1	25747.76	-47.68085	7.944633E-010	0.0076727	6
	39	14	125.558	19232.28	-21932.14	1	29170.18	-48.7525	9.252701E-010	0.0076744	6
	40	14	100.4464	21264.58	-25178.16	1	32956.36	-49.81675	9.08993E-010	0.0076692	6
	41	14	79.00281	23716.5	-29301.45	1	37696.78	-51.0134	8.420959E-010	0.0076659	6
	42	15	63.3446	26269.65	-33809.85	1	42815.89	-52.15343	7.856236E-010	0.0076672	6
	43	15	49.86702	29444.35	-39637.89	1	49377.45	-53.39381	8.384392E-010	0.0076676	6
	44	15	39.72458	32990.56	-46265.5	1	56823.18	-54.50846	4.608416E-010	0.0076703	6
	45	16	31.6723	37182.39	-54102.18	1	65647.37	-55.50072	2.691594E-010	0.0076687	6
	46	16	24.93351	42583.52	-63891.73	1	76782.23	-56.31674	7.212329E-010	0.0076643	6
	47	16	19.86229	48839.9	-74881.97	1	89401.59	-56.8866	-4.437286E-010	0.0076671	6
	48	17	15.83615	56606.69	-87417.77	1	104145	-57.07524	1.815433E-009	0.0076702	5
	49	17	12.40079	66757.05	-103000.1	1	122741.7	-57.05167	9.84358E-010	0.0076739	5
	50	17	9.93114	78079.71	-119004.1	1	142332	-56.73074	1.044148E-009	0.0076735	5
	51	18	7.944915	91211.79	-136757.3	1	164384.1	-56.29825	1.875742E-009	0.0076716	5
	52	18	6.317385	107534.5	-157289.1	1	190534.9	-55.64059	-2.603314E-010	0.007692	5
	53	19	5.008013	126645.4	-180325.6	1	220355.1	-54.91906	-2.414466E-010	0.0076812	5
	54	20	3.945707	148618.8	-206148.1	1	254135	-54.21096	5.974697E-010	0.0076749	5
	55	21	3.158693	172204.3	-233378	1	290033.8	-53.57724	-1.148457E-010	0.0076746	5
	56	22	2.504006	198991.3	-264931.8	1	331340.3	-53.08964	1.274404E-010	0.0076624	5
	57	23	1.998082	228411.4	-299906.3	1	376982.2	-52.70677	4.65275E-010	0.0077035	5
	58	24	1.584686	260778	-340579.2	1	428951.5	-52.55908	3.081681E-010	0.0076716	5
	59	26	1.266892	297040.9	-385334.7	1	486534.8	-52.37264	1.890063E-010	0.0076294	5
	60	29	0.999041	339937.5	-441522.2	1	557224.7	-52.40654	1.221629E-010	0.0076163	5
