EXPLAIN
TAG	EISPOT
TITLE	LABEL	Potentiostatic EIS	Test &Identifier
DATE	LABEL	1/18/2020	Date
TIME	LABEL	22:36:19	Time
NOTES	NOTES	6	&Notes...
	
	
	
	
	
	
PSTAT	PSTAT	REF600-11020	Potentiostat
VDC	POTEN	0.00000E+000	T	DC &Voltage (V)
FREQINIT	QUANT	1.00000E+006	Initial Fre&q. (Hz)
FREQFINAL	QUANT	1.00000E+000	Final Fre&q. (Hz)
PTSPERDEC	QUANT	1.00000E+001	Points/&decade
VAC	QUANT	2.50000E+001	AC &Voltage (mV rms)
AREA	QUANT	1.00000E-001	&Area (cm^2)
CONDIT	TWOPARAM	F	5.00000E+000	0.00000E+000	Conditionin&g	Time(s)	E(V)
DELAY	TWOPARAM	F	5.00000E+000	0.00000E+000	Init. De&lay	Time(s)	Stab.(mV/s)
SPEED	SELECTOR	0	&Optimize for:
ZGUESS	QUANT	5.00000E+002	E&stimated Z (ohms)
OCVCURVE	TABLE	39
	Pt	T	Vf	Vm	Ach	Over
	#	s	V vs. Ref.	V	V	bits
	0	0.258333	-6.57604E-002	-6.57604E-002	6.45380E-004	...........
	1	0.516667	-6.57755E-002	-6.65497E-002	6.40813E-004	...........
	2	0.775	-6.58073E-002	-6.41158E-002	6.40080E-004	...........
	3	1.03333	-6.57808E-002	-6.62585E-002	6.43280E-004	...........
	4	1.29167	-6.56849E-002	-6.67188E-002	6.39580E-004	...........
	5	1.55	-6.56144E-002	-6.20776E-002	6.46313E-004	...........
	6	1.80833	-6.57539E-002	-8.04446E-002	6.37480E-004	...........
	7	2.06667	-6.68657E-002	-7.87852E-002	6.42713E-004	...........
	8	2.325	-6.96246E-002	-7.36415E-002	6.42646E-004	...........
	9	2.58333	-7.28898E-002	-7.07057E-002	6.43646E-004	...........
	10	2.84167	-7.46113E-002	-7.21001E-002	6.45480E-004	...........
	11	3.1	-7.39435E-002	-5.13262E-002	6.42380E-004	...........
	12	3.35833	-7.08958E-002	-5.68370E-002	6.44946E-004	...........
	13	3.61667	-6.61126E-002	-6.16006E-002	6.44513E-004	...........
	14	3.875	-6.16855E-002	-6.19535E-002	6.44846E-004	...........
	15	4.13333	-5.97283E-002	-6.84851E-002	6.40213E-004	...........
	16	4.39167	-6.03623E-002	-6.04918E-002	6.44480E-004	...........
	17	4.65	-6.20559E-002	-6.48217E-002	6.41180E-004	...........
	18	4.90833	-6.33774E-002	-6.72039E-002	6.41746E-004	...........
	19	5.16667	-6.41761E-002	-6.62379E-002	6.47346E-004	...........
	20	5.425	-6.49249E-002	-6.60230E-002	6.42946E-004	...........
	21	5.68333	-6.56096E-002	-6.49159E-002	6.44280E-004	...........
	22	5.94167	-6.58479E-002	-6.15801E-002	6.44846E-004	...........
	23	6.2	-6.53964E-002	-6.22765E-002	6.44113E-004	...........
	24	6.45833	-6.44177E-002	-6.37616E-002	6.43213E-004	...........
	25	6.71667	-6.34935E-002	-6.39385E-002	6.42080E-004	...........
	26	6.975	-6.31194E-002	-6.39616E-002	6.35047E-004	...........
	27	7.23333	-6.32257E-002	-6.20434E-002	6.38380E-004	...........
	28	7.49167	-6.34539E-002	-6.73503E-002	6.43680E-004	...........
	29	7.75	-6.37566E-002	-6.50100E-002	6.45180E-004	...........
	30	8.00833	-6.42904E-002	-6.56087E-002	6.43580E-004	...........
	31	8.26667	-6.49654E-002	-6.83184E-002	6.47413E-004	...........
	32	8.525	-6.56045E-002	-6.49684E-002	6.44813E-004	...........
	33	8.78333	-6.60981E-002	-6.64912E-002	6.45713E-004	...........
	34	9.04167	-6.62916E-002	-6.45862E-002	6.37780E-004	...........
	35	9.3	-6.63069E-002	-7.42087E-002	6.45346E-004	...........
	36	9.5583	-6.66684E-002	-6.51529E-002	6.46080E-004	...........
	37	9.8167	-6.75271E-002	-7.14151E-002	6.51646E-004	...........
	38	10.075	-6.84497E-002	-7.12508E-002	6.54280E-004	...........
EOC	QUANT	-0.0684497	Open Circuit (V)
PSTATMODEL	IQUANT	4	Pstat Model
PSTATSECTION	LABEL	REF600-11020	Pstat Section
PSTATSERIALNO	LABEL	11020	Pstat Serial Number
CTRLMODE	IQUANT	1	Control Mode
IESTAB	IQUANT	0	I/E Stability
CASPEED	IQUANT	1	Control Amp Speed
CONVENTION	IQUANT	1	Current Convention
ICHRANGE	IQUANT	2	Ich Range
ICHRANGEMODE	TOGGLE	F	Ich Auto Range
ICHOFFSETENABLE	TOGGLE	T	Ich Offset Enable
ICHOFFSET	QUANT	0	Ich Offset (V)
ICHFILTER	IQUANT	3	Ich Filter
VCHRANGE	IQUANT	2	Vch Range
VCHRANGEMODE	TOGGLE	F	Vch Auto Range
VCHOFFSETENABLE	TOGGLE	T	Vch Offset Enable
VCHOFFSET	QUANT	0	Vch Offset (V)
VCHFILTER	IQUANT	3	Vch Filter
ACHRANGE	IQUANT	2	Ach Range
ACHOFFSETENABLE	TOGGLE	F	Ach Offset Enable
ACHOFFSET	QUANT	0	Ach Offset (V)
ACHFILTER	IQUANT	3	Ach Filter
IERANGELOWERLIMIT	IQUANT	1	I/E Range Lower Limit
IERANGEMODE	TOGGLE	F	I/E AutoRange
IERANGE	IQUANT	8	I/E Range
POSFEEDENABLE	TOGGLE	F	Positive Feedback IR Comp
POSFEEDRESISTANCE	QUANT	0	Positive Feedback Resistance (ohm)
ACHSELECT	IQUANT	0	Ach Select
CABLEID	IQUANT	14	Cable ID
DCCALDATE	LABEL	12/22/2019	DC Calibration Date
ACCALDATE	LABEL	12/22/2019	AC Calibration Date
THERMOSELECT	IQUANT	1	Thermo Select
FRAMEWORKVERSION	QUANT	6.33	Framework Version
INSTRUMENTVERSION	LABEL	3.50	Instrument Version
ZCURVE	TABLE
	Pt	Time	Freq	Zreal	Zimag	Zsig	Zmod	Zphz	Idc	Vdc	IERange
	#	s	Hz	ohm	ohm	V	ohm	°	A	V	#
	0	1	1000078	847.2941	-9401.318	1	9439.422	-84.85013	-5.831778E-007	-0.0665939	8
	1	1	794390.6	1140.739	-11408.49	1	11465.38	-84.28996	-2.796295E-006	-0.066075	8
	2	2	630984.4	1320.237	-14716.78	1	14775.88	-84.87374	-2.432454E-007	-0.0665005	8
	3	2	501234.4	1390.673	-18038.62	1	18092.15	-85.59155	1.043614E-006	-0.0671207	8
	4	2	398109.4	1584.379	-22700.15	1	22755.38	-86.00746	3.908677E-007	-0.0670242	8
	5	3	316265.6	1913.209	-29403.26	1	29465.43	-86.27713	-2.648644E-006	-0.066306	8
	6	3	251203.1	2117.57	-35244.49	1	35308.05	-86.56167	8.470674E-008	-0.0669219	8
	7	3	199546.9	2667.751	-43839.72	1	43920.81	-86.51771	-7.402498E-007	-0.0667257	8
	8	4	158578.1	3628.797	-55638.11	1	55756.32	-86.26837	8.150903E-007	-0.0670949	8
	9	4	125953.1	5352.731	-69866.48	1	70071.23	-85.61891	-1.163211E-006	-0.0645894	7
	10	4	100078.1	6113.093	-84947.52	1	85167.2	-85.88391	-3.454257E-008	-0.0669366	7
	11	5	79453.13	7532.08	-106379.7	1	106646	-85.95	-2.874856E-008	-0.0669507	7
	12	5	63140.62	9175.443	-132902.7	1	133219	-86.05064	8.455012E-008	-0.0671196	7
	13	5	50203.12	11949.4	-165926.5	1	166356.2	-85.88088	7.849908E-008	-0.0670806	7
	14	6	39890.62	15050.72	-207914	1	208458	-85.85963	4.435384E-008	-0.0669948	7
	15	6	31640.63	20249	-258182	1	258974.8	-85.51552	-3.635233E-008	-0.0669463	7
	16	6	25171.88	24073.04	-320336.3	1	321239.5	-85.70234	-3.157705E-008	-0.0669519	7
	17	7	20015.62	32912.32	-400030.7	1	401382.3	-85.29662	-5.904561E-008	-0.0668838	7
	18	7	15890.62	46967.06	-495327.1	1	497548.8	-84.58339	-2.915047E-008	-0.0669614	7
	19	7	12609.37	72300.61	-628727.9	1	632871.3	-83.44008	1.926691E-008	-0.067292	6
	20	8	10078.13	92489.17	-769266.1	1	774806.2	-83.14421	-1.572317E-009	-0.0668059	6
	21	8	8015.625	98998.4	-957962	1	963064	-84.09985	2.65183E-010	-0.0670051	6
	22	8	6328.125	143763	-1188598	1	1197260	-83.10347	-4.405396E-009	-0.0669858	6
	23	9	5015.625	204568.8	-1476870	1	1490971	-82.11385	-6.768071E-009	-0.0669298	6
	24	9	3984.375	294907.1	-1825330	1	1848999	-80.82239	-9.901079E-009	-0.0668264	6
	25	10	3170.956	373013.7	-2223752	1	2254819	-80.47781	6.132383E-009	-0.0669052	6
	26	10	2527.573	525474.1	-2793665	1	2842655	-79.34742	1.936555E-008	-0.0673011	6
	27	11	1976.103	658730.3	-3244734	1	3310926	-78.52406	-5.843501E-009	-0.0667837	6
	28	11	1577.524	1046421	-4039047	1	4172397	-75.47536	1.926849E-008	-0.0673037	6
	29	12	1265.625	1086498	-5069000	1	5184134	-77.90218	-5.416076E-010	-0.0667965	5
	30	12	998.264	1620563	-6271861	1	6477845	-75.51242	9.139779E-010	-0.066946	5
	31	13	796.875	2187224	-7818251	1	8118436	-74.37057	-4.797738E-010	-0.0670048	5
	32	13	627.7902	3111438	-9044094	1	9.564344E+006	-71.01526	-4.494115E-010	-0.0667955	5
	33	14	505.5147	4294032	-1.110205E+007	1	1.190354E+007	-68.85461	8.462444E-010	-0.06719	5
	34	14	397.9953	5245346	-1.228832E+007	1	1.336101E+007	-66.88448	-1.954213E-010	-0.0669687	5
	35	14	315.5048	6213020	-1.587838E+007	1	1.705064E+007	-68.63019	-1.409699E-010	-0.0669726	5
	36	15	252.4038	8427987	-1.68714E+007	1	1.885935E+007	-63.45591	1.214137E-010	-0.066975	5
	37	15	198.6229	1.440484E+007	-1.881997E+007	1	2.370002E+007	-52.56949	9.65163E-011	-0.0669761	5
	38	16	158.3615	1.265569E+007	-2.001166E+007	1	2.367769E+007	-57.69009	1.574243E-010	-0.0669783	5
	39	16	125.558	1.752985E+007	-2.525692E+007	1	3.074423E+007	-55.23698	-4.578543E-011	-0.0669287	4
	40	17	100.4464	5.981312E+007	-9.604694E+007	1	1.131487E+008	-58.08746	-2.610586E-010	-0.06693	4
	41	17	79.00281	2.480288E+007	1.394573E+007	1	2.845463E+007	29.34742	-6.153605E-011	-0.0669318	4
	42	18	63.3446	8036937	-2531049	1	8426065	-17.48062	1.252139E-010	-0.0669401	4
	43	18	49.86702	4.194479E+007	371440.7	1	4.194644E+007	0.5073676	1.006649E-010	-0.0669827	5
	44	19	39.72458	3.061144E+007	-3.810232E+007	1	4.887584E+007	-51.22158	1.434903E-011	-0.0669417	4
	45	19	31.6723	3.293993E+007	1.487992E+007	1	3.614486E+007	24.31006	2.595105E-010	-0.0669464	4
	46	20	24.93351	5.015216E+007	-2.548153E+007	1	5.625431E+007	-26.93442	1.109383E-011	-0.0669454	4
	47	20	19.86229	5.760936E+007	-1.109914E+007	1	5.866881E+007	-10.90511	-2.083395E-011	-0.0669467	4
	48	21	15.83615	1.439444E+008	-3.317069E+008	1	3.615929E+008	-66.54154	-1.982353E-010	-0.0669449	4
	49	21	12.40079	-9.047188E+007	5.769328E+007	1	1.073018E+008	147.4746	4.261677E-010	-0.0669435	4
	50	22	9.93114	7.229885E+007	-5647731	1	7.25191E+007	-4.466674	6.026091E-011	-0.0669411	4
	51	23	7.944915	6.627772E+007	-8707614	1	6.684728E+007	-7.484693	-4.992959E-012	-0.0669882	5
	52	24	6.317385	6.516736E+007	-1.802009E+007	1	6.761293E+007	-15.45719	3.055238E-011	-0.0670007	5
	53	26	5.008013	6.788886E+007	-2.432837E+007	1	7.211634E+007	-19.71544	5.922841E-011	-0.0669813	5
	54	28	3.945707	6.730923E+007	-1.943271E+007	1	7.005828E+007	-16.10385	9.568316E-011	-0.0669829	5
	55	30	3.158693	7.428469E+007	-1.628438E+007	1	7.604864E+007	-12.36456	2.21313E-011	-0.0669773	5
	56	32	2.504006	7.976659E+007	-1.35123E+007	1	8.090298E+007	-9.61452	-1.895209E-012	-0.0669895	3
	57	35	1.998082	7.862529E+007	1.493119E+007	1	8.003047E+007	10.75261	1.242792E-010	-0.0669295	4
	58	40	1.584686	7.864626E+007	9.576946E+006	1	7.922722E+007	6.942863	-4.898306E-010	-0.0670212	3
	59	44	1.266892	8.207273E+007	-1.276992E+007	1	8.306024E+007	-8.843894	6.173037E-012	-0.06702	3
	60	47	0.999041	8.449582E+007	-1.251051E+007	1	8.541696E+007	-8.422062	-2.218886E-012	-0.0669703	3
