EXPLAIN
TAG	EISPOT
TITLE	LABEL	Potentiostatic EIS	Test &Identifier
DATE	LABEL	3/12/2020	Date
TIME	LABEL	13:41:45	Time
NOTES	NOTES	1	&Notes...
	
PSTAT	PSTAT	REF600-11020	Potentiostat
VDC	POTEN	0.00000E+000	T	DC &Voltage (V)
FREQINIT	QUANT	1.00000E+006	Initial Fre&q. (Hz)
FREQFINAL	QUANT	1.00000E+000	Final Fre&q. (Hz)
PTSPERDEC	QUANT	1.00000E+001	Points/&decade
VAC	QUANT	2.50000E+001	AC &Voltage (mV rms)
AREA	QUANT	2.50000E-001	&Area (cm^2)
CONDIT	TWOPARAM	F	5.00000E+000	0.00000E+000	Conditionin&g	Time(s)	E(V)
DELAY	TWOPARAM	T	5.00000E+000	0.00000E+000	Init. De&lay	Time(s)	Stab.(mV/s)
SPEED	SELECTOR	1	&Optimize for:
ZGUESS	QUANT	5.00000E+003	E&stimated Z (ohms)
OCVCURVE	TABLE	19
	Pt	T	Vf	Vm	Ach	Over
	#	s	V vs. Ref.	V	V	bits
	0	0.258333	5.50107E-002	5.50107E-002	5.79497E-004	...........
	1	0.516667	5.50100E-002	5.49729E-002	5.75097E-004	...........
	2	0.775	5.50054E-002	5.49318E-002	5.78997E-004	...........
	3	1.03333	5.49927E-002	5.49156E-002	5.81130E-004	...........
	4	1.29167	5.49714E-002	5.49056E-002	5.80330E-004	...........
	5	1.55	5.49464E-002	5.48787E-002	5.81363E-004	...........
	6	1.80833	5.49230E-002	5.48643E-002	5.79263E-004	...........
	7	2.06667	5.49022E-002	5.48449E-002	5.79997E-004	...........
	8	2.325	5.48831E-002	5.48297E-002	5.78163E-004	...........
	9	2.58333	5.48650E-002	5.48140E-002	5.78330E-004	...........
	10	2.84167	5.48478E-002	5.47995E-002	5.79797E-004	...........
	11	3.1	5.48314E-002	5.47847E-002	5.81497E-004	...........
	12	3.35833	5.48158E-002	5.47716E-002	5.72563E-004	...........
	13	3.61667	5.48009E-002	5.47597E-002	5.78597E-004	...........
	14	3.875	5.47867E-002	5.47442E-002	5.79997E-004	...........
	15	4.13333	5.47729E-002	5.47275E-002	5.79930E-004	...........
	16	4.39167	5.47590E-002	5.47149E-002	5.80563E-004	...........
	17	4.65	5.47448E-002	5.47052E-002	5.78797E-004	...........
	18	4.90833	5.47308E-002	5.46944E-002	5.81563E-004	...........
EOC	QUANT	0.0547308	Open Circuit (V)
PSTATMODEL	IQUANT	4	Pstat Model
PSTATSECTION	LABEL	REF600-11020	Pstat Section
PSTATSERIALNO	LABEL	11020	Pstat Serial Number
CTRLMODE	IQUANT	1	Control Mode
IESTAB	IQUANT	0	I/E Stability
CASPEED	IQUANT	1	Control Amp Speed
CONVENTION	IQUANT	1	Current Convention
ICHRANGE	IQUANT	2	Ich Range
ICHRANGEMODE	TOGGLE	F	Ich Auto Range
ICHOFFSETENABLE	TOGGLE	T	Ich Offset Enable
ICHOFFSET	QUANT	0	Ich Offset (V)
ICHFILTER	IQUANT	3	Ich Filter
VCHRANGE	IQUANT	2	Vch Range
VCHRANGEMODE	TOGGLE	F	Vch Auto Range
VCHOFFSETENABLE	TOGGLE	T	Vch Offset Enable
VCHOFFSET	QUANT	0	Vch Offset (V)
VCHFILTER	IQUANT	3	Vch Filter
ACHRANGE	IQUANT	2	Ach Range
ACHOFFSETENABLE	TOGGLE	F	Ach Offset Enable
ACHOFFSET	QUANT	0	Ach Offset (V)
ACHFILTER	IQUANT	3	Ach Filter
IERANGELOWERLIMIT	IQUANT	1	I/E Range Lower Limit
IERANGEMODE	TOGGLE	F	I/E AutoRange
IERANGE	IQUANT	7	I/E Range
POSFEEDENABLE	TOGGLE	F	Positive Feedback IR Comp
POSFEEDRESISTANCE	QUANT	0	Positive Feedback Resistance (ohm)
ACHSELECT	IQUANT	0	Ach Select
CABLEID	IQUANT	14	Cable ID
DCCALDATE	LABEL	2/27/2020	DC Calibration Date
ACCALDATE	LABEL	2/27/2020	AC Calibration Date
THERMOSELECT	IQUANT	1	Thermo Select
FRAMEWORKVERSION	QUANT	6.33	Framework Version
INSTRUMENTVERSION	LABEL	3.50	Instrument Version
ZCURVE	TABLE
	Pt	Time	Freq	Zreal	Zimag	Zsig	Zmod	Zphz	Idc	Vdc	IERange
	#	s	Hz	ohm	ohm	V	ohm	°	A	V	#
	0	2	1000078	1931.871	-1737.168	1	2598.053	-41.96237	4.626172E-007	0.0568355	8
	1	3	794390.6	2242.211	-1804.767	1	2878.314	-38.83076	-5.034433E-007	0.0568522	8
	2	4	630984.4	2558.185	-1842.386	1	3152.57	-35.76115	-1.232771E-007	0.0565968	8
	3	6	501234.4	2849.644	-1852.642	1	3398.935	-33.02915	4.598682E-007	0.056433	8
	4	7	398109.4	3137.051	-1854.834	1	3644.379	-30.59441	-4.416268E-007	0.0565279	8
	5	8	316265.6	3405.28	-1853.702	1	3877.131	-28.56215	4.417527E-007	0.0563453	8
	6	10	251203.1	3654.354	-1856.168	1	4098.739	-26.92754	-4.650239E-007	0.0564563	8
	7	11	199546.9	3910.107	-1895.394	1	4345.279	-25.86143	-8.629374E-008	0.0563775	8
	8	12	158578.1	4140.816	-1929.102	1	4568.128	-24.97962	-1.935115E-007	0.0564351	8
	9	14	125953.1	4430.532	-1953.678	1	4842.156	-23.79546	-3.239726E-007	0.0572524	7
	10	15	100078.1	4672.696	-2031.415	1	5095.167	-23.49659	3.771402E-008	0.0563287	7
	11	17	79453.13	4943.305	-2134.386	1	5384.41	-23.35339	3.880007E-008	0.0563213	7
	12	18	63140.62	5227.077	-2250.937	1	5691.138	-23.29817	4.276674E-009	0.0563346	7
	13	19	50203.12	5526.181	-2383.483	1	6018.278	-23.33089	2.348295E-009	0.0563502	7
	14	21	39890.62	5841.373	-2526.126	1	6364.192	-23.38627	-1.674373E-008	0.0563392	7
	15	22	31640.63	6178.348	-2690.234	1	6738.646	-23.52972	6.946318E-008	0.0562287	7
	16	23	25171.88	6524.023	-2868.814	1	7126.918	-23.73657	3.576264E-008	0.0562394	7
	17	25	20015.62	6887.267	-3077.792	1	7543.69	-24.07899	9.969439E-009	0.0563653	7
	18	26	15890.62	7270.091	-3316.393	1	7990.788	-24.52102	-3.639923E-009	0.0563467	7
	19	27	12609.37	7669.057	-3592.22	1	8468.676	-25.0986	3.919578E-008	0.0563105	7
	20	29	10078.13	8080.66	-3906.804	1	8975.532	-25.80265	1.948527E-008	0.0562895	7
	21	30	8015.625	8559.628	-4259.912	1	9561.07	-26.45838	-5.18537E-009	0.0564092	6
	22	32	6328.125	9071.495	-4731.488	1	10231.28	-27.54553	-9.574822E-010	0.0563272	6
	23	33	5015.625	9629.55	-5276.455	1	10980.4	-28.72027	3.204448E-009	0.0563796	6
	24	34	3984.375	10264.59	-5892.2	1	11835.54	-29.85718	-5.065508E-009	0.0564261	6
	25	36	3170.956	10973.57	-6581.557	1	12795.94	-30.95384	-5.065046E-009	0.0564103	6
	26	37	2527.573	11764.34	-7339.793	1	13866.23	-31.96012	2.500759E-009	0.0563915	6
	27	38	1976.103	12718.67	-8245.643	1	15157.68	-32.95574	4.121436E-009	0.0562668	6
	28	40	1577.524	13669.86	-9172.796	1	16462.23	-33.86254	-4.686875E-009	0.0564298	6
	29	41	1265.625	14655.71	-10179.35	1	17844.02	-34.78252	2.524819E-009	0.0563956	6
	30	43	998.264	15783.48	-11447.22	1	19497.62	-35.95211	-2.963472E-009	0.056375	6
	31	44	796.875	16916.74	-12875.63	1	21259.3	-37.2754	-4.154483E-009	0.0564273	6
	32	45	627.7902	18212.58	-14678.22	1	23391.2	-38.86667	2.661889E-009	0.0563731	6
	33	47	505.5147	19535.01	-16655.17	1	25671.21	-40.45027	-1.144426E-009	0.0563492	6
	34	48	397.9953	21183.77	-19309.21	1	28663.53	-42.34948	2.034769E-010	0.0563771	6
	35	49	315.5048	23098.62	-22381.37	1	32163.21	-44.09647	7.448436E-010	0.0563746	6
	36	51	252.4038	25317	-25863.18	1	36191.91	-45.61142	1.260496E-010	0.0563678	6
	37	52	198.6229	28217.31	-30207.4	1	41336.47	-46.95087	4.016708E-010	0.0563675	6
	38	53	158.3615	31521.2	-34925.41	1	47046.48	-47.93283	1.774205E-010	0.0563689	6
	39	55	125.558	35587.76	-40345.47	1	53798.2	-48.58527	2.451287E-010	0.0563645	6
	40	56	100.4464	40191.7	-46265.34	1	61285.03	-49.01845	9.347008E-011	0.0563606	6
	41	58	79.00281	45883.46	-53144.54	1	70211.35	-49.19363	4.059104E-010	0.0563634	6
	42	59	63.3446	51635.75	-59901.21	1	79084.8	-49.23817	3.772828E-010	0.0563648	6
	43	60	49.86702	60689.04	-69104.57	1	91970.66	-48.70974	5.195198E-010	0.0563641	6
	44	62	39.72458	68747.43	-77930.16	1	103919.8	-48.58232	7.31812E-011	0.0563708	5
	45	63	31.6723	78657.83	-87852.95	1	117920.3	-48.1608	1.156142E-010	0.0563695	5
	46	65	24.93351	90046.59	-99144	1	133932.6	-47.75301	4.513782E-010	0.0563699	5
	47	66	19.86229	102364.9	-110939.8	1	150951	-47.30207	4.717437E-010	0.0563794	5
	48	67	15.83615	115510.2	-123002.8	1	168737.3	-46.79928	-1.748435E-010	0.056375	5
	49	69	12.40079	131827.7	-139192.3	1	191710.8	-46.55654	7.110633E-010	0.0563735	5
	50	70	9.93114	146693.9	-154493.4	1	213043	-46.4834	-1.954945E-010	0.0563803	5
	51	72	7.944915	163417.5	-171995.4	1	237250.3	-46.46497	9.124095E-010	0.0563795	5
	52	74	6.317385	182077.8	-193668.2	1	265818.9	-46.7668	-1.096947E-010	0.0563931	5
	53	76	5.008013	202554.6	-218850.3	1	298200.9	-47.21451	8.421042E-011	0.0563733	5
	54	78	3.945707	224943.3	-249161.3	1	335679.6	-47.92421	3.410629E-010	0.0563779	5
	55	81	3.158693	248339.1	-282664.4	1	376259.8	-48.69859	-9.426087E-011	0.0563694	5
	56	84	2.504006	274692	-323896.8	1	424693.8	-49.69923	3.958871E-010	0.0563719	5
	57	87	1.998082	302436	-370854.8	1	478540.3	-50.80239	9.94471E-011	0.0564171	5
	58	90	1.584686	332819	-429548.8	1	543397.3	-52.23109	1.835859E-010	0.0563713	5
	59	94	1.266892	367556.8	-497533.3	1	618576.9	-53.54456	9.611675E-011	0.056415	5
	60	98	0.999041	407737	-585090.4	1	713148.1	-55.12818	4.353904E-011	0.0563323	5
