EXPLAIN
TAG	EISPOT
TITLE	LABEL	Potentiostatic EIS	Test &Identifier
DATE	LABEL	2/13/2020	Date
TIME	LABEL	10:51:09	Time
NOTES	NOTES	1	&Notes...
	
PSTAT	PSTAT	REF600-11020	Potentiostat
VDC	POTEN	0.00000E+000	T	DC &Voltage (V)
FREQINIT	QUANT	1.00000E+006	Initial Fre&q. (Hz)
FREQFINAL	QUANT	1.00000E+000	Final Fre&q. (Hz)
PTSPERDEC	QUANT	1.00000E+001	Points/&decade
VAC	QUANT	2.50000E+001	AC &Voltage (mV rms)
AREA	QUANT	5.00000E-004	&Area (cm^2)
CONDIT	TWOPARAM	F	1.50000E+001	0.00000E+000	Conditionin&g	Time(s)	E(V)
DELAY	TWOPARAM	F	1.00000E+002	0.00000E+000	Init. De&lay	Time(s)	Stab.(mV/s)
SPEED	SELECTOR	0	&Optimize for:
ZGUESS	QUANT	1.00000E+003	E&stimated Z (ohms)
OCVCURVE	TABLE	39
	Pt	T	Vf	Vm	Ach	Over
	#	s	V vs. Ref.	V	V	bits
	0	0.258333	6.35263E-002	6.35263E-002	5.66338E-004	...........
	1	0.516667	6.35263E-002	6.35285E-002	5.67871E-004	...........
	2	0.775	6.35264E-002	6.35222E-002	5.69204E-004	...........
	3	1.03333	6.35263E-002	6.35266E-002	5.67138E-004	...........
	4	1.29167	6.35260E-002	6.35237E-002	5.63971E-004	...........
	5	1.55	6.35255E-002	6.35282E-002	5.69438E-004	...........
	6	1.80833	6.35255E-002	6.35325E-002	5.72404E-004	...........
	7	2.06667	6.35264E-002	6.35311E-002	5.68504E-004	...........
	8	2.325	6.35281E-002	6.35327E-002	5.62338E-004	...........
	9	2.58333	6.35299E-002	6.35298E-002	5.63171E-004	...........
	10	2.84167	6.35310E-002	6.35333E-002	5.69904E-004	...........
	11	3.1	6.35318E-002	6.35475E-002	5.72871E-004	...........
	12	3.35833	6.35340E-002	6.35688E-002	5.68271E-004	...........
	13	3.61667	6.35397E-002	6.35693E-002	5.64971E-004	...........
	14	3.875	6.35487E-002	6.35593E-002	5.64204E-004	...........
	15	4.13333	6.35570E-002	6.35509E-002	5.61004E-004	...........
	16	4.39167	6.35616E-002	6.35950E-002	5.62804E-004	...........
	17	4.65	6.35648E-002	6.35997E-002	5.62871E-004	...........
	18	4.90833	6.35712E-002	6.35836E-002	5.69571E-004	...........
	19	5.16667	6.35796E-002	6.35726E-002	5.69304E-004	...........
	20	5.425	6.35844E-002	6.35616E-002	5.64571E-004	...........
	21	5.68333	6.35824E-002	6.35724E-002	5.63438E-004	...........
	22	5.94167	6.35769E-002	6.35713E-002	5.66371E-004	...........
	23	6.2	6.35721E-002	6.35691E-002	5.62038E-004	...........
	24	6.45833	6.35699E-002	6.35597E-002	5.60271E-004	...........
	25	6.71667	6.35685E-002	6.35641E-002	5.67671E-004	...........
	26	6.975	6.35668E-002	6.35653E-002	5.61771E-004	...........
	27	7.23333	6.35652E-002	6.35678E-002	5.64671E-004	...........
	28	7.49167	6.35647E-002	6.35651E-002	5.66604E-004	...........
	29	7.75	6.35652E-002	6.35735E-002	5.68104E-004	...........
	30	8.00833	6.35664E-002	6.35655E-002	5.67671E-004	...........
	31	8.26667	6.35675E-002	6.35667E-002	5.64538E-004	...........
	32	8.525	6.35681E-002	6.35704E-002	5.67471E-004	...........
	33	8.78333	6.35682E-002	6.35711E-002	5.68504E-004	...........
	34	9.04167	6.35686E-002	6.35737E-002	5.69204E-004	...........
	35	9.3	6.35697E-002	6.35766E-002	5.63438E-004	...........
	36	9.5583	6.35715E-002	6.35772E-002	5.63871E-004	...........
	37	9.8167	6.35735E-002	6.35796E-002	5.65371E-004	...........
	38	10.075	6.35755E-002	6.35777E-002	5.69204E-004	...........
EOC	QUANT	0.0635755	Open Circuit (V)
PSTATMODEL	IQUANT	4	Pstat Model
PSTATSECTION	LABEL	REF600-11020	Pstat Section
PSTATSERIALNO	LABEL	11020	Pstat Serial Number
CTRLMODE	IQUANT	1	Control Mode
IESTAB	IQUANT	0	I/E Stability
CASPEED	IQUANT	1	Control Amp Speed
CONVENTION	IQUANT	1	Current Convention
ICHRANGE	IQUANT	2	Ich Range
ICHRANGEMODE	TOGGLE	F	Ich Auto Range
ICHOFFSETENABLE	TOGGLE	T	Ich Offset Enable
ICHOFFSET	QUANT	0	Ich Offset (V)
ICHFILTER	IQUANT	3	Ich Filter
VCHRANGE	IQUANT	2	Vch Range
VCHRANGEMODE	TOGGLE	F	Vch Auto Range
VCHOFFSETENABLE	TOGGLE	T	Vch Offset Enable
VCHOFFSET	QUANT	0	Vch Offset (V)
VCHFILTER	IQUANT	3	Vch Filter
ACHRANGE	IQUANT	2	Ach Range
ACHOFFSETENABLE	TOGGLE	F	Ach Offset Enable
ACHOFFSET	QUANT	0	Ach Offset (V)
ACHFILTER	IQUANT	3	Ach Filter
IERANGELOWERLIMIT	IQUANT	1	I/E Range Lower Limit
IERANGEMODE	TOGGLE	F	I/E AutoRange
IERANGE	IQUANT	8	I/E Range
POSFEEDENABLE	TOGGLE	F	Positive Feedback IR Comp
POSFEEDRESISTANCE	QUANT	0	Positive Feedback Resistance (ohm)
ACHSELECT	IQUANT	0	Ach Select
CABLEID	IQUANT	14	Cable ID
DCCALDATE	LABEL	1/27/2020	DC Calibration Date
ACCALDATE	LABEL	1/27/2020	AC Calibration Date
THERMOSELECT	IQUANT	1	Thermo Select
FRAMEWORKVERSION	QUANT	6.33	Framework Version
INSTRUMENTVERSION	LABEL	3.50	Instrument Version
ZCURVE	TABLE
	Pt	Time	Freq	Zreal	Zimag	Zsig	Zmod	Zphz	Idc	Vdc	IERange
	#	s	Hz	ohm	ohm	V	ohm	°	A	V	#
	0	1	1000078	1872.544	-1885.779	1	2657.552	-45.20176	2.455587E-006	0.0650882	8
	1	1	794390.6	2255.014	-1960.445	1	2988.048	-41.00276	1.421346E-006	0.0648567	8
	2	1	630984.4	2655.428	-1969.982	1	3306.377	-36.5706	-2.910929E-006	0.0657922	8
	3	2	501234.4	3048.946	-1901.605	1	3593.352	-31.95149	4.046718E-006	0.0645739	8
	4	2	398109.4	3415.402	-1813.882	1	3867.188	-27.97227	-1.140564E-006	0.0654051	8
	5	2	316265.6	3730.727	-1664.732	1	4085.297	-24.04748	1.921143E-006	0.0646843	8
	6	3	251203.1	3998.276	-1516.528	1	4276.221	-20.77151	-3.519058E-007	0.0651162	8
	7	3	199546.9	4205.872	-1333.238	1	4412.129	-17.58833	-1.416012E-006	0.065345	8
	8	3	158578.1	4368.826	-1165.138	1	4521.525	-14.93287	2.702613E-007	0.0649824	8
	9	4	125953.1	4516.538	-982.61	1	4622.189	-12.27391	3.321546E-007	0.0644663	7
	10	4	100078.1	4622.108	-858.6085	1	4701.18	-10.52339	6.216237E-008	0.0649256	7
	11	4	79453.13	4700.73	-766.2672	1	4762.776	-9.258366	6.395324E-008	0.0650132	7
	12	5	63140.62	4765.676	-692.4861	1	4815.725	-8.267615	6.29156E-008	0.0649128	7
	13	5	50203.12	4821.149	-638.9676	1	4863.308	-7.549656	-1.689373E-008	0.0650268	7
	14	5	39890.62	4871.51	-603.48	1	4908.747	-7.061794	2.69138E-008	0.0650037	7
	15	6	31640.63	4918.756	-584.4035	1	4953.351	-6.77562	-3.903583E-008	0.0650858	7
	16	6	25171.88	4964.539	-582.3757	1	4998.58	-6.690624	2.681848E-008	0.065006	7
	17	6	20015.62	5009.066	-597.7049	1	5044.6	-6.804623	-3.320845E-008	0.0650676	7
	18	7	15890.62	5055.303	-626.7499	1	5094.006	-7.067393	-3.930303E-008	0.0650832	7
	19	7	12609.37	5103.787	-675.8791	1	5148.344	-7.543615	-3.284277E-008	0.0650674	7
	20	7	10078.13	5154.508	-745.2494	1	5208.104	-8.226933	-3.873732E-008	0.0650782	7
	21	8	8015.625	5207.608	-826.3959	1	5272.771	-9.017083	2.750921E-008	0.0649949	7
	22	8	6328.125	5265.152	-941.8991	1	5348.738	-10.14253	7.906538E-009	0.0649849	7
	23	8	5015.625	5328.058	-1086.003	1	5437.61	-11.52063	-1.380422E-008	0.0650082	7
	24	8	3984.375	5397.362	-1266.359	1	5543.932	-13.20421	2.518857E-008	0.0650545	7
	25	9	3170.956	5470.924	-1486.724	1	5669.335	-15.20299	-4.99835E-009	0.065097	7
	26	9	2527.573	5553.506	-1756.946	1	5824.799	-17.55565	-3.602289E-008	0.0650564	7
	27	9	1976.103	5656.687	-2125.33	1	6042.775	-20.5922	-5.656258E-009	0.0651033	7
	28	10	1577.524	5767.406	-2537.716	1	6301.03	-23.74998	1.950696E-008	0.065008	7
	29	10	1265.625	5892.972	-3033.665	1	6627.989	-27.23913	2.800716E-008	0.0649856	7
	30	10	998.264	6052.259	-3689.505	1	7088.18	-31.36682	2.617999E-008	0.0650515	7
	31	11	796.875	6237.415	-4448.526	1	7661.249	-35.49648	3.814231E-008	0.0649115	7
	32	11	627.7902	6474.488	-5433.69	1	8452.454	-40.00493	2.825216E-008	0.0649867	7
	33	11	505.5147	6731.828	-6528.645	1	9377.671	-44.12215	-3.998598E-009	0.0650956	7
	34	12	397.9953	7089.968	-7992.07	1	10683.67	-48.42295	1.106321E-009	0.0650337	6
	35	12	315.5048	7511.063	-9736.81	1	12297.21	-52.35308	7.246237E-010	0.0650369	6
	36	12	252.4038	8008.169	-11772.18	1	14237.8	-55.77403	1.203123E-009	0.0650307	6
	37	13	198.6229	8662.301	-14434.75	1	16834.41	-59.03201	7.702569E-010	0.0650304	6
	38	13	158.3615	9421.474	-17506.17	1	19880.4	-61.71175	5.223441E-010	0.0650278	6
	39	13	125.558	10391.32	-21327.13	1	23723.96	-64.02306	6.929012E-010	0.0650253	6
	40	14	100.4464	11523.26	-25809.13	1	28264.76	-65.94019	1.383165E-009	0.065024	6
	41	14	79.00281	13008.88	-31666.32	1	34234.3	-67.66659	9.481417E-010	0.0650203	6
	42	14	63.3446	15082.23	-38069.68	1	40948.44	-68.3878	4.888117E-010	0.0650177	6
	43	15	49.86702	17525.63	-46786.43	1	49961.16	-69.46465	7.407359E-011	0.0650138	6
	44	15	39.72458	20294	-56817	1	60332.56	-70.3442	6.421131E-010	0.0650211	6
	45	15	31.6723	24052.81	-68887.52	1	72965.93	-70.75281	4.935508E-010	0.065015	6
	46	16	24.93351	29656.06	-84176.26	1	89247.55	-70.59218	1.63358E-010	0.0650184	6
	47	16	19.86229	36471.64	-101364.7	1	107726.5	-70.21096	-8.621718E-010	0.0650145	5
	48	16	15.83615	45172.55	-123074.1	1	131102.2	-69.84508	1.456431E-009	0.0650171	5
	49	17	12.40079	57677.67	-147516.8	1	158391.7	-68.64498	-7.9498E-010	0.0650186	5
	50	17	9.93114	72979.51	-174532.2	1	189175.8	-67.30807	-1.419853E-010	0.0650205	5
	51	17	7.944915	91894.79	-205126.1	1	224769.6	-65.86801	7.176095E-010	0.0650125	5
	52	18	6.317385	115893.9	-240364.7	1	266845.7	-64.25856	6.54475E-010	0.0650058	5
	53	19	5.008013	146322.5	-279804.8	1	315754.6	-62.39291	2.558102E-010	0.0650169	5
	54	20	3.945707	183342	-323153.8	1	371540.9	-60.4315	1.633347E-010	0.065022	5
	55	21	3.158693	223747.8	-366937	1	429774.2	-58.62634	-1.240129E-010	0.0650082	5
	56	23	2.504006	271356.5	-414480.5	1	495407.4	-56.78761	1.139619E-010	0.0650074	5
	57	24	1.998082	321509.2	-465269.8	1	565547.7	-55.35488	2.244626E-010	0.0650444	5
	58	26	1.584686	377669.5	-520287	1	642909.6	-54.0246	6.035247E-011	0.0649936	5
	59	28	1.266892	437191.7	-581191.4	1	727268.9	-53.04829	-3.943516E-012	0.0649659	5
	60	30	0.999041	503258.4	-655965.4	1	826776.6	-52.50448	-4.783914E-011	0.0649709	5
