EXPLAIN
TAG	EISPOT
TITLE	LABEL	Potentiostatic EIS	Test &Identifier
DATE	LABEL	6/14/2020	Date
TIME	LABEL	20:39:01	Time
NOTES	NOTES	1	&Notes...
	
PSTAT	PSTAT	REF600-10037	Potentiostat
VDC	POTEN	0.00000E+000	T	DC &Voltage (V)
FREQINIT	QUANT	1.00000E+006	Initial Fre&q. (Hz)
FREQFINAL	QUANT	1.00000E+000	Final Fre&q. (Hz)
PTSPERDEC	QUANT	1.00000E+001	Points/&decade
VAC	QUANT	2.50000E+001	AC &Voltage (mV rms)
AREA	QUANT	2.50000E-001	&Area (cm^2)
CONDIT	TWOPARAM	F	5.00000E+000	0.00000E+000	Conditionin&g	Time(s)	E(V)
DELAY	TWOPARAM	F	3.00000E+000	0.00000E+000	Init. De&lay	Time(s)	Stab.(mV/s)
SPEED	SELECTOR	0	&Optimize for:
ZGUESS	QUANT	1.00000E+003	E&stimated Z (ohms)
OCVCURVE	TABLE	39
	Pt	T	Vf	Vm	Ach	Over
	#	s	V vs. Ref.	V	V	bits
	0	0.258333	-1.01406E-001	-1.01406E-001	5.23221E-004	...........
	1	0.516667	-1.01415E-001	-1.01891E-001	5.25487E-004	...........
	2	0.775	-1.01459E-001	-1.01647E-001	5.25554E-004	...........
	3	1.03333	-1.01532E-001	-1.01143E-001	5.20654E-004	...........
	4	1.29167	-1.01574E-001	-1.01760E-001	5.24587E-004	...........
	5	1.55	-1.01590E-001	-1.03039E-001	5.24487E-004	...........
	6	1.80833	-1.01735E-001	-1.03986E-001	5.22021E-004	...........
	7	2.06667	-1.02158E-001	-1.03792E-001	5.22887E-004	...........
	8	2.325	-1.02762E-001	-1.03289E-001	5.24954E-004	...........
	9	2.58333	-1.03257E-001	-1.02712E-001	5.25787E-004	...........
	10	2.84167	-1.03419E-001	-1.02367E-001	5.23421E-004	...........
	11	3.1	-1.03248E-001	-1.02176E-001	5.24587E-004	...........
	12	3.35833	-1.02910E-001	-1.02445E-001	5.31587E-004	...........
	13	3.61667	-1.02596E-001	-1.02348E-001	5.29421E-004	...........
	14	3.875	-1.02415E-001	-1.02541E-001	5.27687E-004	...........
	15	4.13333	-1.02364E-001	-1.02359E-001	5.26754E-004	...........
	16	4.39167	-1.02385E-001	-1.02608E-001	5.25254E-004	...........
	17	4.65	-1.02427E-001	-1.02486E-001	5.24887E-004	...........
	18	4.90833	-1.02473E-001	-1.02803E-001	5.29521E-004	...........
	19	5.16667	-1.02528E-001	-1.02677E-001	5.33587E-004	...........
	20	5.425	-1.02601E-001	-1.03051E-001	5.28687E-004	...........
	21	5.68333	-1.02691E-001	-1.02867E-001	5.28187E-004	...........
	22	5.94167	-1.02791E-001	-1.03178E-001	5.29354E-004	...........
	23	6.2	-1.02887E-001	-1.02920E-001	5.31987E-004	...........
	24	6.45833	-1.02967E-001	-1.03349E-001	5.28187E-004	...........
	25	6.71667	-1.03035E-001	-1.03056E-001	5.30054E-004	...........
	26	6.975	-1.03094E-001	-1.03283E-001	5.30621E-004	...........
	27	7.23333	-1.03142E-001	-1.03146E-001	5.31521E-004	...........
	28	7.49167	-1.03179E-001	-1.03479E-001	5.27287E-004	...........
	29	7.75	-1.03218E-001	-1.03302E-001	5.26621E-004	...........
	30	8.00833	-1.03270E-001	-1.03505E-001	5.25487E-004	...........
	31	8.26667	-1.03329E-001	-1.03414E-001	5.28321E-004	...........
	32	8.525	-1.03388E-001	-1.03857E-001	5.29487E-004	...........
	33	8.78333	-1.03462E-001	-1.03687E-001	5.29854E-004	...........
	34	9.04167	-1.03554E-001	-1.03676E-001	5.26854E-004	...........
	35	9.3	-1.03636E-001	-1.03617E-001	5.25621E-004	...........
	36	9.5583	-1.03677E-001	-1.03703E-001	5.28087E-004	...........
	37	9.8167	-1.03676E-001	-1.03357E-001	5.27787E-004	...........
	38	10.075	-1.03654E-001	-1.04178E-001	5.27854E-004	...........
EOC	QUANT	-0.1036544	Open Circuit (V)
PSTATMODEL	IQUANT	4	Pstat Model
PSTATSECTION	LABEL	REF600-10037	Pstat Section
PSTATSERIALNO	LABEL	10037	Pstat Serial Number
CTRLMODE	IQUANT	1	Control Mode
IESTAB	IQUANT	0	I/E Stability
CASPEED	IQUANT	1	Control Amp Speed
CONVENTION	IQUANT	1	Current Convention
ICHRANGE	IQUANT	2	Ich Range
ICHRANGEMODE	TOGGLE	F	Ich Auto Range
ICHOFFSETENABLE	TOGGLE	T	Ich Offset Enable
ICHOFFSET	QUANT	0	Ich Offset (V)
ICHFILTER	IQUANT	3	Ich Filter
VCHRANGE	IQUANT	2	Vch Range
VCHRANGEMODE	TOGGLE	F	Vch Auto Range
VCHOFFSETENABLE	TOGGLE	T	Vch Offset Enable
VCHOFFSET	QUANT	0	Vch Offset (V)
VCHFILTER	IQUANT	3	Vch Filter
ACHRANGE	IQUANT	2	Ach Range
ACHOFFSETENABLE	TOGGLE	F	Ach Offset Enable
ACHOFFSET	QUANT	0	Ach Offset (V)
ACHFILTER	IQUANT	3	Ach Filter
IERANGELOWERLIMIT	IQUANT	1	I/E Range Lower Limit
IERANGEMODE	TOGGLE	F	I/E AutoRange
IERANGE	IQUANT	8	I/E Range
POSFEEDENABLE	TOGGLE	F	Positive Feedback IR Comp
POSFEEDRESISTANCE	QUANT	0	Positive Feedback Resistance (ohm)
ACHSELECT	IQUANT	0	Ach Select
CABLEID	IQUANT	14	Cable ID
DCCALDATE	LABEL	6/8/2020	DC Calibration Date
ACCALDATE	LABEL	6/8/2020	AC Calibration Date
THERMOSELECT	IQUANT	1	Thermo Select
FRAMEWORKVERSION	QUANT	6.33	Framework Version
INSTRUMENTVERSION	LABEL	3.50	Instrument Version
ZCURVE	TABLE
	Pt	Time	Freq	Zreal	Zimag	Zsig	Zmod	Zphz	Idc	Vdc	IERange
	#	s	Hz	ohm	ohm	V	ohm	°	A	V	#
	0	1	1000078	1468.334	-8316.713	1	8445.337	-79.98748	5.890242E-008	-0.0946651	8
	1	1	794390.6	1643.669	-10320.38	1	10450.45	-80.95082	-2.04987E-007	-0.094904	8
	2	1	630984.4	1889.969	-12778.41	1	12917.42	-81.58676	4.019685E-007	-0.0950616	8
	3	2	501234.4	2155.175	-15915.77	1	16061.02	-82.28841	-3.265275E-008	-0.0951109	8
	4	2	398109.4	2530.241	-19741.37	1	19902.86	-82.69625	4.032496E-007	-0.095176	8
	5	2	316265.6	3101.496	-24462.91	1	24658.74	-82.77438	2.678593E-007	-0.0951839	8
	6	3	251203.1	3484.454	-30578.47	1	30776.36	-83.49911	9.779204E-008	-0.0951639	8
	7	3	199546.9	4143.8	-37919.12	1	38144.87	-83.76347	8.082289E-008	-0.0951122	8
	8	3	158578.1	5281.075	-47338.48	1	47632.15	-83.63441	-8.810517E-008	-0.095132	8
	9	4	125953.1	9318.659	-59254.57	1	59982.84	-81.06259	-1.262344E-007	-0.0949469	7
	10	4	100078.1	11132.92	-73364.57	1	74204.46	-81.37132	-6.324215E-008	-0.0951331	7
	11	4	79453.13	13779.31	-90884.85	1	91923.48	-81.37888	-4.516813E-008	-0.0950624	7
	12	5	63140.62	17232.82	-112445.4	1	113758.2	-81.28693	4.945639E-008	-0.0951586	7
	13	5	50203.12	21654.87	-138842.6	1	140521.2	-81.13517	-6.903112E-008	-0.0950622	7
	14	5	39890.62	28983.8	-169112.5	1	171578.3	-80.2747	6.579949E-008	-0.0951944	7
	15	6	31640.63	34797.88	-209888.6	1	212753.7	-80.58644	5.894846E-009	-0.0951114	7
	16	6	25171.88	43512.88	-257264.6	1	260918.4	-80.40004	-1.957144E-008	-0.0950904	7
	17	6	20015.62	56360.35	-316094.1	1	321079.4	-79.89027	4.103071E-008	-0.0952757	7
	18	6	15890.62	75882.2	-387109.1	1	394476.3	-78.90935	8.829497E-008	-0.0952501	7
	19	7	12609.37	96281	-475744.2	1	485389.1	-78.55902	7.598082E-009	-0.095377	6
	20	7	10078.13	124169	-575370.5	1	588616.3	-77.82193	9.415236E-009	-0.0951632	6
	21	7	8015.625	144029.7	-696185.1	1	710927.7	-78.31131	9.36445E-009	-0.0951594	6
	22	8	6328.125	175488.4	-873903.7	1	891349.4	-78.64546	-1.675286E-008	-0.0949564	6
	23	8	5015.625	218716.1	-1033642	1	1056529	-78.05258	8.851883E-009	-0.0951629	6
	24	9	3984.375	230717.3	-1314252	1	1334349	-80.04317	1.207462E-008	-0.0954124	6
	25	9	3170.956	309154.6	-1609962	1	1639376	-79.13004	1.425282E-008	-0.0953605	6
	26	10	2527.573	479497.7	-1930825	1	1989473	-76.05341	7.323448E-009	-0.0953773	6
	27	10	1976.103	396026.7	-2439311	1	2471249	-80.77838	1.27564E-008	-0.0953687	6
	28	11	1577.524	507625.6	-3007720	1	3050256	-80.42023	-1.161496E-009	-0.0950412	6
	29	11	1265.625	780338.6	-3689268	1	3770891	-78.05706	-3.958438E-010	-0.0949956	5
	30	12	998.264	914845.6	-4579361	1	4669849	-78.70242	1.023397E-010	-0.0953532	5
	31	12	796.875	1027447	-5653262	1	5745870	-79.69926	-1.70648E-009	-0.0950378	5
	32	12	627.7902	1150585	-6889740	1	6985153	-80.51911	8.850442E-010	-0.09538	5
	33	12	505.5147	1362060	-8622369	1	8729287	-81.02327	1.606739E-009	-0.0953526	5
	34	13	397.9953	1845992	-1.069212E+007	1	1.085031E+007	-80.20447	2.570157E-012	-0.095164	5
	35	13	315.5048	2026135	-1.310777E+007	1	1.326344E+007	-81.21304	5.756387E-011	-0.0951612	5
	36	14	252.4038	2590654	-1.594579E+007	1	1.615487E+007	-80.772	2.463414E-011	-0.0951628	5
	37	14	198.6229	2734507	-2.006142E+007	1	2.024693E+007	-82.23804	-8.648355E-012	-0.095164	5
	38	15	158.3615	3659956	-2.469207E+007	1	2.496184E+007	-81.56878	5.056228E-011	-0.0951657	5
	39	15	125.558	7616562	-3.124118E+007	1	3.215624E+007	-76.29865	5.180936E-011	-0.0951709	4
	40	16	100.4464	6682810	-4.042896E+007	1	4.097756E+007	-80.61401	8.471893E-011	-0.095167	4
	41	16	79.00281	1675555	-6.029025E+007	1	6.031353E+007	-88.40807	1.907694E-011	-0.0951699	4
	42	16	63.3446	1.889355E+008	-5.023727E+007	1	1.955004E+008	-14.8902	-1.142012E-011	-0.0951717	4
	43	17	49.86702	1.547942E+007	-6.817551E+007	1	6.991075E+007	-77.20773	2.192035E-011	-0.0951733	4
	44	18	39.72458	2.698346E+007	-6.72381E+007	1	7.245046E+007	-68.13381	3.275591E-011	-0.0951703	4
	45	18	31.6723	-1.033403E+007	-8.87563E+007	1	8.935588E+007	-96.6411	-3.29992E-011	-0.0951699	4
	46	19	24.93351	6.325591E+007	-1.283074E+008	1	1.430528E+008	-63.75658	3.148341E-011	-0.0951689	4
	47	19	19.86229	3.579991E+007	-1.590641E+008	1	1.63043E+008	-77.31602	1.813992E-011	-0.1038076	4
	48	20	15.83615	3.424072E+007	-9.656614E+007	1	1.02457E+008	-70.47636	6.980129E-011	-0.1038178	4
	49	20	12.40079	5.709011E+007	-1.626382E+008	1	1.723672E+008	-70.65764	-2.205778E-011	-0.1038017	3
	50	21	9.93114	1.526126E+008	-9.260042E+007	1	1.785089E+008	-31.24803	-8.503504E-011	-0.1038015	3
	51	21	7.944915	1.449573E+008	-2.522453E+008	1	2.909301E+008	-60.1154	-1.286978E-011	-0.1038011	3
	52	22	6.317385	1.740283E+008	-2.893761E+008	1	3.376749E+008	-58.97766	-1.481002E-011	-0.1038005	3
	53	23	5.008013	2.089579E+008	-3.327356E+008	1	3.929076E+008	-57.87119	-1.674446E-011	-0.1037989	3
	54	24	3.945707	2.524958E+008	-3.851555E+008	1	4.60542E+008	-56.75241	-1.774364E-011	-0.1037997	3
	55	25	3.158693	2.950688E+008	-4.391462E+008	1	5.2907E+008	-56.10226	-1.762177E-011	-0.1038	3
	56	27	2.504006	3.598846E+008	-5.004398E+008	1	6.164065E+008	-54.27871	-1.818073E-011	-0.1038029	3
	57	28	1.998082	4.371618E+008	-5.519687E+008	1	7.041164E+008	-51.62061	-1.955797E-011	-0.1037996	3
	58	30	1.584686	5.080822E+008	-6.638643E+008	1	8.359805E+008	-52.5717	-1.80588E-011	-0.1038002	3
	59	33	1.266892	6.634918E+008	-6.877188E+008	1	9.556037E+008	-46.02719	4.615216E-012	-0.1038252	2
	60	36	0.999041	7.926468E+008	-7.571983E+008	1	1.096193E+009	-43.68974	3.208689E-012	-0.1038252	2
