EXPLAIN
TAG	EISPOT
TITLE	LABEL	Potentiostatic EIS	Test &Identifier
DATE	LABEL	3/3/2020	Date
TIME	LABEL	16:51:44	Time
NOTES	NOTES	1	&Notes...
	
PSTAT	PSTAT	REF600-11020	Potentiostat
VDC	POTEN	0.00000E+000	T	DC &Voltage (V)
FREQINIT	QUANT	1.00000E+006	Initial Fre&q. (Hz)
FREQFINAL	QUANT	1.00000E+000	Final Fre&q. (Hz)
PTSPERDEC	QUANT	1.00000E+001	Points/&decade
VAC	QUANT	2.50000E+001	AC &Voltage (mV rms)
AREA	QUANT	1.60000E-004	&Area (cm^2)
CONDIT	TWOPARAM	F	1.50000E+001	0.00000E+000	Conditionin&g	Time(s)	E(V)
DELAY	TWOPARAM	F	1.00000E+002	0.00000E+000	Init. De&lay	Time(s)	Stab.(mV/s)
SPEED	SELECTOR	1	&Optimize for:
ZGUESS	QUANT	1.00000E+004	E&stimated Z (ohms)
OCVCURVE	TABLE	39
	Pt	T	Vf	Vm	Ach	Over
	#	s	V vs. Ref.	V	V	bits
	0	0.258333	1.08440E-001	1.08440E-001	5.83463E-004	...........
	1	0.516667	1.08441E-001	1.08444E-001	5.83063E-004	...........
	2	0.775	1.08441E-001	1.08469E-001	5.80263E-004	...........
	3	1.03333	1.08444E-001	1.08459E-001	5.81463E-004	...........
	4	1.29167	1.08450E-001	1.08455E-001	5.79430E-004	...........
	5	1.55	1.08455E-001	1.08456E-001	5.80497E-004	...........
	6	1.80833	1.08457E-001	1.08445E-001	5.81730E-004	...........
	7	2.06667	1.08456E-001	1.08436E-001	5.78697E-004	...........
	8	2.325	1.08452E-001	1.08431E-001	5.76063E-004	...........
	9	2.58333	1.08446E-001	1.08433E-001	5.76197E-004	...........
	10	2.84167	1.08440E-001	1.08431E-001	5.72330E-004	...........
	11	3.1	1.08435E-001	1.08428E-001	5.71297E-004	...........
	12	3.35833	1.08432E-001	1.08420E-001	5.76597E-004	...........
	13	3.61667	1.08429E-001	1.08417E-001	5.75163E-004	...........
	14	3.875	1.08426E-001	1.08410E-001	5.80563E-004	...........
	15	4.13333	1.08422E-001	1.08403E-001	5.79063E-004	...........
	16	4.39167	1.08417E-001	1.08406E-001	5.79263E-004	...........
	17	4.65	1.08411E-001	1.08399E-001	5.79463E-004	...........
	18	4.90833	1.08407E-001	1.08392E-001	5.74563E-004	...........
	19	5.16667	1.08403E-001	1.08391E-001	5.73263E-004	...........
	20	5.425	1.08399E-001	1.08385E-001	5.78897E-004	...........
	21	5.68333	1.08394E-001	1.08364E-001	5.81330E-004	...........
	22	5.94167	1.08388E-001	1.08337E-001	5.84397E-004	...........
	23	6.2	1.08377E-001	1.08301E-001	5.79197E-004	...........
	24	6.45833	1.08361E-001	1.08388E-001	5.78963E-004	...........
	25	6.71667	1.08351E-001	1.08518E-001	5.77697E-004	...........
	26	6.975	1.08364E-001	1.08499E-001	5.77497E-004	...........
	27	7.23333	1.08403E-001	1.08466E-001	5.82430E-004	...........
	28	7.49167	1.08444E-001	1.08412E-001	5.81363E-004	...........
	29	7.75	1.08460E-001	1.08200E-001	5.83363E-004	...........
	30	8.00833	1.08429E-001	1.07992E-001	5.84563E-004	...........
	31	8.26667	1.08343E-001	1.07936E-001	5.83297E-004	...........
	32	8.525	1.08217E-001	1.07989E-001	5.86896E-004	...........
	33	8.78333	1.08097E-001	1.08052E-001	5.80830E-004	...........
	34	9.04167	1.08025E-001	1.08128E-001	5.76197E-004	...........
	35	9.3	1.08014E-001	1.08140E-001	5.75297E-004	...........
	36	9.5583	1.08045E-001	1.08154E-001	5.78697E-004	...........
	37	9.8167	1.08088E-001	1.08158E-001	5.73497E-004	...........
	38	10.075	1.08124E-001	1.08173E-001	5.75597E-004	...........
EOC	QUANT	0.1081239	Open Circuit (V)
PSTATMODEL	IQUANT	4	Pstat Model
PSTATSECTION	LABEL	REF600-11020	Pstat Section
PSTATSERIALNO	LABEL	11020	Pstat Serial Number
CTRLMODE	IQUANT	1	Control Mode
IESTAB	IQUANT	0	I/E Stability
CASPEED	IQUANT	1	Control Amp Speed
CONVENTION	IQUANT	1	Current Convention
ICHRANGE	IQUANT	2	Ich Range
ICHRANGEMODE	TOGGLE	F	Ich Auto Range
ICHOFFSETENABLE	TOGGLE	T	Ich Offset Enable
ICHOFFSET	QUANT	0	Ich Offset (V)
ICHFILTER	IQUANT	3	Ich Filter
VCHRANGE	IQUANT	2	Vch Range
VCHRANGEMODE	TOGGLE	F	Vch Auto Range
VCHOFFSETENABLE	TOGGLE	T	Vch Offset Enable
VCHOFFSET	QUANT	0	Vch Offset (V)
VCHFILTER	IQUANT	3	Vch Filter
ACHRANGE	IQUANT	2	Ach Range
ACHOFFSETENABLE	TOGGLE	F	Ach Offset Enable
ACHOFFSET	QUANT	0	Ach Offset (V)
ACHFILTER	IQUANT	3	Ach Filter
IERANGELOWERLIMIT	IQUANT	1	I/E Range Lower Limit
IERANGEMODE	TOGGLE	F	I/E AutoRange
IERANGE	IQUANT	7	I/E Range
POSFEEDENABLE	TOGGLE	F	Positive Feedback IR Comp
POSFEEDRESISTANCE	QUANT	0	Positive Feedback Resistance (ohm)
ACHSELECT	IQUANT	0	Ach Select
CABLEID	IQUANT	14	Cable ID
DCCALDATE	LABEL	2/27/2020	DC Calibration Date
ACCALDATE	LABEL	2/27/2020	AC Calibration Date
THERMOSELECT	IQUANT	1	Thermo Select
FRAMEWORKVERSION	QUANT	6.33	Framework Version
INSTRUMENTVERSION	LABEL	3.50	Instrument Version
ZCURVE	TABLE
	Pt	Time	Freq	Zreal	Zimag	Zsig	Zmod	Zphz	Idc	Vdc	IERange
	#	s	Hz	ohm	ohm	V	ohm	°	A	V	#
	0	2	1000078	1950.576	-1933.835	1	2746.719	-44.75306	6.701686E-006	0.1094282	8
	1	3	794390.6	2330.328	-2025.203	1	3087.374	-40.99271	-3.261849E-006	0.1100297	8
	2	5	630984.4	2726.774	-2062.11	1	3418.712	-37.09822	3.238404E-006	0.109345	8
	3	6	501234.4	3103.724	-2040.773	1	3714.547	-33.32588	-9.56721E-007	0.1096741	8
	4	7	398109.4	3481.786	-2015.841	1	4023.239	-30.06945	3.011065E-006	0.1089589	8
	5	9	316265.6	3823.51	-1913.473	1	4275.583	-26.58564	-8.57021E-007	0.1096567	8
	6	10	251203.1	4131.56	-1792.335	1	4503.582	-23.45195	-2.286831E-007	0.1095812	8
	7	11	199546.9	4384.616	-1658.793	1	4687.905	-20.72269	-5.190503E-008	0.1095646	8
	8	13	158578.1	4651.615	-1560.722	1	4906.463	-18.54777	-1.155149E-006	0.1097274	8
	9	14	125953.1	4873.096	-1422.466	1	5076.462	-16.27263	1.970501E-008	0.1091987	7
	10	16	100078.1	5046.652	-1316.796	1	5215.616	-14.62383	2.19775E-008	0.1094154	7
	11	17	79453.13	5206.298	-1234.85	1	5350.738	-13.34307	6.045589E-009	0.1095423	7
	12	18	63140.62	5356.273	-1169.085	1	5482.374	-12.31254	1.257041E-007	0.1092771	7
	13	20	50203.12	5491.098	-1119.924	1	5604.14	-11.52753	3.766871E-008	0.1093352	7
	14	21	39890.62	5615.784	-1083.939	1	5719.436	-10.92468	-7.008031E-008	0.109513	7
	15	22	31640.63	5737.839	-1065.131	1	5835.864	-10.51627	-1.733252E-008	0.1094178	7
	16	24	25171.88	5852.89	-1062.23	1	5948.5	-10.28654	-7.110545E-008	0.1095102	7
	17	25	20015.62	5970.177	-1073.371	1	6065.9	-10.19226	7.266107E-009	0.109533	7
	18	26	15890.62	6082.465	-1105.923	1	6182.188	-10.30503	5.623543E-008	0.1094536	7
	19	28	12609.37	6200.019	-1164.666	1	6308.46	-10.63896	1.044992E-007	0.1092544	7
	20	29	10078.13	6312.756	-1220.468	1	6429.652	-10.9422	-1.725708E-008	0.1094118	7
	21	30	8015.625	6435.078	-1311.314	1	6567.326	-11.51781	-4.892515E-008	0.1094407	7
	22	32	6328.125	6567.142	-1433.976	1	6721.877	-12.31755	-4.475099E-008	0.1095366	7
	23	33	5015.625	6702.846	-1583.57	1	6887.368	-13.29259	5.77744E-008	0.1094559	7
	24	34	3984.375	6841.302	-1767.748	1	7066	-14.48797	2.823147E-008	0.1093096	7
	25	36	3170.956	6987.354	-1992.708	1	7265.948	-15.91751	-6.898631E-008	0.1095409	7
	26	37	2527.573	7144.268	-2269.375	1	7496.04	-17.62243	1.276646E-007	0.1092647	7
	27	39	1976.103	7323.489	-2630.416	1	7781.554	-19.75703	1.052693E-007	0.1092565	7
	28	40	1577.524	7492.402	-3045.822	1	8087.838	-22.1228	-1.500567E-008	0.1094156	7
	29	41	1265.625	7683.497	-3562.446	1	8469.188	-24.87475	8.340467E-009	0.1095323	7
	30	43	998.264	7900.687	-4223.813	1	8958.875	-28.12956	-4.64257E-008	0.1094406	7
	31	44	796.875	8141.116	-5013.642	1	9561.09	-31.62651	1.283958E-008	0.1093679	6
	32	45	627.7902	8437.694	-6048.319	1	10381.56	-35.63376	1.167113E-009	0.1096198	6
	33	47	505.5147	8761.656	-7201.454	1	11341.41	-39.41776	-1.071841E-008	0.1096672	6
	34	48	397.9953	9201.286	-8759.773	1	12704.22	-43.59186	4.163321E-010	0.1095101	6
	35	49	315.5048	9735.03	-10614.76	1	14402.91	-47.47538	5.464973E-010	0.1095109	6
	36	51	252.4038	10382.53	-12770.89	1	16458.82	-50.88944	4.121823E-010	0.1095071	6
	37	52	198.6229	11265.44	-15575.16	1	19222.27	-54.12196	7.491545E-010	0.1095072	6
	38	53	158.3615	12324.97	-18769.99	1	22454.79	-56.70982	9.47149E-010	0.1095035	6
	39	55	125.558	13698.06	-22686.91	1	26501.56	-58.87698	8.087565E-010	0.1095061	6
	40	56	100.4464	15388.43	-27167.03	1	31222.61	-60.47115	5.881965E-010	0.1095053	6
	41	58	79.00281	17583.03	-32944.87	1	37343.37	-61.91069	1.959165E-010	0.109505	6
	42	59	63.3446	20016.35	-39312.7	1	44115.11	-63.01675	5.496561E-010	0.1095105	6
	43	60	49.86702	23840.53	-46995.02	1	52696.33	-63.10137	8.841408E-010	0.1095049	6
	44	62	39.72458	28001.32	-56216.81	1	62804.49	-63.52233	6.497328E-010	0.1095093	6
	45	63	31.6723	33400.76	-66516.42	1	74431.48	-63.3368	4.942045E-010	0.1095077	6
	46	64	24.93351	40394.32	-79407.25	1	89091.03	-63.03764	7.680515E-010	0.1095027	6
	47	66	19.86229	48736.4	-93168.14	1	105145.3	-62.38586	8.907117E-010	0.1095125	5
	48	67	15.83615	58793	-109504	1	124289	-61.76854	1.76328E-009	0.1095057	5
	49	68	12.40079	72271.02	-127010.3	1	146132.5	-60.35939	9.756047E-010	0.1095067	5
	50	70	9.93114	87221.61	-146589.2	1	170575.5	-59.24706	5.323066E-010	0.1095062	5
	51	71	7.944915	103720.4	-167592	1	197091.3	-58.24719	4.378762E-010	0.1095145	5
	52	73	6.317385	123118.5	-190967.8	1	227215.4	-57.18979	1.354139E-010	0.1095231	5
	53	75	5.008013	145091.3	-217597.7	1	261534.4	-56.30517	4.402274E-010	0.1095149	5
	54	78	3.945707	170086.9	-248976.4	1	301527.4	-55.66127	-1.825209E-011	0.1095011	5
	55	80	3.158693	195732.4	-282443.4	1	343635.6	-55.27816	3.501179E-010	0.1095257	5
	56	84	2.504006	226075.2	-323152.7	1	394382.7	-55.02365	-2.957301E-010	0.109502	5
	57	86	1.998082	258990.1	-368113.8	1	450092.9	-54.87132	-7.246669E-013	0.1094729	5
	58	89	1.584686	296044.3	-421635.5	1	515188	-54.92603	-3.792964E-011	0.1095158	5
	59	93	1.266892	338635.4	-482659	1	589604.7	-54.94635	6.648444E-011	0.1094605	5
	60	97	0.999041	388956.8	-557490.4	1	679766.9	-55.09681	1.261254E-010	0.1095522	5
