EXPLAIN
TAG	EISPOT
TITLE	LABEL	Potentiostatic EIS	Test &Identifier
DATE	LABEL	3/12/2020	Date
TIME	LABEL	13:29:32	Time
NOTES	NOTES	1	&Notes...
	
PSTAT	PSTAT	REF600-11020	Potentiostat
VDC	POTEN	0.00000E+000	T	DC &Voltage (V)
FREQINIT	QUANT	1.00000E+006	Initial Fre&q. (Hz)
FREQFINAL	QUANT	1.00000E+000	Final Fre&q. (Hz)
PTSPERDEC	QUANT	1.00000E+001	Points/&decade
VAC	QUANT	2.50000E+001	AC &Voltage (mV rms)
AREA	QUANT	2.50000E-001	&Area (cm^2)
CONDIT	TWOPARAM	F	5.00000E+000	0.00000E+000	Conditionin&g	Time(s)	E(V)
DELAY	TWOPARAM	T	5.00000E+000	0.00000E+000	Init. De&lay	Time(s)	Stab.(mV/s)
SPEED	SELECTOR	1	&Optimize for:
ZGUESS	QUANT	5.00000E+003	E&stimated Z (ohms)
OCVCURVE	TABLE	19
	Pt	T	Vf	Vm	Ach	Over
	#	s	V vs. Ref.	V	V	bits
	0	0.258333	2.33818E-002	2.33818E-002	5.69463E-004	...........
	1	0.516667	2.33825E-002	2.34186E-002	5.73497E-004	...........
	2	0.775	2.33865E-002	2.34325E-002	5.71797E-004	...........
	3	1.03333	2.33963E-002	2.34501E-002	5.70030E-004	...........
	4	1.29167	2.34117E-002	2.34694E-002	5.74597E-004	...........
	5	1.55	2.34300E-002	2.34934E-002	5.67597E-004	...........
	6	1.80833	2.34495E-002	2.35139E-002	5.72663E-004	...........
	7	2.06667	2.34697E-002	2.35255E-002	5.70430E-004	...........
	8	2.325	2.34889E-002	2.35064E-002	5.72263E-004	...........
	9	2.58333	2.35044E-002	2.35449E-002	5.74630E-004	...........
	10	2.84167	2.35158E-002	2.35607E-002	5.69163E-004	...........
	11	3.1	2.35268E-002	2.35707E-002	5.71997E-004	...........
	12	3.35833	2.35404E-002	2.35974E-002	5.70497E-004	...........
	13	3.61667	2.35577E-002	2.36688E-002	5.70330E-004	...........
	14	3.875	2.35841E-002	2.38507E-002	5.71397E-004	...........
	15	4.13333	2.36308E-002	2.38489E-002	5.71330E-004	...........
	16	4.39167	2.36981E-002	2.38201E-002	5.71897E-004	...........
	17	4.65	2.37641E-002	2.37735E-002	5.69897E-004	...........
	18	4.90833	2.38032E-002	2.37815E-002	5.70597E-004	...........
EOC	QUANT	0.0238032	Open Circuit (V)
PSTATMODEL	IQUANT	4	Pstat Model
PSTATSECTION	LABEL	REF600-11020	Pstat Section
PSTATSERIALNO	LABEL	11020	Pstat Serial Number
CTRLMODE	IQUANT	1	Control Mode
IESTAB	IQUANT	0	I/E Stability
CASPEED	IQUANT	1	Control Amp Speed
CONVENTION	IQUANT	1	Current Convention
ICHRANGE	IQUANT	2	Ich Range
ICHRANGEMODE	TOGGLE	F	Ich Auto Range
ICHOFFSETENABLE	TOGGLE	T	Ich Offset Enable
ICHOFFSET	QUANT	0	Ich Offset (V)
ICHFILTER	IQUANT	3	Ich Filter
VCHRANGE	IQUANT	2	Vch Range
VCHRANGEMODE	TOGGLE	F	Vch Auto Range
VCHOFFSETENABLE	TOGGLE	T	Vch Offset Enable
VCHOFFSET	QUANT	0	Vch Offset (V)
VCHFILTER	IQUANT	3	Vch Filter
ACHRANGE	IQUANT	2	Ach Range
ACHOFFSETENABLE	TOGGLE	F	Ach Offset Enable
ACHOFFSET	QUANT	0	Ach Offset (V)
ACHFILTER	IQUANT	3	Ach Filter
IERANGELOWERLIMIT	IQUANT	1	I/E Range Lower Limit
IERANGEMODE	TOGGLE	F	I/E AutoRange
IERANGE	IQUANT	6	I/E Range
POSFEEDENABLE	TOGGLE	F	Positive Feedback IR Comp
POSFEEDRESISTANCE	QUANT	0	Positive Feedback Resistance (ohm)
ACHSELECT	IQUANT	0	Ach Select
CABLEID	IQUANT	14	Cable ID
DCCALDATE	LABEL	2/27/2020	DC Calibration Date
ACCALDATE	LABEL	2/27/2020	AC Calibration Date
THERMOSELECT	IQUANT	1	Thermo Select
FRAMEWORKVERSION	QUANT	6.33	Framework Version
INSTRUMENTVERSION	LABEL	3.50	Instrument Version
ZCURVE	TABLE
	Pt	Time	Freq	Zreal	Zimag	Zsig	Zmod	Zphz	Idc	Vdc	IERange
	#	s	Hz	ohm	ohm	V	ohm	°	A	V	#
	0	2	1000078	1761.87	-1636.094	1	2404.369	-42.88017	-4.405183E-006	0.0272137	8
	1	3	794390.6	2015.347	-1773.583	1	2684.626	-41.34902	6.889912E-007	0.0258934	8
	2	5	630984.4	2430.224	-1696.859	1	2964.004	-34.92396	-6.943051E-007	0.0256875	8
	3	6	501234.4	2798.76	-1671.537	1	3259.923	-30.84742	-3.089369E-007	0.0255183	8
	4	7	398109.4	3074.26	-1595.638	1	3463.688	-27.43073	-2.11677E-006	0.0260634	8
	5	9	316265.6	3341.014	-1439.505	1	3637.932	-23.30922	-5.256747E-007	0.0255443	8
	6	10	251203.1	3593.168	-1275.616	1	3812.88	-19.54545	-1.310333E-006	0.0257228	8
	7	12	199546.9	3748.9	-1113.027	1	3910.637	-16.53586	1.520959E-006	0.0250012	8
	8	13	158578.1	3874.641	-967.556	1	3993.621	-14.02087	-3.378259E-006	0.0261446	8
	9	15	125953.1	4008.707	-778.0662	1	4083.518	-10.9842	-5.731282E-007	0.0265663	7
	10	16	100078.1	4064.748	-683.2103	1	4121.765	-9.5412	-3.642431E-008	0.0253218	7
	11	17	79453.13	4122.187	-621.958	1	4168.844	-8.580103	-7.391385E-008	0.0254431	7
	12	19	63140.62	4173.796	-578.7109	1	4213.726	-7.893923	-4.713359E-008	0.0254147	7
	13	20	50203.12	4220.433	-549.9792	1	4256.117	-7.424573	2.175237E-008	0.0254042	7
	14	21	39890.62	4264.893	-537.0967	1	4298.58	-7.177724	8.106738E-009	0.0253275	7
	15	23	31640.63	4309.333	-538.9271	1	4342.901	-7.128427	-3.36979E-009	0.0253994	7
	16	24	25171.88	4355.729	-554.8538	1	4390.926	-7.259516	1.786121E-008	0.0253853	7
	17	26	20015.62	4401.47	-584.0067	1	4440.045	-7.558112	-3.99873E-008	0.025427	7
	18	27	15890.62	4451.514	-627.0291	1	4495.458	-8.01779	1.278395E-008	0.0253953	7
	19	28	12609.37	4507.143	-686.5413	1	4559.131	-8.660889	-4.925885E-008	0.0253996	7
	20	30	10078.13	4563.636	-759.689	1	4626.435	-9.451119	5.375675E-008	0.02521	7
	21	31	8015.625	4628.415	-855.48	1	4706.811	-10.47192	-3.623987E-008	0.0254394	7
	22	32	6328.125	4697.985	-974.346	1	4797.959	-11.71684	1.117752E-008	0.0253644	7
	23	34	5015.625	4773.207	-1118.983	1	4902.614	-13.1936	-3.414426E-008	0.0253757	7
	24	35	3984.375	4856.83	-1298.974	1	5027.538	-14.97348	1.665641E-008	0.0253852	7
	25	36	3170.956	4946.979	-1513.384	1	5173.29	-17.00996	2.628586E-008	0.0252726	7
	26	38	2527.573	5048.354	-1775.387	1	5351.437	-19.37557	4.699499E-008	0.02536	7
	27	39	1976.103	5168.545	-2124.498	1	5588.144	-22.3448	4.298197E-008	0.0252342	7
	28	41	1577.524	5295.315	-2516.136	1	5862.705	-25.41532	6.764781E-008	0.0251302	7
	29	42	1265.625	5442.292	-2980.021	1	6204.762	-28.70367	-8.526052E-008	0.025456	7
	30	43	998.264	5621.842	-3597.044	1	6674.117	-32.61249	-3.8725E-008	0.0254426	7
	31	45	796.875	5831.352	-4297.256	1	7243.692	-36.38735	6.806331E-008	0.0251239	7
	32	46	627.7902	6087.339	-5217.854	1	8017.587	-40.60203	1.958312E-008	0.0252078	7
	33	47	505.5147	6373.574	-6216.84	1	8903.457	-44.28678	2.055027E-008	0.0252102	7
	34	49	397.9953	6747.041	-7565.309	1	10136.89	-48.27216	8.29451E-010	0.0253798	6
	35	50	315.5048	7185.764	-9159.378	1	11641.71	-51.88492	1.813429E-009	0.0253802	6
	36	52	252.4038	7690.694	-11014.21	1	13433.53	-55.07526	2.67651E-010	0.0253776	6
	37	53	198.6229	8344.873	-13429.03	1	15810.62	-58.14296	7.532441E-010	0.0253728	6
	38	54	158.3615	9094.618	-16203.84	1	18581.62	-60.69611	1.352096E-009	0.0253827	6
	39	56	125.558	10009.32	-19655.41	1	22057.24	-63.01298	1.007367E-009	0.025375	6
	40	57	100.4464	11056.9	-23717.75	1	26168.42	-65.0057	1.290954E-009	0.0253762	6
	41	58	79.00281	12487.22	-28905.54	1	31487.47	-66.63562	1.814357E-009	0.0253715	6
	42	60	63.3446	14573.48	-34872.66	1	37795.35	-67.31968	4.684018E-010	0.0253746	6
	43	61	49.86702	15984.24	-42826.52	1	45712.21	-69.53281	2.11673E-009	0.0253735	6
	44	63	39.72458	18784	-51661.15	1	54970.11	-70.01872	6.253167E-010	0.0253834	6
	45	64	31.6723	21964.08	-62414.49	1	66166.38	-70.61269	3.155952E-010	0.025378	6
	46	65	24.93351	26449.7	-76294.06	1	80748.81	-70.87955	5.466483E-010	0.025372	6
	47	67	19.86229	31892.77	-91950.93	1	97324.8	-70.87112	6.455121E-010	0.0253805	6
	48	68	15.83615	37687.03	-111334.7	1	117540.3	-71.29893	-9.259208E-010	0.0253803	5
	49	70	12.40079	47988.93	-134986	1	143262.5	-70.42917	8.43439E-010	0.0253803	5
	50	71	9.93114	59025.38	-161793.6	1	172224.2	-69.95707	3.656725E-010	0.0253807	5
	51	73	7.944915	74361.83	-192585	1	206442.9	-68.8872	-7.318475E-011	0.0253767	5
	52	74	6.317385	91609.8	-229287.9	1	246911.5	-68.22129	5.324718E-010	0.0253913	5
	53	76	5.008013	115204.6	-272597.9	1	295942.1	-67.09024	4.518889E-010	0.0253801	5
	54	79	3.945707	145452.7	-323667.4	1	354848	-65.80136	2.688923E-010	0.025379	5
	55	81	3.158693	180880.9	-377016.1	1	418161.5	-64.36971	1.782378E-010	0.0253885	5
	56	85	2.504006	224999.9	-439362.2	1	493623.4	-62.88276	3.22644E-010	0.0253727	5
	57	88	1.998082	275761.9	-506065.7	1	576322.1	-61.41345	5.147074E-011	0.0254148	5
	58	91	1.584686	335483.5	-582796.3	1	672458.6	-60.07335	2.722712E-010	0.025405	5
	59	94	1.266892	404622.6	-662130.3	1	775974.2	-58.57122	5.487916E-011	0.0254302	5
	60	99	0.999041	485141.8	-755873.3	1	898168.7	-57.30646	1.943655E-010	0.0253531	5
