EXPLAIN
TAG	EISPOT
TITLE	LABEL	Potentiostatic EIS	Test &Identifier
DATE	LABEL	2/18/2020	Date
TIME	LABEL	16:13:29	Time
NOTES	NOTES	1	&Notes...
	
PSTAT	PSTAT	REF600-11020	Potentiostat
VDC	POTEN	0.00000E+000	T	DC &Voltage (V)
FREQINIT	QUANT	1.00000E+006	Initial Fre&q. (Hz)
FREQFINAL	QUANT	1.00000E+000	Final Fre&q. (Hz)
PTSPERDEC	QUANT	1.00000E+001	Points/&decade
VAC	QUANT	2.50000E+001	AC &Voltage (mV rms)
AREA	QUANT	1.60000E-004	&Area (cm^2)
CONDIT	TWOPARAM	F	1.50000E+001	0.00000E+000	Conditionin&g	Time(s)	E(V)
DELAY	TWOPARAM	F	1.00000E+002	0.00000E+000	Init. De&lay	Time(s)	Stab.(mV/s)
SPEED	SELECTOR	1	&Optimize for:
ZGUESS	QUANT	1.00000E+003	E&stimated Z (ohms)
OCVCURVE	TABLE	39
	Pt	T	Vf	Vm	Ach	Over
	#	s	V vs. Ref.	V	V	bits
	0	0.258333	3.42365E-002	3.42365E-002	5.32538E-004	...........
	1	0.516667	3.42361E-002	3.42169E-002	5.28838E-004	...........
	2	0.775	3.42341E-002	3.42134E-002	5.36705E-004	...........
	3	1.03333	3.42294E-002	3.42102E-002	5.33071E-004	...........
	4	1.29167	3.42228E-002	3.42044E-002	5.31105E-004	...........
	5	1.55	3.42162E-002	3.42059E-002	5.29005E-004	...........
	6	1.80833	3.42107E-002	3.41944E-002	5.29338E-004	...........
	7	2.06667	3.42062E-002	3.41908E-002	5.27105E-004	...........
	8	2.325	3.42016E-002	3.41830E-002	5.25572E-004	...........
	9	2.58333	3.41963E-002	3.41755E-002	5.27538E-004	...........
	10	2.84167	3.41901E-002	3.41674E-002	5.30938E-004	...........
	11	3.1	3.41835E-002	3.41691E-002	5.25472E-004	...........
	12	3.35833	3.41770E-002	3.41608E-002	5.35271E-004	...........
	13	3.61667	3.41715E-002	3.41647E-002	5.32205E-004	...........
	14	3.875	3.41674E-002	3.41603E-002	5.32238E-004	...........
	15	4.13333	3.41645E-002	3.41544E-002	5.28872E-004	...........
	16	4.39167	3.41618E-002	3.41381E-002	5.28505E-004	...........
	17	4.65	3.41575E-002	3.41354E-002	5.28805E-004	...........
	18	4.90833	3.41513E-002	3.41371E-002	5.27205E-004	...........
	19	5.16667	3.41446E-002	3.41358E-002	5.24038E-004	...........
	20	5.425	3.41395E-002	3.41259E-002	5.30872E-004	...........
	21	5.68333	3.41357E-002	3.41178E-002	5.28672E-004	...........
	22	5.94167	3.41316E-002	3.41149E-002	5.31438E-004	...........
	23	6.2	3.41264E-002	3.41079E-002	5.27605E-004	...........
	24	6.45833	3.41206E-002	3.41062E-002	5.26438E-004	...........
	25	6.71667	3.41150E-002	3.41002E-002	5.23205E-004	...........
	26	6.975	3.41098E-002	3.40912E-002	5.28205E-004	...........
	27	7.23333	3.41047E-002	3.40840E-002	5.28438E-004	...........
	28	7.49167	3.40988E-002	3.40758E-002	5.27805E-004	...........
	29	7.75	3.40921E-002	3.40764E-002	5.23472E-004	...........
	30	8.00833	3.40852E-002	3.40597E-002	5.30271E-004	...........
	31	8.26667	3.40785E-002	3.40574E-002	5.28905E-004	...........
	32	8.525	3.40716E-002	3.40558E-002	5.25305E-004	...........
	33	8.78333	3.40651E-002	3.40526E-002	5.19538E-004	...........
	34	9.04167	3.40598E-002	3.40506E-002	5.23772E-004	...........
	35	9.3	3.40564E-002	3.40757E-002	5.23738E-004	...........
	36	9.5583	3.40562E-002	3.40687E-002	5.27338E-004	...........
	37	9.8167	3.40590E-002	3.40470E-002	5.27505E-004	...........
	38	10.075	3.40613E-002	3.40405E-002	5.24138E-004	...........
EOC	QUANT	0.0340613	Open Circuit (V)
PSTATMODEL	IQUANT	4	Pstat Model
PSTATSECTION	LABEL	REF600-11020	Pstat Section
PSTATSERIALNO	LABEL	11020	Pstat Serial Number
CTRLMODE	IQUANT	1	Control Mode
IESTAB	IQUANT	0	I/E Stability
CASPEED	IQUANT	1	Control Amp Speed
CONVENTION	IQUANT	1	Current Convention
ICHRANGE	IQUANT	2	Ich Range
ICHRANGEMODE	TOGGLE	F	Ich Auto Range
ICHOFFSETENABLE	TOGGLE	T	Ich Offset Enable
ICHOFFSET	QUANT	0	Ich Offset (V)
ICHFILTER	IQUANT	3	Ich Filter
VCHRANGE	IQUANT	2	Vch Range
VCHRANGEMODE	TOGGLE	F	Vch Auto Range
VCHOFFSETENABLE	TOGGLE	T	Vch Offset Enable
VCHOFFSET	QUANT	0	Vch Offset (V)
VCHFILTER	IQUANT	3	Vch Filter
ACHRANGE	IQUANT	2	Ach Range
ACHOFFSETENABLE	TOGGLE	F	Ach Offset Enable
ACHOFFSET	QUANT	0	Ach Offset (V)
ACHFILTER	IQUANT	3	Ach Filter
IERANGELOWERLIMIT	IQUANT	1	I/E Range Lower Limit
IERANGEMODE	TOGGLE	F	I/E AutoRange
IERANGE	IQUANT	7	I/E Range
POSFEEDENABLE	TOGGLE	F	Positive Feedback IR Comp
POSFEEDRESISTANCE	QUANT	0	Positive Feedback Resistance (ohm)
ACHSELECT	IQUANT	0	Ach Select
CABLEID	IQUANT	14	Cable ID
DCCALDATE	LABEL	1/27/2020	DC Calibration Date
ACCALDATE	LABEL	1/27/2020	AC Calibration Date
THERMOSELECT	IQUANT	1	Thermo Select
FRAMEWORKVERSION	QUANT	6.33	Framework Version
INSTRUMENTVERSION	LABEL	3.50	Instrument Version
ZCURVE	TABLE
	Pt	Time	Freq	Zreal	Zimag	Zsig	Zmod	Zphz	Idc	Vdc	IERange
	#	s	Hz	ohm	ohm	V	ohm	°	A	V	#
	0	2	1000078	1862.211	-1813.719	1	2599.501	-44.2442	-2.993238E-006	0.0368083	8
	1	3	794390.6	2214.052	-1887.702	1	2909.543	-40.45094	4.374745E-006	0.0354008	8
	2	4	630984.4	2580.361	-1922.58	1	3217.853	-36.68912	-1.514E-006	0.035938	8
	3	6	501234.4	2944.811	-1902.656	1	3505.997	-32.86668	3.703657E-008	0.0356796	8
	4	7	398109.4	3273.923	-1846.956	1	3758.965	-29.42915	2.710439E-006	0.0351813	8
	5	8	316265.6	3602.72	-1749.532	1	4005.054	-25.90187	-2.057453E-006	0.0359118	8
	6	10	251203.1	3884.428	-1624.559	1	4210.46	-22.69583	-3.686893E-007	0.0357094	8
	7	11	199546.9	4137.9	-1503.669	1	4402.64	-19.97061	8.365963E-007	0.0353709	8
	8	12	158578.1	4357.234	-1378.407	1	4570.065	-17.55472	-1.145397E-008	0.0356374	8
	9	14	125953.1	4530.237	-1250.347	1	4699.619	-15.42952	2.031696E-007	0.0349454	7
	10	15	100078.1	4686.977	-1145.366	1	4824.895	-13.73236	3.784104E-009	0.0354374	7
	11	17	79453.13	4817.968	-1063.553	1	4933.96	-12.44824	-1.379174E-008	0.0354676	7
	12	18	63140.62	4934.543	-996.886	1	5034.232	-11.42128	-2.359308E-008	0.0354933	7
	13	19	50203.12	5040.492	-947.8175	1	5128.832	-10.64958	-1.09976E-008	0.0355185	7
	14	21	39890.62	5141.521	-915.9235	1	5222.467	-10.10085	5.635533E-008	0.0353765	7
	15	22	31640.63	5236.479	-898.1652	1	5312.947	-9.73271	8.646098E-008	0.0353506	7
	16	23	25171.88	5329.05	-896.7293	1	5403.971	-9.55179	3.20614E-008	0.0353742	7
	17	25	20015.62	5421.457	-911.0228	1	5497.468	-9.53888	1.402142E-008	0.0355174	7
	18	26	15890.62	5513.988	-943.413	1	5594.112	-9.70898	-3.443454E-009	0.0354724	7
	19	27	12609.37	5607.061	-991.129	1	5693.985	-10.0243	-2.555897E-008	0.0355088	7
	20	29	10078.13	5699.102	-1056.499	1	5796.202	-10.50226	-1.384643E-008	0.0354435	7
	21	30	8015.625	5797.844	-1146.829	1	5910.179	-11.18882	-1.848769E-008	0.0354568	7
	22	32	6328.125	5902.194	-1265.957	1	6036.435	-12.10591	-2.628459E-008	0.0354764	7
	23	33	5015.625	6011.685	-1414.151	1	6175.773	-13.23724	-3.227964E-008	0.0355072	7
	24	34	3984.375	6123.554	-1596.865	1	6328.341	-14.61576	1.030226E-008	0.0354026	7
	25	36	3170.956	6247.661	-1822.499	1	6508.054	-16.26244	8.316832E-009	0.0354602	7
	26	37	2527.573	6375.28	-2096.369	1	6711.107	-18.2023	-3.298082E-008	0.035505	7
	27	38	1976.103	6526.342	-2468.403	1	6977.546	-20.7177	-4.881361E-009	0.0354773	7
	28	40	1577.524	6676.352	-2888.237	1	7274.31	-23.39365	-2.537869E-008	0.0354773	7
	29	41	1265.625	6842.066	-3399.368	1	7639.999	-26.41973	-4.758394E-009	0.0354816	7
	30	42	998.264	7043.598	-4065.845	1	8132.857	-29.99525	-1.356344E-008	0.0354452	7
	31	44	796.875	7268.043	-4858.374	1	8742.325	-33.76102	-1.906831E-008	0.0354547	7
	32	45	627.7902	7559.219	-5888.793	1	9582.26	-37.91935	-2.048929E-009	0.0354341	6
	33	47	505.5147	7880.256	-7033.173	1	10562.38	-41.74909	-1.156782E-009	0.035388	6
	34	48	397.9953	8315.333	-8571.144	1	11941.91	-45.8679	1.009778E-009	0.0354734	6
	35	49	315.5048	8855.076	-10394.19	1	13654.73	-49.57148	1.775544E-009	0.0354774	6
	36	51	252.4038	9511.87	-12510.34	1	15715.74	-52.75354	1.13417E-009	0.0354752	6
	37	52	198.6229	10405	-15250.38	1	18461.8	-55.69514	1.099784E-009	0.0354671	6
	38	53	158.3615	11482.23	-18367.48	1	21661.16	-57.98889	9.574439E-010	0.0354633	6
	39	55	125.558	12878.46	-22171.61	1	25640.49	-59.84969	1.462617E-009	0.0354655	6
	40	56	100.4464	14548.45	-26523.21	1	30251.25	-61.25445	1.305034E-009	0.0354642	6
	41	58	79.00281	16881.95	-32101.39	1	36269.82	-62.26036	6.603438E-010	0.035462	6
	42	59	63.3446	19346.08	-38268.19	1	42880.36	-63.1816	1.372049E-009	0.0354617	6
	43	60	49.86702	23134.18	-45490.46	1	51035.02	-63.04438	1.578559E-009	0.0354623	6
	44	62	39.72458	27433.17	-54189.76	1	60738.03	-63.14952	1.289266E-009	0.035465	6
	45	63	31.6723	32690.24	-64098.09	1	71952.88	-62.97826	1.338971E-009	0.0354624	6
	46	65	24.93351	39767.21	-75991.96	1	85768.34	-62.37658	7.339598E-010	0.0354567	6
	47	66	19.86229	47929.53	-88816.21	1	100923.5	-61.64655	2.035962E-009	0.0354718	6
	48	67	15.83615	57962.16	-103461.3	1	118591.1	-60.74113	-4.078967E-010	0.0354587	5
	49	69	12.40079	71012.66	-120881.8	1	140197	-59.56767	-4.950405E-012	0.0354592	5
	50	70	9.93114	84584.14	-137454.4	1	161394.5	-58.39346	9.236268E-010	0.0354597	5
	51	72	7.944915	99765.6	-156933.2	1	185960.2	-57.55505	2.317153E-010	0.0354556	5
	52	73	6.317385	117425.2	-178217.6	1	213424.9	-56.61965	7.146982E-010	0.0354549	5
	53	75	5.008013	137053.7	-203422.2	1	245284.1	-56.03026	5.628552E-010	0.0354689	5
	54	78	3.945707	159632.8	-232862.8	1	282325.6	-55.56846	1.282363E-012	0.0354583	5
	55	81	3.158693	182501.8	-264750.9	1	321558.7	-55.42018	3.460574E-010	0.0354845	5
	56	84	2.504006	209358.4	-303762.3	1	368920.7	-55.42469	-8.424149E-012	0.03546	5
	57	87	1.998082	238177.9	-348073.2	1	421762.6	-55.61712	-1.54313E-010	0.0354786	5
	58	90	1.584686	273009.6	-401954.7	1	485903.1	-55.81546	2.418066E-010	0.0355159	5
	59	94	1.266892	310185.5	-461816.6	1	556317.9	-56.11217	-7.06035E-011	0.0354934	5
	60	98	0.999041	355744.6	-537599.4	1	644645.2	-56.50628	3.581448E-010	0.0354515	5
