EXPLAIN
TAG	EISPOT
TITLE	LABEL	Potentiostatic EIS	Test &Identifier
DATE	LABEL	7/5/2020	Date
TIME	LABEL	17:29:16	Time
NOTES	NOTES	1	&Notes...
	
PSTAT	PSTAT	REF600-11020	Potentiostat
VDC	POTEN	0.00000E+000	T	DC &Voltage (V)
FREQINIT	QUANT	1.00000E+006	Initial Fre&q. (Hz)
FREQFINAL	QUANT	1.00000E+000	Final Fre&q. (Hz)
PTSPERDEC	QUANT	1.00000E+001	Points/&decade
VAC	QUANT	2.50000E+001	AC &Voltage (mV rms)
AREA	QUANT	4.00000E-004	&Area (cm^2)
CONDIT	TWOPARAM	F	5.00000E+000	0.00000E+000	Conditionin&g	Time(s)	E(V)
DELAY	TWOPARAM	F	3.00000E+000	0.00000E+000	Init. De&lay	Time(s)	Stab.(mV/s)
SPEED	SELECTOR	0	&Optimize for:
ZGUESS	QUANT	1.00000E+003	E&stimated Z (ohms)
OCVCURVE	TABLE	39
	Pt	T	Vf	Vm	Ach	Over
	#	s	V vs. Ref.	V	V	bits
	0	0.258333	7.66796E-002	7.66796E-002	5.26350E-004	...........
	1	0.516667	7.66786E-002	7.66295E-002	5.26983E-004	...........
	2	0.775	7.66745E-002	7.66731E-002	5.30916E-004	...........
	3	1.03333	7.66679E-002	7.66784E-002	5.29950E-004	...........
	4	1.29167	7.66641E-002	7.66802E-002	5.30450E-004	...........
	5	1.55	7.66663E-002	7.66729E-002	5.26983E-004	...........
	6	1.80833	7.66709E-002	7.66627E-002	5.24517E-004	...........
	7	2.06667	7.66729E-002	7.66548E-002	5.27150E-004	...........
	8	2.325	7.66704E-002	7.66510E-002	5.19550E-004	...........
	9	2.58333	7.66647E-002	7.66444E-002	5.24850E-004	...........
	10	2.84167	7.66580E-002	7.66462E-002	5.25783E-004	...........
	11	3.1	7.66521E-002	7.66384E-002	5.26417E-004	...........
	12	3.35833	7.66474E-002	7.66349E-002	5.27917E-004	...........
	13	3.61667	7.66433E-002	7.66290E-002	5.28983E-004	...........
	14	3.875	7.66393E-002	7.66286E-002	5.28217E-004	...........
	15	4.13333	7.66350E-002	7.66171E-002	5.28283E-004	...........
	16	4.39167	7.66305E-002	7.66176E-002	5.29283E-004	...........
	17	4.65	7.66259E-002	7.66187E-002	5.27517E-004	...........
	18	4.90833	7.66228E-002	7.66606E-002	5.28883E-004	...........
	19	5.16667	7.66235E-002	7.66084E-002	5.24583E-004	...........
	20	5.425	7.66278E-002	7.66734E-002	5.29883E-004	...........
	21	5.68333	7.66339E-002	7.66569E-002	5.28150E-004	...........
	22	5.94167	7.66418E-002	7.66660E-002	5.26217E-004	...........
	23	6.2	7.66505E-002	7.66590E-002	5.26950E-004	...........
	24	6.45833	7.66573E-002	7.66595E-002	5.29650E-004	...........
	25	6.71667	7.66603E-002	7.66483E-002	5.23350E-004	...........
	26	6.975	7.66591E-002	7.66135E-002	5.24750E-004	...........
	27	7.23333	7.66524E-002	7.66030E-002	5.24450E-004	...........
	28	7.49167	7.66396E-002	7.65832E-002	5.24017E-004	...........
	29	7.75	7.66228E-002	7.65796E-002	5.23483E-004	...........
	30	8.00833	7.66058E-002	7.65771E-002	5.18117E-004	...........
	31	8.26667	7.65922E-002	7.65749E-002	5.17183E-004	...........
	32	8.525	7.65830E-002	7.65709E-002	5.23183E-004	...........
	33	8.78333	7.65776E-002	7.65695E-002	5.22050E-004	...........
	34	9.04167	7.65742E-002	7.65667E-002	5.24450E-004	...........
	35	9.3	7.65716E-002	7.65646E-002	5.20983E-004	...........
	36	9.5583	7.65693E-002	7.65627E-002	5.22483E-004	...........
	37	9.8167	7.65670E-002	7.65570E-002	5.21017E-004	...........
	38	10.075	7.65644E-002	7.65524E-002	5.26550E-004	...........
EOC	QUANT	0.0765644	Open Circuit (V)
PSTATMODEL	IQUANT	4	Pstat Model
PSTATSECTION	LABEL	REF600-11020	Pstat Section
PSTATSERIALNO	LABEL	11020	Pstat Serial Number
CTRLMODE	IQUANT	1	Control Mode
IESTAB	IQUANT	0	I/E Stability
CASPEED	IQUANT	1	Control Amp Speed
CONVENTION	IQUANT	1	Current Convention
ICHRANGE	IQUANT	2	Ich Range
ICHRANGEMODE	TOGGLE	F	Ich Auto Range
ICHOFFSETENABLE	TOGGLE	T	Ich Offset Enable
ICHOFFSET	QUANT	0	Ich Offset (V)
ICHFILTER	IQUANT	3	Ich Filter
VCHRANGE	IQUANT	2	Vch Range
VCHRANGEMODE	TOGGLE	F	Vch Auto Range
VCHOFFSETENABLE	TOGGLE	T	Vch Offset Enable
VCHOFFSET	QUANT	0	Vch Offset (V)
VCHFILTER	IQUANT	3	Vch Filter
ACHRANGE	IQUANT	2	Ach Range
ACHOFFSETENABLE	TOGGLE	F	Ach Offset Enable
ACHOFFSET	QUANT	0	Ach Offset (V)
ACHFILTER	IQUANT	3	Ach Filter
IERANGELOWERLIMIT	IQUANT	1	I/E Range Lower Limit
IERANGEMODE	TOGGLE	F	I/E AutoRange
IERANGE	IQUANT	8	I/E Range
POSFEEDENABLE	TOGGLE	F	Positive Feedback IR Comp
POSFEEDRESISTANCE	QUANT	0	Positive Feedback Resistance (ohm)
ACHSELECT	IQUANT	0	Ach Select
CABLEID	IQUANT	14	Cable ID
DCCALDATE	LABEL	6/26/2020	DC Calibration Date
ACCALDATE	LABEL	6/26/2020	AC Calibration Date
THERMOSELECT	IQUANT	1	Thermo Select
FRAMEWORKVERSION	QUANT	6.33	Framework Version
INSTRUMENTVERSION	LABEL	3.50	Instrument Version
ZCURVE	TABLE
	Pt	Time	Freq	Zreal	Zimag	Zsig	Zmod	Zphz	Idc	Vdc	IERange
	#	s	Hz	ohm	ohm	V	ohm	°	A	V	#
	0	1	1000078	1697.198	-1588.449	1	2324.575	-43.10432	1.431603E-005	0.0771287	8
	1	1	794390.6	1966.836	-1655.171	1	2570.61	-40.08194	-6.693003E-006	0.0793659	8
	2	1	630984.4	2218.797	-1699.547	1	2794.91	-37.45129	-8.239867E-007	0.0790708	8
	3	2	501234.4	2467.858	-1735.867	1	3017.21	-35.12218	8.610461E-006	0.0774749	8
	4	2	398109.4	2690.668	-1787.149	1	3230.108	-33.59221	-1.500435E-006	0.077894	8
	5	2	316265.6	2904.004	-1855.23	1	3446.03	-32.57257	-5.99059E-007	0.0778752	8
	6	3	251203.1	3105.939	-1962.765	1	3674.139	-32.2904	-5.136166E-006	0.0785725	8
	7	3	199546.9	3316.865	-2101.846	1	3926.748	-32.36179	-4.061692E-007	0.078775	8
	8	3	158578.1	3519.181	-2289.396	1	4198.33	-33.04593	7.199464E-006	0.0770061	8
	9	4	125953.1	3786.81	-2538.701	1	4559.05	-33.83815	4.956135E-006	0.0699017	7
	10	4	100078.1	4074.418	-2831.112	1	4961.459	-34.79353	1.314437E-007	0.0764726	7
	11	4	79453.13	4397.551	-3180.65	1	5427.245	-35.87737	-9.473346E-007	0.0780183	7
	12	4	63140.62	4774.539	-3597.03	1	5977.863	-36.99355	-4.127164E-007	0.0771326	7
	13	5	50203.12	5222.833	-4063.529	1	6617.421	-37.88404	8.167949E-007	0.0784134	7
	14	5	39890.62	5769.307	-4588.646	1	7371.606	-38.49715	8.145602E-007	0.0784087	7
	15	6	31640.63	6422.802	-5154.971	1	8235.661	-38.75069	1.408129E-006	0.0762715	7
	16	6	25171.88	7186.633	-5730.965	1	9191.935	-38.57053	9.864078E-007	0.0759159	7
	17	6	20015.62	8053.693	-6323.713	1	10239.69	-38.1388	-4.22312E-007	0.0771236	7
	18	7	15890.62	9064.341	-6911.864	1	11398.95	-37.32674	-4.209357E-007	0.0771254	7
	19	7	12609.37	10193.76	-7488.094	1	12648.49	-36.30012	-2.010229E-007	0.0790529	6
	20	7	10078.13	11403.04	-8005.009	1	13932.32	-35.06911	-4.912029E-008	0.0809906	6
	21	8	8015.625	12716.47	-8452.061	1	15269.12	-33.61018	2.155323E-007	0.0763787	6
	22	8	6328.125	14082.81	-8815.407	1	16614.36	-32.04531	6.053299E-009	0.0757262	6
	23	8	5015.625	15484.49	-9167.667	1	17994.87	-30.62787	-1.220744E-007	0.0815691	6
	24	8	3984.375	16832.96	-9442.279	1	19300.4	-29.2898	-6.740041E-008	0.0766226	6
	25	9	3170.956	18178.38	-9755.23	1	20630.51	-28.21974	-2.572166E-007	0.0813041	6
	26	9	2527.573	19490.44	-10073.52	1	21939.76	-27.33192	-6.747358E-008	0.0766242	6
	27	9	1976.103	20942.27	-10529.03	1	23440.12	-26.69163	-1.388873E-007	0.0777503	6
	28	10	1577.524	22353.07	-11032.11	1	24927.24	-26.26813	7.553295E-008	0.0751061	6
	29	10	1265.625	23742.64	-11560.12	1	26407.37	-25.96111	-2.018902E-007	0.0790453	6
	30	10	998.264	25448.8	-12295.69	1	28263.5	-25.78769	2.147329E-007	0.0763741	6
	31	11	796.875	27092.4	-12984.57	1	30043.26	-25.60699	9.654985E-008	0.0791662	6
	32	11	627.7902	28757.1	-13688.34	1	31848.73	-25.45437	7.548461E-008	0.0751076	6
	33	11	505.5147	30494.92	-14483.83	1	33759.76	-25.4058	2.518389E-008	0.0801634	6
	34	12	397.9953	32223.74	-15402.8	1	35715.77	-25.54759	8.896041E-010	0.0781952	6
	35	12	315.5048	33889.87	-16521.83	1	37702.71	-25.98993	8.009476E-010	0.0781963	6
	36	12	252.4038	35441.46	-17889.15	1	39700.36	-26.78245	5.538005E-011	0.078202	6
	37	13	198.6229	37126.16	-19819.55	1	42085.23	-28.09523	1.169109E-010	0.0782009	6
	38	13	158.3615	38786.15	-22178.65	1	44679.5	-29.76173	2.693554E-010	0.0781968	6
	39	13	125.558	40628.14	-25218.3	1	47818.5	-31.82829	-3.907742E-010	0.0782011	6
	40	14	100.4464	42667.61	-28902.37	1	51535.15	-34.1131	4.374513E-010	0.078187	6
	41	14	79.00281	45130.14	-33758.87	1	56359.48	-36.79773	4.676577E-010	0.0781791	6
	42	14	63.3446	47603.8	-38874.21	1	61459.95	-39.23576	5.809E-010	0.0781782	6
	43	15	49.86702	51292.92	-45972.88	1	68880.11	-41.86927	-7.276764E-010	0.0781871	6
	44	15	39.72458	55581.72	-54216.86	1	77645.32	-44.28781	-1.965536E-010	0.0781802	6
	45	15	31.6723	60843.88	-63689.2	1	88081.16	-46.30886	1.090303E-010	0.0781772	6
	46	16	24.93351	67748.83	-75059.23	1	101112.8	-47.93044	1.568615E-011	0.0781707	5
	47	16	19.86229	76088.95	-87736.53	1	116134.5	-49.06675	-1.172248E-009	0.0781816	5
	48	16	15.83615	86554.85	-101626.7	1	133490.5	-49.57916	1.927555E-009	0.0781778	5
	49	16	12.40079	99678	-118713.1	1	155011.3	-49.98133	1.056974E-009	0.0781785	5
	50	17	9.93114	114495.1	-134549.8	1	176671.4	-49.60389	1.972906E-009	0.0781695	5
	51	17	7.944915	132365.3	-153316.6	1	202550.1	-49.19444	7.739314E-010	0.0781661	5
	52	18	6.317385	151833.2	-172136.6	1	229530.6	-48.58607	9.163278E-013	0.0781688	5
	53	18	5.008013	174282.8	-192870.2	1	259948.8	-47.89816	7.088581E-010	0.0781778	5
	54	19	3.945707	200484.1	-215749.2	1	294519.3	-47.10034	3.232344E-010	0.0781742	5
	55	20	3.158693	226056.5	-238357.4	1	328505.4	-46.51722	2.469865E-010	0.0781885	5
	56	22	2.504006	254908.2	-264240.3	1	367152.8	-46.02983	-2.605799E-010	0.0781798	5
	57	23	1.998082	282350.9	-292803.1	1	406762.4	-46.04111	-1.088932E-010	0.0781698	5
	58	25	1.584686	312300.7	-325753.3	1	451272.6	-46.20783	1.539415E-010	0.0782101	5
	59	27	1.266892	341327.1	-365636	1	500193.8	-46.96934	1.562187E-010	0.0781976	5
	60	29	0.999041	371533.8	-417024.8	1	558522.2	-48.30167	1.373984E-010	0.0781821	5
