EXPLAIN
TAG	EISPOT
TITLE	LABEL	Potentiostatic EIS	Test &Identifier
DATE	LABEL	6/1/2020	Date
TIME	LABEL	13:49:52	Time
NOTES	NOTES	1	&Notes...
	
PSTAT	PSTAT	REF600-11020	Potentiostat
VDC	POTEN	0.00000E+000	T	DC &Voltage (V)
FREQINIT	QUANT	1.00000E+006	Initial Fre&q. (Hz)
FREQFINAL	QUANT	1.00000E+000	Final Fre&q. (Hz)
PTSPERDEC	QUANT	1.00000E+001	Points/&decade
VAC	QUANT	2.50000E+001	AC &Voltage (mV rms)
AREA	QUANT	4.00000E-004	&Area (cm^2)
CONDIT	TWOPARAM	F	5.00000E+000	0.00000E+000	Conditionin&g	Time(s)	E(V)
DELAY	TWOPARAM	T	3.00000E+000	0.00000E+000	Init. De&lay	Time(s)	Stab.(mV/s)
SPEED	SELECTOR	0	&Optimize for:
ZGUESS	QUANT	1.00000E+003	E&stimated Z (ohms)
OCVCURVE	TABLE	12
	Pt	T	Vf	Vm	Ach	Over
	#	s	V vs. Ref.	V	V	bits
	0	0.258333	-3.75925E-002	-3.75925E-002	5.60664E-004	...........
	1	0.516667	-3.75925E-002	-3.75918E-002	5.59797E-004	...........
	2	0.775	-3.75925E-002	-3.75941E-002	5.57164E-004	...........
	3	1.03333	-3.75925E-002	-3.75933E-002	5.57364E-004	...........
	4	1.29167	-3.75928E-002	-3.75959E-002	5.57497E-004	...........
	5	1.55	-3.75934E-002	-3.75972E-002	5.62997E-004	...........
	6	1.80833	-3.75943E-002	-3.75973E-002	5.59497E-004	...........
	7	2.06667	-3.75954E-002	-3.75996E-002	5.62830E-004	...........
	8	2.325	-3.75966E-002	-3.75996E-002	5.63997E-004	...........
	9	2.58333	-3.75978E-002	-3.76009E-002	5.55097E-004	...........
	10	2.84167	-3.75989E-002	-3.76040E-002	5.58364E-004	...........
	11	3.1	-3.76001E-002	-3.76061E-002	5.63563E-004	...........
EOC	QUANT	-0.0376001	Open Circuit (V)
PSTATMODEL	IQUANT	4	Pstat Model
PSTATSECTION	LABEL	REF600-11020	Pstat Section
PSTATSERIALNO	LABEL	11020	Pstat Serial Number
CTRLMODE	IQUANT	1	Control Mode
IESTAB	IQUANT	0	I/E Stability
CASPEED	IQUANT	1	Control Amp Speed
CONVENTION	IQUANT	1	Current Convention
ICHRANGE	IQUANT	2	Ich Range
ICHRANGEMODE	TOGGLE	F	Ich Auto Range
ICHOFFSETENABLE	TOGGLE	T	Ich Offset Enable
ICHOFFSET	QUANT	0	Ich Offset (V)
ICHFILTER	IQUANT	3	Ich Filter
VCHRANGE	IQUANT	2	Vch Range
VCHRANGEMODE	TOGGLE	F	Vch Auto Range
VCHOFFSETENABLE	TOGGLE	T	Vch Offset Enable
VCHOFFSET	QUANT	0	Vch Offset (V)
VCHFILTER	IQUANT	3	Vch Filter
ACHRANGE	IQUANT	2	Ach Range
ACHOFFSETENABLE	TOGGLE	F	Ach Offset Enable
ACHOFFSET	QUANT	0	Ach Offset (V)
ACHFILTER	IQUANT	3	Ach Filter
IERANGELOWERLIMIT	IQUANT	1	I/E Range Lower Limit
IERANGEMODE	TOGGLE	F	I/E AutoRange
IERANGE	IQUANT	7	I/E Range
POSFEEDENABLE	TOGGLE	F	Positive Feedback IR Comp
POSFEEDRESISTANCE	QUANT	0	Positive Feedback Resistance (ohm)
ACHSELECT	IQUANT	0	Ach Select
CABLEID	IQUANT	14	Cable ID
DCCALDATE	LABEL	2/27/2020	DC Calibration Date
ACCALDATE	LABEL	2/27/2020	AC Calibration Date
THERMOSELECT	IQUANT	1	Thermo Select
FRAMEWORKVERSION	QUANT	6.33	Framework Version
INSTRUMENTVERSION	LABEL	3.50	Instrument Version
ZCURVE	TABLE
	Pt	Time	Freq	Zreal	Zimag	Zsig	Zmod	Zphz	Idc	Vdc	IERange
	#	s	Hz	ohm	ohm	V	ohm	°	A	V	#
	0	1	1000078	1743.358	-2275.063	1	2866.218	-52.53742	5.198895E-008	-0.0350563	8
	1	1	794390.6	2095.083	-2521.199	1	3278.081	-50.27387	3.020094E-008	-0.0354049	8
	2	2	630984.4	2486.434	-2759.156	1	3714.202	-47.97617	4.363764E-008	-0.035579	8
	3	2	501234.4	2906.485	-2995.69	1	4173.945	-45.86589	5.342928E-008	-0.0356992	8
	4	2	398109.4	3355.258	-3235.336	1	4661.025	-43.95757	2.938622E-008	-0.0357546	8
	5	3	316265.6	3838.672	-3497.172	1	5192.843	-42.33467	4.504585E-008	-0.0357986	8
	6	3	251203.1	4372.61	-3764.837	1	5770.071	-40.7286	8.684675E-008	-0.0358417	8
	7	3	199546.9	4965.02	-4058.282	1	6412.571	-39.2617	4.759201E-008	-0.0358217	8
	8	4	158578.1	5646.13	-4322.311	1	7110.637	-37.43532	4.613264E-008	-0.0358176	8
	9	4	125953.1	6483.126	-4507.375	1	7896.034	-34.80885	5.007917E-009	-0.0358529	7
	10	4	100078.1	7283.222	-4669.996	1	8651.831	-32.66796	2.263394E-009	-0.0358873	7
	11	4	79453.13	8169.666	-4773.433	1	9461.981	-30.2972	3.982985E-009	-0.0358873	7
	12	5	63140.62	9066.657	-4744.008	1	10232.79	-27.62021	3.009594E-009	-0.0358928	7
	13	5	50203.12	9935.31	-4606.576	1	10951.3	-24.87512	2.721898E-009	-0.0359014	7
	14	5	39890.62	10736.57	-4377.875	1	11594.81	-22.18336	2.788007E-009	-0.0359017	7
	15	6	31640.63	11455.88	-4076.975	1	12159.72	-19.58988	2.176506E-009	-0.0359073	7
	16	6	25171.88	12061.2	-3748.438	1	12630.25	-17.26446	2.73314E-009	-0.0359145	7
	17	6	20015.62	12577.2	-3431.774	1	13036.99	-15.26202	3.784852E-009	-0.035904	7
	18	7	15890.62	12995.81	-3123.135	1	13365.81	-13.513	3.631396E-009	-0.0359089	7
	19	7	12609.37	13411.78	-2715.627	1	13683.95	-11.44654	2.293791E-010	-0.0358594	6
	20	7	10078.13	13674.12	-2538.676	1	13907.78	-10.51753	2.260939E-010	-0.0358564	6
	21	8	8015.625	13893.35	-2416.731	1	14101.98	-9.86779	3.74079E-010	-0.0358595	6
	22	8	6328.125	14090.54	-2358.654	1	14286.59	-9.50279	2.206294E-010	-0.0358548	6
	23	8	5015.625	14261.92	-2374.635	1	14458.26	-9.453127	1.893723E-010	-0.0358546	6
	24	9	3984.375	14410.54	-2468.377	1	14620.41	-9.71985	1.173344E-010	-0.0358535	6
	25	9	3170.956	14553.02	-2646.171	1	14791.64	-10.30548	-1.43646E-010	-0.0358593	6
	26	9	2527.573	14702.14	-2914.945	1	14988.32	-11.21441	-2.911557E-010	-0.0358635	6
	27	10	1976.103	14864.65	-3329.043	1	15232.87	-12.62349	5.3379E-010	-0.035856	6
	28	10	1577.524	15031.96	-3832.336	1	15512.79	-14.30264	1.862488E-010	-0.0358541	6
	29	10	1265.625	15215.14	-4460.391	1	15855.46	-16.33875	2.966594E-011	-0.0358614	6
	30	11	998.264	15442.29	-5317.09	1	16332.05	-18.99961	1.060224E-010	-0.035853	6
	31	11	796.875	15695.23	-6330.638	1	16923.87	-21.96658	1.591216E-011	-0.0358579	6
	32	11	627.7902	16027.75	-7667.884	1	17767.53	-25.56706	-7.768156E-011	-0.0358581	6
	33	12	505.5147	16385.08	-9155.054	1	18769.28	-29.19399	-2.227206E-010	-0.035863	6
	34	12	397.9953	16874.82	-11171.39	1	20237.58	-33.50518	4.661506E-010	-0.0358423	6
	35	12	315.5048	17466.1	-13575.74	1	22121.61	-37.85658	4.574401E-010	-0.0358439	6
	36	12	252.4038	18170.01	-16390.23	1	24470.16	-42.052	3.174685E-010	-0.0358446	6
	37	13	198.6229	19122.62	-20077.63	1	27726.99	-46.3956	3.045972E-010	-0.035845	6
	38	13	158.3615	20259.03	-24328.84	1	31659.45	-50.21528	3.243239E-010	-0.03585	6
	39	13	125.558	21735.8	-29619.05	1	36738.71	-53.72709	2.975809E-010	-0.0358486	6
	40	14	100.4464	23536.8	-35769.85	1	42818.96	-56.65482	3.584724E-010	-0.0358515	6
	41	14	79.00281	26031.54	-43788.96	1	50942.26	-59.26948	3.266533E-010	-0.0358533	6
	42	14	63.3446	28990.56	-52686.4	1	60135.76	-61.17832	2.936747E-010	-0.0358551	6
	43	15	49.86702	33132.94	-64249.88	1	72289.96	-62.72035	4.433766E-010	-0.0358582	6
	44	15	39.72458	38308.68	-77423.22	1	86382.34	-63.67399	4.952585E-010	-0.0358504	6
	45	15	31.6723	45016.77	-92953.67	1	103280.7	-64.15944	4.354239E-010	-0.0358598	6
	46	16	24.93351	54350.87	-112173.8	1	124647.4	-64.14871	2.261525E-010	-0.0358539	5
	47	16	19.86229	65906.01	-133441.8	1	148829.9	-63.71555	3.591227E-010	-0.0358483	5
	48	16	15.83615	80732.55	-157601.7	1	177076.4	-62.8759	2.10289E-010	-0.0358526	5
	49	17	12.40079	101388.8	-186644.9	1	212405.3	-61.4884	1.142485E-009	-0.0358547	5
	50	17	9.93114	124207.9	-215595.4	1	248815.2	-60.05309	7.734352E-010	-0.0358481	5
	51	17	7.944915	152336.4	-246569.2	1	289832.3	-58.29123	-7.208548E-010	-0.0358497	5
	52	18	6.317385	185847.8	-280233.1	1	336258.8	-56.44806	3.35506E-010	-0.0358632	5
	53	19	5.008013	224587.5	-315840.3	1	387549.5	-54.58416	5.275579E-010	-0.0358477	5
	54	19	3.945707	269041.7	-353174.3	1	443977	-52.70052	2.874842E-011	-0.0358609	5
	55	20	3.158693	313390.8	-390897	1	501013.3	-51.28008	3.438934E-010	-0.0358542	5
	56	21	2.504006	362748.7	-432514.7	1	564495.8	-50.01355	4.448373E-011	-0.0358551	5
	57	23	1.998082	413018	-478921.8	1	632415.9	-49.2258	-8.348988E-011	-0.0358902	5
	58	24	1.584686	466841.3	-531055.3	1	707078.8	-48.68187	5.380418E-011	-0.0358439	5
	59	26	1.266892	524391.7	-590929.3	1	790053.2	-48.41409	1.257181E-010	-0.0358269	5
	60	29	0.999041	588954.3	-667182.8	1	889943.9	-48.56361	1.589721E-010	-0.0358243	5
