EXPLAIN
TAG	EISPOT
TITLE	LABEL	Potentiostatic EIS	Test &Identifier
DATE	LABEL	1/18/2020	Date
TIME	LABEL	22:25:49	Time
NOTES	NOTES	6	&Notes...
	
	
	
	
	
	
PSTAT	PSTAT	REF600-11020	Potentiostat
VDC	POTEN	0.00000E+000	T	DC &Voltage (V)
FREQINIT	QUANT	1.00000E+006	Initial Fre&q. (Hz)
FREQFINAL	QUANT	1.00000E+000	Final Fre&q. (Hz)
PTSPERDEC	QUANT	1.00000E+001	Points/&decade
VAC	QUANT	2.50000E+001	AC &Voltage (mV rms)
AREA	QUANT	1.00000E-001	&Area (cm^2)
CONDIT	TWOPARAM	F	5.00000E+000	0.00000E+000	Conditionin&g	Time(s)	E(V)
DELAY	TWOPARAM	F	5.00000E+000	0.00000E+000	Init. De&lay	Time(s)	Stab.(mV/s)
SPEED	SELECTOR	0	&Optimize for:
ZGUESS	QUANT	5.00000E+002	E&stimated Z (ohms)
OCVCURVE	TABLE	39
	Pt	T	Vf	Vm	Ach	Over
	#	s	V vs. Ref.	V	V	bits
	0	0.258333	-4.63434E-002	-4.63434E-002	6.67079E-004	...........
	1	0.516667	-4.63399E-002	-4.61589E-002	6.63146E-004	...........
	2	0.775	-4.63205E-002	-4.61034E-002	6.59313E-004	...........
	3	1.03333	-4.62716E-002	-4.59608E-002	6.63613E-004	...........
	4	1.29167	-4.61898E-002	-4.57439E-002	6.62346E-004	...........
	5	1.55	-4.60783E-002	-4.56446E-002	6.62746E-004	...........
	6	1.80833	-4.59432E-002	-4.54931E-002	6.61113E-004	...........
	7	2.06667	-4.58008E-002	-4.55689E-002	6.55646E-004	...........
	8	2.325	-4.56778E-002	-4.55619E-002	6.50846E-004	...........
	9	2.58333	-4.55964E-002	-4.55130E-002	6.54013E-004	...........
	10	2.84167	-4.55568E-002	-4.55621E-002	6.55813E-004	...........
	11	3.1	-4.55415E-002	-4.54791E-002	6.51080E-004	...........
	12	3.35833	-4.55314E-002	-4.54052E-002	6.58446E-004	...........
	13	3.61667	-4.55108E-002	-4.53533E-002	6.54180E-004	...........
	14	3.875	-4.54724E-002	-4.53129E-002	6.51046E-004	...........
	15	4.13333	-4.54210E-002	-4.52411E-002	6.51746E-004	...........
	16	4.39167	-4.53649E-002	-4.51938E-002	6.50613E-004	...........
	17	4.65	-4.53092E-002	-4.51837E-002	6.54446E-004	...........
	18	4.90833	-4.52587E-002	-4.51828E-002	6.56680E-004	...........
	19	5.16667	-4.52196E-002	-4.51733E-002	6.59179E-004	...........
	20	5.425	-4.51945E-002	-4.51508E-002	6.57046E-004	...........
	21	5.68333	-4.51773E-002	-4.50513E-002	6.49713E-004	...........
	22	5.94167	-4.51571E-002	-4.50836E-002	6.55346E-004	...........
	23	6.2	-4.51307E-002	-4.51288E-002	6.58513E-004	...........
	24	6.45833	-4.51076E-002	-4.50539E-002	6.51913E-004	...........
	25	6.71667	-4.50928E-002	-4.49826E-002	6.50813E-004	...........
	26	6.975	-4.50754E-002	-4.49508E-002	6.47613E-004	...........
	27	7.23333	-4.50452E-002	-4.49423E-002	6.47846E-004	...........
	28	7.49167	-4.50068E-002	-4.49199E-002	6.54113E-004	...........
	29	7.75	-4.49714E-002	-4.49109E-002	6.59513E-004	...........
	30	8.00833	-4.49446E-002	-4.49005E-002	6.61146E-004	...........
	31	8.26667	-4.49256E-002	-4.48880E-002	6.61046E-004	...........
	32	8.525	-4.49116E-002	-4.48766E-002	6.55046E-004	...........
	33	8.78333	-4.48998E-002	-4.48598E-002	6.55679E-004	...........
	34	9.04167	-4.48879E-002	-4.48391E-002	6.59213E-004	...........
	35	9.3	-4.48745E-002	-4.48272E-002	6.50446E-004	...........
	36	9.5583	-4.48590E-002	-4.47859E-002	6.56580E-004	...........
	37	9.8167	-4.48407E-002	-4.47741E-002	6.53580E-004	...........
	38	10.075	-4.48199E-002	-4.47651E-002	6.55513E-004	...........
EOC	QUANT	-0.0448199	Open Circuit (V)
PSTATMODEL	IQUANT	4	Pstat Model
PSTATSECTION	LABEL	REF600-11020	Pstat Section
PSTATSERIALNO	LABEL	11020	Pstat Serial Number
CTRLMODE	IQUANT	1	Control Mode
IESTAB	IQUANT	0	I/E Stability
CASPEED	IQUANT	1	Control Amp Speed
CONVENTION	IQUANT	1	Current Convention
ICHRANGE	IQUANT	2	Ich Range
ICHRANGEMODE	TOGGLE	F	Ich Auto Range
ICHOFFSETENABLE	TOGGLE	T	Ich Offset Enable
ICHOFFSET	QUANT	0	Ich Offset (V)
ICHFILTER	IQUANT	3	Ich Filter
VCHRANGE	IQUANT	2	Vch Range
VCHRANGEMODE	TOGGLE	F	Vch Auto Range
VCHOFFSETENABLE	TOGGLE	T	Vch Offset Enable
VCHOFFSET	QUANT	0	Vch Offset (V)
VCHFILTER	IQUANT	3	Vch Filter
ACHRANGE	IQUANT	2	Ach Range
ACHOFFSETENABLE	TOGGLE	F	Ach Offset Enable
ACHOFFSET	QUANT	0	Ach Offset (V)
ACHFILTER	IQUANT	3	Ach Filter
IERANGELOWERLIMIT	IQUANT	1	I/E Range Lower Limit
IERANGEMODE	TOGGLE	F	I/E AutoRange
IERANGE	IQUANT	8	I/E Range
POSFEEDENABLE	TOGGLE	F	Positive Feedback IR Comp
POSFEEDRESISTANCE	QUANT	0	Positive Feedback Resistance (ohm)
ACHSELECT	IQUANT	0	Ach Select
CABLEID	IQUANT	14	Cable ID
DCCALDATE	LABEL	12/22/2019	DC Calibration Date
ACCALDATE	LABEL	12/22/2019	AC Calibration Date
THERMOSELECT	IQUANT	1	Thermo Select
FRAMEWORKVERSION	QUANT	6.33	Framework Version
INSTRUMENTVERSION	LABEL	3.50	Instrument Version
ZCURVE	TABLE
	Pt	Time	Freq	Zreal	Zimag	Zsig	Zmod	Zphz	Idc	Vdc	IERange
	#	s	Hz	ohm	ohm	V	ohm	°	A	V	#
	0	1	1000078	2420.487	-2160.131	1	3244.213	-41.74689	4.213434E-006	-0.0429922	8
	1	1	794390.6	2860.847	-2150.002	1	3578.681	-36.92582	-3.664671E-006	-0.0424478	8
	2	1	630984.4	3269.283	-2086.031	1	3878.11	-32.54073	1.478939E-006	-0.0430637	8
	3	2	501234.4	3691.704	-1966.322	1	4182.715	-28.04122	-8.346777E-008	-0.0428463	8
	4	2	398109.4	4015.485	-1820.509	1	4408.897	-24.38822	-7.578818E-007	-0.0427887	8
	5	2	316265.6	4288.51	-1637.116	1	4590.367	-20.8941	2.110101E-006	-0.043508	8
	6	3	251203.1	4512.63	-1428.999	1	4733.484	-17.57125	-3.566242E-006	-0.0423358	8
	7	3	199546.9	4704.332	-1280.093	1	4875.384	-15.22217	3.508355E-006	-0.0437561	8
	8	3	158578.1	4867.882	-1147.381	1	5001.275	-13.26279	1.849907E-006	-0.043484	8
	9	4	125953.1	4977.158	-996.532	1	5075.941	-11.32212	1.077081E-006	-0.0450472	7
	10	4	100078.1	5056.704	-899.4651	1	5136.077	-10.08604	-3.584015E-009	-0.0431251	7
	11	4	79453.13	5139.182	-835.8322	1	5206.708	-9.237654	-3.862475E-008	-0.0431237	7
	12	5	63140.62	5214.76	-792.4961	1	5274.635	-8.64122	-1.029901E-008	-0.0431287	7
	13	5	50203.12	5282.581	-769.1674	1	5338.285	-8.284304	3.734968E-008	-0.0432794	7
	14	5	39890.62	5351.379	-763.9954	1	5405.641	-8.124989	-3.008451E-008	-0.043132	7
	15	5	31640.63	5418.097	-778.1694	1	5473.694	-8.173162	-3.463825E-008	-0.0430481	7
	16	6	25171.88	5485.516	-812.0307	1	5545.293	-8.420445	-4.847762E-008	-0.0430697	7
	17	6	20015.62	5556.038	-864.1726	1	5622.842	-8.840808	-1.641077E-008	-0.043177	7
	18	6	15890.62	5633.934	-938.7934	1	5711.615	-9.460386	-3.437727E-008	-0.0430571	7
	19	7	12609.37	5718.193	-1036.599	1	5811.391	-10.27504	2.127721E-008	-0.0432488	7
	20	7	10078.13	5809.729	-1153.844	1	5923.201	-11.23308	-5.475037E-008	-0.0430889	7
	21	7	8015.625	5908.406	-1304.193	1	6050.635	-12.44759	-3.463805E-008	-0.0430622	7
	22	8	6328.125	6025.231	-1491.574	1	6207.109	-13.9043	-1.570203E-008	-0.0430526	7
	23	8	5015.625	6153.407	-1716.636	1	6388.369	-15.58768	6.637182E-008	-0.0432928	7
	24	8	3984.375	6297.05	-1982.842	1	6601.855	-17.47839	-1.602643E-008	-0.0431872	7
	25	9	3170.956	6458.937	-2300.001	1	6856.228	-19.60061	6.635715E-008	-0.0432935	7
	26	9	2527.573	6640.233	-2676.438	1	7159.331	-21.95259	-2.205135E-008	-0.0431853	7
	27	9	1976.103	6864.289	-3166.266	1	7559.346	-24.76229	-2.903166E-008	-0.043145	7
	28	10	1577.524	7095.294	-3713.362	1	8008.262	-27.62557	-1.689923E-008	-0.0431925	7
	29	10	1265.625	7357.138	-4342.021	1	8542.87	-30.54817	-3.104203E-009	-0.0432308	7
	30	10	998.264	7677.223	-5165.409	1	9253.173	-33.93356	-4.740023E-008	-0.0430868	7
	31	11	796.875	8025.722	-6100.254	1	10080.94	-37.23803	-7.493923E-009	-0.043084	6
	32	11	627.7902	8447.8	-7302.781	1	11166.73	-40.84209	-6.503814E-009	-0.0430277	6
	33	11	505.5147	8889.802	-8625.917	1	12386.89	-44.13687	6.603966E-010	-0.043088	6
	34	12	397.9953	9463.302	-10388.2	1	14052.36	-47.66753	8.607413E-010	-0.0431679	6
	35	12	315.5048	10119.42	-12477	1	16064.81	-50.95639	5.207068E-010	-0.0431719	6
	36	12	252.4038	10870.93	-14906	1	18449.01	-53.89677	8.023358E-010	-0.0431751	6
	37	12	198.6229	11839.24	-18075.74	1	21607.87	-56.77601	6.491904E-010	-0.0431759	6
	38	13	158.3615	12959.06	-21712.91	1	25286.11	-59.1697	7.350587E-010	-0.0431766	6
	39	13	125.558	14345.8	-26217.13	1	29885.45	-61.31288	7.831327E-010	-0.0431738	6
	40	13	100.4464	15944.49	-31441.67	1	35253.45	-63.10982	4.263179E-010	-0.0431795	6
	41	14	79.00281	18099.17	-38195.27	1	42266.52	-64.64565	1.424311E-010	-0.0431765	6
	42	14	63.3446	20903.5	-45899.25	1	50435.08	-65.51447	6.888619E-010	-0.0431802	6
	43	14	49.86702	24117.79	-55759.56	1	60751.93	-66.60997	8.642826E-010	-0.0431828	6
	44	15	39.72458	27881.29	-66917.67	1	72493.73	-67.38092	6.179439E-010	-0.0431768	6
	45	15	31.6723	32735.72	-80283.7	1	86701.2	-67.8168	8.161753E-010	-0.0431811	6
	46	15	24.93351	39514.61	-97621.4	1	105315.5	-67.96318	5.670879E-010	-0.0431838	6
	47	16	19.86229	47779.67	-116852.7	1	126243.6	-67.76094	5.168352E-010	-0.0431814	5
	48	16	15.83615	57759.95	-139617.9	1	151093.9	-67.52511	-4.996096E-010	-0.0431877	5
	49	16	12.40079	73841.52	-167447.8	1	183006.4	-66.20337	-1.727753E-009	-0.0431798	5
	50	17	9.93114	90848.09	-198576.8	1	218371.5	-65.41609	-1.061737E-009	-0.0431855	5
	51	17	7.944915	112926.4	-233144.9	1	259053.9	-64.15625	-1.041439E-009	-0.0431814	5
	52	18	6.317385	140490.9	-272147	1	306270.6	-62.69579	-1.77059E-010	-0.0431753	5
	53	19	5.008013	176051.3	-316053	1	361778.3	-60.88084	-4.531233E-011	-0.0431928	5
	54	20	3.945707	220762.7	-364310.6	1	425979.3	-58.78523	1.733398E-010	-0.0431907	5
	55	21	3.158693	268746	-410633.6	1	490759	-56.79659	2.294569E-011	-0.0431724	5
	56	23	2.504006	325670.9	-460707	1	564191.8	-54.74375	-5.027297E-011	-0.0431831	5
	57	24	1.998082	385092.7	-511874.3	1	640555.8	-53.04517	-3.790811E-011	-0.0431805	5
	58	25	1.584686	452277.7	-566346.1	1	724777.9	-51.38953	1.498973E-010	-0.043151	5
	59	27	1.266892	518150.1	-625476.8	1	812219.6	-50.36137	1.750457E-010	-0.0431522	5
	60	30	0.999041	590153.5	-696077.1	1	912581.2	-49.70779	1.653397E-010	-0.0431717	5
