EXPLAIN
TAG	EISPOT
TITLE	LABEL	Potentiostatic EIS	Test &Identifier
DATE	LABEL	1/10/2020	Date
TIME	LABEL	12:39:41	Time
NOTES	NOTES	5	&Notes...
	
	
	
	
	
PSTAT	PSTAT	REF600-11020	Potentiostat
VDC	POTEN	0.00000E+000	T	DC &Voltage (V)
FREQINIT	QUANT	1.00000E+006	Initial Fre&q. (Hz)
FREQFINAL	QUANT	1.00000E+000	Final Fre&q. (Hz)
PTSPERDEC	QUANT	1.00000E+001	Points/&decade
VAC	QUANT	2.50000E+001	AC &Voltage (mV rms)
AREA	QUANT	1.00000E-001	&Area (cm^2)
CONDIT	TWOPARAM	T	5.00000E+000	0.00000E+000	Conditionin&g	Time(s)	E(V)
DELAY	TWOPARAM	T	5.00000E+000	0.00000E+000	Init. De&lay	Time(s)	Stab.(mV/s)
SPEED	SELECTOR	0	&Optimize for:
ZGUESS	QUANT	5.00000E+002	E&stimated Z (ohms)
OCVCURVE	TABLE	19
	Pt	T	Vf	Vm	Ach	Over
	#	s	V vs. Ref.	V	V	bits
	0	0.258333	-4.94360E-003	-4.94360E-003	6.60946E-004	...........
	1	0.516667	-4.95355E-003	-5.46423E-003	6.65479E-004	...........
	2	0.775	-5.01452E-003	-5.95251E-003	6.68413E-004	...........
	3	1.03333	-5.18636E-003	-6.40450E-003	6.73913E-004	...........
	4	1.29167	-5.49139E-003	-6.81722E-003	6.69346E-004	...........
	5	1.55	-5.89191E-003	-7.23010E-003	6.65279E-004	...........
	6	1.80833	-6.32858E-003	-7.57109E-003	6.68979E-004	...........
	7	2.06667	-6.75873E-003	-7.95247E-003	6.69146E-004	...........
	8	2.325	-7.16443E-003	-8.27323E-003	6.65613E-004	...........
	9	2.58333	-7.54437E-003	-8.60996E-003	6.67446E-004	...........
	10	2.84167	-7.90287E-003	-8.90927E-003	6.62379E-004	...........
	11	3.1	-8.24401E-003	-9.23238E-003	6.63846E-004	...........
	12	3.35833	-8.57098E-003	-9.50093E-003	6.67879E-004	...........
	13	3.61667	-8.88517E-003	-9.76994E-003	6.65313E-004	...........
	14	3.875	-9.18598E-003	-1.00555E-002	6.69846E-004	...........
	15	4.13333	-9.47426E-003	-1.03202E-002	6.68613E-004	...........
	16	4.39167	-9.75366E-003	-1.05847E-002	6.70013E-004	...........
	17	4.65	-1.00273E-002	-1.08387E-002	6.72846E-004	...........
	18	4.90833	-1.02955E-002	-1.10788E-002	6.74646E-004	...........
EOC	QUANT	-0.0102955	Open Circuit (V)
PSTATMODEL	IQUANT	4	Pstat Model
PSTATSECTION	LABEL	REF600-11020	Pstat Section
PSTATSERIALNO	LABEL	11020	Pstat Serial Number
CTRLMODE	IQUANT	1	Control Mode
IESTAB	IQUANT	0	I/E Stability
CASPEED	IQUANT	1	Control Amp Speed
CONVENTION	IQUANT	1	Current Convention
ICHRANGE	IQUANT	2	Ich Range
ICHRANGEMODE	TOGGLE	F	Ich Auto Range
ICHOFFSETENABLE	TOGGLE	T	Ich Offset Enable
ICHOFFSET	QUANT	0	Ich Offset (V)
ICHFILTER	IQUANT	3	Ich Filter
VCHRANGE	IQUANT	2	Vch Range
VCHRANGEMODE	TOGGLE	F	Vch Auto Range
VCHOFFSETENABLE	TOGGLE	T	Vch Offset Enable
VCHOFFSET	QUANT	0	Vch Offset (V)
VCHFILTER	IQUANT	3	Vch Filter
ACHRANGE	IQUANT	2	Ach Range
ACHOFFSETENABLE	TOGGLE	F	Ach Offset Enable
ACHOFFSET	QUANT	0	Ach Offset (V)
ACHFILTER	IQUANT	3	Ach Filter
IERANGELOWERLIMIT	IQUANT	1	I/E Range Lower Limit
IERANGEMODE	TOGGLE	F	I/E AutoRange
IERANGE	IQUANT	7	I/E Range
POSFEEDENABLE	TOGGLE	F	Positive Feedback IR Comp
POSFEEDRESISTANCE	QUANT	0	Positive Feedback Resistance (ohm)
ACHSELECT	IQUANT	0	Ach Select
CABLEID	IQUANT	14	Cable ID
DCCALDATE	LABEL	12/22/2019	DC Calibration Date
ACCALDATE	LABEL	12/22/2019	AC Calibration Date
THERMOSELECT	IQUANT	1	Thermo Select
FRAMEWORKVERSION	QUANT	6.33	Framework Version
INSTRUMENTVERSION	LABEL	3.50	Instrument Version
ZCURVE	TABLE
	Pt	Time	Freq	Zreal	Zimag	Zsig	Zmod	Zphz	Idc	Vdc	IERange
	#	s	Hz	ohm	ohm	V	ohm	°	A	V	#
	0	1	1000078	1405.773	-2566.164	1	2925.986	-61.28557	4.868462E-006	-0.008949	8
	1	1	794390.6	1628.121	-3027.244	1	3437.293	-61.72762	-2.590208E-006	-0.0082205	8
	2	2	630984.4	1908.846	-3580.24	1	4057.316	-61.93518	4.841368E-006	-0.0092533	8
	3	2	501234.4	2248.493	-4235.319	1	4795.169	-62.03657	-1.308225E-006	-0.0083552	8
	4	2	398109.4	2704.084	-5001.607	1	5685.785	-61.60243	1.783289E-006	-0.0089853	8
	5	3	316265.6	3287.29	-5863.732	1	6722.323	-60.7244	-7.273606E-007	-0.0084524	8
	6	3	251203.1	4018.252	-6844.875	1	7937.17	-59.58513	4.209739E-007	-0.0087502	8
	7	3	199546.9	4921.91	-7912.882	1	9318.739	-58.11788	3.424439E-007	-0.0087927	8
	8	4	158578.1	6051.613	-9010.886	1	10854.4	-56.11512	-6.807847E-007	-0.0085921	8
	9	4	125953.1	7419.245	-10160.71	1	12581.14	-53.86346	2.68524E-007	-0.0093611	7
	10	4	100078.1	8824.928	-11308.7	1	14344.55	-52.03273	-7.246964E-009	-0.008684	7
	11	5	79453.13	10420.17	-12509.38	1	16280.8	-50.2061	-7.036931E-009	-0.0086919	7
	12	5	63140.62	12142.79	-13737.75	1	18335.02	-48.52654	-1.259833E-008	-0.0086724	7
	13	5	50203.12	13938.64	-15034.53	1	20501.78	-47.16615	5.890782E-008	-0.0088454	7
	14	6	39890.62	15731.78	-16437.55	1	22752.63	-46.25682	-7.714224E-009	-0.008699	7
	15	6	31640.63	17618.12	-18122.78	1	25275.15	-45.80896	-2.615643E-008	-0.008621	7
	16	6	25171.88	19631.89	-20062.83	1	28070.06	-45.62199	1.609386E-008	-0.0088042	7
	17	7	20015.62	21726.06	-22451.45	1	31242.43	-45.9407	-2.720203E-008	-0.0086716	7
	18	7	15890.62	24035.01	-25428.68	1	34989.99	-46.61392	9.189485E-009	-0.0087178	7
	19	7	12609.37	26894.66	-28772.38	1	39384.93	-46.93193	4.381965E-009	-0.0088569	6
	20	8	10078.13	30053.56	-32892.07	1	44554.52	-47.58199	4.056752E-010	-0.0087953	6
	21	8	8015.625	33850.45	-37773.64	1	50721.79	-48.13523	5.748229E-009	-0.0086793	6
	22	8	6328.125	38813.37	-43646.73	1	58408.18	-48.35453	9.71608E-009	-0.0087805	6
	23	9	5015.625	44893.46	-50071.85	1	67250.38	-48.12121	7.983046E-009	-0.00888	6
	24	9	3984.375	52596.9	-57116.6	1	77644.96	-47.35899	1.332286E-008	-0.0088819	6
	25	9	3170.956	62235.95	-63946.84	1	89232.91	-45.77682	3.839074E-009	-0.0088258	6
	26	10	2527.573	73741.87	-70366.59	1	101928	-43.65828	4.625659E-009	-0.0088606	6
	27	10	1976.103	88632.65	-75885.1	1	116680.3	-40.56933	-5.143802E-009	-0.0086947	6
	28	10	1577.524	103564.6	-79259.83	1	130413.8	-37.42746	-4.733501E-010	-0.0087464	6
	29	10	1265.625	119417.5	-78908.88	1	143133.3	-33.45599	1.762725E-009	-0.0088204	5
	30	11	998.264	134852.6	-77725.24	1	155648.4	-29.95794	2.172106E-009	-0.0087071	5
	31	11	796.875	148529.4	-74550.31	1	166188.8	-26.65313	2.061032E-009	-0.0089504	5
	32	11	627.7902	160695.1	-69905.88	1	175242	-23.51009	1.046457E-009	-0.0087235	5
	33	12	505.5147	170309.7	-65405.43	1	182437	-21.0087	1.028245E-009	-0.0087588	5
	34	12	397.9953	179101.9	-60965.4	1	189193.7	-18.79832	1.693763E-009	-0.0087466	5
	35	12	315.5048	186327.4	-57829.51	1	195095.3	-17.24251	1.920646E-009	-0.0087488	5
	36	13	252.4038	192150.3	-55318.39	1	199954.6	-16.06065	1.865695E-009	-0.0087513	5
	37	13	198.6229	198039.6	-53813.32	1	205220.7	-15.20193	1.242821E-009	-0.0087504	5
	38	13	158.3615	201871	-54107.53	1	208996.4	-15.00434	1.377103E-009	-0.0087508	5
	39	14	125.558	207056.4	-55073.99	1	214255.7	-14.89497	1.192912E-009	-0.008747	5
	40	14	100.4464	212916.2	-59363.35	1	221036.9	-15.57905	8.233551E-010	-0.0087534	5
	41	14	79.00281	217866	-66234.11	1	227711.6	-16.90995	1.081077E-009	-0.008754	5
	42	15	63.3446	219900.1	-59971.32	1	227931.2	-15.25477	1.287444E-009	-0.0087581	5
	43	15	49.86702	229767.6	-71935.68	1	240765.3	-17.3843	1.864973E-009	-0.0087584	5
	44	15	39.72458	237722.1	-88487.9	1	253657.1	-20.4169	1.36683E-009	-0.0087486	5
	45	16	31.6723	248711.7	-102631.6	1	269055.3	-22.42364	1.512021E-009	-0.0087553	5
	46	16	24.93351	261115	-113729.3	1	284807.7	-23.53565	1.515392E-009	-0.0087596	5
	47	16	19.86229	274345.3	-128360.8	1	302889.1	-25.07397	1.786652E-009	-0.0087517	5
	48	17	15.83615	291319.9	-147696.6	1	326621.4	-26.88461	1.005256E-009	-0.0087569	5
	49	17	12.40079	310647.3	-166342.1	1	352379.7	-28.16768	1.326583E-010	-0.0087569	5
	50	17	9.93114	331376	-182027	1	378079.2	-28.78028	6.31082E-010	-0.0087527	5
	51	18	7.944915	356132.5	-202999.2	1	409925.6	-29.68358	1.83503E-009	-0.0087595	5
	52	19	6.317385	384654.4	-225749.8	1	446006.8	-30.40825	1.800861E-009	-0.0087658	5
	53	19	5.008013	416670.7	-248428.9	1	485109.7	-30.8044	1.375991E-009	-0.0087555	5
	54	20	3.945707	450474.3	-273843.8	1	527178.9	-31.29546	1.106123E-009	-0.0087552	5
	55	22	3.158693	484840.3	-299079	1	569665.1	-31.66882	8.811948E-010	-0.0087633	5
	56	23	2.504006	523284.4	-327064.4	1	617088.1	-32.0063	1.248773E-009	-0.0087635	5
	57	25	1.998082	561381.5	-359081.7	1	666399.9	-32.60458	1.338185E-009	-0.0087422	5
	58	26	1.584686	602874.3	-394918.4	1	720706.5	-33.22718	1.114664E-009	-0.0087915	5
	59	28	1.266892	647786.7	-436354	1	781045.7	-33.9645	1.028312E-009	-0.0088033	5
	60	31	0.999041	697683.3	-488945.3	1	851956.3	-35.02326	9.899408E-010	-0.008791	5
