EXPLAIN
TAG	EISPOT
TITLE	LABEL	Potentiostatic EIS	Test &Identifier
DATE	LABEL	2/21/2020	Date
TIME	LABEL	18:23:13	Time
NOTES	NOTES	1	&Notes...
	
PSTAT	PSTAT	REF600-11020	Potentiostat
VDC	POTEN	0.00000E+000	T	DC &Voltage (V)
FREQINIT	QUANT	1.00000E+006	Initial Fre&q. (Hz)
FREQFINAL	QUANT	1.00000E+000	Final Fre&q. (Hz)
PTSPERDEC	QUANT	1.00000E+001	Points/&decade
VAC	QUANT	2.50000E+001	AC &Voltage (mV rms)
AREA	QUANT	2.08200E-005	&Area (cm^2)
CONDIT	TWOPARAM	F	1.50000E+001	0.00000E+000	Conditionin&g	Time(s)	E(V)
DELAY	TWOPARAM	F	1.00000E+002	0.00000E+000	Init. De&lay	Time(s)	Stab.(mV/s)
SPEED	SELECTOR	0	&Optimize for:
ZGUESS	QUANT	2.00000E+003	E&stimated Z (ohms)
OCVCURVE	TABLE	39
	Pt	T	Vf	Vm	Ach	Over
	#	s	V vs. Ref.	V	V	bits
	0	0.258333	3.92353E-003	3.92353E-003	5.77371E-004	...........
	1	0.516667	3.92620E-003	4.06331E-003	5.75704E-004	...........
	2	0.775	3.94899E-003	4.53085E-003	5.74337E-004	...........
	3	1.03333	4.03114E-003	4.79000E-003	5.79271E-004	...........
	4	1.29167	4.19690E-003	4.69269E-003	5.78837E-004	...........
	5	1.55	4.40091E-003	4.45079E-003	5.77571E-004	...........
	6	1.80833	4.54965E-003	4.48344E-003	5.76004E-004	...........
	7	2.06667	4.59206E-003	4.40431E-003	5.73438E-004	...........
	8	2.325	4.55382E-003	4.32572E-003	5.79304E-004	...........
	9	2.58333	4.48412E-003	4.26910E-003	5.75938E-004	...........
	10	2.84167	4.41112E-003	4.25061E-003	5.84671E-004	...........
	11	3.1	4.34537E-003	4.19308E-003	5.82971E-004	...........
	12	3.35833	4.29067E-003	4.18607E-003	5.82204E-004	...........
	13	3.61667	4.24632E-003	4.13099E-003	5.79304E-004	...........
	14	3.875	4.20910E-003	4.11748E-003	5.77571E-004	...........
	15	4.13333	4.17516E-003	4.04898E-003	5.80871E-004	...........
	16	4.39167	4.14170E-003	4.07394E-003	5.77171E-004	...........
	17	4.65	4.10925E-003	4.01774E-003	5.77371E-004	...........
	18	4.90833	4.08061E-003	4.03423E-003	5.77804E-004	...........
	19	5.16667	4.05656E-003	3.96445E-003	5.77071E-004	...........
	20	5.425	4.03489E-003	3.99406E-003	5.77304E-004	...........
	21	5.68333	4.01403E-003	3.95168E-003	5.78604E-004	...........
	22	5.94167	3.99530E-003	3.97619E-003	5.77338E-004	...........
	23	6.2	3.98075E-003	3.95173E-003	5.79271E-004	...........
	24	6.45833	3.97100E-003	3.96804E-003	5.81304E-004	...........
	25	6.71667	3.96472E-003	3.92559E-003	5.79671E-004	...........
	26	6.975	3.95901E-003	3.94440E-003	5.75338E-004	...........
	27	7.23333	3.95167E-003	3.91396E-003	5.79704E-004	...........
	28	7.49167	3.94271E-003	3.91725E-003	5.79537E-004	...........
	29	7.75	3.93297E-003	3.89832E-003	5.77137E-004	...........
	30	8.00833	3.92293E-003	3.89428E-003	5.77004E-004	...........
	31	8.26667	3.91293E-003	3.88674E-003	5.79171E-004	...........
	32	8.525	3.90365E-003	3.88829E-003	5.80537E-004	...........
	33	8.78333	3.89612E-003	3.88712E-003	5.85337E-004	...........
	34	9.04167	3.89071E-003	3.86813E-003	5.83104E-004	...........
	35	9.3	3.88618E-003	3.86930E-003	5.78437E-004	...........
	36	9.5583	3.88074E-003	3.85419E-003	5.85537E-004	...........
	37	9.8167	3.87385E-003	3.85071E-003	5.77771E-004	...........
	38	10.075	3.86578E-003	3.82592E-003	5.82204E-004	...........
EOC	QUANT	0.0038658	Open Circuit (V)
PSTATMODEL	IQUANT	4	Pstat Model
PSTATSECTION	LABEL	REF600-11020	Pstat Section
PSTATSERIALNO	LABEL	11020	Pstat Serial Number
CTRLMODE	IQUANT	1	Control Mode
IESTAB	IQUANT	0	I/E Stability
CASPEED	IQUANT	1	Control Amp Speed
CONVENTION	IQUANT	1	Current Convention
ICHRANGE	IQUANT	2	Ich Range
ICHRANGEMODE	TOGGLE	F	Ich Auto Range
ICHOFFSETENABLE	TOGGLE	T	Ich Offset Enable
ICHOFFSET	QUANT	0	Ich Offset (V)
ICHFILTER	IQUANT	3	Ich Filter
VCHRANGE	IQUANT	2	Vch Range
VCHRANGEMODE	TOGGLE	F	Vch Auto Range
VCHOFFSETENABLE	TOGGLE	T	Vch Offset Enable
VCHOFFSET	QUANT	0	Vch Offset (V)
VCHFILTER	IQUANT	3	Vch Filter
ACHRANGE	IQUANT	2	Ach Range
ACHOFFSETENABLE	TOGGLE	F	Ach Offset Enable
ACHOFFSET	QUANT	0	Ach Offset (V)
ACHFILTER	IQUANT	3	Ach Filter
IERANGELOWERLIMIT	IQUANT	1	I/E Range Lower Limit
IERANGEMODE	TOGGLE	F	I/E AutoRange
IERANGE	IQUANT	6	I/E Range
POSFEEDENABLE	TOGGLE	F	Positive Feedback IR Comp
POSFEEDRESISTANCE	QUANT	0	Positive Feedback Resistance (ohm)
ACHSELECT	IQUANT	0	Ach Select
CABLEID	IQUANT	14	Cable ID
DCCALDATE	LABEL	1/27/2020	DC Calibration Date
ACCALDATE	LABEL	1/27/2020	AC Calibration Date
THERMOSELECT	IQUANT	1	Thermo Select
FRAMEWORKVERSION	QUANT	6.33	Framework Version
INSTRUMENTVERSION	LABEL	3.50	Instrument Version
ZCURVE	TABLE
	Pt	Time	Freq	Zreal	Zimag	Zsig	Zmod	Zphz	Idc	Vdc	IERange
	#	s	Hz	ohm	ohm	V	ohm	°	A	V	#
	0	1	1000078	1691.017	-2251.465	1	2815.783	-53.09073	-7.433777E-007	0.0057874	8
	1	2	794390.6	2135.169	-2468.796	1	3264.031	-49.1447	7.751337E-007	0.0054746	8
	2	2	630984.4	2627.281	-2625.037	1	3713.95	-44.97551	8.738556E-007	0.0052795	8
	3	2	501234.4	3163.869	-2705.555	1	4162.943	-40.53513	3.161088E-007	0.0052958	8
	4	3	398109.4	3690.869	-2696.257	1	4570.812	-36.14891	2.444216E-007	0.0052744	8
	5	3	316265.6	4200.731	-2623.337	1	4952.579	-31.98458	-9.782315E-007	0.0055215	8
	6	3	251203.1	4662.102	-2488.326	1	5284.596	-28.09039	2.841117E-007	0.0053161	8
	7	4	199546.9	5054.13	-2329.843	1	5565.286	-24.74866	-9.226583E-007	0.0055099	8
	8	4	158578.1	5407.927	-2149.86	1	5819.585	-21.67973	3.933366E-007	0.0052422	8
	9	4	125953.1	5708.752	-1939.488	1	6029.218	-18.76464	6.345995E-008	0.0051367	7
	10	5	100078.1	5957.519	-1798.427	1	6223.052	-16.79776	-1.462156E-009	0.005287	7
	11	5	79453.13	6155.259	-1670.521	1	6377.919	-15.18418	-1.15784E-008	0.0053167	7
	12	5	63140.62	6342.721	-1574.9	1	6535.321	-13.94456	3.434585E-008	0.0052507	7
	13	5	50203.12	6499.121	-1508.706	1	6671.938	-13.06916	6.33093E-009	0.0053029	7
	14	6	39890.62	6650.386	-1473.025	1	6811.566	-12.48908	-8.454518E-009	0.005295	7
	15	6	31640.63	6790.297	-1465.889	1	6946.723	-12.18206	-2.147488E-008	0.0053044	7
	16	6	25171.88	6934.559	-1493.916	1	7093.651	-12.15746	6.107324E-009	0.0052973	7
	17	7	20015.62	7071.209	-1554.003	1	7239.953	-12.39456	1.412746E-008	0.0052832	7
	18	7	15890.62	7215.359	-1654.686	1	7402.661	-12.91621	9.65562E-009	0.0052575	7
	19	7	12609.37	7375.115	-1788.695	1	7588.923	-13.63278	-1.032944E-008	0.0053069	7
	20	8	10078.13	7533.575	-1963.355	1	7785.211	-14.60716	1.771109E-008	0.0052672	7
	21	8	8015.625	7711.908	-2180.202	1	8014.163	-15.78591	1.478178E-008	0.0052429	7
	22	8	6328.125	7914.682	-2460.886	1	8288.435	-17.27187	-6.356898E-009	0.0052871	7
	23	9	5015.625	8142.692	-2799.477	1	8610.488	-18.97309	2.437622E-008	0.0052123	7
	24	9	3984.375	8399.071	-3206.198	1	8990.223	-20.89348	1.707132E-008	0.0052465	7
	25	9	3170.956	8688.727	-3679.326	1	9435.646	-22.9507	-1.495265E-009	0.0053005	6
	26	10	2527.573	9016.62	-4252.267	1	9969.01	-25.24871	4.64395E-009	0.0051854	6
	27	10	1976.103	9419.097	-4992.384	1	10660.36	-27.92484	4.327051E-009	0.0052253	6
	28	10	1577.524	9868.9	-5796.991	1	11445.54	-30.42996	-4.588297E-009	0.0053169	6
	29	11	1265.625	10364.25	-6720.57	1	12352.48	-32.9609	-1.495375E-009	0.0052504	6
	30	11	998.264	11006.77	-7907.227	1	13552.61	-35.69335	-1.399644E-009	0.0052475	6
	31	11	796.875	11692.07	-9215.885	1	14887.48	-38.24577	1.28446E-010	0.0052093	6
	32	11	627.7902	12586.75	-10862.12	1	16625.64	-40.79356	-6.266238E-010	0.0052507	6
	33	12	505.5147	13530.12	-12619.24	1	18501.6	-43.00499	-1.817888E-009	0.0053082	6
	34	12	397.9953	14758.14	-14849.33	1	20935.74	-45.17646	1.103371E-009	0.0052746	6
	35	12	315.5048	16191.84	-17389.29	1	23760.54	-47.04221	5.888245E-010	0.0052743	6
	36	13	252.4038	17801.54	-20231.94	1	26948.59	-48.65632	3.389476E-010	0.0052707	6
	37	13	198.6229	19828.96	-23752.96	1	30941.73	-50.14488	9.30428E-010	0.0052703	6
	38	13	158.3615	22047.88	-27646.98	1	35361.91	-51.42838	1.211716E-009	0.0052729	6
	39	14	125.558	24653.62	-32250.57	1	40594.33	-52.60427	7.762448E-010	0.0052749	6
	40	14	100.4464	27644.8	-37468.95	1	46563.48	-53.57989	2.321282E-010	0.0052697	6
	41	14	79.00281	31293.37	-44057.58	1	54040.22	-54.61445	1.209372E-009	0.0052662	6
	42	15	63.3446	34336.38	-50999.21	1	61480.95	-56.04869	3.45983E-010	0.0052659	6
	43	15	49.86702	39366.74	-59888.77	1	71668.72	-56.68185	2.493684E-010	0.0052639	6
	44	15	39.72458	45080.51	-70411.58	1	83606.48	-57.37089	3.141221E-010	0.0052702	6
	45	16	31.6723	51599.23	-82323.8	1	97158.1	-57.92118	2.769392E-010	0.0052658	6
	46	16	24.93351	59226.09	-97024.9	1	113673.1	-58.59922	1.362783E-011	0.0052627	5
	47	16	19.86229	68105.46	-113803.4	1	132625.7	-59.10167	-6.267699E-010	0.0052604	5
	48	17	15.83615	78900.12	-132919	1	154572.6	-59.30683	3.237728E-010	0.0052628	5
	49	17	12.40079	91759.8	-158820.3	1	183422.3	-59.98246	6.571851E-010	0.0052674	5
	50	17	9.93114	107812.5	-183991.5	1	213252	-59.63121	7.772868E-010	0.0052563	5
	51	18	7.944915	126465.5	-214358.4	1	248883.6	-59.46057	4.166774E-010	0.005262	5
	52	19	6.317385	149598	-250428.8	1	291709	-59.14728	2.720282E-010	0.0052579	5
	53	19	5.008013	178100.4	-292040.2	1	342063.2	-58.62312	4.114892E-010	0.0052707	5
	54	20	3.945707	213588.6	-339525.6	1	401120.6	-57.82684	2.871303E-011	0.0052592	5
	55	22	3.158693	253458.6	-389364.9	1	464592.6	-56.93773	1.367421E-010	0.0052489	5
	56	23	2.504006	302166.3	-446967	1	539522	-55.93984	3.104018E-010	0.005255	5
	57	25	1.998082	356718.7	-507041.1	1	619950.7	-54.87246	1.02787E-010	0.0052233	5
	58	26	1.584686	422360.7	-577088.5	1	715136.1	-53.80027	2.746631E-011	0.0052099	5
	59	28	1.266892	492827.1	-649727.9	1	815490.6	-52.81921	5.845301E-011	0.0052396	5
	60	31	0.999041	579242.9	-732623.2	1	933948.1	-51.66861	8.209051E-011	0.0052665	5
