EXPLAIN
TAG	EISPOT
TITLE	LABEL	Potentiostatic EIS	Test &Identifier
DATE	LABEL	9/11/2020	Date
TIME	LABEL	19:57:54	Time
NOTES	NOTES	1	&Notes...
	
PSTAT	PSTAT	REF600-11020	Potentiostat
VDC	POTEN	0.00000E+000	T	DC &Voltage (V)
FREQINIT	QUANT	1.00000E+006	Initial Fre&q. (Hz)
FREQFINAL	QUANT	1.00000E+000	Final Fre&q. (Hz)
PTSPERDEC	QUANT	1.00000E+001	Points/&decade
VAC	QUANT	2.50000E+001	AC &Voltage (mV rms)
AREA	QUANT	4.00000E-005	&Area (cm^2)
CONDIT	TWOPARAM	F	5.00000E+000	0.00000E+000	Conditionin&g	Time(s)	E(V)
DELAY	TWOPARAM	F	3.00000E+000	0.00000E+000	Init. De&lay	Time(s)	Stab.(mV/s)
SPEED	SELECTOR	0	&Optimize for:
ZGUESS	QUANT	1.00000E+003	E&stimated Z (ohms)
OCVCURVE	TABLE	39
	Pt	T	Vf	Vm	Ach	Over
	#	s	V vs. Ref.	V	V	bits
	0	0.258333	-1.52878E-001	-1.52878E-001	5.60692E-004	...........
	1	0.516667	-1.52878E-001	-1.52898E-001	5.58259E-004	...........
	2	0.775	-1.52881E-001	-1.52915E-001	5.57925E-004	...........
	3	1.03333	-1.52887E-001	-1.52932E-001	5.57592E-004	...........
	4	1.29167	-1.52899E-001	-1.52946E-001	5.58459E-004	...........
	5	1.55	-1.52913E-001	-1.52960E-001	5.60392E-004	...........
	6	1.80833	-1.52929E-001	-1.52975E-001	5.59192E-004	...........
	7	2.06667	-1.52944E-001	-1.52992E-001	5.60425E-004	...........
	8	2.325	-1.52959E-001	-1.53004E-001	5.63925E-004	...........
	9	2.58333	-1.52974E-001	-1.53022E-001	5.61792E-004	...........
	10	2.84167	-1.52990E-001	-1.53035E-001	5.56859E-004	...........
	11	3.1	-1.53005E-001	-1.53047E-001	5.60059E-004	...........
	12	3.35833	-1.53019E-001	-1.53060E-001	5.52925E-004	...........
	13	3.61667	-1.53033E-001	-1.53073E-001	5.59625E-004	...........
	14	3.875	-1.53046E-001	-1.53084E-001	5.57625E-004	...........
	15	4.13333	-1.53059E-001	-1.53094E-001	5.47925E-004	...........
	16	4.39167	-1.53071E-001	-1.53102E-001	5.53725E-004	...........
	17	4.65	-1.53082E-001	-1.53114E-001	5.50092E-004	...........
	18	4.90833	-1.53092E-001	-1.53124E-001	5.54625E-004	...........
	19	5.16667	-1.53103E-001	-1.53134E-001	5.62192E-004	...........
	20	5.425	-1.53113E-001	-1.53143E-001	5.58425E-004	...........
	21	5.68333	-1.53123E-001	-1.53156E-001	5.58825E-004	...........
	22	5.94167	-1.53133E-001	-1.53165E-001	5.60459E-004	...........
	23	6.2	-1.53144E-001	-1.53174E-001	5.58659E-004	...........
	24	6.45833	-1.53154E-001	-1.53183E-001	5.57859E-004	...........
	25	6.71667	-1.53164E-001	-1.53191E-001	5.58892E-004	...........
	26	6.975	-1.53173E-001	-1.53201E-001	5.59625E-004	...........
	27	7.23333	-1.53182E-001	-1.53208E-001	5.55625E-004	...........
	28	7.49167	-1.53191E-001	-1.53220E-001	5.59225E-004	...........
	29	7.75	-1.53200E-001	-1.53228E-001	5.55859E-004	...........
	30	8.00833	-1.53209E-001	-1.53236E-001	5.50925E-004	...........
	31	8.26667	-1.53218E-001	-1.53244E-001	5.57059E-004	...........
	32	8.525	-1.53227E-001	-1.53252E-001	5.58525E-004	...........
	33	8.78333	-1.53235E-001	-1.53259E-001	5.61292E-004	...........
	34	9.04167	-1.53243E-001	-1.53268E-001	5.53125E-004	...........
	35	9.3	-1.53251E-001	-1.53275E-001	5.52125E-004	...........
	36	9.5583	-1.53259E-001	-1.53282E-001	5.56525E-004	...........
	37	9.8167	-1.53267E-001	-1.53290E-001	5.57759E-004	...........
	38	10.075	-1.53275E-001	-1.53298E-001	5.55592E-004	...........
EOC	QUANT	-0.1532746	Open Circuit (V)
PSTATMODEL	IQUANT	4	Pstat Model
PSTATSECTION	LABEL	REF600-11020	Pstat Section
PSTATSERIALNO	LABEL	11020	Pstat Serial Number
CTRLMODE	IQUANT	1	Control Mode
IESTAB	IQUANT	0	I/E Stability
CASPEED	IQUANT	1	Control Amp Speed
CONVENTION	IQUANT	1	Current Convention
ICHRANGE	IQUANT	2	Ich Range
ICHRANGEMODE	TOGGLE	F	Ich Auto Range
ICHOFFSETENABLE	TOGGLE	T	Ich Offset Enable
ICHOFFSET	QUANT	0	Ich Offset (V)
ICHFILTER	IQUANT	3	Ich Filter
VCHRANGE	IQUANT	2	Vch Range
VCHRANGEMODE	TOGGLE	F	Vch Auto Range
VCHOFFSETENABLE	TOGGLE	T	Vch Offset Enable
VCHOFFSET	QUANT	0	Vch Offset (V)
VCHFILTER	IQUANT	3	Vch Filter
ACHRANGE	IQUANT	2	Ach Range
ACHOFFSETENABLE	TOGGLE	F	Ach Offset Enable
ACHOFFSET	QUANT	0	Ach Offset (V)
ACHFILTER	IQUANT	3	Ach Filter
IERANGELOWERLIMIT	IQUANT	1	I/E Range Lower Limit
IERANGEMODE	TOGGLE	F	I/E AutoRange
IERANGE	IQUANT	8	I/E Range
POSFEEDENABLE	TOGGLE	F	Positive Feedback IR Comp
POSFEEDRESISTANCE	QUANT	0	Positive Feedback Resistance (ohm)
ACHSELECT	IQUANT	0	Ach Select
CABLEID	IQUANT	14	Cable ID
DCCALDATE	LABEL	9/1/2020	DC Calibration Date
ACCALDATE	LABEL	9/1/2020	AC Calibration Date
THERMOSELECT	IQUANT	1	Thermo Select
FRAMEWORKVERSION	QUANT	6.33	Framework Version
INSTRUMENTVERSION	LABEL	3.50	Instrument Version
ZCURVE	TABLE
	Pt	Time	Freq	Zreal	Zimag	Zsig	Zmod	Zphz	Idc	Vdc	IERange
	#	s	Hz	ohm	ohm	V	ohm	°	A	V	#
	0	1	1000078	1850.681	-2396.747	1	3028.104	-52.32598	1.576669E-007	-0.1511391	8
	1	1	794390.6	2314.454	-2634.035	1	3506.4	-48.69511	6.372519E-008	-0.151449	8
	2	2	630984.4	2850.232	-2804.087	1	3998.34	-44.53242	4.529011E-008	-0.1515753	8
	3	2	501234.4	3424.831	-2897.352	1	4485.991	-40.23069	6.052232E-008	-0.1516792	8
	4	2	398109.4	4014.014	-2894.593	1	4948.836	-35.7962	6.141413E-008	-0.1517296	8
	5	3	316265.6	4575.897	-2793.973	1	5361.448	-31.4076	1.6317E-007	-0.1517192	8
	6	3	251203.1	5095.862	-2633.65	1	5736.194	-27.33088	6.454292E-008	-0.1517493	8
	7	3	199546.9	5531.34	-2417.009	1	6036.361	-23.6037	6.178226E-008	-0.1517527	8
	8	4	158578.1	5896.9	-2181.643	1	6287.527	-20.30268	8.021131E-008	-0.1517472	8
	9	4	125953.1	6235.427	-1918.838	1	6523.994	-17.10478	7.133863E-009	-0.1517445	7
	10	4	100078.1	6468.02	-1699.88	1	6687.666	-14.72509	-3.448505E-010	-0.1517569	7
	11	5	79453.13	6657.301	-1521.476	1	6828.949	-12.87343	-7.156952E-010	-0.1517686	7
	12	5	63140.62	6810.573	-1373.47	1	6947.685	-11.40176	3.34876E-011	-0.1517698	7
	13	5	50203.12	6941.649	-1256.937	1	7054.53	-10.26345	4.43362E-009	-0.1517765	7
	14	5	39890.62	7052.754	-1170.172	1	7149.171	-9.420525	3.774294E-009	-0.1517705	7
	15	6	31640.63	7154.236	-1113.281	1	7240.338	-8.844937	3.620519E-009	-0.1517745	7
	16	6	25171.88	7246.478	-1085.413	1	7327.316	-8.518716	4.157322E-009	-0.151773	7
	17	6	20015.62	7334.538	-1087.653	1	7414.744	-8.435033	1.995311E-009	-0.1517739	7
	18	7	15890.62	7423.883	-1118.482	1	7507.666	-8.567743	-1.426436E-010	-0.1517811	7
	19	7	12609.37	7516.489	-1180.733	1	7608.662	-8.927392	4.799448E-010	-0.1517759	7
	20	7	10078.13	7611.828	-1272.833	1	7717.515	-9.493044	6.424978E-009	-0.151788	7
	21	8	8015.625	7715.182	-1400.04	1	7841.183	-10.28529	7.216326E-009	-0.1517847	7
	22	8	6328.125	7831.568	-1569.063	1	7987.204	-11.32927	4.258796E-010	-0.1517833	7
	23	8	5015.625	7957.858	-1780.459	1	8154.602	-12.61143	2.087199E-009	-0.1517751	7
	24	9	3984.375	8102.467	-2044.172	1	8356.352	-14.15967	6.777212E-009	-0.151786	7
	25	9	3170.956	8262.491	-2359.511	1	8592.791	-15.9377	4.932894E-009	-0.1517799	7
	26	9	2527.573	8441.981	-2738.991	1	8875.197	-17.97559	1.433344E-010	-0.1517884	7
	27	10	1976.103	8685.641	-3224.064	1	9264.715	-20.36466	-6.18369E-010	-0.1517852	6
	28	10	1577.524	8924.696	-3783.496	1	9693.56	-22.97381	-1.312666E-010	-0.1517922	6
	29	10	1265.625	9199.379	-4439.535	1	10214.6	-25.76152	4.005148E-010	-0.1517898	6
	30	11	998.264	9548.28	-5283.015	1	10912.37	-28.95553	-6.31707E-010	-0.1517876	6
	31	11	796.875	9935.81	-6244.618	1	11735.23	-32.14921	6.071156E-010	-0.1517911	6
	32	11	627.7902	10425.38	-7469.264	1	12824.92	-35.6197	6.167109E-010	-0.1517842	6
	33	12	505.5147	10954.63	-8795.87	1	14048.89	-38.76224	-2.000252E-010	-0.1517873	6
	34	12	397.9953	11653.28	-10549.55	1	15719.16	-42.1541	6.635487E-010	-0.151777	6
	35	12	315.5048	12477.99	-12598.19	1	17731.75	-45.27464	5.530649E-010	-0.1517774	6
	36	12	252.4038	13438.76	-14942.97	1	20097.08	-48.03379	5.822955E-010	-0.1517806	6
	37	13	198.6229	14709.79	-17947.72	1	23205.57	-50.66227	6.553612E-010	-0.151779	6
	38	13	158.3615	16199.83	-21320.87	1	26777.12	-52.77205	4.575298E-010	-0.1517794	6
	39	13	125.558	18101.94	-25405.26	1	31194.67	-54.52909	5.050625E-010	-0.151779	6
	40	14	100.4464	20343.17	-29970.14	1	36222.29	-55.83207	5.09322E-010	-0.1517803	6
	41	14	79.00281	23299.07	-35685.99	1	42618.5	-56.85983	4.997575E-010	-0.1517811	6
	42	14	63.3446	26577.16	-41757.93	1	49498.19	-57.52497	4.873034E-010	-0.1517809	6
	43	15	49.86702	30822.48	-49367.9	1	58199.79	-58.02171	6.284047E-010	-0.1517848	6
	44	15	39.72458	35622.97	-57757.73	1	67859.8	-58.33515	6.49308E-010	-0.1517819	6
	45	15	31.6723	41210.68	-67444.4	1	79038.39	-58.57374	4.983217E-010	-0.1517849	6
	46	16	24.93351	48285.14	-79424.4	1	92949.93	-58.70298	1.119374E-009	-0.1517798	6
	47	16	19.86229	56333.29	-92663.09	1	108443	-58.70305	2.022928E-009	-0.151785	5
	48	16	15.83615	66215.63	-108026.9	1	126705.7	-58.49358	-5.561497E-010	-0.1517899	5
	49	17	12.40079	79425.91	-126909.5	1	149714.7	-57.95974	1.252228E-009	-0.1517908	5
	50	17	9.93114	93892.96	-146486.1	1	173994.4	-57.3414	6.112023E-010	-0.1517829	5
	51	17	7.944915	111460.2	-168087.3	1	201684.6	-56.45129	-5.76068E-010	-0.1517839	5
	52	18	6.317385	133113.2	-192109.1	1	233720	-55.28175	6.61232E-010	-0.1517977	5
	53	19	5.008013	159011.3	-218085.4	1	269899.7	-53.90332	1.751317E-010	-0.1517965	5
	54	19	3.945707	188769	-246609.6	1	310564	-52.5675	-3.764014E-010	-0.151794	5
	55	20	3.158693	219810.7	-273821.1	1	351133.5	-51.24414	1.787199E-010	-0.1518068	5
	56	21	2.504006	254244.8	-304908.8	1	397001	-50.17735	4.024532E-010	-0.1518019	5
	57	23	1.998082	288978.3	-336876.5	1	443840.3	-49.37645	7.793691E-012	-0.1518339	5
	58	24	1.584686	326234.8	-376351.8	1	498066.1	-49.08012	-4.774021E-011	-0.1518484	5
	59	26	1.266892	362143.1	-419918	1	554507.6	-49.22506	3.921536E-011	-0.1518124	5
	60	29	0.999041	402912.7	-474974.4	1	622847.8	-49.69263	9.771377E-011	-0.1517848	5
