EXPLAIN
TAG	EISPOT
TITLE	LABEL	Potentiostatic EIS	Test &Identifier
DATE	LABEL	3/17/2020	Date
TIME	LABEL	16:43:13	Time
NOTES	NOTES	1	&Notes...
	
PSTAT	PSTAT	REF600-11020	Potentiostat
VDC	POTEN	0.00000E+000	T	DC &Voltage (V)
FREQINIT	QUANT	1.00000E+006	Initial Fre&q. (Hz)
FREQFINAL	QUANT	1.00000E+000	Final Fre&q. (Hz)
PTSPERDEC	QUANT	1.00000E+001	Points/&decade
VAC	QUANT	2.50000E+001	AC &Voltage (mV rms)
AREA	QUANT	4.00000E-004	&Area (cm^2)
CONDIT	TWOPARAM	F	5.00000E+000	0.00000E+000	Conditionin&g	Time(s)	E(V)
DELAY	TWOPARAM	T	3.00000E+000	0.00000E+000	Init. De&lay	Time(s)	Stab.(mV/s)
SPEED	SELECTOR	0	&Optimize for:
ZGUESS	QUANT	5.00000E+003	E&stimated Z (ohms)
OCVCURVE	TABLE	12
	Pt	T	Vf	Vm	Ach	Over
	#	s	V vs. Ref.	V	V	bits
	0	0.258333	1.48034E-002	1.48034E-002	5.51164E-004	...........
	1	0.516667	1.48039E-002	1.48329E-002	5.57964E-004	...........
	2	0.775	1.48074E-002	1.48612E-002	5.56597E-004	...........
	3	1.03333	1.48172E-002	1.48872E-002	5.54364E-004	...........
	4	1.29167	1.48347E-002	1.49128E-002	5.56064E-004	...........
	5	1.55	1.48579E-002	1.49331E-002	5.53030E-004	...........
	6	1.80833	1.48831E-002	1.49536E-002	5.54564E-004	...........
	7	2.06667	1.49077E-002	1.49761E-002	5.54230E-004	...........
	8	2.325	1.49307E-002	1.49953E-002	5.56630E-004	...........
	9	2.58333	1.49525E-002	1.50153E-002	5.59264E-004	...........
	10	2.84167	1.49733E-002	1.50317E-002	5.57464E-004	...........
	11	3.1	1.49933E-002	1.50495E-002	5.55697E-004	...........
EOC	QUANT	0.0149933	Open Circuit (V)
PSTATMODEL	IQUANT	4	Pstat Model
PSTATSECTION	LABEL	REF600-11020	Pstat Section
PSTATSERIALNO	LABEL	11020	Pstat Serial Number
CTRLMODE	IQUANT	1	Control Mode
IESTAB	IQUANT	0	I/E Stability
CASPEED	IQUANT	1	Control Amp Speed
CONVENTION	IQUANT	1	Current Convention
ICHRANGE	IQUANT	2	Ich Range
ICHRANGEMODE	TOGGLE	F	Ich Auto Range
ICHOFFSETENABLE	TOGGLE	T	Ich Offset Enable
ICHOFFSET	QUANT	0	Ich Offset (V)
ICHFILTER	IQUANT	3	Ich Filter
VCHRANGE	IQUANT	2	Vch Range
VCHRANGEMODE	TOGGLE	F	Vch Auto Range
VCHOFFSETENABLE	TOGGLE	T	Vch Offset Enable
VCHOFFSET	QUANT	0	Vch Offset (V)
VCHFILTER	IQUANT	3	Vch Filter
ACHRANGE	IQUANT	2	Ach Range
ACHOFFSETENABLE	TOGGLE	F	Ach Offset Enable
ACHOFFSET	QUANT	0	Ach Offset (V)
ACHFILTER	IQUANT	3	Ach Filter
IERANGELOWERLIMIT	IQUANT	1	I/E Range Lower Limit
IERANGEMODE	TOGGLE	F	I/E AutoRange
IERANGE	IQUANT	6	I/E Range
POSFEEDENABLE	TOGGLE	F	Positive Feedback IR Comp
POSFEEDRESISTANCE	QUANT	0	Positive Feedback Resistance (ohm)
ACHSELECT	IQUANT	0	Ach Select
CABLEID	IQUANT	14	Cable ID
DCCALDATE	LABEL	2/27/2020	DC Calibration Date
ACCALDATE	LABEL	2/27/2020	AC Calibration Date
THERMOSELECT	IQUANT	1	Thermo Select
FRAMEWORKVERSION	QUANT	6.33	Framework Version
INSTRUMENTVERSION	LABEL	3.50	Instrument Version
ZCURVE	TABLE
	Pt	Time	Freq	Zreal	Zimag	Zsig	Zmod	Zphz	Idc	Vdc	IERange
	#	s	Hz	ohm	ohm	V	ohm	°	A	V	#
	0	1	1000078	1798.044	-2223.415	1	2859.464	-51.03803	4.355044E-008	0.01752	8
	1	1	794390.6	2133.48	-2461.37	1	3257.311	-49.08173	6.084151E-009	0.0171371	8
	2	2	630984.4	2501.339	-2707.894	1	3686.379	-47.27068	6.165475E-008	0.0169205	8
	3	2	501234.4	2906.263	-2960.572	1	4148.657	-45.53038	4.496248E-008	0.016802	8
	4	2	398109.4	3360.443	-3219.722	1	4653.943	-43.77489	5.587168E-008	0.0167283	8
	5	3	316265.6	3860.699	-3488.163	1	5203.103	-42.09798	5.286443E-008	0.0167117	8
	6	3	251203.1	4429.93	-3766.991	1	5815.024	-40.37618	1.62479E-008	0.0166791	8
	7	3	199546.9	5074.423	-4021.023	1	6474.442	-38.39365	3.197589E-008	0.0166736	8
	8	4	158578.1	5785.25	-4228.29	1	7165.721	-36.16211	5.021315E-008	0.0166751	8
	9	4	125953.1	6659.018	-4276.417	1	7913.928	-32.70855	2.519055E-009	0.016597	7
	10	4	100078.1	7433.16	-4344.848	1	8609.854	-30.30724	1.850829E-009	0.0165949	7
	11	5	79453.13	8246.51	-4342.231	1	9319.865	-27.76922	3.216344E-009	0.0165973	7
	12	5	63140.62	9034.344	-4230.384	1	9975.75	-25.09162	1.529698E-009	0.0165828	7
	13	5	50203.12	9767.37	-4045.59	1	10572.06	-22.49906	2.767219E-009	0.0165932	7
	14	5	39890.62	10429.96	-3795.724	1	11099.17	-19.99771	2.347627E-009	0.0165883	7
	15	6	31640.63	11011.13	-3509.125	1	11556.77	-17.67651	2.455297E-009	0.0165849	7
	16	6	25171.88	11501.79	-3224.693	1	11945.28	-15.66161	1.878961E-009	0.016584	7
	17	6	20015.62	11921.85	-2957.757	1	12283.27	-13.9335	2.972088E-009	0.0165809	7
	18	7	15890.62	12276.2	-2719.777	1	12573.87	-12.49204	3.517626E-009	0.0165841	7
	19	7	12609.37	12665.98	-2307.063	1	12874.37	-10.32305	1.465604E-010	0.016633	6
	20	7	10078.13	12883.24	-2184.146	1	13067.07	-9.62209	2.309421E-010	0.0166326	6
	21	8	8015.625	13076.26	-2106.7	1	13244.88	-9.152205	2.076591E-010	0.0166264	6
	22	8	6328.125	13258.33	-2082.439	1	13420.88	-8.926315	3.211135E-010	0.0166297	6
	23	8	5015.625	13418.31	-2117.386	1	13584.34	-8.967237	6.185466E-011	0.0166266	6
	24	9	3984.375	13562.64	-2215.274	1	13742.37	-9.276572	-1.39346E-011	0.0166235	6
	25	9	3170.956	13708.95	-2385.071	1	13914.88	-9.86948	3.62271E-011	0.0166272	6
	26	9	2527.573	13848.69	-2635.385	1	14097.21	-10.77448	2.231293E-010	0.0166228	6
	27	10	1976.103	14011.9	-3008.3	1	14331.2	-12.11724	-1.934857E-010	0.0166157	6
	28	10	1577.524	14172.03	-3459.386	1	14588.14	-13.71762	-2.253663E-010	0.0166183	6
	29	10	1265.625	14348.97	-4023.413	1	14902.38	-15.66335	4.341971E-012	0.0166242	6
	30	11	998.264	14571.25	-4785.25	1	15336.88	-18.18037	-3.791716E-011	0.0166277	6
	31	11	796.875	14822.5	-5684.839	1	15875.26	-20.98321	-1.589516E-010	0.0166287	6
	32	11	627.7902	15143.44	-6867.804	1	16628.01	-24.39509	-1.525166E-010	0.0166238	6
	33	12	505.5147	15494.13	-8181.239	1	17521.44	-27.83503	-2.724089E-010	0.0166232	6
	34	12	397.9953	15961.2	-9952.12	1	18809.69	-31.94436	3.862781E-010	0.0166337	6
	35	12	315.5048	16532.09	-12061.32	1	20464.24	-36.11338	3.481976E-010	0.0166316	6
	36	12	252.4038	17228.21	-14520.32	1	22531.11	-40.12493	3.434419E-010	0.0166321	6
	37	13	198.6229	18152.52	-17726.4	1	25372.01	-44.31955	2.272249E-010	0.0166329	6
	38	13	158.3615	19262.88	-21402.41	1	28794.47	-48.01175	2.470792E-010	0.0166313	6
	39	13	125.558	20701.06	-25947.17	1	33193.21	-51.41658	1.378406E-010	0.0166337	6
	40	14	100.4464	22450.64	-31188.82	1	38428.81	-54.25253	1.763101E-010	0.0166292	6
	41	14	79.00281	24857.47	-37970.23	1	45383.17	-56.78896	2.537335E-010	0.0166269	6
	42	14	63.3446	27669.15	-45427.66	1	53190.73	-58.65517	2.777362E-010	0.0166243	6
	43	15	49.86702	31574.5	-55056.19	1	63467.57	-60.1659	3.25863E-010	0.0166215	6
	44	15	39.72458	36331.22	-65916.32	1	75265.66	-61.13768	2.318843E-010	0.0166302	6
	45	16	31.6723	42420.06	-78634.06	1	89346.39	-61.65484	3.602132E-010	0.016626	6
	46	16	24.93351	50746.86	-94239.19	1	107034	-61.69798	-5.094037E-010	0.0166274	5
	47	16	19.86229	60858.55	-111407.8	1	126946.6	-61.35361	-1.019674E-009	0.0166238	5
	48	16	15.83615	73591.15	-130800.1	1	150081	-60.63689	2.386495E-010	0.0166308	5
	49	17	12.40079	91082.26	-154059.3	1	178970	-59.40776	-7.269592E-010	0.016632	5
	50	17	9.93114	110466.5	-177242.3	1	208848.5	-58.06672	-2.101948E-010	0.0166283	5
	51	17	7.944915	133643.2	-201517.1	1	241805	-56.44823	1.231343E-009	0.0166278	5
	52	18	6.317385	162060	-228581	1	280201.3	-54.66402	-3.894098E-010	0.0166402	5
	53	19	5.008013	195113.4	-256878.7	1	322576.9	-52.78134	-4.781917E-010	0.0166235	5
	54	20	3.945707	232499.9	-285834.2	1	368452.7	-50.8748	2.97764E-010	0.0166277	5
	55	20	3.158693	271597.4	-314368.3	1	415442.6	-49.17474	-2.97012E-010	0.0166205	5
	56	21	2.504006	314146.6	-344964.3	1	466570.9	-47.67699	-1.397994E-010	0.0166132	5
	57	23	1.998082	358650.6	-376591.9	1	520049.8	-46.39785	2.268129E-010	0.0166628	5
	58	24	1.584686	404853.2	-413015.4	1	578349.3	-45.57178	1.59331E-010	0.016629	5
	59	26	1.266892	452794.4	-451145.9	1	639183.4	-44.89551	2.902036E-011	0.0165896	5
	60	29	0.999041	506939.8	-498935.3	1	711283.6	-44.54407	-5.351576E-011	0.0165777	5
