EXPLAIN
TAG	EISPOT
TITLE	LABEL	Potentiostatic EIS	Test &Identifier
DATE	LABEL	1/18/2020	Date
TIME	LABEL	22:12:26	Time
NOTES	NOTES	6	&Notes...
	
	
	
	
	
	
PSTAT	PSTAT	REF600-11020	Potentiostat
VDC	POTEN	0.00000E+000	T	DC &Voltage (V)
FREQINIT	QUANT	1.00000E+006	Initial Fre&q. (Hz)
FREQFINAL	QUANT	1.00000E+000	Final Fre&q. (Hz)
PTSPERDEC	QUANT	1.00000E+001	Points/&decade
VAC	QUANT	2.50000E+001	AC &Voltage (mV rms)
AREA	QUANT	1.00000E-001	&Area (cm^2)
CONDIT	TWOPARAM	F	5.00000E+000	0.00000E+000	Conditionin&g	Time(s)	E(V)
DELAY	TWOPARAM	F	5.00000E+000	0.00000E+000	Init. De&lay	Time(s)	Stab.(mV/s)
SPEED	SELECTOR	0	&Optimize for:
ZGUESS	QUANT	5.00000E+002	E&stimated Z (ohms)
OCVCURVE	TABLE	39
	Pt	T	Vf	Vm	Ach	Over
	#	s	V vs. Ref.	V	V	bits
	0	0.258333	-1.05384E-001	-1.05384E-001	6.53613E-004	...........
	1	0.516667	-1.05379E-001	-1.05120E-001	6.56646E-004	...........
	2	0.775	-1.05352E-001	-1.05082E-001	6.49246E-004	...........
	3	1.03333	-1.05291E-001	-1.05106E-001	6.50046E-004	...........
	4	1.29167	-1.05209E-001	-1.05001E-001	6.50980E-004	...........
	5	1.55	-1.05133E-001	-1.04916E-001	6.49580E-004	...........
	6	1.80833	-1.05066E-001	-1.04868E-001	6.51113E-004	...........
	7	2.06667	-1.05002E-001	-1.04827E-001	6.53913E-004	...........
	8	2.325	-1.04938E-001	-1.04711E-001	6.52013E-004	...........
	9	2.58333	-1.04872E-001	-1.04591E-001	6.52913E-004	...........
	10	2.84167	-1.04799E-001	-1.04594E-001	6.47780E-004	...........
	11	3.1	-1.04721E-001	-1.04546E-001	6.57613E-004	...........
	12	3.35833	-1.04651E-001	-1.04576E-001	6.52713E-004	...........
	13	3.61667	-1.04601E-001	-1.04522E-001	6.55313E-004	...........
	14	3.875	-1.04570E-001	-1.04488E-001	6.53013E-004	...........
	15	4.13333	-1.04546E-001	-1.04449E-001	6.49013E-004	...........
	16	4.39167	-1.04521E-001	-1.04416E-001	6.53846E-004	...........
	17	4.65	-1.04490E-001	-1.04414E-001	6.52413E-004	...........
	18	4.90833	-1.04459E-001	-1.04402E-001	6.48546E-004	...........
	19	5.16667	-1.04434E-001	-1.04385E-001	6.56813E-004	...........
	20	5.425	-1.04414E-001	-1.04365E-001	6.52646E-004	...........
	21	5.68333	-1.04399E-001	-1.04358E-001	6.54613E-004	...........
	22	5.94167	-1.04384E-001	-1.04339E-001	6.51346E-004	...........
	23	6.2	-1.04370E-001	-1.04306E-001	6.57946E-004	...........
	24	6.45833	-1.04354E-001	-1.04323E-001	6.52980E-004	...........
	25	6.71667	-1.04337E-001	-1.04243E-001	6.57080E-004	...........
	26	6.975	-1.04317E-001	-1.04202E-001	6.49646E-004	...........
	27	7.23333	-1.04292E-001	-1.04306E-001	6.55913E-004	...........
	28	7.49167	-1.04269E-001	-1.04259E-001	6.54479E-004	...........
	29	7.75	-1.04260E-001	-1.04284E-001	6.57313E-004	...........
	30	8.00833	-1.04265E-001	-1.04429E-001	6.54846E-004	...........
	31	8.26667	-1.04283E-001	-1.04232E-001	6.58413E-004	...........
	32	8.525	-1.04306E-001	-1.04392E-001	6.53346E-004	...........
	33	8.78333	-1.04324E-001	-1.04436E-001	6.53246E-004	...........
	34	9.04167	-1.04341E-001	-1.04306E-001	6.55779E-004	...........
	35	9.3	-1.04357E-001	-1.04321E-001	6.54779E-004	...........
	36	9.5583	-1.04360E-001	-1.04304E-001	6.53679E-004	...........
	37	9.8167	-1.04346E-001	-1.04296E-001	6.50846E-004	...........
	38	10.075	-1.04328E-001	-1.04312E-001	6.59146E-004	...........
EOC	QUANT	-0.1043277	Open Circuit (V)
PSTATMODEL	IQUANT	4	Pstat Model
PSTATSECTION	LABEL	REF600-11020	Pstat Section
PSTATSERIALNO	LABEL	11020	Pstat Serial Number
CTRLMODE	IQUANT	1	Control Mode
IESTAB	IQUANT	0	I/E Stability
CASPEED	IQUANT	1	Control Amp Speed
CONVENTION	IQUANT	1	Current Convention
ICHRANGE	IQUANT	2	Ich Range
ICHRANGEMODE	TOGGLE	F	Ich Auto Range
ICHOFFSETENABLE	TOGGLE	T	Ich Offset Enable
ICHOFFSET	QUANT	0	Ich Offset (V)
ICHFILTER	IQUANT	3	Ich Filter
VCHRANGE	IQUANT	2	Vch Range
VCHRANGEMODE	TOGGLE	F	Vch Auto Range
VCHOFFSETENABLE	TOGGLE	T	Vch Offset Enable
VCHOFFSET	QUANT	0	Vch Offset (V)
VCHFILTER	IQUANT	3	Vch Filter
ACHRANGE	IQUANT	2	Ach Range
ACHOFFSETENABLE	TOGGLE	F	Ach Offset Enable
ACHOFFSET	QUANT	0	Ach Offset (V)
ACHFILTER	IQUANT	3	Ach Filter
IERANGELOWERLIMIT	IQUANT	1	I/E Range Lower Limit
IERANGEMODE	TOGGLE	F	I/E AutoRange
IERANGE	IQUANT	8	I/E Range
POSFEEDENABLE	TOGGLE	F	Positive Feedback IR Comp
POSFEEDRESISTANCE	QUANT	0	Positive Feedback Resistance (ohm)
ACHSELECT	IQUANT	0	Ach Select
CABLEID	IQUANT	14	Cable ID
DCCALDATE	LABEL	12/22/2019	DC Calibration Date
ACCALDATE	LABEL	12/22/2019	AC Calibration Date
THERMOSELECT	IQUANT	1	Thermo Select
FRAMEWORKVERSION	QUANT	6.33	Framework Version
INSTRUMENTVERSION	LABEL	3.50	Instrument Version
ZCURVE	TABLE
	Pt	Time	Freq	Zreal	Zimag	Zsig	Zmod	Zphz	Idc	Vdc	IERange
	#	s	Hz	ohm	ohm	V	ohm	°	A	V	#
	0	1	1000078	2122.108	-2045.35	1	2947.338	-43.94482	-1.087423E-006	-0.1019026	8
	1	1	794390.6	2526.161	-2110.091	1	3291.5	-39.87186	6.200033E-006	-0.1031954	8
	2	2	630984.4	2916.673	-2156.299	1	3627.204	-36.47555	-2.158625E-006	-0.102225	8
	3	2	501234.4	3319.421	-2182.917	1	3972.868	-33.32972	2.471576E-006	-0.1028942	8
	4	2	398109.4	3709.462	-2137.896	1	4281.438	-29.95639	-9.126448E-007	-0.102415	8
	5	3	316265.6	4078.197	-2069.901	1	4573.42	-26.91021	-1.077491E-006	-0.1024102	8
	6	3	251203.1	4409.98	-2010.372	1	4846.599	-24.50676	2.685129E-007	-0.1026239	8
	7	3	199546.9	4757.266	-1879.279	1	5115.004	-21.55567	1.944881E-006	-0.1029729	8
	8	3	158578.1	5021.086	-1701.713	1	5301.616	-18.7222	-1.127664E-006	-0.1024294	8
	9	4	125953.1	5337.301	-1541.822	1	5555.538	-16.11278	-8.4016E-007	-0.1006281	7
	10	4	100078.1	5530.059	-1395.839	1	5703.5	-14.1661	-4.951215E-008	-0.1025125	7
	11	4	79453.13	5716.294	-1261.627	1	5853.864	-12.44606	-4.093597E-008	-0.1025824	7
	12	5	63140.62	5871.336	-1135.539	1	5980.137	-10.94608	-1.702959E-008	-0.1025027	7
	13	5	50203.12	5993.2	-1022.117	1	6079.734	-9.67845	-2.968782E-008	-0.1025194	7
	14	5	39890.62	6096.15	-927.949	1	6166.371	-8.655059	3.028926E-008	-0.102659	7
	15	6	31640.63	6178.996	-855.6337	1	6237.956	-7.883872	-3.947558E-008	-0.1025954	7
	16	6	25171.88	6250.442	-806.1689	1	6302.216	-7.349316	-1.227454E-008	-0.1025897	7
	17	6	20015.62	6314.109	-778.2936	1	6361.896	-7.026982	5.94601E-008	-0.1026422	7
	18	7	15890.62	6369.589	-773.1692	1	6416.343	-6.920959	-3.585478E-008	-0.1026074	7
	19	7	12609.37	6425.926	-794.4788	1	6474.854	-7.04808	-2.922558E-008	-0.1025238	7
	20	7	10078.13	6485.67	-828.2446	1	6538.341	-7.277497	-1.454438E-008	-0.1025097	7
	21	8	8015.625	6535.848	-904.4065	1	6598.125	-7.878347	-5.750203E-009	-0.1025961	7
	22	8	6328.125	6595.4	-1010.872	1	6672.418	-8.713869	1.879236E-008	-0.102711	7
	23	8	5015.625	6661.431	-1147.518	1	6759.546	-9.77401	-2.907057E-008	-0.10253	7
	24	9	3984.375	6732.184	-1320.027	1	6860.377	-11.09365	7.089024E-008	-0.1027838	7
	25	9	3170.956	6810.982	-1536.626	1	6982.17	-12.71365	2.001253E-008	-0.1027116	7
	26	9	2527.573	6903.492	-1806.285	1	7135.886	-14.66263	-5.419687E-009	-0.1026045	7
	27	10	1976.103	7017.038	-2169.617	1	7344.798	-17.18123	-1.210512E-008	-0.1025992	7
	28	10	1577.524	7132.022	-2587.826	1	7587.001	-19.9431	5.895422E-008	-0.10265	7
	29	10	1265.625	7280.059	-3059.561	1	7896.845	-22.79536	-2.259548E-008	-0.1026463	7
	30	10	998.264	7460.034	-3697.716	1	8326.176	-26.36624	7.21065E-008	-0.102795	7
	31	11	796.875	7664.423	-4439.499	1	8857.343	-30.08091	-8.506308E-010	-0.1026262	7
	32	11	627.7902	7927.002	-5386.328	1	9583.83	-34.19576	6.895637E-009	-0.1028023	6
	33	11	505.5147	8207.367	-6431.775	1	10427.3	-38.08434	1.478594E-008	-0.1029035	6
	34	12	397.9953	8586.108	-7837.852	1	11625.54	-42.39148	4.108527E-010	-0.102633	6
	35	12	315.5048	9030.816	-9501.2	1	13108.33	-46.45397	6.280547E-010	-0.1026373	6
	36	12	252.4038	9549.65	-11440.78	1	14902.59	-50.14815	4.423231E-010	-0.1026378	6
	37	13	198.6229	10228.45	-13973.38	1	17316.94	-53.79605	3.856813E-010	-0.1026357	6
	38	13	158.3615	11016.44	-16889.03	1	20164.36	-56.88424	2.586556E-010	-0.1026429	6
	39	13	125.558	12011.89	-20510.58	1	23769.09	-59.64489	5.403876E-010	-0.1026432	6
	40	14	100.4464	13196.5	-24706.74	1	28010.18	-61.89219	6.305836E-010	-0.1026422	6
	41	14	79.00281	14822.41	-30245	1	33681.8	-63.89154	3.658935E-010	-0.1026461	6
	42	14	63.3446	16403.89	-36392.41	1	39918.61	-65.73651	4.253823E-010	-0.1026434	6
	43	15	49.86702	18964.44	-44376.27	1	48258.71	-66.86029	4.071832E-010	-0.102642	6
	44	15	39.72458	22115.49	-53708.07	1	58083.14	-67.6195	6.298796E-010	-0.1026422	6
	45	15	31.6723	26073.4	-64779.64	1	69829.97	-68.07552	9.594374E-010	-0.1026428	6
	46	16	24.93351	31254.68	-78755.77	1	84730.91	-68.35406	-1.103406E-010	-0.1026414	6
	47	16	19.86229	37679.33	-94633.55	1	101858.9	-68.28951	-5.235515E-010	-0.1026478	6
	48	16	15.83615	46340.62	-113045.3	1	122174.8	-67.70982	-2.731123E-010	-0.1026473	5
	49	17	12.40079	58167.17	-137624.6	1	149412	-67.0886	-2.981709E-010	-0.1026413	5
	50	17	9.93114	71288.88	-161809.6	1	176817.6	-66.22302	-7.343058E-010	-0.1026477	5
	51	17	7.944915	89054.55	-189803.7	1	209657.2	-64.86436	6.157458E-010	-0.1026471	5
	52	18	6.317385	111139.1	-222457.5	1	248675	-63.45344	6.044306E-010	-0.1026576	5
	53	19	5.008013	139187.5	-259315.7	1	294309	-61.77536	3.661392E-010	-0.1026406	5
	54	20	3.945707	174693.8	-299609.9	1	346819.9	-59.75478	-6.657489E-011	-0.1026344	5
	55	21	3.158693	211856.7	-340807.4	1	401289.1	-58.13361	-1.147657E-010	-0.102653	5
	56	22	2.504006	258005.6	-385668.3	1	464011.8	-56.21814	1.589588E-010	-0.1026519	5
	57	24	1.998082	306555.7	-432171.2	1	529856.9	-54.65045	2.060282E-010	-0.1026296	5
	58	25	1.584686	362333.9	-481852.6	1	602882.9	-53.0583	3.196165E-011	-0.1026768	5
	59	27	1.266892	421052.2	-536278.3	1	681820.6	-51.86321	-3.348392E-011	-0.1026925	5
	60	30	0.999041	486751.3	-601377.6	1	773680.8	-51.01351	-8.71445E-011	-0.1026839	5
