EXPLAIN
TAG	EISPOT
TITLE	LABEL	Potentiostatic EIS	Test &Identifier
DATE	LABEL	2/11/2020	Date
TIME	LABEL	13:05:03	Time
NOTES	NOTES	6	&Notes...
	
	
	
	
	
	
PSTAT	PSTAT	REF600-11020	Potentiostat
VDC	POTEN	0.00000E+000	T	DC &Voltage (V)
FREQINIT	QUANT	1.00000E+006	Initial Fre&q. (Hz)
FREQFINAL	QUANT	1.00000E+000	Final Fre&q. (Hz)
PTSPERDEC	QUANT	1.00000E+001	Points/&decade
VAC	QUANT	2.50000E+001	AC &Voltage (mV rms)
AREA	QUANT	4.00000E-005	&Area (cm^2)
CONDIT	TWOPARAM	F	5.00000E+000	0.00000E+000	Conditionin&g	Time(s)	E(V)
DELAY	TWOPARAM	F	5.00000E+000	0.00000E+000	Init. De&lay	Time(s)	Stab.(mV/s)
SPEED	SELECTOR	0	&Optimize for:
ZGUESS	QUANT	1.00000E+003	E&stimated Z (ohms)
OCVCURVE	TABLE	39
	Pt	T	Vf	Vm	Ach	Over
	#	s	V vs. Ref.	V	V	bits
	0	0.258333	-1.60913E-001	-1.60913E-001	6.31103E-004	...........
	1	0.516667	-1.60914E-001	-1.60943E-001	6.30037E-004	...........
	2	0.775	-1.60918E-001	-1.61011E-001	6.29637E-004	...........
	3	1.03333	-1.60932E-001	-1.61061E-001	6.34537E-004	...........
	4	1.29167	-1.60961E-001	-1.61091E-001	6.32570E-004	...........
	5	1.55	-1.61001E-001	-1.61129E-001	6.31803E-004	...........
	6	1.80833	-1.61045E-001	-1.61164E-001	6.33837E-004	...........
	7	2.06667	-1.61087E-001	-1.61193E-001	6.29837E-004	...........
	8	2.325	-1.61125E-001	-1.61226E-001	6.32437E-004	...........
	9	2.58333	-1.61159E-001	-1.61245E-001	6.33337E-004	...........
	10	2.84167	-1.61190E-001	-1.61288E-001	6.29437E-004	...........
	11	3.1	-1.61220E-001	-1.61298E-001	6.35703E-004	...........
	12	3.35833	-1.61250E-001	-1.61385E-001	6.32303E-004	...........
	13	3.61667	-1.61287E-001	-1.61675E-001	6.30003E-004	...........
	14	3.875	-1.61355E-001	-1.61898E-001	6.28970E-004	...........
	15	4.13333	-1.61473E-001	-1.61840E-001	6.35970E-004	...........
	16	4.39167	-1.61618E-001	-1.61781E-001	6.36770E-004	...........
	17	4.65	-1.61736E-001	-1.61728E-001	6.32537E-004	...........
	18	4.90833	-1.61790E-001	-1.61725E-001	6.30737E-004	...........
	19	5.16667	-1.61790E-001	-1.61776E-001	6.26803E-004	...........
	20	5.425	-1.61770E-001	-1.61777E-001	6.30637E-004	...........
	21	5.68333	-1.61758E-001	-1.61717E-001	6.25803E-004	...........
	22	5.94167	-1.61754E-001	-1.61740E-001	6.31103E-004	...........
	23	6.2	-1.61751E-001	-1.61757E-001	6.33170E-004	...........
	24	6.45833	-1.61746E-001	-1.61748E-001	6.30970E-004	...........
	25	6.71667	-1.61745E-001	-1.61747E-001	6.33770E-004	...........
	26	6.975	-1.61746E-001	-1.61749E-001	6.29570E-004	...........
	27	7.23333	-1.61748E-001	-1.61755E-001	6.34503E-004	...........
	28	7.49167	-1.61749E-001	-1.61763E-001	6.32737E-004	...........
	29	7.75	-1.61752E-001	-1.61778E-001	6.33037E-004	...........
	30	8.00833	-1.61757E-001	-1.61794E-001	6.26637E-004	...........
	31	8.26667	-1.61766E-001	-1.61799E-001	6.34770E-004	...........
	32	8.525	-1.61777E-001	-1.61800E-001	6.32137E-004	...........
	33	8.78333	-1.61787E-001	-1.61815E-001	6.32837E-004	...........
	34	9.04167	-1.61796E-001	-1.61824E-001	6.37703E-004	...........
	35	9.3	-1.61804E-001	-1.61810E-001	6.34703E-004	...........
	36	9.5583	-1.61811E-001	-1.61795E-001	6.35637E-004	...........
	37	9.8167	-1.61812E-001	-1.61818E-001	6.39003E-004	...........
	38	10.075	-1.61814E-001	-1.61950E-001	6.39203E-004	...........
EOC	QUANT	-0.1618138	Open Circuit (V)
PSTATMODEL	IQUANT	4	Pstat Model
PSTATSECTION	LABEL	REF600-11020	Pstat Section
PSTATSERIALNO	LABEL	11020	Pstat Serial Number
CTRLMODE	IQUANT	1	Control Mode
IESTAB	IQUANT	0	I/E Stability
CASPEED	IQUANT	1	Control Amp Speed
CONVENTION	IQUANT	1	Current Convention
ICHRANGE	IQUANT	2	Ich Range
ICHRANGEMODE	TOGGLE	F	Ich Auto Range
ICHOFFSETENABLE	TOGGLE	T	Ich Offset Enable
ICHOFFSET	QUANT	0	Ich Offset (V)
ICHFILTER	IQUANT	3	Ich Filter
VCHRANGE	IQUANT	2	Vch Range
VCHRANGEMODE	TOGGLE	F	Vch Auto Range
VCHOFFSETENABLE	TOGGLE	T	Vch Offset Enable
VCHOFFSET	QUANT	0	Vch Offset (V)
VCHFILTER	IQUANT	3	Vch Filter
ACHRANGE	IQUANT	2	Ach Range
ACHOFFSETENABLE	TOGGLE	F	Ach Offset Enable
ACHOFFSET	QUANT	0	Ach Offset (V)
ACHFILTER	IQUANT	3	Ach Filter
IERANGELOWERLIMIT	IQUANT	1	I/E Range Lower Limit
IERANGEMODE	TOGGLE	F	I/E AutoRange
IERANGE	IQUANT	8	I/E Range
POSFEEDENABLE	TOGGLE	F	Positive Feedback IR Comp
POSFEEDRESISTANCE	QUANT	0	Positive Feedback Resistance (ohm)
ACHSELECT	IQUANT	0	Ach Select
CABLEID	IQUANT	14	Cable ID
DCCALDATE	LABEL	1/27/2020	DC Calibration Date
ACCALDATE	LABEL	1/27/2020	AC Calibration Date
THERMOSELECT	IQUANT	1	Thermo Select
FRAMEWORKVERSION	QUANT	6.33	Framework Version
INSTRUMENTVERSION	LABEL	3.50	Instrument Version
ZCURVE	TABLE
	Pt	Time	Freq	Zreal	Zimag	Zsig	Zmod	Zphz	Idc	Vdc	IERange
	#	s	Hz	ohm	ohm	V	ohm	°	A	V	#
	0	1	1000078	1839.541	-2460.739	1	3072.32	-53.21982	3.242453E-006	-0.1594941	8
	1	1	794390.6	2195.947	-2729.081	1	3502.866	-51.17821	7.64452E-007	-0.1600604	8
	2	1	630984.4	2597.245	-3027.075	1	3988.592	-49.37025	-1.750528E-006	-0.1596872	8
	3	2	501234.4	2994.185	-3369.334	1	4507.5	-48.37386	1.874235E-006	-0.1603119	8
	4	2	398109.4	3452.179	-3690.621	1	5053.535	-46.91195	-1.152435E-006	-0.1597504	8
	5	2	316265.6	3966.365	-4058.572	1	5674.862	-45.6583	-9.419995E-007	-0.1597851	8
	6	3	251203.1	4570.488	-4424.196	1	6361.043	-44.06821	-3.952415E-006	-0.1592603	8
	7	3	199546.9	5259.053	-4867.068	1	7165.612	-42.78317	-3.938407E-006	-0.1592781	8
	8	3	158578.1	5969.382	-5347.555	1	8014.354	-41.85495	-1.059642E-006	-0.1598988	8
	9	4	125953.1	6874.385	-5714.136	1	8939.157	-39.73409	-1.161063E-006	-0.1577731	7
	10	4	100078.1	7838.973	-6152.04	1	9964.79	-38.12489	-4.760235E-008	-0.1600859	7
	11	4	79453.13	8916.638	-6541.89	1	11059.06	-36.26646	-1.607323E-009	-0.1601647	7
	12	5	63140.62	10067.19	-6851.269	1	12177.36	-34.23742	6.662994E-008	-0.1603092	7
	13	5	50203.12	11309.98	-7052.93	1	13328.9	-31.94775	-2.384677E-008	-0.1601023	7
	14	5	39890.62	12593.78	-7130.951	1	14472.52	-29.51976	3.947967E-008	-0.1603262	7
	15	6	31640.63	13903.88	-7072.215	1	15599.17	-26.96019	7.505671E-008	-0.1603556	7
	16	6	25171.88	15166.27	-6874.806	1	16651.69	-24.38459	-1.187014E-008	-0.1601645	7
	17	6	20015.62	16345.72	-6547.093	1	17608.15	-21.82801	6.47936E-008	-0.1602314	7
	18	7	15890.62	17408.9	-6100.742	1	18446.92	-19.31241	-5.337642E-008	-0.160129	7
	19	7	12609.37	18399.47	-5515.668	1	19208.41	-16.68732	-4.017076E-009	-0.1600712	6
	20	7	10078.13	19132.76	-5053.868	1	19788.98	-14.79657	-4.410095E-009	-0.1600714	6
	21	8	8015.625	19745.69	-4605.56	1	20275.69	-13.12915	2.747849E-009	-0.1602978	6
	22	8	6328.125	20253.85	-4219.254	1	20688.66	-11.76748	4.630589E-009	-0.1603895	6
	23	8	5015.625	20656.31	-3931.776	1	21027.18	-10.77691	-4.497137E-009	-0.1601514	6
	24	9	3984.375	20987.05	-3748.678	1	21319.21	-10.12729	3.348864E-009	-0.1601708	6
	25	9	3170.956	21250.94	-3673.117	1	21566.04	-9.80639	-1.807733E-009	-0.1601014	6
	26	9	2527.573	21489.48	-3722.318	1	21809.48	-9.82703	5.376772E-009	-0.1602165	6
	27	10	1976.103	21720.58	-3917.055	1	22070.96	-10.22275	1.384926E-008	-0.160387	6
	28	10	1577.524	21939.99	-4248.531	1	22347.55	-10.9593	-6.819309E-009	-0.1601093	6
	29	10	1265.625	22163.11	-4702.606	1	22656.52	-11.97945	-3.222913E-009	-0.1601572	6
	30	11	998.264	22418.92	-5381.201	1	23055.7	-13.49733	-1.067481E-009	-0.160302	6
	31	11	796.875	22689.25	-6228.273	1	23528.56	-15.34979	7.006512E-009	-0.1603815	6
	32	11	627.7902	23043.83	-7368.877	1	24193.36	-17.73306	-4.963467E-009	-0.1600884	6
	33	11	505.5147	23416.04	-8665.627	1	24968.06	-20.30812	3.489659E-009	-0.1601746	6
	34	12	397.9953	23900.01	-10430.12	1	26076.77	-23.57678	4.602336E-010	-0.1602171	6
	35	12	315.5048	24492.2	-12542.82	1	27517.09	-27.11767	1.378616E-009	-0.160216	6
	36	12	252.4038	25192.64	-15016.85	1	29328.74	-30.79836	1.383808E-009	-0.1602173	6
	37	13	198.6229	26123.65	-18246.8	1	31865.2	-34.93346	7.671268E-010	-0.160218	6
	38	13	158.3615	27227.38	-21954.83	1	34976.35	-38.88101	1.081345E-009	-0.1602221	6
	39	13	125.558	28612.91	-26550.79	1	39033.87	-42.85917	7.184258E-010	-0.1602201	6
	40	14	100.4464	30235.01	-31930.3	1	43973.86	-46.56211	4.301436E-010	-0.1602249	6
	41	14	79.00281	32446.17	-38890.57	1	50648.11	-50.16196	1.314334E-009	-0.1602296	6
	42	14	63.3446	35578.15	-46026.59	1	58174.32	-52.29629	3.687975E-010	-0.1602283	6
	43	15	49.86702	39239.75	-56430.79	1	68732.76	-55.18677	8.808146E-010	-0.1602302	6
	44	15	39.72458	43250.27	-67890.57	1	80496.68	-57.50047	8.288757E-010	-0.1602206	6
	45	15	31.6723	48725.28	-81513.32	1	94966.17	-59.13077	9.101897E-010	-0.1602246	6
	46	16	24.93351	56829.46	-98314.3	1	113557.4	-59.97044	7.247475E-010	-0.1602263	5
	47	16	19.86229	66836.43	-116899.7	1	134657.5	-60.2416	9.138343E-010	-0.1602197	5
	48	16	15.83615	80878.15	-138472.6	1	160361.9	-59.71194	-1.368673E-009	-0.1602281	5
	49	17	12.40079	97654.8	-164181.2	1	191028.6	-59.25585	1.289994E-009	-0.1602253	5
	50	17	9.93114	115906	-191232.2	1	223615.6	-58.77991	-6.888414E-010	-0.1602259	5
	51	18	7.944915	140012.9	-219936	1	260721	-57.51887	-3.831021E-010	-0.1602264	5
	52	18	6.317385	170169.3	-252269.6	1	304298.4	-55.99823	-1.218483E-010	-0.1602206	5
	53	19	5.008013	205808.1	-286160.1	1	352483.5	-54.27608	-2.188296E-010	-0.1602311	5
	54	20	3.945707	247770.8	-322223	1	406470.2	-52.44181	2.24441E-010	-0.1602238	5
	55	21	3.158693	291973	-356689.4	1	460950.7	-50.69749	1.396631E-010	-0.1602098	5
	56	23	2.504006	342464	-394233.4	1	522208.3	-49.0197	-1.246149E-010	-0.1602223	5
	57	24	1.998082	393428.2	-431216.1	1	583723.4	-47.62365	1.129774E-010	-0.1602082	5
	58	26	1.584686	451158.1	-473216.2	1	653817.4	-46.36698	2.790648E-010	-0.1601763	5
	59	28	1.266892	507551	-518288.5	1	725417.8	-45.59969	2.640106E-010	-0.1602048	5
	60	30	0.999041	570546	-571019.9	1	807209.1	-45.02379	2.346011E-010	-0.1602288	5
