EXPLAIN
TAG	EISPOT
TITLE	LABEL	Potentiostatic EIS	Test &Identifier
DATE	LABEL	1/28/2020	Date
TIME	LABEL	12:18:39	Time
NOTES	NOTES	6	&Notes...
	
	
	
	
	
	
PSTAT	PSTAT	REF600-11020	Potentiostat
VDC	POTEN	0.00000E+000	T	DC &Voltage (V)
FREQINIT	QUANT	1.00000E+006	Initial Fre&q. (Hz)
FREQFINAL	QUANT	1.00000E+000	Final Fre&q. (Hz)
PTSPERDEC	QUANT	1.00000E+001	Points/&decade
VAC	QUANT	2.50000E+001	AC &Voltage (mV rms)
AREA	QUANT	1.60000E-004	&Area (cm^2)
CONDIT	TWOPARAM	F	5.00000E+000	0.00000E+000	Conditionin&g	Time(s)	E(V)
DELAY	TWOPARAM	F	5.00000E+000	0.00000E+000	Init. De&lay	Time(s)	Stab.(mV/s)
SPEED	SELECTOR	0	&Optimize for:
ZGUESS	QUANT	1.00000E+003	E&stimated Z (ohms)
OCVCURVE	TABLE	39
	Pt	T	Vf	Vm	Ach	Over
	#	s	V vs. Ref.	V	V	bits
	0	0.258333	7.41708E-003	7.41708E-003	5.87904E-004	...........
	1	0.516667	7.41972E-003	7.55570E-003	5.85971E-004	...........
	2	0.775	7.43617E-003	7.69674E-003	5.86537E-004	...........
	3	1.03333	7.48297E-003	7.81446E-003	5.88571E-004	...........
	4	1.29167	7.56618E-003	7.91504E-003	5.86237E-004	...........
	5	1.55	7.67394E-003	8.00180E-003	5.88937E-004	...........
	6	1.80833	7.78707E-003	8.06530E-003	5.85937E-004	...........
	7	2.06667	7.89155E-003	8.14526E-003	5.84604E-004	...........
	8	2.325	7.98246E-003	8.19944E-003	5.86537E-004	...........
	9	2.58333	8.06082E-003	8.23678E-003	5.88071E-004	...........
	10	2.84167	8.12646E-003	8.19401E-003	5.86704E-004	...........
	11	3.1	8.17253E-003	8.11546E-003	5.90237E-004	...........
	12	3.35833	8.19179E-003	8.23786E-003	5.87304E-004	...........
	13	3.61667	8.19330E-003	8.28756E-003	5.89237E-004	...........
	14	3.875	8.20082E-003	8.31679E-003	5.91804E-004	...........
	15	4.13333	8.22787E-003	8.36322E-003	5.91204E-004	...........
	16	4.39167	8.26777E-003	8.34697E-003	5.87237E-004	...........
	17	4.65	8.30677E-003	8.37447E-003	5.89871E-004	...........
	18	4.90833	8.33696E-003	8.41588E-003	5.89471E-004	...........
	19	5.16667	8.36072E-003	8.45726E-003	5.87404E-004	...........
	20	5.425	8.38536E-003	8.47293E-003	5.85171E-004	...........
	21	5.68333	8.41390E-003	8.50201E-003	5.89104E-004	...........
	22	5.94167	8.44424E-003	8.54880E-003	5.91337E-004	...........
	23	6.2	8.47442E-003	8.54371E-003	5.89371E-004	...........
	24	6.45833	8.50390E-003	8.61171E-003	5.88537E-004	...........
	25	6.71667	8.53302E-003	8.62230E-003	5.87371E-004	...........
	26	6.975	8.56272E-003	8.64520E-003	5.83137E-004	...........
	27	7.23333	8.59205E-003	8.66154E-003	5.82437E-004	...........
	28	7.49167	8.61838E-003	8.67599E-003	5.85604E-004	...........
	29	7.75	8.63989E-003	8.66152E-003	5.83904E-004	...........
	30	8.00833	8.65493E-003	8.65106E-003	5.83637E-004	...........
	31	8.26667	8.66204E-003	8.66467E-003	5.84971E-004	...........
	32	8.525	8.66560E-003	8.80381E-003	5.87204E-004	...........
	33	8.78333	8.68089E-003	8.92890E-003	5.85971E-004	...........
	34	9.04167	8.72299E-003	8.87104E-003	5.84071E-004	...........
	35	9.3	8.78217E-003	8.75095E-003	5.85604E-004	...........
	36	9.5583	8.82496E-003	8.78609E-003	5.84871E-004	...........
	37	9.8167	8.83014E-003	8.72451E-003	5.86904E-004	...........
	38	10.075	8.80893E-003	8.82737E-003	5.84204E-004	...........
EOC	QUANT	0.0088089	Open Circuit (V)
PSTATMODEL	IQUANT	4	Pstat Model
PSTATSECTION	LABEL	REF600-11020	Pstat Section
PSTATSERIALNO	LABEL	11020	Pstat Serial Number
CTRLMODE	IQUANT	1	Control Mode
IESTAB	IQUANT	0	I/E Stability
CASPEED	IQUANT	1	Control Amp Speed
CONVENTION	IQUANT	1	Current Convention
ICHRANGE	IQUANT	2	Ich Range
ICHRANGEMODE	TOGGLE	F	Ich Auto Range
ICHOFFSETENABLE	TOGGLE	T	Ich Offset Enable
ICHOFFSET	QUANT	0	Ich Offset (V)
ICHFILTER	IQUANT	3	Ich Filter
VCHRANGE	IQUANT	2	Vch Range
VCHRANGEMODE	TOGGLE	F	Vch Auto Range
VCHOFFSETENABLE	TOGGLE	T	Vch Offset Enable
VCHOFFSET	QUANT	0	Vch Offset (V)
VCHFILTER	IQUANT	3	Vch Filter
ACHRANGE	IQUANT	2	Ach Range
ACHOFFSETENABLE	TOGGLE	F	Ach Offset Enable
ACHOFFSET	QUANT	0	Ach Offset (V)
ACHFILTER	IQUANT	3	Ach Filter
IERANGELOWERLIMIT	IQUANT	1	I/E Range Lower Limit
IERANGEMODE	TOGGLE	F	I/E AutoRange
IERANGE	IQUANT	7	I/E Range
POSFEEDENABLE	TOGGLE	F	Positive Feedback IR Comp
POSFEEDRESISTANCE	QUANT	0	Positive Feedback Resistance (ohm)
ACHSELECT	IQUANT	0	Ach Select
CABLEID	IQUANT	14	Cable ID
DCCALDATE	LABEL	1/27/2020	DC Calibration Date
ACCALDATE	LABEL	1/27/2020	AC Calibration Date
THERMOSELECT	IQUANT	1	Thermo Select
FRAMEWORKVERSION	QUANT	6.33	Framework Version
INSTRUMENTVERSION	LABEL	3.50	Instrument Version
ZCURVE	TABLE
	Pt	Time	Freq	Zreal	Zimag	Zsig	Zmod	Zphz	Idc	Vdc	IERange
	#	s	Hz	ohm	ohm	V	ohm	°	A	V	#
	0	1	1000078	2042.189	-2111.542	1	2937.541	-45.95655	5.971219E-006	0.0101004	8
	1	1	794390.6	2426.425	-2280.421	1	3329.844	-43.22329	-3.240375E-006	0.0107853	8
	2	2	630984.4	2833.859	-2378.268	1	3699.583	-40.00448	2.171836E-006	0.0103009	8
	3	2	501234.4	3287.679	-2438.834	1	4093.5	-36.56841	1.171594E-006	0.0101928	8
	4	2	398109.4	3736.962	-2463.748	1	4476.041	-33.39653	-1.895215E-007	0.0106066	8
	5	2	316265.6	4179.359	-2453.71	1	4846.415	-30.41728	1.25837E-006	0.0101578	8
	6	3	251203.1	4620.826	-2358.16	1	5187.77	-27.03672	1.178227E-006	0.010156	8
	7	3	199546.9	5046.202	-2250.121	1	5525.142	-24.03227	-3.665933E-006	0.0111605	8
	8	3	158578.1	5450.928	-2111.844	1	5845.725	-21.17778	1.894829E-006	0.0099102	8
	9	4	125953.1	5772.882	-1880.169	1	6071.343	-18.0399	-7.459745E-007	0.0122622	7
	10	4	100078.1	6046.029	-1709.356	1	6283.022	-15.78685	-2.024003E-010	0.0103572	7
	11	5	79453.13	6272.115	-1538.401	1	6458.026	-13.78123	3.779965E-009	0.010264	7
	12	5	63140.62	6461.652	-1382.078	1	6607.805	-12.07304	7.028636E-008	0.0101956	7
	13	5	50203.12	6612.563	-1242.387	1	6728.263	-10.64085	-2.115994E-009	0.0103493	7
	14	5	39890.62	6737.506	-1125.206	1	6830.818	-9.481256	-3.092367E-009	0.0103485	7
	15	6	31640.63	6841.824	-1033.708	1	6919.473	-8.591642	-3.351182E-008	0.0103588	7
	16	6	25171.88	6927.5	-969.296	1	6994.983	-7.965114	4.298531E-008	0.0101838	7
	17	6	20015.62	7007.754	-930.6088	1	7069.275	-7.564448	1.105995E-007	0.010162	7
	18	7	15890.62	7077.073	-919.2249	1	7136.521	-7.400586	-4.524389E-008	0.0104048	7
	19	7	12609.37	7138.451	-933.8809	1	7199.278	-7.453336	-4.33077E-008	0.0103686	7
	20	7	10078.13	7203.195	-977.677	1	7269.241	-7.729424	-1.480725E-008	0.0103576	7
	21	8	8015.625	7273.924	-1053.855	1	7349.87	-8.243719	-4.785598E-008	0.0103986	7
	22	8	6328.125	7330.147	-1165.205	1	7422.18	-9.032207	-1.311124E-008	0.0104182	7
	23	8	5015.625	7396.202	-1322.278	1	7513.469	-10.13614	-4.632639E-008	0.0103998	7
	24	9	3984.375	7468.468	-1520.523	1	7621.68	-11.5077	-4.654002E-008	0.0103958	7
	25	9	3170.956	7545.719	-1782.217	1	7753.333	-13.2891	1.176176E-009	0.0103251	7
	26	9	2527.573	7630.948	-2104.685	1	7915.874	-15.41934	1.10948E-007	0.0101548	7
	27	10	1976.103	7740.012	-2546.332	1	8148.104	-18.21032	6.733051E-008	0.010173	7
	28	10	1577.524	7854.695	-3052.105	1	8426.837	-21.23467	-4.539081E-008	0.0103936	7
	29	10	1265.625	7994.735	-3646.609	1	8787.124	-24.51898	2.428541E-008	0.0102283	7
	30	11	998.264	8177.794	-4447.075	1	9308.748	-28.5373	-9.625143E-010	0.0102005	6
	31	11	796.875	8383.794	-5381.565	1	9962.39	-32.69645	2.431017E-009	0.0103506	6
	32	11	627.7902	8656.701	-6602.018	1	10886.92	-37.33089	-8.703411E-009	0.0103733	6
	33	12	505.5147	8956.335	-7951.59	1	11976.8	-41.59923	-1.544939E-009	0.010256	6
	34	12	397.9953	9367.386	-9770.48	1	13535.52	-46.20662	1.195565E-009	0.0103127	6
	35	12	315.5048	9868.23	-11941.53	1	15491.35	-50.43039	7.888586E-010	0.0103145	6
	36	12	252.4038	10472.02	-14487.43	1	17875.93	-54.13929	1.446119E-009	0.0103087	6
	37	13	198.6229	11295.27	-17829.87	1	21106.57	-57.64562	7.989666E-010	0.0103058	6
	38	13	158.3615	12293.76	-21687.85	1	24929.89	-60.45326	1.061921E-009	0.0103078	6
	39	13	125.558	13633.12	-26515.72	1	29815.19	-62.78994	1.072117E-009	0.0103034	6
	40	14	100.4464	15274.35	-32113.49	1	35560.96	-64.56254	2.196275E-010	0.0103004	6
	41	14	79.00281	17677.31	-39331.74	1	43121.61	-65.79887	4.816754E-010	0.0103007	6
	42	14	63.3446	20828.44	-47969.92	1	52296.62	-66.52962	1.160462E-009	0.0102988	6
	43	15	49.86702	24865.58	-58340.03	1	63418.11	-66.91542	1.319932E-009	0.0103012	6
	44	15	39.72458	30250.71	-69548.7	1	75842.78	-66.49302	8.450887E-010	0.0103037	6
	45	16	31.6723	37082.02	-82732.25	1	90662.57	-65.85725	8.63332E-010	0.0103067	6
	46	16	24.93351	46680.99	-99170.5	1	109607.9	-64.79295	4.772262E-011	0.0103042	5
	47	16	19.86229	58383.01	-116152	1	129999.5	-63.31393	-7.724791E-010	0.0102987	5
	48	16	15.83615	71023.84	-134416	1	152026.5	-62.14856	-2.014032E-010	0.010302	5
	49	17	12.40079	89624.42	-156853.8	1	180653.4	-60.25686	7.197385E-010	0.0103078	5
	50	17	9.93114	110741.9	-177802.8	1	209469.8	-58.0839	7.803146E-010	0.0102968	5
	51	18	7.944915	132286.5	-200589.6	1	240283	-56.5956	-1.691248E-010	0.0103082	5
	52	18	6.317385	156774	-225358.1	1	274525.7	-55.17497	-1.404989E-010	0.0103076	5
	53	19	5.008013	183608.5	-253208.3	1	312772.3	-54.05307	2.295372E-010	0.0103086	5
	54	20	3.945707	213263.8	-285198.3	1	356117.3	-53.21183	-4.848107E-011	0.0102887	5
	55	22	3.158693	243484.6	-320076.1	1	402161	-52.73944	2.169684E-010	0.0102922	5
	56	23	2.504006	276359.9	-361969.3	1	455408.2	-52.63864	1.941642E-010	0.0102937	5
	57	25	1.998082	311744.8	-409817.5	1	514912.9	-52.74005	-5.28744E-011	0.0102446	5
	58	26	1.584686	349669.3	-468789.7	1	584835.4	-53.28082	7.815474E-012	0.0102666	5
	59	28	1.266892	391251.7	-534899.7	1	662718.3	-53.81644	8.372316E-011	0.0103085	5
	60	31	0.999041	441337.7	-620164.3	1	761171.9	-54.56258	1.203588E-010	0.0103252	5
