EXPLAIN
TAG	EISPOT
TITLE	LABEL	Potentiostatic EIS	Test &Identifier
DATE	LABEL	7/13/2020	Date
TIME	LABEL	21:15:00	Time
NOTES	NOTES	1	&Notes...
	
PSTAT	PSTAT	REF600-11020	Potentiostat
VDC	POTEN	0.00000E+000	T	DC &Voltage (V)
FREQINIT	QUANT	1.00000E+006	Initial Fre&q. (Hz)
FREQFINAL	QUANT	1.00000E+000	Final Fre&q. (Hz)
PTSPERDEC	QUANT	1.00000E+001	Points/&decade
VAC	QUANT	2.50000E+001	AC &Voltage (mV rms)
AREA	QUANT	4.00000E-004	&Area (cm^2)
CONDIT	TWOPARAM	F	5.00000E+000	0.00000E+000	Conditionin&g	Time(s)	E(V)
DELAY	TWOPARAM	F	3.00000E+000	0.00000E+000	Init. De&lay	Time(s)	Stab.(mV/s)
SPEED	SELECTOR	0	&Optimize for:
ZGUESS	QUANT	1.00000E+003	E&stimated Z (ohms)
OCVCURVE	TABLE	39
	Pt	T	Vf	Vm	Ach	Over
	#	s	V vs. Ref.	V	V	bits
	0	0.258333	1.38518E-001	1.38518E-001	5.33350E-004	...........
	1	0.516667	1.38518E-001	1.38492E-001	5.36016E-004	...........
	2	0.775	1.38514E-001	1.38466E-001	5.36416E-004	...........
	3	1.03333	1.38506E-001	1.38444E-001	5.29316E-004	...........
	4	1.29167	1.38490E-001	1.38423E-001	5.25783E-004	...........
	5	1.55	1.38470E-001	1.38403E-001	5.30350E-004	...........
	6	1.80833	1.38448E-001	1.38387E-001	5.28483E-004	...........
	7	2.06667	1.38426E-001	1.38368E-001	5.29183E-004	...........
	8	2.325	1.38407E-001	1.38356E-001	5.36050E-004	...........
	9	2.58333	1.38388E-001	1.38339E-001	5.36550E-004	...........
	10	2.84167	1.38372E-001	1.38326E-001	5.29117E-004	...........
	11	3.1	1.38356E-001	1.38312E-001	5.30650E-004	...........
	12	3.35833	1.38341E-001	1.38300E-001	5.29050E-004	...........
	13	3.61667	1.38327E-001	1.38288E-001	5.31083E-004	...........
	14	3.875	1.38314E-001	1.38280E-001	5.27550E-004	...........
	15	4.13333	1.38302E-001	1.38266E-001	5.25450E-004	...........
	16	4.39167	1.38290E-001	1.38256E-001	5.28350E-004	...........
	17	4.65	1.38279E-001	1.38245E-001	5.30650E-004	...........
	18	4.90833	1.38268E-001	1.38237E-001	5.25983E-004	...........
	19	5.16667	1.38257E-001	1.38227E-001	5.27950E-004	...........
	20	5.425	1.38247E-001	1.38220E-001	5.28050E-004	...........
	21	5.68333	1.38238E-001	1.38209E-001	5.30383E-004	...........
	22	5.94167	1.38229E-001	1.38205E-001	5.35183E-004	...........
	23	6.2	1.38220E-001	1.38193E-001	5.28183E-004	...........
	24	6.45833	1.38212E-001	1.38187E-001	5.29150E-004	...........
	25	6.71667	1.38203E-001	1.38182E-001	5.35650E-004	...........
	26	6.975	1.38195E-001	1.38175E-001	5.33083E-004	...........
	27	7.23333	1.38188E-001	1.38164E-001	5.35216E-004	...........
	28	7.49167	1.38181E-001	1.38160E-001	5.30550E-004	...........
	29	7.75	1.38174E-001	1.38152E-001	5.31717E-004	...........
	30	8.00833	1.38167E-001	1.38148E-001	5.33217E-004	...........
	31	8.26667	1.38160E-001	1.38139E-001	5.32750E-004	...........
	32	8.525	1.38153E-001	1.38136E-001	5.31217E-004	...........
	33	8.78333	1.38147E-001	1.38127E-001	5.24250E-004	...........
	34	9.04167	1.38141E-001	1.38125E-001	5.27183E-004	...........
	35	9.3	1.38135E-001	1.38118E-001	5.26317E-004	...........
	36	9.5583	1.38130E-001	1.38113E-001	5.29483E-004	...........
	37	9.8167	1.38124E-001	1.38105E-001	5.29750E-004	...........
	38	10.075	1.38118E-001	1.38102E-001	5.29416E-004	...........
EOC	QUANT	0.1381185	Open Circuit (V)
PSTATMODEL	IQUANT	4	Pstat Model
PSTATSECTION	LABEL	REF600-11020	Pstat Section
PSTATSERIALNO	LABEL	11020	Pstat Serial Number
CTRLMODE	IQUANT	1	Control Mode
IESTAB	IQUANT	0	I/E Stability
CASPEED	IQUANT	1	Control Amp Speed
CONVENTION	IQUANT	1	Current Convention
ICHRANGE	IQUANT	2	Ich Range
ICHRANGEMODE	TOGGLE	F	Ich Auto Range
ICHOFFSETENABLE	TOGGLE	T	Ich Offset Enable
ICHOFFSET	QUANT	0	Ich Offset (V)
ICHFILTER	IQUANT	3	Ich Filter
VCHRANGE	IQUANT	2	Vch Range
VCHRANGEMODE	TOGGLE	F	Vch Auto Range
VCHOFFSETENABLE	TOGGLE	T	Vch Offset Enable
VCHOFFSET	QUANT	0	Vch Offset (V)
VCHFILTER	IQUANT	3	Vch Filter
ACHRANGE	IQUANT	2	Ach Range
ACHOFFSETENABLE	TOGGLE	F	Ach Offset Enable
ACHOFFSET	QUANT	0	Ach Offset (V)
ACHFILTER	IQUANT	3	Ach Filter
IERANGELOWERLIMIT	IQUANT	1	I/E Range Lower Limit
IERANGEMODE	TOGGLE	F	I/E AutoRange
IERANGE	IQUANT	8	I/E Range
POSFEEDENABLE	TOGGLE	F	Positive Feedback IR Comp
POSFEEDRESISTANCE	QUANT	0	Positive Feedback Resistance (ohm)
ACHSELECT	IQUANT	0	Ach Select
CABLEID	IQUANT	14	Cable ID
DCCALDATE	LABEL	6/26/2020	DC Calibration Date
ACCALDATE	LABEL	6/26/2020	AC Calibration Date
THERMOSELECT	IQUANT	1	Thermo Select
FRAMEWORKVERSION	QUANT	6.33	Framework Version
INSTRUMENTVERSION	LABEL	3.50	Instrument Version
ZCURVE	TABLE
	Pt	Time	Freq	Zreal	Zimag	Zsig	Zmod	Zphz	Idc	Vdc	IERange
	#	s	Hz	ohm	ohm	V	ohm	°	A	V	#
	0	1	1000078	1335.15	-837.9677	1	1576.329	-32.11324	1.156891E-007	0.1402873	8
	1	1	794390.6	1453.706	-853.2561	1	1685.617	-30.41091	5.344896E-008	0.1399608	8
	2	2	630984.4	1566.267	-873.6819	1	1793.464	-29.15328	7.303639E-009	0.1398032	8
	3	2	501234.4	1675.601	-901.4571	1	1902.699	-28.27983	7.445387E-008	0.1396937	8
	4	2	398109.4	1782.768	-939.7444	1	2015.287	-27.7949	3.413011E-008	0.1396627	8
	5	3	316265.6	1890.684	-994.571	1	2136.319	-27.74607	-5.418805E-008	0.1396352	8
	6	3	251203.1	2002.652	-1063.76	1	2267.642	-27.97617	-1.705873E-008	0.1396096	8
	7	3	199546.9	2122.595	-1148.345	1	2413.319	-28.41383	1.589278E-008	0.1396276	8
	8	3	158578.1	2245.234	-1255.245	1	2572.297	-29.20828	-1.268232E-008	0.1396236	8
	9	4	125953.1	2411.49	-1352.182	1	2764.721	-29.28043	-1.338538E-008	0.1396869	7
	10	4	100078.1	2561.408	-1508.299	1	2972.503	-30.49193	1.554511E-008	0.1395682	7
	11	4	79453.13	2715.519	-1694.472	1	3200.825	-31.96398	-1.156636E-008	0.1396275	7
	12	5	63140.62	2887.218	-1916.325	1	3465.304	-33.57331	-5.240554E-009	0.1396134	7
	13	5	50203.12	3080.758	-2177.812	1	3772.789	-35.25679	-2.082393E-008	0.1396129	7
	14	5	39890.62	3298.759	-2488.117	1	4131.893	-37.02573	-2.153965E-008	0.1396072	7
	15	6	31640.63	3550.651	-2860.052	1	4559.279	-38.85146	1.57264E-008	0.1395877	7
	16	6	25171.88	3841.015	-3293.619	1	5059.775	-40.61265	1.915809E-008	0.1395778	7
	17	6	20015.62	4187.498	-3803.842	1	5657.239	-42.2514	-1.919401E-008	0.1396128	7
	18	7	15890.62	4605.532	-4405.572	1	6373.381	-43.72879	1.601079E-008	0.1395799	7
	19	7	12609.37	5120.547	-5096.8	1	7224.775	-44.86683	1.203754E-008	0.1395815	7
	20	7	10078.13	5727.85	-5855.137	1	8190.903	-45.6296	1.947621E-008	0.1395708	7
	21	8	8015.625	6481.044	-6716.422	1	9333.502	-46.02177	1.032013E-008	0.1395575	7
	22	8	6328.125	7494.228	-7611.65	1	10681.79	-45.44537	-8.542434E-010	0.1396136	6
	23	8	5015.625	8575.307	-8587.33	1	12135.82	-45.04014	-2.255079E-009	0.1396148	6
	24	9	3984.375	9793.84	-9577.12	1	13698.19	-44.359	-1.997426E-009	0.1396084	6
	25	9	3170.956	11133.91	-10573.21	1	15354.37	-43.52037	1.849793E-009	0.1395816	6
	26	9	2527.573	12540.4	-11567.96	1	17061.04	-42.69016	-1.222469E-009	0.1395748	6
	27	10	1976.103	14116.82	-12679.18	1	18974.89	-41.92896	6.26985E-010	0.1395921	6
	28	10	1577.524	15551.33	-13811.89	1	20799.34	-41.60983	-1.875516E-009	0.1396096	6
	29	10	1265.625	16922.7	-15081.58	1	22667.86	-41.70755	3.036779E-010	0.1395889	6
	30	10	998.264	18355.62	-16757.33	1	24854.32	-42.39378	-1.352574E-010	0.1395969	6
	31	11	796.875	19645.39	-18774.49	1	27173.94	-43.70144	-9.264585E-010	0.1395484	6
	32	11	627.7902	21049.16	-21490.11	1	30081.42	-45.59389	2.13518E-009	0.1395602	6
	33	11	505.5147	22323.21	-24658.91	1	33262.41	-47.8461	1.893275E-009	0.1395168	6
	34	12	397.9953	23893.96	-29060.65	1	37622.36	-50.57261	5.628255E-010	0.1395874	6
	35	12	315.5048	25641.26	-34497.1	1	42982.83	-53.37704	6.362331E-010	0.1395793	6
	36	12	252.4038	27660.84	-41008.41	1	49465.26	-55.99969	5.31216E-010	0.1395745	6
	37	13	198.6229	30417.46	-49678.52	1	58250.99	-58.52145	5.401909E-010	0.1395734	6
	38	13	158.3615	33788.87	-59753.45	1	68645.19	-60.51308	6.001905E-010	0.139571	6
	39	13	125.558	38328.11	-72336.16	1	81863.09	-62.08263	6.6952E-010	0.1395756	6
	40	14	100.4464	44159.13	-86846.41	1	97428.6	-63.04785	7.38932E-010	0.1395766	6
	41	14	79.00281	52752.69	-105301.8	1	117776.6	-63.39067	3.95673E-010	0.1395627	5
	42	14	63.3446	63124.14	-125505.6	1	140486	-63.29949	3.626363E-010	0.1395611	5
	43	15	49.86702	78006.51	-150666	1	169662.2	-62.62738	1.301415E-010	0.1395591	5
	44	15	39.72458	96958	-177319.8	1	202096.9	-61.33029	3.663023E-010	0.1395639	5
	45	15	31.6723	121099.1	-206608.5	1	239483	-59.62423	4.284431E-010	0.1395638	5
	46	16	24.93351	153363.7	-239383.2	1	284296.9	-57.35386	-1.655764E-010	0.1395631	5
	47	16	19.86229	191280.7	-270954.8	1	331669.8	-54.7798	-4.570716E-010	0.1395619	5
	48	16	15.83615	235929.6	-299909.9	1	381587.2	-51.80899	4.891356E-010	0.1395629	5
	49	17	12.40079	291696.3	-329123.3	1	439782.8	-48.44998	-1.521386E-010	0.139567	5
	50	17	9.93114	346652.7	-352190.2	1	494172	-45.45399	1.58498E-010	0.1395559	5
	51	17	7.944915	403597.3	-367916.7	1	546125.9	-42.3521	1.362731E-009	0.1395468	5
	52	18	6.317385	467860	-385374.9	1	606140.9	-39.47818	-1.161439E-010	0.139573	5
	53	18	5.008013	530768.6	-395557.4	1	661952.4	-36.69547	-2.456899E-010	0.1395544	5
	54	19	3.945707	590857.8	-401500.5	1	714363.8	-34.19695	4.269338E-010	0.1395623	5
	55	20	3.158693	648047.9	-408744.1	1	766183.9	-32.24091	-1.343E-010	0.1395693	5
	56	21	2.504006	699424.2	-417519.6	1	814565.4	-30.83499	-7.732347E-011	0.1395562	5
	57	23	1.998082	741710.7	-426616.3	1	855649.6	-29.9066	3.107042E-010	0.1395981	5
	58	24	1.584686	783883.1	-449964.2	1	903847.6	-29.85667	2.301845E-010	0.139572	5
	59	26	1.266892	822254.3	-479395.7	1	951800	-30.2433	7.550949E-011	0.1395329	4
	60	29	0.999041	864836.3	-525058.3	1	1011745	-31.26272	-2.007387E-011	0.1395016	4
