EXPLAIN
TAG	EISPOT
TITLE	LABEL	Potentiostatic EIS	Test &Identifier
DATE	LABEL	3/9/2020	Date
TIME	LABEL	20:48:45	Time
NOTES	NOTES	1	&Notes...
	
PSTAT	PSTAT	REF600-11020	Potentiostat
VDC	POTEN	0.00000E+000	T	DC &Voltage (V)
FREQINIT	QUANT	1.00000E+006	Initial Fre&q. (Hz)
FREQFINAL	QUANT	1.00000E+000	Final Fre&q. (Hz)
PTSPERDEC	QUANT	1.00000E+001	Points/&decade
VAC	QUANT	2.50000E+001	AC &Voltage (mV rms)
AREA	QUANT	4.00000E-005	&Area (cm^2)
CONDIT	TWOPARAM	F	5.00000E+000	0.00000E+000	Conditionin&g	Time(s)	E(V)
DELAY	TWOPARAM	T	3.00000E+000	0.00000E+000	Init. De&lay	Time(s)	Stab.(mV/s)
SPEED	SELECTOR	0	&Optimize for:
ZGUESS	QUANT	1.00000E+003	E&stimated Z (ohms)
OCVCURVE	TABLE	12
	Pt	T	Vf	Vm	Ach	Over
	#	s	V vs. Ref.	V	V	bits
	0	0.258333	7.05454E-002	7.05454E-002	5.91396E-004	...........
	1	0.516667	7.05452E-002	7.05357E-002	5.91596E-004	...........
	2	0.775	7.05441E-002	7.05263E-002	5.89263E-004	...........
	3	1.03333	7.05408E-002	7.05153E-002	5.90796E-004	...........
	4	1.29167	7.05348E-002	7.05053E-002	5.89363E-004	...........
	5	1.55	7.05264E-002	7.04958E-002	5.89563E-004	...........
	6	1.80833	7.05167E-002	7.04878E-002	5.90863E-004	...........
	7	2.06667	7.05068E-002	7.04771E-002	5.89496E-004	...........
	8	2.325	7.04971E-002	7.04660E-002	5.89196E-004	...........
	9	2.58333	7.04875E-002	7.04590E-002	5.91663E-004	...........
	10	2.84167	7.04778E-002	7.04491E-002	5.92930E-004	...........
	11	3.1	7.04682E-002	7.04370E-002	5.90430E-004	...........
EOC	QUANT	0.0704682	Open Circuit (V)
PSTATMODEL	IQUANT	4	Pstat Model
PSTATSECTION	LABEL	REF600-11020	Pstat Section
PSTATSERIALNO	LABEL	11020	Pstat Serial Number
CTRLMODE	IQUANT	1	Control Mode
IESTAB	IQUANT	0	I/E Stability
CASPEED	IQUANT	1	Control Amp Speed
CONVENTION	IQUANT	1	Current Convention
ICHRANGE	IQUANT	2	Ich Range
ICHRANGEMODE	TOGGLE	F	Ich Auto Range
ICHOFFSETENABLE	TOGGLE	T	Ich Offset Enable
ICHOFFSET	QUANT	0	Ich Offset (V)
ICHFILTER	IQUANT	3	Ich Filter
VCHRANGE	IQUANT	2	Vch Range
VCHRANGEMODE	TOGGLE	F	Vch Auto Range
VCHOFFSETENABLE	TOGGLE	T	Vch Offset Enable
VCHOFFSET	QUANT	0	Vch Offset (V)
VCHFILTER	IQUANT	3	Vch Filter
ACHRANGE	IQUANT	2	Ach Range
ACHOFFSETENABLE	TOGGLE	F	Ach Offset Enable
ACHOFFSET	QUANT	0	Ach Offset (V)
ACHFILTER	IQUANT	3	Ach Filter
IERANGELOWERLIMIT	IQUANT	1	I/E Range Lower Limit
IERANGEMODE	TOGGLE	F	I/E AutoRange
IERANGE	IQUANT	8	I/E Range
POSFEEDENABLE	TOGGLE	F	Positive Feedback IR Comp
POSFEEDRESISTANCE	QUANT	0	Positive Feedback Resistance (ohm)
ACHSELECT	IQUANT	0	Ach Select
CABLEID	IQUANT	14	Cable ID
DCCALDATE	LABEL	2/27/2020	DC Calibration Date
ACCALDATE	LABEL	2/27/2020	AC Calibration Date
THERMOSELECT	IQUANT	1	Thermo Select
FRAMEWORKVERSION	QUANT	6.33	Framework Version
INSTRUMENTVERSION	LABEL	3.50	Instrument Version
ZCURVE	TABLE
	Pt	Time	Freq	Zreal	Zimag	Zsig	Zmod	Zphz	Idc	Vdc	IERange
	#	s	Hz	ohm	ohm	V	ohm	°	A	V	#
	0	1	1000078	1707.371	-1897.357	1	2552.466	-48.01696	3.82488E-008	0.0729109	8
	1	2	794390.6	2070.835	-2041.62	1	2908.018	-44.59297	3.349949E-009	0.0725784	8
	2	2	630984.4	2467.209	-2141.578	1	3267.028	-40.95852	1.044501E-007	0.0723554	8
	3	2	501234.4	2875.942	-2185.647	1	3612.215	-37.23397	3.680337E-008	0.0722772	8
	4	3	398109.4	3270.318	-2177.626	1	3929	-33.6587	5.653258E-008	0.0722298	8
	5	3	316265.6	3642.523	-2131.298	1	4220.237	-30.33257	5.39479E-008	0.0721949	8
	6	3	251203.1	3988.116	-2064.577	1	4490.829	-27.3698	4.353221E-008	0.0721745	8
	7	4	199546.9	4283.755	-1987.964	1	4722.558	-24.89462	3.815772E-008	0.0721669	8
	8	4	158578.1	4553.818	-1921.457	1	4942.596	-22.87703	1.13778E-008	0.0721841	8
	9	4	125953.1	4861.06	-1780.519	1	5176.886	-20.11687	1.178865E-009	0.072113	7
	10	5	100078.1	5057.255	-1758.707	1	5354.333	-19.17559	2.012308E-009	0.0720949	7
	11	5	79453.13	5261.265	-1772.699	1	5551.88	-18.62043	1.490335E-009	0.0720947	7
	12	5	63140.62	5461.249	-1811.606	1	5753.881	-18.35172	2.148267E-009	0.0720953	7
	13	6	50203.12	5661.341	-1879.555	1	5965.192	-18.36607	2.410802E-009	0.0720966	7
	14	6	39890.62	5864.161	-1977.003	1	6188.451	-18.63066	2.12384E-009	0.0720918	7
	15	6	31640.63	6079.945	-2111.381	1	6436.122	-19.15057	1.241675E-009	0.0720816	7
	16	7	25171.88	6305.559	-2280.9	1	6705.414	-19.8865	1.801141E-009	0.0720838	7
	17	7	20015.62	6549.118	-2493.995	1	7007.92	-20.84753	1.935547E-009	0.0720895	7
	18	7	15890.62	6815.688	-2751.528	1	7350.137	-21.98418	2.690321E-009	0.0720895	7
	19	7	12609.37	7108.637	-3060.172	1	7739.339	-23.29122	2.068679E-009	0.072088	7
	20	8	10078.13	7421.659	-3415.08	1	8169.687	-24.70955	2.864566E-009	0.0720796	7
	21	8	8015.625	7773.822	-3838.417	1	8669.818	-26.27841	2.260411E-009	0.072085	7
	22	8	6328.125	8182.064	-4361.525	1	9271.951	-28.06026	3.000999E-009	0.072088	7
	23	9	5015.625	8677.135	-4898.322	1	9964.25	-29.44513	6.903838E-010	0.0721402	6
	24	9	3984.375	9170.045	-5607.559	1	10748.69	-31.44613	4.494033E-010	0.072137	6
	25	9	3170.956	9723.21	-6427.299	1	11655.52	-33.46575	4.461273E-010	0.0721384	6
	26	10	2527.573	10345.61	-7381.11	1	12708.75	-35.50609	4.597213E-010	0.0721416	6
	27	10	1976.103	11126.73	-8597.726	1	14061.47	-37.69358	5.520738E-010	0.0721377	6
	28	10	1577.524	11935.11	-9908.98	1	15512.41	-39.70076	3.379781E-010	0.0721355	6
	29	11	1265.625	12853.71	-11406.44	1	17185.01	-41.58598	2.771901E-010	0.0721369	6
	30	11	998.264	13991.17	-13294.67	1	19300.29	-43.53778	5.383668E-010	0.0721395	6
	31	11	796.875	15250.5	-15387.13	1	21664.29	-45.25552	2.490511E-010	0.072133	6
	32	12	627.7902	16822.89	-17981.21	1	24623.84	-46.90617	3.494321E-010	0.072132	6
	33	12	505.5147	18476.42	-20729.46	1	27768.48	-48.28899	2.40427E-010	0.0721293	6
	34	12	397.9953	20620.63	-24248.18	1	31830.56	-49.6222	3.691207E-010	0.0721501	6
	35	13	315.5048	23073.35	-28226.6	1	36457.11	-50.73631	3.361958E-010	0.0721472	6
	36	13	252.4038	25828.43	-32645.55	1	41627.39	-51.64974	3.428726E-010	0.0721446	6
	37	13	198.6229	29292.41	-38138.28	1	48089.22	-52.47365	3.909232E-010	0.0721451	6
	38	14	158.3615	33120.82	-44147.14	1	55190.21	-53.12141	2.734029E-010	0.0721429	6
	39	14	125.558	37697.37	-51256.63	1	63626.52	-53.66689	2.586674E-010	0.0721453	6
	40	14	100.4464	42809.37	-59122.68	1	72994.06	-54.09256	2.904945E-010	0.0721415	6
	41	15	79.00281	49238.45	-68918.27	1	84700.37	-54.4562	2.480791E-010	0.0721405	6
	42	15	63.3446	56160.19	-79311.17	1	97181.4	-54.69772	2.462969E-010	0.0721344	6
	43	15	49.86702	64985.41	-92130.7	1	112743.8	-54.80235	-2.850366E-011	0.0721424	5
	44	16	39.72458	74737.95	-106260.1	1	129911.4	-54.87939	-3.536176E-011	0.0721473	5
	45	16	31.6723	86050.59	-122275.5	1	149519.2	-54.86429	-1.186403E-010	0.0721465	5
	46	16	24.93351	99899.4	-141459	1	173177.8	-54.76998	2.370565E-010	0.0721427	5
	47	17	19.86229	115023	-162218.3	1	198859.4	-54.66096	3.318568E-010	0.0721515	5
	48	17	15.83615	132053.7	-185792	1	227940.4	-54.59627	1.832906E-011	0.0721457	5
	49	17	12.40079	152954.5	-214838	1	263724.2	-54.55092	5.996528E-010	0.0721454	5
	50	17	9.93114	173817	-245688.3	1	300956.9	-54.72176	4.758455E-010	0.0721494	5
	51	18	7.944915	197954.2	-281524.7	1	344154.1	-54.88702	-3.45716E-010	0.0721466	5
	52	18	6.317385	226158.9	-324967	1	395918.4	-55.16424	2.021975E-010	0.0721327	5
	53	19	5.008013	259343.9	-376630.8	1	457285.5	-55.44913	3.025585E-010	0.0721572	5
	54	20	3.945707	299716.2	-437895	1	530642.8	-55.6104	6.277664E-011	0.0721371	5
	55	21	3.158693	343883.7	-505273.8	1	611193.6	-55.76124	2.247373E-010	0.0721535	5
	56	22	2.504006	398369.7	-584851.6	1	707636.8	-55.7394	9.201167E-011	0.0721484	5
	57	23	1.998082	460209.1	-674466.1	1	816515.1	-55.69307	2.082459E-011	0.0721098	5
	58	25	1.584686	535214.7	-776404.4	1	943005.1	-55.41954	9.508352E-011	0.0721556	5
	59	27	1.266892	623387.4	-891298.6	1	1087670	-55.03049	8.178191E-011	0.0721738	4
	60	29	0.999041	728515.4	-1029398	1	1261108	-54.71256	1.104007E-010	0.0721704	4
