EXPLAIN
TAG	EISPOT
TITLE	LABEL	Potentiostatic EIS	Test &Identifier
DATE	LABEL	1/14/2020	Date
TIME	LABEL	14:43:22	Time
NOTES	NOTES	5	&Notes...
	
	
	
	
	
PSTAT	PSTAT	REF600-11020	Potentiostat
VDC	POTEN	0.00000E+000	T	DC &Voltage (V)
FREQINIT	QUANT	1.00000E+006	Initial Fre&q. (Hz)
FREQFINAL	QUANT	1.00000E+000	Final Fre&q. (Hz)
PTSPERDEC	QUANT	1.00000E+001	Points/&decade
VAC	QUANT	2.50000E+001	AC &Voltage (mV rms)
AREA	QUANT	1.00000E-001	&Area (cm^2)
CONDIT	TWOPARAM	T	5.00000E+000	0.00000E+000	Conditionin&g	Time(s)	E(V)
DELAY	TWOPARAM	T	5.00000E+000	0.00000E+000	Init. De&lay	Time(s)	Stab.(mV/s)
SPEED	SELECTOR	0	&Optimize for:
ZGUESS	QUANT	5.00000E+002	E&stimated Z (ohms)
OCVCURVE	TABLE	19
	Pt	T	Vf	Vm	Ach	Over
	#	s	V vs. Ref.	V	V	bits
	0	0.258333	6.24214E-004	6.24214E-004	5.51541E-004	...........
	1	0.516667	6.19788E-004	3.92536E-004	5.46641E-004	...........
	2	0.775	5.92971E-004	1.91813E-004	5.52375E-004	...........
	3	1.03333	5.18539E-004	1.13020E-005	5.56208E-004	...........
	4	1.29167	3.88928E-004	-1.50022E-004	5.55541E-004	...........
	5	1.55	2.22851E-004	-2.92206E-004	5.51341E-004	...........
	6	1.80833	4.74103E-005	-4.23081E-004	5.52708E-004	...........
	7	2.06667	-1.18992E-004	-5.43221E-004	5.53908E-004	...........
	8	2.325	-2.69629E-004	-6.54146E-004	5.52175E-004	...........
	9	2.58333	-4.04885E-004	-7.55715E-004	5.47675E-004	...........
	10	2.84167	-5.27521E-004	-8.59198E-004	5.53741E-004	...........
	11	3.1	-6.40325E-004	-9.41799E-004	5.57408E-004	...........
	12	3.35833	-7.45224E-004	-1.03594E-003	5.51475E-004	...........
	13	3.61667	-8.43491E-004	-1.12022E-003	5.59308E-004	...........
	14	3.875	-9.36564E-004	-1.20489E-003	5.50375E-004	...........
	15	4.13333	-1.02567E-003	-1.27334E-003	5.52075E-004	...........
	16	4.39167	-1.11076E-003	-1.34499E-003	5.49075E-004	...........
	17	4.65	-1.19089E-003	-1.40440E-003	5.53775E-004	...........
	18	4.90833	-1.26557E-003	-1.47735E-003	5.52341E-004	...........
EOC	QUANT	-0.0012656	Open Circuit (V)
PSTATMODEL	IQUANT	4	Pstat Model
PSTATSECTION	LABEL	REF600-11020	Pstat Section
PSTATSERIALNO	LABEL	11020	Pstat Serial Number
CTRLMODE	IQUANT	1	Control Mode
IESTAB	IQUANT	0	I/E Stability
CASPEED	IQUANT	1	Control Amp Speed
CONVENTION	IQUANT	1	Current Convention
ICHRANGE	IQUANT	2	Ich Range
ICHRANGEMODE	TOGGLE	F	Ich Auto Range
ICHOFFSETENABLE	TOGGLE	T	Ich Offset Enable
ICHOFFSET	QUANT	0	Ich Offset (V)
ICHFILTER	IQUANT	3	Ich Filter
VCHRANGE	IQUANT	2	Vch Range
VCHRANGEMODE	TOGGLE	F	Vch Auto Range
VCHOFFSETENABLE	TOGGLE	T	Vch Offset Enable
VCHOFFSET	QUANT	0	Vch Offset (V)
VCHFILTER	IQUANT	3	Vch Filter
ACHRANGE	IQUANT	2	Ach Range
ACHOFFSETENABLE	TOGGLE	F	Ach Offset Enable
ACHOFFSET	QUANT	0	Ach Offset (V)
ACHFILTER	IQUANT	1	Ach Filter
IERANGELOWERLIMIT	IQUANT	1	I/E Range Lower Limit
IERANGEMODE	TOGGLE	F	I/E AutoRange
IERANGE	IQUANT	6	I/E Range
POSFEEDENABLE	TOGGLE	F	Positive Feedback IR Comp
POSFEEDRESISTANCE	QUANT	0	Positive Feedback Resistance (ohm)
ACHSELECT	IQUANT	0	Ach Select
CABLEID	IQUANT	14	Cable ID
DCCALDATE	LABEL	12/22/2019	DC Calibration Date
ACCALDATE	LABEL	12/22/2019	AC Calibration Date
THERMOSELECT	IQUANT	1	Thermo Select
FRAMEWORKVERSION	QUANT	6.33	Framework Version
INSTRUMENTVERSION	LABEL	3.50	Instrument Version
ZCURVE	TABLE
	Pt	Time	Freq	Zreal	Zimag	Zsig	Zmod	Zphz	Idc	Vdc	IERange
	#	s	Hz	ohm	ohm	V	ohm	°	A	V	#
	0	1	1000078	1835.108	-2695.592	1	3260.957	-55.75371	-3.148488E-006	0.0009809	8
	1	2	794390.6	2119.317	-3093.512	1	3749.843	-55.58557	7.981845E-007	0.0004769	8
	2	2	630984.4	2431.435	-3534.627	1	4290.159	-55.4763	3.81497E-008	0.000221	8
	3	2	501234.4	2767.601	-4050.811	1	4905.985	-55.65827	-5.914447E-007	0.0004709	8
	4	3	398109.4	3121.094	-4652.21	1	5602.168	-56.14296	-2.090043E-007	0.0002336	8
	5	3	316265.6	3577.297	-5396.895	1	6474.838	-56.46185	-5.111141E-007	0.000385	8
	6	3	251203.1	4034.771	-6269.514	1	7455.614	-57.23653	7.341571E-007	8.7588E-005	8
	7	4	199546.9	4589.271	-7338.188	1	8655.08	-57.97832	7.078136E-007	8.74361E-005	8
	8	4	158578.1	5226.081	-8592.097	1	10056.64	-58.69024	6.218421E-008	0.0001504	8
	9	5	125953.1	6047.678	-10123.02	1	11791.95	-59.14513	7.971659E-007	-0.0014685	7
	10	5	100078.1	6990.788	-11856.47	1	13763.97	-59.47563	-7.837054E-009	0.0001669	7
	11	5	79453.13	8122.825	-13965.74	1	16156.18	-59.81664	-2.826921E-008	0.0002508	7
	12	6	63140.62	9574.59	-16468.79	1	19049.77	-59.82724	5.452723E-008	9.153391E-005	7
	13	6	50203.12	11363.91	-19267.33	1	22368.92	-59.46782	-6.569853E-009	0.000151	7
	14	6	39890.62	13537.69	-22463.24	1	26227.2	-58.92433	-7.761421E-009	0.0001549	7
	15	6	31640.63	16308.63	-26261.88	1	30913.71	-58.15972	4.899839E-009	0.0001976	7
	16	7	25171.88	19562.63	-30274.81	1	36045.26	-57.13073	4.718562E-009	0.000195	7
	17	7	20015.62	23700.75	-34786.54	1	42093.1	-55.73262	2.429122E-008	0.0001505	7
	18	7	15890.62	28627.3	-39508.29	1	48789.62	-54.0733	-2.75278E-009	0.0001909	7
	19	8	12609.37	34825.82	-44497.93	1	56505.78	-51.95188	3.301669E-009	0.0001918	6
	20	8	10078.13	41491.66	-49300.46	1	64436.75	-49.91577	-7.707856E-009	0.0002698	6
	21	8	8015.625	49238.07	-54343.79	1	73332.36	-47.82192	-7.685689E-009	0.0002757	6
	22	9	6328.125	58147.19	-59183.95	1	82968.89	-45.50626	-5.022851E-009	0.0002015	6
	23	9	5015.625	67577.05	-63653.74	1	92835.64	-43.28758	-2.991545E-009	0.0001986	6
	24	9	3984.375	78057.91	-67901.37	1	103458.4	-41.0195	6.453078E-009	0.000174	6
	25	10	3170.956	88880.78	-72369.55	1	114617.4	-39.15357	2.547706E-009	0.0002078	6
	26	10	2527.573	100143.1	-75573.53	1	125459.2	-37.04023	-4.714107E-010	0.000247	6
	27	10	1976.103	111973.1	-79717.22	1	137451.1	-35.44828	-3.809977E-009	0.0002879	6
	28	11	1577.524	126562	-82947.77	1	151321.8	-33.24052	1.014705E-008	4.58541E-005	6
	29	11	1265.625	140850.5	-82748.04	1	163358.8	-30.43375	-1.483773E-010	0.0001696	5
	30	11	998.264	155201.5	-83822.32	1	176390.7	-28.37291	4.57338E-010	0.0001767	5
	31	12	796.875	168581.2	-83822.4	1	188270.6	-26.43761	-4.125433E-010	0.0002779	5
	32	12	627.7902	182077	-83253.63	1	200207.8	-24.57197	9.925494E-010	3.214317E-005	5
	33	12	505.5147	193807.8	-82457.28	1	210619.7	-23.04777	-3.950105E-010	0.000203	5
	34	13	397.9953	205131.2	-81077.3	1	220572.7	-21.56622	1.826143E-010	0.0001641	5
	35	13	315.5048	215625.4	-80464.91	1	230149.7	-20.46406	4.020956E-011	0.0001663	5
	36	13	252.4038	224884.5	-81155.93	1	239080.2	-19.84341	8.712604E-012	0.0001621	5
	37	14	198.6229	234245.8	-82559.49	1	248369	-19.41491	7.838401E-011	0.0001629	5
	38	14	158.3615	242095.9	-85713.08	1	256821.2	-19.49631	8.323942E-011	0.0001649	5
	39	14	125.558	250616.3	-90637.27	1	266502.7	-19.8829	8.30641E-011	0.0001609	5
	40	15	100.4464	258592.8	-98459.2	1	276702.8	-20.84434	-1.667387E-011	0.0001586	5
	41	15	79.00281	266915.1	-108935.8	1	288289.2	-22.20181	-5.754928E-013	0.0001577	5
	42	15	63.3446	280896.2	-117339	1	304419.3	-22.6718	1.56998E-010	0.0001585	5
	43	16	49.86702	291681.2	-136737.1	1	322141.2	-25.1167	2.86909E-010	0.0001565	5
	44	16	39.72458	301341.9	-157346.2	1	339948.2	-27.57139	4.363836E-011	0.0001633	5
	45	16	31.6723	316714.1	-182379.5	1	365472.4	-29.93544	3.551562E-011	0.0001582	5
	46	17	24.93351	338256.6	-211910.2	1	399153.4	-32.06622	-1.215746E-010	0.0001525	5
	47	17	19.86229	362887.2	-244546.5	1	437595.8	-33.97568	-5.843737E-010	0.0001527	5
	48	17	15.83615	389018.8	-282532.8	1	480791.4	-35.98979	3.178249E-011	0.0001505	5
	49	18	12.40079	429771.2	-325919.3	1	539376.2	-37.17505	2.272717E-010	0.0001537	5
	50	18	9.93114	474666.3	-364840.6	1	598679.2	-37.54679	4.13203E-010	0.0001509	5
	51	19	7.944915	523822.8	-409877.2	1	665123.8	-38.04222	2.097753E-010	0.0001628	6
	52	19	6.317385	582343.6	-458275.9	1	741040.4	-38.20102	-1.784424E-010	0.0001642	5
	53	20	5.008013	649800.3	-507158	1	824287.3	-37.97143	1.867952E-011	0.0001578	5
	54	21	3.945707	725907.3	-560972.1	1	917404.6	-37.6964	-7.305746E-011	0.000147	5
	55	23	3.158693	805886.2	-611866.6	1	1011847	-37.20747	2.377395E-010	0.0001955	4
	56	24	2.504006	894528.4	-664957.8	1	1114608	-36.62568	1.280454E-010	0.0002043	4
	57	26	1.998082	986567	-718989.9	1	1220763	-36.08381	-5.737976E-012	0.0001659	4
	58	27	1.584686	1080812	-776890.6	1	1331058	-35.70868	4.859547E-011	0.0002094	4
	59	29	1.266892	1177784	-835668.6	1	1444132	-35.35671	1.177486E-010	0.0002352	4
	60	32	0.999041	1285079	-909373.1	1	1574289	-35.28475	1.69993E-010	0.0002441	4
