EXPLAIN
TAG	EISPOT
TITLE	LABEL	Potentiostatic EIS	Test &Identifier
DATE	LABEL	6/6/2020	Date
TIME	LABEL	13:57:55	Time
NOTES	NOTES	1	&Notes...
	
PSTAT	PSTAT	REF600-11020	Potentiostat
VDC	POTEN	0.00000E+000	T	DC &Voltage (V)
FREQINIT	QUANT	1.00000E+006	Initial Fre&q. (Hz)
FREQFINAL	QUANT	1.00000E+000	Final Fre&q. (Hz)
PTSPERDEC	QUANT	1.00000E+001	Points/&decade
VAC	QUANT	2.50000E+001	AC &Voltage (mV rms)
AREA	QUANT	2.50000E-001	&Area (cm^2)
CONDIT	TWOPARAM	F	5.00000E+000	0.00000E+000	Conditionin&g	Time(s)	E(V)
DELAY	TWOPARAM	T	3.00000E+000	0.00000E+000	Init. De&lay	Time(s)	Stab.(mV/s)
SPEED	SELECTOR	0	&Optimize for:
ZGUESS	QUANT	1.00000E+003	E&stimated Z (ohms)
OCVCURVE	TABLE	12
	Pt	T	Vf	Vm	Ach	Over
	#	s	V vs. Ref.	V	V	bits
	0	0.258333	-1.97584E-002	-1.97584E-002	5.73063E-004	...........
	1	0.516667	-1.97570E-002	-1.96838E-002	5.70697E-004	...........
	2	0.775	-1.97483E-002	-1.96169E-002	5.74730E-004	...........
	3	1.03333	-1.97241E-002	-1.95586E-002	5.79263E-004	...........
	4	1.29167	-1.96818E-002	-1.95026E-002	5.74997E-004	...........
	5	1.55	-1.96271E-002	-1.94497E-002	5.76297E-004	...........
	6	1.80833	-1.95684E-002	-1.94038E-002	5.79030E-004	...........
	7	2.06667	-1.95113E-002	-1.93608E-002	5.78730E-004	...........
	8	2.325	-1.94584E-002	-1.93188E-002	5.76730E-004	...........
	9	2.58333	-1.94100E-002	-1.92798E-002	5.72497E-004	...........
	10	2.84167	-1.93654E-002	-1.92442E-002	5.74963E-004	...........
	11	3.1	-1.93238E-002	-1.92080E-002	5.71430E-004	...........
EOC	QUANT	-0.0193238	Open Circuit (V)
PSTATMODEL	IQUANT	4	Pstat Model
PSTATSECTION	LABEL	REF600-11020	Pstat Section
PSTATSERIALNO	LABEL	11020	Pstat Serial Number
CTRLMODE	IQUANT	1	Control Mode
IESTAB	IQUANT	0	I/E Stability
CASPEED	IQUANT	1	Control Amp Speed
CONVENTION	IQUANT	1	Current Convention
ICHRANGE	IQUANT	2	Ich Range
ICHRANGEMODE	TOGGLE	F	Ich Auto Range
ICHOFFSETENABLE	TOGGLE	T	Ich Offset Enable
ICHOFFSET	QUANT	0	Ich Offset (V)
ICHFILTER	IQUANT	3	Ich Filter
VCHRANGE	IQUANT	2	Vch Range
VCHRANGEMODE	TOGGLE	F	Vch Auto Range
VCHOFFSETENABLE	TOGGLE	T	Vch Offset Enable
VCHOFFSET	QUANT	0	Vch Offset (V)
VCHFILTER	IQUANT	3	Vch Filter
ACHRANGE	IQUANT	2	Ach Range
ACHOFFSETENABLE	TOGGLE	F	Ach Offset Enable
ACHOFFSET	QUANT	0	Ach Offset (V)
ACHFILTER	IQUANT	3	Ach Filter
IERANGELOWERLIMIT	IQUANT	1	I/E Range Lower Limit
IERANGEMODE	TOGGLE	F	I/E AutoRange
IERANGE	IQUANT	7	I/E Range
POSFEEDENABLE	TOGGLE	F	Positive Feedback IR Comp
POSFEEDRESISTANCE	QUANT	0	Positive Feedback Resistance (ohm)
ACHSELECT	IQUANT	0	Ach Select
CABLEID	IQUANT	14	Cable ID
DCCALDATE	LABEL	2/27/2020	DC Calibration Date
ACCALDATE	LABEL	2/27/2020	AC Calibration Date
THERMOSELECT	IQUANT	1	Thermo Select
FRAMEWORKVERSION	QUANT	6.33	Framework Version
INSTRUMENTVERSION	LABEL	3.50	Instrument Version
ZCURVE	TABLE
	Pt	Time	Freq	Zreal	Zimag	Zsig	Zmod	Zphz	Idc	Vdc	IERange
	#	s	Hz	ohm	ohm	V	ohm	°	A	V	#
	0	1	1000078	1638.389	-1904.064	1	2511.927	-49.28901	2.239503E-008	-0.0169529	8
	1	2	794390.6	1974.534	-2083.774	1	2870.697	-46.54189	8.005814E-008	-0.0172789	8
	2	2	630984.4	2349.867	-2232.976	1	3241.613	-43.53892	7.444465E-008	-0.0174138	8
	3	2	501234.4	2751.328	-2348.415	1	3617.3	-40.48264	6.782859E-008	-0.017514	8
	4	3	398109.4	3167.258	-2426.859	1	3990.134	-37.46054	3.544887E-008	-0.0175697	8
	5	3	316265.6	3587.205	-2464.623	1	4352.287	-34.49137	6.84821E-008	-0.0175841	8
	6	3	251203.1	4004.779	-2476.594	1	4708.691	-31.73304	5.912993E-008	-0.017597	8
	7	4	199546.9	4397.5	-2467.634	1	5042.542	-29.29873	6.393568E-008	-0.0175887	8
	8	4	158578.1	4773.876	-2435.108	1	5359.072	-27.02569	6.027206E-008	-0.0176002	8
	9	4	125953.1	5186.104	-2341.781	1	5690.31	-24.30152	3.199985E-009	-0.0176705	7
	10	5	100078.1	5498.98	-2323.563	1	5969.734	-22.90621	2.465498E-009	-0.0176743	7
	11	5	79453.13	5810.798	-2325.733	1	6258.947	-21.81343	2.582832E-009	-0.0176744	7
	12	5	63140.62	6115.717	-2346.768	1	6550.52	-20.99318	2.668914E-009	-0.0176863	7
	13	6	50203.12	6411.928	-2381.987	1	6840.079	-20.37968	2.687213E-009	-0.0176813	7
	14	6	39890.62	6708.574	-2443.268	1	7139.645	-20.01166	2.681127E-009	-0.0176855	7
	15	6	31640.63	7009.903	-2532.5	1	7453.341	-19.8635	2.568422E-009	-0.0176884	7
	16	6	25171.88	7314.857	-2649.466	1	7779.898	-19.91056	2.127907E-009	-0.017686	7
	17	7	20015.62	7632.321	-2803.58	1	8130.952	-20.1698	3.151946E-009	-0.0176811	7
	18	7	15890.62	7967.747	-2993.472	1	8511.514	-20.59113	3.906589E-009	-0.0176809	7
	19	7	12609.37	8321.013	-3216.79	1	8921.154	-21.13582	2.432641E-009	-0.0176932	7
	20	8	10078.13	8748.446	-3392.551	1	9383.215	-21.19575	3.59092E-010	-0.0176358	6
	21	8	8015.625	9143.192	-3724.939	1	9872.85	-22.166	9.984304E-011	-0.0176413	6
	22	8	6328.125	9588.95	-4122.086	1	10437.41	-23.26184	3.211166E-010	-0.0176435	6
	23	9	5015.625	10072.9	-4576.711	1	11063.88	-24.4351	3.225303E-010	-0.0176413	6
	24	9	3984.375	10594.39	-5095.617	1	11756.12	-25.68631	2.553237E-010	-0.0176401	6
	25	9	3170.956	11165.32	-5690.248	1	12531.69	-27.00502	-3.453786E-010	-0.0176489	6
	26	10	2527.573	11791.68	-6373.78	1	13404.06	-28.39264	4.308221E-010	-0.0176339	6
	27	10	1976.103	12552.34	-7235.869	1	14488.58	-29.96154	-2.484883E-010	-0.0176474	6
	28	10	1577.524	13334.06	-8153.843	1	15629.53	-31.446	1.170226E-010	-0.0176436	6
	29	11	1265.625	14192.99	-9189.118	1	16908.01	-32.92066	1.160795E-010	-0.0176445	6
	30	11	998.264	15239.45	-10471.97	1	18490.62	-34.49538	6.903506E-011	-0.0176484	6
	31	11	796.875	16367.81	-11872.48	1	20220.31	-35.95546	1.738868E-010	-0.0176496	6
	32	12	627.7902	17730.29	-13563.37	1	22323.27	-37.41538	5.68727E-011	-0.0176455	6
	33	12	505.5147	19122.23	-15313.76	1	24498.39	-38.68898	-1.78657E-011	-0.0176441	6
	34	12	397.9953	20845.86	-17504.5	1	27220.53	-40.02056	1.987888E-010	-0.0176293	6
	35	13	315.5048	22700.72	-19945.13	1	30218.06	-41.30294	2.872887E-010	-0.0176321	6
	36	13	252.4038	24651.76	-22647.98	1	33475.96	-42.5742	2.66504E-010	-0.017638	6
	37	13	198.6229	26935.79	-26044.03	1	37467.7	-44.03568	2.823237E-010	-0.0176381	6
	38	14	158.3615	29306.78	-29855.38	1	41835.77	-45.53128	1.789847E-010	-0.01764	6
	39	14	125.558	32000.86	-34522.65	1	47073.01	-47.17094	1.659573E-010	-0.0176371	6
	40	14	100.4464	34915.4	-39891.62	1	53013.45	-48.80575	2.783205E-010	-0.0176435	6
	41	15	79.00281	38540.72	-46839.71	1	60657.61	-50.55172	8.546962E-011	-0.0176392	6
	42	15	63.3446	42442.72	-54473.99	1	69056.5	-52.07651	2.955061E-011	-0.0176434	6
	43	15	49.86702	47463.2	-64308.48	1	79927.06	-53.57063	2.630414E-010	-0.0176458	6
	44	16	39.72458	53192.47	-75385	1	92262.33	-54.79279	2.494451E-010	-0.0176405	6
	45	16	31.6723	60027.12	-88248.56	1	106728.9	-55.77626	-1.564707E-010	-0.0176421	5
	46	16	24.93351	68653.47	-104241.3	1	124818	-56.63104	-8.023293E-011	-0.0176433	5
	47	17	19.86229	78380.72	-122070.6	1	145068.1	-57.29574	-7.156828E-010	-0.0176419	5
	48	17	15.83615	89990.36	-142627.6	1	168644.3	-57.75027	6.160069E-010	-0.0176435	5
	49	17	12.40079	104755.8	-168425.4	1	198345.3	-58.11957	2.300032E-010	-0.0176423	5
	50	17	9.93114	120686.6	-195829.6	1	230031.5	-58.35514	4.077967E-010	-0.0176479	5
	51	18	7.944915	139114.1	-227661.5	1	266800.4	-58.5727	6.721032E-010	-0.0176476	5
	52	18	6.317385	162266.9	-265921.6	1	311520.2	-58.60822	-2.388348E-010	-0.0176221	5
	53	19	5.008013	190422.3	-311047.3	1	364706.8	-58.52515	-2.250483E-010	-0.0176389	5
	54	20	3.945707	224859.1	-364021.3	1	427870.4	-58.29601	1.634909E-010	-0.0176373	5
	55	21	3.158693	264360.2	-420924.4	1	497055	-57.86926	-1.676938E-010	-0.0176371	5
	56	22	2.504006	312612.1	-487589.7	1	579197.8	-57.33454	-8.381978E-011	-0.0176449	5
	57	23	1.998082	369016.4	-560218.8	1	670833.9	-56.62708	9.884679E-011	-0.0175976	5
	58	25	1.584686	434570.8	-642895.1	1	775993.5	-55.94292	4.759675E-011	-0.01763	5
	59	27	1.266892	510635.4	-730509.3	1	891286.9	-55.04596	-5.188594E-012	-0.0176759	5
	60	29	0.999041	604269.3	-836788.6	1	1032161	-54.16586	-6.49929E-011	-0.017696	4
