EXPLAIN
TAG	EISPOT
TITLE	LABEL	Potentiostatic EIS	Test &Identifier
DATE	LABEL	5/26/2020	Date
TIME	LABEL	18:25:56	Time
NOTES	NOTES	1	&Notes...
	
PSTAT	PSTAT	REF600-11020	Potentiostat
VDC	POTEN	0.00000E+000	T	DC &Voltage (V)
FREQINIT	QUANT	1.00000E+006	Initial Fre&q. (Hz)
FREQFINAL	QUANT	1.00000E+000	Final Fre&q. (Hz)
PTSPERDEC	QUANT	1.00000E+001	Points/&decade
VAC	QUANT	2.50000E+001	AC &Voltage (mV rms)
AREA	QUANT	5.00000E-004	&Area (cm^2)
CONDIT	TWOPARAM	F	5.00000E+000	0.00000E+000	Conditionin&g	Time(s)	E(V)
DELAY	TWOPARAM	T	3.00000E+000	0.00000E+000	Init. De&lay	Time(s)	Stab.(mV/s)
SPEED	SELECTOR	0	&Optimize for:
ZGUESS	QUANT	1.00000E+003	E&stimated Z (ohms)
OCVCURVE	TABLE	12
	Pt	T	Vf	Vm	Ach	Over
	#	s	V vs. Ref.	V	V	bits
	0	0.258333	9.72449E-002	9.72449E-002	5.75063E-004	...........
	1	0.516667	9.72445E-002	9.72274E-002	5.70230E-004	...........
	2	0.775	9.72426E-002	9.72167E-002	5.72963E-004	...........
	3	1.03333	9.72375E-002	9.72062E-002	5.72997E-004	...........
	4	1.29167	9.72290E-002	9.71953E-002	5.73997E-004	...........
	5	1.55	9.72186E-002	9.71857E-002	5.73397E-004	...........
	6	1.80833	9.72076E-002	9.71752E-002	5.70030E-004	...........
	7	2.06667	9.71969E-002	9.71706E-002	5.76197E-004	...........
	8	2.325	9.71871E-002	9.71679E-002	5.71030E-004	...........
	9	2.58333	9.71789E-002	9.71653E-002	5.66697E-004	...........
	10	2.84167	9.71728E-002	9.71585E-002	5.66163E-004	...........
	11	3.1	9.71680E-002	9.71546E-002	5.67697E-004	...........
EOC	QUANT	0.097168	Open Circuit (V)
PSTATMODEL	IQUANT	4	Pstat Model
PSTATSECTION	LABEL	REF600-11020	Pstat Section
PSTATSERIALNO	LABEL	11020	Pstat Serial Number
CTRLMODE	IQUANT	1	Control Mode
IESTAB	IQUANT	0	I/E Stability
CASPEED	IQUANT	1	Control Amp Speed
CONVENTION	IQUANT	1	Current Convention
ICHRANGE	IQUANT	2	Ich Range
ICHRANGEMODE	TOGGLE	F	Ich Auto Range
ICHOFFSETENABLE	TOGGLE	T	Ich Offset Enable
ICHOFFSET	QUANT	0	Ich Offset (V)
ICHFILTER	IQUANT	3	Ich Filter
VCHRANGE	IQUANT	2	Vch Range
VCHRANGEMODE	TOGGLE	F	Vch Auto Range
VCHOFFSETENABLE	TOGGLE	T	Vch Offset Enable
VCHOFFSET	QUANT	0	Vch Offset (V)
VCHFILTER	IQUANT	3	Vch Filter
ACHRANGE	IQUANT	2	Ach Range
ACHOFFSETENABLE	TOGGLE	F	Ach Offset Enable
ACHOFFSET	QUANT	0	Ach Offset (V)
ACHFILTER	IQUANT	3	Ach Filter
IERANGELOWERLIMIT	IQUANT	1	I/E Range Lower Limit
IERANGEMODE	TOGGLE	F	I/E AutoRange
IERANGE	IQUANT	8	I/E Range
POSFEEDENABLE	TOGGLE	F	Positive Feedback IR Comp
POSFEEDRESISTANCE	QUANT	0	Positive Feedback Resistance (ohm)
ACHSELECT	IQUANT	0	Ach Select
CABLEID	IQUANT	14	Cable ID
DCCALDATE	LABEL	2/27/2020	DC Calibration Date
ACCALDATE	LABEL	2/27/2020	AC Calibration Date
THERMOSELECT	IQUANT	1	Thermo Select
FRAMEWORKVERSION	QUANT	6.33	Framework Version
INSTRUMENTVERSION	LABEL	3.50	Instrument Version
ZCURVE	TABLE
	Pt	Time	Freq	Zreal	Zimag	Zsig	Zmod	Zphz	Idc	Vdc	IERange
	#	s	Hz	ohm	ohm	V	ohm	°	A	V	#
	0	1	1000078	1800.537	-2334.077	1	2947.855	-52.35294	-4.718112E-009	0.0997678	8
	1	1	794390.6	2180.347	-2588.808	1	3384.648	-49.89522	5.974422E-008	0.0993944	8
	2	1	630984.4	2602.376	-2823.605	1	3839.936	-47.33478	5.100269E-008	0.0992266	8
	3	2	501234.4	3059.181	-3039.824	1	4312.669	-44.81816	4.708868E-008	0.0991134	8
	4	2	398109.4	3550.236	-3248.547	1	4812.196	-42.45922	3.443684E-008	0.0990349	8
	5	2	316265.6	4056.425	-3451.393	1	5326.04	-40.39267	5.318257E-008	0.0990062	8
	6	3	251203.1	4604.007	-3640.087	1	5869.167	-38.33111	1.306036E-008	0.0990111	8
	7	3	199546.9	5193.886	-3838.413	1	6458.317	-36.46534	3.950782E-008	0.0989928	8
	8	3	158578.1	5818.517	-4017.037	1	7070.482	-34.62075	2.135274E-008	0.0989971	8
	9	4	125953.1	6600.702	-4090.635	1	7765.472	-31.78762	2.652101E-009	0.0989453	7
	10	4	100078.1	7308.161	-4192.988	1	8425.578	-29.84464	2.496556E-009	0.0989156	7
	11	4	79453.13	8077.35	-4237.762	1	9121.524	-27.68364	2.169788E-009	0.0988984	7
	12	5	63140.62	8843.924	-4191.793	1	9787.04	-25.35975	1.82708E-009	0.0989021	7
	13	5	50203.12	9586.08	-4062.341	1	10411.32	-22.96601	1.895059E-009	0.098897	7
	14	5	39890.62	10274.18	-3864.785	1	10977.04	-20.61453	2.414669E-009	0.0989011	7
	15	6	31640.63	10895.15	-3612.37	1	11478.39	-18.34334	3.161484E-009	0.0988964	7
	16	6	25171.88	11422.48	-3342.885	1	11901.59	-16.31256	3.263212E-009	0.0988895	7
	17	6	20015.62	11869.4	-3074.722	1	12261.18	-14.52301	2.83644E-009	0.0988906	7
	18	6	15890.62	12238.16	-2827.71	1	12560.6	-13.01026	3.055535E-009	0.0988982	7
	19	7	12609.37	12631.47	-2455.194	1	12867.86	-10.9995	1.332773E-010	0.0989493	6
	20	7	10078.13	12866.15	-2327.313	1	13074.95	-10.25317	2.093755E-010	0.0989441	6
	21	7	8015.625	13070.14	-2247.352	1	13261.94	-9.75635	1.843771E-010	0.098938	6
	22	8	6328.125	13258.5	-2229.74	1	13444.69	-9.54635	4.201164E-011	0.098939	6
	23	8	5015.625	13422.9	-2275.903	1	13614.48	-9.62319	3.850223E-010	0.0989393	6
	24	8	3984.375	13574.59	-2395.822	1	13784.39	-10.00923	1.096837E-010	0.0989374	6
	25	9	3170.956	13722.98	-2593.102	1	13965.82	-10.70048	2.160959E-010	0.0989335	6
	26	9	2527.573	13873.8	-2877.214	1	14169.01	-11.71619	1.82617E-011	0.0989357	6
	27	9	1976.103	14041.43	-3300.586	1	14424.14	-13.22783	1.701477E-010	0.098937	6
	28	10	1577.524	14216.74	-3810.792	1	14718.62	-15.00537	-1.658295E-010	0.0989339	6
	29	10	1265.625	14403.57	-4443.262	1	15073.33	-17.14413	-1.381734E-010	0.0989311	6
	30	10	998.264	14637.92	-5301.538	1	15568.4	-19.90929	3.518541E-011	0.0989383	6
	31	11	796.875	14900.07	-6314.732	1	16182.95	-22.9675	1.021641E-010	0.0989325	6
	32	11	627.7902	15225.16	-7642.782	1	17035.78	-26.6559	1.920722E-011	0.098936	6
	33	11	505.5147	15594.79	-9121.634	1	18066.59	-30.32402	7.464245E-012	0.0989368	6
	34	12	397.9953	16085.89	-11120.96	1	19555.86	-34.658	3.930509E-010	0.0989533	6
	35	12	315.5048	16677.49	-13506.45	1	21460.72	-39.00267	3.66019E-010	0.0989483	6
	36	12	252.4038	17374.59	-16298.15	1	23822.38	-43.16901	3.848541E-010	0.0989434	6
	37	13	198.6229	18312.31	-19958.93	1	27086.89	-47.46362	2.891613E-010	0.0989493	6
	38	13	158.3615	19422.05	-24182.13	1	31015.99	-51.23005	3.185168E-010	0.0989471	6
	39	13	125.558	20855.89	-29445.77	1	36083.54	-54.69077	2.939337E-010	0.0989495	6
	40	13	100.4464	22600.45	-35571.95	1	42144.32	-57.57039	2.211794E-010	0.0989498	6
	41	14	79.00281	25001.52	-43576.32	1	50239.14	-60.15534	3.539997E-010	0.0989435	6
	42	14	63.3446	27848.17	-52479.05	1	59410.2	-62.04721	2.902344E-010	0.0989393	6
	43	15	49.86702	31836.96	-64078.15	1	71551.39	-63.57971	4.757257E-010	0.0989408	6
	44	15	39.72458	36807.07	-77340.3	1	85652.1	-64.54973	3.910623E-011	0.0989417	6
	45	15	31.6723	43266.43	-93027.2	1	102596.5	-65.05713	-7.46866E-011	0.0989408	6
	46	16	24.93351	52298.83	-112482.5	1	124046.3	-65.0639	4.655056E-010	0.098941	5
	47	16	19.86229	63372.65	-134132.3	1	148349.5	-64.71097	1.229937E-009	0.0989484	5
	48	16	15.83615	77929.71	-159142.5	1	177198.7	-63.9097	-7.405275E-010	0.0989368	5
	49	16	12.40079	97957.3	-189286.9	1	213131.8	-62.6381	-4.464282E-010	0.0989418	5
	50	17	9.93114	120984.5	-219424.4	1	250568	-61.12889	-8.176396E-010	0.0989431	5
	51	17	7.944915	148177.2	-252261.9	1	292562	-59.57027	-7.602E-010	0.0989425	5
	52	17	6.317385	182157.1	-287830.8	1	340628.5	-57.67184	1.584018E-011	0.0989397	5
	53	18	5.008013	221525.8	-325842.6	1	394014.1	-55.78997	-2.592247E-010	0.0989312	5
	54	19	3.945707	267327.5	-366741.8	1	453832.1	-53.91074	-1.164421E-010	0.0989476	5
	55	20	3.158693	313159.8	-407442.7	1	513885.8	-52.45419	-2.195819E-010	0.0989241	5
	56	21	2.504006	365760.9	-452588.7	1	581908.6	-51.05648	1.174204E-010	0.0989285	5
	57	22	1.998082	418601.7	-501855.9	1	653518.8	-50.16827	1.372348E-010	0.0989425	5
	58	24	1.584686	478780.8	-557134.9	1	734595.4	-49.32547	-1.45135E-011	0.0988945	5
	59	26	1.266892	541312.6	-621123.4	1	823901.4	-48.92767	-4.825255E-011	0.0988841	5
	60	28	0.999041	611454.1	-699290	1	928914.8	-48.83379	-7.236143E-011	0.0989017	5
