EXPLAIN
TAG	EISPOT
TITLE	LABEL	Potentiostatic EIS	Test &Identifier
DATE	LABEL	6/26/2020	Date
TIME	LABEL	13:18:36	Time
NOTES	NOTES	1	&Notes...
	
PSTAT	PSTAT	REF600-11020	Potentiostat
VDC	POTEN	0.00000E+000	T	DC &Voltage (V)
FREQINIT	QUANT	1.00000E+006	Initial Fre&q. (Hz)
FREQFINAL	QUANT	1.00000E+000	Final Fre&q. (Hz)
PTSPERDEC	QUANT	1.00000E+001	Points/&decade
VAC	QUANT	2.50000E+001	AC &Voltage (mV rms)
AREA	QUANT	4.00000E-004	&Area (cm^2)
CONDIT	TWOPARAM	F	5.00000E+000	0.00000E+000	Conditionin&g	Time(s)	E(V)
DELAY	TWOPARAM	F	3.00000E+000	0.00000E+000	Init. De&lay	Time(s)	Stab.(mV/s)
SPEED	SELECTOR	0	&Optimize for:
ZGUESS	QUANT	1.00000E+003	E&stimated Z (ohms)
OCVCURVE	TABLE	39
	Pt	T	Vf	Vm	Ach	Over
	#	s	V vs. Ref.	V	V	bits
	0	0.258333	6.83806E-002	6.83806E-002	5.21950E-004	...........
	1	0.516667	6.83803E-002	6.83677E-002	5.23750E-004	...........
	2	0.775	6.83789E-002	6.83582E-002	5.27083E-004	...........
	3	1.03333	6.83749E-002	6.83480E-002	5.17717E-004	...........
	4	1.29167	6.83680E-002	6.83353E-002	5.22550E-004	...........
	5	1.55	6.83587E-002	6.83246E-002	5.21683E-004	...........
	6	1.80833	6.83482E-002	6.83167E-002	5.22217E-004	...........
	7	2.06667	6.83373E-002	6.83059E-002	5.18517E-004	...........
	8	2.325	6.83267E-002	6.82904E-002	5.20117E-004	...........
	9	2.58333	6.83160E-002	6.82809E-002	5.20850E-004	...........
	10	2.84167	6.83050E-002	6.82752E-002	5.23717E-004	...........
	11	3.1	6.82940E-002	6.82632E-002	5.21550E-004	...........
	12	3.35833	6.82836E-002	6.82505E-002	5.26717E-004	...........
	13	3.61667	6.82735E-002	6.82400E-002	5.22083E-004	...........
	14	3.875	6.82631E-002	6.82317E-002	5.23183E-004	...........
	15	4.13333	6.82524E-002	6.82186E-002	5.15183E-004	...........
	16	4.39167	6.82417E-002	6.82105E-002	5.22350E-004	...........
	17	4.65	6.82312E-002	6.81991E-002	5.23017E-004	...........
	18	4.90833	6.82208E-002	6.81912E-002	5.24850E-004	...........
	19	5.16667	6.82106E-002	6.81755E-002	5.20383E-004	...........
	20	5.425	6.82003E-002	6.81695E-002	5.26217E-004	...........
	21	5.68333	6.81899E-002	6.81604E-002	5.27517E-004	...........
	22	5.94167	6.81797E-002	6.81538E-002	5.17650E-004	...........
	23	6.2	6.81702E-002	6.81414E-002	5.22383E-004	...........
	24	6.45833	6.81614E-002	6.81349E-002	5.22017E-004	...........
	25	6.71667	6.81526E-002	6.81248E-002	5.22750E-004	...........
	26	6.975	6.81437E-002	6.81169E-002	5.24917E-004	...........
	27	7.23333	6.81348E-002	6.81074E-002	5.24117E-004	...........
	28	7.49167	6.81260E-002	6.80988E-002	5.21483E-004	...........
	29	7.75	6.81172E-002	6.80899E-002	5.21750E-004	...........
	30	8.00833	6.81083E-002	6.80809E-002	5.16817E-004	...........
	31	8.26667	6.80995E-002	6.80745E-002	5.21217E-004	...........
	32	8.525	6.80909E-002	6.80669E-002	5.19050E-004	...........
	33	8.78333	6.80826E-002	6.80558E-002	5.23817E-004	...........
	34	9.04167	6.80744E-002	6.80463E-002	5.23117E-004	...........
	35	9.3	6.80660E-002	6.80400E-002	5.19050E-004	...........
	36	9.5583	6.80572E-002	6.80313E-002	5.20850E-004	...........
	37	9.8167	6.80484E-002	6.80200E-002	5.17983E-004	...........
	38	10.075	6.80397E-002	6.80133E-002	5.19917E-004	...........
EOC	QUANT	0.0680397	Open Circuit (V)
PSTATMODEL	IQUANT	4	Pstat Model
PSTATSECTION	LABEL	REF600-11020	Pstat Section
PSTATSERIALNO	LABEL	11020	Pstat Serial Number
CTRLMODE	IQUANT	1	Control Mode
IESTAB	IQUANT	0	I/E Stability
CASPEED	IQUANT	1	Control Amp Speed
CONVENTION	IQUANT	1	Current Convention
ICHRANGE	IQUANT	2	Ich Range
ICHRANGEMODE	TOGGLE	F	Ich Auto Range
ICHOFFSETENABLE	TOGGLE	T	Ich Offset Enable
ICHOFFSET	QUANT	0	Ich Offset (V)
ICHFILTER	IQUANT	3	Ich Filter
VCHRANGE	IQUANT	2	Vch Range
VCHRANGEMODE	TOGGLE	F	Vch Auto Range
VCHOFFSETENABLE	TOGGLE	T	Vch Offset Enable
VCHOFFSET	QUANT	0	Vch Offset (V)
VCHFILTER	IQUANT	3	Vch Filter
ACHRANGE	IQUANT	2	Ach Range
ACHOFFSETENABLE	TOGGLE	F	Ach Offset Enable
ACHOFFSET	QUANT	0	Ach Offset (V)
ACHFILTER	IQUANT	3	Ach Filter
IERANGELOWERLIMIT	IQUANT	1	I/E Range Lower Limit
IERANGEMODE	TOGGLE	F	I/E AutoRange
IERANGE	IQUANT	8	I/E Range
POSFEEDENABLE	TOGGLE	F	Positive Feedback IR Comp
POSFEEDRESISTANCE	QUANT	0	Positive Feedback Resistance (ohm)
ACHSELECT	IQUANT	0	Ach Select
CABLEID	IQUANT	14	Cable ID
DCCALDATE	LABEL	6/26/2020	DC Calibration Date
ACCALDATE	LABEL	6/26/2020	AC Calibration Date
THERMOSELECT	IQUANT	1	Thermo Select
FRAMEWORKVERSION	QUANT	6.33	Framework Version
INSTRUMENTVERSION	LABEL	3.50	Instrument Version
ZCURVE	TABLE
	Pt	Time	Freq	Zreal	Zimag	Zsig	Zmod	Zphz	Idc	Vdc	IERange
	#	s	Hz	ohm	ohm	V	ohm	°	A	V	#
	0	1	1000078	1580.274	-1249.797	1	2014.76	-38.33955	2.635584E-007	0.0704825	8
	1	2	794390.6	1781.482	-1305.071	1	2208.368	-36.22561	-2.147061E-008	0.0701209	8
	2	2	630984.4	1986.006	-1353.148	1	2403.17	-34.26822	-7.013504E-009	0.0699682	8
	3	2	501234.4	2191.165	-1397.603	1	2598.942	-32.53117	-1.185725E-007	0.0698808	8
	4	3	398109.4	2400.705	-1440.328	1	2799.63	-30.96209	-3.905533E-008	0.0697975	8
	5	3	316265.6	2613.021	-1484.652	1	3005.34	-29.60413	-1.085694E-008	0.0697641	8
	6	3	251203.1	2820.061	-1529.939	1	3208.342	-28.4807	1.477231E-007	0.069717	8
	7	4	199546.9	3041.487	-1584.328	1	3429.393	-27.51526	-2.620091E-008	0.0697437	8
	8	4	158578.1	3263.933	-1644.381	1	3654.757	-26.73914	-6.512789E-008	0.0697535	8
	9	4	125953.1	3525.536	-1673.912	1	3902.741	-25.3982	-4.50907E-008	0.0697524	7
	10	5	100078.1	3767.216	-1746.742	1	4152.472	-24.8757	-6.612626E-009	0.069701	7
	11	5	79453.13	4011.09	-1831.998	1	4409.656	-24.54776	2.936888E-008	0.0696773	7
	12	5	63140.62	4269.317	-1923.045	1	4682.432	-24.24842	-1.737813E-008	0.069705	7
	13	5	50203.12	4540.096	-2019.74	1	4969.087	-23.98271	-3.284901E-008	0.0697394	7
	14	6	39890.62	4825.359	-2124.797	1	5272.462	-23.76579	-6.772002E-009	0.0697375	7
	15	6	31640.63	5129.268	-2238.033	1	5596.265	-23.5729	2.759987E-008	0.069685	7
	16	6	25171.88	5448.976	-2358.961	1	5937.68	-23.40867	-7.201741E-009	0.0696809	7
	17	7	20015.62	5781.888	-2484.223	1	6292.98	-23.25107	2.255537E-008	0.0696957	7
	18	7	15890.62	6137.269	-2617.919	1	6672.298	-23.1012	2.319955E-008	0.069693	7
	19	7	12609.37	6513.58	-2759.307	1	7073.931	-22.95867	-6.243703E-009	0.0697286	7
	20	8	10078.13	6899.167	-2907.858	1	7486.931	-22.85443	-6.1901E-009	0.0696822	7
	21	8	8015.625	7301.685	-3056.313	1	7915.533	-22.71304	1.094973E-008	0.0697173	7
	22	8	6328.125	7740.078	-3224.011	1	8384.691	-22.61342	-2.772585E-008	0.0697377	7
	23	9	5015.625	8179.788	-3398.099	1	8857.54	-22.55928	-1.540385E-008	0.0697386	7
	24	9	3984.375	8646.271	-3566.041	1	9352.789	-22.41306	-4.424691E-009	0.0697303	6
	25	9	3170.956	9089.227	-3781.009	1	9844.29	-22.58672	3.742906E-009	0.069624	6
	26	10	2527.573	9540.94	-4033.724	1	10358.6	-22.91769	-2.387724E-009	0.0697553	6
	27	10	1976.103	10029.11	-4358.682	1	10935.32	-23.4899	1.918762E-009	0.0696291	6
	28	10	1577.524	10474.39	-4717.753	1	11487.82	-24.2472	-4.059659E-009	0.0697587	6
	29	11	1265.625	10908.8	-5148.686	1	12062.79	-25.26617	3.75382E-009	0.0696205	6
	30	11	998.264	11392.44	-5736.422	1	12755.16	-26.72658	-2.496838E-009	0.0697476	6
	31	11	796.875	11849.17	-6429.04	1	13480.92	-28.48307	-1.339045E-009	0.0697362	6
	32	11	627.7902	12362.7	-7367.203	1	14391.39	-30.79164	4.333682E-009	0.0696511	6
	33	12	505.5147	12856.16	-8415.25	1	15365.46	-33.20753	-1.121367E-009	0.0696531	6
	34	12	397.9953	13460.28	-9854.89	1	16682.27	-36.20957	1.535352E-010	0.0697132	6
	35	12	315.5048	14132.37	-11585.93	1	18274.51	-39.34543	2.283432E-010	0.069709	6
	36	13	252.4038	14861.73	-13611.53	1	20153.03	-42.48589	1.471598E-010	0.0697045	6
	37	13	198.6229	15773.1	-16274.09	1	22663.56	-45.89562	2.040109E-010	0.0697049	6
	38	13	158.3615	16774.05	-19352.87	1	25610.6	-49.08297	1.575063E-010	0.0697034	6
	39	14	125.558	17991.61	-23207.87	1	29365	-52.21582	1.171115E-010	0.0697077	6
	40	14	100.4464	19413.12	-27733.54	1	33852.89	-55.00847	4.812999E-011	0.069703	6
	41	14	79.00281	21286.26	-33676.5	1	39839.82	-57.70382	-5.713289E-011	0.0697018	6
	42	15	63.3446	23457.65	-40353.06	1	46675.81	-59.83012	-9.474959E-012	0.0697005	6
	43	15	49.86702	26480.67	-49084.35	1	55771.85	-61.65345	-1.438795E-010	0.0697027	6
	44	15	39.72458	30234.65	-59086.68	1	66372.96	-62.90118	3.352838E-010	0.0697074	6
	45	16	31.6723	35101.75	-70943.03	1	79152.05	-63.67435	3.190593E-010	0.0697094	6
	46	16	24.93351	41828.54	-85764.05	1	95420.6	-64.00075	-4.429138E-010	0.0697019	6
	47	16	19.86229	50111.7	-102175.2	1	113802.2	-63.87441	-1.648359E-009	0.0696917	5
	48	17	15.83615	60899.35	-120996.7	1	135458.2	-63.28323	7.162586E-010	0.0696986	5
	49	17	12.40079	75660.26	-143801.8	1	162491.3	-62.24922	-2.752113E-010	0.0696966	5
	50	17	9.93114	92293.27	-166843.5	1	190669.4	-61.04983	3.605799E-010	0.0696971	5
	51	18	7.944915	111931.5	-191815.4	1	222085.1	-59.73484	6.884271E-010	0.0696957	5
	52	18	6.317385	135765.5	-219608.8	1	258186.5	-58.27502	-3.14398E-010	0.0697089	5
	53	19	5.008013	163095.4	-249632.3	1	298188.5	-56.84171	9.215034E-011	0.0697	5
	54	20	3.945707	193697.6	-283621.7	1	343453.1	-55.66913	2.979067E-010	0.0696932	5
	55	21	3.158693	224484.9	-318252.8	1	389459	-54.80214	4.339882E-011	0.0697106	5
	56	22	2.504006	258714.9	-360111.3	1	443411.3	-54.30539	-1.267947E-010	0.0696859	5
	57	23	1.998082	293027.5	-406228.4	1	500885.9	-54.1957	6.786238E-011	0.0697096	5
	58	24	1.584686	332078.7	-464470.7	1	570972.2	-54.43669	1.526576E-010	0.069726	5
	59	26	1.266892	371142.7	-531745.2	1	648459.6	-55.08608	1.059015E-010	0.0697033	5
	60	29	0.999041	417968.8	-616787.3	1	745066.8	-55.87629	8.98152E-011	0.0696776	5
