EXPLAIN
TAG	EISPOT
TITLE	LABEL	Potentiostatic EIS	Test &Identifier
DATE	LABEL	6/14/2020	Date
TIME	LABEL	21:31:11	Time
NOTES	NOTES	1	&Notes...
	
PSTAT	PSTAT	REF600-10037	Potentiostat
VDC	POTEN	0.00000E+000	T	DC &Voltage (V)
FREQINIT	QUANT	1.00000E+006	Initial Fre&q. (Hz)
FREQFINAL	QUANT	1.00000E+000	Final Fre&q. (Hz)
PTSPERDEC	QUANT	1.00000E+001	Points/&decade
VAC	QUANT	2.50000E+001	AC &Voltage (mV rms)
AREA	QUANT	2.50000E-001	&Area (cm^2)
CONDIT	TWOPARAM	F	5.00000E+000	0.00000E+000	Conditionin&g	Time(s)	E(V)
DELAY	TWOPARAM	F	3.00000E+000	0.00000E+000	Init. De&lay	Time(s)	Stab.(mV/s)
SPEED	SELECTOR	0	&Optimize for:
ZGUESS	QUANT	1.00000E+003	E&stimated Z (ohms)
OCVCURVE	TABLE	39
	Pt	T	Vf	Vm	Ach	Over
	#	s	V vs. Ref.	V	V	bits
	0	0.258333	-5.20237E-002	-5.20237E-002	5.50420E-004	...........
	1	0.516667	-5.20248E-002	-5.20819E-002	5.52654E-004	...........
	2	0.775	-5.20318E-002	-5.21446E-002	5.43820E-004	...........
	3	1.03333	-5.20516E-002	-5.21854E-002	5.51754E-004	...........
	4	1.29167	-5.20867E-002	-5.22422E-002	5.53120E-004	...........
	5	1.55	-5.21330E-002	-5.23036E-002	5.52320E-004	...........
	6	1.80833	-5.21848E-002	-5.23441E-002	5.53420E-004	...........
	7	2.06667	-5.22385E-002	-5.23984E-002	5.50487E-004	...........
	8	2.325	-5.22913E-002	-5.24302E-002	5.53020E-004	...........
	9	2.58333	-5.23412E-002	-5.24829E-002	5.54687E-004	...........
	10	2.84167	-5.23879E-002	-5.25212E-002	5.50287E-004	...........
	11	3.1	-5.24325E-002	-5.25663E-002	5.54187E-004	...........
	12	3.35833	-5.24762E-002	-5.26117E-002	5.47187E-004	...........
	13	3.61667	-5.25196E-002	-5.26479E-002	5.52787E-004	...........
	14	3.875	-5.25626E-002	-5.26868E-002	5.48987E-004	...........
	15	4.13333	-5.26044E-002	-5.27225E-002	5.55254E-004	...........
	16	4.39167	-5.26444E-002	-5.27599E-002	5.49554E-004	...........
	17	4.65	-5.26828E-002	-5.27981E-002	5.47954E-004	...........
	18	4.90833	-5.27203E-002	-5.28320E-002	5.56020E-004	...........
	19	5.16667	-5.27571E-002	-5.28646E-002	5.53954E-004	...........
	20	5.425	-5.27932E-002	-5.28987E-002	5.53687E-004	...........
	21	5.68333	-5.28282E-002	-5.29288E-002	5.50920E-004	...........
	22	5.94167	-5.28620E-002	-5.29599E-002	5.53420E-004	...........
	23	6.2	-5.28946E-002	-5.29899E-002	5.57020E-004	...........
	24	6.45833	-5.29263E-002	-5.30222E-002	5.56954E-004	...........
	25	6.71667	-5.29574E-002	-5.30491E-002	5.55187E-004	...........
	26	6.975	-5.29879E-002	-5.30770E-002	5.54920E-004	...........
	27	7.23333	-5.30178E-002	-5.31100E-002	5.55287E-004	...........
	28	7.49167	-5.30472E-002	-5.31347E-002	5.51454E-004	...........
	29	7.75	-5.30762E-002	-5.31601E-002	5.52754E-004	...........
	30	8.00833	-5.31046E-002	-5.31847E-002	5.54987E-004	...........
	31	8.26667	-5.31317E-002	-5.32091E-002	5.49220E-004	...........
	32	8.525	-5.31576E-002	-5.32319E-002	5.56287E-004	...........
	33	8.78333	-5.31826E-002	-5.32590E-002	5.57654E-004	...........
	34	9.04167	-5.32070E-002	-5.32806E-002	5.56087E-004	...........
	35	9.3	-5.32313E-002	-5.33043E-002	5.58554E-004	...........
	36	9.5583	-5.32553E-002	-5.33245E-002	5.53054E-004	...........
	37	9.8167	-5.32788E-002	-5.33511E-002	5.52720E-004	...........
	38	10.075	-5.33018E-002	-5.33702E-002	5.51387E-004	...........
EOC	QUANT	-0.0533018	Open Circuit (V)
PSTATMODEL	IQUANT	4	Pstat Model
PSTATSECTION	LABEL	REF600-10037	Pstat Section
PSTATSERIALNO	LABEL	10037	Pstat Serial Number
CTRLMODE	IQUANT	1	Control Mode
IESTAB	IQUANT	0	I/E Stability
CASPEED	IQUANT	1	Control Amp Speed
CONVENTION	IQUANT	1	Current Convention
ICHRANGE	IQUANT	2	Ich Range
ICHRANGEMODE	TOGGLE	F	Ich Auto Range
ICHOFFSETENABLE	TOGGLE	T	Ich Offset Enable
ICHOFFSET	QUANT	0	Ich Offset (V)
ICHFILTER	IQUANT	3	Ich Filter
VCHRANGE	IQUANT	2	Vch Range
VCHRANGEMODE	TOGGLE	F	Vch Auto Range
VCHOFFSETENABLE	TOGGLE	T	Vch Offset Enable
VCHOFFSET	QUANT	0	Vch Offset (V)
VCHFILTER	IQUANT	3	Vch Filter
ACHRANGE	IQUANT	2	Ach Range
ACHOFFSETENABLE	TOGGLE	F	Ach Offset Enable
ACHOFFSET	QUANT	0	Ach Offset (V)
ACHFILTER	IQUANT	3	Ach Filter
IERANGELOWERLIMIT	IQUANT	1	I/E Range Lower Limit
IERANGEMODE	TOGGLE	F	I/E AutoRange
IERANGE	IQUANT	8	I/E Range
POSFEEDENABLE	TOGGLE	F	Positive Feedback IR Comp
POSFEEDRESISTANCE	QUANT	0	Positive Feedback Resistance (ohm)
ACHSELECT	IQUANT	0	Ach Select
CABLEID	IQUANT	14	Cable ID
DCCALDATE	LABEL	6/8/2020	DC Calibration Date
ACCALDATE	LABEL	6/8/2020	AC Calibration Date
THERMOSELECT	IQUANT	1	Thermo Select
FRAMEWORKVERSION	QUANT	6.33	Framework Version
INSTRUMENTVERSION	LABEL	3.50	Instrument Version
ZCURVE	TABLE
	Pt	Time	Freq	Zreal	Zimag	Zsig	Zmod	Zphz	Idc	Vdc	IERange
	#	s	Hz	ohm	ohm	V	ohm	°	A	V	#
	0	1	1000078	1302.968	-475.9713	1	1387.182	-20.06714	1.050925E-007	-0.0441467	8
	1	1	794390.6	1371.484	-465.7869	1	1448.422	-18.75865	2.935756E-007	-0.0444435	8
	2	1	630984.4	1434.679	-458.2504	1	1506.087	-17.71399	-8.689818E-008	-0.0445959	8
	3	2	501234.4	1495.41	-453.816	1	1562.754	-16.88161	-8.201931E-008	-0.0446666	8
	4	2	398109.4	1553.781	-453.2982	1	1618.553	-16.26402	-1.789239E-007	-0.0446896	8
	5	2	316265.6	1611.765	-455.9352	1	1675.011	-15.79512	4.200949E-007	-0.0447306	8
	6	3	251203.1	1672.143	-465.4788	1	1735.723	-15.55574	-3.754949E-008	-0.0447003	8
	7	3	199546.9	1730.855	-477.9372	1	1795.629	-15.43631	8.890766E-008	-0.0446796	8
	8	3	158578.1	1794.038	-494.7576	1	1861.01	-15.41772	2.871439E-007	-0.0446698	8
	9	3	125953.1	1898.03	-448.7774	1	1950.363	-13.30292	-3.580735E-008	-0.0446899	7
	10	4	100078.1	1963.88	-475.9441	1	2020.73	-13.62292	5.313995E-008	-0.0447382	7
	11	4	79453.13	2030.554	-510.2382	1	2093.68	-14.10526	-2.285006E-008	-0.0446957	7
	12	4	63140.62	2097.864	-546.7346	1	2167.937	-14.60721	-3.066517E-008	-0.0446419	7
	13	5	50203.12	2171.215	-585.6007	1	2248.8	-15.09414	2.402509E-008	-0.044764	7
	14	5	39890.62	2247.382	-626.5197	1	2333.078	-15.57728	-1.806657E-008	-0.0446527	7
	15	5	31640.63	2327.223	-673.1401	1	2422.619	-16.1323	-2.586457E-008	-0.0447052	7
	16	6	25171.88	2407.919	-725.1403	1	2514.737	-16.75958	2.548305E-008	-0.0447019	7
	17	6	20015.62	2491.774	-786.6348	1	2612.993	-17.52052	3.751752E-008	-0.0447149	7
	18	6	15890.62	2578.89	-859.7111	1	2718.414	-18.43657	5.076463E-008	-0.0447445	7
	19	7	12609.37	2670.221	-948.5527	1	2833.696	-19.55676	4.362148E-008	-0.0447208	7
	20	7	10078.13	2763.487	-1051.198	1	2956.667	-20.82622	-1.839169E-008	-0.0446497	7
	21	7	8015.625	2865.228	-1179.2	1	3098.393	-22.36988	-3.207169E-008	-0.0446497	7
	22	8	6328.125	2981.119	-1342.621	1	3269.511	-24.24561	7.282143E-009	-0.0447521	7
	23	8	5015.625	3108.996	-1535.851	1	3467.665	-26.28948	4.37183E-008	-0.0447694	7
	24	8	3984.375	3255.324	-1764.329	1	3702.7	-28.45693	-3.90211E-008	-0.044684	7
	25	9	3170.956	3425.828	-2033.422	1	3983.855	-30.69152	2.320767E-008	-0.0447635	7
	26	9	2527.573	3622.799	-2339.88	1	4312.739	-32.85746	-4.109328E-008	-0.0446444	7
	27	9	1976.103	3869.637	-2725.893	1	4733.348	-35.16206	-4.447691E-009	-0.0446663	7
	28	9	1577.524	4125.581	-3136.079	1	5182.221	-37.24044	3.505764E-008	-0.0447683	7
	29	10	1265.625	4398.325	-3588.963	1	5676.788	-39.2139	8.733686E-009	-0.0447427	7
	30	10	998.264	4711.905	-4156.337	1	6283.088	-41.41528	3.583792E-008	-0.0447056	7
	31	10	796.875	5021.407	-4807.639	1	6951.829	-43.75409	5.163932E-008	-0.0447344	7
	32	11	627.7902	5371.675	-5637.059	1	7786.612	-46.38094	-1.782128E-008	-0.0446458	7
	33	11	505.5147	5701.654	-6579.647	1	8706.355	-49.08913	-9.550245E-009	-0.0447265	7
	34	11	397.9953	6094.604	-7841.405	1	9931.36	-52.14444	6.302516E-009	-0.0446899	7
	35	12	315.5048	6538.791	-9368.208	1	11424.5	-55.08586	5.012284E-010	-0.0446914	6
	36	12	252.4038	7020.905	-11187.17	1	13207.79	-57.8882	4.015898E-010	-0.0446957	6
	37	12	198.6229	7637.98	-13595.98	1	15594.53	-60.67349	5.259946E-010	-0.0446977	6
	38	13	158.3615	8346.67	-16399.97	1	18401.79	-63.02644	3.777355E-010	-0.0446952	6
	39	13	125.558	9235.506	-19915.79	1	21952.98	-65.12154	4.414629E-010	-0.0446919	6
	40	13	100.4464	10290.47	-24029.26	1	26139.99	-66.81709	4.931764E-010	-0.0446924	6
	41	14	79.00281	11708.51	-29440.4	1	31683.22	-68.31218	3.954792E-010	-0.0446977	6
	42	14	63.3446	13322.2	-35511.59	1	37928.27	-69.43639	3.50263E-010	-0.0446986	6
	43	14	49.86702	15549.27	-43481.33	1	46177.98	-70.32255	4.797271E-010	-0.0446978	6
	44	15	39.72458	18274.1	-52662.45	1	55742.95	-70.86301	2.080011E-010	-0.0446958	6
	45	15	31.6723	21703.12	-63710.98	1	67306.12	-71.18861	-9.083505E-011	-0.0446983	6
	46	15	24.93351	26388.09	-77811.41	1	82164.14	-71.26672	5.443145E-010	-0.0446979	6
	47	16	19.86229	32023.98	-93427.71	1	98763.7	-71.07996	-4.039909E-009	-0.0533421	6
	48	16	15.83615	38942.26	-111661.4	1	118257.2	-70.77363	-3.127319E-009	-0.0533377	5
	49	16	12.40079	49085.04	-135808.3	1	144406.5	-70.12868	-2.219916E-009	-0.0533343	5
	50	17	9.93114	60919.36	-161638	1	172736.9	-69.3492	-1.815317E-009	-0.0533352	5
	51	17	7.944915	75688.53	-191649.8	1	206054.3	-68.44938	-1.546526E-009	-0.0533353	5
	52	18	6.317385	94219.85	-226846.9	1	245635.7	-67.44466	-9.961785E-010	-0.0533309	5
	53	18	5.008013	117210.3	-267992.5	1	292503.4	-66.37716	-7.266041E-010	-0.0533295	5
	54	20	3.945707	145596.4	-316125.4	1	348042.5	-65.27084	-5.086345E-010	-0.0533355	5
	55	21	3.158693	177347.4	-367567	1	408114.7	-64.24316	-4.299687E-010	-0.0533366	5
	56	22	2.504006	217169.5	-429166.9	1	480985.3	-63.15942	-2.735623E-010	-0.0533355	5
	57	24	1.998082	260724.4	-496521.7	1	560812.8	-62.29596	-2.249745E-010	-0.0533374	5
	58	26	1.584686	312196.6	-575754.1	1	654950	-61.5317	-1.28657E-010	-0.0533381	5
	59	28	1.266892	369117.7	-663677.3	1	759417.8	-60.91848	-7.488059E-011	-0.0533364	5
	60	32	0.999041	438055.8	-771755.4	1	887411.6	-60.42034	-6.516319E-011	-0.053337	5
