EXPLAIN
TAG	EISPOT
TITLE	LABEL	Potentiostatic EIS	Test &Identifier
DATE	LABEL	7/13/2020	Date
TIME	LABEL	21:06:14	Time
NOTES	NOTES	1	&Notes...
	
PSTAT	PSTAT	REF600-11020	Potentiostat
VDC	POTEN	0.00000E+000	T	DC &Voltage (V)
FREQINIT	QUANT	1.00000E+006	Initial Fre&q. (Hz)
FREQFINAL	QUANT	1.00000E+000	Final Fre&q. (Hz)
PTSPERDEC	QUANT	1.00000E+001	Points/&decade
VAC	QUANT	2.50000E+001	AC &Voltage (mV rms)
AREA	QUANT	4.00000E-004	&Area (cm^2)
CONDIT	TWOPARAM	F	5.00000E+000	0.00000E+000	Conditionin&g	Time(s)	E(V)
DELAY	TWOPARAM	F	3.00000E+000	0.00000E+000	Init. De&lay	Time(s)	Stab.(mV/s)
SPEED	SELECTOR	0	&Optimize for:
ZGUESS	QUANT	1.00000E+003	E&stimated Z (ohms)
OCVCURVE	TABLE	39
	Pt	T	Vf	Vm	Ach	Over
	#	s	V vs. Ref.	V	V	bits
	0	0.258333	1.64643E-001	1.64643E-001	5.18283E-004	...........
	1	0.516667	1.64643E-001	1.64648E-001	5.22417E-004	...........
	2	0.775	1.64643E-001	1.64655E-001	5.15717E-004	...........
	3	1.03333	1.64645E-001	1.64660E-001	5.15883E-004	...........
	4	1.29167	1.64649E-001	1.64665E-001	5.19617E-004	...........
	5	1.55	1.64654E-001	1.64671E-001	5.19450E-004	...........
	6	1.80833	1.64659E-001	1.64677E-001	5.16883E-004	...........
	7	2.06667	1.64665E-001	1.64680E-001	5.14817E-004	...........
	8	2.325	1.64670E-001	1.64689E-001	5.21517E-004	...........
	9	2.58333	1.64676E-001	1.64695E-001	5.15517E-004	...........
	10	2.84167	1.64682E-001	1.64698E-001	5.15250E-004	...........
	11	3.1	1.64688E-001	1.64705E-001	5.14683E-004	...........
	12	3.35833	1.64693E-001	1.64710E-001	5.19583E-004	...........
	13	3.61667	1.64699E-001	1.64712E-001	5.11217E-004	...........
	14	3.875	1.64704E-001	1.64719E-001	5.13883E-004	...........
	15	4.13333	1.64709E-001	1.64721E-001	5.10684E-004	...........
	16	4.39167	1.64713E-001	1.64725E-001	5.12150E-004	...........
	17	4.65	1.64717E-001	1.64728E-001	5.17550E-004	...........
	18	4.90833	1.64721E-001	1.64736E-001	5.13717E-004	...........
	19	5.16667	1.64725E-001	1.64740E-001	5.13583E-004	...........
	20	5.425	1.64730E-001	1.64747E-001	5.13950E-004	...........
	21	5.68333	1.64735E-001	1.64752E-001	5.10317E-004	...........
	22	5.94167	1.64740E-001	1.64757E-001	5.16550E-004	...........
	23	6.2	1.64746E-001	1.64758E-001	5.22550E-004	...........
	24	6.45833	1.64751E-001	1.64762E-001	5.22383E-004	...........
	25	6.71667	1.64755E-001	1.64765E-001	5.17083E-004	...........
	26	6.975	1.64758E-001	1.64767E-001	5.15817E-004	...........
	27	7.23333	1.64761E-001	1.64769E-001	5.21883E-004	...........
	28	7.49167	1.64764E-001	1.64775E-001	5.18250E-004	...........
	29	7.75	1.64767E-001	1.64779E-001	5.17783E-004	...........
	30	8.00833	1.64770E-001	1.64786E-001	5.14483E-004	...........
	31	8.26667	1.64774E-001	1.64788E-001	5.16350E-004	...........
	32	8.525	1.64779E-001	1.64788E-001	5.15950E-004	...........
	33	8.78333	1.64783E-001	1.64792E-001	5.11850E-004	...........
	34	9.04167	1.64787E-001	1.64796E-001	5.16050E-004	...........
	35	9.3	1.64790E-001	1.64802E-001	5.13383E-004	...........
	36	9.5583	1.64793E-001	1.64803E-001	5.16483E-004	...........
	37	9.8167	1.64796E-001	1.64809E-001	5.15983E-004	...........
	38	10.075	1.64800E-001	1.64810E-001	5.12250E-004	...........
EOC	QUANT	0.1648	Open Circuit (V)
PSTATMODEL	IQUANT	4	Pstat Model
PSTATSECTION	LABEL	REF600-11020	Pstat Section
PSTATSERIALNO	LABEL	11020	Pstat Serial Number
CTRLMODE	IQUANT	1	Control Mode
IESTAB	IQUANT	0	I/E Stability
CASPEED	IQUANT	1	Control Amp Speed
CONVENTION	IQUANT	1	Current Convention
ICHRANGE	IQUANT	2	Ich Range
ICHRANGEMODE	TOGGLE	F	Ich Auto Range
ICHOFFSETENABLE	TOGGLE	T	Ich Offset Enable
ICHOFFSET	QUANT	0	Ich Offset (V)
ICHFILTER	IQUANT	3	Ich Filter
VCHRANGE	IQUANT	2	Vch Range
VCHRANGEMODE	TOGGLE	F	Vch Auto Range
VCHOFFSETENABLE	TOGGLE	T	Vch Offset Enable
VCHOFFSET	QUANT	0	Vch Offset (V)
VCHFILTER	IQUANT	3	Vch Filter
ACHRANGE	IQUANT	2	Ach Range
ACHOFFSETENABLE	TOGGLE	F	Ach Offset Enable
ACHOFFSET	QUANT	0	Ach Offset (V)
ACHFILTER	IQUANT	3	Ach Filter
IERANGELOWERLIMIT	IQUANT	1	I/E Range Lower Limit
IERANGEMODE	TOGGLE	F	I/E AutoRange
IERANGE	IQUANT	8	I/E Range
POSFEEDENABLE	TOGGLE	F	Positive Feedback IR Comp
POSFEEDRESISTANCE	QUANT	0	Positive Feedback Resistance (ohm)
ACHSELECT	IQUANT	0	Ach Select
CABLEID	IQUANT	14	Cable ID
DCCALDATE	LABEL	6/26/2020	DC Calibration Date
ACCALDATE	LABEL	6/26/2020	AC Calibration Date
THERMOSELECT	IQUANT	1	Thermo Select
FRAMEWORKVERSION	QUANT	6.33	Framework Version
INSTRUMENTVERSION	LABEL	3.50	Instrument Version
ZCURVE	TABLE
	Pt	Time	Freq	Zreal	Zimag	Zsig	Zmod	Zphz	Idc	Vdc	IERange
	#	s	Hz	ohm	ohm	V	ohm	°	A	V	#
	0	1	1000078	1455.82	-1941.654	1	2426.816	-53.13804	1.957461E-008	0.1671143	8
	1	1	794390.6	1716.436	-2163.308	1	2761.531	-51.57043	8.445366E-008	0.1667428	8
	2	1	630984.4	1997.496	-2399.62	1	3122.205	-50.22526	6.370728E-008	0.1666056	8
	3	2	501234.4	2294.202	-2659.847	1	3512.57	-49.2212	-1.161467E-008	0.1665115	8
	4	2	398109.4	2622.318	-2951.035	1	3947.804	-48.3754	1.931331E-007	0.1664682	8
	5	2	316265.6	2969.725	-3297.577	1	4437.711	-47.9945	-2.063784E-008	0.1664362	8
	6	3	251203.1	3356.054	-3678.63	1	4979.5	-47.62546	1.858278E-007	0.1664255	8
	7	3	199546.9	3792.029	-4123.305	1	5601.886	-47.39657	3.684232E-008	0.1664275	8
	8	3	158578.1	4260.846	-4641.214	1	6300.45	-47.44665	3.662883E-008	0.1664219	8
	9	4	125953.1	4899.25	-5205.83	1	7148.658	-46.73777	-1.532835E-008	0.1664109	7
	10	4	100078.1	5530.737	-5892.82	1	8081.731	-46.81545	-2.038251E-008	0.1664213	7
	11	4	79453.13	6242.772	-6681.21	1	9143.893	-46.94298	9.096364E-009	0.1664	7
	12	5	63140.62	7092.218	-7582.667	1	10382.5	-46.91417	-1.647902E-008	0.1664144	7
	13	5	50203.12	8095.1	-8595.87	1	11807.61	-46.7185	-1.720957E-008	0.1664004	7
	14	5	39890.62	9308.075	-9704.04	1	13446.51	-46.19312	-1.693798E-008	0.1664152	7
	15	6	31640.63	10779.54	-10916.41	1	15341.66	-45.36145	-2.157844E-008	0.1664123	7
	16	6	25171.88	12534.25	-12123	1	17437.73	-44.04447	-4.354171E-010	0.1664021	7
	17	6	20015.62	14624.63	-13315.32	1	19778.21	-42.31701	-1.635821E-008	0.1664115	7
	18	6	15890.62	17073.26	-14386.79	1	22326.57	-40.11917	1.845091E-008	0.1663664	7
	19	7	12609.37	20165.45	-14993.21	1	25128.5	-36.63116	1.249428E-009	0.1664064	6
	20	7	10078.13	23025.17	-15412.29	1	27707.35	-33.79705	-1.718276E-009	0.1664276	6
	21	7	8015.625	26016.23	-15394.98	1	30229.94	-30.61472	1.098955E-009	0.1664042	6
	22	8	6328.125	28986	-14931.69	1	32605.88	-27.25456	3.209222E-009	0.166331	6
	23	8	5015.625	31632.04	-14124.73	1	34642.37	-24.06231	3.806485E-009	0.1663497	6
	24	8	3984.375	33917.28	-13135.56	1	36372.03	-21.1705	-1.037881E-009	0.1663726	6
	25	9	3170.956	35801.1	-12087.46	1	37786.57	-18.65613	1.427903E-009	0.1663274	6
	26	9	2527.573	37243.51	-11025.92	1	38841.34	-16.49135	2.60258E-009	0.16636	6
	27	9	1976.103	38596.07	-10121.17	1	39901.06	-14.69399	2.679309E-009	0.1663286	6
	28	10	1577.524	39539.01	-9484.632	1	40660.69	-13.48925	-1.137275E-009	0.1663648	6
	29	10	1265.625	40298.79	-9096.52	1	41312.7	-12.72002	3.256478E-011	0.1663989	6
	30	10	998.264	41025.4	-8964.846	1	41993.47	-12.32648	3.338801E-009	0.1663312	6
	31	11	796.875	41592.86	-9126.305	1	42582.33	-12.37572	-2.162404E-009	0.166377	6
	32	11	627.7902	42129.75	-9636.85	1	43217.87	-12.8843	-2.134988E-009	0.1664112	6
	33	11	505.5147	42661.79	-10426.19	1	43917.35	-13.73342	-2.567145E-009	0.166368	6
	34	12	397.9953	43281.63	-11716.29	1	44839.39	-15.14689	4.152328E-010	0.1663835	6
	35	12	315.5048	43990.73	-13409.63	1	45989.16	-16.95272	3.826061E-010	0.1663812	6
	36	12	252.4038	44755.29	-15502.1	1	47364.03	-19.10479	2.141823E-010	0.1663788	6
	37	13	198.6229	45804.95	-18347.13	1	49342.79	-21.82852	1.985527E-010	0.166378	6
	38	13	158.3615	47025.58	-21686.55	1	51785.25	-24.7575	2.144274E-010	0.1663779	6
	39	13	125.558	48547.22	-25868.25	1	55009.08	-28.0508	3.045051E-011	0.1663834	6
	40	14	100.4464	50460.13	-30738.71	1	59085.48	-31.34845	1.583912E-010	0.1663782	6
	41	14	79.00281	53174.34	-37015.73	1	64789.47	-34.84256	2.13646E-011	0.1663756	6
	42	14	63.3446	56559.98	-43839.02	1	71560.41	-37.77887	5.240074E-011	0.1663755	6
	43	15	49.86702	61294.28	-52500.91	1	80705.23	-40.58133	-2.80354E-010	0.1663743	6
	44	15	39.72458	67238.86	-61922.86	1	91408.45	-42.64317	-1.253354E-010	0.1663777	6
	45	15	31.6723	74901.9	-72326.59	1	104122.2	-43.99789	-7.851471E-010	0.1663652	5
	46	16	24.93351	84971.38	-84318.55	1	119706.9	-44.77905	2.034242E-011	0.1663642	5
	47	16	19.86229	96906	-96427.6	1	136707.9	-44.85824	-6.980136E-010	0.1663692	5
	48	16	15.83615	110673.3	-108462.1	1	154960	-44.42186	3.412445E-010	0.1663634	5
	49	16	12.40079	127994.4	-121172	1	176253.3	-43.43159	2.393117E-009	0.1663642	5
	50	17	9.93114	144694.3	-133246.2	1	196700.3	-42.64138	1.404017E-009	0.16637	5
	51	17	7.944915	162842	-144625.4	1	217793.5	-41.60935	-1.786603E-009	0.1663704	5
	52	18	6.317385	181962.3	-157183.5	1	240451.5	-40.82125	6.472906E-010	0.1663556	5
	53	18	5.008013	201656.4	-171139.3	1	264488.1	-40.32019	7.485291E-010	0.1663642	5
	54	19	3.945707	221351.4	-186726.5	1	289591.4	-40.15014	-2.492088E-010	0.1663577	5
	55	20	3.158693	240000.9	-204836.1	1	315528.6	-40.48011	3.813858E-010	0.1663631	5
	56	21	2.504006	258800.8	-227553.3	1	344613.3	-41.32389	9.177733E-011	0.1663615	5
	57	22	1.998082	278132.1	-255387.1	1	377597.7	-42.55884	-2.127249E-010	0.166321	5
	58	24	1.584686	297446	-291292.9	1	416324	-44.40121	-5.381718E-011	0.166353	5
	59	26	1.266892	318618.7	-333639.4	1	461338.4	-46.31922	7.003127E-011	0.166385	5
	60	28	0.999041	344059.2	-390555.7	1	520490.6	-48.62164	1.177617E-010	0.1663968	5
