EXPLAIN
TAG	EISPOT
TITLE	LABEL	Potentiostatic EIS	Test &Identifier
DATE	LABEL	1/27/2020	Date
TIME	LABEL	17:09:10	Time
NOTES	NOTES	6	&Notes...
	
	
	
	
	
	
PSTAT	PSTAT	REF600-11020	Potentiostat
VDC	POTEN	0.00000E+000	T	DC &Voltage (V)
FREQINIT	QUANT	1.00000E+006	Initial Fre&q. (Hz)
FREQFINAL	QUANT	1.00000E+000	Final Fre&q. (Hz)
PTSPERDEC	QUANT	1.00000E+001	Points/&decade
VAC	QUANT	2.50000E+001	AC &Voltage (mV rms)
AREA	QUANT	1.60000E-004	&Area (cm^2)
CONDIT	TWOPARAM	F	5.00000E+000	0.00000E+000	Conditionin&g	Time(s)	E(V)
DELAY	TWOPARAM	F	5.00000E+000	0.00000E+000	Init. De&lay	Time(s)	Stab.(mV/s)
SPEED	SELECTOR	1	&Optimize for:
ZGUESS	QUANT	1.00000E+003	E&stimated Z (ohms)
OCVCURVE	TABLE	39
	Pt	T	Vf	Vm	Ach	Over
	#	s	V vs. Ref.	V	V	bits
	0	0.258333	4.13144E-002	4.13144E-002	5.74471E-004	...........
	1	0.516667	4.13169E-002	4.14428E-002	5.79037E-004	...........
	2	0.775	4.13297E-002	4.14473E-002	5.79504E-004	...........
	3	1.03333	4.13605E-002	4.15564E-002	5.78771E-004	...........
	4	1.29167	4.14104E-002	4.16809E-002	5.79637E-004	...........
	5	1.55	4.14733E-002	4.15012E-002	5.75171E-004	...........
	6	1.80833	4.15321E-002	4.16174E-002	5.75804E-004	...........
	7	2.06667	4.15697E-002	4.16465E-002	5.78171E-004	...........
	8	2.325	4.15911E-002	4.16809E-002	5.73838E-004	...........
	9	2.58333	4.16123E-002	4.16756E-002	5.75938E-004	...........
	10	2.84167	4.16368E-002	4.16648E-002	5.77904E-004	...........
	11	3.1	4.16556E-002	4.15960E-002	5.74337E-004	...........
	12	3.35833	4.16591E-002	4.16058E-002	5.83137E-004	...........
	13	3.61667	4.16488E-002	4.17029E-002	5.80771E-004	...........
	14	3.875	4.16389E-002	4.16441E-002	5.79671E-004	...........
	15	4.13333	4.16407E-002	4.16734E-002	5.72638E-004	...........
	16	4.39167	4.16497E-002	4.16319E-002	5.77504E-004	...........
	17	4.65	4.16544E-002	4.15837E-002	5.75404E-004	...........
	18	4.90833	4.16467E-002	4.15536E-002	5.80637E-004	...........
	19	5.16667	4.16254E-002	4.15432E-002	5.76138E-004	...........
	20	5.425	4.15965E-002	4.15177E-002	5.79037E-004	...........
	21	5.68333	4.15689E-002	4.15631E-002	5.77271E-004	...........
	22	5.94167	4.15500E-002	4.15348E-002	5.77171E-004	...........
	23	6.2	4.15385E-002	4.13715E-002	5.76471E-004	...........
	24	6.45833	4.15198E-002	4.13505E-002	5.73604E-004	...........
	25	6.71667	4.14803E-002	4.13278E-002	5.73138E-004	...........
	26	6.975	4.14268E-002	4.13450E-002	5.77871E-004	...........
	27	7.23333	4.13795E-002	4.13282E-002	5.79671E-004	...........
	28	7.49167	4.13457E-002	4.10988E-002	5.74271E-004	...........
	29	7.75	4.13073E-002	4.10133E-002	5.74838E-004	...........
	30	8.00833	4.12447E-002	4.11115E-002	5.80771E-004	...........
	31	8.26667	4.11743E-002	4.13449E-002	5.76604E-004	...........
	32	8.525	4.11419E-002	4.12606E-002	5.78371E-004	...........
	33	8.78333	4.11711E-002	4.15714E-002	5.76338E-004	...........
	34	9.04167	4.12505E-002	4.16088E-002	5.78471E-004	...........
	35	9.3	4.13558E-002	4.14756E-002	5.79704E-004	...........
	36	9.5583	4.14487E-002	4.13188E-002	5.75704E-004	...........
	37	9.8167	4.14845E-002	4.12574E-002	5.76071E-004	...........
	38	10.075	4.14542E-002	4.14150E-002	5.77071E-004	...........
EOC	QUANT	0.0414542	Open Circuit (V)
PSTATMODEL	IQUANT	4	Pstat Model
PSTATSECTION	LABEL	REF600-11020	Pstat Section
PSTATSERIALNO	LABEL	11020	Pstat Serial Number
CTRLMODE	IQUANT	1	Control Mode
IESTAB	IQUANT	0	I/E Stability
CASPEED	IQUANT	1	Control Amp Speed
CONVENTION	IQUANT	1	Current Convention
ICHRANGE	IQUANT	2	Ich Range
ICHRANGEMODE	TOGGLE	F	Ich Auto Range
ICHOFFSETENABLE	TOGGLE	T	Ich Offset Enable
ICHOFFSET	QUANT	0	Ich Offset (V)
ICHFILTER	IQUANT	3	Ich Filter
VCHRANGE	IQUANT	2	Vch Range
VCHRANGEMODE	TOGGLE	F	Vch Auto Range
VCHOFFSETENABLE	TOGGLE	T	Vch Offset Enable
VCHOFFSET	QUANT	0	Vch Offset (V)
VCHFILTER	IQUANT	3	Vch Filter
ACHRANGE	IQUANT	2	Ach Range
ACHOFFSETENABLE	TOGGLE	F	Ach Offset Enable
ACHOFFSET	QUANT	0	Ach Offset (V)
ACHFILTER	IQUANT	3	Ach Filter
IERANGELOWERLIMIT	IQUANT	1	I/E Range Lower Limit
IERANGEMODE	TOGGLE	F	I/E AutoRange
IERANGE	IQUANT	7	I/E Range
POSFEEDENABLE	TOGGLE	F	Positive Feedback IR Comp
POSFEEDRESISTANCE	QUANT	0	Positive Feedback Resistance (ohm)
ACHSELECT	IQUANT	0	Ach Select
CABLEID	IQUANT	14	Cable ID
DCCALDATE	LABEL	1/27/2020	DC Calibration Date
ACCALDATE	LABEL	1/27/2020	AC Calibration Date
THERMOSELECT	IQUANT	1	Thermo Select
FRAMEWORKVERSION	QUANT	6.33	Framework Version
INSTRUMENTVERSION	LABEL	3.50	Instrument Version
ZCURVE	TABLE
	Pt	Time	Freq	Zreal	Zimag	Zsig	Zmod	Zphz	Idc	Vdc	IERange
	#	s	Hz	ohm	ohm	V	ohm	°	A	V	#
	0	1	1000078	2106.021	-1434.966	1	2548.421	-34.2691	1.86075E-007	0.0436675	8
	1	3	794390.6	2348.046	-1426.322	1	2747.31	-31.27662	-1.790054E-006	0.0436683	8
	2	4	630984.4	2585.161	-1412.282	1	2945.776	-28.64793	2.724646E-007	0.043394	8
	3	5	501234.4	2805.61	-1377.207	1	3125.403	-26.14532	-1.884036E-006	0.0436131	8
	4	7	398109.4	3040.067	-1364.574	1	3332.277	-24.17356	-1.619526E-008	0.0430832	8
	5	8	316265.6	3245.382	-1317.972	1	3502.792	-22.10241	3.640091E-008	0.0431251	8
	6	9	251203.1	3437.712	-1274.189	1	3666.254	-20.33724	1.7041E-007	0.0431878	8
	7	11	199546.9	3639.822	-1211.816	1	3836.249	-18.41429	-1.63936E-006	0.0434753	8
	8	12	158578.1	3827.098	-1145.977	1	3994.99	-16.66967	-1.514201E-007	0.0430576	8
	9	14	125953.1	4019.008	-1048.438	1	4153.51	-14.62089	-7.850882E-007	0.0447363	7
	10	15	100078.1	4169.763	-981.299	1	4283.675	-13.24284	1.369639E-008	0.0430925	7
	11	16	79453.13	4301.609	-919.834	1	4398.856	-12.07006	2.92614E-009	0.0430169	7
	12	18	63140.62	4416.079	-862.2949	1	4499.479	-11.0487	1.028914E-007	0.042877	7
	13	19	50203.12	4517.027	-814.1315	1	4589.809	-10.21708	-4.598988E-008	0.0430677	7
	14	20	39890.62	4608.85	-777.1138	1	4673.906	-9.57081	5.323363E-009	0.0430079	7
	15	22	31640.63	4688.282	-752.6559	1	4748.313	-9.120431	4.382549E-008	0.0429583	7
	16	23	25171.88	4765.498	-744.0216	1	4823.229	-8.873765	4.380831E-008	0.0429619	7
	17	24	20015.62	4839.036	-750.8947	1	4896.949	-8.820493	1.608577E-008	0.0430754	7
	18	26	15890.62	4907.497	-770.7017	1	4967.646	-8.925163	6.670361E-008	0.0428788	7
	19	27	12609.37	4979.02	-811.4241	1	5044.705	-9.256044	4.054066E-008	0.0428965	7
	20	28	10078.13	5051.822	-870.5832	1	5126.288	-9.77777	-1.537164E-008	0.043051	7
	21	30	8015.625	5129.691	-948.1223	1	5216.577	-10.47182	7.750279E-009	0.0430011	7
	22	31	6328.125	5214.214	-1055.645	1	5320.001	-11.44514	-1.613111E-008	0.0430521	7
	23	32	5015.625	5305.197	-1187.44	1	5436.463	-12.61633	4.347389E-008	0.0429493	7
	24	34	3984.375	5405.851	-1349.394	1	5571.722	-14.0156	4.344263E-008	0.0429452	7
	25	35	3170.956	5517.927	-1545.746	1	5730.345	-15.64924	1.612327E-008	0.0430642	7
	26	36	2527.573	5639.795	-1778.786	1	5913.659	-17.50523	-8.631659E-009	0.0429747	7
	27	38	1976.103	5789.655	-2092.353	1	6156.139	-19.8696	-4.514965E-008	0.0430507	7
	28	39	1577.524	5946.479	-2439.442	1	6427.401	-22.30506	1.66975E-008	0.0430709	7
	29	40	1265.625	6124.651	-2844.507	1	6752.967	-24.91184	-1.562691E-008	0.0430424	7
	30	42	998.264	6340.896	-3368.005	1	7179.863	-27.97527	4.934393E-009	0.0430233	7
	31	43	796.875	6586.317	-3970.122	1	7690.348	-31.08087	-3.139109E-008	0.0430354	7
	32	45	627.7902	6888.633	-4737.894	1	8360.676	-34.51958	-9.566715E-009	0.0429645	7
	33	46	505.5147	7215.073	-5573.509	1	9117.088	-37.68542	-9.916896E-009	0.0429658	7
	34	47	397.9953	7637.297	-6683.016	1	10148.45	-41.18754	1.150945E-009	0.0429997	6
	35	49	315.5048	8129.073	-7981.833	1	11392.61	-44.47638	1.249228E-009	0.0429943	6
	36	50	252.4038	8696.209	-9478.524	1	12863.38	-47.46473	1.816872E-009	0.0429968	6
	37	51	198.6229	9434.527	-11412.51	1	14807.29	-50.42005	1.249216E-009	0.0429944	6
	38	53	158.3615	10290.81	-13614.42	1	17066.14	-52.91525	1.741923E-009	0.0429946	6
	39	54	125.558	11382.45	-16308.87	1	19888.18	-55.08765	1.061872E-009	0.0429949	6
	40	55	100.4464	12682.07	-19366.07	1	23149.07	-56.7808	2.0049E-009	0.0429935	6
	41	57	79.00281	14481.85	-23277.54	1	27414.74	-58.11268	1.533631E-009	0.042991	6
	42	58	63.3446	16438.36	-27340.88	1	31902.09	-58.98414	1.325168E-009	0.0429916	6
	43	59	49.86702	19325.66	-32920.83	1	38174.11	-59.58559	1.072245E-009	0.0429896	6
	44	61	39.72458	22387.26	-38681.97	1	44693.22	-59.93981	1.417407E-009	0.0429943	6
	45	62	31.6723	26350.26	-45405.5	1	52497.58	-59.87204	1.663785E-009	0.0429853	6
	46	64	24.93351	31142.69	-53383.47	1	61803.41	-59.7417	1.388928E-009	0.0429857	6
	47	65	19.86229	36687.8	-62053.61	1	72087.76	-59.40725	1.809683E-009	0.0429893	6
	48	66	15.83615	43254.74	-71580.8	1	83634.82	-58.85633	1.865433E-009	0.0429912	6
	49	68	12.40079	51268.58	-84573.32	1	98899.5	-58.77564	-2.001588E-011	0.0429914	6
	50	69	9.93114	59201.89	-96899.7	1	113553.6	-58.57671	6.400073E-010	0.0429937	5
	51	71	7.944915	68912.54	-111868.1	1	131390.3	-58.36626	3.808281E-010	0.0429948	5
	52	72	6.317385	80365.27	-129135.4	1	152100.4	-58.10462	8.530364E-011	0.0430069	5
	53	74	5.008013	93658.73	-149541.6	1	176450.1	-57.94085	5.143377E-010	0.0429924	5
	54	77	3.945707	109583.7	-173844.3	1	205500.4	-57.77449	2.202512E-010	0.0429885	5
	55	80	3.158693	126531.5	-199903.7	1	236583.4	-57.66774	3.970367E-010	0.0430039	5
	56	83	2.504006	146850.7	-231308.7	1	273986.9	-57.58981	4.171374E-011	0.0429809	5
	57	86	1.998082	169139	-266623.3	1	315746.8	-57.61001	-8.896409E-011	0.0429821	5
	58	89	1.584686	196081	-308028.9	1	365143.2	-57.52053	2.064804E-010	0.0430308	5
	59	92	1.266892	224440.2	-355912.8	1	420769.9	-57.76428	1.716834E-012	0.0429685	5
	60	97	0.999041	260173.6	-414924.7	1	489747.7	-57.91072	4.639095E-010	0.0430185	5
