EXPLAIN
TAG	EISPOT
TITLE	LABEL	Potentiostatic EIS	Test &Identifier
DATE	LABEL	3/9/2020	Date
TIME	LABEL	21:07:55	Time
NOTES	NOTES	1	&Notes...
	
PSTAT	PSTAT	REF600-11020	Potentiostat
VDC	POTEN	0.00000E+000	T	DC &Voltage (V)
FREQINIT	QUANT	1.00000E+006	Initial Fre&q. (Hz)
FREQFINAL	QUANT	1.00000E+000	Final Fre&q. (Hz)
PTSPERDEC	QUANT	1.00000E+001	Points/&decade
VAC	QUANT	2.50000E+001	AC &Voltage (mV rms)
AREA	QUANT	4.00000E-005	&Area (cm^2)
CONDIT	TWOPARAM	F	5.00000E+000	0.00000E+000	Conditionin&g	Time(s)	E(V)
DELAY	TWOPARAM	T	3.00000E+000	0.00000E+000	Init. De&lay	Time(s)	Stab.(mV/s)
SPEED	SELECTOR	0	&Optimize for:
ZGUESS	QUANT	1.00000E+003	E&stimated Z (ohms)
OCVCURVE	TABLE	12
	Pt	T	Vf	Vm	Ach	Over
	#	s	V vs. Ref.	V	V	bits
	0	0.258333	6.03745E-002	6.03745E-002	5.68230E-004	...........
	1	0.516667	6.03744E-002	6.03714E-002	5.70630E-004	...........
	2	0.775	6.03741E-002	6.03691E-002	5.68630E-004	...........
	3	1.03333	6.03731E-002	6.03666E-002	5.70763E-004	...........
	4	1.29167	6.03714E-002	6.03606E-002	5.69297E-004	...........
	5	1.55	6.03690E-002	6.03632E-002	5.69063E-004	...........
	6	1.80833	6.03663E-002	6.03608E-002	5.71063E-004	...........
	7	2.06667	6.03638E-002	6.03506E-002	5.73797E-004	...........
	8	2.325	6.03612E-002	6.03509E-002	5.70463E-004	...........
	9	2.58333	6.03580E-002	6.03478E-002	5.74397E-004	...........
	10	2.84167	6.03545E-002	6.03476E-002	5.74797E-004	...........
	11	3.1	6.03513E-002	6.03456E-002	5.72430E-004	...........
EOC	QUANT	0.0603513	Open Circuit (V)
PSTATMODEL	IQUANT	4	Pstat Model
PSTATSECTION	LABEL	REF600-11020	Pstat Section
PSTATSERIALNO	LABEL	11020	Pstat Serial Number
CTRLMODE	IQUANT	1	Control Mode
IESTAB	IQUANT	0	I/E Stability
CASPEED	IQUANT	1	Control Amp Speed
CONVENTION	IQUANT	1	Current Convention
ICHRANGE	IQUANT	2	Ich Range
ICHRANGEMODE	TOGGLE	F	Ich Auto Range
ICHOFFSETENABLE	TOGGLE	T	Ich Offset Enable
ICHOFFSET	QUANT	0	Ich Offset (V)
ICHFILTER	IQUANT	3	Ich Filter
VCHRANGE	IQUANT	2	Vch Range
VCHRANGEMODE	TOGGLE	F	Vch Auto Range
VCHOFFSETENABLE	TOGGLE	T	Vch Offset Enable
VCHOFFSET	QUANT	0	Vch Offset (V)
VCHFILTER	IQUANT	3	Vch Filter
ACHRANGE	IQUANT	2	Ach Range
ACHOFFSETENABLE	TOGGLE	F	Ach Offset Enable
ACHOFFSET	QUANT	0	Ach Offset (V)
ACHFILTER	IQUANT	3	Ach Filter
IERANGELOWERLIMIT	IQUANT	1	I/E Range Lower Limit
IERANGEMODE	TOGGLE	F	I/E AutoRange
IERANGE	IQUANT	8	I/E Range
POSFEEDENABLE	TOGGLE	F	Positive Feedback IR Comp
POSFEEDRESISTANCE	QUANT	0	Positive Feedback Resistance (ohm)
ACHSELECT	IQUANT	0	Ach Select
CABLEID	IQUANT	14	Cable ID
DCCALDATE	LABEL	2/27/2020	DC Calibration Date
ACCALDATE	LABEL	2/27/2020	AC Calibration Date
THERMOSELECT	IQUANT	1	Thermo Select
FRAMEWORKVERSION	QUANT	6.33	Framework Version
INSTRUMENTVERSION	LABEL	3.50	Instrument Version
ZCURVE	TABLE
	Pt	Time	Freq	Zreal	Zimag	Zsig	Zmod	Zphz	Idc	Vdc	IERange
	#	s	Hz	ohm	ohm	V	ohm	°	A	V	#
	0	1	1000078	1512.877	-2653.536	1	3054.513	-60.31098	2.974195E-008	0.0624754	8
	1	2	794390.6	1818.059	-3106.373	1	3599.29	-59.66095	3.686831E-008	0.0621556	8
	2	2	630984.4	2199.59	-3619.093	1	4235.095	-58.70986	2.970808E-008	0.0620399	8
	3	2	501234.4	2663.906	-4195.252	1	4969.561	-57.58522	3.979472E-008	0.0619568	8
	4	3	398109.4	3256.754	-4815.227	1	5813.162	-55.92775	2.462564E-009	0.0619308	8
	5	3	316265.6	3962.981	-5487.732	1	6769.079	-54.16496	5.953216E-008	0.0619019	8
	6	3	251203.1	4848.718	-6154.502	1	7835.047	-51.7678	3.423014E-008	0.0618797	8
	7	4	199546.9	5868.959	-6797.935	1	8980.902	-49.1945	5.813855E-008	0.0618856	8
	8	4	158578.1	7028.377	-7409.328	1	10212.55	-46.51145	2.900598E-008	0.0619026	8
	9	4	125953.1	8504.671	-7814.55	1	11549.75	-42.57847	6.536227E-009	0.061829	7
	10	4	100078.1	9815.06	-8212.095	1	12797.42	-39.91866	2.922081E-009	0.0618096	7
	11	5	79453.13	11177.67	-8549.403	1	14072.4	-37.4111	3.531067E-009	0.0618106	7
	12	5	63140.62	12534.33	-8795.575	1	15312.47	-35.05805	1.890841E-009	0.0618015	7
	13	5	50203.12	13871.17	-9016.155	1	16543.89	-33.02357	2.426694E-009	0.0618062	7
	14	6	39890.62	15187.7	-9233.167	1	17774.07	-31.29698	3.880647E-009	0.0618126	7
	15	6	31640.63	16485.98	-9456.488	1	19005.6	-29.83892	2.69142E-009	0.061803	7
	16	6	25171.88	17740.61	-9746.1	1	20241.43	-28.78292	2.980832E-009	0.0618072	7
	17	7	20015.62	19028.46	-10120.09	1	21552.22	-28.00582	2.630793E-009	0.0617979	7
	18	7	15890.62	20318.71	-10574.76	1	22905.79	-27.49447	3.136634E-009	0.0618044	7
	19	7	12609.37	21939.85	-10771.38	1	24441.35	-26.14875	6.100189E-010	0.0618534	6
	20	8	10078.13	23222.45	-11502.03	1	25914.84	-26.34911	5.957959E-010	0.0618512	6
	21	8	8015.625	24629.14	-12366.06	1	27559.28	-26.6608	5.845331E-010	0.0618508	6
	22	8	6328.125	26181.14	-13412.17	1	29416.63	-27.12531	6.13596E-010	0.0618557	6
	23	9	5015.625	27852.99	-14605.65	1	31450.19	-27.67178	4.479486E-010	0.0618471	6
	24	9	3984.375	29634.04	-15978.95	1	33667.53	-28.33396	4.131047E-010	0.061839	6
	25	9	3170.956	31568.85	-17517.27	1	36103.28	-29.0255	4.840479E-010	0.0618447	6
	26	10	2527.573	33668.44	-19297.81	1	38806.82	-29.82013	4.804571E-010	0.0618476	6
	27	10	1976.103	36179.61	-21492.1	1	42081.76	-30.71197	3.468453E-010	0.0618418	6
	28	10	1577.524	38744.11	-23778.68	1	45459.12	-31.53896	4.19198E-010	0.061843	6
	29	11	1265.625	41493.16	-26316.23	1	49134.78	-32.38412	1.538532E-010	0.0618377	6
	30	11	998.264	44806.48	-29399.95	1	53590.84	-33.27105	2.80659E-010	0.0618409	6
	31	11	796.875	48307.54	-32724.79	1	58348.35	-34.11474	4.33577E-010	0.0618445	6
	32	12	627.7902	52465.93	-36711.66	1	64034.52	-34.9814	5.529158E-010	0.0618507	6
	33	12	505.5147	56679.5	-40672.67	1	69762.68	-35.66286	2.60874E-010	0.0618383	6
	34	12	397.9953	61853.46	-45729.7	1	76922.4	-36.47638	4.456389E-010	0.0618514	6
	35	12	315.5048	67515.15	-51213.34	1	84741.38	-37.18199	4.888595E-010	0.0618478	6
	36	13	252.4038	73569.52	-57122.42	1	93142.07	-37.82724	4.974663E-010	0.0618492	6
	37	13	198.6229	81124.76	-63870.5	1	103250.5	-38.21378	4.448803E-011	0.0618484	5
	38	13	158.3615	88846.48	-71512.72	1	114051.6	-38.83066	3.69508E-011	0.0618515	5
	39	14	125.558	97740.5	-80285.29	1	126486.9	-39.4001	-2.958643E-011	0.061853	5
	40	14	100.4464	107364.2	-89713.65	1	139912.8	-39.88218	9.804133E-011	0.0618513	5
	41	14	79.00281	119061	-101064.9	1	156171.8	-40.32626	-6.795058E-011	0.0618534	5
	42	15	63.3446	131190.6	-112664.2	1	172928.3	-40.6554	-6.995562E-011	0.0618491	5
	43	15	49.86702	145966.9	-126549.6	1	193186.8	-40.92446	1.120431E-010	0.0618497	5
	44	16	39.72458	161700.5	-141119.8	1	214620.2	-41.11197	1.292315E-010	0.0618538	5
	45	16	31.6723	179067.8	-157090.5	1	238207.2	-41.25945	7.777347E-011	0.061855	5
	46	16	24.93351	199186.5	-175688.3	1	265596.8	-41.41324	3.940927E-010	0.0618543	5
	47	16	19.86229	219806.4	-195741.3	1	294329	-41.6856	1.02071E-009	0.0618521	5
	48	17	15.83615	243007.1	-218546.7	1	326825.8	-41.96641	-4.89034E-010	0.0618473	5
	49	17	12.40079	269961.4	-246204.3	1	365370.7	-42.36476	1.353707E-011	0.0618494	5
	50	17	9.93114	297674	-275510.9	1	405605.8	-42.78568	-2.461338E-010	0.0618545	5
	51	18	7.944915	327752.8	-309364.8	1	450697.8	-43.34684	-7.315429E-010	0.0618485	5
	52	18	6.317385	364486	-348846.9	1	504523.8	-43.74405	3.041545E-010	0.061834	5
	53	19	5.008013	407220.3	-394145.1	1	566726.3	-44.06524	2.275729E-010	0.0618477	5
	54	20	3.945707	455719.2	-446203.3	1	637791.1	-44.39552	-1.970485E-010	0.0618482	5
	55	21	3.158693	507993	-499347.5	1	712323.5	-44.50827	1.659526E-010	0.0618383	5
	56	22	2.504006	566969.9	-561796.2	1	798166.5	-44.73739	1.824578E-010	0.0618471	5
	57	23	1.998082	630793.3	-627485.4	1	889740.4	-44.84938	-2.80294E-011	0.0617987	5
	58	25	1.584686	701004.3	-707598.2	1	996043	-45.26821	-5.200713E-011	0.0618088	4
	59	27	1.266892	771558.1	-792076.3	1	1105752	-45.7518	1.504598E-011	0.0618413	4
	60	29	0.999041	853382.9	-897462.3	1	1238427	-46.44218	6.297329E-011	0.0618722	4
