EXPLAIN
TAG	EISPOT
TITLE	LABEL	Potentiostatic EIS	Test &Identifier
DATE	LABEL	6/1/2020	Date
TIME	LABEL	14:15:05	Time
NOTES	NOTES	1	&Notes...
	
PSTAT	PSTAT	REF600-11020	Potentiostat
VDC	POTEN	0.00000E+000	T	DC &Voltage (V)
FREQINIT	QUANT	1.00000E+006	Initial Fre&q. (Hz)
FREQFINAL	QUANT	1.00000E+000	Final Fre&q. (Hz)
PTSPERDEC	QUANT	1.00000E+001	Points/&decade
VAC	QUANT	2.50000E+001	AC &Voltage (mV rms)
AREA	QUANT	4.00000E-004	&Area (cm^2)
CONDIT	TWOPARAM	F	5.00000E+000	0.00000E+000	Conditionin&g	Time(s)	E(V)
DELAY	TWOPARAM	T	3.00000E+000	0.00000E+000	Init. De&lay	Time(s)	Stab.(mV/s)
SPEED	SELECTOR	0	&Optimize for:
ZGUESS	QUANT	1.00000E+003	E&stimated Z (ohms)
OCVCURVE	TABLE	12
	Pt	T	Vf	Vm	Ach	Over
	#	s	V vs. Ref.	V	V	bits
	0	0.258333	-1.11548E-001	-1.11548E-001	5.71663E-004	...........
	1	0.516667	-1.11673E-001	-1.18087E-001	5.63497E-004	...........
	2	0.775	-1.12462E-001	-1.25390E-001	5.71630E-004	...........
	3	1.03333	-1.14642E-001	-1.26144E-001	5.70563E-004	...........
	4	1.29167	-1.18149E-001	-1.26453E-001	5.76497E-004	...........
	5	1.55	-1.21863E-001	-1.27836E-001	5.74697E-004	...........
	6	1.80833	-1.24676E-001	-1.26168E-001	5.76563E-004	...........
	7	2.06667	-1.26246E-001	-1.26175E-001	5.78930E-004	...........
	8	2.325	-1.26750E-001	-1.24445E-001	5.69930E-004	...........
	9	2.58333	-1.26462E-001	-1.21949E-001	5.67697E-004	...........
	10	2.84167	-1.25649E-001	-1.25283E-001	5.66630E-004	...........
	11	3.1	-1.24783E-001	-1.26577E-001	5.72330E-004	...........
EOC	QUANT	-0.1247832	Open Circuit (V)
PSTATMODEL	IQUANT	4	Pstat Model
PSTATSECTION	LABEL	REF600-11020	Pstat Section
PSTATSERIALNO	LABEL	11020	Pstat Serial Number
CTRLMODE	IQUANT	1	Control Mode
IESTAB	IQUANT	0	I/E Stability
CASPEED	IQUANT	1	Control Amp Speed
CONVENTION	IQUANT	1	Current Convention
ICHRANGE	IQUANT	2	Ich Range
ICHRANGEMODE	TOGGLE	F	Ich Auto Range
ICHOFFSETENABLE	TOGGLE	T	Ich Offset Enable
ICHOFFSET	QUANT	0	Ich Offset (V)
ICHFILTER	IQUANT	3	Ich Filter
VCHRANGE	IQUANT	2	Vch Range
VCHRANGEMODE	TOGGLE	F	Vch Auto Range
VCHOFFSETENABLE	TOGGLE	T	Vch Offset Enable
VCHOFFSET	QUANT	0	Vch Offset (V)
VCHFILTER	IQUANT	3	Vch Filter
ACHRANGE	IQUANT	2	Ach Range
ACHOFFSETENABLE	TOGGLE	F	Ach Offset Enable
ACHOFFSET	QUANT	0	Ach Offset (V)
ACHFILTER	IQUANT	3	Ach Filter
IERANGELOWERLIMIT	IQUANT	1	I/E Range Lower Limit
IERANGEMODE	TOGGLE	F	I/E AutoRange
IERANGE	IQUANT	8	I/E Range
POSFEEDENABLE	TOGGLE	F	Positive Feedback IR Comp
POSFEEDRESISTANCE	QUANT	0	Positive Feedback Resistance (ohm)
ACHSELECT	IQUANT	0	Ach Select
CABLEID	IQUANT	14	Cable ID
DCCALDATE	LABEL	2/27/2020	DC Calibration Date
ACCALDATE	LABEL	2/27/2020	AC Calibration Date
THERMOSELECT	IQUANT	1	Thermo Select
FRAMEWORKVERSION	QUANT	6.33	Framework Version
INSTRUMENTVERSION	LABEL	3.50	Instrument Version
ZCURVE	TABLE
	Pt	Time	Freq	Zreal	Zimag	Zsig	Zmod	Zphz	Idc	Vdc	IERange
	#	s	Hz	ohm	ohm	V	ohm	°	A	V	#
	0	1	1000078	885.1714	-6660.7	1	6719.26	-82.43005	6.29602E-008	-0.1222425	8
	1	1	794390.6	994.362	-8296.938	1	8356.311	-83.16588	7.495233E-008	-0.1226037	8
	2	1	630984.4	1136.921	-10344.32	1	10406.61	-83.72792	8.097454E-008	-0.1228235	8
	3	2	501234.4	1298.822	-12894.8	1	12960.05	-84.24831	5.587036E-008	-0.1229268	8
	4	2	398109.4	1520.363	-16061.79	1	16133.59	-84.59266	4.050881E-008	-0.122958	8
	5	2	316265.6	1729.11	-20055.28	1	20129.68	-85.0723	6.480762E-008	-0.1230338	8
	6	3	251203.1	2051.912	-24885.36	1	24969.81	-85.28636	5.887244E-008	-0.1230488	8
	7	3	199546.9	2424.945	-31116.45	1	31210.79	-85.54387	6.545648E-008	-0.1230159	8
	8	3	158578.1	2899.75	-38747.78	1	38856.13	-85.72016	2.867867E-008	-0.1230231	8
	9	4	125953.1	5251.953	-48848.54	1	49130.06	-83.86341	3.251421E-009	-0.1231014	7
	10	4	100078.1	5910.688	-60619.74	1	60907.21	-84.43102	3.225083E-009	-0.1231086	7
	11	4	79453.13	6971.836	-75495.85	1	75817.09	-84.72385	2.595747E-009	-0.1231151	7
	12	4	63140.62	7960.259	-94303.49	1	94638.86	-85.17504	3.588132E-009	-0.1231225	7
	13	5	50203.12	9487.304	-117528.7	1	117911	-85.3849	3.325471E-009	-0.1231255	7
	14	5	39890.62	11476.85	-146544	1	146992.7	-85.52192	3.059825E-009	-0.123126	7
	15	5	31640.63	13159.42	-183071.3	1	183543.6	-85.88857	3.842666E-009	-0.1231268	7
	16	6	25171.88	17359.11	-227827.9	1	228488.3	-85.64283	3.219067E-009	-0.1231256	7
	17	6	20015.62	20951.58	-283608	1	284380.8	-85.77494	3.321783E-009	-0.1231268	7
	18	6	15890.62	24567.58	-354906.5	1	355755.8	-86.04015	3.931695E-009	-0.1231235	7
	19	7	12609.37	47538.08	-446000.8	1	448527.1	-83.91596	6.740876E-010	-0.1230731	6
	20	7	10078.13	56531.58	-551240.4	1	554131.6	-84.14459	5.81951E-010	-0.1230762	6
	21	7	8015.625	66590.18	-684751.8	1	687982	-84.44561	5.902489E-010	-0.123073	6
	22	8	6328.125	76716.9	-857960	1	861383.1	-84.89033	6.101334E-010	-0.1230751	6
	23	8	5015.625	90378.98	-1074098	1	1077894	-85.19023	6.135242E-010	-0.1230744	6
	24	8	3984.375	119384.1	-1342309	1	1347608	-84.91753	5.294932E-010	-0.1230857	6
	25	9	3170.956	140097.6	-1676202	1	1682046	-85.2223	6.011211E-010	-0.1230849	6
	26	9	2527.573	183083.8	-2087607	1	2095620	-84.98797	6.045012E-010	-0.1230764	6
	27	9	1976.103	252017.5	-2644646	1	2656626	-84.55653	7.074457E-010	-0.1230744	6
	28	10	1577.524	387498.7	-3265950	1	3288857	-83.2336	5.054949E-010	-0.1230854	6
	29	10	1265.625	567151	-4022145	1	4061935	-81.97381	5.602306E-011	-0.1230817	5
	30	10	998.264	761084.2	-5024949	1	5082259	-81.38738	4.609773E-011	-0.1230867	5
	31	10	796.875	1051755	-6201564	1	6290118	-80.3745	4.57507E-011	-0.1230865	5
	32	11	627.7902	1450122	-7722582	1	7857552	-79.36502	4.456849E-011	-0.1230879	5
	33	11	505.5147	2023465	-9412788	1	9.627824E+006	-77.86777	3.967358E-011	-0.1230965	5
	34	11	397.9953	2880020	-1.165511E+007	1	1.200567E+007	-76.12006	4.004994E-011	-0.1230679	5
	35	12	315.5048	4108487	-1.424552E+007	1	1.482615E+007	-73.91215	4.123941E-011	-0.1230707	5
	36	12	252.4038	5782409	-1.711742E+007	1	1.806771E+007	-71.33459	3.992956E-011	-0.1230719	5
	37	12	198.6229	8308685	-2.058359E+007	1	2.219726E+007	-68.01825	3.946391E-011	-0.1230734	5
	38	13	158.3615	1.160463E+007	-2.405619E+007	1	2.670895E+007	-64.24748	4.357001E-011	-0.1230807	5
	39	13	125.558	1.633193E+007	-2.753465E+007	1	3.201388E+007	-59.32609	3.272629E-011	-0.1230825	4
	40	13	100.4464	2.16506E+007	-3.056891E+007	1	3.74594E+007	-54.69175	3.31615E-011	-0.1230794	4
	41	14	79.00281	2.845143E+007	-3.29512E+007	1	4.353465E+007	-49.19131	3.311433E-011	-0.1230837	4
	42	14	63.3446	3.538312E+007	-3.4013E+007	1	4.908002E+007	-43.86893	3.235169E-011	-0.1230849	4
	43	14	49.86702	4.298206E+007	-3.367595E+007	1	5.460336E+007	-38.07829	3.186558E-011	-0.1230893	4
	44	15	39.72458	4.972283E+007	-3.210077E+007	1	5.918462E+007	-32.84605	3.259862E-011	-0.1230835	4
	45	15	31.6723	5.558477E+007	-2.956622E+007	1	6.295894E+007	-28.00906	3.306503E-011	-0.1230841	4
	46	15	24.93351	6.071236E+007	-2.632977E+007	1	6.617589E+007	-23.44544	3.2822E-011	-0.1230837	4
	47	16	19.86229	6.425135E+007	-2.341675E+007	1	6.838553E+007	-20.02454	3.341166E-011	-0.1230822	4
	48	16	15.83615	6.739548E+007	-1.956437E+007	1	7.017774E+007	-16.18759	3.258835E-011	-0.1230854	4
	49	16	12.40079	7.01621E+007	-1.598381E+007	1	7.195973E+007	-12.83367	3.085089E-011	-0.1230774	3
	50	17	9.93114	7.183002E+007	-1.396332E+007	1	7.317463E+007	-11.00075	2.919658E-011	-0.1230815	3
	51	17	7.944915	7.312491E+007	-1.186907E+007	1	7.40819E+007	-9.219408	2.943641E-011	-0.1230784	3
	52	17	6.317385	7.409579E+007	-1.019954E+007	1	7.47945E+007	-7.8377	2.972309E-011	-0.1230852	3
	53	18	5.008013	7.488806E+007	-8797824	1	7.540306E+007	-6.700377	2.926581E-011	-0.12309	3
	54	19	3.945707	7.557203E+007	-7539227	1	7.594717E+007	-5.697099	2.748215E-011	-0.1230804	3
	55	20	3.158693	7.605836E+007	-6697907	1	7.635271E+007	-5.03264	2.709177E-011	-0.1231021	3
	56	21	2.504006	7.666122E+007	-6018635	1	7.689712E+007	-4.489056	2.811723E-011	-0.1230957	3
	57	22	1.998082	7.71031E+007	-5505857	1	7.729943E+007	-4.084503	2.669743E-011	-0.1231112	3
	58	24	1.584686	7.757128E+007	-5144838	1	7.77417E+007	-3.794528	2.45869E-011	-0.1231433	3
	59	26	1.266892	7.795942E+007	-4885515	1	7.811234E+007	-3.585889	2.291934E-011	-0.123128	3
	60	28	0.999041	7.83914E+007	-4726979	1	7.853379E+007	-3.450741	2.146403E-011	-0.1230992	3
