EXPLAIN
TAG	EISPOT
TITLE	LABEL	Potentiostatic EIS	Test &Identifier
DATE	LABEL	2/6/2020	Date
TIME	LABEL	17:19:31	Time
NOTES	NOTES	6	&Notes...
	
	
	
	
	
	
PSTAT	PSTAT	REF600-11020	Potentiostat
VDC	POTEN	0.00000E+000	T	DC &Voltage (V)
FREQINIT	QUANT	1.00000E+006	Initial Fre&q. (Hz)
FREQFINAL	QUANT	1.00000E+000	Final Fre&q. (Hz)
PTSPERDEC	QUANT	1.00000E+001	Points/&decade
VAC	QUANT	2.50000E+001	AC &Voltage (mV rms)
AREA	QUANT	1.60000E-004	&Area (cm^2)
CONDIT	TWOPARAM	F	5.00000E+000	0.00000E+000	Conditionin&g	Time(s)	E(V)
DELAY	TWOPARAM	F	5.00000E+000	0.00000E+000	Init. De&lay	Time(s)	Stab.(mV/s)
SPEED	SELECTOR	0	&Optimize for:
ZGUESS	QUANT	1.00000E+003	E&stimated Z (ohms)
OCVCURVE	TABLE	39
	Pt	T	Vf	Vm	Ach	Over
	#	s	V vs. Ref.	V	V	bits
	0	0.258333	4.42189E-002	4.42189E-002	5.70871E-004	...........
	1	0.516667	4.42174E-002	4.41401E-002	5.73638E-004	...........
	2	0.775	4.42080E-002	4.40575E-002	5.76004E-004	...........
	3	1.03333	4.41810E-002	4.39802E-002	5.75071E-004	...........
	4	1.29167	4.41322E-002	4.39247E-002	5.69771E-004	...........
	5	1.55	4.40676E-002	4.38503E-002	5.73071E-004	...........
	6	1.80833	4.39978E-002	4.38173E-002	5.69571E-004	...........
	7	2.06667	4.39311E-002	4.37720E-002	5.70471E-004	...........
	8	2.325	4.38716E-002	4.37161E-002	5.72638E-004	...........
	9	2.58333	4.38192E-002	4.36755E-002	5.75738E-004	...........
	10	2.84167	4.37710E-002	4.36371E-002	5.71671E-004	...........
	11	3.1	4.37253E-002	4.36101E-002	5.72604E-004	...........
	12	3.35833	4.36832E-002	4.35791E-002	5.74004E-004	...........
	13	3.61667	4.36457E-002	4.35459E-002	5.71638E-004	...........
	14	3.875	4.36119E-002	4.35208E-002	5.74771E-004	...........
	15	4.13333	4.35803E-002	4.34730E-002	5.74504E-004	...........
	16	4.39167	4.35489E-002	4.34552E-002	5.74004E-004	...........
	17	4.65	4.35171E-002	4.34289E-002	5.68271E-004	...........
	18	4.90833	4.34861E-002	4.34025E-002	5.74838E-004	...........
	19	5.16667	4.34575E-002	4.33903E-002	5.78437E-004	...........
	20	5.425	4.34320E-002	4.33681E-002	5.80337E-004	...........
	21	5.68333	4.34095E-002	4.33505E-002	5.70604E-004	...........
	22	5.94167	4.33891E-002	4.33221E-002	5.73204E-004	...........
	23	6.2	4.33694E-002	4.33196E-002	5.72404E-004	...........
	24	6.45833	4.33499E-002	4.32782E-002	5.72638E-004	...........
	25	6.71667	4.33299E-002	4.32551E-002	5.72938E-004	...........
	26	6.975	4.33083E-002	4.32452E-002	5.77204E-004	...........
	27	7.23333	4.32858E-002	4.32324E-002	5.71971E-004	...........
	28	7.49167	4.32648E-002	4.32092E-002	5.71804E-004	...........
	29	7.75	4.32462E-002	4.31871E-002	5.75438E-004	...........
	30	8.00833	4.32284E-002	4.31649E-002	5.71504E-004	...........
	31	8.26667	4.32092E-002	4.31413E-002	5.73438E-004	...........
	32	8.525	4.31884E-002	4.31195E-002	5.73737E-004	...........
	33	8.78333	4.31664E-002	4.30992E-002	5.75037E-004	...........
	34	9.04167	4.31443E-002	4.30845E-002	5.73004E-004	...........
	35	9.3	4.31230E-002	4.30655E-002	5.75071E-004	...........
	36	9.5583	4.31031E-002	4.30426E-002	5.71038E-004	...........
	37	9.8167	4.30841E-002	4.30211E-002	5.74504E-004	...........
	38	10.075	4.30646E-002	4.29988E-002	5.75471E-004	...........
EOC	QUANT	0.0430646	Open Circuit (V)
PSTATMODEL	IQUANT	4	Pstat Model
PSTATSECTION	LABEL	REF600-11020	Pstat Section
PSTATSERIALNO	LABEL	11020	Pstat Serial Number
CTRLMODE	IQUANT	1	Control Mode
IESTAB	IQUANT	0	I/E Stability
CASPEED	IQUANT	1	Control Amp Speed
CONVENTION	IQUANT	1	Current Convention
ICHRANGE	IQUANT	2	Ich Range
ICHRANGEMODE	TOGGLE	F	Ich Auto Range
ICHOFFSETENABLE	TOGGLE	T	Ich Offset Enable
ICHOFFSET	QUANT	0	Ich Offset (V)
ICHFILTER	IQUANT	3	Ich Filter
VCHRANGE	IQUANT	2	Vch Range
VCHRANGEMODE	TOGGLE	F	Vch Auto Range
VCHOFFSETENABLE	TOGGLE	T	Vch Offset Enable
VCHOFFSET	QUANT	0	Vch Offset (V)
VCHFILTER	IQUANT	3	Vch Filter
ACHRANGE	IQUANT	2	Ach Range
ACHOFFSETENABLE	TOGGLE	F	Ach Offset Enable
ACHOFFSET	QUANT	0	Ach Offset (V)
ACHFILTER	IQUANT	3	Ach Filter
IERANGELOWERLIMIT	IQUANT	1	I/E Range Lower Limit
IERANGEMODE	TOGGLE	F	I/E AutoRange
IERANGE	IQUANT	7	I/E Range
POSFEEDENABLE	TOGGLE	F	Positive Feedback IR Comp
POSFEEDRESISTANCE	QUANT	0	Positive Feedback Resistance (ohm)
ACHSELECT	IQUANT	0	Ach Select
CABLEID	IQUANT	14	Cable ID
DCCALDATE	LABEL	1/27/2020	DC Calibration Date
ACCALDATE	LABEL	1/27/2020	AC Calibration Date
THERMOSELECT	IQUANT	1	Thermo Select
FRAMEWORKVERSION	QUANT	6.33	Framework Version
INSTRUMENTVERSION	LABEL	3.50	Instrument Version
ZCURVE	TABLE
	Pt	Time	Freq	Zreal	Zimag	Zsig	Zmod	Zphz	Idc	Vdc	IERange
	#	s	Hz	ohm	ohm	V	ohm	°	A	V	#
	0	1	1000078	2026.677	-1123.065	1	2317.044	-28.99263	1.228416E-006	0.0451441	8
	1	2	794390.6	2234.646	-1049.608	1	2468.871	-25.15933	-2.123433E-007	0.0448226	8
	2	2	630984.4	2405.376	-958.077	1	2589.16	-21.71771	6.336257E-007	0.044574	8
	3	2	501234.4	2548.518	-860.1502	1	2689.759	-18.65005	-5.534789E-007	0.044708	8
	4	3	398109.4	2659.948	-760.2345	1	2766.457	-15.95036	-2.140047E-006	0.0450094	8
	5	3	316265.6	2750.799	-679.6538	1	2833.518	-13.87841	-3.094198E-007	0.0446302	8
	6	3	251203.1	2820.268	-601.9558	1	2883.793	-12.04838	1.048168E-007	0.0445836	8
	7	3	199546.9	2874.859	-544.1381	1	2925.902	-10.71785	1.814978E-006	0.0442473	8
	8	4	158578.1	2920.341	-498.5131	1	2962.584	-9.68723	8.880181E-007	0.0444008	8
	9	4	125953.1	2982.241	-441.265	1	3014.71	-8.416657	-3.701664E-007	0.0455252	7
	10	4	100078.1	3018.893	-423.8234	1	3048.498	-7.991544	8.159941E-008	0.0444262	7
	11	5	79453.13	3054.068	-425.9919	1	3083.635	-7.94058	1.477527E-009	0.0445495	7
	12	5	63140.62	3091.138	-439.2556	1	3122.192	-8.087672	-3.795128E-008	0.0446529	7
	13	5	50203.12	3131.211	-462.8179	1	3165.23	-8.407896	-3.768563E-008	0.0445859	7
	14	6	39890.62	3174.55	-496.5901	1	3213.155	-8.890643	-1.773601E-008	0.0445708	7
	15	6	31640.63	3222.521	-541.5121	1	3267.702	-9.53886	4.872773E-008	0.0444442	7
	16	6	25171.88	3275.879	-598.6255	1	3330.125	-10.35582	-1.400737E-008	0.0445525	7
	17	7	20015.62	3336.418	-666.1731	1	3402.275	-11.29159	-1.730625E-008	0.0445156	7
	18	7	15890.62	3402.51	-751.12	1	3484.43	-12.44866	9.700514E-009	0.0445751	7
	19	7	12609.37	3478.373	-849.4054	1	3580.582	-13.72284	3.044556E-008	0.0444791	7
	20	8	10078.13	3563.443	-963.097	1	3691.299	-15.12408	-3.664641E-008	0.0446409	7
	21	8	8015.625	3658.387	-1097.594	1	3819.49	-16.70037	-3.374703E-009	0.0444998	7
	22	8	6328.125	3771.277	-1260.785	1	3976.445	-18.48543	-2.994709E-008	0.0445451	7
	23	8	5015.625	3896.723	-1450.781	1	4158.03	-20.4207	-1.170238E-008	0.0445483	7
	24	9	3984.375	4037.313	-1670.418	1	4369.232	-22.47709	5.174909E-009	0.0445045	7
	25	9	3170.956	4194.31	-1923.497	1	4614.333	-24.63603	2.990797E-008	0.0444275	7
	26	9	2527.573	4371.836	-2220.605	1	4903.472	-26.92758	-1.646553E-008	0.0445655	7
	27	10	1976.103	4592.323	-2598.985	1	5276.756	-29.50731	-8.506634E-009	0.0445	7
	28	10	1577.524	4820.681	-3011.353	1	5683.943	-31.99195	3.127377E-008	0.0444309	7
	29	10	1265.625	5074.525	-3484.679	1	6155.793	-34.47741	4.929655E-008	0.0444262	7
	30	11	998.264	5390.05	-4087.901	1	6764.878	-37.17727	-1.319203E-008	0.0445393	7
	31	11	796.875	5728.531	-4763.034	1	7450.004	-39.74211	-3.008171E-008	0.0445405	7
	32	11	627.7902	6152.587	-5624.522	1	8336.041	-42.43267	8.18072E-008	0.0443936	7
	33	12	505.5147	6590.111	-6547.557	1	9289.783	-44.81441	-1.299607E-008	0.0445368	7
	34	12	397.9953	7161.587	-7734.742	1	10541.09	-47.20344	1.145911E-009	0.0445231	6
	35	12	315.5048	7807.354	-9123.476	1	12008.02	-49.44496	5.210052E-010	0.0445181	6
	36	13	252.4038	8530.2	-10695.92	1	13680.9	-51.42698	6.735663E-010	0.0445189	6
	37	13	198.6229	9439.216	-12697.66	1	15821.8	-53.37354	9.988034E-010	0.0445142	6
	38	13	158.3615	10437.07	-14934.47	1	18220.07	-55.05194	1.078664E-009	0.0445145	6
	39	14	125.558	11601.57	-17640.55	1	21113.63	-56.66848	1.01586E-009	0.0445112	6
	40	14	100.4464	12861.89	-20709.56	1	24378.56	-58.15722	1.403728E-010	0.0445128	6
	41	14	79.00281	14413.13	-24661.34	1	28564.31	-59.69618	7.645189E-010	0.0445115	6
	42	15	63.3446	15932.16	-29307.25	1	33357.88	-61.47038	7.497784E-010	0.0445078	6
	43	15	49.86702	17797.82	-35041.93	1	39302.66	-63.07394	1.079669E-009	0.0445113	6
	44	15	39.72458	19985.07	-41724.45	1	46263.73	-64.40662	6.284395E-010	0.0445106	6
	45	16	31.6723	22515.77	-49924.05	1	54766.51	-65.7246	2.171691E-010	0.0445117	6
	46	16	24.93351	25539.25	-60553.58	1	65719.02	-67.13179	1.043884E-009	0.0445078	6
	47	16	19.86229	29088.48	-72929.59	1	78516.65	-68.25507	1.593992E-009	0.0445163	6
	48	17	15.83615	33912.73	-88449.56	1	94728.02	-69.02252	-6.87546E-010	0.0445077	6
	49	17	12.40079	39169.53	-107754.9	1	114653.3	-70.02351	7.405706E-010	0.0445133	5
	50	17	9.93114	46841.46	-129741.7	1	137938.5	-70.14857	3.971923E-011	0.0445128	5
	51	18	7.944915	55966.51	-155712.6	1	165465	-70.23045	5.595556E-010	0.044503	5
	52	18	6.317385	68245.34	-187550.6	1	199581.2	-70.00471	3.638928E-010	0.0444996	5
	53	19	5.008013	84348.08	-226208.2	1	241422.3	-69.55061	2.05338E-010	0.0445041	5
	54	20	3.945707	105062.4	-272824.8	1	292355	-68.93874	2.357834E-010	0.0445086	5
	55	21	3.158693	130029.6	-324002.3	1	349120.6	-68.13326	2.388081E-011	0.0445147	5
	56	23	2.504006	162751	-385465.1	1	418415.1	-67.10956	8.050799E-012	0.0444967	5
	57	24	1.998082	202782.3	-453623.1	1	496884.9	-65.91401	2.181549E-010	0.0445418	5
	58	26	1.584686	251892	-533807.4	1	590254.1	-64.73841	1.823316E-010	0.0445308	5
	59	28	1.266892	311399.2	-619447.6	1	693314.3	-63.31111	1.374448E-010	0.0444882	5
	60	30	0.999041	388439.3	-721992.9	1	819852.9	-61.71931	1.052672E-010	0.0444671	5
