EXPLAIN
TAG	EISPOT
TITLE	LABEL	Potentiostatic EIS	Test &Identifier
DATE	LABEL	6/6/2020	Date
TIME	LABEL	13:43:50	Time
NOTES	NOTES	1	&Notes...
	
PSTAT	PSTAT	REF600-11020	Potentiostat
VDC	POTEN	0.00000E+000	T	DC &Voltage (V)
FREQINIT	QUANT	1.00000E+006	Initial Fre&q. (Hz)
FREQFINAL	QUANT	1.00000E+000	Final Fre&q. (Hz)
PTSPERDEC	QUANT	1.00000E+001	Points/&decade
VAC	QUANT	2.50000E+001	AC &Voltage (mV rms)
AREA	QUANT	2.50000E-001	&Area (cm^2)
CONDIT	TWOPARAM	F	5.00000E+000	0.00000E+000	Conditionin&g	Time(s)	E(V)
DELAY	TWOPARAM	T	3.00000E+000	0.00000E+000	Init. De&lay	Time(s)	Stab.(mV/s)
SPEED	SELECTOR	0	&Optimize for:
ZGUESS	QUANT	1.00000E+003	E&stimated Z (ohms)
OCVCURVE	TABLE	12
	Pt	T	Vf	Vm	Ach	Over
	#	s	V vs. Ref.	V	V	bits
	0	0.258333	5.56360E-002	5.56361E-002	5.86763E-004	...........
	1	0.516667	5.56361E-002	5.56376E-002	5.82930E-004	...........
	2	0.775	5.56362E-002	5.56373E-002	5.86330E-004	...........
	3	1.03333	5.56366E-002	5.56411E-002	5.86563E-004	...........
	4	1.29167	5.56373E-002	5.56398E-002	5.86696E-004	...........
	5	1.55	5.56383E-002	5.56365E-002	5.87030E-004	...........
	6	1.80833	5.56388E-002	5.56346E-002	5.84163E-004	...........
	7	2.06667	5.56384E-002	5.56345E-002	5.86530E-004	...........
	8	2.325	5.56372E-002	5.56337E-002	5.83963E-004	...........
	9	2.58333	5.56358E-002	5.56343E-002	5.86696E-004	...........
	10	2.84167	5.56348E-002	5.56317E-002	5.86796E-004	...........
	11	3.1	5.56340E-002	5.56313E-002	5.88396E-004	...........
EOC	QUANT	0.055634	Open Circuit (V)
PSTATMODEL	IQUANT	4	Pstat Model
PSTATSECTION	LABEL	REF600-11020	Pstat Section
PSTATSERIALNO	LABEL	11020	Pstat Serial Number
CTRLMODE	IQUANT	1	Control Mode
IESTAB	IQUANT	0	I/E Stability
CASPEED	IQUANT	1	Control Amp Speed
CONVENTION	IQUANT	1	Current Convention
ICHRANGE	IQUANT	2	Ich Range
ICHRANGEMODE	TOGGLE	F	Ich Auto Range
ICHOFFSETENABLE	TOGGLE	T	Ich Offset Enable
ICHOFFSET	QUANT	0	Ich Offset (V)
ICHFILTER	IQUANT	3	Ich Filter
VCHRANGE	IQUANT	2	Vch Range
VCHRANGEMODE	TOGGLE	F	Vch Auto Range
VCHOFFSETENABLE	TOGGLE	T	Vch Offset Enable
VCHOFFSET	QUANT	0	Vch Offset (V)
VCHFILTER	IQUANT	3	Vch Filter
ACHRANGE	IQUANT	2	Ach Range
ACHOFFSETENABLE	TOGGLE	F	Ach Offset Enable
ACHOFFSET	QUANT	0	Ach Offset (V)
ACHFILTER	IQUANT	3	Ach Filter
IERANGELOWERLIMIT	IQUANT	1	I/E Range Lower Limit
IERANGEMODE	TOGGLE	F	I/E AutoRange
IERANGE	IQUANT	8	I/E Range
POSFEEDENABLE	TOGGLE	F	Positive Feedback IR Comp
POSFEEDRESISTANCE	QUANT	0	Positive Feedback Resistance (ohm)
ACHSELECT	IQUANT	0	Ach Select
CABLEID	IQUANT	14	Cable ID
DCCALDATE	LABEL	2/27/2020	DC Calibration Date
ACCALDATE	LABEL	2/27/2020	AC Calibration Date
THERMOSELECT	IQUANT	1	Thermo Select
FRAMEWORKVERSION	QUANT	6.33	Framework Version
INSTRUMENTVERSION	LABEL	3.50	Instrument Version
ZCURVE	TABLE
	Pt	Time	Freq	Zreal	Zimag	Zsig	Zmod	Zphz	Idc	Vdc	IERange
	#	s	Hz	ohm	ohm	V	ohm	°	A	V	#
	0	1	1000078	2158.424	-1540.5	1	2651.779	-35.51604	1.132857E-007	0.0582153	8
	1	2	794390.6	2467.058	-1499.926	1	2887.24	-31.29883	3.124752E-008	0.0578396	8
	2	2	630984.4	2750.732	-1414.564	1	3093.141	-27.21449	8.181851E-008	0.0576657	8
	3	2	501234.4	2995.058	-1297.1	1	3263.869	-23.41647	3.89861E-008	0.0575722	8
	4	3	398109.4	3196.47	-1168.926	1	3403.499	-20.0871	6.982992E-008	0.0574846	8
	5	3	316265.6	3355.604	-1040.752	1	3513.296	-17.23146	8.181001E-008	0.0574537	8
	6	3	251203.1	3482.335	-922.538	1	3602.462	-14.83791	5.558275E-008	0.0574336	8
	7	4	199546.9	3584.182	-822.5624	1	3677.359	-12.92544	7.080119E-008	0.057441	8
	8	4	158578.1	3664.754	-737.5953	1	3738.244	-11.37974	6.579042E-008	0.0574341	8
	9	4	125953.1	3762.649	-606.0828	1	3811.15	-9.150532	2.603039E-009	0.0573667	7
	10	5	100078.1	3805.565	-564.0036	1	3847.132	-8.430154	2.774756E-009	0.057349	7
	11	5	79453.13	3855.99	-544.9134	1	3894.302	-8.043553	3.012272E-009	0.0573498	7
	12	5	63140.62	3905.003	-538.5669	1	3941.967	-7.852532	1.78243E-009	0.0573494	7
	13	6	50203.12	3953.502	-543.3294	1	3990.662	-7.825135	3.287321E-009	0.0573521	7
	14	6	39890.62	4002.668	-560.3716	1	4041.704	-7.969584	1.707422E-009	0.0573427	7
	15	6	31640.63	4054.39	-591.0488	1	4097.245	-8.29415	3.12482E-009	0.057344	7
	16	6	25171.88	4108.404	-634.4835	1	4157.108	-8.779147	2.948219E-009	0.0573479	7
	17	7	20015.62	4166.621	-692.5974	1	4223.792	-9.43771	2.396606E-009	0.0573421	7
	18	7	15890.62	4229.855	-767.8326	1	4298.981	-10.28869	3.373293E-009	0.057347	7
	19	7	12609.37	4299.433	-860.8754	1	4384.772	-11.3226	3.692108E-009	0.0573422	7
	20	8	10078.13	4374.319	-971.574	1	4480.917	-12.52261	3.310795E-009	0.0573444	7
	21	8	8015.625	4458.702	-1108.133	1	4594.342	-13.95708	3.676489E-009	0.0573459	7
	22	8	6328.125	4556.638	-1279.663	1	4732.915	-15.68659	4.535988E-009	0.0573409	7
	23	9	5015.625	4664.921	-1481.785	1	4894.606	-17.62215	4.428185E-009	0.0573512	7
	24	9	3984.375	4787.676	-1721.14	1	5087.648	-19.7732	3.260861E-009	0.0573397	7
	25	9	3170.956	4924.433	-2008.539	1	5318.295	-22.18918	5.489313E-009	0.0573522	7
	26	10	2527.573	5080.197	-2348.456	1	5596.753	-24.80999	3.487522E-009	0.0573387	7
	27	10	1976.103	5275.312	-2792.338	1	5968.758	-27.89325	5.158056E-009	0.0573442	7
	28	10	1577.524	5480.064	-3279.627	1	6386.475	-30.89905	5.15581E-009	0.0573432	7
	29	11	1265.625	5709.042	-3846.271	1	6883.819	-33.96877	5.225523E-009	0.0573365	7
	30	11	998.264	5992.218	-4581.828	1	7543.197	-37.4026	7.299321E-009	0.0573439	7
	31	11	796.875	6303.176	-5426.222	1	8317.086	-40.72421	4.849827E-009	0.0573323	7
	32	12	627.7902	6683.578	-6497.432	1	9321.311	-44.19091	4.021447E-009	0.0573351	7
	33	12	505.5147	7097.579	-7676.976	1	10455.22	-47.24575	4.341122E-010	0.0573904	6
	34	12	397.9953	7622.432	-9256.438	1	11990.96	-50.52945	7.096113E-010	0.0574069	6
	35	13	315.5048	8239.377	-11124.32	1	13843.33	-53.47401	6.644828E-010	0.0574067	6
	36	13	252.4038	8959.375	-13292.59	1	16030.08	-56.01954	5.506806E-010	0.0574002	6
	37	13	198.6229	9909.14	-16107.64	1	18911.56	-58.40088	6.413227E-010	0.0573987	6
	38	14	158.3615	11025.04	-19319.52	1	22244	-60.28795	4.408331E-010	0.0573985	6
	39	14	125.558	12449.46	-23267.66	1	26388.88	-61.85081	6.854717E-010	0.0574008	6
	40	14	100.4464	14153.87	-27796.89	1	31192.94	-63.0153	6.8598E-010	0.0574002	6
	41	15	79.00281	16450.58	-33619.09	1	37428.13	-63.92645	2.701453E-010	0.0573977	6
	42	15	63.3446	19098.35	-39987.99	1	44314.62	-64.47076	2.483673E-010	0.0573939	6
	43	15	49.86702	22694.79	-48154.98	1	53234.91	-64.76614	5.329228E-010	0.0573958	6
	44	16	39.72458	27017.11	-57328.3	1	63375.54	-64.76691	5.342892E-010	0.0574008	6
	45	16	31.6723	32432.98	-67990.99	1	75330.43	-64.49798	4.460954E-010	0.0573976	6
	46	16	24.93351	39731.05	-81072.53	1	90284.62	-63.89201	1.085435E-009	0.0573945	6
	47	17	19.86229	48399.18	-95177	1	106776.1	-63.04586	1.373855E-009	0.0574055	5
	48	17	15.83615	59142.62	-111233.8	1	125979.4	-62.00058	9.603222E-010	0.0573984	5
	49	17	12.40079	73359.67	-130446.8	1	149659.6	-60.6478	1.717663E-009	0.0573965	5
	50	17	9.93114	88609.19	-149253.4	1	173574.7	-59.30313	1.825897E-009	0.0573957	5
	51	18	7.944915	106206	-170465.7	1	200843.8	-58.07568	6.110695E-010	0.0573941	5
	52	18	6.317385	126921.3	-193810.4	1	231671.1	-56.78027	-2.584568E-011	0.0574082	5
	53	19	5.008013	150467.2	-219603.2	1	266206.6	-55.58193	3.053796E-010	0.0574107	5
	54	20	3.945707	176968	-249501.3	1	305889.8	-54.65242	4.936802E-010	0.0574054	5
	55	21	3.158693	203761.9	-280337.1	1	346565.8	-53.98862	1.464362E-010	0.0574212	5
	56	22	2.504006	234243.9	-317938.7	1	394911.6	-53.61877	-8.899921E-011	0.0574066	5
	57	23	1.998082	265837.9	-359382.6	1	447018.6	-53.5094	1.582874E-010	0.0574297	5
	58	25	1.584686	302347.9	-411507.2	1	510639.3	-53.69405	2.171987E-010	0.0574489	5
	59	27	1.266892	340202.2	-470315.8	1	580460.6	-54.11996	1.429983E-010	0.0574137	5
	60	29	0.999041	387074.3	-543684.2	1	667397.2	-54.55115	1.044823E-010	0.0573789	5
