EXPLAIN
TAG	EISPOT
TITLE	LABEL	Potentiostatic EIS	Test &Identifier
DATE	LABEL	9/1/2020	Date
TIME	LABEL	21:46:54	Time
NOTES	NOTES	1	&Notes...
	
PSTAT	PSTAT	REF600-11020	Potentiostat
VDC	POTEN	0.00000E+000	T	DC &Voltage (V)
FREQINIT	QUANT	1.00000E+006	Initial Fre&q. (Hz)
FREQFINAL	QUANT	1.00000E+000	Final Fre&q. (Hz)
PTSPERDEC	QUANT	1.00000E+001	Points/&decade
VAC	QUANT	2.50000E+001	AC &Voltage (mV rms)
AREA	QUANT	4.00000E-005	&Area (cm^2)
CONDIT	TWOPARAM	F	5.00000E+000	0.00000E+000	Conditionin&g	Time(s)	E(V)
DELAY	TWOPARAM	F	3.00000E+000	0.00000E+000	Init. De&lay	Time(s)	Stab.(mV/s)
SPEED	SELECTOR	0	&Optimize for:
ZGUESS	QUANT	1.00000E+003	E&stimated Z (ohms)
OCVCURVE	TABLE	39
	Pt	T	Vf	Vm	Ach	Over
	#	s	V vs. Ref.	V	V	bits
	0	0.258333	-2.40899E-002	-2.40899E-002	5.61659E-004	...........
	1	0.516667	-2.40900E-002	-2.40968E-002	5.61225E-004	...........
	2	0.775	-2.40908E-002	-2.41014E-002	5.67725E-004	...........
	3	1.03333	-2.40928E-002	-2.41045E-002	5.60959E-004	...........
	4	1.29167	-2.40962E-002	-2.41114E-002	5.61392E-004	...........
	5	1.55	-2.41005E-002	-2.41184E-002	5.64892E-004	...........
	6	1.80833	-2.41056E-002	-2.41271E-002	5.56925E-004	...........
	7	2.06667	-2.41117E-002	-2.41370E-002	5.56392E-004	...........
	8	2.325	-2.41188E-002	-2.41428E-002	5.59225E-004	...........
	9	2.58333	-2.41267E-002	-2.41491E-002	5.67025E-004	...........
	10	2.84167	-2.41345E-002	-2.41540E-002	5.61725E-004	...........
	11	3.1	-2.41417E-002	-2.41605E-002	5.64059E-004	...........
	12	3.35833	-2.41482E-002	-2.41687E-002	5.62625E-004	...........
	13	3.61667	-2.41544E-002	-2.41747E-002	5.65525E-004	...........
	14	3.875	-2.41608E-002	-2.41776E-002	5.59159E-004	...........
	15	4.13333	-2.41670E-002	-2.41812E-002	5.58292E-004	...........
	16	4.39167	-2.41725E-002	-2.41853E-002	5.61592E-004	...........
	17	4.65	-2.41771E-002	-2.41883E-002	5.61825E-004	...........
	18	4.90833	-2.41812E-002	-2.41936E-002	5.60025E-004	...........
	19	5.16667	-2.41850E-002	-2.41982E-002	5.65758E-004	...........
	20	5.425	-2.41889E-002	-2.42013E-002	5.63225E-004	...........
	21	5.68333	-2.41931E-002	-2.42079E-002	5.62359E-004	...........
	22	5.94167	-2.41975E-002	-2.42117E-002	5.63625E-004	...........
	23	6.2	-2.42020E-002	-2.42150E-002	5.63125E-004	...........
	24	6.45833	-2.42066E-002	-2.42214E-002	5.66892E-004	...........
	25	6.71667	-2.42112E-002	-2.42262E-002	5.69258E-004	...........
	26	6.975	-2.42158E-002	-2.42298E-002	5.72192E-004	...........
	27	7.23333	-2.42206E-002	-2.42362E-002	5.63025E-004	...........
	28	7.49167	-2.42255E-002	-2.42430E-002	5.66358E-004	...........
	29	7.75	-2.42307E-002	-2.42507E-002	5.68892E-004	...........
	30	8.00833	-2.42365E-002	-2.42570E-002	5.63658E-004	...........
	31	8.26667	-2.42429E-002	-2.42673E-002	5.65158E-004	...........
	32	8.525	-2.42500E-002	-2.42734E-002	5.64492E-004	...........
	33	8.78333	-2.42576E-002	-2.42819E-002	5.66392E-004	...........
	34	9.04167	-2.42654E-002	-2.42905E-002	5.67592E-004	...........
	35	9.3	-2.42735E-002	-2.43031E-002	5.73258E-004	...........
	36	9.5583	-2.42820E-002	-2.43091E-002	5.67192E-004	...........
	37	9.8167	-2.42911E-002	-2.43238E-002	5.70025E-004	...........
	38	10.075	-2.43008E-002	-2.43360E-002	5.67058E-004	...........
EOC	QUANT	-0.0243008	Open Circuit (V)
PSTATMODEL	IQUANT	4	Pstat Model
PSTATSECTION	LABEL	REF600-11020	Pstat Section
PSTATSERIALNO	LABEL	11020	Pstat Serial Number
CTRLMODE	IQUANT	1	Control Mode
IESTAB	IQUANT	0	I/E Stability
CASPEED	IQUANT	1	Control Amp Speed
CONVENTION	IQUANT	1	Current Convention
ICHRANGE	IQUANT	2	Ich Range
ICHRANGEMODE	TOGGLE	F	Ich Auto Range
ICHOFFSETENABLE	TOGGLE	T	Ich Offset Enable
ICHOFFSET	QUANT	0	Ich Offset (V)
ICHFILTER	IQUANT	3	Ich Filter
VCHRANGE	IQUANT	2	Vch Range
VCHRANGEMODE	TOGGLE	F	Vch Auto Range
VCHOFFSETENABLE	TOGGLE	T	Vch Offset Enable
VCHOFFSET	QUANT	0	Vch Offset (V)
VCHFILTER	IQUANT	3	Vch Filter
ACHRANGE	IQUANT	2	Ach Range
ACHOFFSETENABLE	TOGGLE	F	Ach Offset Enable
ACHOFFSET	QUANT	0	Ach Offset (V)
ACHFILTER	IQUANT	3	Ach Filter
IERANGELOWERLIMIT	IQUANT	1	I/E Range Lower Limit
IERANGEMODE	TOGGLE	F	I/E AutoRange
IERANGE	IQUANT	7	I/E Range
POSFEEDENABLE	TOGGLE	F	Positive Feedback IR Comp
POSFEEDRESISTANCE	QUANT	0	Positive Feedback Resistance (ohm)
ACHSELECT	IQUANT	0	Ach Select
CABLEID	IQUANT	14	Cable ID
DCCALDATE	LABEL	9/1/2020	DC Calibration Date
ACCALDATE	LABEL	9/1/2020	AC Calibration Date
THERMOSELECT	IQUANT	1	Thermo Select
FRAMEWORKVERSION	QUANT	6.33	Framework Version
INSTRUMENTVERSION	LABEL	3.50	Instrument Version
ZCURVE	TABLE
	Pt	Time	Freq	Zreal	Zimag	Zsig	Zmod	Zphz	Idc	Vdc	IERange
	#	s	Hz	ohm	ohm	V	ohm	°	A	V	#
	0	1	1000078	1665.13	-1054.913	1	1971.167	-32.35557	3.780649E-008	-0.0220628	8
	1	2	794390.6	1831.814	-1062.141	1	2117.471	-30.10646	9.5593E-008	-0.0224046	8
	2	2	630984.4	1992.966	-1064.239	1	2259.319	-28.10211	1.000825E-007	-0.022543	8
	3	2	501234.4	2144.994	-1067.827	1	2396.091	-26.46516	6.829359E-008	-0.022639	8
	4	2	398109.4	2293.972	-1077.87	1	2534.583	-25.16746	8.103647E-008	-0.0227223	8
	5	3	316265.6	2441.378	-1093.103	1	2674.921	-24.11997	6.345209E-008	-0.0227666	8
	6	3	251203.1	2586.071	-1113.332	1	2815.541	-23.29242	6.051005E-008	-0.0227708	8
	7	3	199546.9	2730.11	-1137.271	1	2957.514	-22.61495	7.459276E-008	-0.022769	8
	8	4	158578.1	2875.664	-1173.953	1	3106.06	-22.20711	7.410537E-008	-0.0227496	8
	9	4	125953.1	3042.381	-1207.239	1	3273.15	-21.64354	6.256052E-009	-0.0227551	7
	10	4	100078.1	3191.074	-1261.553	1	3431.395	-21.57078	5.142113E-009	-0.0227838	7
	11	5	79453.13	3341.198	-1345.682	1	3602.008	-21.93733	4.406069E-009	-0.0227967	7
	12	5	63140.62	3498.889	-1449.587	1	3787.285	-22.50419	5.168692E-009	-0.0227917	7
	13	5	50203.12	3668.272	-1573.081	1	3991.341	-23.21132	4.31076E-009	-0.0227964	7
	14	6	39890.62	3856.796	-1721.659	1	4223.622	-24.0558	1.972917E-009	-0.0228063	7
	15	6	31640.63	4069.405	-1897.097	1	4489.881	-24.99424	2.168262E-009	-0.0227987	7
	16	6	25171.88	4307.292	-2094.676	1	4789.617	-25.93408	3.501252E-009	-0.0228041	7
	17	7	20015.62	4578.568	-2317.605	1	5131.723	-26.84788	4.054473E-009	-0.0228062	7
	18	7	15890.62	4886.357	-2559.072	1	5515.917	-27.64185	2.698011E-009	-0.0228045	7
	19	7	12609.37	5233.4	-2823.437	1	5946.45	-28.34701	3.920056E-009	-0.0228025	7
	20	8	10078.13	5605.113	-3093.106	1	6401.921	-28.89152	4.645965E-009	-0.0228057	7
	21	8	8015.625	6021.313	-3388.517	1	6909.288	-29.3688	4.843669E-009	-0.0228065	7
	22	8	6328.125	6483.675	-3709.187	1	7469.679	-29.77305	5.412191E-009	-0.0228057	7
	23	9	5015.625	6964.592	-4045.441	1	8054.262	-30.15052	3.97855E-009	-0.0228122	7
	24	9	3984.375	7459.622	-4415.244	1	8668.353	-30.62069	5.67394E-009	-0.0228077	7
	25	9	3170.956	7961.665	-4816.914	1	9305.416	-31.1745	3.409551E-009	-0.0228159	7
	26	9	2527.573	8490.492	-5285.572	1	10001.29	-31.90343	1.059662E-009	-0.0228129	6
	27	10	1976.103	9050.559	-5918.359	1	10813.86	-33.18156	2.675269E-010	-0.0228203	6
	28	10	1577.524	9581.57	-6636.088	1	11655.22	-34.70604	8.018244E-010	-0.022813	6
	29	10	1265.625	10137.51	-7508.009	1	12615.04	-36.52428	1.159052E-009	-0.0228172	6
	30	11	998.264	10807.42	-8664.125	1	13851.62	-38.71857	1.354661E-009	-0.0228102	6
	31	11	796.875	11553.77	-10017.28	1	15291.68	-40.92573	6.8884E-010	-0.0228228	6
	32	11	627.7902	12510.73	-11762.18	1	17171.7	-43.23361	9.49564E-010	-0.0228165	6
	33	12	505.5147	13575.76	-13650.55	1	19251.98	-45.15738	7.960413E-010	-0.0228155	6
	34	12	397.9953	15053.95	-16081.42	1	22028.02	-46.89009	8.490006E-010	-0.0227965	6
	35	12	315.5048	16861.23	-18801.31	1	25254.51	-48.11388	7.295171E-010	-0.0227956	6
	36	13	252.4038	19002.56	-21727.99	1	28865.25	-48.82817	7.57159E-010	-0.0228008	6
	37	13	198.6229	21789.61	-25187.33	1	33304.49	-49.13685	7.979792E-010	-0.0228023	6
	38	13	158.3615	24890.95	-28706.53	1	37995.05	-49.07199	7.785521E-010	-0.0228067	6
	39	14	125.558	28506.22	-32580.66	1	43290.92	-48.81593	8.245379E-010	-0.0228051	6
	40	14	100.4464	32328.36	-36591.43	1	48826.8	-48.53955	7.285411E-010	-0.022812	6
	41	14	79.00281	36774.5	-41367.6	1	55350.18	-48.36391	5.06255E-010	-0.0228047	6
	42	15	63.3446	41132.45	-46350.95	1	61970.06	-48.41372	6.357526E-010	-0.0228083	6
	43	15	49.86702	46192.35	-52629.08	1	70025.38	-48.72669	2.903922E-010	-0.0228131	6
	44	15	39.72458	51488.91	-59737.11	1	78864.64	-49.24113	3.549712E-010	-0.0228055	6
	45	16	31.6723	57374.85	-68133.81	1	89073.51	-49.89958	2.880276E-010	-0.022813	6
	46	16	24.93351	64538.53	-78610.66	1	101709.7	-50.61436	-2.333437E-010	-0.0228237	5
	47	16	19.86229	72442.65	-90461.83	1	115893.4	-51.31194	-9.795266E-010	-0.0228237	5
	48	17	15.83615	81908.74	-104326.7	1	132639	-51.86391	6.403037E-010	-0.0228218	5
	49	17	12.40079	94191.21	-121469.5	1	153710.2	-52.2089	-4.370529E-010	-0.0228189	5
	50	17	9.93114	107422.1	-139485.8	1	176056.3	-52.39907	-7.772923E-011	-0.0228231	5
	51	18	7.944915	123164.7	-159469.1	1	201494.3	-52.31958	1.330159E-009	-0.0228166	5
	52	18	6.317385	142498.1	-182908.5	1	231864.7	-52.07898	-1.758082E-010	-0.0228037	5
	53	19	5.008013	165499.5	-209237.3	1	266777.7	-51.65722	-3.288371E-010	-0.0228196	5
	54	20	3.945707	192789	-238415.1	1	306609.5	-51.04005	3.776182E-010	-0.0228126	5
	55	21	3.158693	222329.9	-268919.8	1	348924.7	-50.41769	-1.1354E-010	-0.0228205	5
	56	22	2.504006	257000.7	-302990.1	1	397306.4	-49.6949	1.771149E-010	-0.0228282	5
	57	23	1.998082	295408.2	-339785.3	1	450244.4	-48.99641	5.077105E-010	-0.0227857	5
	58	24	1.584686	338572.3	-380642.7	1	509431.1	-48.34769	4.20109E-010	-0.0228279	5
	59	26	1.266892	387249.6	-423507.6	1	573864.9	-47.56063	3.233453E-010	-0.0228589	5
	60	29	0.999041	445051.1	-474196.9	1	650333.1	-46.81602	2.591803E-010	-0.0228706	5
