EXPLAIN
TAG	EISPOT
TITLE	LABEL	Potentiostatic EIS	Test &Identifier
DATE	LABEL	7/13/2020	Date
TIME	LABEL	20:59:34	Time
NOTES	NOTES	1	&Notes...
	
PSTAT	PSTAT	REF600-11020	Potentiostat
VDC	POTEN	0.00000E+000	T	DC &Voltage (V)
FREQINIT	QUANT	1.00000E+006	Initial Fre&q. (Hz)
FREQFINAL	QUANT	1.00000E+000	Final Fre&q. (Hz)
PTSPERDEC	QUANT	1.00000E+001	Points/&decade
VAC	QUANT	2.50000E+001	AC &Voltage (mV rms)
AREA	QUANT	4.00000E-004	&Area (cm^2)
CONDIT	TWOPARAM	F	5.00000E+000	0.00000E+000	Conditionin&g	Time(s)	E(V)
DELAY	TWOPARAM	F	3.00000E+000	0.00000E+000	Init. De&lay	Time(s)	Stab.(mV/s)
SPEED	SELECTOR	0	&Optimize for:
ZGUESS	QUANT	1.00000E+003	E&stimated Z (ohms)
OCVCURVE	TABLE	39
	Pt	T	Vf	Vm	Ach	Over
	#	s	V vs. Ref.	V	V	bits
	0	0.258333	1.65935E-001	1.65935E-001	5.29883E-004	...........
	1	0.516667	1.65935E-001	1.65931E-001	5.27850E-004	...........
	2	0.775	1.65934E-001	1.65931E-001	5.29750E-004	...........
	3	1.03333	1.65933E-001	1.65932E-001	5.19450E-004	...........
	4	1.29167	1.65932E-001	1.65929E-001	5.28683E-004	...........
	5	1.55	1.65931E-001	1.65928E-001	5.26550E-004	...........
	6	1.80833	1.65930E-001	1.65926E-001	5.26717E-004	...........
	7	2.06667	1.65929E-001	1.65927E-001	5.26917E-004	...........
	8	2.325	1.65928E-001	1.65927E-001	5.29183E-004	...........
	9	2.58333	1.65927E-001	1.65922E-001	5.27917E-004	...........
	10	2.84167	1.65926E-001	1.65919E-001	5.30616E-004	...........
	11	3.1	1.65925E-001	1.65919E-001	5.27383E-004	...........
	12	3.35833	1.65923E-001	1.65917E-001	5.25350E-004	...........
	13	3.61667	1.65921E-001	1.65918E-001	5.27817E-004	...........
	14	3.875	1.65919E-001	1.65910E-001	5.25717E-004	...........
	15	4.13333	1.65917E-001	1.65910E-001	5.23150E-004	...........
	16	4.39167	1.65915E-001	1.65908E-001	5.22183E-004	...........
	17	4.65	1.65913E-001	1.65909E-001	5.26617E-004	...........
	18	4.90833	1.65911E-001	1.65906E-001	5.22583E-004	...........
	19	5.16667	1.65909E-001	1.65906E-001	5.24283E-004	...........
	20	5.425	1.65908E-001	1.65903E-001	5.29916E-004	...........
	21	5.68333	1.65907E-001	1.65899E-001	5.19250E-004	...........
	22	5.94167	1.65905E-001	1.65898E-001	5.26417E-004	...........
	23	6.2	1.65903E-001	1.65897E-001	5.26417E-004	...........
	24	6.45833	1.65901E-001	1.65896E-001	5.26183E-004	...........
	25	6.71667	1.65899E-001	1.65895E-001	5.29983E-004	...........
	26	6.975	1.65897E-001	1.65894E-001	5.32750E-004	...........
	27	7.23333	1.65896E-001	1.65894E-001	5.30150E-004	...........
	28	7.49167	1.65895E-001	1.65892E-001	5.31517E-004	...........
	29	7.75	1.65894E-001	1.65890E-001	5.28650E-004	...........
	30	8.00833	1.65893E-001	1.65890E-001	5.25883E-004	...........
	31	8.26667	1.65892E-001	1.65884E-001	5.23917E-004	...........
	32	8.525	1.65891E-001	1.65882E-001	5.28583E-004	...........
	33	8.78333	1.65888E-001	1.65881E-001	5.28450E-004	...........
	34	9.04167	1.65886E-001	1.65883E-001	5.25950E-004	...........
	35	9.3	1.65884E-001	1.65882E-001	5.27117E-004	...........
	36	9.5583	1.65883E-001	1.65878E-001	5.26483E-004	...........
	37	9.8167	1.65882E-001	1.65878E-001	5.25850E-004	...........
	38	10.075	1.65881E-001	1.65874E-001	5.22850E-004	...........
EOC	QUANT	0.1658807	Open Circuit (V)
PSTATMODEL	IQUANT	4	Pstat Model
PSTATSECTION	LABEL	REF600-11020	Pstat Section
PSTATSERIALNO	LABEL	11020	Pstat Serial Number
CTRLMODE	IQUANT	1	Control Mode
IESTAB	IQUANT	0	I/E Stability
CASPEED	IQUANT	1	Control Amp Speed
CONVENTION	IQUANT	1	Current Convention
ICHRANGE	IQUANT	2	Ich Range
ICHRANGEMODE	TOGGLE	F	Ich Auto Range
ICHOFFSETENABLE	TOGGLE	T	Ich Offset Enable
ICHOFFSET	QUANT	0	Ich Offset (V)
ICHFILTER	IQUANT	3	Ich Filter
VCHRANGE	IQUANT	2	Vch Range
VCHRANGEMODE	TOGGLE	F	Vch Auto Range
VCHOFFSETENABLE	TOGGLE	T	Vch Offset Enable
VCHOFFSET	QUANT	0	Vch Offset (V)
VCHFILTER	IQUANT	3	Vch Filter
ACHRANGE	IQUANT	2	Ach Range
ACHOFFSETENABLE	TOGGLE	F	Ach Offset Enable
ACHOFFSET	QUANT	0	Ach Offset (V)
ACHFILTER	IQUANT	3	Ach Filter
IERANGELOWERLIMIT	IQUANT	1	I/E Range Lower Limit
IERANGEMODE	TOGGLE	F	I/E AutoRange
IERANGE	IQUANT	8	I/E Range
POSFEEDENABLE	TOGGLE	F	Positive Feedback IR Comp
POSFEEDRESISTANCE	QUANT	0	Positive Feedback Resistance (ohm)
ACHSELECT	IQUANT	0	Ach Select
CABLEID	IQUANT	14	Cable ID
DCCALDATE	LABEL	6/26/2020	DC Calibration Date
ACCALDATE	LABEL	6/26/2020	AC Calibration Date
THERMOSELECT	IQUANT	1	Thermo Select
FRAMEWORKVERSION	QUANT	6.33	Framework Version
INSTRUMENTVERSION	LABEL	3.50	Instrument Version
ZCURVE	TABLE
	Pt	Time	Freq	Zreal	Zimag	Zsig	Zmod	Zphz	Idc	Vdc	IERange
	#	s	Hz	ohm	ohm	V	ohm	°	A	V	#
	0	1	1000078	1748.986	-1740.57	1	2467.496	-44.86181	1.567748E-007	0.1683699	8
	1	2	794390.6	2111.112	-1805.619	1	2777.958	-40.54012	-1.158285E-007	0.1680192	8
	2	2	630984.4	2482.863	-1803.965	1	3069.022	-36.00089	8.027346E-008	0.1678739	8
	3	2	501234.4	2841.461	-1746.951	1	3335.526	-31.5835	-2.867208E-008	0.1677723	8
	4	3	398109.4	3163.567	-1637.996	1	3562.469	-27.37371	-1.563983E-008	0.1677075	8
	5	3	316265.6	3439.878	-1498.091	1	3751.938	-23.53347	-5.549507E-009	0.1676751	8
	6	3	251203.1	3663.424	-1350.001	1	3904.251	-20.22924	6.775911E-008	0.1676414	8
	7	4	199546.9	3850.674	-1203.79	1	4034.451	-17.36018	-1.705128E-008	0.1676686	8
	8	4	158578.1	3993.735	-1067.409	1	4133.918	-14.96373	3.749489E-008	0.1676623	8
	9	4	125953.1	4156.34	-884.9893	1	4249.514	-12.0202	9.951396E-009	0.1676026	7
	10	5	100078.1	4251.757	-791.2281	1	4324.752	-10.54183	2.14951E-009	0.167647	7
	11	5	79453.13	4324.056	-720.8317	1	4383.727	-9.464329	-3.0168E-009	0.1676427	7
	12	5	63140.62	4389.261	-667.9101	1	4439.788	-8.652274	9.478639E-009	0.1676361	7
	13	6	50203.12	4448.133	-630.8766	1	4492.649	-8.072392	1.563513E-009	0.1676089	7
	14	6	39890.62	4503.858	-609.0641	1	4544.854	-7.701481	1.22259E-008	0.1675962	7
	15	6	31640.63	4557.469	-601.2656	1	4596.96	-7.515612	-2.132868E-008	0.1676399	7
	16	7	25171.88	4610.335	-607.3244	1	4650.165	-7.504425	-1.757348E-008	0.1676299	7
	17	7	20015.62	4663.591	-627.7274	1	4705.648	-7.666035	7.428366E-009	0.1675991	7
	18	7	15890.62	4717.205	-662.7672	1	4763.537	-7.997705	1.245091E-008	0.1676126	7
	19	7	12609.37	4772.308	-714.184	1	4825.452	-8.511247	-1.381982E-008	0.1676435	7
	20	8	10078.13	4827.384	-782.3164	1	4890.363	-9.205215	1.476842E-008	0.1675999	7
	21	8	8015.625	4885.098	-872.2714	1	4962.362	-10.12391	3.15279E-009	0.1676243	7
	22	8	6328.125	4949.423	-993.293	1	5048.11	-11.34787	3.0981E-009	0.1675951	7
	23	9	5015.625	5016.367	-1143.275	1	5144.999	-12.83892	-1.779225E-008	0.1676209	7
	24	9	3984.375	5088.366	-1330.436	1	5259.422	-14.65288	9.819313E-009	0.1676175	7
	25	9	3170.956	5168.493	-1561.994	1	5399.366	-16.81559	1.347607E-008	0.167581	7
	26	10	2527.573	5256.346	-1845.02	1	5570.751	-19.34148	-1.930495E-008	0.1676231	7
	27	10	1976.103	5367.899	-2230.599	1	5812.91	-22.56504	2.196418E-009	0.1675886	7
	28	10	1577.524	5486.455	-2665.37	1	6099.622	-25.91091	9.037976E-009	0.1675876	7
	29	11	1265.625	5623.975	-3181.833	1	6461.668	-29.49955	-1.214592E-008	0.1676309	7
	30	11	998.264	5803.467	-3872	1	6976.576	-33.71072	9.347437E-009	0.1675857	7
	31	11	796.875	6013.462	-4666.016	1	7611.401	-37.8089	-1.649402E-008	0.1676272	7
	32	12	627.7902	6291.895	-5699.987	1	8489.864	-42.17422	1.461255E-008	0.1675813	7
	33	12	505.5147	6610.408	-6840.682	1	9512.75	-45.98077	1.56996E-008	0.1675808	7
	34	12	397.9953	7061.95	-8359.114	1	10942.85	-49.8082	2.973574E-010	0.1676202	6
	35	13	315.5048	7617.32	-10154.75	1	12694.2	-53.12557	4.094719E-010	0.167622	6
	36	13	252.4038	8298.844	-12224.11	1	14774.97	-55.82775	2.645538E-010	0.1676138	6
	37	13	198.6229	9233.494	-14878.1	1	17510.44	-58.17586	3.061584E-010	0.1676166	6
	38	14	158.3615	10357.63	-17863.93	1	20649.46	-59.89455	7.221276E-011	0.1676159	6
	39	14	125.558	11798.7	-21473.6	1	24501.53	-61.21336	1.032046E-010	0.1676147	6
	40	14	100.4464	13502.46	-25537.26	1	28887.16	-62.133	2.061884E-010	0.1676151	6
	41	15	79.00281	15736.41	-30682.82	1	34482.89	-62.84791	1.280498E-010	0.1676123	6
	42	15	63.3446	18194.85	-36238.77	1	40549.98	-63.33958	-1.335494E-010	0.1676135	6
	43	15	49.86702	21384.32	-43361.86	1	48348.11	-63.74935	2.11255E-010	0.1676092	6
	44	16	39.72458	25066.17	-51441.37	1	57223.48	-64.02112	3.091071E-010	0.1676121	6
	45	16	31.6723	29561.68	-61000.53	1	67786.12	-64.14455	5.120078E-010	0.1676072	6
	46	16	24.93351	35502.69	-72965.25	1	81144.13	-64.05384	1.77697E-010	0.1676095	6
	47	17	19.86229	42714.33	-86372.23	1	96357	-63.68587	1.319497E-009	0.1676193	6
	48	17	15.83615	51960.31	-101740.5	1	114241	-62.94595	-1.018729E-009	0.1676043	5
	49	17	12.40079	64641.01	-120663.1	1	136887	-61.8214	-1.602344E-009	0.1676109	5
	50	17	9.93114	79036.29	-139423.5	1	160267.5	-60.45201	-1.67848E-009	0.1676146	5
	51	18	7.944915	95991.1	-160132.3	1	186699.3	-59.05947	-1.010011E-009	0.1676089	5
	52	18	6.317385	117014.3	-182455.6	1	216754.2	-57.32672	3.993247E-010	0.1675899	5
	53	19	5.008013	141464.8	-206354.5	1	250188.9	-55.5677	-5.524898E-011	0.1675931	5
	54	20	3.945707	168964.1	-232588.6	1	287482.8	-54.00346	-3.622739E-010	0.1675923	5
	55	21	3.158693	196447.6	-258028.2	1	324299.6	-52.71647	-5.045734E-012	0.1675862	5
	56	22	2.504006	226643.9	-288065.6	1	366536.8	-51.80508	3.168114E-010	0.1675859	5
	57	23	1.998082	256404.1	-320370.4	1	410341.6	-51.32844	1.003468E-011	0.1675627	5
	58	25	1.584686	289287.3	-361107	1	462693.7	-51.30135	-1.088596E-010	0.1675414	5
	59	27	1.266892	321038.6	-407867.3	1	519058.3	-51.79317	-3.58285E-011	0.1675648	5
	60	29	0.999041	357928.8	-467224.5	1	588567.6	-52.5452	9.509695E-012	0.1675996	5
