EXPLAIN
TAG	EISPOT
TITLE	LABEL	Potentiostatic EIS	Test &Identifier
DATE	LABEL	6/6/2020	Date
TIME	LABEL	18:19:58	Time
NOTES	NOTES	1	&Notes...
	
PSTAT	PSTAT	REF600-11020	Potentiostat
VDC	POTEN	0.00000E+000	T	DC &Voltage (V)
FREQINIT	QUANT	1.00000E+006	Initial Fre&q. (Hz)
FREQFINAL	QUANT	1.00000E+000	Final Fre&q. (Hz)
PTSPERDEC	QUANT	1.00000E+001	Points/&decade
VAC	QUANT	2.50000E+001	AC &Voltage (mV rms)
AREA	QUANT	4.00000E-004	&Area (cm^2)
CONDIT	TWOPARAM	F	5.00000E+000	0.00000E+000	Conditionin&g	Time(s)	E(V)
DELAY	TWOPARAM	T	3.00000E+000	0.00000E+000	Init. De&lay	Time(s)	Stab.(mV/s)
SPEED	SELECTOR	0	&Optimize for:
ZGUESS	QUANT	1.00000E+003	E&stimated Z (ohms)
OCVCURVE	TABLE	12
	Pt	T	Vf	Vm	Ach	Over
	#	s	V vs. Ref.	V	V	bits
	0	0.258333	9.85164E-002	9.85164E-002	5.83897E-004	...........
	1	0.516667	9.85163E-002	9.85097E-002	5.84863E-004	...........
	2	0.775	9.85154E-002	9.84995E-002	5.82063E-004	...........
	3	1.03333	9.85127E-002	9.84856E-002	5.80763E-004	...........
	4	1.29167	9.85070E-002	9.84777E-002	5.83430E-004	...........
	5	1.55	9.84987E-002	9.84681E-002	5.75730E-004	...........
	6	1.80833	9.84888E-002	9.84571E-002	5.76030E-004	...........
	7	2.06667	9.84787E-002	9.84516E-002	5.81863E-004	...........
	8	2.325	9.84689E-002	9.84413E-002	5.77930E-004	...........
	9	2.58333	9.84597E-002	9.84354E-002	5.85263E-004	...........
	10	2.84167	9.84511E-002	9.84229E-002	5.82697E-004	...........
	11	3.1	9.84426E-002	9.84141E-002	5.85363E-004	...........
EOC	QUANT	0.0984426	Open Circuit (V)
PSTATMODEL	IQUANT	4	Pstat Model
PSTATSECTION	LABEL	REF600-11020	Pstat Section
PSTATSERIALNO	LABEL	11020	Pstat Serial Number
CTRLMODE	IQUANT	1	Control Mode
IESTAB	IQUANT	0	I/E Stability
CASPEED	IQUANT	1	Control Amp Speed
CONVENTION	IQUANT	1	Current Convention
ICHRANGE	IQUANT	2	Ich Range
ICHRANGEMODE	TOGGLE	F	Ich Auto Range
ICHOFFSETENABLE	TOGGLE	T	Ich Offset Enable
ICHOFFSET	QUANT	0	Ich Offset (V)
ICHFILTER	IQUANT	3	Ich Filter
VCHRANGE	IQUANT	2	Vch Range
VCHRANGEMODE	TOGGLE	F	Vch Auto Range
VCHOFFSETENABLE	TOGGLE	T	Vch Offset Enable
VCHOFFSET	QUANT	0	Vch Offset (V)
VCHFILTER	IQUANT	3	Vch Filter
ACHRANGE	IQUANT	2	Ach Range
ACHOFFSETENABLE	TOGGLE	F	Ach Offset Enable
ACHOFFSET	QUANT	0	Ach Offset (V)
ACHFILTER	IQUANT	3	Ach Filter
IERANGELOWERLIMIT	IQUANT	1	I/E Range Lower Limit
IERANGEMODE	TOGGLE	F	I/E AutoRange
IERANGE	IQUANT	8	I/E Range
POSFEEDENABLE	TOGGLE	F	Positive Feedback IR Comp
POSFEEDRESISTANCE	QUANT	0	Positive Feedback Resistance (ohm)
ACHSELECT	IQUANT	0	Ach Select
CABLEID	IQUANT	14	Cable ID
DCCALDATE	LABEL	2/27/2020	DC Calibration Date
ACCALDATE	LABEL	2/27/2020	AC Calibration Date
THERMOSELECT	IQUANT	1	Thermo Select
FRAMEWORKVERSION	QUANT	6.33	Framework Version
INSTRUMENTVERSION	LABEL	3.50	Instrument Version
ZCURVE	TABLE
	Pt	Time	Freq	Zreal	Zimag	Zsig	Zmod	Zphz	Idc	Vdc	IERange
	#	s	Hz	ohm	ohm	V	ohm	°	A	V	#
	0	1	1000078	2040.329	-2140.448	1	2957.104	-46.37182	2.560724E-008	0.1009576	8
	1	1	794390.6	2490.556	-2246.37	1	3353.96	-42.04905	1.090778E-007	0.1005656	8
	2	1	630984.4	2963.484	-2272.279	1	3734.366	-37.47953	8.447964E-008	0.1003991	8
	3	2	501234.4	3426.219	-2219.246	1	4082.16	-32.93212	2.566099E-008	0.1003046	8
	4	2	398109.4	3847.383	-2091.518	1	4379.133	-28.52942	7.523344E-009	0.1002731	8
	5	2	316265.6	4209.537	-1923.186	1	4628.05	-24.55396	2.839302E-008	0.1002065	8
	6	3	251203.1	4514.299	-1728.648	1	4833.955	-20.95321	4.898829E-008	0.1002033	8
	7	3	199546.9	4749.794	-1537.443	1	4992.422	-17.93606	4.137155E-008	0.1001946	8
	8	3	158578.1	4944.626	-1360.563	1	5128.397	-15.38477	5.767652E-008	0.1001979	8
	9	4	125953.1	5120.214	-1151.594	1	5248.12	-12.67554	2.775038E-009	0.1001552	7
	10	4	100078.1	5219.718	-1026.227	1	5319.643	-11.12282	1.706003E-009	0.1001317	7
	11	4	79453.13	5317.851	-935.1218	1	5399.443	-9.97326	2.276344E-009	0.1001309	7
	12	5	63140.62	5401.751	-865.9927	1	5470.727	-9.107987	2.162302E-009	0.1001203	7
	13	5	50203.12	5475.67	-818.0206	1	5536.436	-8.496686	1.529459E-009	0.1001185	7
	14	5	39890.62	5545.248	-791.402	1	5601.437	-8.122241	1.546624E-009	0.1001096	7
	15	6	31640.63	5611.513	-785.6739	1	5666.247	-7.970232	1.545071E-009	0.1001144	7
	16	6	25171.88	5676.454	-800.0748	1	5732.56	-8.022777	1.720094E-009	0.1001159	7
	17	6	20015.62	5742.979	-835.9848	1	5803.506	-8.282169	2.268601E-009	0.1001154	7
	18	7	15890.62	5811.854	-894.0787	1	5880.224	-8.745654	1.860736E-009	0.1001154	7
	19	7	12609.37	5885.397	-975.563	1	5965.704	-9.411771	2.606138E-009	0.100113	7
	20	7	10078.13	5961.203	-1079.505	1	6058.158	-10.26437	2.506071E-009	0.1001102	7
	21	8	8015.625	6046.753	-1215.648	1	6167.741	-11.3673	3.272901E-009	0.1001124	7
	22	8	6328.125	6143.641	-1391.154	1	6299.177	-12.75878	2.61469E-009	0.1001064	7
	23	8	5015.625	6251.476	-1606.226	1	6454.527	-14.40963	3.101171E-009	0.1001121	7
	24	9	3984.375	6371.088	-1865.759	1	6638.661	-16.32255	2.116352E-009	0.1001044	7
	25	9	3170.956	6506.386	-2181.613	1	6862.397	-18.53648	3.650929E-009	0.1001093	7
	26	9	2527.573	6659.773	-2559.121	1	7134.541	-21.02004	4.374308E-009	0.1001127	7
	27	9	1976.103	6852.41	-3055.118	1	7502.617	-24.0295	3.13805E-009	0.1001042	7
	28	10	1577.524	7055.484	-3609.375	1	7925.115	-27.09293	2.700023E-009	0.1000985	7
	29	10	1265.625	7285.912	-4259.817	1	8439.819	-30.31333	2.48796E-009	0.1001002	7
	30	10	998.264	7575.169	-5110.499	1	9137.854	-34.00511	4.012938E-009	0.1001094	7
	31	11	796.875	7897.343	-6074.114	1	9963.08	-37.56511	-4.749102E-010	0.1001565	6
	32	11	627.7902	8294.915	-7324.449	1	11065.86	-41.44466	-2.36581E-011	0.1001583	6
	33	11	505.5147	8716.044	-8695.094	1	12311.54	-44.93106	-2.216063E-010	0.1001514	6
	34	12	397.9953	9260.317	-10527.79	1	14020.98	-48.66492	5.6215E-010	0.1001721	6
	35	12	315.5048	9893.6	-12698.32	1	16097.53	-52.07689	6.172942E-010	0.1001681	6
	36	12	252.4038	10620.24	-15225.28	1	18563.37	-55.10268	4.979455E-010	0.1001638	6
	37	13	198.6229	11560.77	-18527.19	1	21838.23	-58.03628	5.434653E-010	0.1001673	6
	38	13	158.3615	12644.59	-22328.17	1	25659.95	-60.47683	5.877359E-010	0.1001625	6
	39	13	125.558	14006.79	-27059.46	1	30469.73	-62.63257	5.832088E-010	0.1001622	6
	40	14	100.4464	15627.21	-32565.25	1	36120.7	-64.36488	5.518064E-010	0.1001655	6
	41	14	79.00281	17812	-39756.96	1	43564.7	-65.86655	5.058503E-010	0.1001626	6
	42	14	63.3446	20345.99	-47754.39	1	51908.01	-66.92334	3.555622E-010	0.1001622	6
	43	15	49.86702	23834.83	-58191.21	1	62883.35	-67.72624	2.461653E-010	0.1001608	6
	44	15	39.72458	28071.56	-70101.25	1	75512.9	-68.1767	6.326787E-010	0.1001629	6
	45	15	31.6723	33460.11	-84277.96	1	90677.2	-68.34589	5.3575E-010	0.1001642	6
	46	16	24.93351	40787.54	-102010.6	1	109862.6	-68.20669	3.262521E-010	0.1001676	5
	47	16	19.86229	49673.81	-121999.6	1	131724.7	-67.84563	8.188301E-010	0.1001714	5
	48	16	15.83615	60934.95	-145499.2	1	157743.7	-67.2761	1.385683E-010	0.1001697	5
	49	17	12.40079	76773.83	-174943.8	1	191048.5	-66.30579	1.013366E-009	0.1001657	5
	50	17	9.93114	94817.48	-205786.1	1	226579.5	-65.26176	8.896504E-010	0.1001674	5
	51	17	7.944915	117905.5	-241109.9	1	268394.6	-63.94084	-3.485287E-010	0.1001653	5
	52	18	6.317385	147286.5	-281434.2	1	317645.3	-62.37502	3.046007E-010	0.100163	5
	53	19	5.008013	184075.4	-326106	1	374471.4	-60.5568	5.833761E-010	0.1001769	5
	54	19	3.945707	230648.9	-375267.3	1	440482.1	-58.42405	2.836868E-010	0.1001641	5
	55	20	3.158693	280539	-423067.2	1	507629.8	-56.45134	3.588104E-010	0.1001828	5
	56	21	2.504006	341034	-474317	1	584192.4	-54.28386	6.321725E-013	0.1001686	5
	57	23	1.998082	403369.2	-525479.8	1	662446.8	-52.48941	2.557643E-011	0.100153	5
	58	24	1.584686	474372.7	-578733.6	1	748306.1	-50.65943	1.865962E-010	0.100197	5
	59	26	1.266892	545699.9	-637060.9	1	838829.6	-49.41698	2.139145E-010	0.1001945	5
	60	29	0.999041	622973.6	-705610.6	1	941266.4	-48.55917	2.216913E-010	0.1001753	5
