EXPLAIN
TAG	EISPOT
TITLE	LABEL	Potentiostatic EIS	Test &Identifier
DATE	LABEL	1/21/2020	Date
TIME	LABEL	17:55:10	Time
NOTES	NOTES	6	&Notes...
	
	
	
	
	
	
PSTAT	PSTAT	REF600-11020	Potentiostat
VDC	POTEN	0.00000E+000	T	DC &Voltage (V)
FREQINIT	QUANT	1.00000E+006	Initial Fre&q. (Hz)
FREQFINAL	QUANT	1.00000E+000	Final Fre&q. (Hz)
PTSPERDEC	QUANT	1.00000E+001	Points/&decade
VAC	QUANT	2.50000E+001	AC &Voltage (mV rms)
AREA	QUANT	1.00000E-001	&Area (cm^2)
CONDIT	TWOPARAM	F	5.00000E+000	0.00000E+000	Conditionin&g	Time(s)	E(V)
DELAY	TWOPARAM	F	5.00000E+000	0.00000E+000	Init. De&lay	Time(s)	Stab.(mV/s)
SPEED	SELECTOR	0	&Optimize for:
ZGUESS	QUANT	5.00000E+002	E&stimated Z (ohms)
OCVCURVE	TABLE	39
	Pt	T	Vf	Vm	Ach	Over
	#	s	V vs. Ref.	V	V	bits
	0	0.258333	1.35538E-001	1.35538E-001	6.51580E-004	...........
	1	0.516667	1.35538E-001	1.35499E-001	6.55980E-004	...........
	2	0.775	1.35534E-001	1.35501E-001	6.50513E-004	...........
	3	1.03333	1.35526E-001	1.35508E-001	6.48146E-004	...........
	4	1.29167	1.35516E-001	1.35507E-001	6.51046E-004	...........
	5	1.55	1.35508E-001	1.35467E-001	6.51146E-004	...........
	6	1.80833	1.35501E-001	1.35447E-001	6.52080E-004	...........
	7	2.06667	1.35490E-001	1.35431E-001	6.50280E-004	...........
	8	2.325	1.35472E-001	1.35354E-001	6.47680E-004	...........
	9	2.58333	1.35447E-001	1.35396E-001	6.46080E-004	...........
	10	2.84167	1.35422E-001	1.35478E-001	6.47113E-004	...........
	11	3.1	1.35410E-001	1.35427E-001	6.56413E-004	...........
	12	3.35833	1.35413E-001	1.35371E-001	6.49746E-004	...........
	13	3.61667	1.35416E-001	1.35234E-001	6.51013E-004	...........
	14	3.875	1.35397E-001	1.35309E-001	6.48380E-004	...........
	15	4.13333	1.35360E-001	1.35335E-001	6.48513E-004	...........
	16	4.39167	1.35325E-001	1.35245E-001	6.55846E-004	...........
	17	4.65	1.35303E-001	1.35263E-001	6.49613E-004	...........
	18	4.90833	1.35288E-001	1.35157E-001	6.52946E-004	...........
	19	5.16667	1.35265E-001	1.35182E-001	6.48413E-004	...........
	20	5.425	1.35235E-001	1.35174E-001	6.52313E-004	...........
	21	5.68333	1.35206E-001	1.35190E-001	6.52846E-004	...........
	22	5.94167	1.35189E-001	1.35215E-001	6.53646E-004	...........
	23	6.2	1.35185E-001	1.35181E-001	6.50413E-004	...........
	24	6.45833	1.35188E-001	1.35179E-001	6.52080E-004	...........
	25	6.71667	1.35191E-001	1.35233E-001	6.49880E-004	...........
	26	6.975	1.35194E-001	1.35212E-001	6.58713E-004	...........
	27	7.23333	1.35200E-001	1.35198E-001	6.53413E-004	...........
	28	7.49167	1.35205E-001	1.35196E-001	6.52713E-004	...........
	29	7.75	1.35207E-001	1.35205E-001	6.50146E-004	...........
	30	8.00833	1.35205E-001	1.35210E-001	6.51646E-004	...........
	31	8.26667	1.35204E-001	1.35219E-001	6.45713E-004	...........
	32	8.525	1.35206E-001	1.35223E-001	6.50313E-004	...........
	33	8.78333	1.35210E-001	1.35206E-001	6.53179E-004	...........
	34	9.04167	1.35214E-001	1.35214E-001	6.56179E-004	...........
	35	9.3	1.35215E-001	1.35226E-001	6.50446E-004	...........
	36	9.5583	1.35216E-001	1.35230E-001	6.49280E-004	...........
	37	9.8167	1.35218E-001	1.35228E-001	6.55479E-004	...........
	38	10.075	1.35222E-001	1.35205E-001	6.45346E-004	...........
EOC	QUANT	0.1352216	Open Circuit (V)
PSTATMODEL	IQUANT	4	Pstat Model
PSTATSECTION	LABEL	REF600-11020	Pstat Section
PSTATSERIALNO	LABEL	11020	Pstat Serial Number
CTRLMODE	IQUANT	1	Control Mode
IESTAB	IQUANT	0	I/E Stability
CASPEED	IQUANT	1	Control Amp Speed
CONVENTION	IQUANT	1	Current Convention
ICHRANGE	IQUANT	2	Ich Range
ICHRANGEMODE	TOGGLE	F	Ich Auto Range
ICHOFFSETENABLE	TOGGLE	T	Ich Offset Enable
ICHOFFSET	QUANT	0	Ich Offset (V)
ICHFILTER	IQUANT	3	Ich Filter
VCHRANGE	IQUANT	2	Vch Range
VCHRANGEMODE	TOGGLE	F	Vch Auto Range
VCHOFFSETENABLE	TOGGLE	T	Vch Offset Enable
VCHOFFSET	QUANT	0	Vch Offset (V)
VCHFILTER	IQUANT	3	Vch Filter
ACHRANGE	IQUANT	2	Ach Range
ACHOFFSETENABLE	TOGGLE	F	Ach Offset Enable
ACHOFFSET	QUANT	0	Ach Offset (V)
ACHFILTER	IQUANT	3	Ach Filter
IERANGELOWERLIMIT	IQUANT	1	I/E Range Lower Limit
IERANGEMODE	TOGGLE	F	I/E AutoRange
IERANGE	IQUANT	8	I/E Range
POSFEEDENABLE	TOGGLE	F	Positive Feedback IR Comp
POSFEEDRESISTANCE	QUANT	0	Positive Feedback Resistance (ohm)
ACHSELECT	IQUANT	0	Ach Select
CABLEID	IQUANT	14	Cable ID
DCCALDATE	LABEL	12/22/2019	DC Calibration Date
ACCALDATE	LABEL	12/22/2019	AC Calibration Date
THERMOSELECT	IQUANT	1	Thermo Select
FRAMEWORKVERSION	QUANT	6.33	Framework Version
INSTRUMENTVERSION	LABEL	3.50	Instrument Version
ZCURVE	TABLE
	Pt	Time	Freq	Zreal	Zimag	Zsig	Zmod	Zphz	Idc	Vdc	IERange
	#	s	Hz	ohm	ohm	V	ohm	°	A	V	#
	0	1	1000078	2054.357	-1624.853	1	2619.262	-38.34154	4.461424E-007	0.1373	8
	1	2	794390.6	2361.848	-1614.474	1	2860.918	-34.35509	7.569473E-007	0.1369903	8
	2	2	630984.4	2653.577	-1568.799	1	3082.629	-30.59165	-6.385299E-007	0.1370577	8
	3	2	501234.4	2924.411	-1502.747	1	3287.922	-27.19697	-3.504522E-007	0.1369572	8
	4	3	398109.4	3161.653	-1419.427	1	3465.663	-24.17774	-6.300462E-007	0.1369001	8
	5	3	316265.6	3359.151	-1335.22	1	3614.79	-21.67719	2.485201E-006	0.1362583	8
	6	3	251203.1	3565.958	-1261.276	1	3782.443	-19.47864	-1.965293E-007	0.1369584	8
	7	3	199546.9	3737.075	-1188.366	1	3921.472	-17.64034	-6.21727E-007	0.1370175	8
	8	4	158578.1	3904.809	-1109.326	1	4059.327	-15.85944	6.564503E-007	0.136704	8
	9	4	125953.1	4070.279	-1020.738	1	4196.317	-14.07821	2.52162E-007	0.1363677	7
	10	4	100078.1	4195.541	-951.945	1	4302.181	-12.78366	1.167743E-008	0.1366955	7
	11	5	79453.13	4322.989	-898.4951	1	4415.374	-11.74126	2.06363E-009	0.1367796	7
	12	5	63140.62	4440.787	-847.3181	1	4520.9	-10.8024	-4.250028E-008	0.1367987	7
	13	5	50203.12	4545.942	-800.2885	1	4615.848	-9.98431	3.26881E-008	0.1366506	7
	14	6	39890.62	4641.343	-759.5803	1	4703.087	-9.294365	1.916725E-009	0.1367249	7
	15	6	31640.63	4727.653	-729.5458	1	4783.612	-8.772378	-3.949049E-008	0.1368044	7
	16	6	25171.88	4805.565	-710.5419	1	4857.811	-8.410708	5.399882E-008	0.1366332	7
	17	7	20015.62	4872.351	-700.5385	1	4922.454	-8.181821	5.55381E-008	0.1366281	7
	18	7	15890.62	4943.375	-708.384	1	4993.873	-8.154949	-4.068441E-008	0.1368025	7
	19	7	12609.37	5005.299	-731.1343	1	5058.417	-8.310537	2.976261E-009	0.1367142	7
	20	8	10078.13	5063.823	-768.7958	1	5121.85	-8.632792	3.023146E-009	0.1367129	7
	21	8	8015.625	5119.162	-826.665	1	5185.479	-9.173186	3.441022E-008	0.1366386	7
	22	8	6328.125	5185.839	-916.0128	1	5266.119	-10.01725	5.849008E-008	0.136647	7
	23	8	5015.625	5247.081	-1030.835	1	5347.381	-11.11471	-1.818598E-008	0.1367312	7
	24	9	3984.375	5314.615	-1184.257	1	5444.961	-12.562	-2.900308E-008	0.1367412	7
	25	9	3170.956	5382.359	-1368.563	1	5553.625	-14.26618	-2.221467E-008	0.1367799	7
	26	9	2527.573	5458.536	-1602.097	1	5688.79	-16.35712	-2.213186E-008	0.1367753	7
	27	10	1976.103	5551.036	-1920.975	1	5874.023	-19.08854	-2.417744E-008	0.1368009	7
	28	10	1577.524	5665.289	-2292.705	1	6111.628	-22.03285	-3.642132E-008	0.1368649	7
	29	10	1265.625	5760.04	-2720.014	1	6369.971	-25.27769	1.309422E-008	0.1366643	7
	30	11	998.264	5901.504	-3302.552	1	6762.736	-29.23189	-3.72782E-008	0.1367815	7
	31	11	796.875	6062.91	-3990.025	1	7258.042	-33.34908	9.385914E-009	0.1367989	7
	32	11	627.7902	6281.289	-4873.155	1	7949.983	-37.80505	5.7471E-008	0.1366154	7
	33	12	505.5147	6519.436	-5853.817	1	8761.861	-41.92074	5.760765E-008	0.1366151	7
	34	12	397.9953	6850.904	-7186.443	1	9928.74	-46.3693	6.109974E-009	0.1367367	7
	35	12	315.5048	7264.396	-8763.494	1	11382.89	-50.34336	9.362106E-010	0.1367441	6
	36	13	252.4038	7766.097	-10601.29	1	13141.52	-53.77494	1.819441E-010	0.1367431	6
	37	13	198.6229	8455.43	-12997.55	1	15505.83	-56.95438	7.798698E-010	0.1367445	6
	38	13	158.3615	9296.772	-15742.64	1	18282.8	-59.43614	9.973713E-010	0.1367397	6
	39	14	125.558	10407.56	-19126.9	1	21775.11	-61.44798	6.799907E-010	0.1367405	6
	40	14	100.4464	11778.48	-23022.44	1	25860.49	-62.90533	1.072601E-009	0.1367365	6
	41	14	79.00281	13669.6	-28012.29	1	31169.64	-63.98828	8.503291E-010	0.1367355	6
	42	15	63.3446	16086.48	-33352.46	1	37029.2	-64.25116	4.953897E-010	0.136735	6
	43	15	49.86702	19222.68	-40293.58	1	44643.97	-64.49579	-1.053868E-010	0.1367376	6
	44	15	39.72458	22933.09	-47960.26	1	53161.2	-64.44434	5.460745E-010	0.1367383	6
	45	16	31.6723	27683.8	-56673.89	1	63073.95	-63.96563	-8.310246E-011	0.1367352	6
	46	16	24.93351	33872	-67307.55	1	75349.97	-63.28653	8.509385E-010	0.1367369	6
	47	16	19.86229	41062.38	-78742.63	1	88806.08	-62.45905	2.389009E-009	0.136741	6
	48	17	15.83615	49269.6	-91414.47	1	103846.5	-61.67669	-4.281956E-010	0.1367303	5
	49	17	12.40079	61066.38	-107181.1	1	123356.7	-60.32768	3.321169E-010	0.1367345	5
	50	17	9.93114	72383.05	-122737.9	1	142491.8	-59.47059	8.09698E-010	0.1367381	5
	51	17	7.944915	86806.3	-139937.6	1	164675	-58.18777	-2.939609E-010	0.1367444	5
	52	18	6.317385	101901	-160839.9	1	190402.9	-57.64347	5.548841E-010	0.1367204	5
	53	19	5.008013	120503.9	-184409.2	1	220290.6	-56.83701	1.684817E-010	0.1367244	5
	54	20	3.945707	142606.3	-212093.4	1	255578.1	-56.0841	-3.456157E-010	0.1367309	5
	55	20	3.158693	165178.9	-240774.2	1	291986.8	-55.54862	-4.343521E-012	0.1367137	5
	56	22	2.504006	193242.3	-275263	1	336321.7	-54.93008	3.958135E-010	0.1367204	5
	57	23	1.998082	223011.2	-312474.1	1	383893.3	-54.48475	8.889923E-011	0.1367091	5
	58	25	1.584686	259417.3	-356844.5	1	441174.9	-53.98375	-1.083466E-010	0.1366826	5
	59	27	1.266892	297495.2	-405080.2	1	502586.7	-53.70604	-6.032904E-011	0.1366993	5
	60	29	0.999041	343672.8	-461329.5	1	575270.3	-53.3153	3.475751E-011	0.1367275	5
