EXPLAIN
TAG	EISPOT
TITLE	LABEL	Potentiostatic EIS	Test &Identifier
DATE	LABEL	3/9/2020	Date
TIME	LABEL	20:40:47	Time
NOTES	NOTES	1	&Notes...
	
PSTAT	PSTAT	REF600-11020	Potentiostat
VDC	POTEN	0.00000E+000	T	DC &Voltage (V)
FREQINIT	QUANT	1.00000E+006	Initial Fre&q. (Hz)
FREQFINAL	QUANT	1.00000E+000	Final Fre&q. (Hz)
PTSPERDEC	QUANT	1.00000E+001	Points/&decade
VAC	QUANT	2.50000E+001	AC &Voltage (mV rms)
AREA	QUANT	4.00000E-005	&Area (cm^2)
CONDIT	TWOPARAM	F	5.00000E+000	0.00000E+000	Conditionin&g	Time(s)	E(V)
DELAY	TWOPARAM	T	3.00000E+000	0.00000E+000	Init. De&lay	Time(s)	Stab.(mV/s)
SPEED	SELECTOR	0	&Optimize for:
ZGUESS	QUANT	1.00000E+003	E&stimated Z (ohms)
OCVCURVE	TABLE	12
	Pt	T	Vf	Vm	Ach	Over
	#	s	V vs. Ref.	V	V	bits
	0	0.258333	3.67671E-002	3.67671E-002	5.80197E-004	...........
	1	0.516667	3.67668E-002	3.67528E-002	5.77563E-004	...........
	2	0.775	3.67651E-002	3.67370E-002	5.82797E-004	...........
	3	1.03333	3.67601E-002	3.67240E-002	5.81863E-004	...........
	4	1.29167	3.67511E-002	3.67084E-002	5.79230E-004	...........
	5	1.55	3.67388E-002	3.66926E-002	5.76930E-004	...........
	6	1.80833	3.67246E-002	3.66778E-002	5.81563E-004	...........
	7	2.06667	3.67096E-002	3.66624E-002	5.79297E-004	...........
	8	2.325	3.66943E-002	3.66485E-002	5.76363E-004	...........
	9	2.58333	3.66791E-002	3.66350E-002	5.78530E-004	...........
	10	2.84167	3.66643E-002	3.66207E-002	5.79397E-004	...........
	11	3.1	3.66499E-002	3.66055E-002	5.78797E-004	...........
EOC	QUANT	0.0366499	Open Circuit (V)
PSTATMODEL	IQUANT	4	Pstat Model
PSTATSECTION	LABEL	REF600-11020	Pstat Section
PSTATSERIALNO	LABEL	11020	Pstat Serial Number
CTRLMODE	IQUANT	1	Control Mode
IESTAB	IQUANT	0	I/E Stability
CASPEED	IQUANT	1	Control Amp Speed
CONVENTION	IQUANT	1	Current Convention
ICHRANGE	IQUANT	2	Ich Range
ICHRANGEMODE	TOGGLE	F	Ich Auto Range
ICHOFFSETENABLE	TOGGLE	T	Ich Offset Enable
ICHOFFSET	QUANT	0	Ich Offset (V)
ICHFILTER	IQUANT	3	Ich Filter
VCHRANGE	IQUANT	2	Vch Range
VCHRANGEMODE	TOGGLE	F	Vch Auto Range
VCHOFFSETENABLE	TOGGLE	T	Vch Offset Enable
VCHOFFSET	QUANT	0	Vch Offset (V)
VCHFILTER	IQUANT	3	Vch Filter
ACHRANGE	IQUANT	2	Ach Range
ACHOFFSETENABLE	TOGGLE	F	Ach Offset Enable
ACHOFFSET	QUANT	0	Ach Offset (V)
ACHFILTER	IQUANT	3	Ach Filter
IERANGELOWERLIMIT	IQUANT	1	I/E Range Lower Limit
IERANGEMODE	TOGGLE	F	I/E AutoRange
IERANGE	IQUANT	7	I/E Range
POSFEEDENABLE	TOGGLE	F	Positive Feedback IR Comp
POSFEEDRESISTANCE	QUANT	0	Positive Feedback Resistance (ohm)
ACHSELECT	IQUANT	0	Ach Select
CABLEID	IQUANT	14	Cable ID
DCCALDATE	LABEL	2/27/2020	DC Calibration Date
ACCALDATE	LABEL	2/27/2020	AC Calibration Date
THERMOSELECT	IQUANT	1	Thermo Select
FRAMEWORKVERSION	QUANT	6.33	Framework Version
INSTRUMENTVERSION	LABEL	3.50	Instrument Version
ZCURVE	TABLE
	Pt	Time	Freq	Zreal	Zimag	Zsig	Zmod	Zphz	Idc	Vdc	IERange
	#	s	Hz	ohm	ohm	V	ohm	°	A	V	#
	0	1	1000078	1870.84	-2132.96	1	2837.175	-48.74568	7.078012E-008	0.0390823	8
	1	1	794390.6	2287.698	-2287.84	1	3235.394	-45.00177	7.82923E-008	0.0387089	8
	2	2	630984.4	2742.832	-2384.453	1	3634.384	-41.00174	7.403511E-008	0.0385574	8
	3	2	501234.4	3213.695	-2417.18	1	4021.267	-36.94865	4.302252E-008	0.0385072	8
	4	2	398109.4	3681.888	-2383.375	1	4385.975	-32.91596	4.488421E-008	0.0384554	8
	5	3	316265.6	4100.404	-2296.158	1	4699.538	-29.2481	2.213762E-008	0.0384171	8
	6	3	251203.1	4503.606	-2160.344	1	4994.953	-25.62667	2.679147E-009	0.0384208	8
	7	3	199546.9	4866.208	-1995.823	1	5259.59	-22.30045	4.468741E-009	0.038398	8
	8	3	158578.1	5169.205	-1809.349	1	5476.716	-19.29131	3.61517E-008	0.0383987	8
	9	4	125953.1	5481.571	-1527.449	1	5690.406	-15.57059	7.055709E-010	0.0383557	7
	10	4	100078.1	5674.191	-1351.427	1	5832.906	-13.3966	4.214724E-010	0.0383346	7
	11	4	79453.13	5833.264	-1209.795	1	5957.396	-11.7168	5.12105E-010	0.038336	7
	12	5	63140.62	5957.69	-1089.398	1	6056.472	-10.36238	1.289047E-009	0.0383361	7
	13	5	50203.12	6068.788	-980.863	1	6147.542	-9.180992	3.911138E-010	0.0383291	7
	14	5	39890.62	6163.115	-889.2363	1	6226.936	-8.21018	5.523782E-010	0.0383213	7
	15	6	31640.63	6243.654	-816.4606	1	6296.811	-7.450093	1.207166E-009	0.038328	7
	16	6	25171.88	6309.753	-776.5417	1	6357.358	-7.016114	9.957204E-010	0.0383239	7
	17	6	20015.62	6372.472	-749.1349	1	6416.354	-6.704803	1.242334E-009	0.0383207	7
	18	7	15890.62	6429.258	-745.3069	1	6472.313	-6.612455	2.408574E-009	0.0383287	7
	19	7	12609.37	6478.769	-764.793	1	6523.753	-6.732384	1.841609E-009	0.0383164	7
	20	7	10078.13	6526.316	-801.6001	1	6575.36	-7.002329	1.332478E-009	0.0383217	7
	21	8	8015.625	6574.441	-869.1719	1	6631.646	-7.531097	8.208637E-010	0.038315	7
	22	8	6328.125	6623.995	-973.381	1	6695.131	-8.359655	2.322944E-009	0.0383167	7
	23	8	5015.625	6674.779	-1111.281	1	6766.655	-9.452452	1.877715E-009	0.0383215	7
	24	9	3984.375	6728.418	-1292.337	1	6851.404	-10.87247	2.228387E-009	0.0383207	7
	25	9	3170.956	6786.875	-1520.317	1	6955.073	-12.6263	1.114016E-009	0.0383067	7
	26	9	2527.573	6854.967	-1807.198	1	7089.185	-14.76904	2.215418E-009	0.0383132	7
	27	10	1976.103	6941.73	-2201.666	1	7282.51	-17.59715	3.027408E-009	0.0383163	7
	28	10	1577.524	7037.734	-2648.598	1	7519.625	-20.62345	1.773499E-009	0.0383098	7
	29	10	1265.625	7151.393	-3187.207	1	7829.477	-24.0214	2.27183E-009	0.0383164	7
	30	10	998.264	7302.095	-3902.657	1	8279.572	-28.1226	2.460293E-009	0.0383107	7
	31	11	796.875	7479.68	-4737.65	1	8853.866	-32.35028	2.219956E-009	0.0383121	7
	32	11	627.7902	7721.542	-5811.229	1	9663.98	-36.9651	-5.71996E-010	0.0383675	6
	33	11	505.5147	7983.742	-7007.043	1	10622.56	-41.27226	-7.832448E-010	0.0383619	6
	34	12	397.9953	8338.986	-8617.12	1	11991.39	-45.93975	5.160155E-010	0.0383813	6
	35	12	315.5048	8768.807	-10533.83	1	13705.97	-50.22458	5.250827E-010	0.0383801	6
	36	12	252.4038	9277.885	-12775.6	1	15789.08	-54.01213	5.078934E-010	0.0383793	6
	37	13	198.6229	9955.9	-15717.89	1	18605.7	-57.64934	5.692418E-010	0.0383823	6
	38	13	158.3615	10759.67	-19122.48	1	21941.74	-60.63478	4.24089E-010	0.0383787	6
	39	13	125.558	11795.03	-23380.09	1	26186.85	-63.22949	4.915262E-010	0.0383759	6
	40	14	100.4464	13058.97	-28360.89	1	31223.02	-65.27596	3.310218E-010	0.0383756	6
	41	14	79.00281	14812.33	-34902.48	1	37915.54	-67.00403	2.810855E-010	0.0383774	6
	42	14	63.3446	16909.2	-42213.88	1	45474.53	-68.17094	1.683597E-010	0.0383759	6
	43	15	49.86702	19882.89	-51785.36	1	55471.19	-68.9958	3.739168E-010	0.0383714	6
	44	15	39.72458	23616.14	-62763.12	1	67059.16	-69.37998	3.64541E-010	0.0383713	6
	45	15	31.6723	28486.26	-75784.09	1	80961.08	-69.39941	8.493259E-011	0.0383755	6
	46	16	24.93351	35282.97	-92081.13	1	98609.4	-69.03453	6.353148E-010	0.038372	6
	47	16	19.86229	43771.35	-110195.8	1	118570.8	-68.33631	7.32267E-010	0.0383816	5
	48	16	15.83615	54612.56	-131252.8	1	142161.3	-67.40845	8.503899E-010	0.0383763	5
	49	17	12.40079	69675.6	-157284.1	1	172026.1	-66.10705	1.245509E-009	0.0383763	5
	50	17	9.93114	86760.13	-183693.5	1	203151.7	-64.7182	1.40092E-009	0.0383795	5
	51	17	7.944915	107687.2	-213936.6	1	239510.7	-63.28113	2.806827E-010	0.038377	5
	52	18	6.317385	133724.2	-247893.6	1	281661.8	-61.65571	1.449854E-010	0.0383772	5
	53	19	5.008013	165215.1	-285357.3	1	329734.5	-59.93017	4.349763E-010	0.0383859	5
	54	19	3.945707	203462.6	-327642.1	1	385676.5	-58.16012	4.109429E-010	0.0383727	5
	55	20	3.158693	244067.2	-369472.5	1	442807.8	-56.55193	2.449613E-010	0.0383888	5
	56	21	2.504006	292689.3	-417099.9	1	509548.2	-54.94171	-1.007085E-010	0.0383748	5
	57	23	1.998082	343240.7	-465498.9	1	578362.7	-53.59638	4.228234E-011	0.0383912	5
	58	24	1.584686	402122.9	-520225	1	657523.3	-52.29673	1.938309E-010	0.0384223	5
	59	26	1.266892	460889.8	-579637.9	1	740540	-51.51059	1.850895E-010	0.0384045	5
	60	29	0.999041	526716.1	-649328.6	1	836096.6	-50.95206	1.665847E-010	0.0383765	5
