EXPLAIN
TAG	EISPOT
TITLE	LABEL	Potentiostatic EIS	Test &Identifier
DATE	LABEL	3/12/2020	Date
TIME	LABEL	12:50:27	Time
NOTES	NOTES	1	&Notes...
	
PSTAT	PSTAT	REF600-11020	Potentiostat
VDC	POTEN	0.00000E+000	T	DC &Voltage (V)
FREQINIT	QUANT	1.00000E+006	Initial Fre&q. (Hz)
FREQFINAL	QUANT	1.00000E+000	Final Fre&q. (Hz)
PTSPERDEC	QUANT	1.00000E+001	Points/&decade
VAC	QUANT	2.50000E+001	AC &Voltage (mV rms)
AREA	QUANT	2.50000E-001	&Area (cm^2)
CONDIT	TWOPARAM	F	5.00000E+000	0.00000E+000	Conditionin&g	Time(s)	E(V)
DELAY	TWOPARAM	T	5.00000E+000	0.00000E+000	Init. De&lay	Time(s)	Stab.(mV/s)
SPEED	SELECTOR	1	&Optimize for:
ZGUESS	QUANT	5.00000E+003	E&stimated Z (ohms)
OCVCURVE	TABLE	19
	Pt	T	Vf	Vm	Ach	Over
	#	s	V vs. Ref.	V	V	bits
	0	0.258333	5.10185E-002	5.10185E-002	5.79263E-004	...........
	1	0.516667	5.10182E-002	5.10043E-002	5.77730E-004	...........
	2	0.775	5.10158E-002	5.09498E-002	5.78630E-004	...........
	3	1.03333	5.10055E-002	5.08591E-002	5.73863E-004	...........
	4	1.29167	5.09806E-002	5.08633E-002	5.72897E-004	...........
	5	1.55	5.09419E-002	5.08198E-002	5.79597E-004	...........
	6	1.80833	5.08971E-002	5.06995E-002	5.76297E-004	...........
	7	2.06667	5.08478E-002	5.06272E-002	5.79330E-004	...........
	8	2.325	5.07881E-002	5.05536E-002	5.74263E-004	...........
	9	2.58333	5.07167E-002	5.04859E-002	5.79663E-004	...........
	10	2.84167	5.06401E-002	5.04164E-002	5.76530E-004	...........
	11	3.1	5.05647E-002	5.03574E-002	5.78130E-004	...........
	12	3.35833	5.04932E-002	5.02947E-002	5.76963E-004	...........
	13	3.61667	5.04260E-002	5.02356E-002	5.81163E-004	...........
	14	3.875	5.03621E-002	5.01743E-002	5.80063E-004	...........
	15	4.13333	5.03005E-002	5.01219E-002	5.84363E-004	...........
	16	4.39167	5.02405E-002	5.00621E-002	5.84630E-004	...........
	17	4.65	5.01820E-002	5.00097E-002	5.83163E-004	...........
	18	4.90833	5.01249E-002	4.99577E-002	5.78097E-004	...........
EOC	QUANT	0.0501249	Open Circuit (V)
PSTATMODEL	IQUANT	4	Pstat Model
PSTATSECTION	LABEL	REF600-11020	Pstat Section
PSTATSERIALNO	LABEL	11020	Pstat Serial Number
CTRLMODE	IQUANT	1	Control Mode
IESTAB	IQUANT	0	I/E Stability
CASPEED	IQUANT	1	Control Amp Speed
CONVENTION	IQUANT	1	Current Convention
ICHRANGE	IQUANT	2	Ich Range
ICHRANGEMODE	TOGGLE	F	Ich Auto Range
ICHOFFSETENABLE	TOGGLE	T	Ich Offset Enable
ICHOFFSET	QUANT	0	Ich Offset (V)
ICHFILTER	IQUANT	3	Ich Filter
VCHRANGE	IQUANT	2	Vch Range
VCHRANGEMODE	TOGGLE	F	Vch Auto Range
VCHOFFSETENABLE	TOGGLE	T	Vch Offset Enable
VCHOFFSET	QUANT	0	Vch Offset (V)
VCHFILTER	IQUANT	3	Vch Filter
ACHRANGE	IQUANT	2	Ach Range
ACHOFFSETENABLE	TOGGLE	F	Ach Offset Enable
ACHOFFSET	QUANT	0	Ach Offset (V)
ACHFILTER	IQUANT	3	Ach Filter
IERANGELOWERLIMIT	IQUANT	1	I/E Range Lower Limit
IERANGEMODE	TOGGLE	F	I/E AutoRange
IERANGE	IQUANT	7	I/E Range
POSFEEDENABLE	TOGGLE	F	Positive Feedback IR Comp
POSFEEDRESISTANCE	QUANT	0	Positive Feedback Resistance (ohm)
ACHSELECT	IQUANT	0	Ach Select
CABLEID	IQUANT	14	Cable ID
DCCALDATE	LABEL	2/27/2020	DC Calibration Date
ACCALDATE	LABEL	2/27/2020	AC Calibration Date
THERMOSELECT	IQUANT	1	Thermo Select
FRAMEWORKVERSION	QUANT	6.33	Framework Version
INSTRUMENTVERSION	LABEL	3.50	Instrument Version
ZCURVE	TABLE
	Pt	Time	Freq	Zreal	Zimag	Zsig	Zmod	Zphz	Idc	Vdc	IERange
	#	s	Hz	ohm	ohm	V	ohm	°	A	V	#
	0	1	1000078	1389.116	-1913.102	1	2364.234	-54.01635	9.497717E-006	0.0501105	8
	1	3	794390.6	1692.752	-2150.205	1	2736.565	-51.78836	-8.072382E-006	0.0526817	8
	2	4	630984.4	2060.412	-2397.1	1	3160.916	-49.31951	7.023473E-007	0.0521365	8
	3	5	501234.4	2464.191	-2636.842	1	3609.04	-46.93851	-1.63974E-006	0.0519906	8
	4	7	398109.4	2982.176	-2841.027	1	4118.836	-43.61147	-2.525557E-006	0.05247	8
	5	8	316265.6	3526.827	-3008.8	1	4635.88	-40.4681	2.167232E-006	0.0512104	8
	6	10	251203.1	4141.316	-3079.58	1	5160.844	-36.63536	1.52236E-007	0.0516731	8
	7	12	199546.9	4722.34	-3055.956	1	5624.888	-32.90802	-3.678917E-006	0.0524014	8
	8	13	158578.1	5277.5	-2930.497	1	6036.541	-29.04259	2.459696E-006	0.0510426	8
	9	15	125953.1	5930.158	-2653.883	1	6496.913	-24.10962	1.514755E-006	0.0484502	7
	10	16	100078.1	6358.462	-2430.101	1	6807.013	-20.91605	8.43037E-009	0.0515465	7
	11	18	79453.13	6718.442	-2208.966	1	7072.269	-18.20042	-6.613328E-008	0.0516403	7
	12	19	63140.62	7020.091	-1987.812	1	7296.1	-15.81003	4.156297E-008	0.0515742	7
	13	20	50203.12	7252.081	-1783.531	1	7468.176	-13.81676	2.801597E-009	0.0514634	7
	14	22	39890.62	7454.382	-1604.283	1	7625.06	-12.14557	-5.61644E-008	0.0515958	7
	15	23	31640.63	7619.603	-1458.245	1	7757.888	-10.8343	-4.73093E-008	0.0516207	7
	16	25	25171.88	7765.414	-1344.669	1	7880.977	-9.824	2.405401E-008	0.0514888	7
	17	26	20015.62	7892.066	-1261.688	1	7992.282	-9.082897	1.310656E-007	0.0513833	7
	18	28	15890.62	8003.056	-1208.356	1	8093.765	-8.586056	4.895324E-009	0.0515347	7
	19	30	12609.37	8107.94	-1183.269	1	8193.828	-8.303105	6.701268E-009	0.0515345	7
	20	31	10078.13	8199.827	-1185.183	1	8285.036	-8.224434	5.857169E-008	0.0513555	7
	21	33	8015.625	8301.272	-1226.02	1	8391.32	-8.401318	-3.620654E-008	0.0516594	7
	22	34	6328.125	8396.85	-1296.97	1	8496.424	-8.780465	-3.961269E-008	0.0516305	7
	23	36	5015.625	8495.432	-1405.852	1	8610.969	-9.396339	1.223932E-007	0.0513181	7
	24	37	3984.375	8593.163	-1549.54	1	8731.754	-10.22187	2.33447E-008	0.0514898	7
	25	39	3170.956	8694.318	-1746.563	1	8868.013	-11.35871	-6.587464E-008	0.0516258	7
	26	41	2527.573	8813.914	-1956.563	1	9028.467	-12.51589	-8.562964E-010	0.0514641	6
	27	42	1976.103	8940.505	-2312.134	1	9234.641	-14.49977	-4.047718E-009	0.0517123	6
	28	44	1577.524	9064.225	-2721.406	1	9463.943	-16.71165	9.84256E-009	0.0515331	6
	29	45	1265.625	9205.845	-3215.184	1	9751.15	-19.25199	-8.141993E-009	0.0517508	6
	30	47	998.264	9380.979	-3869.948	1	10147.87	-22.41768	3.750031E-010	0.0514813	6
	31	48	796.875	9580.43	-4636.55	1	10643.41	-25.82515	1.578559E-008	0.0513063	6
	32	49	627.7902	9839.51	-5643.204	1	11342.91	-29.83535	-1.18328E-008	0.051688	6
	33	51	505.5147	10120.7	-6752.915	1	12166.78	-33.71272	-8.427035E-009	0.0517582	6
	34	52	397.9953	10502.63	-8257.746	1	13360.22	-38.17638	5.611272E-010	0.051603	6
	35	54	315.5048	10969.62	-10042.92	1	14872.55	-42.47478	1.765877E-009	0.0515998	6
	36	55	252.4038	11529.85	-12125.35	1	16732.05	-46.44208	8.831848E-011	0.0515952	6
	37	56	198.6229	12293.12	-14843.96	1	19273.4	-50.36992	6.256946E-010	0.0515977	6
	38	58	158.3615	13206.13	-17961.9	1	22294.21	-53.67556	1.48605E-009	0.0515963	6
	39	59	125.558	14397.07	-21800.99	1	26125.82	-56.55978	6.398083E-010	0.0515929	6
	40	60	100.4464	15853.29	-26204.52	1	30626.84	-58.82677	1.99887E-009	0.0515907	6
	41	62	79.00281	17782.21	-31845.83	1	36474.15	-60.82169	1.076761E-009	0.0515914	6
	42	63	63.3446	20485.88	-37856.59	1	43044.08	-61.58021	1.486693E-010	0.0515929	6
	43	65	49.86702	23066.04	-46705.74	1	52090.96	-63.71713	-2.304496E-010	0.0515868	6
	44	66	39.72458	26822.12	-55427.72	1	61576.44	-64.17712	7.141936E-010	0.051593	6
	45	67	31.6723	31466.15	-65917.72	1	73042.9	-64.48229	4.481837E-010	0.05159	6
	46	69	24.93351	37483.47	-79423.41	1	87824.2	-64.73528	9.205692E-010	0.0515897	6
	47	70	19.86229	44775.03	-94048.35	1	104162.8	-64.54157	4.58702E-010	0.0515916	5
	48	72	15.83615	51940.29	-111917	1	123382.4	-65.10415	2.165366E-009	0.0515934	5
	49	73	12.40079	64331.27	-133857.2	1	148513.5	-64.33124	9.13727E-010	0.0516015	5
	50	75	9.93114	77126.12	-155575.3	1	173643.6	-63.63018	3.625998E-010	0.0515994	5
	51	76	7.944915	92193.52	-182190	1	204188.3	-63.15925	3.132883E-010	0.0516067	5
	52	78	6.317385	111344.8	-212975	1	240324.8	-62.39911	-9.08212E-011	0.0515925	5
	53	80	5.008013	134231.2	-249531.7	1	283344.4	-61.72275	-1.408758E-010	0.0515906	5
	54	82	3.945707	163422.8	-292193.1	1	334789.2	-60.78184	1.753743E-010	0.0515965	5
	55	85	3.158693	196124.4	-337175.3	1	390066.6	-59.81476	1.613498E-010	0.0515885	5
	56	88	2.504006	236443.1	-389672.2	1	455795.7	-58.7517	3.596647E-011	0.051606	5
	57	91	1.998082	282100	-444968.4	1	526856.1	-57.62622	4.145426E-010	0.051561	5
	58	94	1.584686	336807.7	-509392.6	1	610671.9	-56.52753	2.245225E-011	0.0515712	5
	59	98	1.266892	397131.5	-574418.2	1	698333.5	-55.34145	3.027809E-010	0.0515542	5
	60	102	0.999041	468647.1	-651128.5	1	802245.9	-54.2557	7.059234E-011	0.0516316	5
