EXPLAIN
TAG	EISPOT
TITLE	LABEL	Potentiostatic EIS	Test &Identifier
DATE	LABEL	1/10/2020	Date
TIME	LABEL	13:01:04	Time
NOTES	NOTES	5	&Notes...
	
	
	
	
	
PSTAT	PSTAT	REF600-11020	Potentiostat
VDC	POTEN	0.00000E+000	T	DC &Voltage (V)
FREQINIT	QUANT	1.00000E+006	Initial Fre&q. (Hz)
FREQFINAL	QUANT	1.00000E+000	Final Fre&q. (Hz)
PTSPERDEC	QUANT	1.00000E+001	Points/&decade
VAC	QUANT	2.50000E+001	AC &Voltage (mV rms)
AREA	QUANT	1.00000E-001	&Area (cm^2)
CONDIT	TWOPARAM	T	5.00000E+000	0.00000E+000	Conditionin&g	Time(s)	E(V)
DELAY	TWOPARAM	T	5.00000E+000	0.00000E+000	Init. De&lay	Time(s)	Stab.(mV/s)
SPEED	SELECTOR	0	&Optimize for:
ZGUESS	QUANT	5.00000E+002	E&stimated Z (ohms)
OCVCURVE	TABLE	19
	Pt	T	Vf	Vm	Ach	Over
	#	s	V vs. Ref.	V	V	bits
	0	0.258333	2.65095E-003	2.65095E-003	6.46813E-004	...........
	1	0.516667	2.64925E-003	2.56197E-003	6.46846E-004	...........
	2	0.775	2.63784E-003	2.42689E-003	6.49580E-004	...........
	3	1.03333	2.60124E-003	2.23924E-003	6.48280E-004	...........
	4	1.29167	2.52514E-003	2.08304E-003	6.49813E-004	...........
	5	1.55	2.40767E-003	1.91649E-003	6.44046E-004	...........
	6	1.80833	2.26077E-003	1.77179E-003	6.46080E-004	...........
	7	2.06667	2.10167E-003	1.65055E-003	6.49680E-004	...........
	8	2.325	1.94495E-003	1.53124E-003	6.46380E-004	...........
	9	2.58333	1.79917E-003	1.41915E-003	6.51046E-004	...........
	10	2.84167	1.66651E-003	1.31587E-003	6.48013E-004	...........
	11	3.1	1.54503E-003	1.20657E-003	6.53113E-004	...........
	12	3.35833	1.43205E-003	1.13485E-003	6.46946E-004	...........
	13	3.61667	1.32685E-003	1.05635E-003	6.52980E-004	...........
	14	3.875	1.23095E-003	9.98478E-004	6.53780E-004	...........
	15	4.13333	1.14469E-003	8.77612E-004	6.49446E-004	...........
	16	4.39167	1.06383E-003	8.12348E-004	6.51046E-004	...........
	17	4.65	9.82293E-004	7.05922E-004	6.50613E-004	...........
	18	4.90833	8.97557E-004	6.43027E-004	6.50013E-004	...........
EOC	QUANT	0.0008976	Open Circuit (V)
PSTATMODEL	IQUANT	4	Pstat Model
PSTATSECTION	LABEL	REF600-11020	Pstat Section
PSTATSERIALNO	LABEL	11020	Pstat Serial Number
CTRLMODE	IQUANT	1	Control Mode
IESTAB	IQUANT	0	I/E Stability
CASPEED	IQUANT	1	Control Amp Speed
CONVENTION	IQUANT	1	Current Convention
ICHRANGE	IQUANT	2	Ich Range
ICHRANGEMODE	TOGGLE	F	Ich Auto Range
ICHOFFSETENABLE	TOGGLE	T	Ich Offset Enable
ICHOFFSET	QUANT	0	Ich Offset (V)
ICHFILTER	IQUANT	3	Ich Filter
VCHRANGE	IQUANT	2	Vch Range
VCHRANGEMODE	TOGGLE	F	Vch Auto Range
VCHOFFSETENABLE	TOGGLE	T	Vch Offset Enable
VCHOFFSET	QUANT	0	Vch Offset (V)
VCHFILTER	IQUANT	3	Vch Filter
ACHRANGE	IQUANT	2	Ach Range
ACHOFFSETENABLE	TOGGLE	F	Ach Offset Enable
ACHOFFSET	QUANT	0	Ach Offset (V)
ACHFILTER	IQUANT	3	Ach Filter
IERANGELOWERLIMIT	IQUANT	1	I/E Range Lower Limit
IERANGEMODE	TOGGLE	F	I/E AutoRange
IERANGE	IQUANT	6	I/E Range
POSFEEDENABLE	TOGGLE	F	Positive Feedback IR Comp
POSFEEDRESISTANCE	QUANT	0	Positive Feedback Resistance (ohm)
ACHSELECT	IQUANT	0	Ach Select
CABLEID	IQUANT	14	Cable ID
DCCALDATE	LABEL	12/22/2019	DC Calibration Date
ACCALDATE	LABEL	12/22/2019	AC Calibration Date
THERMOSELECT	IQUANT	1	Thermo Select
FRAMEWORKVERSION	QUANT	6.33	Framework Version
INSTRUMENTVERSION	LABEL	3.50	Instrument Version
ZCURVE	TABLE
	Pt	Time	Freq	Zreal	Zimag	Zsig	Zmod	Zphz	Idc	Vdc	IERange
	#	s	Hz	ohm	ohm	V	ohm	°	A	V	#
	0	1	1000078	2188.826	-2126.751	1	3051.889	-44.17591	-3.3095E-006	0.0034879	8
	1	1	794390.6	2620.066	-2186.34	1	3412.451	-39.84364	-4.715292E-007	0.0034395	8
	2	2	630984.4	3065.251	-2174.44	1	3758.185	-35.35128	8.143375E-007	0.002652	8
	3	2	501234.4	3487.752	-2108.689	1	4075.657	-31.15709	-1.506985E-006	0.0031045	8
	4	2	398109.4	3869.47	-1973.281	1	4343.574	-27.01983	-8.448228E-007	0.0028288	8
	5	3	316265.6	4209.395	-1809.199	1	4581.726	-23.25805	-2.32719E-007	0.0027714	8
	6	3	251203.1	4479.405	-1640.42	1	4770.33	-20.11343	-2.134179E-006	0.0030219	8
	7	3	199546.9	4720.416	-1460.854	1	4941.297	-17.19602	-1.194346E-006	0.0029531	8
	8	4	158578.1	4902.663	-1298.822	1	5071.789	-14.83804	-1.241631E-006	0.0029493	8
	9	4	125953.1	5071.602	-1099.211	1	5189.355	-12.22905	1.821887E-007	0.0023446	7
	10	4	100078.1	5170.93	-964.32	1	5260.079	-10.56367	-3.358342E-008	0.0026249	7
	11	5	79453.13	5268.331	-859.7007	1	5338.014	-9.267995	-4.519126E-008	0.0027261	7
	12	5	63140.62	5344.945	-774.3196	1	5400.742	-8.243064	-4.403329E-008	0.0026315	7
	13	5	50203.12	5412.416	-709.215	1	5458.684	-7.46521	8.299654E-008	0.0024604	7
	14	6	39890.62	5471.058	-662.6505	1	5511.042	-6.905983	-2.190526E-008	0.0026334	7
	15	6	31640.63	5525.266	-632.6523	1	5561.368	-6.532017	-1.336822E-009	0.002603	7
	16	6	25171.88	5574.309	-620.5687	1	5608.745	-6.352386	-2.049882E-008	0.0025724	7
	17	6	20015.62	5622.322	-622.2874	1	5656.655	-6.315879	2.973616E-008	0.0025349	7
	18	7	15890.62	5669.414	-646.4041	1	5706.145	-6.504549	-9.445795E-010	0.0025939	7
	19	7	12609.37	5715.205	-685.1862	1	5756.131	-6.836464	-4.446613E-008	0.0026438	7
	20	7	10078.13	5762.041	-744.1016	1	5809.889	-7.358369	5.786185E-008	0.0025281	7
	21	8	8015.625	5807.701	-823.1176	1	5865.74	-8.066728	3.234278E-008	0.0025337	7
	22	8	6328.125	5857.871	-941.2648	1	5933.012	-9.128471	5.179541E-008	0.0024748	7
	23	8	5015.625	5910.084	-1087.805	1	6009.36	-10.42908	-3.024074E-008	0.0026097	7
	24	9	3984.375	5967.263	-1277.606	1	6102.5	-12.08472	1.492501E-009	0.002598	7
	25	9	3170.956	6031.992	-1505.024	1	6216.914	-14.00966	5.955433E-008	0.002528	7
	26	9	2527.573	6103.445	-1794.379	1	6361.748	-16.38304	-1.922937E-008	0.0025637	7
	27	10	1976.103	6195.548	-2184.35	1	6569.337	-19.421	-3.130431E-008	0.0026109	7
	28	10	1577.524	6291.96	-2633.91	1	6821.015	-22.71493	-1.94755E-008	0.0026185	7
	29	10	1265.625	6417.26	-3157.837	1	7152.144	-26.20111	5.893861E-008	0.0025239	7
	30	11	998.264	6575.103	-3860.667	1	7624.744	-30.41994	-1.780225E-008	0.002625	7
	31	11	796.875	6755.304	-4671.353	1	8213.141	-34.6642	3.147128E-008	0.0024824	7
	32	11	627.7902	6991.144	-5737.557	1	9044.095	-39.37536	-4.055886E-008	0.0026989	7
	33	12	505.5147	7253.168	-6896.58	1	10008.56	-43.55639	-5.535389E-009	0.0025909	6
	34	12	397.9953	7596.045	-8472.613	1	11379.15	-48.12247	1.340477E-009	0.0025741	6
	35	12	315.5048	8009.347	-10352.19	1	13088.83	-52.27137	3.08946E-010	0.0025745	6
	36	13	252.4038	8492.944	-12555.95	1	15158.56	-55.92527	1.18382E-009	0.0025704	6
	37	13	198.6229	9132.413	-15461.13	1	17956.82	-59.43097	6.654002E-010	0.0025736	6
	38	13	158.3615	9906.41	-18832.18	1	21278.82	-62.25401	3.758572E-010	0.0025716	6
	39	14	125.558	10904.2	-23066.54	1	25514.05	-64.69858	1.219124E-009	0.0025735	6
	40	14	100.4464	12147.83	-27997.45	1	30519.29	-66.54443	1.468178E-010	0.0025715	6
	41	14	79.00281	13960.72	-34509.06	1	37226.02	-67.97409	8.740303E-010	0.0025707	6
	42	15	63.3446	15624.61	-42020.67	1	44831.52	-69.60328	1.252679E-009	0.0025695	6
	43	15	49.86702	18679.22	-51424.18	1	54711.61	-70.03705	1.126425E-009	0.0025679	6
	44	15	39.72458	22897.86	-62258.2	1	66335.48	-69.80704	1.196746E-009	0.0025702	6
	45	16	31.6723	28018.48	-74880.42	1	79950.69	-69.48534	6.459758E-010	0.0025682	6
	46	16	24.93351	34879.52	-91009.63	1	97464.5	-69.03062	1.081216E-009	0.0025664	6
	47	16	19.86229	43619.42	-108536.2	1	116973.3	-68.10538	1.355619E-009	0.0025717	5
	48	17	15.83615	53899.21	-129796.5	1	140542.7	-67.44888	-6.423478E-010	0.0025676	5
	49	17	12.40079	69410.77	-154927.9	1	169766	-65.86667	5.147519E-010	0.0025653	5
	50	17	9.93114	86039.98	-178489.2	1	198144.6	-64.2638	6.348096E-010	0.0025645	5
	51	18	7.944915	105924.9	-206360.4	1	231958.5	-62.82854	1.0167E-009	0.0025573	5
	52	18	6.317385	129684.1	-238570	1	271539.3	-61.47198	8.349635E-010	0.0025487	5
	53	19	5.008013	157806.4	-275323.7	1	317342.1	-60.18009	6.464052E-010	0.0025668	5
	54	20	3.945707	190878.4	-317094.9	1	370113.2	-58.95374	2.735986E-010	0.0025629	5
	55	22	3.158693	226434	-361096.7	1	426219.6	-57.90928	2.011885E-010	0.0025427	5
	56	23	2.504006	269793.3	-413095.9	1	493393	-56.85142	4.42619E-010	0.0025488	5
	57	25	1.998082	316271.7	-469307.3	1	565930.3	-56.02351	3.519569E-010	0.0025494	5
	58	26	1.584686	373571.5	-534153.1	1	651824.4	-55.03215	1.865095E-010	0.0025163	5
	59	28	1.266892	434909.8	-605428.3	1	745446.1	-54.3084	1.69419E-010	0.0025202	5
	60	31	0.999041	508020.6	-688877.1	1	855941.9	-53.59264	1.583237E-010	0.0025401	5
