EXPLAIN
TAG	EISPOT
TITLE	LABEL	Potentiostatic EIS	Test &Identifier
DATE	LABEL	7/30/2020	Date
TIME	LABEL	23:06:13	Time
NOTES	NOTES	1	&Notes...
	
PSTAT	PSTAT	REF600-11020	Potentiostat
VDC	POTEN	0.00000E+000	T	DC &Voltage (V)
FREQINIT	QUANT	1.00000E+006	Initial Fre&q. (Hz)
FREQFINAL	QUANT	1.00000E+000	Final Fre&q. (Hz)
PTSPERDEC	QUANT	1.00000E+001	Points/&decade
VAC	QUANT	2.50000E+001	AC &Voltage (mV rms)
AREA	QUANT	4.00000E-005	&Area (cm^2)
CONDIT	TWOPARAM	F	5.00000E+000	0.00000E+000	Conditionin&g	Time(s)	E(V)
DELAY	TWOPARAM	F	3.00000E+000	0.00000E+000	Init. De&lay	Time(s)	Stab.(mV/s)
SPEED	SELECTOR	0	&Optimize for:
ZGUESS	QUANT	1.00000E+003	E&stimated Z (ohms)
OCVCURVE	TABLE	39
	Pt	T	Vf	Vm	Ach	Over
	#	s	V vs. Ref.	V	V	bits
	0	0.258333	-5.20618E-002	-5.20618E-002	5.01750E-004	...........
	1	0.516667	-5.20622E-002	-5.20849E-002	4.98650E-004	...........
	2	0.775	-5.20649E-002	-5.21034E-002	5.04984E-004	...........
	3	1.03333	-5.20722E-002	-5.21233E-002	4.99650E-004	...........
	4	1.29167	-5.20850E-002	-5.21405E-002	4.99784E-004	...........
	5	1.55	-5.21017E-002	-5.21598E-002	4.95917E-004	...........
	6	1.80833	-5.21203E-002	-5.21764E-002	4.96917E-004	...........
	7	2.06667	-5.21390E-002	-5.21961E-002	4.99550E-004	...........
	8	2.325	-5.21576E-002	-5.22127E-002	5.01850E-004	...........
	9	2.58333	-5.21758E-002	-5.22297E-002	5.02584E-004	...........
	10	2.84167	-5.21936E-002	-5.22449E-002	5.03184E-004	...........
	11	3.1	-5.22109E-002	-5.22581E-002	5.01684E-004	...........
	12	3.35833	-5.22273E-002	-5.22725E-002	5.02250E-004	...........
	13	3.61667	-5.22427E-002	-5.22860E-002	4.97884E-004	...........
	14	3.875	-5.22572E-002	-5.22980E-002	5.04284E-004	...........
	15	4.13333	-5.22710E-002	-5.23105E-002	5.01884E-004	...........
	16	4.39167	-5.22842E-002	-5.23216E-002	5.02050E-004	...........
	17	4.65	-5.22969E-002	-5.23326E-002	5.00684E-004	...........
	18	4.90833	-5.23090E-002	-5.23442E-002	4.95517E-004	...........
	19	5.16667	-5.23206E-002	-5.23540E-002	4.98617E-004	...........
	20	5.425	-5.23318E-002	-5.23662E-002	4.98184E-004	...........
	21	5.68333	-5.23429E-002	-5.23754E-002	4.96917E-004	...........
	22	5.94167	-5.23537E-002	-5.23847E-002	4.97950E-004	...........
	23	6.2	-5.23642E-002	-5.23926E-002	4.99684E-004	...........
	24	6.45833	-5.23741E-002	-5.24021E-002	4.96817E-004	...........
	25	6.71667	-5.23834E-002	-5.24088E-002	5.00684E-004	...........
	26	6.975	-5.23922E-002	-5.24153E-002	4.98184E-004	...........
	27	7.23333	-5.24003E-002	-5.24211E-002	4.99484E-004	...........
	28	7.49167	-5.24077E-002	-5.24263E-002	4.98117E-004	...........
	29	7.75	-5.24144E-002	-5.24335E-002	4.98017E-004	...........
	30	8.00833	-5.24206E-002	-5.24406E-002	5.00350E-004	...........
	31	8.26667	-5.24268E-002	-5.24490E-002	4.95584E-004	...........
	32	8.525	-5.24334E-002	-5.24549E-002	5.04717E-004	...........
	33	8.78333	-5.24404E-002	-5.24628E-002	4.95917E-004	...........
	34	9.04167	-5.24475E-002	-5.24655E-002	4.95517E-004	...........
	35	9.3	-5.24543E-002	-5.24704E-002	4.98717E-004	...........
	36	9.5583	-5.24602E-002	-5.24740E-002	5.03250E-004	...........
	37	9.8167	-5.24653E-002	-5.24782E-002	5.00950E-004	...........
	38	10.075	-5.24698E-002	-5.24851E-002	5.03250E-004	...........
EOC	QUANT	-0.0524698	Open Circuit (V)
PSTATMODEL	IQUANT	4	Pstat Model
PSTATSECTION	LABEL	REF600-11020	Pstat Section
PSTATSERIALNO	LABEL	11020	Pstat Serial Number
CTRLMODE	IQUANT	1	Control Mode
IESTAB	IQUANT	0	I/E Stability
CASPEED	IQUANT	1	Control Amp Speed
CONVENTION	IQUANT	1	Current Convention
ICHRANGE	IQUANT	2	Ich Range
ICHRANGEMODE	TOGGLE	F	Ich Auto Range
ICHOFFSETENABLE	TOGGLE	T	Ich Offset Enable
ICHOFFSET	QUANT	0	Ich Offset (V)
ICHFILTER	IQUANT	3	Ich Filter
VCHRANGE	IQUANT	2	Vch Range
VCHRANGEMODE	TOGGLE	F	Vch Auto Range
VCHOFFSETENABLE	TOGGLE	T	Vch Offset Enable
VCHOFFSET	QUANT	0	Vch Offset (V)
VCHFILTER	IQUANT	3	Vch Filter
ACHRANGE	IQUANT	2	Ach Range
ACHOFFSETENABLE	TOGGLE	F	Ach Offset Enable
ACHOFFSET	QUANT	0	Ach Offset (V)
ACHFILTER	IQUANT	3	Ach Filter
IERANGELOWERLIMIT	IQUANT	1	I/E Range Lower Limit
IERANGEMODE	TOGGLE	F	I/E AutoRange
IERANGE	IQUANT	7	I/E Range
POSFEEDENABLE	TOGGLE	F	Positive Feedback IR Comp
POSFEEDRESISTANCE	QUANT	0	Positive Feedback Resistance (ohm)
ACHSELECT	IQUANT	0	Ach Select
CABLEID	IQUANT	14	Cable ID
DCCALDATE	LABEL	6/26/2020	DC Calibration Date
ACCALDATE	LABEL	6/26/2020	AC Calibration Date
THERMOSELECT	IQUANT	1	Thermo Select
FRAMEWORKVERSION	QUANT	6.33	Framework Version
INSTRUMENTVERSION	LABEL	3.50	Instrument Version
ZCURVE	TABLE
	Pt	Time	Freq	Zreal	Zimag	Zsig	Zmod	Zphz	Idc	Vdc	IERange
	#	s	Hz	ohm	ohm	V	ohm	°	A	V	#
	0	1	1000078	1509.493	-946.8924	1	1781.902	-32.0997	1.066203E-007	-0.0502583	8
	1	1	794390.6	1675.127	-934.6778	1	1918.247	-29.1604	2.945703E-008	-0.0505612	8
	2	1	630984.4	1828.48	-912.689	1	2043.61	-26.52615	-2.746322E-008	-0.0506669	8
	3	2	501234.4	1969.312	-884.0273	1	2158.633	-24.17539	6.16387E-008	-0.0507912	8
	4	2	398109.4	2096.401	-851.8041	1	2262.845	-22.11276	7.931804E-008	-0.0508479	8
	5	2	316265.6	2212.612	-825.2159	1	2361.49	-20.45351	5.242902E-008	-0.0508771	8
	6	3	251203.1	2316.677	-803.3917	1	2452.026	-19.12584	5.918966E-008	-0.0508736	8
	7	3	199546.9	2415.999	-790.7115	1	2542.1	-18.12231	5.952742E-008	-0.0508719	8
	8	3	158578.1	2509.505	-786.2021	1	2629.777	-17.39524	-1.423553E-008	-0.050842	8
	9	4	125953.1	2617.753	-775.4953	1	2730.206	-16.50164	2.553082E-009	-0.050871	7
	10	4	100078.1	2717.72	-793.7138	1	2831.252	-16.28051	1.830708E-009	-0.0509022	7
	11	4	79453.13	2813.109	-828.9404	1	2932.699	-16.4187	2.335474E-009	-0.0509006	7
	12	5	63140.62	2914.638	-873.9471	1	3042.844	-16.69123	1.27396E-010	-0.0509042	7
	13	5	50203.12	3026.298	-928.1586	1	3165.432	-17.05066	9.52491E-010	-0.0509119	7
	14	5	39890.62	3149.476	-990.016	1	3301.413	-17.45017	2.24795E-009	-0.0509018	7
	15	6	31640.63	3285.204	-1059.144	1	3451.717	-17.86922	8.899571E-010	-0.0509088	7
	16	6	25171.88	3432.744	-1133.925	1	3615.178	-18.27974	1.668195E-009	-0.0509103	7
	17	6	20015.62	3592.376	-1210.537	1	3790.853	-18.62247	-4.477309E-010	-0.0509202	7
	18	6	15890.62	3766.01	-1291.297	1	3981.241	-18.92591	2.566754E-009	-0.050923	7
	19	7	12609.37	3948.912	-1373.773	1	4181.047	-19.18209	1.936999E-009	-0.0509162	7
	20	7	10078.13	4132.859	-1455.01	1	4381.504	-19.39507	1.008752E-009	-0.0509228	7
	21	7	8015.625	4326.042	-1542.922	1	4592.956	-19.62923	1.324402E-009	-0.0509235	7
	22	8	6328.125	4525.876	-1642.953	1	4814.857	-19.95156	1.304941E-010	-0.0509256	7
	23	8	5015.625	4721.89	-1756.922	1	5038.156	-20.40924	9.462409E-010	-0.0509215	7
	24	8	3984.375	4915.453	-1893.539	1	5267.558	-21.06776	2.337053E-009	-0.0509222	7
	25	9	3170.956	5104.189	-2057.83	1	5503.4	-21.95757	9.821933E-010	-0.0509184	7
	26	9	2527.573	5291.967	-2264.344	1	5756.055	-23.16527	3.390336E-009	-0.0509131	7
	27	9	1976.103	5493.789	-2544.818	1	6054.57	-24.85439	9.10278E-010	-0.0509229	7
	28	10	1577.524	5683.234	-2872.6	1	6367.965	-26.81439	4.870582E-010	-0.0509286	7
	29	10	1265.625	5876.527	-3275.617	1	6727.796	-29.1356	9.683631E-010	-0.0509324	7
	30	10	998.264	6098.174	-3820.233	1	7195.964	-32.0653	6.766333E-010	-0.0509303	7
	31	11	796.875	6329.792	-4461.573	1	7744.152	-35.17822	2.016494E-009	-0.0509265	7
	32	11	627.7902	6602.352	-5314.626	1	8475.63	-38.83266	2.912874E-009	-0.0509193	7
	33	11	505.5147	6892.969	-6259.741	1	9311.143	-42.24366	-1.369295E-009	-0.0509326	7
	34	12	397.9953	7262.381	-7546.653	1	10473.5	-46.09971	1.954364E-010	-0.0509092	6
	35	12	315.5048	7693.328	-9092.312	1	11910.39	-49.76425	2.341556E-010	-0.0509092	6
	36	12	252.4038	8194.388	-10908.43	1	13643.38	-53.08621	2.694298E-010	-0.0509111	6
	37	13	198.6229	8858.307	-13295.22	1	15976	-56.32537	2.868165E-010	-0.0509106	6
	38	13	158.3615	9645.23	-16051.34	1	18726.35	-58.99839	2.155209E-010	-0.0509158	6
	39	13	125.558	10659.58	-19480.39	1	22206.13	-61.31274	3.424599E-010	-0.0509151	6
	40	13	100.4464	11893.39	-23462.62	1	26304.89	-63.11917	2.023827E-010	-0.0509145	6
	41	14	79.00281	13588.14	-28644.99	1	31704.46	-64.62205	2.371792E-010	-0.0509199	6
	42	14	63.3446	15585.68	-34385.86	1	37753.16	-65.61719	1.377363E-010	-0.0509232	6
	43	15	49.86702	18378.78	-41834.81	1	45693.88	-66.28326	4.608952E-010	-0.0509282	6
	44	15	39.72458	21828.04	-50293.71	1	54826.28	-66.5386	3.923208E-010	-0.0509181	6
	45	15	31.6723	26279.23	-60241.46	1	65723.91	-66.43165	5.483968E-010	-0.0509225	6
	46	16	24.93351	32445.91	-72562.24	1	79485.95	-65.90839	1.079998E-010	-0.0509217	6
	47	16	19.86229	39985.05	-86125.72	1	94954.95	-65.09627	1.201904E-009	-0.0509199	6
	48	16	15.83615	49685.62	-101371.9	1	112893.4	-63.88904	-1.410539E-009	-0.0509342	5
	49	16	12.40079	62871.68	-119810.1	1	135304.5	-62.31127	-1.639273E-009	-0.0509304	5
	50	17	9.93114	77629.76	-137716.8	1	158089.5	-60.59043	-1.838994E-009	-0.0509325	5
	51	17	7.944915	94897.9	-157370.8	1	183769.4	-58.90914	-3.795489E-010	-0.0509342	5
	52	17	6.317385	115609.6	-178346.4	1	212539.4	-57.04745	8.387768E-011	-0.0509389	5
	53	18	5.008013	138992.3	-200558	1	244013.1	-55.27695	-4.148971E-010	-0.0509393	5
	54	19	3.945707	165311.1	-224876.2	1	279100.5	-53.67963	-2.489956E-010	-0.0509312	5
	55	20	3.158693	190245.5	-249349.3	1	313637.4	-52.65754	-2.260647E-010	-0.0509466	5
	56	21	2.504006	217661.6	-278261.6	1	353279.1	-51.96679	2.188953E-010	-0.050945	5
	57	22	1.998082	243532.8	-311196.2	1	395159.8	-51.95433	9.032295E-011	-0.0509469	5
	58	24	1.584686	272416.8	-351952.3	1	445063.3	-52.25954	-7.475263E-011	-0.050987	5
	59	26	1.266892	300975.3	-401646.5	1	501902.4	-53.15381	-6.615899E-011	-0.050983	5
	60	28	0.999041	332990.1	-465948.6	1	572704.6	-54.44851	-4.335906E-011	-0.0509636	5
