EXPLAIN
TAG	EISPOT
TITLE	LABEL	Potentiostatic EIS	Test &Identifier
DATE	LABEL	3/17/2020	Date
TIME	LABEL	15:38:07	Time
NOTES	NOTES	1	&Notes...
	
PSTAT	PSTAT	REF600-11020	Potentiostat
VDC	POTEN	0.00000E+000	T	DC &Voltage (V)
FREQINIT	QUANT	1.00000E+006	Initial Fre&q. (Hz)
FREQFINAL	QUANT	1.00000E+000	Final Fre&q. (Hz)
PTSPERDEC	QUANT	1.00000E+001	Points/&decade
VAC	QUANT	2.50000E+001	AC &Voltage (mV rms)
AREA	QUANT	4.00000E-004	&Area (cm^2)
CONDIT	TWOPARAM	F	5.00000E+000	0.00000E+000	Conditionin&g	Time(s)	E(V)
DELAY	TWOPARAM	T	3.00000E+000	0.00000E+000	Init. De&lay	Time(s)	Stab.(mV/s)
SPEED	SELECTOR	0	&Optimize for:
ZGUESS	QUANT	5.00000E+003	E&stimated Z (ohms)
OCVCURVE	TABLE	12
	Pt	T	Vf	Vm	Ach	Over
	#	s	V vs. Ref.	V	V	bits
	0	0.258333	1.67240E-002	1.67240E-002	5.82030E-004	...........
	1	0.516667	1.67239E-002	1.67221E-002	5.83097E-004	...........
	2	0.775	1.67237E-002	1.67189E-002	5.84763E-004	...........
	3	1.03333	1.67230E-002	1.67185E-002	5.86096E-004	...........
	4	1.29167	1.67217E-002	1.67161E-002	5.83797E-004	...........
	5	1.55	1.67199E-002	1.67126E-002	5.82597E-004	...........
	6	1.80833	1.67180E-002	1.67110E-002	5.79963E-004	...........
	7	2.06667	1.67158E-002	1.67099E-002	5.81263E-004	...........
	8	2.325	1.67135E-002	1.67037E-002	5.81130E-004	...........
	9	2.58333	1.67111E-002	1.67027E-002	5.78997E-004	...........
	10	2.84167	1.67084E-002	1.66980E-002	5.80630E-004	...........
	11	3.1	1.67053E-002	1.66950E-002	5.79730E-004	...........
EOC	QUANT	0.0167053	Open Circuit (V)
PSTATMODEL	IQUANT	4	Pstat Model
PSTATSECTION	LABEL	REF600-11020	Pstat Section
PSTATSERIALNO	LABEL	11020	Pstat Serial Number
CTRLMODE	IQUANT	1	Control Mode
IESTAB	IQUANT	0	I/E Stability
CASPEED	IQUANT	1	Control Amp Speed
CONVENTION	IQUANT	1	Current Convention
ICHRANGE	IQUANT	2	Ich Range
ICHRANGEMODE	TOGGLE	F	Ich Auto Range
ICHOFFSETENABLE	TOGGLE	T	Ich Offset Enable
ICHOFFSET	QUANT	0	Ich Offset (V)
ICHFILTER	IQUANT	3	Ich Filter
VCHRANGE	IQUANT	2	Vch Range
VCHRANGEMODE	TOGGLE	F	Vch Auto Range
VCHOFFSETENABLE	TOGGLE	T	Vch Offset Enable
VCHOFFSET	QUANT	0	Vch Offset (V)
VCHFILTER	IQUANT	3	Vch Filter
ACHRANGE	IQUANT	2	Ach Range
ACHOFFSETENABLE	TOGGLE	F	Ach Offset Enable
ACHOFFSET	QUANT	0	Ach Offset (V)
ACHFILTER	IQUANT	3	Ach Filter
IERANGELOWERLIMIT	IQUANT	1	I/E Range Lower Limit
IERANGEMODE	TOGGLE	F	I/E AutoRange
IERANGE	IQUANT	6	I/E Range
POSFEEDENABLE	TOGGLE	F	Positive Feedback IR Comp
POSFEEDRESISTANCE	QUANT	0	Positive Feedback Resistance (ohm)
ACHSELECT	IQUANT	0	Ach Select
CABLEID	IQUANT	14	Cable ID
DCCALDATE	LABEL	2/27/2020	DC Calibration Date
ACCALDATE	LABEL	2/27/2020	AC Calibration Date
THERMOSELECT	IQUANT	1	Thermo Select
FRAMEWORKVERSION	QUANT	6.33	Framework Version
INSTRUMENTVERSION	LABEL	3.50	Instrument Version
ZCURVE	TABLE
	Pt	Time	Freq	Zreal	Zimag	Zsig	Zmod	Zphz	Idc	Vdc	IERange
	#	s	Hz	ohm	ohm	V	ohm	°	A	V	#
	0	1	1000078	1944.043	-1887.783	1	2709.803	-44.15883	2.674132E-008	0.0191131	8
	1	1	794390.6	2304.532	-1990.284	1	3045.012	-40.81518	9.586201E-008	0.018762	8
	2	2	630984.4	2688.628	-2051.391	1	3381.853	-37.3432	1.471711E-008	0.0186286	8
	3	2	501234.4	3085.659	-2062.241	1	3711.351	-33.75603	3.346242E-008	0.0185298	8
	4	2	398109.4	3473.391	-2018.945	1	4017.535	-30.16774	5.791151E-009	0.0185049	8
	5	2	316265.6	3843.158	-1936.944	1	4303.675	-26.74802	4.112093E-008	0.0184659	8
	6	3	251203.1	4180.049	-1814.769	1	4556.995	-23.46808	3.972976E-008	0.0184564	8
	7	3	199546.9	4475.25	-1660.876	1	4773.508	-20.36113	2.614466E-008	0.018442	8
	8	3	158578.1	4720.447	-1501.7	1	4953.556	-17.64725	3.351666E-008	0.0184284	8
	9	4	125953.1	4963.118	-1273.359	1	5123.864	-14.38967	1.715588E-009	0.018399	7
	10	4	100078.1	5103.92	-1134.011	1	5228.382	-12.52674	1.084051E-009	0.0183788	7
	11	4	79453.13	5232.587	-1020.203	1	5331.115	-11.03261	6.276596E-010	0.0183704	7
	12	5	63140.62	5337.885	-923.2017	1	5417.132	-9.81239	9.9651E-010	0.0183621	7
	13	5	50203.12	5425.505	-844.7195	1	5490.87	-8.849569	-3.098858E-010	0.0183608	7
	14	5	39890.62	5502.784	-787.1664	1	5558.8	-8.140862	9.199794E-010	0.0183629	7
	15	6	31640.63	5571.25	-749.149	1	5621.393	-7.65845	5.277427E-010	0.0183576	7
	16	6	25171.88	5634.596	-730.3589	1	5681.733	-7.385527	-6.923229E-011	0.0183522	7
	17	6	20015.62	5697.466	-731.0821	1	5744.18	-7.312068	-1.739102E-010	0.0183534	7
	18	7	15890.62	5758.313	-749.9354	1	5806.941	-7.420167	7.449371E-010	0.0183497	7
	19	7	12609.37	5820.823	-788.8879	1	5874.038	-7.71819	-6.880551E-010	0.0183487	7
	20	7	10078.13	5883.344	-846.4327	1	5943.92	-8.186929	8.652963E-010	0.0183495	7
	21	8	8015.625	5951.601	-926.605	1	6023.301	-8.849338	1.597827E-009	0.0183487	7
	22	8	6328.125	6026.032	-1035.306	1	6114.321	-9.74857	1.592994E-009	0.0183439	7
	23	8	5015.625	6105.17	-1171.435	1	6216.539	-10.86167	6.949065E-010	0.0183376	7
	24	9	3984.375	6192.054	-1340.829	1	6335.563	-12.2182	9.699406E-010	0.0183395	7
	25	9	3170.956	6285.979	-1549.403	1	6474.117	-13.84657	5.47228E-010	0.0183356	7
	26	9	2527.573	6389.83	-1802.658	1	6639.239	-15.75448	2.139782E-009	0.0183459	7
	27	9	1976.103	6515.931	-2143.68	1	6859.499	-18.21072	1.476257E-009	0.0183491	7
	28	10	1577.524	6646.055	-2527.774	1	7110.534	-20.82392	2.525779E-009	0.0183478	7
	29	10	1265.625	6787.813	-2981.999	1	7413.955	-23.71668	1.644092E-009	0.0183404	7
	30	10	998.264	6965.882	-3587.889	1	7835.589	-27.25146	2.42453E-009	0.018348	7
	31	11	796.875	7161.601	-4286.435	1	8346.38	-30.90179	1.190284E-009	0.0183387	7
	32	11	627.7902	7404.679	-5193.005	1	9044.146	-35.04252	2.0415E-009	0.0183442	7
	33	11	505.5147	7672.403	-6201.42	1	9865.26	-38.94778	-7.123008E-010	0.0183915	6
	34	12	397.9953	8020.549	-7564.077	1	11024.72	-43.32229	5.408578E-010	0.018401	6
	35	12	315.5048	8437.535	-9188.846	1	12475.05	-47.44071	5.088738E-010	0.0183972	6
	36	12	252.4038	8931.122	-11089.86	1	14239.03	-51.15408	4.694151E-010	0.0184047	6
	37	13	198.6229	9595.22	-13580.3	1	16628.08	-54.75671	4.715767E-010	0.0184054	6
	38	13	158.3615	10388.07	-16448.07	1	19453.82	-57.7248	4.316707E-010	0.0184029	6
	39	13	125.558	11420.58	-20005.94	1	23036.21	-60.27971	5.25021E-010	0.0183999	6
	40	14	100.4464	12676.32	-24125.9	1	27253.41	-62.2815	4.649657E-010	0.0184046	6
	41	14	79.00281	14403.39	-29469.26	1	32800.84	-63.95248	3.722454E-010	0.018397	6
	42	14	63.3446	16419.38	-35360.75	1	38986.91	-65.0927	3.708863E-010	0.018397	6
	43	15	49.86702	19189.38	-42991.66	1	47079.88	-65.94635	4.966914E-011	0.0183887	6
	44	15	39.72458	22530.87	-51659.12	1	56358.72	-66.43581	1.547458E-010	0.0183954	6
	45	15	31.6723	26739.43	-61890.19	1	67419.52	-66.63342	2.874649E-010	0.0183921	6
	46	16	24.93351	32409.35	-74680.95	1	81410.13	-66.54057	-3.45966E-010	0.0183874	6
	47	16	19.86229	39264.18	-89084.63	1	97353.7	-66.21444	-1.372987E-009	0.0183854	6
	48	16	15.83615	48102.46	-105644.4	1	116080.1	-65.51908	1.088452E-009	0.0183882	5
	49	17	12.40079	60211.17	-126316	1	139932.5	-64.51421	5.046495E-010	0.0183903	5
	50	17	9.93114	74189.91	-147611.7	1	165207	-63.31581	7.796851E-010	0.0183875	5
	51	17	7.944915	91102.72	-171183.1	1	193915.9	-61.97834	1.41288E-009	0.0183891	5
	52	18	6.317385	112732.8	-198119.3	1	227947.2	-60.35947	-3.191726E-010	0.0184074	5
	53	18	5.008013	138909.3	-227499.3	1	266555.3	-58.59208	-1.762877E-010	0.0183966	5
	54	19	3.945707	169551.9	-259397	1	309894.6	-56.82982	4.868476E-010	0.0184004	5
	55	20	3.158693	202650.1	-290922.6	1	354546.2	-55.1398	-1.179932E-010	0.018405	5
	56	21	2.504006	239713.9	-326194.4	1	404803.1	-53.68856	-1.345652E-010	0.0183928	5
	57	23	1.998082	278894.8	-362484.3	1	457359	-52.42538	2.211463E-010	0.0184356	5
	58	24	1.584686	320637.4	-405796.7	1	517184	-51.68622	2.127801E-010	0.0184256	5
	59	26	1.266892	363267	-451964.7	1	579857.8	-51.20939	1.146718E-010	0.0183811	5
	60	29	0.999041	412700.5	-509792.3	1	655903.9	-51.00822	4.289037E-011	0.0183645	5
