EXPLAIN
TAG	EISPOT
TITLE	LABEL	Potentiostatic EIS	Test &Identifier
DATE	LABEL	1/21/2020	Date
TIME	LABEL	18:08:43	Time
NOTES	NOTES	6	&Notes...
	
	
	
	
	
	
PSTAT	PSTAT	REF600-11020	Potentiostat
VDC	POTEN	0.00000E+000	T	DC &Voltage (V)
FREQINIT	QUANT	1.00000E+006	Initial Fre&q. (Hz)
FREQFINAL	QUANT	1.00000E+000	Final Fre&q. (Hz)
PTSPERDEC	QUANT	1.00000E+001	Points/&decade
VAC	QUANT	2.50000E+001	AC &Voltage (mV rms)
AREA	QUANT	1.00000E-001	&Area (cm^2)
CONDIT	TWOPARAM	F	5.00000E+000	0.00000E+000	Conditionin&g	Time(s)	E(V)
DELAY	TWOPARAM	F	5.00000E+000	0.00000E+000	Init. De&lay	Time(s)	Stab.(mV/s)
SPEED	SELECTOR	0	&Optimize for:
ZGUESS	QUANT	5.00000E+002	E&stimated Z (ohms)
OCVCURVE	TABLE	39
	Pt	T	Vf	Vm	Ach	Over
	#	s	V vs. Ref.	V	V	bits
	0	0.258333	4.54221E-002	4.54221E-002	6.52846E-004	...........
	1	0.516667	4.54204E-002	4.53345E-002	6.54713E-004	...........
	2	0.775	4.54102E-002	4.52522E-002	6.57180E-004	...........
	3	1.03333	4.53805E-002	4.51393E-002	6.54479E-004	...........
	4	1.29167	4.53250E-002	4.50421E-002	6.58879E-004	...........
	5	1.55	4.52476E-002	4.50211E-002	6.60113E-004	...........
	6	1.80833	4.51628E-002	4.49800E-002	6.56446E-004	...........
	7	2.06667	4.50864E-002	4.48935E-002	6.59479E-004	...........
	8	2.325	4.50215E-002	4.48004E-002	6.59913E-004	...........
	9	2.58333	4.49593E-002	4.47532E-002	6.59079E-004	...........
	10	2.84167	4.48926E-002	4.46714E-002	6.57313E-004	...........
	11	3.1	4.48235E-002	4.46718E-002	6.55746E-004	...........
	12	3.35833	4.47586E-002	4.45857E-002	6.62313E-004	...........
	13	3.61667	4.47021E-002	4.45705E-002	6.56746E-004	...........
	14	3.875	4.46533E-002	4.45521E-002	6.57346E-004	...........
	15	4.13333	4.46113E-002	4.44993E-002	6.58213E-004	...........
	16	4.39167	4.45758E-002	4.45050E-002	6.58413E-004	...........
	17	4.65	4.45452E-002	4.44595E-002	6.58713E-004	...........
	18	4.90833	4.45180E-002	4.44376E-002	6.57513E-004	...........
	19	5.16667	4.44928E-002	4.44469E-002	6.55679E-004	...........
	20	5.425	4.44697E-002	4.43862E-002	6.52813E-004	...........
	21	5.68333	4.44479E-002	4.43703E-002	6.49946E-004	...........
	22	5.94167	4.44252E-002	4.43642E-002	6.55980E-004	...........
	23	6.2	4.44012E-002	4.43182E-002	6.55613E-004	...........
	24	6.45833	4.43774E-002	4.43128E-002	6.54113E-004	...........
	25	6.71667	4.43551E-002	4.43357E-002	6.54013E-004	...........
	26	6.975	4.43368E-002	4.42845E-002	6.58513E-004	...........
	27	7.23333	4.43232E-002	4.42749E-002	6.55413E-004	...........
	28	7.49167	4.43110E-002	4.43045E-002	6.55013E-004	...........
	29	7.75	4.42993E-002	4.42508E-002	6.60713E-004	...........
	30	8.00833	4.42893E-002	4.42739E-002	6.56213E-004	...........
	31	8.26667	4.42802E-002	4.42404E-002	6.49146E-004	...........
	32	8.525	4.42707E-002	4.42417E-002	6.57513E-004	...........
	33	8.78333	4.42603E-002	4.42167E-002	6.54180E-004	...........
	34	9.04167	4.42487E-002	4.42084E-002	6.60879E-004	...........
	35	9.3	4.42359E-002	4.41978E-002	6.58213E-004	...........
	36	9.5583	4.42228E-002	4.41910E-002	6.59013E-004	...........
	37	9.8167	4.42112E-002	4.42054E-002	6.57713E-004	...........
	38	10.075	4.42028E-002	4.41851E-002	6.48880E-004	...........
EOC	QUANT	0.0442028	Open Circuit (V)
PSTATMODEL	IQUANT	4	Pstat Model
PSTATSECTION	LABEL	REF600-11020	Pstat Section
PSTATSERIALNO	LABEL	11020	Pstat Serial Number
CTRLMODE	IQUANT	1	Control Mode
IESTAB	IQUANT	0	I/E Stability
CASPEED	IQUANT	1	Control Amp Speed
CONVENTION	IQUANT	1	Current Convention
ICHRANGE	IQUANT	2	Ich Range
ICHRANGEMODE	TOGGLE	F	Ich Auto Range
ICHOFFSETENABLE	TOGGLE	T	Ich Offset Enable
ICHOFFSET	QUANT	0	Ich Offset (V)
ICHFILTER	IQUANT	3	Ich Filter
VCHRANGE	IQUANT	2	Vch Range
VCHRANGEMODE	TOGGLE	F	Vch Auto Range
VCHOFFSETENABLE	TOGGLE	T	Vch Offset Enable
VCHOFFSET	QUANT	0	Vch Offset (V)
VCHFILTER	IQUANT	3	Vch Filter
ACHRANGE	IQUANT	2	Ach Range
ACHOFFSETENABLE	TOGGLE	F	Ach Offset Enable
ACHOFFSET	QUANT	0	Ach Offset (V)
ACHFILTER	IQUANT	3	Ach Filter
IERANGELOWERLIMIT	IQUANT	1	I/E Range Lower Limit
IERANGEMODE	TOGGLE	F	I/E AutoRange
IERANGE	IQUANT	8	I/E Range
POSFEEDENABLE	TOGGLE	F	Positive Feedback IR Comp
POSFEEDRESISTANCE	QUANT	0	Positive Feedback Resistance (ohm)
ACHSELECT	IQUANT	0	Ach Select
CABLEID	IQUANT	14	Cable ID
DCCALDATE	LABEL	12/22/2019	DC Calibration Date
ACCALDATE	LABEL	12/22/2019	AC Calibration Date
THERMOSELECT	IQUANT	1	Thermo Select
FRAMEWORKVERSION	QUANT	6.33	Framework Version
INSTRUMENTVERSION	LABEL	3.50	Instrument Version
ZCURVE	TABLE
	Pt	Time	Freq	Zreal	Zimag	Zsig	Zmod	Zphz	Idc	Vdc	IERange
	#	s	Hz	ohm	ohm	V	ohm	°	A	V	#
	0	1	1000078	1709.971	-2088.281	1	2699.059	-50.68797	1.424646E-006	0.0465698	8
	1	2	794390.6	2031.174	-2303.035	1	3070.771	-48.58915	-8.919309E-008	0.0460029	8
	2	2	630984.4	2411.838	-2515.38	1	3484.838	-46.20385	3.537132E-007	0.046012	8
	3	2	501234.4	2823.682	-2718.61	1	3919.697	-43.9139	2.409934E-006	0.0454957	8
	4	3	398109.4	3260.521	-2881.446	1	4351.29	-41.46825	-1.632012E-006	0.046261	8
	5	3	316265.6	3767.883	-3044.872	1	4844.397	-38.9421	3.963305E-009	0.0458083	8
	6	3	251203.1	4259.401	-3149.726	1	5297.478	-36.48204	2.94703E-006	0.0453717	8
	7	4	199546.9	4816.13	-3275.552	1	5824.462	-34.22045	-7.910917E-007	0.0459893	8
	8	4	158578.1	5352.132	-3332.759	1	6304.966	-31.91041	2.864473E-007	0.0458525	8
	9	4	125953.1	5928.84	-3340.024	1	6804.918	-29.39482	2.263219E-007	0.0455053	7
	10	5	100078.1	6435.604	-3366.229	1	7262.815	-27.61242	1.772238E-008	0.0458814	7
	11	5	79453.13	6950.672	-3380.358	1	7729.079	-25.9353	1.97898E-009	0.0457916	7
	12	5	63140.62	7464.798	-3388.63	1	8197.928	-24.41558	8.577852E-008	0.0457001	7
	13	5	50203.12	7953.635	-3391.424	1	8646.506	-23.09336	5.078907E-008	0.0457299	7
	14	6	39890.62	8434.938	-3396.126	1	9092.957	-21.931	-8.818279E-009	0.0458294	7
	15	6	31640.63	8904.117	-3412.839	1	9535.76	-20.97122	5.653626E-008	0.0456917	7
	16	6	25171.88	9360.331	-3446.676	1	9974.74	-20.2148	-3.644454E-008	0.045946	7
	17	7	20015.62	9808.74	-3494.565	1	10412.65	-19.60949	1.219349E-009	0.0457791	7
	18	7	15890.62	10252.55	-3580.346	1	10859.73	-19.24997	-3.422673E-008	0.0458505	7
	19	7	12609.37	10732.86	-3653.73	1	11337.72	-18.79985	6.096053E-010	0.045887	6
	20	8	10078.13	11167.97	-3813.019	1	11800.96	-18.85116	-7.271541E-009	0.0458884	6
	21	8	8015.625	11619.76	-4022.383	1	12296.28	-19.09419	5.586802E-009	0.0456894	6
	22	8	6328.125	12118.76	-4292.558	1	12856.53	-19.50454	-7.417198E-009	0.0458841	6
	23	9	5015.625	12634.82	-4619.5	1	13452.82	-20.08326	5.508515E-009	0.0456881	6
	24	9	3984.375	13188.63	-5014.97	1	14109.93	-20.81927	1.129894E-008	0.0456109	6
	25	9	3170.956	13776.29	-5452.768	1	14816.17	-21.59406	3.056319E-009	0.0457183	6
	26	10	2527.573	14417.25	-5970.417	1	15604.58	-22.49524	9.582586E-010	0.0458806	6
	27	10	1976.103	15175.71	-6611.479	1	16553.36	-23.54093	-2.526108E-009	0.0457925	6
	28	10	1577.524	15922.71	-7290.211	1	17512.27	-24.60068	-5.892785E-009	0.045923	6
	29	11	1265.625	16712.52	-8042.784	1	18547.1	-25.69886	1.097948E-009	0.0458742	6
	30	11	998.264	17623.55	-8992.421	1	19785.17	-27.03296	1.689241E-009	0.0458861	6
	31	11	796.875	18556.35	-10049.5	1	21102.85	-28.43849	1.870541E-010	0.0458553	6
	32	12	627.7902	19652.35	-11373.78	1	22706.34	-30.06008	-2.809419E-009	0.045803	6
	33	12	505.5147	20757.72	-12784.41	1	24378.76	-31.62838	-1.567386E-009	0.0457351	6
	34	12	397.9953	22117.11	-14670.22	1	26540.19	-33.55621	5.659136E-010	0.0458107	6
	35	12	315.5048	23650.64	-16802.22	1	29011.5	-35.39128	2.300405E-010	0.0458129	6
	36	13	252.4038	25351.01	-19170.71	1	31783.49	-37.09697	2.288301E-010	0.0458066	6
	37	13	198.6229	27463.31	-22098.91	1	35250.46	-38.8226	6.44119E-010	0.045807	6
	38	13	158.3615	29729.34	-25256.97	1	39009.59	-40.35003	5.497726E-010	0.045803	6
	39	14	125.558	32347.35	-28942.09	1	43405.02	-41.8199	3.959352E-010	0.0458021	6
	40	14	100.4464	35111.89	-33035.16	1	48209.61	-43.25449	8.339658E-010	0.0458036	6
	41	14	79.00281	38305.09	-38193.61	1	54092.8	-44.9165	4.555051E-010	0.0458032	6
	42	15	63.3446	41355.86	-43344.81	1	59908.93	-46.34518	6.19485E-010	0.0458013	6
	43	15	49.86702	45217.98	-50596.84	1	67857.98	-48.2131	7.870495E-010	0.0457997	6
	44	15	39.72458	49114.36	-59114.45	1	76855.31	-50.27901	2.177771E-010	0.0458068	6
	45	16	31.6723	53405.89	-69131.35	1	87357.5	-52.31292	-6.75086E-011	0.0457972	6
	46	16	24.93351	58605.35	-82160.98	1	100920.8	-54.49977	3.732268E-010	0.0457986	5
	47	16	19.86229	64460.61	-97302.7	1	116717.6	-56.47652	8.863842E-010	0.0458033	5
	48	17	15.83615	71163.89	-115350.8	1	135536.4	-58.32813	7.363429E-012	0.0457956	5
	49	17	12.40079	81352.82	-139751.2	1	161705.5	-59.7952	-5.513953E-011	0.0457993	5
	50	17	9.93114	92080.4	-166450.8	1	190222.7	-61.04868	-4.814688E-011	0.0458	5
	51	18	7.944915	104915.7	-198424.2	1	224453.7	-62.1326	-1.119927E-009	0.0457981	5
	52	18	6.317385	124544.9	-235140.4	1	266087.3	-62.09155	1.129393E-010	0.0457843	5
	53	19	5.008013	148597.7	-279339.9	1	316404.9	-61.98881	-3.936154E-011	0.0457919	5
	54	20	3.945707	179306.8	-331752.6	1	377108.4	-61.6095	2.916725E-010	0.0457988	5
	55	21	3.158693	214724.7	-384983.1	1	440815.9	-60.84937	-8.445117E-012	0.0458077	5
	56	23	2.504006	258422.1	-448066.8	1	517248.3	-60.02584	-8.059048E-011	0.0457964	5
	57	24	1.998082	307274.7	-514353.7	1	599147.3	-59.14592	1.198083E-010	0.0458339	5
	58	25	1.584686	362177.8	-592913.9	1	694780.3	-58.58158	1.228823E-010	0.0458334	5
	59	27	1.266892	420408.8	-676904.5	1	796833.3	-58.1566	6.04111E-011	0.0457956	5
	60	30	0.999041	490876.7	-780946	1	922408.1	-57.8479	4.02085E-011	0.0457658	5
