EXPLAIN
TAG	EISPOT
TITLE	LABEL	Potentiostatic EIS	Test &Identifier
DATE	LABEL	7/5/2020	Date
TIME	LABEL	16:39:08	Time
NOTES	NOTES	1	&Notes...
	
PSTAT	PSTAT	REF600-11020	Potentiostat
VDC	POTEN	0.00000E+000	T	DC &Voltage (V)
FREQINIT	QUANT	1.00000E+006	Initial Fre&q. (Hz)
FREQFINAL	QUANT	1.00000E+000	Final Fre&q. (Hz)
PTSPERDEC	QUANT	1.00000E+001	Points/&decade
VAC	QUANT	2.50000E+001	AC &Voltage (mV rms)
AREA	QUANT	4.00000E-004	&Area (cm^2)
CONDIT	TWOPARAM	F	5.00000E+000	0.00000E+000	Conditionin&g	Time(s)	E(V)
DELAY	TWOPARAM	F	3.00000E+000	0.00000E+000	Init. De&lay	Time(s)	Stab.(mV/s)
SPEED	SELECTOR	0	&Optimize for:
ZGUESS	QUANT	1.00000E+003	E&stimated Z (ohms)
OCVCURVE	TABLE	39
	Pt	T	Vf	Vm	Ach	Over
	#	s	V vs. Ref.	V	V	bits
	0	0.258333	3.69086E-002	3.69086E-002	5.05150E-004	...........
	1	0.516667	3.69083E-002	3.68920E-002	5.12217E-004	...........
	2	0.775	3.69067E-002	3.68919E-002	5.06984E-004	...........
	3	1.03333	3.69011E-002	3.67947E-002	5.06750E-004	...........
	4	1.29167	3.68881E-002	3.68610E-002	5.10184E-004	...........
	5	1.55	3.68697E-002	3.68731E-002	5.03884E-004	...........
	6	1.80833	3.68565E-002	3.68751E-002	5.05684E-004	...........
	7	2.06667	3.68552E-002	3.68674E-002	5.09417E-004	...........
	8	2.325	3.68615E-002	3.68893E-002	5.10484E-004	...........
	9	2.58333	3.68690E-002	3.68775E-002	5.09950E-004	...........
	10	2.84167	3.68748E-002	3.68789E-002	5.09050E-004	...........
	11	3.1	3.68783E-002	3.68724E-002	5.07717E-004	...........
	12	3.35833	3.68787E-002	3.68605E-002	5.05384E-004	...........
	13	3.61667	3.68758E-002	3.68490E-002	5.01584E-004	...........
	14	3.875	3.68698E-002	3.68458E-002	5.01517E-004	...........
	15	4.13333	3.68619E-002	3.68462E-002	5.05750E-004	...........
	16	4.39167	3.68544E-002	3.68422E-002	5.04650E-004	...........
	17	4.65	3.68489E-002	3.68383E-002	5.13383E-004	...........
	18	4.90833	3.68450E-002	3.68387E-002	5.10317E-004	...........
	19	5.16667	3.68425E-002	3.68528E-002	5.12584E-004	...........
	20	5.425	3.68421E-002	3.68569E-002	5.10484E-004	...........
	21	5.68333	3.68442E-002	3.68413E-002	5.05750E-004	...........
	22	5.94167	3.68469E-002	3.68408E-002	5.08117E-004	...........
	23	6.2	3.68472E-002	3.68182E-002	5.04717E-004	...........
	24	6.45833	3.68435E-002	3.68341E-002	5.13883E-004	...........
	25	6.71667	3.68371E-002	3.68103E-002	5.12517E-004	...........
	26	6.975	3.68309E-002	3.68435E-002	5.08984E-004	...........
	27	7.23333	3.68274E-002	3.68330E-002	5.07883E-004	...........
	28	7.49167	3.68275E-002	3.68275E-002	5.12750E-004	...........
	29	7.75	3.68292E-002	3.68096E-002	5.12650E-004	...........
	30	8.00833	3.68282E-002	3.67968E-002	5.05284E-004	...........
	31	8.26667	3.68223E-002	3.67968E-002	5.06883E-004	...........
	32	8.525	3.68133E-002	3.67925E-002	5.12550E-004	...........
	33	8.78333	3.68046E-002	3.68007E-002	5.06384E-004	...........
	34	9.04167	3.67989E-002	3.67900E-002	5.05350E-004	...........
	35	9.3	3.67962E-002	3.68005E-002	5.10684E-004	...........
	36	9.5583	3.67937E-002	3.67030E-002	5.10617E-004	...........
	37	9.8167	3.67851E-002	3.67254E-002	5.06883E-004	...........
	38	10.075	3.67672E-002	3.67185E-002	5.05350E-004	...........
EOC	QUANT	0.0367672	Open Circuit (V)
PSTATMODEL	IQUANT	4	Pstat Model
PSTATSECTION	LABEL	REF600-11020	Pstat Section
PSTATSERIALNO	LABEL	11020	Pstat Serial Number
CTRLMODE	IQUANT	1	Control Mode
IESTAB	IQUANT	0	I/E Stability
CASPEED	IQUANT	1	Control Amp Speed
CONVENTION	IQUANT	1	Current Convention
ICHRANGE	IQUANT	2	Ich Range
ICHRANGEMODE	TOGGLE	F	Ich Auto Range
ICHOFFSETENABLE	TOGGLE	T	Ich Offset Enable
ICHOFFSET	QUANT	0	Ich Offset (V)
ICHFILTER	IQUANT	3	Ich Filter
VCHRANGE	IQUANT	2	Vch Range
VCHRANGEMODE	TOGGLE	F	Vch Auto Range
VCHOFFSETENABLE	TOGGLE	T	Vch Offset Enable
VCHOFFSET	QUANT	0	Vch Offset (V)
VCHFILTER	IQUANT	3	Vch Filter
ACHRANGE	IQUANT	2	Ach Range
ACHOFFSETENABLE	TOGGLE	F	Ach Offset Enable
ACHOFFSET	QUANT	0	Ach Offset (V)
ACHFILTER	IQUANT	3	Ach Filter
IERANGELOWERLIMIT	IQUANT	1	I/E Range Lower Limit
IERANGEMODE	TOGGLE	F	I/E AutoRange
IERANGE	IQUANT	7	I/E Range
POSFEEDENABLE	TOGGLE	F	Positive Feedback IR Comp
POSFEEDRESISTANCE	QUANT	0	Positive Feedback Resistance (ohm)
ACHSELECT	IQUANT	0	Ach Select
CABLEID	IQUANT	14	Cable ID
DCCALDATE	LABEL	6/26/2020	DC Calibration Date
ACCALDATE	LABEL	6/26/2020	AC Calibration Date
THERMOSELECT	IQUANT	1	Thermo Select
FRAMEWORKVERSION	QUANT	6.33	Framework Version
INSTRUMENTVERSION	LABEL	3.50	Instrument Version
ZCURVE	TABLE
	Pt	Time	Freq	Zreal	Zimag	Zsig	Zmod	Zphz	Idc	Vdc	IERange
	#	s	Hz	ohm	ohm	V	ohm	°	A	V	#
	0	1	1000078	1620.526	-1524.926	1	2225.198	-43.25914	1.617917E-005	0.0380088	8
	1	1	794390.6	1914.858	-1606.107	1	2499.252	-39.9886	-4.821945E-006	0.0393078	8
	2	1	630984.4	2228.873	-1639.725	1	2767.052	-36.34098	-2.360122E-006	0.0385706	8
	3	2	501234.4	2535.14	-1623.2	1	3010.268	-32.63063	4.812188E-006	0.0385059	8
	4	2	398109.4	2852.684	-1580.011	1	3261.018	-28.98068	6.744254E-006	0.0377447	8
	5	2	316265.6	3134.795	-1472.432	1	3463.38	-25.15973	-2.349324E-006	0.0389096	8
	6	3	251203.1	3364.304	-1359.656	1	3628.665	-22.0057	-3.325607E-006	0.0390099	8
	7	3	199546.9	3566.657	-1238.087	1	3775.434	-19.14332	6.94422E-006	0.0377913	8
	8	3	158578.1	3725.236	-1130.931	1	3893.12	-16.88757	-3.450344E-006	0.0388642	8
	9	4	125953.1	3847.682	-1010.137	1	3978.069	-14.70998	-1.724977E-006	0.0379536	7
	10	4	100078.1	3962.817	-922.2455	1	4068.717	-13.10095	-1.238993E-006	0.0394405	7
	11	4	79453.13	4082.032	-867.8768	1	4173.271	-12.00288	1.026699E-006	0.0377365	7
	12	4	63140.62	4148.006	-814.6589	1	4227.248	-11.11134	2.067079E-008	0.0394475	7
	13	5	50203.12	4211.899	-780.4092	1	4283.589	-10.4971	-9.684468E-007	0.0401376	7
	14	5	39890.62	4307.965	-769.5951	1	4376.167	-10.12874	8.506198E-007	0.0365545	7
	15	5	31640.63	4380.873	-778.1679	1	4449.448	-10.07231	8.517341E-007	0.0365553	7
	16	6	25171.88	4426.141	-799.8859	1	4497.837	-10.24385	-1.288223E-006	0.0398721	7
	17	6	20015.62	4533.269	-847.9636	1	4611.895	-10.59494	1.050766E-006	0.0366544	7
	18	6	15890.62	4595.682	-907.5365	1	4684.433	-11.17081	-3.500953E-007	0.0398299	7
	19	7	12609.37	4706.219	-988.59	1	4808.93	-11.86309	8.510308E-007	0.0365545	7
	20	7	10078.13	4778.676	-1081.658	1	4899.564	-12.75404	-6.986647E-007	0.0381377	7
	21	7	8015.625	4891.058	-1204.512	1	5037.191	-13.83483	-3.504048E-007	0.0398203	7
	22	8	6328.125	5027.427	-1357.951	1	5207.596	-15.11537	6.001217E-007	0.0386445	7
	23	8	5015.625	5146.213	-1531.039	1	5369.133	-16.56815	-7.012932E-007	0.0381241	7
	24	8	3984.375	5306.125	-1740.745	1	5584.367	-18.16276	-2.676576E-007	0.0374075	7
	25	9	3170.956	5499.448	-1992.584	1	5849.301	-19.91669	1.163189E-006	0.0364698	7
	26	9	2527.573	5687.025	-2277.99	1	6126.295	-21.82902	9.398617E-007	0.036339	7
	27	9	1976.103	5929.46	-2646.833	1	6493.398	-24.05536	1.269138E-006	0.036718	7
	28	10	1577.524	6177.818	-3043.828	1	6886.968	-26.22959	1.126393E-006	0.0364762	7
	29	10	1265.625	6433.936	-3484.087	1	7316.72	-28.43631	5.175213E-007	0.0365839	7
	30	10	998.264	6768.409	-4051.263	1	7888.225	-30.90283	-3.366594E-007	0.037472	7
	31	11	796.875	7122.333	-4674.071	1	8519.07	-33.27511	-1.160038E-006	0.0400337	7
	32	11	627.7902	7565.058	-5461.848	1	9330.695	-35.82867	-1.288864E-006	0.0398559	7
	33	11	505.5147	8100.387	-6336.086	1	10284.08	-38.03236	1.148803E-006	0.0368744	7
	34	12	397.9953	8662.113	-7399.084	1	11392.04	-40.5036	1.708893E-009	0.0383968	7
	35	12	315.5048	9333.56	-8639.284	1	12718.2	-42.78782	8.384373E-010	0.0383792	6
	36	12	252.4038	10071.65	-10034.9	1	14217.5	-44.89528	2.407208E-010	0.0383901	6
	37	13	198.6229	10971.88	-11794.36	1	16108.66	-47.06903	4.085125E-010	0.0383905	6
	38	13	158.3615	11934.24	-13759.38	1	18213.91	-49.06318	5.564199E-010	0.0383838	6
	39	13	125.558	13036.58	-16147.04	1	20752.81	-51.08377	7.888259E-011	0.0383915	6
	40	13	100.4464	14223.43	-18885.6	1	23642.58	-53.01527	6.397044E-010	0.0383817	6
	41	14	79.00281	15629.37	-22446.04	1	27351.45	-55.15017	4.306911E-010	0.0383892	6
	42	14	63.3446	17209.72	-26479.02	1	31580.26	-56.97863	2.961939E-010	0.0383803	6
	43	15	49.86702	19068.14	-31746.8	1	37033.14	-59.00963	-3.368528E-010	0.0383838	6
	44	15	39.72458	21203.54	-37814.52	1	43353.52	-60.71957	6.472534E-010	0.0383828	6
	45	15	31.6723	23806.35	-45196.41	1	51082.85	-62.22284	2.619837E-010	0.0383858	6
	46	16	24.93351	27325.02	-54605.19	1	61060.49	-63.41613	6.040299E-010	0.038386	6
	47	16	19.86229	31501.78	-65407.38	1	72598.13	-64.2834	2.33205E-009	0.0383836	6
	48	16	15.83615	37036.69	-77969.68	1	86319.1	-64.59163	-9.822019E-010	0.0383743	6
	49	16	12.40079	44070.62	-94231.23	1	104027.6	-64.93517	-7.550914E-010	0.0383832	6
	50	17	9.93114	52368.1	-111524.1	1	123207.3	-64.84676	-1.017087E-009	0.0383663	5
	51	17	7.944915	62477.87	-131229.3	1	145343	-64.54102	1.103038E-009	0.0383737	5
	52	17	6.317385	75753.25	-155200	1	172700.9	-63.98296	-1.854833E-010	0.0383807	5
	53	18	5.008013	91720.63	-182704.7	1	204435	-63.34263	-4.877379E-010	0.0383722	5
	54	19	3.945707	111443.2	-214772.7	1	241964.7	-62.57569	3.541322E-011	0.0383686	5
	55	20	3.158693	133029.9	-248980.7	1	282291.2	-61.88451	-2.444973E-010	0.0383541	5
	56	21	2.504006	159308.8	-289108.5	1	330095.5	-61.14371	1.130978E-010	0.0383626	5
	57	22	1.998082	187663.6	-334010.5	1	383119.6	-60.67057	1.650334E-010	0.0383806	5
	58	24	1.584686	222152	-386222	1	445554.6	-60.09281	-2.358977E-011	0.0383317	5
	59	26	1.266892	260194.5	-446273.1	1	516585.8	-59.75616	-5.719366E-011	0.0383174	5
	60	28	0.999041	305257.2	-519953.4	1	602937.4	-59.58342	-7.886305E-011	0.0383258	5
