EXPLAIN
TAG	EISPOT
TITLE	LABEL	Potentiostatic EIS	Test &Identifier
DATE	LABEL	1/14/2020	Date
TIME	LABEL	14:47:48	Time
NOTES	NOTES	5	&Notes...
	
	
	
	
	
PSTAT	PSTAT	REF600-11020	Potentiostat
VDC	POTEN	0.00000E+000	T	DC &Voltage (V)
FREQINIT	QUANT	1.00000E+006	Initial Fre&q. (Hz)
FREQFINAL	QUANT	1.00000E+000	Final Fre&q. (Hz)
PTSPERDEC	QUANT	1.00000E+001	Points/&decade
VAC	QUANT	2.50000E+001	AC &Voltage (mV rms)
AREA	QUANT	1.00000E-001	&Area (cm^2)
CONDIT	TWOPARAM	T	5.00000E+000	0.00000E+000	Conditionin&g	Time(s)	E(V)
DELAY	TWOPARAM	T	5.00000E+000	0.00000E+000	Init. De&lay	Time(s)	Stab.(mV/s)
SPEED	SELECTOR	0	&Optimize for:
ZGUESS	QUANT	5.00000E+002	E&stimated Z (ohms)
OCVCURVE	TABLE	19
	Pt	T	Vf	Vm	Ach	Over
	#	s	V vs. Ref.	V	V	bits
	0	0.258333	6.21783E-003	6.21783E-003	6.39413E-004	...........
	1	0.516667	6.21621E-003	6.13337E-003	6.42613E-004	...........
	2	0.775	6.20660E-003	6.06848E-003	6.40280E-004	...........
	3	1.03333	6.18073E-003	6.02612E-003	6.37213E-004	...........
	4	1.29167	6.13825E-003	5.99955E-003	6.38546E-004	...........
	5	1.55	6.08911E-003	5.98633E-003	6.41813E-004	...........
	6	1.80833	6.04526E-003	5.98024E-003	6.41780E-004	...........
	7	2.06667	6.01325E-003	5.97851E-003	6.38746E-004	...........
	8	2.325	5.99367E-003	5.98138E-003	6.42880E-004	...........
	9	2.58333	5.98397E-003	5.98847E-003	6.42346E-004	...........
	10	2.84167	5.98136E-003	6.00101E-003	6.38646E-004	...........
	11	3.1	5.98397E-003	6.01137E-003	6.35580E-004	...........
	12	3.35833	5.99057E-003	6.02442E-003	6.42546E-004	...........
	13	3.61667	6.00006E-003	6.03960E-003	6.37913E-004	...........
	14	3.875	6.01164E-003	6.05852E-003	6.30947E-004	...........
	15	4.13333	6.02495E-003	6.07030E-003	6.35413E-004	...........
	16	4.39167	6.03963E-003	6.08833E-003	6.40980E-004	...........
	17	4.65	6.05506E-003	6.10514E-003	6.41013E-004	...........
	18	4.90833	6.07091E-003	6.12210E-003	6.35146E-004	...........
EOC	QUANT	0.0060709	Open Circuit (V)
PSTATMODEL	IQUANT	4	Pstat Model
PSTATSECTION	LABEL	REF600-11020	Pstat Section
PSTATSERIALNO	LABEL	11020	Pstat Serial Number
CTRLMODE	IQUANT	1	Control Mode
IESTAB	IQUANT	0	I/E Stability
CASPEED	IQUANT	1	Control Amp Speed
CONVENTION	IQUANT	1	Current Convention
ICHRANGE	IQUANT	2	Ich Range
ICHRANGEMODE	TOGGLE	F	Ich Auto Range
ICHOFFSETENABLE	TOGGLE	T	Ich Offset Enable
ICHOFFSET	QUANT	0	Ich Offset (V)
ICHFILTER	IQUANT	3	Ich Filter
VCHRANGE	IQUANT	2	Vch Range
VCHRANGEMODE	TOGGLE	F	Vch Auto Range
VCHOFFSETENABLE	TOGGLE	T	Vch Offset Enable
VCHOFFSET	QUANT	0	Vch Offset (V)
VCHFILTER	IQUANT	3	Vch Filter
ACHRANGE	IQUANT	2	Ach Range
ACHOFFSETENABLE	TOGGLE	F	Ach Offset Enable
ACHOFFSET	QUANT	0	Ach Offset (V)
ACHFILTER	IQUANT	3	Ach Filter
IERANGELOWERLIMIT	IQUANT	1	I/E Range Lower Limit
IERANGEMODE	TOGGLE	F	I/E AutoRange
IERANGE	IQUANT	7	I/E Range
POSFEEDENABLE	TOGGLE	F	Positive Feedback IR Comp
POSFEEDRESISTANCE	QUANT	0	Positive Feedback Resistance (ohm)
ACHSELECT	IQUANT	0	Ach Select
CABLEID	IQUANT	14	Cable ID
DCCALDATE	LABEL	12/22/2019	DC Calibration Date
ACCALDATE	LABEL	12/22/2019	AC Calibration Date
THERMOSELECT	IQUANT	1	Thermo Select
FRAMEWORKVERSION	QUANT	6.33	Framework Version
INSTRUMENTVERSION	LABEL	3.50	Instrument Version
ZCURVE	TABLE
	Pt	Time	Freq	Zreal	Zimag	Zsig	Zmod	Zphz	Idc	Vdc	IERange
	#	s	Hz	ohm	ohm	V	ohm	°	A	V	#
	0	1	1000078	2350.761	-1472.321	1	2773.771	-32.0596	-6.456607E-007	0.0077115	8
	1	1	794390.6	2631.188	-1386.466	1	2974.128	-27.78634	7.906914E-007	0.0076056	8
	2	2	630984.4	2870.459	-1281.439	1	3143.505	-24.05709	-1.088496E-006	0.0078609	8
	3	2	501234.4	3069.277	-1160.501	1	3281.345	-20.71173	-6.928107E-007	0.0077695	8
	4	2	398109.4	3238.984	-1043.757	1	3403.006	-17.86145	8.093786E-007	0.0074013	8
	5	3	316265.6	3350.03	-923.1815	1	3474.905	-15.40683	2.616624E-006	0.0069981	8
	6	3	251203.1	3455.82	-825.1685	1	3552.97	-13.42943	3.667121E-006	0.0068348	8
	7	3	199546.9	3548.404	-740.4861	1	3624.844	-11.7874	1.226785E-006	0.0072451	8
	8	4	158578.1	3596.037	-681.2381	1	3659.995	-10.72707	6.799605E-007	0.0073904	8
	9	4	125953.1	3680.063	-610.6163	1	3730.377	-9.421	8.245011E-008	0.0073745	7
	10	4	100078.1	3728.235	-581.6215	1	3773.33	-8.866928	-2.041292E-008	0.0075229	7
	11	5	79453.13	3780.244	-575.7874	1	3823.843	-8.660436	7.699723E-008	0.0074008	7
	12	5	63140.62	3831.466	-583.7058	1	3875.673	-8.662139	-1.041466E-008	0.0075704	7
	13	5	50203.12	3884.515	-604.1392	1	3931.214	-8.840105	-2.105361E-008	0.007511	7
	14	6	39890.62	3942.784	-643.4417	1	3994.942	-9.268665	-2.194905E-008	0.0075132	7
	15	6	31640.63	4000.564	-687.9028	1	4059.276	-9.75668	2.105216E-008	0.0075211	7
	16	6	25171.88	4064.407	-753.9753	1	4133.75	-10.50929	2.481364E-008	0.0074043	7
	17	6	20015.62	4138.504	-835.0723	1	4221.915	-11.40803	7.361555E-008	0.0073616	7
	18	7	15890.62	4218.422	-938.8752	1	4321.64	-12.54755	5.842223E-009	0.0075078	7
	19	7	12609.37	4311.995	-1054.939	1	4439.167	-13.7475	3.435677E-009	0.0075043	7
	20	7	10078.13	4411.004	-1200.178	1	4571.366	-15.22098	1.998637E-008	0.007525	7
	21	8	8015.625	4526.974	-1369.859	1	4729.694	-16.83578	-4.169545E-008	0.0075549	7
	22	8	6328.125	4663.291	-1578.381	1	4923.167	-18.69939	1.098514E-008	0.0074927	7
	23	8	5015.625	4814.986	-1822.73	1	5148.44	-20.73433	-3.74183E-008	0.0075561	7
	24	9	3984.375	4988.145	-2103.618	1	5413.576	-22.86629	7.636594E-008	0.0073511	7
	25	9	3170.956	5187.59	-2434.761	1	5730.545	-25.1427	-4.273168E-009	0.0074727	7
	26	9	2527.573	5415.167	-2816.1	1	6103.643	-27.47621	-1.531998E-008	0.0075713	7
	27	10	1976.103	5699.88	-3300.868	1	6586.681	-30.07564	5.39598E-008	0.0073572	7
	28	10	1577.524	6006.267	-3838.219	1	7127.914	-32.58003	-3.730058E-008	0.007558	7
	29	10	1265.625	6349.032	-4433.996	1	7744.064	-34.92943	5.091435E-009	0.0074971	7
	30	11	998.264	6780.895	-5201.19	1	8545.93	-37.4895	1.102544E-008	0.0074935	7
	31	11	796.875	7259.601	-6038.719	1	9442.877	-39.75454	1.819853E-008	0.0074388	7
	32	11	627.7902	7856.459	-7078.605	1	10575	-42.01859	3.460126E-009	0.0074908	6
	33	12	505.5147	8491.978	-8182.75	1	11792.84	-43.93759	-2.253725E-009	0.0075124	6
	34	12	397.9953	9299.458	-9587.03	1	13356.31	-45.87233	6.707755E-010	0.0074838	6
	35	12	315.5048	10208	-11176.33	1	15136.5	-47.59271	9.527815E-010	0.007481	6
	36	12	252.4038	11202.6	-12947.19	1	17120.98	-49.13191	7.810379E-010	0.0074779	6
	37	13	198.6229	12408.93	-15162.92	1	19593.26	-50.70402	8.613269E-010	0.0074825	6
	38	13	158.3615	13686.05	-17617.41	1	22308.77	-52.15821	6.218711E-010	0.0074786	6
	39	13	125.558	15129.08	-20586.91	1	25548.19	-53.68826	1.025348E-009	0.0074767	6
	40	14	100.4464	16643.85	-23993.31	1	29200.96	-55.25146	6.725549E-010	0.007478	6
	41	14	79.00281	18418.09	-28416.5	1	33863.3	-57.0508	7.453673E-010	0.0074761	6
	42	14	63.3446	20301.14	-33253.25	1	38960.43	-58.59589	6.682262E-010	0.0074739	6
	43	15	49.86702	22515.09	-39843.04	1	45764.58	-60.52944	7.029211E-010	0.0074719	6
	44	15	39.72458	24917.18	-47550.35	1	53683.35	-62.34471	5.419753E-010	0.0074786	6
	45	15	31.6723	27836.44	-56896.8	1	63341.24	-63.93007	9.000574E-010	0.0074755	6
	46	16	24.93351	31552.45	-69003.27	1	75874.95	-65.42727	4.036335E-010	0.0074755	6
	47	16	19.86229	36034.02	-83087.6	1	90564.89	-66.55424	6.5699E-010	0.0074763	6
	48	16	15.83615	41860.83	-99653	1	108088.1	-67.21438	-7.740671E-010	0.0074781	5
	49	17	12.40079	49609.86	-122084.9	1	131779.6	-67.88536	-8.424589E-010	0.0074815	5
	50	17	9.93114	58903.21	-146032.5	1	157464.6	-68.03298	-8.771621E-010	0.0074804	5
	51	17	7.944915	70973.95	-174000.1	1	187918.5	-67.80965	2.957669E-012	0.0074857	5
	52	18	6.317385	86356.81	-208765.7	1	225921.7	-67.52736	-3.565112E-011	0.0074773	5
	53	19	5.008013	106441	-249308.3	1	271079.9	-66.88017	-2.314618E-010	0.0074665	5
	54	19	3.945707	132615.3	-297235.6	1	325477.8	-65.95537	4.711152E-012	0.0074755	5
	55	20	3.158693	162334.3	-348516.9	1	384469.1	-65.02455	-1.426772E-010	0.0074613	5
	56	21	2.504006	200775.3	-408896.5	1	455529.4	-63.84816	1.246784E-010	0.0074661	5
	57	23	1.998082	243768.4	-475097.6	1	533985.7	-62.83804	1.451393E-010	0.0074895	5
	58	24	1.584686	297953.4	-550972.8	1	626376.3	-61.5965	4.3883E-011	0.0074386	5
	59	26	1.266892	359015.4	-635997.3	1	730331.8	-60.55562	2.214334E-011	0.0074261	5
	60	29	0.999041	433424.3	-737497.3	1	855429.1	-59.55741	1.031928E-011	0.0074335	5
