EXPLAIN
TAG	EISPOT
TITLE	LABEL	Potentiostatic EIS	Test &Identifier
DATE	LABEL	1/21/2020	Date
TIME	LABEL	18:00:03	Time
NOTES	NOTES	6	&Notes...
	
	
	
	
	
	
PSTAT	PSTAT	REF600-11020	Potentiostat
VDC	POTEN	0.00000E+000	T	DC &Voltage (V)
FREQINIT	QUANT	1.00000E+006	Initial Fre&q. (Hz)
FREQFINAL	QUANT	1.00000E+000	Final Fre&q. (Hz)
PTSPERDEC	QUANT	1.00000E+001	Points/&decade
VAC	QUANT	2.50000E+001	AC &Voltage (mV rms)
AREA	QUANT	1.00000E-001	&Area (cm^2)
CONDIT	TWOPARAM	F	5.00000E+000	0.00000E+000	Conditionin&g	Time(s)	E(V)
DELAY	TWOPARAM	F	5.00000E+000	0.00000E+000	Init. De&lay	Time(s)	Stab.(mV/s)
SPEED	SELECTOR	0	&Optimize for:
ZGUESS	QUANT	5.00000E+002	E&stimated Z (ohms)
OCVCURVE	TABLE	39
	Pt	T	Vf	Vm	Ach	Over
	#	s	V vs. Ref.	V	V	bits
	0	0.258333	1.56809E-002	1.56809E-002	6.52213E-004	...........
	1	0.516667	1.56799E-002	1.56318E-002	6.52680E-004	...........
	2	0.775	1.56744E-002	1.55985E-002	6.49980E-004	...........
	3	1.03333	1.56597E-002	1.55696E-002	6.48213E-004	...........
	4	1.29167	1.56334E-002	1.54397E-002	6.53813E-004	...........
	5	1.55	1.55929E-002	1.53839E-002	6.50446E-004	...........
	6	1.80833	1.55379E-002	1.54171E-002	6.53246E-004	...........
	7	2.06667	1.54823E-002	1.55328E-002	6.53313E-004	...........
	8	2.325	1.54511E-002	1.55231E-002	6.48180E-004	...........
	9	2.58333	1.54551E-002	1.55086E-002	6.52446E-004	...........
	10	2.84167	1.54785E-002	1.54922E-002	6.56613E-004	...........
	11	3.1	1.54979E-002	1.54834E-002	6.55513E-004	...........
	12	3.35833	1.55029E-002	1.54651E-002	6.50913E-004	...........
	13	3.61667	1.54961E-002	1.54509E-002	6.54613E-004	...........
	14	3.875	1.54833E-002	1.54443E-002	6.49546E-004	...........
	15	4.13333	1.54689E-002	1.54242E-002	6.51846E-004	...........
	16	4.39167	1.54554E-002	1.54425E-002	6.51013E-004	...........
	17	4.65	1.54447E-002	1.54355E-002	6.53313E-004	...........
	18	4.90833	1.54382E-002	1.54195E-002	6.53780E-004	...........
	19	5.16667	1.54340E-002	1.54077E-002	6.56513E-004	...........
	20	5.425	1.54287E-002	1.54012E-002	6.51280E-004	...........
	21	5.68333	1.54209E-002	1.53976E-002	6.52413E-004	...........
	22	5.94167	1.54121E-002	1.53943E-002	6.47880E-004	...........
	23	6.2	1.54044E-002	1.53848E-002	6.52113E-004	...........
	24	6.45833	1.53979E-002	1.53740E-002	6.53780E-004	...........
	25	6.71667	1.53915E-002	1.53687E-002	6.58913E-004	...........
	26	6.975	1.53844E-002	1.53607E-002	6.57779E-004	...........
	27	7.23333	1.53768E-002	1.53570E-002	6.58646E-004	...........
	28	7.49167	1.53691E-002	1.53354E-002	6.59813E-004	...........
	29	7.75	1.53608E-002	1.53202E-002	6.58746E-004	...........
	30	8.00833	1.53505E-002	1.53166E-002	6.54313E-004	...........
	31	8.26667	1.53388E-002	1.53203E-002	6.57846E-004	...........
	32	8.525	1.53286E-002	1.53194E-002	6.59613E-004	...........
	33	8.78333	1.53221E-002	1.53143E-002	6.55013E-004	...........
	34	9.04167	1.53188E-002	1.53106E-002	6.56113E-004	...........
	35	9.3	1.53167E-002	1.53081E-002	6.56580E-004	...........
	36	9.5583	1.53148E-002	1.53323E-002	6.56680E-004	...........
	37	9.8167	1.53167E-002	1.54349E-002	6.52680E-004	...........
	38	10.075	1.53439E-002	1.61552E-002	6.54946E-004	...........
EOC	QUANT	0.0153439	Open Circuit (V)
PSTATMODEL	IQUANT	4	Pstat Model
PSTATSECTION	LABEL	REF600-11020	Pstat Section
PSTATSERIALNO	LABEL	11020	Pstat Serial Number
CTRLMODE	IQUANT	1	Control Mode
IESTAB	IQUANT	0	I/E Stability
CASPEED	IQUANT	1	Control Amp Speed
CONVENTION	IQUANT	1	Current Convention
ICHRANGE	IQUANT	2	Ich Range
ICHRANGEMODE	TOGGLE	F	Ich Auto Range
ICHOFFSETENABLE	TOGGLE	T	Ich Offset Enable
ICHOFFSET	QUANT	0	Ich Offset (V)
ICHFILTER	IQUANT	3	Ich Filter
VCHRANGE	IQUANT	2	Vch Range
VCHRANGEMODE	TOGGLE	F	Vch Auto Range
VCHOFFSETENABLE	TOGGLE	T	Vch Offset Enable
VCHOFFSET	QUANT	0	Vch Offset (V)
VCHFILTER	IQUANT	3	Vch Filter
ACHRANGE	IQUANT	2	Ach Range
ACHOFFSETENABLE	TOGGLE	F	Ach Offset Enable
ACHOFFSET	QUANT	0	Ach Offset (V)
ACHFILTER	IQUANT	3	Ach Filter
IERANGELOWERLIMIT	IQUANT	1	I/E Range Lower Limit
IERANGEMODE	TOGGLE	F	I/E AutoRange
IERANGE	IQUANT	7	I/E Range
POSFEEDENABLE	TOGGLE	F	Positive Feedback IR Comp
POSFEEDRESISTANCE	QUANT	0	Positive Feedback Resistance (ohm)
ACHSELECT	IQUANT	0	Ach Select
CABLEID	IQUANT	14	Cable ID
DCCALDATE	LABEL	12/22/2019	DC Calibration Date
ACCALDATE	LABEL	12/22/2019	AC Calibration Date
THERMOSELECT	IQUANT	1	Thermo Select
FRAMEWORKVERSION	QUANT	6.33	Framework Version
INSTRUMENTVERSION	LABEL	3.50	Instrument Version
ZCURVE	TABLE
	Pt	Time	Freq	Zreal	Zimag	Zsig	Zmod	Zphz	Idc	Vdc	IERange
	#	s	Hz	ohm	ohm	V	ohm	°	A	V	#
	0	1	1000078	2142.592	-1796.833	1	2796.303	-39.98407	3.87826E-006	0.0170047	8
	1	1	794390.6	2494.178	-1812.685	1	3083.302	-36.0084	-2.174893E-006	0.0173354	8
	2	2	630984.4	2846.181	-1774.012	1	3353.783	-31.9351	4.581587E-006	0.0163562	8
	3	2	501234.4	3153.483	-1701.004	1	3582.998	-28.34264	-3.015646E-006	0.0174525	8
	4	2	398109.4	3443.445	-1593.295	1	3794.194	-24.83016	-5.766294E-007	0.0169995	8
	5	3	316265.6	3700.301	-1470.712	1	3981.862	-21.67571	-5.155087E-007	0.0171041	8
	6	3	251203.1	3900.479	-1336.834	1	4123.21	-18.91842	3.530844E-006	0.0162521	8
	7	3	199546.9	4101.591	-1207.489	1	4275.638	-16.40418	8.717833E-007	0.016664	8
	8	4	158578.1	4263.553	-1091.005	1	4400.929	-14.35348	8.134664E-008	0.0169163	8
	9	4	125953.1	4407.249	-945.9072	1	4507.614	-12.11336	-7.683226E-007	0.018456	7
	10	4	100078.1	4506.919	-843.8937	1	4585.245	-10.60549	1.440436E-008	0.0167562	7
	11	4	79453.13	4600.009	-765.3903	1	4663.251	-9.446834	-2.836083E-008	0.0168301	7
	12	5	63140.62	4678.716	-697.2476	1	4730.385	-8.476147	-1.916271E-008	0.0168571	7
	13	5	50203.12	4745.113	-643.9744	1	4788.611	-7.728575	8.744559E-008	0.0167016	7
	14	5	39890.62	4801.481	-604.7367	1	4839.414	-7.178487	-4.463336E-008	0.0169638	7
	15	6	31640.63	4850.641	-581.399	1	4885.36	-6.83488	-1.773126E-008	0.0168042	7
	16	6	25171.88	4896.249	-574.3187	1	4929.817	-6.690092	-4.821353E-008	0.0168679	7
	17	6	20015.62	4939.044	-584.5829	1	4973.52	-6.750097	8.514509E-009	0.0168794	7
	18	7	15890.62	4979.965	-611.9677	1	5017.426	-7.005722	3.303815E-008	0.0167684	7
	19	7	12609.37	5020.947	-658.6701	1	5063.966	-7.473638	-1.749997E-008	0.0168001	7
	20	7	10078.13	5063.573	-725.4142	1	5115.271	-8.152797	-1.377602E-008	0.0167903	7
	21	8	8015.625	5109.15	-816.1644	1	5173.929	-9.076066	-4.798852E-008	0.0168705	7
	22	8	6328.125	5160.988	-940.022	1	5245.897	-10.32269	3.246462E-008	0.0167108	7
	23	8	5015.625	5217.612	-1095.494	1	5331.377	-11.85763	9.172408E-009	0.0168808	7
	24	9	3984.375	5279.294	-1288.952	1	5434.367	-13.72048	-4.664613E-008	0.0168678	7
	25	9	3170.956	5351.758	-1524.863	1	5564.757	-15.90371	-1.96348E-009	0.01679	7
	26	9	2527.573	5433.567	-1815.401	1	5728.816	-18.47492	3.298191E-008	0.0167611	7
	27	10	1976.103	5540.365	-2207.373	1	5963.903	-21.72315	8.405128E-009	0.0168729	7
	28	10	1577.524	5663.014	-2664.423	1	6258.504	-25.19678	-2.60789E-008	0.0168078	7
	29	10	1265.625	5785.125	-3168.456	1	6595.967	-28.70909	-1.666481E-008	0.01684	7
	30	10	998.264	5955.882	-3854.224	1	7094.193	-32.90808	-3.402746E-009	0.0168155	7
	31	11	796.875	6152.334	-4653.847	1	7714.24	-37.10517	-4.382505E-009	0.0168141	7
	32	11	627.7902	6403.421	-5681.849	1	8560.795	-41.58311	-1.158059E-008	0.0167821	7
	33	11	505.5147	6678.19	-6822.711	1	9547.13	-45.6133	-2.797011E-008	0.0168077	7
	34	12	397.9953	7051.45	-8358.674	1	10935.74	-49.84873	9.399089E-010	0.0168173	6
	35	12	315.5048	7494.975	-10186.71	1	12646.89	-53.65586	1.834714E-010	0.016821	6
	36	12	252.4038	8020.461	-12326.18	1	14705.86	-56.94854	5.198806E-010	0.0168158	6
	37	13	198.6229	8727.94	-15129.1	1	17466.16	-60.01947	2.872265E-010	0.0168134	6
	38	13	158.3615	9568.35	-18362.52	1	20705.93	-62.47687	5.505844E-011	0.0168082	6
	39	13	125.558	10666.54	-22388.9	1	24799.96	-64.52589	6.212992E-010	0.0168128	6
	40	14	100.4464	12004.67	-27080.5	1	29622.05	-66.09249	2.166906E-010	0.0168095	6
	41	14	79.00281	13865.84	-33194.11	1	35973.75	-67.32873	9.724775E-010	0.0168085	6
	42	14	63.3446	15932.62	-39744.14	1	42818.75	-68.15515	4.894574E-010	0.0168079	6
	43	15	49.86702	19066.11	-48531.09	1	52141.95	-68.55193	7.941103E-011	0.0168112	6
	44	15	39.72458	22795.54	-58611.76	1	62888.59	-68.74773	9.111641E-010	0.0168065	6
	45	15	31.6723	27438.14	-70410.13	1	75567.45	-68.70963	5.687784E-010	0.0168074	6
	46	16	24.93351	34038	-85175.38	1	91724.76	-68.21724	3.795971E-011	0.0168106	6
	47	16	19.86229	41909.15	-101514.3	1	109825	-67.56722	-9.863402E-010	0.0168018	5
	48	16	15.83615	51854.9	-121247.4	1	131870.6	-66.84464	5.934002E-010	0.0168055	5
	49	17	12.40079	65842.29	-144916.6	1	159173	-65.56552	-7.39644E-010	0.016815	5
	50	17	9.93114	81379.36	-168866.4	1	187452.5	-64.26985	-1.00912E-009	0.0168033	5
	51	17	7.944915	101268	-195644.5	1	220299.7	-62.63335	8.27645E-010	0.0168024	5
	52	18	6.317385	126112.1	-227024	1	259700.2	-60.94777	-2.404662E-010	0.0168168	5
	53	18	5.008013	156500	-260969.9	1	304298.5	-59.04947	-1.668879E-010	0.0168128	5
	54	19	3.945707	191966.1	-298237.9	1	354678.5	-57.23192	-1.217799E-010	0.0167953	5
	55	21	3.158693	231484	-334143.6	1	406493.3	-55.28701	3.752191E-010	0.0168091	5
	56	22	2.504006	277267.7	-373600.6	1	465247	-53.41904	1.219982E-011	0.0168147	5
	57	23	1.998082	325072.7	-415188.9	1	527308.3	-51.94078	-1.479215E-010	0.0167674	5
	58	25	1.584686	376544.6	-458770.8	1	593511.9	-50.62193	-3.586556E-012	0.016803	5
	59	27	1.266892	430972.3	-506079.9	1	664721	-49.58263	4.624472E-011	0.016833	5
	60	30	0.999041	491424.3	-563616.4	1	747770.9	-48.91441	1.744271E-010	0.0168378	5
