EXPLAIN
TAG	EISPOT
TITLE	LABEL	Potentiostatic EIS	Test &Identifier
DATE	LABEL	2/28/2020	Date
TIME	LABEL	15:55:08	Time
NOTES	NOTES	1	&Notes...
	
PSTAT	PSTAT	REF600-11020	Potentiostat
VDC	POTEN	0.00000E+000	T	DC &Voltage (V)
FREQINIT	QUANT	1.00000E+006	Initial Fre&q. (Hz)
FREQFINAL	QUANT	1.00000E+000	Final Fre&q. (Hz)
PTSPERDEC	QUANT	1.00000E+001	Points/&decade
VAC	QUANT	2.50000E+001	AC &Voltage (mV rms)
AREA	QUANT	1.60000E-004	&Area (cm^2)
CONDIT	TWOPARAM	F	1.50000E+001	0.00000E+000	Conditionin&g	Time(s)	E(V)
DELAY	TWOPARAM	F	1.00000E+002	0.00000E+000	Init. De&lay	Time(s)	Stab.(mV/s)
SPEED	SELECTOR	1	&Optimize for:
ZGUESS	QUANT	1.00000E+003	E&stimated Z (ohms)
OCVCURVE	TABLE	39
	Pt	T	Vf	Vm	Ach	Over
	#	s	V vs. Ref.	V	V	bits
	0	0.258333	-8.79473E-002	-8.79473E-002	5.85496E-004	...........
	1	0.516667	-8.79459E-002	-8.78762E-002	5.87296E-004	...........
	2	0.775	-8.79377E-002	-8.78138E-002	5.85430E-004	...........
	3	1.03333	-8.79144E-002	-8.77411E-002	5.78697E-004	...........
	4	1.29167	-8.78725E-002	-8.76798E-002	5.75663E-004	...........
	5	1.55	-8.78159E-002	-8.76119E-002	5.79030E-004	...........
	6	1.80833	-8.77518E-002	-8.75569E-002	5.74997E-004	...........
	7	2.06667	-8.76860E-002	-8.74892E-002	5.76163E-004	...........
	8	2.325	-8.76214E-002	-8.74238E-002	5.80530E-004	...........
	9	2.58333	-8.75576E-002	-8.73618E-002	5.81730E-004	...........
	10	2.84167	-8.74939E-002	-8.72967E-002	5.80297E-004	...........
	11	3.1	-8.74300E-002	-8.72331E-002	5.82330E-004	...........
	12	3.35833	-8.73661E-002	-8.71725E-002	5.81330E-004	...........
	13	3.61667	-8.73025E-002	-8.71142E-002	5.78130E-004	...........
	14	3.875	-8.72398E-002	-8.70496E-002	5.82730E-004	...........
	15	4.13333	-8.71781E-002	-8.69904E-002	5.78297E-004	...........
	16	4.39167	-8.71168E-002	-8.69271E-002	5.81997E-004	...........
	17	4.65	-8.70556E-002	-8.68700E-002	5.78730E-004	...........
	18	4.90833	-8.69945E-002	-8.68071E-002	5.75497E-004	...........
	19	5.16667	-8.69338E-002	-8.67508E-002	5.78330E-004	...........
	20	5.425	-8.68734E-002	-8.66882E-002	5.78663E-004	...........
	21	5.68333	-8.68136E-002	-8.66360E-002	5.81063E-004	...........
	22	5.94167	-8.67544E-002	-8.65756E-002	5.82663E-004	...........
	23	6.2	-8.66961E-002	-8.65223E-002	5.82230E-004	...........
	24	6.45833	-8.66385E-002	-8.64583E-002	5.80530E-004	...........
	25	6.71667	-8.65812E-002	-8.64054E-002	5.75863E-004	...........
	26	6.975	-8.65237E-002	-8.63455E-002	5.81730E-004	...........
	27	7.23333	-8.64660E-002	-8.62909E-002	5.80997E-004	...........
	28	7.49167	-8.64085E-002	-8.62294E-002	5.84563E-004	...........
	29	7.75	-8.63510E-002	-8.61761E-002	5.81230E-004	...........
	30	8.00833	-8.62935E-002	-8.61151E-002	5.75297E-004	...........
	31	8.26667	-8.62361E-002	-8.60625E-002	5.81397E-004	...........
	32	8.525	-8.61789E-002	-8.60059E-002	5.78297E-004	...........
	33	8.78333	-8.61223E-002	-8.59542E-002	5.74197E-004	...........
	34	9.04167	-8.60665E-002	-8.58976E-002	5.75197E-004	...........
	35	9.3	-8.60116E-002	-8.58463E-002	5.79330E-004	...........
	36	9.5583	-8.59571E-002	-8.57842E-002	5.81063E-004	...........
	37	9.8167	-8.59023E-002	-8.57270E-002	5.83263E-004	...........
	38	10.075	-8.58465E-002	-8.56684E-002	5.83963E-004	...........
EOC	QUANT	-0.0858465	Open Circuit (V)
PSTATMODEL	IQUANT	4	Pstat Model
PSTATSECTION	LABEL	REF600-11020	Pstat Section
PSTATSERIALNO	LABEL	11020	Pstat Serial Number
CTRLMODE	IQUANT	1	Control Mode
IESTAB	IQUANT	0	I/E Stability
CASPEED	IQUANT	1	Control Amp Speed
CONVENTION	IQUANT	1	Current Convention
ICHRANGE	IQUANT	2	Ich Range
ICHRANGEMODE	TOGGLE	F	Ich Auto Range
ICHOFFSETENABLE	TOGGLE	T	Ich Offset Enable
ICHOFFSET	QUANT	0	Ich Offset (V)
ICHFILTER	IQUANT	3	Ich Filter
VCHRANGE	IQUANT	2	Vch Range
VCHRANGEMODE	TOGGLE	F	Vch Auto Range
VCHOFFSETENABLE	TOGGLE	T	Vch Offset Enable
VCHOFFSET	QUANT	0	Vch Offset (V)
VCHFILTER	IQUANT	3	Vch Filter
ACHRANGE	IQUANT	2	Ach Range
ACHOFFSETENABLE	TOGGLE	F	Ach Offset Enable
ACHOFFSET	QUANT	0	Ach Offset (V)
ACHFILTER	IQUANT	3	Ach Filter
IERANGELOWERLIMIT	IQUANT	1	I/E Range Lower Limit
IERANGEMODE	TOGGLE	F	I/E AutoRange
IERANGE	IQUANT	8	I/E Range
POSFEEDENABLE	TOGGLE	F	Positive Feedback IR Comp
POSFEEDRESISTANCE	QUANT	0	Positive Feedback Resistance (ohm)
ACHSELECT	IQUANT	0	Ach Select
CABLEID	IQUANT	14	Cable ID
DCCALDATE	LABEL	2/27/2020	DC Calibration Date
ACCALDATE	LABEL	2/27/2020	AC Calibration Date
THERMOSELECT	IQUANT	1	Thermo Select
FRAMEWORKVERSION	QUANT	6.33	Framework Version
INSTRUMENTVERSION	LABEL	3.50	Instrument Version
ZCURVE	TABLE
	Pt	Time	Freq	Zreal	Zimag	Zsig	Zmod	Zphz	Idc	Vdc	IERange
	#	s	Hz	ohm	ohm	V	ohm	°	A	V	#
	0	2	1000078	1576.589	-2357.679	1	2836.245	-56.22921	-3.752551E-006	-0.0831802	8
	1	3	794390.6	1860.555	-2668.191	1	3252.831	-55.11157	-1.689508E-006	-0.0831155	8
	2	5	630984.4	2173.651	-3022.633	1	3723.046	-54.27914	2.95798E-006	-0.0843133	8
	3	6	501234.4	2506.164	-3410.641	1	4232.414	-53.69128	1.649303E-006	-0.0845076	8
	4	8	398109.4	2873.349	-3841.882	1	4797.519	-53.20713	-1.078449E-007	-0.0838778	8
	5	9	316265.6	3278.87	-4404.768	1	5491.172	-53.33633	-2.371991E-006	-0.0836688	8
	6	10	251203.1	3751.686	-5038.805	1	6282.093	-53.33015	-3.905623E-007	-0.0840061	8
	7	12	199546.9	4285.067	-5778.863	1	7194.238	-53.44281	-2.095235E-006	-0.0836793	8
	8	14	158578.1	4960.239	-6655.823	1	8300.84	-53.30475	-2.898938E-006	-0.0834277	8
	9	15	125953.1	5789.317	-7623.932	1	9572.91	-52.78838	5.921604E-008	-0.0844572	7
	10	17	100078.1	6645.957	-8726.99	1	10969.46	-52.70926	-4.290323E-008	-0.0841802	7
	11	18	79453.13	7780.849	-10092.19	1	12743.38	-52.36859	-4.274775E-008	-0.0841811	7
	12	20	63140.62	9115.564	-11607.83	1	14759.24	-51.85764	1.932406E-009	-0.0841687	7
	13	21	50203.12	10788.51	-13208.09	1	17054.2	-50.75766	-9.029397E-009	-0.0841701	7
	14	22	39890.62	12830.91	-14900.27	1	19663.43	-49.26762	4.773663E-008	-0.084354	7
	15	24	31640.63	15300.57	-16630.62	1	22598.34	-47.3852	7.022265E-008	-0.0843576	7
	16	26	25171.88	18133.09	-18247.16	1	25724.85	-45.17965	2.272142E-009	-0.0841755	7
	17	27	20015.62	21373.96	-19671.46	1	29048.45	-42.62481	3.113311E-008	-0.0842881	7
	18	29	15890.62	25042.79	-20721.89	1	32504.43	-39.60637	4.082004E-011	-0.0842882	7
	19	30	12609.37	29197.08	-21196.59	1	36079.98	-35.97902	-6.885717E-009	-0.08421	6
	20	32	10078.13	33062.94	-21581.87	1	39483.36	-33.13454	4.117872E-009	-0.0841715	6
	21	34	8015.625	36965.84	-21575.26	1	42801.46	-30.27014	-7.197865E-009	-0.0842072	6
	22	35	6328.125	40876.58	-21035.66	1	45971.66	-27.23099	-7.917564E-009	-0.0840578	6
	23	37	5015.625	44524.23	-20280.76	1	48925.62	-24.48923	-4.184433E-009	-0.0841952	6
	24	38	3984.375	47762.57	-19215.78	1	51483.09	-21.91585	5.213795E-009	-0.0841921	6
	25	40	3170.956	50683.53	-18063.62	1	53806.27	-19.61607	-3.399879E-009	-0.0840783	6
	26	41	2527.573	53286.68	-16877.01	1	55895.47	-17.57409	-1.266895E-008	-0.0840918	6
	27	43	1976.103	55738.8	-15810.08	1	57937.66	-15.83576	3.669695E-009	-0.0841838	6
	28	45	1577.524	57713.04	-14665.29	1	59547.17	-14.2575	1.618017E-011	-0.0841085	6
	29	46	1265.625	59678.49	-13846.61	1	61263.78	-13.06264	7.855667E-008	-0.0842994	7
	30	48	998.264	60767.42	-12805.75	1	62102.06	-11.90004	-7.363195E-009	-0.0842017	6
	31	49	796.875	61539.89	-12389.19	1	62774.6	-11.38262	-4.25885E-008	-0.084209	7
	32	51	627.7902	63088.38	-12251.32	1	64266.93	-10.98965	4.63147E-008	-0.0843721	7
	33	52	505.5147	63521.28	-12393.12	1	64718.95	-11.03983	-8.906673E-009	-0.0840725	6
	34	54	397.9953	64570.14	-13217.73	1	65909.12	-11.56882	-9.201295E-010	-0.0841834	6
	35	55	315.5048	65217.58	-14393.79	1	66787.08	-12.44589	-1.539061E-009	-0.0841811	6
	36	57	252.4038	65883.14	-16122.19	1	67827.09	-13.75057	-1.402698E-009	-0.0841822	6
	37	58	198.6229	66912.68	-18626.65	1	69456.88	-15.55574	-1.611532E-009	-0.0841793	6
	38	60	158.3615	68154.86	-21662.98	1	71514.82	-17.63283	-1.402521E-009	-0.0841757	6
	39	61	125.558	69567	-25659.2	1	74148.24	-20.24607	-1.37086E-009	-0.0841816	6
	40	63	100.4464	71337.77	-30288.92	1	77501.59	-23.00533	-1.029976E-009	-0.0841802	6
	41	64	79.00281	73670.91	-36523.37	1	82227.48	-26.37055	-5.943467E-010	-0.0841796	6
	42	66	63.3446	76218.76	-44053.82	1	88034.3	-30.02756	-5.883417E-010	-0.0841808	6
	43	67	49.86702	80441.91	-51674.78	1	95609.5	-32.71613	-7.868486E-010	-0.0841794	5
	44	69	39.72458	85246.29	-61236.51	1	104961.1	-35.69151	-1.225578E-009	-0.0841758	5
	45	70	31.6723	91272.97	-71795.04	1	116126.1	-38.18848	-7.309908E-010	-0.0841809	5
	46	72	24.93351	99141.3	-85295.84	1	130783.7	-40.70694	-4.329346E-010	-0.0841786	5
	47	74	19.86229	108351	-99209.6	1	146909.8	-42.47821	-1.419809E-009	-0.0841748	5
	48	75	15.83615	118177.3	-115953.5	1	165562.9	-44.45581	-7.882858E-012	-0.084178	5
	49	76	12.40079	134666	-134052.2	1	190013	-44.86913	-1.532511E-009	-0.0841729	5
	50	78	9.93114	148673.2	-153788	1	213902.9	-45.96881	-1.168972E-010	-0.0841855	5
	51	79	7.944915	165440	-175412.7	1	241122.4	-46.67589	-3.422884E-010	-0.0841852	5
	52	81	6.317385	184367.7	-199321.8	1	271515.4	-47.23194	1.673898E-010	-0.0841795	5
	53	83	5.008013	206101	-227970.9	1	307324.5	-47.8843	-4.713057E-011	-0.0841843	5
	54	86	3.945707	230145.6	-261419.2	1	348291.5	-48.64028	1.124307E-010	-0.0841793	5
	55	89	3.158693	255936.1	-298592.9	1	393269.6	-49.39878	-1.452376E-010	-0.0841857	5
	56	92	2.504006	286251.2	-343717.7	1	447304.9	-50.21216	2.499646E-010	-0.08419	5
	57	95	1.998082	318995.7	-394424.3	1	507275.8	-51.03536	-1.051688E-010	-0.0841434	5
	58	98	1.584686	358017.6	-456790.4	1	580374.1	-51.9118	1.837062E-010	-0.0841762	5
	59	102	1.266892	403120.5	-525719.7	1	662485.7	-52.5191	3.055955E-011	-0.0841399	5
	60	106	0.999041	457869.7	-611452.4	1	763883.9	-53.17328	4.752018E-011	-0.0842258	5
