EXPLAIN
TAG	EISPOT
TITLE	LABEL	Potentiostatic EIS	Test &Identifier
DATE	LABEL	3/9/2020	Date
TIME	LABEL	20:57:10	Time
NOTES	NOTES	1	&Notes...
	
PSTAT	PSTAT	REF600-11020	Potentiostat
VDC	POTEN	0.00000E+000	T	DC &Voltage (V)
FREQINIT	QUANT	1.00000E+006	Initial Fre&q. (Hz)
FREQFINAL	QUANT	1.00000E+000	Final Fre&q. (Hz)
PTSPERDEC	QUANT	1.00000E+001	Points/&decade
VAC	QUANT	2.50000E+001	AC &Voltage (mV rms)
AREA	QUANT	4.00000E-005	&Area (cm^2)
CONDIT	TWOPARAM	F	5.00000E+000	0.00000E+000	Conditionin&g	Time(s)	E(V)
DELAY	TWOPARAM	T	3.00000E+000	0.00000E+000	Init. De&lay	Time(s)	Stab.(mV/s)
SPEED	SELECTOR	0	&Optimize for:
ZGUESS	QUANT	1.00000E+003	E&stimated Z (ohms)
OCVCURVE	TABLE	12
	Pt	T	Vf	Vm	Ach	Over
	#	s	V vs. Ref.	V	V	bits
	0	0.258333	4.85537E-002	4.85537E-002	5.58930E-004	...........
	1	0.516667	4.85535E-002	4.85463E-002	5.64097E-004	...........
	2	0.775	4.85527E-002	4.85434E-002	5.65897E-004	...........
	3	1.03333	4.85507E-002	4.85369E-002	5.65763E-004	...........
	4	1.29167	4.85473E-002	4.85324E-002	5.65164E-004	...........
	5	1.55	4.85428E-002	4.85253E-002	5.61597E-004	...........
	6	1.80833	4.85377E-002	4.85219E-002	5.61330E-004	...........
	7	2.06667	4.85324E-002	4.85189E-002	5.60530E-004	...........
	8	2.325	4.85272E-002	4.85114E-002	5.59730E-004	...........
	9	2.58333	4.85224E-002	4.85068E-002	5.65264E-004	...........
	10	2.84167	4.85176E-002	4.85024E-002	5.60230E-004	...........
	11	3.1	4.85125E-002	4.84958E-002	5.59264E-004	...........
EOC	QUANT	0.0485125	Open Circuit (V)
PSTATMODEL	IQUANT	4	Pstat Model
PSTATSECTION	LABEL	REF600-11020	Pstat Section
PSTATSERIALNO	LABEL	11020	Pstat Serial Number
CTRLMODE	IQUANT	1	Control Mode
IESTAB	IQUANT	0	I/E Stability
CASPEED	IQUANT	1	Control Amp Speed
CONVENTION	IQUANT	1	Current Convention
ICHRANGE	IQUANT	2	Ich Range
ICHRANGEMODE	TOGGLE	F	Ich Auto Range
ICHOFFSETENABLE	TOGGLE	T	Ich Offset Enable
ICHOFFSET	QUANT	0	Ich Offset (V)
ICHFILTER	IQUANT	3	Ich Filter
VCHRANGE	IQUANT	2	Vch Range
VCHRANGEMODE	TOGGLE	F	Vch Auto Range
VCHOFFSETENABLE	TOGGLE	T	Vch Offset Enable
VCHOFFSET	QUANT	0	Vch Offset (V)
VCHFILTER	IQUANT	3	Vch Filter
ACHRANGE	IQUANT	2	Ach Range
ACHOFFSETENABLE	TOGGLE	F	Ach Offset Enable
ACHOFFSET	QUANT	0	Ach Offset (V)
ACHFILTER	IQUANT	3	Ach Filter
IERANGELOWERLIMIT	IQUANT	1	I/E Range Lower Limit
IERANGEMODE	TOGGLE	F	I/E AutoRange
IERANGE	IQUANT	7	I/E Range
POSFEEDENABLE	TOGGLE	F	Positive Feedback IR Comp
POSFEEDRESISTANCE	QUANT	0	Positive Feedback Resistance (ohm)
ACHSELECT	IQUANT	0	Ach Select
CABLEID	IQUANT	14	Cable ID
DCCALDATE	LABEL	2/27/2020	DC Calibration Date
ACCALDATE	LABEL	2/27/2020	AC Calibration Date
THERMOSELECT	IQUANT	1	Thermo Select
FRAMEWORKVERSION	QUANT	6.33	Framework Version
INSTRUMENTVERSION	LABEL	3.50	Instrument Version
ZCURVE	TABLE
	Pt	Time	Freq	Zreal	Zimag	Zsig	Zmod	Zphz	Idc	Vdc	IERange
	#	s	Hz	ohm	ohm	V	ohm	°	A	V	#
	0	2	1000078	1524.305	-2169.822	1	2651.723	-54.91188	4.718015E-008	0.0508932	8
	1	2	794390.6	1776.373	-2462.448	1	3036.306	-54.19389	5.277203E-008	0.0505255	8
	2	2	630984.4	2049.735	-2791.391	1	3463.132	-53.70994	4.898542E-008	0.0503465	8
	3	3	501234.4	2352.576	-3172.422	1	3949.541	-53.44044	8.85469E-008	0.0502083	8
	4	3	398109.4	2681.453	-3621.938	1	4506.509	-53.48611	5.476997E-008	0.0501785	8
	5	3	316265.6	3059.096	-4145.964	1	5152.386	-53.57827	4.361333E-008	0.0501399	8
	6	3	251203.1	3494.578	-4754.891	1	5900.938	-53.6862	3.370273E-008	0.05013	8
	7	4	199546.9	3998.497	-5483.911	1	6786.845	-53.903	4.507568E-008	0.0501316	8
	8	4	158578.1	4599.715	-6321.234	1	7817.633	-53.95808	4.651733E-008	0.0501284	8
	9	4	125953.1	5483.344	-7238.898	1	9081.229	-52.85668	1.694224E-009	0.0500676	7
	10	5	100078.1	6307.142	-8349.447	1	10463.91	-52.93274	2.741729E-009	0.0500722	7
	11	5	79453.13	7369.05	-9641.17	1	12134.87	-52.60819	2.89113E-009	0.0500631	7
	12	5	63140.62	8647.896	-11089.28	1	14062.66	-52.05137	3.671076E-009	0.0500723	7
	13	6	50203.12	10232.56	-12644.4	1	16266.11	-51.01826	4.152396E-009	0.0500681	7
	14	6	39890.62	12163.32	-14286.18	1	18762.76	-49.58876	3.946591E-009	0.0500567	7
	15	6	31640.63	14492.47	-15952.15	1	21552.33	-47.74497	3.922058E-009	0.0500632	7
	16	7	25171.88	17201.26	-17526.6	1	24557.38	-45.53674	3.731717E-009	0.0500574	7
	17	7	20015.62	20324.98	-18957.6	1	27793.8	-43.0064	4.236943E-009	0.0500566	7
	18	7	15890.62	23779.75	-19996.65	1	31069.96	-40.06084	3.404483E-009	0.0500518	7
	19	8	12609.37	27993.16	-20432.79	1	34657.12	-36.12649	1.016152E-009	0.0501084	6
	20	8	10078.13	31643.4	-20833.49	1	37885.87	-33.36024	1.169919E-009	0.0501118	6
	21	8	8015.625	35373.34	-20845.74	1	41058.71	-30.51113	1.069282E-009	0.0501033	6
	22	9	6328.125	39153.02	-20525.57	1	44206.99	-27.66532	1.081159E-009	0.0501091	6
	23	9	5015.625	42628.57	-19862	1	47028.65	-24.98231	1.118039E-009	0.0501095	6
	24	9	3984.375	45829.03	-18993.02	1	49608.82	-22.51068	8.165932E-010	0.0501005	6
	25	10	3170.956	48752.09	-18055.27	1	51988.06	-20.32204	7.737763E-010	0.0501055	6
	26	10	2527.573	51388.34	-17082.28	1	54153.17	-18.3876	9.552059E-010	0.0501072	6
	27	10	1976.103	53855.71	-15952.11	1	56168.56	-16.49934	8.706615E-010	0.0501051	6
	28	10	1577.524	55869.73	-14986.1	1	57844.7	-15.01517	8.889492E-010	0.050103	6
	29	11	1265.625	57628.72	-14179.43	1	59347.5	-13.82294	9.519243E-010	0.0501073	6
	30	11	998.264	59240.49	-13430.57	1	60743.86	-12.77375	6.442464E-010	0.0501001	6
	31	12	796.875	60542.55	-12989.75	1	61920.39	-12.10955	9.27078E-010	0.0501048	6
	32	12	627.7902	61734.59	-12783.84	1	63044.32	-11.6993	7.749936E-010	0.0501039	6
	33	12	505.5147	62620.29	-12936.83	1	63942.65	-11.67262	5.018687E-010	0.0501011	6
	34	13	397.9953	63538.99	-13528.89	1	64963.33	-12.02007	7.973843E-010	0.0501153	6
	35	13	315.5048	64418.62	-14614.32	1	66055.56	-12.78204	7.909596E-010	0.0501146	6
	36	13	252.4038	65307.41	-16165.3	1	67278.34	-13.90277	7.5951E-010	0.0501055	6
	37	14	198.6229	66330.67	-18454.41	1	68850.01	-15.54754	7.261848E-010	0.050109	6
	38	14	158.3615	67517.92	-21305.14	1	70799.57	-17.51298	5.767148E-010	0.0501056	6
	39	14	125.558	68954.47	-24982.51	1	73340.61	-19.91568	6.460624E-010	0.0501075	6
	40	15	100.4464	70712.42	-29349.19	1	76561.23	-22.54089	5.462192E-010	0.0501041	6
	41	15	79.00281	73108.37	-35042.06	1	81072.68	-25.60918	3.906743E-010	0.0501044	6
	42	15	63.3446	75882.37	-41309.38	1	86397.91	-28.5633	3.079608E-010	0.0501124	6
	43	16	49.86702	79835.24	-49305.76	1	93833.49	-31.69922	1.796312E-010	0.0501066	6
	44	17	39.72458	84497.15	-58040.46	1	102510.8	-34.48488	-6.258594E-011	0.0501129	5
	45	17	31.6723	90279.66	-68179.3	1	113131.9	-37.06014	-5.657968E-011	0.0501093	5
	46	17	24.93351	98082.1	-80351.59	1	126793	-39.3253	-5.844737E-010	0.0501133	5
	47	18	19.86229	106787.3	-93285.69	1	141794.8	-41.13933	-3.814505E-010	0.0501142	5
	48	18	15.83615	117212.8	-107651.1	1	159146.5	-42.56512	-3.555914E-010	0.050108	5
	49	18	12.40079	130687.8	-124719.1	1	180649.2	-43.66127	-1.419798E-009	0.0501127	5
	50	18	9.93114	143975.3	-142282	1	202418	-44.66107	-9.161201E-010	0.0501096	5
	51	19	7.944915	158769.5	-161115	1	226198.6	-45.4201	9.279255E-010	0.0501102	5
	52	19	6.317385	176583	-184159	1	255139.3	-46.20311	-4.549029E-010	0.0501207	5
	53	20	5.008013	196111.2	-210796.7	1	287914.7	-47.06693	-5.679434E-010	0.050103	5
	54	21	3.945707	217996.5	-241773.6	1	325541	-47.96043	1.249066E-011	0.0501195	5
	55	22	3.158693	241352	-276731.6	1	367193.6	-48.90662	-3.272587E-010	0.0501117	5
	56	23	2.504006	268217.9	-318541.1	1	416424.4	-49.90195	-5.066888E-011	0.0501061	5
	57	24	1.998082	298362.3	-367070.6	1	473033.7	-50.8951	1.6484E-010	0.0501464	5
	58	26	1.584686	333296.4	-424285.7	1	539541.4	-51.84869	3.59071E-011	0.0501024	5
	59	28	1.266892	374475.9	-489628.2	1	616415.4	-52.59063	-3.419985E-011	0.0500756	5
	60	30	0.999041	424258.6	-571485.9	1	711752.4	-53.41061	-7.421774E-011	0.05007	5
