EXPLAIN
TAG	EISPOT
TITLE	LABEL	Potentiostatic EIS	Test &Identifier
DATE	LABEL	6/1/2020	Date
TIME	LABEL	13:17:39	Time
NOTES	NOTES	1	&Notes...
	
PSTAT	PSTAT	REF600-11020	Potentiostat
VDC	POTEN	0.00000E+000	T	DC &Voltage (V)
FREQINIT	QUANT	1.00000E+006	Initial Fre&q. (Hz)
FREQFINAL	QUANT	1.00000E+000	Final Fre&q. (Hz)
PTSPERDEC	QUANT	1.00000E+001	Points/&decade
VAC	QUANT	2.50000E+001	AC &Voltage (mV rms)
AREA	QUANT	4.00000E-004	&Area (cm^2)
CONDIT	TWOPARAM	F	5.00000E+000	0.00000E+000	Conditionin&g	Time(s)	E(V)
DELAY	TWOPARAM	T	3.00000E+000	0.00000E+000	Init. De&lay	Time(s)	Stab.(mV/s)
SPEED	SELECTOR	0	&Optimize for:
ZGUESS	QUANT	1.00000E+003	E&stimated Z (ohms)
OCVCURVE	TABLE	12
	Pt	T	Vf	Vm	Ach	Over
	#	s	V vs. Ref.	V	V	bits
	0	0.258333	-4.21977E-002	-4.21977E-002	5.88163E-004	...........
	1	0.516667	-4.21977E-002	-4.21964E-002	5.86063E-004	...........
	2	0.775	-4.21976E-002	-4.21984E-002	5.92430E-004	...........
	3	1.03333	-4.21975E-002	-4.21978E-002	5.94996E-004	...........
	4	1.29167	-4.21976E-002	-4.22016E-002	5.95096E-004	...........
	5	1.55	-4.21982E-002	-4.22067E-002	5.87496E-004	...........
	6	1.80833	-4.21998E-002	-4.22110E-002	5.90130E-004	...........
	7	2.06667	-4.22025E-002	-4.22153E-002	5.90830E-004	...........
	8	2.325	-4.22062E-002	-4.22186E-002	5.90096E-004	...........
	9	2.58333	-4.22103E-002	-4.22235E-002	5.88163E-004	...........
	10	2.84167	-4.22145E-002	-4.22255E-002	5.86596E-004	...........
	11	3.1	-4.22186E-002	-4.22313E-002	5.91596E-004	...........
EOC	QUANT	-0.0422186	Open Circuit (V)
PSTATMODEL	IQUANT	4	Pstat Model
PSTATSECTION	LABEL	REF600-11020	Pstat Section
PSTATSERIALNO	LABEL	11020	Pstat Serial Number
CTRLMODE	IQUANT	1	Control Mode
IESTAB	IQUANT	0	I/E Stability
CASPEED	IQUANT	1	Control Amp Speed
CONVENTION	IQUANT	1	Current Convention
ICHRANGE	IQUANT	2	Ich Range
ICHRANGEMODE	TOGGLE	F	Ich Auto Range
ICHOFFSETENABLE	TOGGLE	T	Ich Offset Enable
ICHOFFSET	QUANT	0	Ich Offset (V)
ICHFILTER	IQUANT	3	Ich Filter
VCHRANGE	IQUANT	2	Vch Range
VCHRANGEMODE	TOGGLE	F	Vch Auto Range
VCHOFFSETENABLE	TOGGLE	T	Vch Offset Enable
VCHOFFSET	QUANT	0	Vch Offset (V)
VCHFILTER	IQUANT	3	Vch Filter
ACHRANGE	IQUANT	2	Ach Range
ACHOFFSETENABLE	TOGGLE	F	Ach Offset Enable
ACHOFFSET	QUANT	0	Ach Offset (V)
ACHFILTER	IQUANT	3	Ach Filter
IERANGELOWERLIMIT	IQUANT	1	I/E Range Lower Limit
IERANGEMODE	TOGGLE	F	I/E AutoRange
IERANGE	IQUANT	7	I/E Range
POSFEEDENABLE	TOGGLE	F	Positive Feedback IR Comp
POSFEEDRESISTANCE	QUANT	0	Positive Feedback Resistance (ohm)
ACHSELECT	IQUANT	0	Ach Select
CABLEID	IQUANT	14	Cable ID
DCCALDATE	LABEL	2/27/2020	DC Calibration Date
ACCALDATE	LABEL	2/27/2020	AC Calibration Date
THERMOSELECT	IQUANT	1	Thermo Select
FRAMEWORKVERSION	QUANT	6.33	Framework Version
INSTRUMENTVERSION	LABEL	3.50	Instrument Version
ZCURVE	TABLE
	Pt	Time	Freq	Zreal	Zimag	Zsig	Zmod	Zphz	Idc	Vdc	IERange
	#	s	Hz	ohm	ohm	V	ohm	°	A	V	#
	0	1	1000078	2167.817	-2151.417	1	3054.182	-44.78246	1.565866E-008	-0.0397709	8
	1	1	794390.6	2573.834	-2282.131	1	3439.876	-41.56231	1.066294E-007	-0.0401847	8
	2	2	630984.4	3008.928	-2361.416	1	3824.91	-38.12494	-1.559555E-008	-0.0402976	8
	3	2	501234.4	3455.298	-2392.075	1	4202.512	-34.69454	5.995255E-008	-0.0404419	8
	4	2	398109.4	3894.527	-2365.399	1	4556.583	-31.27303	5.150758E-008	-0.0404806	8
	5	3	316265.6	4313.396	-2296.204	1	4886.505	-28.02827	5.022666E-008	-0.0405241	8
	6	3	251203.1	4702.672	-2191.038	1	5188.041	-24.98144	5.536607E-008	-0.0405459	8
	7	3	199546.9	5050.672	-2067.778	1	5457.563	-22.26451	4.911792E-008	-0.0405565	8
	8	4	158578.1	5351.18	-1930.854	1	5688.877	-19.84085	4.210043E-008	-0.0405718	8
	9	4	125953.1	5675.674	-1708.989	1	5927.388	-16.75745	4.331587E-009	-0.0406161	7
	10	4	100078.1	5875.764	-1594.017	1	6088.144	-15.17827	2.460297E-009	-0.0406355	7
	11	5	79453.13	6071.042	-1506.047	1	6255.057	-13.93215	2.995078E-009	-0.040645	7
	12	5	63140.62	6242.102	-1435.296	1	6404.991	-12.94938	2.880032E-009	-0.0406443	7
	13	5	50203.12	6395.195	-1386.978	1	6543.87	-12.2367	2.88035E-009	-0.0406506	7
	14	6	39890.62	6537.972	-1364.67	1	6678.877	-11.79006	2.637037E-009	-0.0406472	7
	15	6	31640.63	6675.835	-1371.05	1	6815.171	-11.60575	2.377324E-009	-0.04065	7
	16	6	25171.88	6808.764	-1404.212	1	6952.056	-11.65307	2.735478E-009	-0.0406503	7
	17	7	20015.62	6945.788	-1469.365	1	7099.507	-11.94468	3.894865E-009	-0.0406486	7
	18	7	15890.62	7088.945	-1566.372	1	7259.936	-12.45986	3.045057E-009	-0.040657	7
	19	7	12609.37	7240.491	-1698.901	1	7437.135	-13.20494	3.77095E-009	-0.0406519	7
	20	8	10078.13	7400.539	-1860.806	1	7630.896	-14.11398	3.771258E-009	-0.040657	7
	21	8	8015.625	7581.093	-2069.979	1	7858.612	-15.27205	4.247894E-009	-0.0406557	7
	22	8	6328.125	7789.984	-2332.114	1	8131.581	-16.6663	4.34399E-009	-0.0406546	7
	23	8	5015.625	8022.321	-2644.367	1	8446.911	-18.24357	4.477271E-009	-0.040656	7
	24	9	3984.375	8283.561	-3011.209	1	8813.896	-19.97703	4.286957E-009	-0.0406608	7
	25	9	3170.956	8596.388	-3405.163	1	9246.243	-21.60929	2.751889E-010	-0.0406049	6
	26	9	2527.573	8935.993	-3912.846	1	9755.12	-23.6474	2.068858E-010	-0.0406039	6
	27	10	1976.103	9360.308	-4557.237	1	10410.75	-25.95998	4.894229E-010	-0.0406077	6
	28	10	1577.524	9808.57	-5242.29	1	11121.58	-28.12273	2.672012E-010	-0.0406056	6
	29	10	1265.625	10319.36	-6018.433	1	11946.16	-30.25148	-1.11762E-010	-0.0406083	6
	30	11	998.264	10954.43	-6985.772	1	12992.33	-32.52615	-3.929916E-010	-0.0406132	6
	31	11	796.875	11656.74	-8049.04	1	14165.68	-34.62529	5.169759E-011	-0.0406087	6
	32	11	627.7902	12527.06	-9353.059	1	15633.52	-36.74606	2.497915E-010	-0.0406077	6
	33	12	505.5147	13434.08	-10704.11	1	17177.09	-38.5474	-4.13837E-010	-0.0406095	6
	34	12	397.9953	14599.19	-12425.99	1	19171.38	-40.40252	4.526088E-010	-0.0405902	6
	35	12	315.5048	15905.7	-14348.4	1	21421.2	-42.05335	4.779133E-010	-0.0405922	6
	36	13	252.4038	17343.02	-16465.04	1	23913.97	-43.51241	4.987399E-010	-0.0405998	6
	37	13	198.6229	19103.85	-19076.42	1	26997.54	-44.95884	4.813746E-010	-0.0405949	6
	38	13	158.3615	20991.62	-21922.09	1	30351.71	-46.24211	3.948703E-010	-0.0405998	6
	39	14	125.558	23166.59	-25294.43	1	34300.13	-47.51414	3.61823E-010	-0.0405997	6
	40	14	100.4464	25502.72	-29059.89	1	38663.49	-48.73008	2.423888E-010	-0.0405964	6
	41	14	79.00281	28309.18	-33822.47	1	44106.34	-50.07089	4.722508E-010	-0.0405983	6
	42	15	63.3446	31202.64	-39006.58	1	49951.16	-51.34254	3.31187E-010	-0.0406014	6
	43	15	49.86702	34744.05	-45694.82	1	57403.53	-52.75246	5.829268E-010	-0.0406085	6
	44	15	39.72458	38606.4	-53312.3	1	65822.91	-54.08961	4.833056E-010	-0.0405994	6
	45	16	31.6723	43083.64	-62365.61	1	75800.2	-55.36236	5.277793E-010	-0.0406045	6
	46	16	24.93351	48679.3	-73797.74	1	88406.91	-56.58991	8.232767E-010	-0.040605	6
	47	16	19.86229	55037.11	-86711.81	1	102703.6	-57.59618	1.461436E-009	-0.0405905	5
	48	17	15.83615	62758.35	-101994.1	1	119755.6	-58.39546	-4.844195E-010	-0.0405977	5
	49	17	12.40079	72949.98	-121338.3	1	141579.2	-58.98522	6.89344E-010	-0.0405961	5
	50	17	9.93114	84100.73	-142137.6	1	165154.5	-59.38781	3.189648E-010	-0.0405915	5
	51	18	7.944915	97755.1	-166118.2	1	192746.8	-59.52459	-8.744233E-010	-0.0405934	5
	52	18	6.317385	114890.5	-194872.7	1	226219.3	-59.4778	4.191029E-010	-0.0406087	5
	53	19	5.008013	136153.2	-228415	1	265915.7	-59.20176	5.335128E-010	-0.0405969	5
	54	20	3.945707	162685.3	-266986.7	1	312647.4	-58.64442	-6.018945E-011	-0.0406088	5
	55	21	3.158693	192611.1	-308045.8	1	363306	-57.98358	3.831305E-010	-0.0406009	5
	56	22	2.504006	229009.7	-354870.9	1	422349.2	-57.16454	1.796957E-010	-0.0406058	5
	57	23	1.998082	270281.9	-405606.8	1	487410.7	-56.32193	-5.427805E-011	-0.040646	5
	58	24	1.584686	317411.3	-462005.3	1	560534.4	-55.50978	6.343787E-011	-0.040609	5
	59	26	1.266892	370443.6	-522465.3	1	640467.4	-54.66221	1.419214E-010	-0.0405775	5
	60	29	0.999041	432121.1	-595456.4	1	735728.9	-54.03171	1.992946E-010	-0.0405713	5
