EXPLAIN
TAG	EISPOT
TITLE	LABEL	Potentiostatic EIS	Test &Identifier
DATE	LABEL	5/26/2020	Date
TIME	LABEL	18:15:03	Time
NOTES	NOTES	1	&Notes...
	
PSTAT	PSTAT	REF600-11020	Potentiostat
VDC	POTEN	0.00000E+000	T	DC &Voltage (V)
FREQINIT	QUANT	1.00000E+006	Initial Fre&q. (Hz)
FREQFINAL	QUANT	1.00000E+000	Final Fre&q. (Hz)
PTSPERDEC	QUANT	1.00000E+001	Points/&decade
VAC	QUANT	2.50000E+001	AC &Voltage (mV rms)
AREA	QUANT	5.00000E-004	&Area (cm^2)
CONDIT	TWOPARAM	F	5.00000E+000	0.00000E+000	Conditionin&g	Time(s)	E(V)
DELAY	TWOPARAM	T	3.00000E+000	0.00000E+000	Init. De&lay	Time(s)	Stab.(mV/s)
SPEED	SELECTOR	0	&Optimize for:
ZGUESS	QUANT	1.00000E+003	E&stimated Z (ohms)
OCVCURVE	TABLE	12
	Pt	T	Vf	Vm	Ach	Over
	#	s	V vs. Ref.	V	V	bits
	0	0.258333	1.02688E-001	1.02688E-001	5.64797E-004	...........
	1	0.516667	1.02688E-001	1.02670E-001	5.62430E-004	...........
	2	0.775	1.02686E-001	1.02650E-001	5.65864E-004	...........
	3	1.03333	1.02679E-001	1.02635E-001	5.60897E-004	...........
	4	1.29167	1.02668E-001	1.02622E-001	5.62564E-004	...........
	5	1.55	1.02654E-001	1.02606E-001	5.57597E-004	...........
	6	1.80833	1.02638E-001	1.02588E-001	5.63330E-004	...........
	7	2.06667	1.02622E-001	1.02575E-001	5.58364E-004	...........
	8	2.325	1.02607E-001	1.02565E-001	5.60297E-004	...........
	9	2.58333	1.02592E-001	1.02559E-001	5.61064E-004	...........
	10	2.84167	1.02579E-001	1.02550E-001	5.62464E-004	...........
	11	3.1	1.02568E-001	1.02540E-001	5.65197E-004	...........
EOC	QUANT	0.102568	Open Circuit (V)
PSTATMODEL	IQUANT	4	Pstat Model
PSTATSECTION	LABEL	REF600-11020	Pstat Section
PSTATSERIALNO	LABEL	11020	Pstat Serial Number
CTRLMODE	IQUANT	1	Control Mode
IESTAB	IQUANT	0	I/E Stability
CASPEED	IQUANT	1	Control Amp Speed
CONVENTION	IQUANT	1	Current Convention
ICHRANGE	IQUANT	2	Ich Range
ICHRANGEMODE	TOGGLE	F	Ich Auto Range
ICHOFFSETENABLE	TOGGLE	T	Ich Offset Enable
ICHOFFSET	QUANT	0	Ich Offset (V)
ICHFILTER	IQUANT	3	Ich Filter
VCHRANGE	IQUANT	2	Vch Range
VCHRANGEMODE	TOGGLE	F	Vch Auto Range
VCHOFFSETENABLE	TOGGLE	T	Vch Offset Enable
VCHOFFSET	QUANT	0	Vch Offset (V)
VCHFILTER	IQUANT	3	Vch Filter
ACHRANGE	IQUANT	2	Ach Range
ACHOFFSETENABLE	TOGGLE	F	Ach Offset Enable
ACHOFFSET	QUANT	0	Ach Offset (V)
ACHFILTER	IQUANT	3	Ach Filter
IERANGELOWERLIMIT	IQUANT	1	I/E Range Lower Limit
IERANGEMODE	TOGGLE	F	I/E AutoRange
IERANGE	IQUANT	8	I/E Range
POSFEEDENABLE	TOGGLE	F	Positive Feedback IR Comp
POSFEEDRESISTANCE	QUANT	0	Positive Feedback Resistance (ohm)
ACHSELECT	IQUANT	0	Ach Select
CABLEID	IQUANT	14	Cable ID
DCCALDATE	LABEL	2/27/2020	DC Calibration Date
ACCALDATE	LABEL	2/27/2020	AC Calibration Date
THERMOSELECT	IQUANT	1	Thermo Select
FRAMEWORKVERSION	QUANT	6.33	Framework Version
INSTRUMENTVERSION	LABEL	3.50	Instrument Version
ZCURVE	TABLE
	Pt	Time	Freq	Zreal	Zimag	Zsig	Zmod	Zphz	Idc	Vdc	IERange
	#	s	Hz	ohm	ohm	V	ohm	°	A	V	#
	0	1	1000078	2002.106	-2404.024	1	3128.54	-50.21198	5.341994E-008	0.1050085	8
	1	2	794390.6	2471.627	-2620.609	1	3602.296	-46.6758	5.290796E-008	0.1046554	8
	2	2	630984.4	3000.836	-2774.083	1	4086.631	-42.75142	4.914619E-008	0.1044598	8
	3	2	501234.4	3563.845	-2838.507	1	4556.107	-38.53638	5.418445E-008	0.1043577	8
	4	3	398109.4	4128.904	-2817.227	1	4998.461	-34.30643	6.156832E-008	0.1042883	8
	5	3	316265.6	4664.741	-2716.105	1	5397.874	-30.21065	4.491157E-008	0.1042608	8
	6	3	251203.1	5144.107	-2550.676	1	5741.758	-26.37425	9.55886E-008	0.1042118	8
	7	4	199546.9	5556.13	-2358.765	1	6036.087	-23.00286	2.662817E-008	0.1042514	8
	8	4	158578.1	5904.41	-2146.436	1	6282.455	-19.97778	5.619039E-008	0.1042201	8
	9	4	125953.1	6241.194	-1861.647	1	6512.928	-16.60899	1.886977E-009	0.1041746	7
	10	5	100078.1	6443.472	-1691.864	1	6661.886	-14.71207	3.923784E-009	0.1041609	7
	11	5	79453.13	6630.126	-1558.407	1	6810.815	-13.22723	2.750326E-009	0.10415	7
	12	5	63140.62	6789.263	-1454.333	1	6943.283	-12.09065	2.370913E-009	0.1041374	7
	13	6	50203.12	6928.75	-1382.476	1	7065.325	-11.2839	3.235098E-009	0.1041439	7
	14	6	39890.62	7056.857	-1341.838	1	7183.297	-10.76608	3.998472E-009	0.104137	7
	15	6	31640.63	7178.372	-1333.632	1	7301.205	-10.52469	3.204145E-009	0.1041334	7
	16	7	25171.88	7298.353	-1359.754	1	7423.939	-10.55376	3.200084E-009	0.1041354	7
	17	7	20015.62	7419.655	-1417.632	1	7553.871	-10.81682	3.46904E-009	0.1041349	7
	18	7	15890.62	7548.388	-1511.261	1	7698.186	-11.32149	3.729214E-009	0.1041342	7
	19	7	12609.37	7688.872	-1641.01	1	7862.039	-12.04769	3.283849E-009	0.1041268	7
	20	8	10078.13	7836.331	-1805.337	1	8041.6	-12.97346	4.214131E-009	0.1041334	7
	21	8	8015.625	8003.583	-2013.899	1	8253.068	-14.12382	4.636687E-009	0.1041333	7
	22	8	6328.125	8196.074	-2278.582	1	8506.913	-15.53641	4.126941E-009	0.1041259	7
	23	9	5015.625	8410.008	-2593.283	1	8800.758	-17.1375	3.739687E-009	0.1041344	7
	24	9	3984.375	8673.166	-2930.408	1	9154.84	-18.6686	-5.689631E-011	0.1041724	6
	25	9	3170.956	8942.368	-3377.32	1	9558.88	-20.69036	-1.144003E-010	0.1041794	6
	26	10	2527.573	9257.021	-3901.87	1	10045.75	-22.85561	6.700515E-012	0.1041786	6
	27	10	1976.103	9646.22	-4570.794	1	10674.35	-25.35361	4.404925E-011	0.1041783	6
	28	10	1577.524	10062.95	-5293.896	1	11370.5	-27.74787	7.944423E-012	0.1041802	6
	29	11	1265.625	10528.38	-6119.035	1	12177.41	-30.16491	1.794848E-011	0.104178	6
	30	11	998.264	11107.06	-7157.495	1	13213.5	-32.79811	1.522242E-010	0.1041785	6
	31	11	796.875	11741.08	-8310.682	1	14384.73	-35.29199	2.049998E-010	0.1041779	6
	32	12	627.7902	12504.75	-9741.93	1	15851.62	-37.92068	2.527516E-010	0.1041763	6
	33	12	505.5147	13288.35	-11265.26	1	17420.86	-40.28977	-2.335021E-010	0.1041692	6
	34	12	397.9953	14267.09	-13252.45	1	19472.47	-42.88847	5.364703E-010	0.1041968	6
	35	13	315.5048	15335.57	-15549.7	1	21839.71	-45.39723	4.683723E-010	0.1041938	6
	36	13	252.4038	16487.1	-18183.07	1	24544.82	-47.80052	4.127927E-010	0.1041909	6
	37	13	198.6229	17881.63	-21588.35	1	28032.29	-50.36505	5.222012E-010	0.1041917	6
	38	13	158.3615	19388.51	-25486.92	1	32023.39	-52.73888	3.727663E-010	0.1041907	6
	39	14	125.558	21172.42	-30323.51	1	36983.6	-55.07655	3.95683E-010	0.1041949	6
	40	14	100.4464	23181.79	-35949.48	1	42775.7	-57.18431	4.377232E-010	0.1041881	6
	41	14	79.00281	25765.72	-43294.18	1	50381.13	-59.2418	4.295322E-010	0.1041813	6
	42	15	63.3446	28639.95	-51467.18	1	58899.21	-60.90536	3.524291E-010	0.1041848	6
	43	15	49.86702	32435.94	-62136.09	1	70092.68	-62.43479	4.274387E-010	0.1041834	6
	44	16	39.72458	36885.35	-74354.38	1	83000.63	-63.61514	5.644862E-010	0.1041909	6
	45	16	31.6723	42356.1	-88916.96	1	98489.9	-64.52894	5.124869E-010	0.1041869	6
	46	16	24.93351	49574.13	-107278.6	1	118179	-65.19804	5.627265E-011	0.1041897	5
	47	17	19.86229	58093.48	-128245.7	1	140789.9	-65.63014	-3.932497E-010	0.1041873	5
	48	17	15.83615	68764.04	-153057.7	1	167795	-65.80711	5.116279E-010	0.1041929	5
	49	17	12.40079	83430.36	-184792.4	1	202753.2	-65.70171	1.660423E-010	0.1041884	5
	50	17	9.93114	100411	-218801.8	1	240741.7	-65.34898	4.35806E-010	0.1041814	5
	51	18	7.944915	121501.9	-258216.4	1	285374.2	-64.80099	7.001354E-010	0.1041859	5
	52	18	6.317385	149447.8	-304976.1	1	339624.8	-63.8937	6.698025E-011	0.1042018	5
	53	19	5.008013	184910	-358812	1	403655.5	-62.73616	2.059142E-010	0.1041996	5
	54	20	3.945707	230638.8	-420862.1	1	479915.8	-61.27659	2.364552E-010	0.1041867	5
	55	21	3.158693	282297.2	-484014.7	1	560323.1	-59.74752	2.204459E-010	0.1042029	5
	56	22	2.504006	348056.1	-555117.8	1	655209	-57.91249	-2.559696E-011	0.1041872	5
	57	23	1.998082	420629.6	-627321.2	1	755288.8	-56.15747	1.858838E-011	0.1041816	5
	58	25	1.584686	509490.5	-705027.6	1	869853.1	-54.14612	1.375411E-010	0.1042213	5
	59	27	1.266892	603441.7	-785540.8	1	990564	-52.46902	1.609463E-010	0.1042176	5
	60	29	0.999041	712224.9	-874254.8	1	1127646	-50.8315	1.399034E-010	0.1041928	4
