EXPLAIN
TAG	EISPOT
TITLE	LABEL	Potentiostatic EIS	Test &Identifier
DATE	LABEL	1/28/2020	Date
TIME	LABEL	12:50:30	Time
NOTES	NOTES	6	&Notes...
	
	
	
	
	
	
PSTAT	PSTAT	REF600-11020	Potentiostat
VDC	POTEN	0.00000E+000	T	DC &Voltage (V)
FREQINIT	QUANT	1.00000E+006	Initial Fre&q. (Hz)
FREQFINAL	QUANT	1.00000E+000	Final Fre&q. (Hz)
PTSPERDEC	QUANT	1.00000E+001	Points/&decade
VAC	QUANT	2.50000E+001	AC &Voltage (mV rms)
AREA	QUANT	1.60000E-004	&Area (cm^2)
CONDIT	TWOPARAM	F	5.00000E+000	0.00000E+000	Conditionin&g	Time(s)	E(V)
DELAY	TWOPARAM	F	5.00000E+000	0.00000E+000	Init. De&lay	Time(s)	Stab.(mV/s)
SPEED	SELECTOR	0	&Optimize for:
ZGUESS	QUANT	1.00000E+003	E&stimated Z (ohms)
OCVCURVE	TABLE	39
	Pt	T	Vf	Vm	Ach	Over
	#	s	V vs. Ref.	V	V	bits
	0	0.258333	4.86701E-002	4.86701E-002	5.81771E-004	...........
	1	0.516667	4.86716E-002	4.87522E-002	5.85671E-004	...........
	2	0.775	4.86793E-002	4.87273E-002	5.84104E-004	...........
	3	1.03333	4.86944E-002	4.86976E-002	5.80237E-004	...........
	4	1.29167	4.87087E-002	4.86929E-002	5.77137E-004	...........
	5	1.55	4.87135E-002	4.87122E-002	5.80704E-004	...........
	6	1.80833	4.87111E-002	4.87414E-002	5.78904E-004	...........
	7	2.06667	4.87114E-002	4.87719E-002	5.80937E-004	...........
	8	2.325	4.87217E-002	4.88069E-002	5.83104E-004	...........
	9	2.58333	4.87428E-002	4.88557E-002	5.75704E-004	...........
	10	2.84167	4.87722E-002	4.88617E-002	5.76171E-004	...........
	11	3.1	4.88055E-002	4.89088E-002	5.77004E-004	...........
	12	3.35833	4.88387E-002	4.89394E-002	5.78604E-004	...........
	13	3.61667	4.88708E-002	4.89577E-002	5.75837E-004	...........
	14	3.875	4.89011E-002	4.89477E-002	5.75671E-004	...........
	15	4.13333	4.89261E-002	4.89585E-002	5.80537E-004	...........
	16	4.39167	4.89431E-002	4.89731E-002	5.80471E-004	...........
	17	4.65	4.89535E-002	4.89660E-002	5.81671E-004	...........
	18	4.90833	4.89606E-002	4.89812E-002	5.80604E-004	...........
	19	5.16667	4.89663E-002	4.89789E-002	5.76404E-004	...........
	20	5.425	4.89714E-002	4.89831E-002	5.76571E-004	...........
	21	5.68333	4.89758E-002	4.89813E-002	5.79337E-004	...........
	22	5.94167	4.89791E-002	4.89861E-002	5.79237E-004	...........
	23	6.2	4.89813E-002	4.89829E-002	5.79237E-004	...........
	24	6.45833	4.89827E-002	4.89796E-002	5.74971E-004	...........
	25	6.71667	4.89831E-002	4.89817E-002	5.73638E-004	...........
	26	6.975	4.89826E-002	4.89774E-002	5.74537E-004	...........
	27	7.23333	4.89815E-002	4.89813E-002	5.74671E-004	...........
	28	7.49167	4.89804E-002	4.89700E-002	5.76404E-004	...........
	29	7.75	4.89789E-002	4.89732E-002	5.77104E-004	...........
	30	8.00833	4.89770E-002	4.89760E-002	5.75571E-004	...........
	31	8.26667	4.89751E-002	4.89676E-002	5.83304E-004	...........
	32	8.525	4.89736E-002	4.89697E-002	5.78004E-004	...........
	33	8.78333	4.89722E-002	4.89673E-002	5.76704E-004	...........
	34	9.04167	4.89705E-002	4.89583E-002	5.82304E-004	...........
	35	9.3	4.89682E-002	4.89610E-002	5.80337E-004	...........
	36	9.5583	4.89655E-002	4.89614E-002	5.83004E-004	...........
	37	9.8167	4.89631E-002	4.89653E-002	5.82604E-004	...........
	38	10.075	4.89621E-002	4.89715E-002	5.74937E-004	...........
EOC	QUANT	0.0489621	Open Circuit (V)
PSTATMODEL	IQUANT	4	Pstat Model
PSTATSECTION	LABEL	REF600-11020	Pstat Section
PSTATSERIALNO	LABEL	11020	Pstat Serial Number
CTRLMODE	IQUANT	1	Control Mode
IESTAB	IQUANT	0	I/E Stability
CASPEED	IQUANT	1	Control Amp Speed
CONVENTION	IQUANT	1	Current Convention
ICHRANGE	IQUANT	2	Ich Range
ICHRANGEMODE	TOGGLE	F	Ich Auto Range
ICHOFFSETENABLE	TOGGLE	T	Ich Offset Enable
ICHOFFSET	QUANT	0	Ich Offset (V)
ICHFILTER	IQUANT	3	Ich Filter
VCHRANGE	IQUANT	2	Vch Range
VCHRANGEMODE	TOGGLE	F	Vch Auto Range
VCHOFFSETENABLE	TOGGLE	T	Vch Offset Enable
VCHOFFSET	QUANT	0	Vch Offset (V)
VCHFILTER	IQUANT	3	Vch Filter
ACHRANGE	IQUANT	2	Ach Range
ACHOFFSETENABLE	TOGGLE	F	Ach Offset Enable
ACHOFFSET	QUANT	0	Ach Offset (V)
ACHFILTER	IQUANT	3	Ach Filter
IERANGELOWERLIMIT	IQUANT	1	I/E Range Lower Limit
IERANGEMODE	TOGGLE	F	I/E AutoRange
IERANGE	IQUANT	7	I/E Range
POSFEEDENABLE	TOGGLE	F	Positive Feedback IR Comp
POSFEEDRESISTANCE	QUANT	0	Positive Feedback Resistance (ohm)
ACHSELECT	IQUANT	0	Ach Select
CABLEID	IQUANT	14	Cable ID
DCCALDATE	LABEL	1/27/2020	DC Calibration Date
ACCALDATE	LABEL	1/27/2020	AC Calibration Date
THERMOSELECT	IQUANT	1	Thermo Select
FRAMEWORKVERSION	QUANT	6.33	Framework Version
INSTRUMENTVERSION	LABEL	3.50	Instrument Version
ZCURVE	TABLE
	Pt	Time	Freq	Zreal	Zimag	Zsig	Zmod	Zphz	Idc	Vdc	IERange
	#	s	Hz	ohm	ohm	V	ohm	°	A	V	#
	0	2	1000078	2347.708	-1439.267	1	2753.765	-31.51048	4.216804E-006	0.0510442	8
	1	2	794390.6	2549.742	-1435.063	1	2925.849	-29.37196	8.258511E-007	0.0504142	8
	2	2	630984.4	2716.01	-1426.34	1	3067.761	-27.70666	-2.988792E-007	0.0510619	8
	3	2	501234.4	2885.312	-1474.726	1	3240.346	-27.07225	2.304412E-006	0.0501242	8
	4	3	398109.4	3042.128	-1533.964	1	3406.991	-26.75909	1.657742E-006	0.0501777	8
	5	3	316265.6	3168.051	-1655.889	1	3574.705	-27.59534	-1.450701E-006	0.0509198	8
	6	3	251203.1	3299.807	-1772.844	1	3745.891	-28.24722	-1.282155E-006	0.0509079	8
	7	4	199546.9	3453.711	-2003.377	1	3992.698	-30.11652	4.411857E-006	0.0498359	8
	8	4	158578.1	3597.932	-2257.268	1	4247.396	-32.10331	-9.100603E-007	0.0506983	8
	9	4	125953.1	3843.378	-2566.637	1	4621.6	-33.7353	-1.098909E-006	0.0527563	7
	10	5	100078.1	4057.8	-2999.351	1	5045.973	-36.47021	2.411185E-008	0.0504797	7
	11	5	79453.13	4346.168	-3531.458	1	5600.033	-39.09542	5.11296E-008	0.0505523	7
	12	5	63140.62	4711.935	-4160.118	1	6285.611	-41.44094	-1.40074E-008	0.0505353	7
	13	6	50203.12	5198.593	-4902.418	1	7145.563	-43.3205	-2.04302E-008	0.0506335	7
	14	6	39890.62	5848.832	-5746.67	1	8199.576	-44.49521	-1.804537E-008	0.0506307	7
	15	6	31640.63	6722.834	-6679.677	1	9477.056	-44.81551	-3.684744E-008	0.0505947	7
	16	7	25171.88	7839.667	-7651.088	1	10954.43	-44.30254	-1.324579E-008	0.0505306	7
	17	7	20015.62	9245.53	-8570.815	1	12607.09	-42.83121	-3.697184E-008	0.0505985	7
	18	7	15890.62	10999.6	-9311.184	1	14411.43	-40.24799	2.592486E-008	0.050527	7
	19	8	12609.37	13081	-9692.23	1	16280.42	-36.5362	-2.865836E-009	0.0505302	6
	20	8	10078.13	15101.62	-9818.42	1	18012.78	-33.03017	-3.506538E-009	0.0505862	6
	21	8	8015.625	17114.39	-9548.31	1	19597.77	-29.15764	-1.341271E-009	0.0505556	6
	22	9	6328.125	18994.66	-8927.448	1	20988.01	-25.17342	5.669448E-010	0.0504718	6
	23	9	5015.625	20531.59	-8101.241	1	22072.07	-21.53293	6.360145E-010	0.0504763	6
	24	9	3984.375	21709.79	-7198.048	1	22871.97	-18.34333	1.233235E-008	0.0504218	6
	25	9	3170.956	22628.45	-6360.668	1	23505.42	-15.70023	2.517504E-009	0.0505726	6
	26	10	2527.573	23319.65	-5642.827	1	23992.66	-13.60281	-6.658036E-009	0.0506288	6
	27	10	1976.103	23805.92	-4990.104	1	24323.3	-11.83871	-1.516916E-009	0.0505547	6
	28	10	1577.524	24210.79	-4674.115	1	24657.85	-10.92704	4.211E-009	0.0505314	6
	29	11	1265.625	24434.91	-4347.823	1	24818.71	-10.08932	-1.191878E-009	0.0505477	6
	30	11	998.264	24640.05	-4258.785	1	25005.38	-9.80612	-2.441437E-009	0.0505199	6
	31	11	796.875	24870.17	-4354.6	1	25248.53	-9.93143	-6.420347E-009	0.0506261	6
	32	12	627.7902	25080.13	-4658.607	1	25509.13	-10.5227	1.593381E-008	0.050266	6
	33	12	505.5147	25256.39	-5111.803	1	25768.5	-11.44189	1.611517E-008	0.050263	6
	34	12	397.9953	25485.92	-5821.688	1	26142.39	-12.86717	1.009781E-009	0.0505368	6
	35	13	315.5048	25695.63	-6769.477	1	26572.38	-14.75914	1.545821E-009	0.0505343	6
	36	13	252.4038	25989.57	-7954.149	1	27179.52	-17.01681	7.040347E-010	0.0505312	6
	37	13	198.6229	26358.43	-9567.95	1	28041.26	-19.95059	7.102849E-010	0.0505315	6
	38	14	158.3615	26749.48	-11488.19	1	29112.08	-23.24224	7.408975E-010	0.0505327	6
	39	14	125.558	27320.87	-13944.77	1	30673.87	-27.04009	6.932488E-010	0.0505354	6
	40	14	100.4464	27986.86	-16852.6	1	32669.17	-31.05472	2.314609E-010	0.0505332	6
	41	15	79.00281	28907.97	-20630.44	1	35514.59	-35.5139	3.079554E-010	0.050528	6
	42	15	63.3446	30262.41	-25287.1	1	39436.67	-39.88195	9.563712E-010	0.0505252	6
	43	15	49.86702	31783.04	-30891.99	1	44322.41	-44.18548	3.131662E-010	0.0505242	6
	44	16	39.72458	33872.48	-37258.07	1	50353.84	-47.72504	7.399776E-010	0.0505274	6
	45	16	31.6723	36583.37	-44951.55	1	57956.75	-50.85993	1.118403E-009	0.0505277	6
	46	16	24.93351	40397.04	-54954.23	1	68204.75	-53.68027	3.775478E-010	0.0505241	6
	47	17	19.86229	45310.44	-65998.78	1	80055.45	-55.52906	6.193389E-010	0.0505221	6
	48	17	15.83615	51365.73	-78221.86	1	93579.37	-56.7084	-1.394748E-009	0.0505241	6
	49	17	12.40079	60321.49	-94098.52	1	111773	-57.33826	-3.028684E-009	0.0505256	5
	50	17	9.93114	70366.48	-111125.5	1	131530.7	-57.65735	-2.035671E-009	0.0505211	5
	51	18	7.944915	82924.7	-129574.7	1	153837.9	-57.38173	-1.453848E-009	0.0505235	5
	52	19	6.317385	98745.4	-150322.8	1	179854.4	-56.69953	-1.01848E-009	0.0505312	5
	53	19	5.008013	117988.7	-173256.8	1	209616.9	-55.74495	-5.02828E-010	0.0505158	5
	54	20	3.945707	140813.5	-197913.1	1	242895.1	-54.56849	1.063839E-011	0.0505177	5
	55	22	3.158693	164465.1	-223331.3	1	277354.7	-53.63141	2.823322E-010	0.0505235	5
	56	23	2.504006	191697.6	-251050.6	1	315870.8	-52.63532	-2.533118E-011	0.0505191	5
	57	25	1.998082	219645.8	-281486.6	1	357042	-52.03485	-1.840136E-010	0.0504805	5
	58	26	1.584686	248898.2	-315404.3	1	401783.7	-51.72161	5.56781E-011	0.0505254	5
	59	28	1.266892	279229.3	-354411.7	1	451194.7	-51.76659	1.571526E-010	0.0505509	5
	60	31	0.999041	311944.7	-405043.4	1	511243.3	-52.39829	1.884183E-010	0.0505566	5
