EXPLAIN
TAG	EISPOT
TITLE	LABEL	Potentiostatic EIS	Test &Identifier
DATE	LABEL	3/9/2020	Date
TIME	LABEL	20:29:20	Time
NOTES	NOTES	1	&Notes...
	
PSTAT	PSTAT	REF600-11020	Potentiostat
VDC	POTEN	0.00000E+000	T	DC &Voltage (V)
FREQINIT	QUANT	1.00000E+006	Initial Fre&q. (Hz)
FREQFINAL	QUANT	1.00000E+000	Final Fre&q. (Hz)
PTSPERDEC	QUANT	1.00000E+001	Points/&decade
VAC	QUANT	2.50000E+001	AC &Voltage (mV rms)
AREA	QUANT	4.00000E-005	&Area (cm^2)
CONDIT	TWOPARAM	F	1.50000E+001	0.00000E+000	Conditionin&g	Time(s)	E(V)
DELAY	TWOPARAM	F	5.00000E+000	0.00000E+000	Init. De&lay	Time(s)	Stab.(mV/s)
SPEED	SELECTOR	0	&Optimize for:
ZGUESS	QUANT	1.00000E+003	E&stimated Z (ohms)
OCVCURVE	TABLE	39
	Pt	T	Vf	Vm	Ach	Over
	#	s	V vs. Ref.	V	V	bits
	0	0.258333	-1.54583E-002	-1.54583E-002	5.70563E-004	...........
	1	0.516667	-1.54581E-002	-1.54439E-002	5.69663E-004	...........
	2	0.775	-1.54563E-002	-1.54287E-002	5.68163E-004	...........
	3	1.03333	-1.54514E-002	-1.54138E-002	5.67897E-004	...........
	4	1.29167	-1.54423E-002	-1.53989E-002	5.65864E-004	...........
	5	1.55	-1.54297E-002	-1.53812E-002	5.71763E-004	...........
	6	1.80833	-1.54151E-002	-1.53662E-002	5.69263E-004	...........
	7	2.06667	-1.53994E-002	-1.53482E-002	5.69097E-004	...........
	8	2.325	-1.53832E-002	-1.53348E-002	5.68497E-004	...........
	9	2.58333	-1.53669E-002	-1.53165E-002	5.67597E-004	...........
	10	2.84167	-1.53507E-002	-1.52998E-002	5.70863E-004	...........
	11	3.1	-1.53345E-002	-1.52844E-002	5.73163E-004	...........
	12	3.35833	-1.53181E-002	-1.52677E-002	5.68897E-004	...........
	13	3.61667	-1.53017E-002	-1.52522E-002	5.68497E-004	...........
	14	3.875	-1.52854E-002	-1.52362E-002	5.74197E-004	...........
	15	4.13333	-1.52693E-002	-1.52191E-002	5.77930E-004	...........
	16	4.39167	-1.52533E-002	-1.52075E-002	5.72963E-004	...........
	17	4.65	-1.52375E-002	-1.51918E-002	5.74363E-004	...........
	18	4.90833	-1.52223E-002	-1.51750E-002	5.71230E-004	...........
	19	5.16667	-1.52072E-002	-1.51583E-002	5.71197E-004	...........
	20	5.425	-1.51919E-002	-1.51409E-002	5.70730E-004	...........
	21	5.68333	-1.51760E-002	-1.51268E-002	5.67363E-004	...........
	22	5.94167	-1.51596E-002	-1.51086E-002	5.70063E-004	...........
	23	6.2	-1.51433E-002	-1.50964E-002	5.69763E-004	...........
	24	6.45833	-1.51273E-002	-1.50788E-002	5.70630E-004	...........
	25	6.71667	-1.51115E-002	-1.50630E-002	5.68930E-004	...........
	26	6.975	-1.50959E-002	-1.50474E-002	5.75697E-004	...........
	27	7.23333	-1.50802E-002	-1.50299E-002	5.78697E-004	...........
	28	7.49167	-1.50642E-002	-1.50138E-002	5.72197E-004	...........
	29	7.75	-1.50480E-002	-1.49977E-002	5.71430E-004	...........
	30	8.00833	-1.50317E-002	-1.49861E-002	5.72997E-004	...........
	31	8.26667	-1.50157E-002	-1.49667E-002	5.69963E-004	...........
	32	8.525	-1.50002E-002	-1.49530E-002	5.66430E-004	...........
	33	8.78333	-1.49848E-002	-1.49370E-002	5.68297E-004	...........
	34	9.04167	-1.49693E-002	-1.49198E-002	5.70230E-004	...........
	35	9.3	-1.49536E-002	-1.49039E-002	5.64997E-004	...........
	36	9.5583	-1.49376E-002	-1.48889E-002	5.67230E-004	...........
	37	9.8167	-1.49216E-002	-1.48746E-002	5.70830E-004	...........
	38	10.075	-1.49058E-002	-1.48593E-002	5.70363E-004	...........
EOC	QUANT	-0.0149058	Open Circuit (V)
PSTATMODEL	IQUANT	4	Pstat Model
PSTATSECTION	LABEL	REF600-11020	Pstat Section
PSTATSERIALNO	LABEL	11020	Pstat Serial Number
CTRLMODE	IQUANT	1	Control Mode
IESTAB	IQUANT	0	I/E Stability
CASPEED	IQUANT	1	Control Amp Speed
CONVENTION	IQUANT	1	Current Convention
ICHRANGE	IQUANT	2	Ich Range
ICHRANGEMODE	TOGGLE	F	Ich Auto Range
ICHOFFSETENABLE	TOGGLE	T	Ich Offset Enable
ICHOFFSET	QUANT	0	Ich Offset (V)
ICHFILTER	IQUANT	3	Ich Filter
VCHRANGE	IQUANT	2	Vch Range
VCHRANGEMODE	TOGGLE	F	Vch Auto Range
VCHOFFSETENABLE	TOGGLE	T	Vch Offset Enable
VCHOFFSET	QUANT	0	Vch Offset (V)
VCHFILTER	IQUANT	3	Vch Filter
ACHRANGE	IQUANT	2	Ach Range
ACHOFFSETENABLE	TOGGLE	F	Ach Offset Enable
ACHOFFSET	QUANT	0	Ach Offset (V)
ACHFILTER	IQUANT	3	Ach Filter
IERANGELOWERLIMIT	IQUANT	1	I/E Range Lower Limit
IERANGEMODE	TOGGLE	F	I/E AutoRange
IERANGE	IQUANT	7	I/E Range
POSFEEDENABLE	TOGGLE	F	Positive Feedback IR Comp
POSFEEDRESISTANCE	QUANT	0	Positive Feedback Resistance (ohm)
ACHSELECT	IQUANT	0	Ach Select
CABLEID	IQUANT	14	Cable ID
DCCALDATE	LABEL	2/27/2020	DC Calibration Date
ACCALDATE	LABEL	2/27/2020	AC Calibration Date
THERMOSELECT	IQUANT	1	Thermo Select
FRAMEWORKVERSION	QUANT	6.33	Framework Version
INSTRUMENTVERSION	LABEL	3.50	Instrument Version
ZCURVE	TABLE
	Pt	Time	Freq	Zreal	Zimag	Zsig	Zmod	Zphz	Idc	Vdc	IERange
	#	s	Hz	ohm	ohm	V	ohm	°	A	V	#
	0	1	1000078	2073.688	-1971.398	1	2861.222	-43.55144	2.661842E-008	-0.0128197	8
	1	2	794390.6	2451.434	-2064.658	1	3205.049	-40.10491	1.225951E-011	-0.0131105	8
	2	2	630984.4	2849.972	-2112.177	1	3547.342	-36.54296	4.364474E-008	-0.0132237	8
	3	2	501234.4	3253.404	-2106.959	1	3876.07	-32.92777	2.702547E-008	-0.0133146	8
	4	2	398109.4	3643.982	-2052.399	1	4182.218	-29.38951	3.703607E-008	-0.013343	8
	5	3	316265.6	4008.59	-1960.871	1	4462.489	-26.06637	3.102368E-008	-0.0133714	8
	6	3	251203.1	4335.679	-1832.702	1	4707.113	-22.91389	-8.567357E-009	-0.0133547	8
	7	3	199546.9	4626.683	-1688.569	1	4925.187	-20.05022	3.904087E-008	-0.013378	8
	8	4	158578.1	4863.206	-1535.82	1	5099.953	-17.52633	2.489016E-008	-0.0133732	8
	9	4	125953.1	5113.81	-1306.249	1	5278.005	-14.32899	1.6165E-010	-0.0134385	7
	10	4	100078.1	5253.836	-1185.541	1	5385.936	-12.71596	2.73017E-010	-0.0134381	7
	11	5	79453.13	5384.534	-1091.609	1	5494.071	-11.46028	-8.958596E-011	-0.0134455	7
	12	5	63140.62	5495.598	-1017.08	1	5588.922	-10.4852	-2.64568E-010	-0.0134503	7
	13	5	50203.12	5592.351	-964.275	1	5674.876	-9.78316	8.637321E-010	-0.0134462	7
	14	6	39890.62	5678.466	-934.1955	1	5754.797	-9.342358	5.167999E-010	-0.0134532	7
	15	6	31640.63	5761.691	-928.7304	1	5836.062	-9.156778	1.538818E-009	-0.0134475	7
	16	6	25171.88	5841.03	-946.7142	1	5917.255	-9.20644	8.606117E-010	-0.0134551	7
	17	7	20015.62	5922.581	-989.448	1	6004.663	-9.484447	1.500017E-009	-0.0134596	7
	18	7	15890.62	6010.063	-1057.68	1	6102.422	-9.98099	1.431245E-009	-0.0134604	7
	19	7	12609.37	6105.398	-1152.223	1	6213.172	-10.68728	1.860522E-009	-0.0134623	7
	20	8	10078.13	6206.806	-1271.282	1	6335.661	-11.57527	1.653767E-009	-0.0134648	7
	21	8	8015.625	6321.81	-1423.275	1	6480.045	-12.68787	1.292642E-009	-0.0134644	7
	22	8	6328.125	6453.231	-1615.204	1	6652.298	-14.05209	1.865042E-009	-0.0134591	7
	23	9	5015.625	6598.334	-1843.338	1	6850.979	-15.60846	2.570451E-009	-0.0134576	7
	24	9	3984.375	6758.442	-2112.571	1	7080.925	-17.35833	1.061049E-009	-0.0134733	7
	25	9	3170.956	6936.733	-2432.38	1	7350.833	-19.32333	1.139648E-009	-0.0134663	7
	26	9	2527.573	7131.603	-2813.842	1	7666.646	-21.53219	2.378093E-009	-0.0134552	7
	27	10	1976.103	7367.102	-3307.792	1	8075.622	-24.17984	1.413741E-009	-0.0134681	7
	28	10	1577.524	7604.365	-3857.465	1	8526.805	-26.89731	1.47047E-009	-0.0134704	7
	29	10	1265.625	7862.875	-4505.182	1	9062.09	-29.81136	1.404529E-009	-0.0134724	7
	30	11	998.264	8182.089	-5339.352	1	9770.12	-33.12709	-2.332675E-011	-0.0134214	6
	31	11	796.875	8516.263	-6321.2	1	10605.86	-36.58467	-3.89752E-010	-0.0134249	6
	32	11	627.7902	8916.463	-7585.806	1	11706.74	-40.38994	-4.742151E-012	-0.0134141	6
	33	12	505.5147	9340.733	-8987.96	1	12962.74	-43.89736	-4.1133E-010	-0.0134211	6
	34	12	397.9953	9891.32	-10878.12	1	14702.78	-47.72022	3.748153E-010	-0.013413	6
	35	12	315.5048	10532.38	-13124.73	1	16828.24	-51.25354	2.025498E-010	-0.0134043	6
	36	13	252.4038	11276.98	-15749.22	1	19370.3	-54.39604	2.520202E-010	-0.0134127	6
	37	13	198.6229	12253.17	-19179.71	1	22759.64	-57.42709	3.026186E-010	-0.0134102	6
	38	13	158.3615	13391.57	-23123.52	1	26721.36	-59.92349	2.785542E-010	-0.0134116	6
	39	14	125.558	14831.52	-28014.65	1	31698.49	-62.10236	3.286672E-010	-0.0134135	6
	40	14	100.4464	16539.72	-33685.87	1	37527.32	-63.84902	3.189652E-010	-0.0134191	6
	41	14	79.00281	18825.23	-41068.36	1	45177.42	-65.37386	2.49826E-010	-0.0134172	6
	42	15	63.3446	21441.24	-49258.53	1	53722.71	-66.47749	1.695968E-010	-0.0134151	6
	43	15	49.86702	24986.16	-59954.94	1	64953.08	-67.37612	-6.832608E-011	-0.0134171	6
	44	15	39.72458	29214.35	-72193.31	1	77880.38	-67.96838	2.560286E-010	-0.0134163	6
	45	16	31.6723	34561.27	-86816.62	1	93443.06	-68.29274	3.558588E-010	-0.013412	6
	46	16	24.93351	41865.39	-105297.5	1	113314.9	-68.31764	-2.738945E-010	-0.0134077	5
	47	16	19.86229	50760.92	-126208.5	1	136034	-68.09007	3.957642E-010	-0.0134032	5
	48	17	15.83615	62175.7	-150888.9	1	163197	-67.60526	-5.520832E-010	-0.0134083	5
	49	17	12.40079	78328.85	-181844.2	1	197996.7	-66.69617	2.17138E-010	-0.0134026	5
	50	17	9.93114	97015.1	-214412.4	1	235339.3	-65.65468	-7.128359E-011	-0.0134036	5
	51	18	7.944915	120676.5	-250982	1	278486.6	-64.32095	-9.613326E-010	-0.0134001	5
	52	18	6.317385	150954.9	-293246.7	1	329819.6	-62.7619	2.17321E-010	-0.0134216	5
	53	19	5.008013	188671.9	-340371.4	1	389165.5	-60.99989	3.092167E-010	-0.0134062	5
	54	20	3.945707	235047.8	-391541.2	1	456674.9	-59.02301	-1.954361E-010	-0.0134176	5
	55	21	3.158693	285797.2	-442800.6	1	527022.2	-57.16055	1.813208E-010	-0.0134102	5
	56	22	2.504006	344608.5	-497977.7	1	605588	-55.31615	2.519929E-011	-0.0134048	5
	57	23	1.998082	407599	-555392.5	1	688910.6	-53.7253	-1.607411E-010	-0.0134573	5
	58	24	1.584686	474644.2	-617930.7	1	779182.6	-52.47145	-7.431327E-011	-0.0134263	5
	59	26	1.266892	545417.8	-684641.4	1	875336.7	-51.45751	-5.106084E-012	-0.0133875	5
	60	29	0.999041	625480.9	-768944.1	1	991212	-50.87411	2.39067E-011	-0.0133799	4
