EXPLAIN
TAG	EISPOT
TITLE	LABEL	Potentiostatic EIS	Test &Identifier
DATE	LABEL	3/19/2020	Date
TIME	LABEL	20:52:13	Time
NOTES	NOTES	1	&Notes...
	
PSTAT	PSTAT	REF600-11020	Potentiostat
VDC	POTEN	0.00000E+000	T	DC &Voltage (V)
FREQINIT	QUANT	1.00000E+006	Initial Fre&q. (Hz)
FREQFINAL	QUANT	1.00000E+000	Final Fre&q. (Hz)
PTSPERDEC	QUANT	1.00000E+001	Points/&decade
VAC	QUANT	2.50000E+001	AC &Voltage (mV rms)
AREA	QUANT	4.00000E-004	&Area (cm^2)
CONDIT	TWOPARAM	F	5.00000E+000	0.00000E+000	Conditionin&g	Time(s)	E(V)
DELAY	TWOPARAM	T	3.00000E+000	0.00000E+000	Init. De&lay	Time(s)	Stab.(mV/s)
SPEED	SELECTOR	0	&Optimize for:
ZGUESS	QUANT	1.00000E+003	E&stimated Z (ohms)
OCVCURVE	TABLE	12
	Pt	T	Vf	Vm	Ach	Over
	#	s	V vs. Ref.	V	V	bits
	0	0.258333	-1.24011E-002	-1.24011E-002	6.01496E-004	...........
	1	0.516667	-1.23993E-002	-1.23044E-002	6.05963E-004	...........
	2	0.775	-1.23877E-002	-1.22013E-002	6.07729E-004	...........
	3	1.03333	-1.23541E-002	-1.20944E-002	6.10163E-004	...........
	4	1.29167	-1.22920E-002	-1.19930E-002	6.01963E-004	...........
	5	1.55	-1.22060E-002	-1.18873E-002	5.99696E-004	...........
	6	1.80833	-1.21066E-002	-1.17821E-002	6.06430E-004	...........
	7	2.06667	-1.20019E-002	-1.16706E-002	6.05930E-004	...........
	8	2.325	-1.18955E-002	-1.15651E-002	6.01996E-004	...........
	9	2.58333	-1.17885E-002	-1.14662E-002	6.03930E-004	...........
	10	2.84167	-1.16821E-002	-1.13723E-002	6.03230E-004	...........
	11	3.1	-1.15782E-002	-1.12839E-002	6.01330E-004	...........
EOC	QUANT	-0.0115782	Open Circuit (V)
PSTATMODEL	IQUANT	4	Pstat Model
PSTATSECTION	LABEL	REF600-11020	Pstat Section
PSTATSERIALNO	LABEL	11020	Pstat Serial Number
CTRLMODE	IQUANT	1	Control Mode
IESTAB	IQUANT	0	I/E Stability
CASPEED	IQUANT	1	Control Amp Speed
CONVENTION	IQUANT	1	Current Convention
ICHRANGE	IQUANT	2	Ich Range
ICHRANGEMODE	TOGGLE	F	Ich Auto Range
ICHOFFSETENABLE	TOGGLE	T	Ich Offset Enable
ICHOFFSET	QUANT	0	Ich Offset (V)
ICHFILTER	IQUANT	3	Ich Filter
VCHRANGE	IQUANT	2	Vch Range
VCHRANGEMODE	TOGGLE	F	Vch Auto Range
VCHOFFSETENABLE	TOGGLE	T	Vch Offset Enable
VCHOFFSET	QUANT	0	Vch Offset (V)
VCHFILTER	IQUANT	3	Vch Filter
ACHRANGE	IQUANT	2	Ach Range
ACHOFFSETENABLE	TOGGLE	F	Ach Offset Enable
ACHOFFSET	QUANT	0	Ach Offset (V)
ACHFILTER	IQUANT	3	Ach Filter
IERANGELOWERLIMIT	IQUANT	1	I/E Range Lower Limit
IERANGEMODE	TOGGLE	F	I/E AutoRange
IERANGE	IQUANT	7	I/E Range
POSFEEDENABLE	TOGGLE	F	Positive Feedback IR Comp
POSFEEDRESISTANCE	QUANT	0	Positive Feedback Resistance (ohm)
ACHSELECT	IQUANT	0	Ach Select
CABLEID	IQUANT	14	Cable ID
DCCALDATE	LABEL	2/27/2020	DC Calibration Date
ACCALDATE	LABEL	2/27/2020	AC Calibration Date
THERMOSELECT	IQUANT	1	Thermo Select
FRAMEWORKVERSION	QUANT	6.33	Framework Version
INSTRUMENTVERSION	LABEL	3.50	Instrument Version
ZCURVE	TABLE
	Pt	Time	Freq	Zreal	Zimag	Zsig	Zmod	Zphz	Idc	Vdc	IERange
	#	s	Hz	ohm	ohm	V	ohm	°	A	V	#
	0	1	1000078	1458.524	-2172.031	1	2616.297	-56.11855	-1.519934E-006	-0.0089612	8
	1	1	794390.6	1767.063	-2458.896	1	3027.982	-54.29744	9.227949E-008	-0.0093427	8
	2	2	630984.4	2128.286	-2755.998	1	3482.115	-52.32332	-8.64452E-008	-0.0096305	8
	3	2	501234.4	2538.34	-3060.782	1	3976.375	-50.33072	-3.480269E-007	-0.0096315	8
	4	2	398109.4	3000.943	-3385.833	1	4524.326	-48.44868	-3.119119E-007	-0.0097557	8
	5	3	316265.6	3531.166	-3704.203	1	5117.641	-46.36999	-4.79762E-007	-0.0097428	8
	6	3	251203.1	4141.343	-4012.13	1	5766.1	-44.09208	3.811613E-007	-0.0098927	8
	7	3	199546.9	4801.052	-4337.287	1	6470.098	-42.09477	-1.048945E-007	-0.0098252	8
	8	4	158578.1	5550.269	-4614.131	1	7217.734	-39.73793	2.700641E-007	-0.0098868	8
	9	4	125953.1	6421.901	-4793.518	1	8013.652	-36.73887	4.048214E-008	-0.0099054	7
	10	4	100078.1	7261.911	-4953.749	1	8790.619	-34.30005	-1.055026E-009	-0.0099166	7
	11	5	79453.13	8180.042	-5056.542	1	9616.74	-31.72253	1.570194E-008	-0.0099513	7
	12	5	63140.62	9094.357	-5056.117	1	10405.37	-29.0724	-4.091695E-009	-0.0099215	7
	13	5	50203.12	10002.98	-4952.661	1	11161.92	-26.34086	-6.592661E-009	-0.0099257	7
	14	6	39890.62	10874.03	-4772.898	1	11875.4	-23.69793	3.685143E-009	-0.0099302	7
	15	6	31640.63	11676.6	-4508.434	1	12516.74	-21.112	-3.608812E-009	-0.0099248	7
	16	6	25171.88	12389.44	-4201.388	1	13082.42	-18.73234	-4.274531E-009	-0.0099293	7
	17	6	20015.62	13012.81	-3863.582	1	13574.25	-16.53648	1.047217E-008	-0.0099628	7
	18	7	15890.62	13558.33	-3531.042	1	14010.59	-14.59747	8.95789E-009	-0.0099582	7
	19	7	12609.37	14073.57	-3093.917	1	14409.64	-12.39861	1.513958E-010	-0.0098795	6
	20	7	10078.13	14435.95	-2829.86	1	14710.7	-11.09098	-5.597584E-011	-0.0098947	6
	21	8	8015.625	14751.56	-2599.655	1	14978.87	-9.99457	-1.022504E-009	-0.0098804	6
	22	8	6328.125	15016.48	-2405.39	1	15207.91	-9.10052	-4.616505E-010	-0.0098841	6
	23	8	5015.625	15245.13	-2267.967	1	15412.9	-8.461643	-4.469595E-010	-0.0098868	6
	24	9	3984.375	15434.03	-2189.23	1	15588.52	-8.073227	3.567882E-012	-0.0099114	6
	25	9	3170.956	15600.95	-2169.362	1	15751.05	-7.9164	-1.215491E-009	-0.0098751	6
	26	9	2527.573	15745.29	-2216.939	1	15900.6	-8.014568	-1.311453E-010	-0.0099144	6
	27	10	1976.103	15882.64	-2350.435	1	16055.61	-8.417973	6.681839E-010	-0.0099022	6
	28	10	1577.524	16013.43	-2560.316	1	16216.81	-9.083884	-2.230363E-010	-0.0099237	6
	29	10	1265.625	16130.26	-2859.141	1	16381.7	-10.05146	-3.183477E-010	-0.0098974	6
	30	11	998.264	16270.95	-3296.573	1	16601.54	-11.45337	-6.489328E-010	-0.0099123	6
	31	11	796.875	16414.41	-3849.069	1	16859.66	-13.19703	-1.415364E-009	-0.0098914	6
	32	11	627.7902	16584.37	-4601.74	1	17210.97	-15.50798	-6.699428E-010	-0.009909	6
	33	12	505.5147	16776.4	-5464.887	1	17644.05	-18.04295	-2.061703E-009	-0.0098914	6
	34	12	397.9953	17029.72	-6653.53	1	18283.35	-21.34064	1.636773E-010	-0.0098926	6
	35	12	315.5048	17351.52	-8092.945	1	19146.04	-25.00488	1.145768E-010	-0.0098945	6
	36	12	252.4038	17744.3	-9791.33	1	20266.48	-28.88998	9.02743E-011	-0.0098972	6
	37	13	198.6229	18280.07	-12029.13	1	21882.89	-33.34677	7.114261E-011	-0.0098974	6
	38	13	158.3615	18949.86	-14612.97	1	23929.82	-37.63721	-1.110194E-010	-0.0098988	6
	39	13	125.558	19838.44	-17823.56	1	26669.14	-41.93766	-2.288795E-010	-0.0098925	6
	40	14	100.4464	20950.4	-21545.87	1	30052.35	-45.8028	-1.422506E-010	-0.0098951	6
	41	14	79.00281	22507.98	-26369.03	1	34668.93	-49.51672	2.662714E-011	-0.0098975	6
	42	14	63.3446	24387.55	-31659.66	1	39963.57	-52.3928	-1.057371E-010	-0.0098973	6
	43	15	49.86702	27016.97	-38515.07	1	47046.02	-54.95169	-3.109229E-010	-0.0099023	6
	44	15	39.72458	30213.79	-46214.87	1	55214.92	-56.82464	-1.17942E-010	-0.009899	6
	45	15	31.6723	34299.61	-55191.82	1	64981.54	-58.14063	8.83327E-011	-0.0099078	6
	46	16	24.93351	39778.82	-66204.59	1	77236.02	-59.00058	-5.660875E-010	-0.0099043	6
	47	16	19.86229	46311.95	-78223.52	1	90904.98	-59.37251	3.050394E-010	-0.0098954	6
	48	16	15.83615	54241.74	-91953.98	1	106760	-59.46453	-1.21546E-009	-0.0098939	5
	49	17	12.40079	64722.62	-108643.5	1	126461.1	-59.2163	-4.272055E-010	-0.0098951	5
	50	17	9.93114	75907.2	-125934.5	1	147042.1	-58.92046	-5.946235E-010	-0.0098888	5
	51	17	7.944915	88790.03	-145386.7	1	170355.4	-58.58691	-1.591543E-009	-0.0098915	5
	52	18	6.317385	104337	-168214.5	1	197945.3	-58.19026	-1.381834E-010	-0.0099093	5
	53	19	5.008013	122530.3	-194913	1	230227.7	-57.84484	-7.766407E-011	-0.0098978	5
	54	19	3.945707	143966	-226311.1	1	268221.8	-57.53785	-6.2509E-010	-0.0099052	5
	55	20	3.158693	167672.8	-260146.2	1	309499.9	-57.19688	-2.846961E-010	-0.0099171	5
	56	21	2.504006	196128	-300985.9	1	359247.4	-56.91098	-1.50517E-010	-0.0099039	5
	57	23	1.998082	229243.8	-345846.1	1	414924.4	-56.46162	-4.029877E-010	-0.0099476	5
	58	24	1.584686	268532.1	-399543.6	1	481398.6	-56.09507	-3.935439E-010	-0.0099437	5
	59	26	1.266892	313423.3	-456301.1	1	553574.6	-55.51567	-2.824502E-010	-0.009906	5
	60	29	0.999041	370693.9	-523937.1	1	641813.1	-54.71998	-1.955459E-010	-0.009882	5
