EXPLAIN
TAG	EISPOT
TITLE	LABEL	Potentiostatic EIS	Test &Identifier
DATE	LABEL	2/25/2020	Date
TIME	LABEL	14:58:00	Time
NOTES	NOTES	1	&Notes...
	
PSTAT	PSTAT	REF600-11020	Potentiostat
VDC	POTEN	0.00000E+000	T	DC &Voltage (V)
FREQINIT	QUANT	1.00000E+006	Initial Fre&q. (Hz)
FREQFINAL	QUANT	1.00000E+000	Final Fre&q. (Hz)
PTSPERDEC	QUANT	1.00000E+001	Points/&decade
VAC	QUANT	2.50000E+001	AC &Voltage (mV rms)
AREA	QUANT	1.60000E-004	&Area (cm^2)
CONDIT	TWOPARAM	F	1.50000E+001	0.00000E+000	Conditionin&g	Time(s)	E(V)
DELAY	TWOPARAM	F	1.00000E+002	0.00000E+000	Init. De&lay	Time(s)	Stab.(mV/s)
SPEED	SELECTOR	1	&Optimize for:
ZGUESS	QUANT	1.00000E+003	E&stimated Z (ohms)
OCVCURVE	TABLE	39
	Pt	T	Vf	Vm	Ach	Over
	#	s	V vs. Ref.	V	V	bits
	0	0.258333	7.47176E-002	7.47176E-002	5.77737E-004	...........
	1	0.516667	7.47166E-002	7.46647E-002	5.75871E-004	...........
	2	0.775	7.47082E-002	7.45003E-002	5.69938E-004	...........
	3	1.03333	7.46784E-002	7.44042E-002	5.71671E-004	...........
	4	1.29167	7.46171E-002	7.43586E-002	5.75004E-004	...........
	5	1.55	7.45347E-002	7.44032E-002	5.69538E-004	...........
	6	1.80833	7.44621E-002	7.45559E-002	5.71271E-004	...........
	7	2.06667	7.44358E-002	7.48331E-002	5.75137E-004	...........
	8	2.325	7.44807E-002	7.48705E-002	5.75171E-004	...........
	9	2.58333	7.45855E-002	7.47700E-002	5.66571E-004	...........
	10	2.84167	7.46967E-002	7.46589E-002	5.74571E-004	...........
	11	3.1	7.47559E-002	7.45779E-002	5.77037E-004	...........
	12	3.35833	7.47445E-002	7.45196E-002	5.74937E-004	...........
	13	3.61667	7.46844E-002	7.44672E-002	5.69304E-004	...........
	14	3.875	7.46085E-002	7.44255E-002	5.72304E-004	...........
	15	4.13333	7.45377E-002	7.43737E-002	5.73504E-004	...........
	16	4.39167	7.44779E-002	7.43337E-002	5.74871E-004	...........
	17	4.65	7.44267E-002	7.42921E-002	5.73337E-004	...........
	18	4.90833	7.43806E-002	7.42545E-002	5.67904E-004	...........
	19	5.16667	7.43375E-002	7.42092E-002	5.72604E-004	...........
	20	5.425	7.42964E-002	7.41902E-002	5.75904E-004	...........
	21	5.68333	7.42572E-002	7.41383E-002	5.73304E-004	...........
	22	5.94167	7.42197E-002	7.41039E-002	5.73071E-004	...........
	23	6.2	7.41843E-002	7.41530E-002	5.71204E-004	...........
	24	6.45833	7.41552E-002	7.41092E-002	5.71704E-004	...........
	25	6.71667	7.41356E-002	7.40636E-002	5.69738E-004	...........
	26	6.975	7.41203E-002	7.40590E-002	5.71338E-004	...........
	27	7.23333	7.41019E-002	7.40261E-002	5.74104E-004	...........
	28	7.49167	7.40791E-002	7.39943E-002	5.75504E-004	...........
	29	7.75	7.40537E-002	7.39640E-002	5.73904E-004	...........
	30	8.00833	7.40261E-002	7.39301E-002	5.75671E-004	...........
	31	8.26667	7.39966E-002	7.39002E-002	5.75837E-004	...........
	32	8.525	7.39657E-002	7.38719E-002	5.69204E-004	...........
	33	8.78333	7.39347E-002	7.38521E-002	5.73504E-004	...........
	34	9.04167	7.39052E-002	7.38314E-002	5.71104E-004	...........
	35	9.3	7.38786E-002	7.38171E-002	5.74937E-004	...........
	36	9.5583	7.38551E-002	7.37826E-002	5.74071E-004	...........
	37	9.8167	7.38316E-002	7.36704E-002	5.72571E-004	...........
	38	10.075	7.37994E-002	7.35942E-002	5.70438E-004	...........
EOC	QUANT	0.0737994	Open Circuit (V)
PSTATMODEL	IQUANT	4	Pstat Model
PSTATSECTION	LABEL	REF600-11020	Pstat Section
PSTATSERIALNO	LABEL	11020	Pstat Serial Number
CTRLMODE	IQUANT	1	Control Mode
IESTAB	IQUANT	0	I/E Stability
CASPEED	IQUANT	1	Control Amp Speed
CONVENTION	IQUANT	1	Current Convention
ICHRANGE	IQUANT	2	Ich Range
ICHRANGEMODE	TOGGLE	F	Ich Auto Range
ICHOFFSETENABLE	TOGGLE	T	Ich Offset Enable
ICHOFFSET	QUANT	0	Ich Offset (V)
ICHFILTER	IQUANT	3	Ich Filter
VCHRANGE	IQUANT	2	Vch Range
VCHRANGEMODE	TOGGLE	F	Vch Auto Range
VCHOFFSETENABLE	TOGGLE	T	Vch Offset Enable
VCHOFFSET	QUANT	0	Vch Offset (V)
VCHFILTER	IQUANT	3	Vch Filter
ACHRANGE	IQUANT	2	Ach Range
ACHOFFSETENABLE	TOGGLE	F	Ach Offset Enable
ACHOFFSET	QUANT	0	Ach Offset (V)
ACHFILTER	IQUANT	3	Ach Filter
IERANGELOWERLIMIT	IQUANT	1	I/E Range Lower Limit
IERANGEMODE	TOGGLE	F	I/E AutoRange
IERANGE	IQUANT	8	I/E Range
POSFEEDENABLE	TOGGLE	F	Positive Feedback IR Comp
POSFEEDRESISTANCE	QUANT	0	Positive Feedback Resistance (ohm)
ACHSELECT	IQUANT	0	Ach Select
CABLEID	IQUANT	14	Cable ID
DCCALDATE	LABEL	1/27/2020	DC Calibration Date
ACCALDATE	LABEL	1/27/2020	AC Calibration Date
THERMOSELECT	IQUANT	1	Thermo Select
FRAMEWORKVERSION	QUANT	6.33	Framework Version
INSTRUMENTVERSION	LABEL	3.50	Instrument Version
ZCURVE	TABLE
	Pt	Time	Freq	Zreal	Zimag	Zsig	Zmod	Zphz	Idc	Vdc	IERange
	#	s	Hz	ohm	ohm	V	ohm	°	A	V	#
	0	1	1000078	1444.186	-2191.934	1	2624.928	-56.62056	-4.31229E-007	0.0761799	8
	1	2	794390.6	1776.363	-2483.323	1	3053.254	-54.42322	-3.397101E-007	0.0757964	8
	2	4	630984.4	2165.946	-2766.007	1	3513.135	-51.93697	1.707004E-006	0.0752302	8
	3	5	501234.4	2654.775	-3030.197	1	4028.638	-48.77818	-3.24764E-007	0.0755841	8
	4	6	398109.4	3178.556	-3281.507	1	4568.534	-45.91302	1.09459E-006	0.0752193	8
	5	8	316265.6	3792.55	-3488.164	1	5152.74	-42.60602	-1.45296E-007	0.0753809	8
	6	9	251203.1	4445.657	-3649.754	1	5751.919	-39.38499	3.389652E-007	0.0752291	8
	7	10	199546.9	5137.132	-3718.311	1	6341.605	-35.89742	2.543911E-006	0.0749161	8
	8	12	158578.1	5826.484	-3713.548	1	6909.295	-32.51167	-3.555776E-007	0.07536	8
	9	13	125953.1	6549.496	-3567.941	1	7458.291	-28.58003	-2.961224E-007	0.0756602	7
	10	14	100078.1	7200.164	-3405.207	1	7964.785	-25.31109	1.497628E-009	0.075239	7
	11	16	79453.13	7781.146	-3175.744	1	8404.26	-22.202	-1.112972E-008	0.0752573	7
	12	17	63140.62	8281.872	-2908.779	1	8777.836	-19.35242	-2.477283E-008	0.0753101	7
	13	19	50203.12	8706.573	-2627.059	1	9094.276	-16.79029	4.785878E-008	0.0751883	7
	14	20	39890.62	9049.269	-2347.326	1	9348.754	-14.54169	4.068954E-008	0.0751804	7
	15	21	31640.63	9324.475	-2094.208	1	9556.75	-12.65816	-1.930801E-008	0.0753034	7
	16	23	25171.88	9549.03	-1876.76	1	9731.71	-11.11915	8.76913E-010	0.0752934	7
	17	24	20015.62	9727.02	-1695.805	1	9873.74	-9.88953	4.410125E-008	0.075236	7
	18	25	15890.62	9871.51	-1561.283	1	9994.22	-8.987478	8.559806E-010	0.0752859	7
	19	27	12609.37	10007.01	-1420.006	1	10107.25	-8.076416	4.501133E-009	0.0751533	6
	20	28	10078.13	10105.23	-1381.753	1	10199.26	-7.786134	1.947672E-009	0.0751698	6
	21	29	8015.625	10191.47	-1387.889	1	10285.54	-7.754916	3.92174E-010	0.0753097	6
	22	31	6328.125	10276.94	-1443.938	1	10377.88	-7.997857	3.244243E-009	0.0752747	6
	23	32	5015.625	10360.93	-1550.776	1	10476.34	-8.512571	-4.542215E-009	0.0752776	6
	24	33	3984.375	10446.42	-1715.068	1	10586.27	-9.323507	-1.123332E-009	0.0752135	6
	25	35	3170.956	10534.5	-1943.384	1	10712.25	-10.4523	-2.391466E-009	0.0752541	6
	26	36	2527.573	10630.32	-2238.597	1	10863.47	-11.89194	-4.707537E-009	0.0752696	6
	27	37	1976.103	10747.77	-2657.997	1	11071.57	-13.89092	-2.87667E-009	0.0752924	6
	28	39	1577.524	10875.93	-3144.913	1	11321.5	-16.12789	2.892024E-009	0.0752729	6
	29	40	1265.625	11017.56	-3736.557	1	11633.93	-18.73415	4.395198E-009	0.0751448	6
	30	42	998.264	11204.71	-4528.038	1	12085.06	-22.00457	-7.791215E-010	0.0753036	6
	31	43	796.875	11424.93	-5451.005	1	12658.69	-25.50651	-1.41925E-010	0.0752233	6
	32	44	627.7902	11709.62	-6659.226	1	13470.73	-29.62675	-2.127175E-009	0.0753162	6
	33	46	505.5147	12023.41	-7989.342	1	14435.79	-33.60332	-1.82039E-009	0.0752369	6
	34	47	397.9953	12452.93	-9784.95	1	15837.32	-38.15866	1.408959E-009	0.0752618	6
	35	48	315.5048	12969.66	-11918.4	1	17614.21	-42.58129	1.031847E-009	0.0752544	6
	36	50	252.4038	13585.27	-14404.68	1	19800.37	-46.67687	1.464874E-009	0.0752569	6
	37	51	198.6229	14389.39	-17655.93	1	22776.89	-50.82034	1.223829E-009	0.0752601	6
	38	52	158.3615	15336.91	-21404.56	1	26332.03	-54.37744	1.362853E-009	0.0752557	6
	39	54	125.558	16527.8	-26065.35	1	30863.75	-57.62159	1.257731E-009	0.0752652	6
	40	55	100.4464	17928.21	-31517.43	1	36259.74	-60.36728	6.28383E-010	0.0752525	6
	41	56	79.00281	19844.18	-38532.93	1	43342.57	-62.75186	9.517892E-010	0.0752559	6
	42	58	63.3446	21976.89	-46182.13	1	51144.63	-64.55142	6.903981E-010	0.0752586	6
	43	59	49.86702	25336.13	-57210.27	1	62569.43	-66.11337	1.313683E-009	0.075254	6
	44	61	39.72458	28689.43	-69135.62	1	74851.97	-67.46286	1.067773E-009	0.0752563	6
	45	62	31.6723	33484.14	-83626.45	1	90080.91	-68.17877	8.265846E-010	0.0752515	6
	46	63	24.93351	39778.37	-101974.8	1	109458.5	-68.69021	3.825247E-011	0.0752507	5
	47	65	19.86229	47761.09	-123038.3	1	131983.1	-68.78474	1.486504E-010	0.0752534	5
	48	66	15.83615	57107.99	-147551.8	1	158217.7	-68.84172	-7.589085E-011	0.0752465	5
	49	67	12.40079	73280.6	-180864.6	1	195146.2	-67.94376	-2.644121E-010	0.0752463	5
	50	69	9.93114	90405.36	-213001.1	1	231392.7	-67.00188	5.009565E-010	0.075253	5
	51	70	7.944915	113041	-251686.8	1	275906.8	-65.81356	3.833648E-010	0.0752557	5
	52	72	6.317385	141993.8	-295715.8	1	328039.8	-64.35108	1.26538E-010	0.0752683	5
	53	74	5.008013	178224.6	-345013	1	388327.1	-62.68032	4.717298E-010	0.0752614	5
	54	77	3.945707	224232.7	-400782.3	1	459245.9	-60.77353	9.171824E-011	0.0752481	5
	55	79	3.158693	273619.7	-456380.8	1	532119.6	-59.05552	3.366256E-010	0.0752641	5
	56	83	2.504006	333756.3	-519285.1	1	617292.7	-57.27022	-1.48814E-010	0.0752469	5
	57	85	1.998082	399140.7	-583211.8	1	706717.3	-55.6129	5.671977E-011	0.0752134	5
	58	88	1.584686	474848.8	-654517.3	1	808624.9	-54.03931	-1.558391E-010	0.0752724	5
	59	92	1.266892	549999.3	-731061.1	1	914849.4	-53.04476	2.280543E-010	0.0752116	5
	60	96	0.999041	640634.4	-818905.3	1	1039720	-51.96372	6.884827E-011	0.0752434	4
