EXPLAIN
TAG	EISPOT
TITLE	LABEL	Potentiostatic EIS	Test &Identifier
DATE	LABEL	6/26/2020	Date
TIME	LABEL	13:13:48	Time
NOTES	NOTES	1	&Notes...
	
PSTAT	PSTAT	REF600-11020	Potentiostat
VDC	POTEN	0.00000E+000	T	DC &Voltage (V)
FREQINIT	QUANT	1.00000E+006	Initial Fre&q. (Hz)
FREQFINAL	QUANT	1.00000E+000	Final Fre&q. (Hz)
PTSPERDEC	QUANT	1.00000E+001	Points/&decade
VAC	QUANT	2.50000E+001	AC &Voltage (mV rms)
AREA	QUANT	4.00000E-004	&Area (cm^2)
CONDIT	TWOPARAM	F	5.00000E+000	0.00000E+000	Conditionin&g	Time(s)	E(V)
DELAY	TWOPARAM	F	3.00000E+000	0.00000E+000	Init. De&lay	Time(s)	Stab.(mV/s)
SPEED	SELECTOR	0	&Optimize for:
ZGUESS	QUANT	1.00000E+003	E&stimated Z (ohms)
OCVCURVE	TABLE	39
	Pt	T	Vf	Vm	Ach	Over
	#	s	V vs. Ref.	V	V	bits
	0	0.258333	6.43161E-002	6.43161E-002	5.26383E-004	...........
	1	0.516667	6.43162E-002	6.43222E-002	5.27417E-004	...........
	2	0.775	6.43168E-002	6.43198E-002	5.23217E-004	...........
	3	1.03333	6.43179E-002	6.43231E-002	5.22683E-004	...........
	4	1.29167	6.43194E-002	6.43183E-002	5.23283E-004	...........
	5	1.55	6.43204E-002	6.43221E-002	5.22217E-004	...........
	6	1.80833	6.43207E-002	6.43140E-002	5.20483E-004	...........
	7	2.06667	6.43202E-002	6.43209E-002	5.23183E-004	...........
	8	2.325	6.43193E-002	6.43166E-002	5.18050E-004	...........
	9	2.58333	6.43187E-002	6.43247E-002	5.17817E-004	...........
	10	2.84167	6.43189E-002	6.43247E-002	5.22417E-004	...........
	11	3.1	6.43202E-002	6.43247E-002	5.22450E-004	...........
	12	3.35833	6.43219E-002	6.43213E-002	5.21117E-004	...........
	13	3.61667	6.43232E-002	6.43240E-002	5.22683E-004	...........
	14	3.875	6.43235E-002	6.43233E-002	5.26383E-004	...........
	15	4.13333	6.43235E-002	6.43271E-002	5.23683E-004	...........
	16	4.39167	6.43238E-002	6.43267E-002	5.25017E-004	...........
	17	4.65	6.43246E-002	6.43283E-002	5.20783E-004	...........
	18	4.90833	6.43257E-002	6.43268E-002	5.21883E-004	...........
	19	5.16667	6.43266E-002	6.43263E-002	5.22850E-004	...........
	20	5.425	6.43271E-002	6.43292E-002	5.23817E-004	...........
	21	5.68333	6.43274E-002	6.43302E-002	5.27750E-004	...........
	22	5.94167	6.43279E-002	6.43305E-002	5.22350E-004	...........
	23	6.2	6.43287E-002	6.43306E-002	5.20083E-004	...........
	24	6.45833	6.43295E-002	6.43310E-002	5.27050E-004	...........
	25	6.71667	6.43302E-002	6.43326E-002	5.29683E-004	...........
	26	6.975	6.43309E-002	6.43366E-002	5.25150E-004	...........
	27	7.23333	6.43318E-002	6.43329E-002	5.21083E-004	...........
	28	7.49167	6.43329E-002	6.43321E-002	5.28683E-004	...........
	29	7.75	6.43334E-002	6.43296E-002	5.30116E-004	...........
	30	8.00833	6.43331E-002	6.43316E-002	5.26650E-004	...........
	31	8.26667	6.43322E-002	6.43293E-002	5.22083E-004	...........
	32	8.525	6.43313E-002	6.43320E-002	5.30317E-004	...........
	33	8.78333	6.43308E-002	6.43294E-002	5.25650E-004	...........
	34	9.04167	6.43306E-002	6.43332E-002	5.29883E-004	...........
	35	9.3	6.43307E-002	6.43304E-002	5.34050E-004	...........
	36	9.5583	6.43311E-002	6.43358E-002	5.29183E-004	...........
	37	9.8167	6.43317E-002	6.43321E-002	5.20917E-004	...........
	38	10.075	6.43325E-002	6.43386E-002	5.24183E-004	...........
EOC	QUANT	0.0643325	Open Circuit (V)
PSTATMODEL	IQUANT	4	Pstat Model
PSTATSECTION	LABEL	REF600-11020	Pstat Section
PSTATSERIALNO	LABEL	11020	Pstat Serial Number
CTRLMODE	IQUANT	1	Control Mode
IESTAB	IQUANT	0	I/E Stability
CASPEED	IQUANT	1	Control Amp Speed
CONVENTION	IQUANT	1	Current Convention
ICHRANGE	IQUANT	2	Ich Range
ICHRANGEMODE	TOGGLE	F	Ich Auto Range
ICHOFFSETENABLE	TOGGLE	T	Ich Offset Enable
ICHOFFSET	QUANT	0	Ich Offset (V)
ICHFILTER	IQUANT	3	Ich Filter
VCHRANGE	IQUANT	2	Vch Range
VCHRANGEMODE	TOGGLE	F	Vch Auto Range
VCHOFFSETENABLE	TOGGLE	T	Vch Offset Enable
VCHOFFSET	QUANT	0	Vch Offset (V)
VCHFILTER	IQUANT	3	Vch Filter
ACHRANGE	IQUANT	2	Ach Range
ACHOFFSETENABLE	TOGGLE	F	Ach Offset Enable
ACHOFFSET	QUANT	0	Ach Offset (V)
ACHFILTER	IQUANT	3	Ach Filter
IERANGELOWERLIMIT	IQUANT	1	I/E Range Lower Limit
IERANGEMODE	TOGGLE	F	I/E AutoRange
IERANGE	IQUANT	8	I/E Range
POSFEEDENABLE	TOGGLE	F	Positive Feedback IR Comp
POSFEEDRESISTANCE	QUANT	0	Positive Feedback Resistance (ohm)
ACHSELECT	IQUANT	0	Ach Select
CABLEID	IQUANT	14	Cable ID
DCCALDATE	LABEL	6/26/2020	DC Calibration Date
ACCALDATE	LABEL	6/26/2020	AC Calibration Date
THERMOSELECT	IQUANT	1	Thermo Select
FRAMEWORKVERSION	QUANT	6.33	Framework Version
INSTRUMENTVERSION	LABEL	3.50	Instrument Version
ZCURVE	TABLE
	Pt	Time	Freq	Zreal	Zimag	Zsig	Zmod	Zphz	Idc	Vdc	IERange
	#	s	Hz	ohm	ohm	V	ohm	°	A	V	#
	0	1	1000078	1630.745	-1437.937	1	2174.165	-41.4048	1.190974E-007	0.0666824	8
	1	1	794390.6	1848.487	-1518.141	1	2391.998	-39.39588	1.770188E-008	0.0663886	8
	2	2	630984.4	2069.932	-1597.82	1	2614.889	-37.66523	1.668957E-007	0.0662518	8
	3	2	501234.4	2289.627	-1684.668	1	2842.622	-36.34498	4.014743E-009	0.0661343	8
	4	2	398109.4	2516.657	-1782.413	1	3083.92	-35.30789	-1.338415E-008	0.0660806	8
	5	3	316265.6	2746.968	-1891.904	1	3335.436	-34.55613	5.624972E-008	0.066054	8
	6	3	251203.1	2993.231	-2020.438	1	3611.316	-34.01944	2.228938E-007	0.0660208	8
	7	3	199546.9	3255.94	-2173.719	1	3914.869	-33.72772	-1.286341E-008	0.0660385	8
	8	4	158578.1	3532.662	-2342.589	1	4238.8	-33.54927	8.327055E-008	0.0660454	8
	9	4	125953.1	3876.506	-2511.408	1	4618.925	-32.93733	-1.557816E-008	0.0661042	7
	10	4	100078.1	4206.646	-2742.584	1	5021.717	-33.10292	2.372434E-008	0.0659806	7
	11	5	79453.13	4562.124	-2997.257	1	5458.619	-33.3044	-4.221657E-009	0.0660285	7
	12	5	63140.62	4952.437	-3286.391	1	5943.652	-33.56788	2.394781E-008	0.0659734	7
	13	5	50203.12	5384.863	-3600.702	1	6477.793	-33.7695	2.362153E-009	0.066016	7
	14	6	39890.62	5868.94	-3955.491	1	7077.455	-33.9788	1.259105E-008	0.0659602	7
	15	6	31640.63	6409.712	-4338.457	1	7739.936	-34.09237	2.2704E-008	0.0659589	7
	16	6	25171.88	7007.49	-4745.207	1	8462.973	-34.10437	-2.264859E-008	0.0660026	7
	17	6	20015.62	7666.837	-5184.238	1	9255.092	-34.06616	-3.215168E-009	0.0659706	7
	18	7	15890.62	8393.112	-5639.428	1	10111.75	-33.89761	-2.371732E-008	0.0660133	7
	19	7	12609.37	9267.854	-6050.799	1	11068.21	-33.13973	-2.508215E-009	0.0660318	6
	20	7	10078.13	10082.11	-6550.443	1	12023.2	-33.01215	-1.689208E-009	0.0660241	6
	21	8	8015.625	10969.27	-7094.774	1	13063.71	-32.89425	2.051709E-009	0.0659315	6
	22	8	6328.125	11940.12	-7700.262	1	14207.76	-32.81824	-3.661855E-009	0.0660205	6
	23	8	5015.625	12953.73	-8358.812	1	15416.51	-32.83344	7.373097E-010	0.0659336	6
	24	9	3984.375	14017.16	-9083.013	1	16702.75	-32.94294	-1.408584E-009	0.0659712	6
	25	9	3170.956	15138.9	-9894.62	1	18085.63	-33.16819	2.625524E-009	0.0659244	6
	26	9	2527.573	16328.09	-10805.8	1	19579.89	-33.49627	2.657713E-009	0.0659224	6
	27	10	1976.103	17708.08	-11911.37	1	21341.43	-33.92682	-3.21881E-009	0.0660235	6
	28	10	1577.524	19039.27	-13065	1	23090.87	-34.45844	7.615439E-010	0.0659291	6
	29	10	1265.625	20385.61	-14338.95	1	24923.45	-35.12201	3.740368E-009	0.0659214	6
	30	11	998.264	21841.42	-15924.74	1	27030.44	-36.09608	-1.576053E-009	0.0659605	6
	31	11	796.875	23206.63	-17731.62	1	29205.45	-37.38256	3.124683E-009	0.0659113	6
	32	11	627.7902	24563.65	-20095.22	1	31736.27	-39.28618	-4.875448E-010	0.0660031	6
	33	12	505.5147	25754.15	-22815.47	1	34406.71	-41.53757	-1.732815E-009	0.0660083	6
	34	12	397.9953	27050.29	-26683.63	1	37996.51	-44.60904	3.317211E-010	0.0659901	6
	35	12	315.5048	28324.73	-31504.32	1	42365.23	-48.0421	4.06518E-010	0.065987	6
	36	12	252.4038	29650.46	-37375.39	1	47708.17	-51.5745	4.397963E-010	0.0659801	6
	37	13	198.6229	31269.14	-45354.89	1	55089.25	-55.41635	3.964243E-010	0.0659883	6
	38	13	158.3615	33100.96	-54825.26	1	64042.82	-58.87836	2.883175E-010	0.0659931	6
	39	13	125.558	35401.48	-66908.61	1	75696.94	-62.11659	4.223888E-010	0.0659884	6
	40	14	100.4464	38198.96	-81266.64	1	89796.59	-64.82437	4.348774E-010	0.0659886	6
	41	14	79.00281	42119.99	-100310.7	1	108794.9	-67.2227	8.488243E-011	0.0659789	5
	42	14	63.3446	46530.79	-121974	1	130548	-69.11909	3.87179E-011	0.0659837	5
	43	15	49.86702	52995.75	-150703.6	1	159750.2	-70.6255	8.842223E-011	0.0659762	5
	44	15	39.72458	61034.58	-184376.1	1	194215.8	-71.68375	1.112935E-010	0.0659788	5
	45	15	31.6723	71758.59	-225011.7	1	236177	-72.31197	1.030523E-010	0.065974	5
	46	16	24.93351	86662.54	-277350.8	1	290575.1	-72.64778	-1.207069E-011	0.06597	5
	47	16	19.86229	105801.9	-337735.7	1	353920.1	-72.60588	-7.885431E-011	0.0659686	5
	48	16	15.83615	131582.5	-409854.4	1	430458.6	-72.20093	2.617053E-010	0.0659726	5
	49	17	12.40079	168550.7	-501621.5	1	529181.9	-71.42706	2.430849E-010	0.0659654	5
	50	17	9.93114	213975.7	-599904	1	636922.6	-70.36954	2.884639E-010	0.0659708	5
	51	17	7.944915	272704.1	-711575.4	1	762041.4	-69.03117	8.865765E-011	0.0659733	5
	52	18	6.317385	346164.7	-848627.9	1	916514.8	-67.80891	1.817415E-010	0.0659689	5
	53	19	5.008013	446456.8	-1002753	1	1097651	-65.99989	2.102727E-010	0.0659739	4
	54	19	3.945707	571436.4	-1181428	1	1312368	-64.18774	1.014327E-010	0.0659644	4
	55	20	3.158693	715287.8	-1372216	1	1547454	-62.46856	1.775786E-010	0.0659738	4
	56	21	2.504006	902645.4	-1581933	1	1821341	-60.29108	1.301159E-010	0.0659529	4
	57	23	1.998082	1118358	-1802443	1	2121208	-58.18173	9.159724E-011	0.0659276	4
	58	24	1.584686	1388496	-2045491	1	2472237	-55.83102	1.191096E-010	0.0659709	4
	59	26	1.266892	1691390	-2279869	1	2838767	-53.42901	9.011325E-011	0.0659893	4
	60	29	0.999041	2067095	-2527811	1	3265381	-50.72572	8.97124E-011	0.0659898	4
