EXPLAIN
TAG	EISPOT
TITLE	LABEL	Potentiostatic EIS	Test &Identifier
DATE	LABEL	1/7/2020	Date
TIME	LABEL	17:47:13	Time
NOTES	NOTES	5	&Notes...
	
	
	
	
	
PSTAT	PSTAT	REF600-11020	Potentiostat
VDC	POTEN	0.00000E+000	T	DC &Voltage (V)
FREQINIT	QUANT	1.00000E+006	Initial Fre&q. (Hz)
FREQFINAL	QUANT	1.00000E+000	Final Fre&q. (Hz)
PTSPERDEC	QUANT	1.00000E+001	Points/&decade
VAC	QUANT	2.50000E+001	AC &Voltage (mV rms)
AREA	QUANT	1.00000E-001	&Area (cm^2)
CONDIT	TWOPARAM	T	5.00000E+000	0.00000E+000	Conditionin&g	Time(s)	E(V)
DELAY	TWOPARAM	T	5.00000E+000	0.00000E+000	Init. De&lay	Time(s)	Stab.(mV/s)
SPEED	SELECTOR	0	&Optimize for:
ZGUESS	QUANT	1.00000E+003	E&stimated Z (ohms)
OCVCURVE	TABLE	19
	Pt	T	Vf	Vm	Ach	Over
	#	s	V vs. Ref.	V	V	bits
	0	0.258333	2.17958E-003	2.17958E-003	6.45580E-004	...........
	1	0.516667	2.17577E-003	1.98011E-003	6.43480E-004	...........
	2	0.775	2.15237E-003	1.79104E-003	6.45846E-004	...........
	3	1.03333	2.08632E-003	1.61683E-003	6.44913E-004	...........
	4	1.29167	1.96863E-003	1.44413E-003	6.45913E-004	...........
	5	1.55	1.81274E-003	1.27529E-003	6.48680E-004	...........
	6	1.80833	1.63985E-003	1.11383E-003	6.45313E-004	...........
	7	2.06667	1.46457E-003	9.39330E-004	6.44280E-004	...........
	8	2.325	1.29147E-003	7.31310E-004	6.45580E-004	...........
	9	2.58333	1.11642E-003	4.97336E-004	6.39846E-004	...........
	10	2.84167	9.30415E-004	2.37913E-004	6.45046E-004	...........
	11	3.1	7.30176E-004	2.32204E-004	6.44280E-004	...........
	12	3.35833	5.29637E-004	2.03132E-005	6.43246E-004	...........
	13	3.61667	3.46196E-004	-2.35284E-004	6.40646E-004	...........
	14	3.875	1.76409E-004	-3.11507E-004	6.43046E-004	...........
	15	4.13333	7.99003E-006	-4.81234E-004	6.41180E-004	...........
	16	4.39167	-1.57441E-004	-5.93360E-004	6.45013E-004	...........
	17	4.65	-3.12026E-004	-7.27816E-004	6.44313E-004	...........
	18	4.90833	-4.54475E-004	-8.60421E-004	6.42813E-004	...........
EOC	QUANT	-0.0004545	Open Circuit (V)
PSTATMODEL	IQUANT	4	Pstat Model
PSTATSECTION	LABEL	REF600-11020	Pstat Section
PSTATSERIALNO	LABEL	11020	Pstat Serial Number
CTRLMODE	IQUANT	1	Control Mode
IESTAB	IQUANT	0	I/E Stability
CASPEED	IQUANT	1	Control Amp Speed
CONVENTION	IQUANT	1	Current Convention
ICHRANGE	IQUANT	2	Ich Range
ICHRANGEMODE	TOGGLE	F	Ich Auto Range
ICHOFFSETENABLE	TOGGLE	T	Ich Offset Enable
ICHOFFSET	QUANT	0	Ich Offset (V)
ICHFILTER	IQUANT	3	Ich Filter
VCHRANGE	IQUANT	2	Vch Range
VCHRANGEMODE	TOGGLE	F	Vch Auto Range
VCHOFFSETENABLE	TOGGLE	T	Vch Offset Enable
VCHOFFSET	QUANT	0	Vch Offset (V)
VCHFILTER	IQUANT	3	Vch Filter
ACHRANGE	IQUANT	2	Ach Range
ACHOFFSETENABLE	TOGGLE	F	Ach Offset Enable
ACHOFFSET	QUANT	0	Ach Offset (V)
ACHFILTER	IQUANT	3	Ach Filter
IERANGELOWERLIMIT	IQUANT	1	I/E Range Lower Limit
IERANGEMODE	TOGGLE	F	I/E AutoRange
IERANGE	IQUANT	5	I/E Range
POSFEEDENABLE	TOGGLE	F	Positive Feedback IR Comp
POSFEEDRESISTANCE	QUANT	0	Positive Feedback Resistance (ohm)
ACHSELECT	IQUANT	0	Ach Select
CABLEID	IQUANT	14	Cable ID
DCCALDATE	LABEL	12/22/2019	DC Calibration Date
ACCALDATE	LABEL	12/22/2019	AC Calibration Date
THERMOSELECT	IQUANT	1	Thermo Select
FRAMEWORKVERSION	QUANT	6.33	Framework Version
INSTRUMENTVERSION	LABEL	3.50	Instrument Version
ZCURVE	TABLE
	Pt	Time	Freq	Zreal	Zimag	Zsig	Zmod	Zphz	Idc	Vdc	IERange
	#	s	Hz	ohm	ohm	V	ohm	°	A	V	#
	0	1	1000078	2373.51	-1868.468	1	3020.715	-38.21043	-3.089064E-006	0.0017676	8
	1	2	794390.6	2716.651	-1882.375	1	3305.076	-34.7182	3.996209E-006	0.0005781	8
	2	2	630984.4	3056.765	-1834.452	1	3564.972	-30.96917	3.3181E-006	-1.666249E-005	8
	3	2	501234.4	3411.606	-1713.501	1	3817.74	-26.66838	-3.16676E-006	0.002075	8
	4	3	398109.4	3731.937	-1599.957	1	4060.446	-23.2058	-2.101738E-006	0.0011962	8
	5	3	316265.6	4041.545	-1484.383	1	4305.518	-20.16732	3.718061E-006	1.814419E-005	8
	6	3	251203.1	4223.819	-1346.248	1	4433.174	-17.67851	-2.787671E-006	0.0017001	8
	7	4	199546.9	4378.207	-1134.674	1	4522.851	-14.52935	2.451937E-006	0.0006156	8
	8	4	158578.1	4563.765	-1066.572	1	4686.74	-13.15419	9.011038E-006	-0.0006896	8
	9	4	125953.1	4673.74	-801.0772	1	4741.895	-9.72597	-2.216522E-006	0.0051695	7
	10	5	100078.1	4751.012	-698.7701	1	4802.124	-8.36697	-7.950529E-008	0.0010804	7
	11	5	79453.13	4823.774	-622.9978	1	4863.838	-7.359101	4.461786E-008	0.0008559	7
	12	5	63140.62	4877.17	-554.1741	1	4908.553	-6.482497	5.017954E-008	0.000979	7
	13	5	50203.12	4923.543	-501.047	1	4948.972	-5.810732	-9.017708E-008	0.0010922	7
	14	6	39890.62	4964.352	-463.2911	1	4985.923	-5.331605	-4.692901E-008	0.0010084	7
	15	6	31640.63	4996.14	-437.4187	1	5015.251	-5.003564	-1.961278E-008	0.0010969	7
	16	6	25171.88	5027.579	-423.6746	1	5045.398	-4.81694	-1.092031E-007	0.0011584	7
	17	7	20015.62	5058.345	-423.4709	1	5076.04	-4.785489	-3.682917E-008	0.0011112	7
	18	7	15890.62	5085.854	-438.1039	1	5104.688	-4.9234	1.075905E-007	0.0010115	7
	19	7	12609.37	5115.979	-466.149	1	5137.171	-5.206203	4.709007E-008	0.0008466	7
	20	8	10078.13	5146.043	-513.2347	1	5171.573	-5.695495	-9.477343E-010	0.0008914	7
	21	8	8015.625	5173.383	-571.2082	1	5204.822	-6.300672	5.259239E-008	0.0009732	7
	22	8	6328.125	5207.026	-655.5511	1	5248.13	-7.175638	1.455082E-007	0.0007172	7
	23	9	5015.625	5241.957	-760.9086	1	5296.895	-8.259217	-7.96022E-008	0.0011202	7
	24	9	3984.375	5281.372	-898.803	1	5357.307	-9.65827	-7.797699E-008	0.0011184	7
	25	9	3170.956	5324.587	-1064.165	1	5429.887	-11.30214	-3.458667E-008	0.0012484	7
	26	10	2527.573	5373.718	-1269.436	1	5521.623	-13.29135	-7.928183E-008	0.0011202	7
	27	10	1976.103	5436.162	-1552.742	1	5653.571	-15.94103	1.458754E-007	0.0007116	7
	28	10	1577.524	5505.979	-1872.575	1	5815.697	-18.78309	1.498603E-007	0.0007493	7
	29	11	1265.625	5584.024	-2262.818	1	6025.087	-22.05931	2.340812E-007	0.0006764	7
	30	11	998.264	5692.939	-2774.682	1	6333.12	-25.98414	1.105466E-007	0.001008	7
	31	11	796.875	5819.453	-3372.597	1	6726.102	-30.09394	-5.245968E-008	0.0010265	7
	32	11	627.7902	5984.844	-4152.272	1	7284.21	-34.75283	-2.256068E-009	0.0010605	7
	33	12	505.5147	6175.56	-5020.089	1	7958.57	-39.10753	-1.089615E-007	0.0011527	7
	34	12	397.9953	6443.614	-6183.139	1	8930.362	-43.81822	6.428931E-009	0.0010142	7
	35	12	315.5048	6785.132	-7572.394	1	10167.55	-48.13854	3.411289E-010	0.0010185	6
	36	13	252.4038	7204.039	-9198.431	1	11683.72	-51.93262	3.88607E-010	0.0010184	6
	37	13	198.6229	7791.303	-11322.48	1	13744.19	-55.46708	1.050809E-009	0.0010132	6
	38	13	158.3615	8520.571	-13759.63	1	16184.18	-58.23238	5.986545E-010	0.0010164	6
	39	14	125.558	9499.469	-16762.23	1	19266.87	-60.45897	8.435537E-010	0.0010142	6
	40	14	100.4464	10744.59	-20209.84	1	22888.51	-62.00259	1.040453E-009	0.0010135	6
	41	14	79.00281	12470.34	-24657.04	1	27631.13	-63.17191	1.215476E-009	0.0010122	6
	42	15	63.3446	14548.45	-29230.61	1	32650.97	-63.53988	5.341429E-010	0.0010121	6
	43	15	49.86702	17537.27	-35319.1	1	39433.42	-63.59386	1.516739E-010	0.0010047	6
	44	15	39.72458	21097.79	-42117.28	1	47106.07	-63.39236	1.528614E-009	0.0010167	6
	45	16	31.6723	25564.8	-49697.52	1	55887.41	-62.77835	8.973803E-010	0.001009	6
	46	16	24.93351	31616.8	-58636.85	1	66617.59	-61.6666	-1.787421E-010	0.0010084	6
	47	16	19.86229	38533.94	-68022.83	1	78179.09	-60.46908	-1.996392E-009	0.001007	6
	48	17	15.83615	46241.36	-78235.87	1	90879.66	-59.41476	1.163696E-009	0.0010092	6
	49	17	12.40079	57451.13	-90152.02	1	106901.9	-57.49188	5.642627E-010	0.0010077	5
	50	17	9.93114	68306.47	-101991.9	1	122752.3	-56.18882	1.134362E-009	0.0009997	5
	51	18	7.944915	80345.88	-114593.5	1	139954	-54.96423	1.826198E-009	0.0010008	5
	52	18	6.317385	93623.21	-129022.2	1	159411.5	-54.03399	1.453645E-009	0.0009962	5
	53	19	5.008013	108255.4	-145290.7	1	181186.7	-53.31039	7.828216E-010	0.0010061	5
	54	20	3.945707	123958.7	-164144.9	1	205692.3	-52.94069	5.814433E-010	0.0010091	5
	55	21	3.158693	139575.9	-185387.9	1	232056.2	-53.02442	1.765484E-010	0.0009945	5
	56	23	2.504006	156945.9	-211293.4	1	263205.1	-53.39553	4.495483E-010	0.0009914	5
	57	24	1.998082	175120.2	-241827.5	1	298576	-54.0897	6.565736E-010	0.0010303	5
	58	26	1.584686	194881.6	-278874	1	340219.9	-55.05354	4.364643E-010	0.0009903	5
	59	28	1.266892	217341.7	-322444	1	388854.1	-56.01826	3.454702E-010	0.0009574	5
	60	30	0.999041	243896.9	-379321.8	1	450966.4	-57.25973	3.23248E-010	0.0009524	5
