EXPLAIN
TAG	EISPOT
TITLE	LABEL	Potentiostatic EIS	Test &Identifier
DATE	LABEL	1/14/2020	Date
TIME	LABEL	15:56:40	Time
NOTES	NOTES	5	&Notes...
	
	
	
	
	
PSTAT	PSTAT	REF600-11020	Potentiostat
VDC	POTEN	0.00000E+000	T	DC &Voltage (V)
FREQINIT	QUANT	1.00000E+006	Initial Fre&q. (Hz)
FREQFINAL	QUANT	1.00000E+000	Final Fre&q. (Hz)
PTSPERDEC	QUANT	1.00000E+001	Points/&decade
VAC	QUANT	2.50000E+001	AC &Voltage (mV rms)
AREA	QUANT	1.00000E-001	&Area (cm^2)
CONDIT	TWOPARAM	T	5.00000E+000	0.00000E+000	Conditionin&g	Time(s)	E(V)
DELAY	TWOPARAM	T	5.00000E+000	0.00000E+000	Init. De&lay	Time(s)	Stab.(mV/s)
SPEED	SELECTOR	0	&Optimize for:
ZGUESS	QUANT	5.00000E+002	E&stimated Z (ohms)
OCVCURVE	TABLE	19
	Pt	T	Vf	Vm	Ach	Over
	#	s	V vs. Ref.	V	V	bits
	0	0.258333	-9.15870E-003	-9.15870E-003	6.55879E-004	...........
	1	0.516667	-9.18125E-003	-1.03389E-002	6.58113E-004	...........
	2	0.775	-9.31843E-003	-1.13911E-002	6.55879E-004	...........
	3	1.03333	-9.70268E-003	-1.24225E-002	6.52346E-004	...........
	4	1.29167	-1.03826E-002	-1.33491E-002	6.55879E-004	...........
	5	1.55	-1.12755E-002	-1.42611E-002	6.57046E-004	...........
	6	1.80833	-1.22514E-002	-1.50735E-002	6.52613E-004	...........
	7	2.06667	-1.32167E-002	-1.58960E-002	6.60213E-004	...........
	8	2.325	-1.41314E-002	-1.66641E-002	6.51813E-004	...........
	9	2.58333	-1.49921E-002	-1.74316E-002	6.57913E-004	...........
	10	2.84167	-1.58091E-002	-1.81492E-002	6.58379E-004	...........
	11	3.1	-1.65924E-002	-1.88431E-002	6.59313E-004	...........
	12	3.35833	-1.73465E-002	-1.95190E-002	6.58779E-004	...........
	13	3.61667	-1.80730E-002	-2.01668E-002	6.54479E-004	...........
	14	3.875	-1.87729E-002	-2.07830E-002	6.57080E-004	...........
	15	4.13333	-1.94474E-002	-2.14050E-002	6.57080E-004	...........
	16	4.39167	-2.00981E-002	-2.19758E-002	6.56246E-004	...........
	17	4.65	-2.07269E-002	-2.25584E-002	6.59313E-004	...........
	18	4.90833	-2.13353E-002	-2.30980E-002	6.62513E-004	...........
EOC	QUANT	-0.0213353	Open Circuit (V)
PSTATMODEL	IQUANT	4	Pstat Model
PSTATSECTION	LABEL	REF600-11020	Pstat Section
PSTATSERIALNO	LABEL	11020	Pstat Serial Number
CTRLMODE	IQUANT	1	Control Mode
IESTAB	IQUANT	0	I/E Stability
CASPEED	IQUANT	1	Control Amp Speed
CONVENTION	IQUANT	1	Current Convention
ICHRANGE	IQUANT	2	Ich Range
ICHRANGEMODE	TOGGLE	F	Ich Auto Range
ICHOFFSETENABLE	TOGGLE	T	Ich Offset Enable
ICHOFFSET	QUANT	0	Ich Offset (V)
ICHFILTER	IQUANT	3	Ich Filter
VCHRANGE	IQUANT	2	Vch Range
VCHRANGEMODE	TOGGLE	F	Vch Auto Range
VCHOFFSETENABLE	TOGGLE	T	Vch Offset Enable
VCHOFFSET	QUANT	0	Vch Offset (V)
VCHFILTER	IQUANT	3	Vch Filter
ACHRANGE	IQUANT	2	Ach Range
ACHOFFSETENABLE	TOGGLE	F	Ach Offset Enable
ACHOFFSET	QUANT	0	Ach Offset (V)
ACHFILTER	IQUANT	3	Ach Filter
IERANGELOWERLIMIT	IQUANT	1	I/E Range Lower Limit
IERANGEMODE	TOGGLE	F	I/E AutoRange
IERANGE	IQUANT	7	I/E Range
POSFEEDENABLE	TOGGLE	F	Positive Feedback IR Comp
POSFEEDRESISTANCE	QUANT	0	Positive Feedback Resistance (ohm)
ACHSELECT	IQUANT	0	Ach Select
CABLEID	IQUANT	14	Cable ID
DCCALDATE	LABEL	12/22/2019	DC Calibration Date
ACCALDATE	LABEL	12/22/2019	AC Calibration Date
THERMOSELECT	IQUANT	1	Thermo Select
FRAMEWORKVERSION	QUANT	6.33	Framework Version
INSTRUMENTVERSION	LABEL	3.50	Instrument Version
ZCURVE	TABLE
	Pt	Time	Freq	Zreal	Zimag	Zsig	Zmod	Zphz	Idc	Vdc	IERange
	#	s	Hz	ohm	ohm	V	ohm	°	A	V	#
	0	1	1000078	2416.949	-1616.256	1	2907.564	-33.77135	5.250885E-007	-0.0188991	8
	1	2	794390.6	2719.73	-1564.371	1	3137.545	-29.90723	1.381584E-006	-0.0197705	8
	2	2	630984.4	2994.363	-1466.401	1	3334.147	-26.09194	1.421411E-006	-0.0198611	8
	3	2	501234.4	3236.463	-1341.173	1	3503.346	-22.50886	-1.235351E-006	-0.0193815	8
	4	3	398109.4	3445.1	-1231.78	1	3658.688	-19.67428	1.383041E-006	-0.0199756	8
	5	3	316265.6	3610.127	-1082.102	1	3768.815	-16.6856	1.442498E-006	-0.0199713	8
	6	3	251203.1	3754.552	-982.146	1	3880.885	-14.65941	2.51254E-007	-0.0197802	8
	7	4	199546.9	3846.875	-877.4938	1	3945.686	-12.84964	-1.048965E-006	-0.0195782	8
	8	4	158578.1	3940.266	-781.2403	1	4016.968	-11.21464	7.370136E-007	-0.0198742	8
	9	4	125953.1	4027.034	-696.5371	1	4086.828	-9.81309	6.997141E-007	-0.0211632	7
	10	4	100078.1	4079.248	-636.5042	1	4128.608	-8.868616	5.984023E-008	-0.0198419	7
	11	5	79453.13	4135.054	-610.2837	1	4179.846	-8.395554	-2.349457E-008	-0.0197027	7
	12	5	63140.62	4188.875	-597.8033	1	4231.317	-8.12196	1.679202E-009	-0.0197737	7
	13	5	50203.12	4238.83	-599.152	1	4280.965	-8.04537	-3.938263E-008	-0.019678	7
	14	6	39890.62	4289.285	-617.179	1	4333.459	-8.188007	-2.446812E-008	-0.0197254	7
	15	6	31640.63	4342.77	-650.542	1	4391.225	-8.519494	-1.18633E-008	-0.0197475	7
	16	6	25171.88	4399.452	-700.4116	1	4454.857	-9.045819	-2.20803E-008	-0.0196606	7
	17	7	20015.62	4461.937	-769.4649	1	4527.798	-9.78447	-1.380577E-008	-0.0197507	7
	18	7	15890.62	4529.526	-854.8796	1	4609.493	-10.68799	-1.293686E-008	-0.0196479	7
	19	7	12609.37	4605.58	-963.082	1	4705.199	-11.81103	-2.761854E-008	-0.0197206	7
	20	8	10078.13	4690.158	-1089.583	1	4815.057	-13.07855	-2.411964E-008	-0.0197288	7
	21	8	8015.625	4790.173	-1245.45	1	4949.435	-14.57428	-1.274777E-008	-0.0196502	7
	22	8	6328.125	4904.857	-1442.752	1	5112.646	-16.39112	9.208527E-008	-0.0198771	7
	23	8	5015.625	5036.53	-1667.543	1	5305.406	-18.31918	-2.258973E-008	-0.0197309	7
	24	9	3984.375	5187.949	-1939.296	1	5538.563	-20.49614	-4.576333E-009	-0.0197285	7
	25	9	3170.956	5360.521	-2250.354	1	5813.714	-22.77273	-2.112546E-008	-0.019672	7
	26	9	2527.573	5559.696	-2614.929	1	6143.946	-25.18932	1.732509E-008	-0.0198168	7
	27	10	1976.103	5811.555	-3086.354	1	6580.254	-27.97152	-2.806969E-009	-0.019726	7
	28	10	1577.524	6077.89	-3599.419	1	7063.75	-30.63466	5.796974E-008	-0.0198526	7
	29	10	1265.625	6390.57	-4179.795	1	7636.104	-33.18696	4.681181E-008	-0.0197606	7
	30	11	998.264	6777.257	-4914.24	1	8371.438	-35.94615	-3.760239E-008	-0.0196964	7
	31	11	796.875	7207.228	-5727.058	1	9205.613	-38.4716	2.427311E-008	-0.0197727	7
	32	11	627.7902	7735.846	-6740.526	1	10260.51	-41.06683	1.084371E-008	-0.0198515	6
	33	12	505.5147	8282.244	-7817.663	1	11389.09	-43.34712	2.767855E-009	-0.019813	6
	34	12	397.9953	8973.824	-9214.804	1	12862.43	-45.75906	1.698168E-009	-0.0197413	6
	35	12	315.5048	9736.84	-10819.09	1	14555.37	-48.01379	1.887287E-009	-0.0197417	6
	36	12	252.4038	10565.47	-12644.2	1	16477.4	-50.11792	1.867318E-009	-0.0197446	6
	37	13	198.6229	11565.2	-14983.12	1	18927.43	-52.3361	1.94701E-009	-0.0197424	6
	38	13	158.3615	12626.97	-17638.39	1	21692.24	-54.40188	1.608384E-009	-0.0197467	6
	39	13	125.558	13862.55	-20931.81	1	25106	-56.48461	1.793846E-009	-0.0197484	6
	40	14	100.4464	15226.6	-24763.96	1	29070.65	-58.41391	1.626022E-009	-0.0197467	6
	41	14	79.00281	16917.72	-29812.52	1	34278.21	-60.42638	1.479575E-009	-0.0197484	6
	42	14	63.3446	18658.95	-35533	1	40134.15	-62.29532	1.485517E-009	-0.0197496	6
	43	15	49.86702	21098.13	-42907.55	1	47814.11	-63.81613	1.400279E-009	-0.0197525	6
	44	15	39.72458	24063.09	-51542.89	1	56883.23	-64.97422	1.59367E-009	-0.0197481	6
	45	15	31.6723	27663.43	-61963.3	1	67858.05	-65.94169	1.473565E-009	-0.0197508	6
	46	16	24.93351	32713.54	-75204.52	1	82011.56	-66.49123	2.160418E-009	-0.0197525	6
	47	16	19.86229	38881.13	-90396.36	1	98403.5	-66.72657	3.145978E-009	-0.0197513	6
	48	16	15.83615	46779.47	-108045.5	1	117737.6	-66.58927	1.001702E-009	-0.0197537	5
	49	17	12.40079	58659.78	-130457.9	1	143039.3	-65.78915	8.01871E-010	-0.0197564	5
	50	17	9.93114	71440.2	-153879	1	169653.9	-65.09634	1.587696E-009	-0.0197588	5
	51	17	7.944915	89230.61	-180983.3	1	201784.7	-63.75521	1.423573E-009	-0.019751	5
	52	18	6.317385	109257.8	-211081	1	237681.4	-62.63344	1.466314E-009	-0.0197645	5
	53	18	5.008013	135773.6	-245413.8	1	280468.1	-61.04672	1.386629E-009	-0.0197544	5
	54	19	3.945707	168447.5	-282682.1	1	329064.9	-59.2097	9.737954E-010	-0.0197483	5
	55	20	3.158693	202703.2	-321152.8	1	379773.2	-57.74096	8.146046E-010	-0.0197649	5
	56	22	2.504006	244037.1	-363237.8	1	437602.3	-56.10528	1.05362E-009	-0.0197659	5
	57	23	1.998082	287531.2	-407891.4	1	499048.7	-54.81919	1.158972E-009	-0.0197273	5
	58	25	1.584686	334745.8	-456547.8	1	566118.9	-53.75072	9.747877E-010	-0.0197631	5
	59	27	1.266892	384841.5	-509833.4	1	638774.7	-52.95312	8.484961E-010	-0.0197881	5
	60	29	0.999041	440275.6	-576218.4	1	725169.1	-52.61736	7.658E-010	-0.0197954	5
