EXPLAIN
TAG	EISPOT
TITLE	LABEL	Potentiostatic EIS	Test &Identifier
DATE	LABEL	3/17/2020	Date
TIME	LABEL	16:51:39	Time
NOTES	NOTES	1	&Notes...
	
PSTAT	PSTAT	REF600-11020	Potentiostat
VDC	POTEN	0.00000E+000	T	DC &Voltage (V)
FREQINIT	QUANT	1.00000E+006	Initial Fre&q. (Hz)
FREQFINAL	QUANT	1.00000E+000	Final Fre&q. (Hz)
PTSPERDEC	QUANT	1.00000E+001	Points/&decade
VAC	QUANT	2.50000E+001	AC &Voltage (mV rms)
AREA	QUANT	4.00000E-004	&Area (cm^2)
CONDIT	TWOPARAM	F	5.00000E+000	0.00000E+000	Conditionin&g	Time(s)	E(V)
DELAY	TWOPARAM	T	3.00000E+000	0.00000E+000	Init. De&lay	Time(s)	Stab.(mV/s)
SPEED	SELECTOR	0	&Optimize for:
ZGUESS	QUANT	5.00000E+003	E&stimated Z (ohms)
OCVCURVE	TABLE	12
	Pt	T	Vf	Vm	Ach	Over
	#	s	V vs. Ref.	V	V	bits
	0	0.258333	6.31626E-002	6.31626E-002	5.68397E-004	...........
	1	0.516667	6.31627E-002	6.31676E-002	5.74130E-004	...........
	2	0.775	6.31632E-002	6.31704E-002	5.74897E-004	...........
	3	1.03333	6.31647E-002	6.31727E-002	5.73597E-004	...........
	4	1.29167	6.31669E-002	6.31707E-002	5.67630E-004	...........
	5	1.55	6.31691E-002	6.31735E-002	5.72597E-004	...........
	6	1.80833	6.31708E-002	6.31734E-002	5.66163E-004	...........
	7	2.06667	6.31719E-002	6.31727E-002	5.68997E-004	...........
	8	2.325	6.31726E-002	6.31710E-002	5.71063E-004	...........
	9	2.58333	6.31727E-002	6.31694E-002	5.71397E-004	...........
	10	2.84167	6.31722E-002	6.31702E-002	5.69963E-004	...........
	11	3.1	6.31714E-002	6.31726E-002	5.71130E-004	...........
EOC	QUANT	0.0631714	Open Circuit (V)
PSTATMODEL	IQUANT	4	Pstat Model
PSTATSECTION	LABEL	REF600-11020	Pstat Section
PSTATSERIALNO	LABEL	11020	Pstat Serial Number
CTRLMODE	IQUANT	1	Control Mode
IESTAB	IQUANT	0	I/E Stability
CASPEED	IQUANT	1	Control Amp Speed
CONVENTION	IQUANT	1	Current Convention
ICHRANGE	IQUANT	2	Ich Range
ICHRANGEMODE	TOGGLE	F	Ich Auto Range
ICHOFFSETENABLE	TOGGLE	T	Ich Offset Enable
ICHOFFSET	QUANT	0	Ich Offset (V)
ICHFILTER	IQUANT	3	Ich Filter
VCHRANGE	IQUANT	2	Vch Range
VCHRANGEMODE	TOGGLE	F	Vch Auto Range
VCHOFFSETENABLE	TOGGLE	T	Vch Offset Enable
VCHOFFSET	QUANT	0	Vch Offset (V)
VCHFILTER	IQUANT	3	Vch Filter
ACHRANGE	IQUANT	2	Ach Range
ACHOFFSETENABLE	TOGGLE	F	Ach Offset Enable
ACHOFFSET	QUANT	0	Ach Offset (V)
ACHFILTER	IQUANT	3	Ach Filter
IERANGELOWERLIMIT	IQUANT	1	I/E Range Lower Limit
IERANGEMODE	TOGGLE	F	I/E AutoRange
IERANGE	IQUANT	7	I/E Range
POSFEEDENABLE	TOGGLE	F	Positive Feedback IR Comp
POSFEEDRESISTANCE	QUANT	0	Positive Feedback Resistance (ohm)
ACHSELECT	IQUANT	0	Ach Select
CABLEID	IQUANT	14	Cable ID
DCCALDATE	LABEL	2/27/2020	DC Calibration Date
ACCALDATE	LABEL	2/27/2020	AC Calibration Date
THERMOSELECT	IQUANT	1	Thermo Select
FRAMEWORKVERSION	QUANT	6.33	Framework Version
INSTRUMENTVERSION	LABEL	3.50	Instrument Version
ZCURVE	TABLE
	Pt	Time	Freq	Zreal	Zimag	Zsig	Zmod	Zphz	Idc	Vdc	IERange
	#	s	Hz	ohm	ohm	V	ohm	°	A	V	#
	0	1	1000078	1910.724	-2105.202	1	2843.016	-47.77248	3.300308E-008	0.0656555	8
	1	1	794390.6	2312.657	-2261.121	1	3234.354	-44.35443	5.346195E-008	0.0653237	8
	2	1	630984.4	2749.475	-2366.943	1	3627.951	-40.7242	7.11467E-008	0.0651568	8
	3	2	501234.4	3205.071	-2423.077	1	4017.933	-37.08978	3.876292E-008	0.0650499	8
	4	2	398109.4	3662.274	-2418.195	1	4388.612	-33.43673	2.602674E-008	0.0649821	8
	5	2	316265.6	4099.061	-2360.251	1	4730.02	-29.93346	4.300436E-008	0.0649548	8
	6	3	251203.1	4513.384	-2262.066	1	5048.522	-26.6196	2.449949E-008	0.0649401	8
	7	3	199546.9	4880.94	-2127.121	1	5324.305	-23.54765	3.175214E-008	0.064931	8
	8	3	158578.1	5211.974	-1983.163	1	5576.523	-20.83188	7.548591E-008	0.0649079	8
	9	4	125953.1	5555.133	-1760.407	1	5827.395	-17.58327	2.264752E-009	0.0648842	7
	10	4	100078.1	5778.744	-1619.89	1	6001.494	-15.65918	6.84008E-010	0.0648632	7
	11	4	79453.13	5991.206	-1499.613	1	6176.033	-14.05255	1.419674E-009	0.0648557	7
	12	4	63140.62	6173.857	-1389.285	1	6328.24	-12.68186	8.955331E-010	0.0648496	7
	13	5	50203.12	6335.031	-1295.08	1	6466.054	-11.55386	6.442846E-010	0.0648464	7
	14	5	39890.62	6477.39	-1219.951	1	6591.271	-10.66614	1.109175E-009	0.0648502	7
	15	5	31640.63	6605.607	-1164.951	1	6707.544	-10.00171	6.591361E-010	0.0648412	7
	16	6	25171.88	6724.242	-1133.377	1	6819.088	-9.56733	1.959306E-009	0.0648351	7
	17	6	20015.62	6835.355	-1124.54	1	6927.241	-9.342505	1.567368E-009	0.0648487	7
	18	6	15890.62	6945.607	-1139.183	1	7038.408	-9.314429	1.365314E-009	0.0648375	7
	19	7	12609.37	7055.862	-1177.678	1	7153.468	-9.47576	1.299987E-009	0.0648423	7
	20	7	10078.13	7168.738	-1240.785	1	7275.325	-9.81963	2.530304E-009	0.0648494	7
	21	7	8015.625	7289.941	-1329.623	1	7410.205	-10.33664	1.565156E-009	0.064845	7
	22	8	6328.125	7423.983	-1450.958	1	7564.444	-11.0586	1.938655E-009	0.0648426	7
	23	8	5015.625	7568.878	-1602.115	1	7736.581	-11.95147	2.340899E-009	0.0648411	7
	24	8	3984.375	7723.353	-1781.755	1	7926.211	-12.99069	1.592845E-009	0.064834	7
	25	9	3170.956	7892.58	-1997.766	1	8141.491	-14.20434	1.954605E-009	0.0648331	7
	26	9	2527.573	8075.133	-2252.208	1	8383.329	-15.58414	2.002431E-009	0.0648373	7
	27	9	1976.103	8288.476	-2583.646	1	8681.823	-17.31306	1.661892E-009	0.064829	7
	28	10	1577.524	8501.689	-2952.205	1	8999.68	-19.14952	2.505774E-009	0.0648315	7
	29	10	1265.625	8728.074	-3369.836	1	9356.019	-21.11116	-4.772653E-010	0.0648917	6
	30	10	998.264	8983.568	-3937.916	1	9808.76	-23.67008	-2.005926E-010	0.0648909	6
	31	11	796.875	9246.76	-4595.437	1	10325.73	-26.42637	-6.258727E-010	0.064885	6
	32	11	627.7902	9555.64	-5451.767	1	11001.46	-29.70599	-8.513706E-011	0.0648897	6
	33	11	505.5147	9873.17	-6401.915	1	11767.08	-32.95998	-5.886821E-010	0.0648884	6
	34	11	397.9953	10276.72	-7689.505	1	12835.09	-36.80548	4.925583E-010	0.0649059	6
	35	12	315.5048	10736.49	-9225.327	1	14155.52	-40.67082	5.003904E-010	0.0648986	6
	36	12	252.4038	11264.08	-11027.15	1	15763.17	-44.39104	4.860254E-010	0.0648955	6
	37	12	198.6229	11951.81	-13389.39	1	17947.75	-48.24686	4.311369E-010	0.0648961	6
	38	13	158.3615	12752.91	-16112.13	1	20548.42	-51.63802	3.736352E-010	0.0648926	6
	39	13	125.558	13766.41	-19490.51	1	23861.98	-54.76592	4.807441E-010	0.0648883	6
	40	13	100.4464	14972	-23402.67	1	27782.12	-57.39067	4.053664E-010	0.0648903	6
	41	14	79.00281	16582.38	-28476.46	1	32952.75	-59.78694	4.621012E-010	0.0648852	6
	42	14	63.3446	18408.67	-34079.46	1	38733.56	-61.62346	3.783878E-010	0.06489	6
	43	14	49.86702	20829.52	-41357.41	1	46306.64	-63.26804	8.483061E-011	0.0648887	6
	44	15	39.72458	23647.14	-49681.79	1	55022.43	-64.54687	4.036071E-010	0.0648924	6
	45	15	31.6723	27074.01	-59633.79	1	65491.91	-65.58174	5.761174E-010	0.0648945	6
	46	16	24.93351	31557.68	-72325.95	1	78910.9	-66.42712	-1.092794E-010	0.0648904	6
	47	16	19.86229	36914.79	-86868.24	1	94386.41	-66.97686	-3.562953E-010	0.0648882	6
	48	16	15.83615	43688.13	-104152.5	1	112944.2	-67.24375	2.97096E-010	0.0648976	5
	49	16	12.40079	53303.65	-126550.5	1	137318.3	-67.15896	-8.506102E-010	0.0649012	5
	50	17	9.93114	64434.91	-150400.3	1	163621.8	-66.80861	-8.0553E-010	0.0648967	5
	51	17	7.944915	78804.55	-178177.7	1	194826.7	-66.14111	4.763766E-010	0.0648982	5
	52	17	6.317385	97306.2	-210991	1	232348.2	-65.24149	-1.640216E-010	0.0649089	5
	53	18	5.008013	120837.9	-248666.4	1	276472	-64.08286	-3.929542E-010	0.0648946	5
	54	19	3.945707	150863.1	-291758.4	1	328455	-62.65732	-3.302958E-011	0.0648959	5
	55	20	3.158693	183835.4	-336662.4	1	383584.5	-61.36313	-2.355085E-010	0.0648824	5
	56	21	2.504006	224648.5	-387574	1	447973.8	-59.90225	8.903292E-011	0.0648824	5
	57	22	1.998082	268992.3	-442556.2	1	517892.7	-58.70813	1.615523E-010	0.0649114	5
	58	24	1.584686	321823.3	-503544.8	1	597601.5	-57.41672	1.594702E-011	0.0648642	5
	59	26	1.266892	379556.8	-571209.3	1	685815.9	-56.39678	-1.899558E-011	0.0648425	5
	60	28	0.999041	446590.9	-652425.8	1	790634.5	-55.60804	-5.569112E-011	0.0648578	5
