EXPLAIN
TAG	EISPOT
TITLE	LABEL	Potentiostatic EIS	Test &Identifier
DATE	LABEL	2/11/2020	Date
TIME	LABEL	12:13:23	Time
NOTES	NOTES	6	&Notes...
	
	
	
	
	
	
PSTAT	PSTAT	REF600-11020	Potentiostat
VDC	POTEN	0.00000E+000	T	DC &Voltage (V)
FREQINIT	QUANT	1.00000E+006	Initial Fre&q. (Hz)
FREQFINAL	QUANT	1.00000E+000	Final Fre&q. (Hz)
PTSPERDEC	QUANT	1.00000E+001	Points/&decade
VAC	QUANT	2.50000E+001	AC &Voltage (mV rms)
AREA	QUANT	4.00000E-005	&Area (cm^2)
CONDIT	TWOPARAM	F	5.00000E+000	0.00000E+000	Conditionin&g	Time(s)	E(V)
DELAY	TWOPARAM	F	5.00000E+000	0.00000E+000	Init. De&lay	Time(s)	Stab.(mV/s)
SPEED	SELECTOR	0	&Optimize for:
ZGUESS	QUANT	1.00000E+003	E&stimated Z (ohms)
OCVCURVE	TABLE	39
	Pt	T	Vf	Vm	Ach	Over
	#	s	V vs. Ref.	V	V	bits
	0	0.258333	-4.08450E-002	-4.08450E-002	5.64671E-004	...........
	1	0.516667	-4.08476E-002	-4.09826E-002	5.69871E-004	...........
	2	0.775	-4.08637E-002	-4.11095E-002	5.70471E-004	...........
	3	1.03333	-4.09085E-002	-4.12091E-002	5.70071E-004	...........
	4	1.29167	-4.09865E-002	-4.13073E-002	5.72771E-004	...........
	5	1.55	-4.10889E-002	-4.15530E-002	5.71804E-004	...........
	6	1.80833	-4.12170E-002	-4.20357E-002	5.70504E-004	...........
	7	2.06667	-4.13972E-002	-4.24083E-002	5.72338E-004	...........
	8	2.325	-4.16523E-002	-4.25663E-002	5.70838E-004	...........
	9	2.58333	-4.19508E-002	-4.23157E-002	5.67438E-004	...........
	10	2.84167	-4.22040E-002	-4.22170E-002	5.71304E-004	...........
	11	3.1	-4.23348E-002	-4.22060E-002	5.69838E-004	...........
	12	3.35833	-4.23451E-002	-4.22459E-002	5.69938E-004	...........
	13	3.61667	-4.22985E-002	-4.21814E-002	5.73271E-004	...........
	14	3.875	-4.22509E-002	-4.21899E-002	5.73937E-004	...........
	15	4.13333	-4.22205E-002	-4.22324E-002	5.70438E-004	...........
	16	4.39167	-4.22064E-002	-4.22123E-002	5.74304E-004	...........
	17	4.65	-4.22042E-002	-4.21767E-002	5.67704E-004	...........
	18	4.90833	-4.22065E-002	-4.22639E-002	5.61971E-004	...........
	19	5.16667	-4.22112E-002	-4.22932E-002	5.67904E-004	...........
	20	5.425	-4.22242E-002	-4.22822E-002	5.67104E-004	...........
	21	5.68333	-4.22462E-002	-4.23129E-002	5.61238E-004	...........
	22	5.94167	-4.22694E-002	-4.22987E-002	5.66604E-004	...........
	23	6.2	-4.22875E-002	-4.23216E-002	5.68304E-004	...........
	24	6.45833	-4.23001E-002	-4.23408E-002	5.71238E-004	...........
	25	6.71667	-4.23111E-002	-4.23636E-002	5.68771E-004	...........
	26	6.975	-4.23236E-002	-4.23456E-002	5.68404E-004	...........
	27	7.23333	-4.23360E-002	-4.23238E-002	5.70338E-004	...........
	28	7.49167	-4.23430E-002	-4.23465E-002	5.68471E-004	...........
	29	7.75	-4.23449E-002	-4.24174E-002	5.69304E-004	...........
	30	8.00833	-4.23510E-002	-4.24407E-002	5.67004E-004	...........
	31	8.26667	-4.23694E-002	-4.24502E-002	5.70338E-004	...........
	32	8.525	-4.23963E-002	-4.24253E-002	5.73604E-004	...........
	33	8.78333	-4.24203E-002	-4.24531E-002	5.67438E-004	...........
	34	9.04167	-4.24354E-002	-4.24842E-002	5.71471E-004	...........
	35	9.3	-4.24454E-002	-4.24519E-002	5.69504E-004	...........
	36	9.5583	-4.24547E-002	-4.24985E-002	5.67938E-004	...........
	37	9.8167	-4.24646E-002	-4.25146E-002	5.70038E-004	...........
	38	10.075	-4.24777E-002	-4.25863E-002	5.71238E-004	...........
EOC	QUANT	-0.0424777	Open Circuit (V)
PSTATMODEL	IQUANT	4	Pstat Model
PSTATSECTION	LABEL	REF600-11020	Pstat Section
PSTATSERIALNO	LABEL	11020	Pstat Serial Number
CTRLMODE	IQUANT	1	Control Mode
IESTAB	IQUANT	0	I/E Stability
CASPEED	IQUANT	1	Control Amp Speed
CONVENTION	IQUANT	1	Current Convention
ICHRANGE	IQUANT	2	Ich Range
ICHRANGEMODE	TOGGLE	F	Ich Auto Range
ICHOFFSETENABLE	TOGGLE	T	Ich Offset Enable
ICHOFFSET	QUANT	0	Ich Offset (V)
ICHFILTER	IQUANT	3	Ich Filter
VCHRANGE	IQUANT	2	Vch Range
VCHRANGEMODE	TOGGLE	F	Vch Auto Range
VCHOFFSETENABLE	TOGGLE	T	Vch Offset Enable
VCHOFFSET	QUANT	0	Vch Offset (V)
VCHFILTER	IQUANT	3	Vch Filter
ACHRANGE	IQUANT	2	Ach Range
ACHOFFSETENABLE	TOGGLE	F	Ach Offset Enable
ACHOFFSET	QUANT	0	Ach Offset (V)
ACHFILTER	IQUANT	3	Ach Filter
IERANGELOWERLIMIT	IQUANT	1	I/E Range Lower Limit
IERANGEMODE	TOGGLE	F	I/E AutoRange
IERANGE	IQUANT	7	I/E Range
POSFEEDENABLE	TOGGLE	F	Positive Feedback IR Comp
POSFEEDRESISTANCE	QUANT	0	Positive Feedback Resistance (ohm)
ACHSELECT	IQUANT	0	Ach Select
CABLEID	IQUANT	14	Cable ID
DCCALDATE	LABEL	1/27/2020	DC Calibration Date
ACCALDATE	LABEL	1/27/2020	AC Calibration Date
THERMOSELECT	IQUANT	1	Thermo Select
FRAMEWORKVERSION	QUANT	6.33	Framework Version
INSTRUMENTVERSION	LABEL	3.50	Instrument Version
ZCURVE	TABLE
	Pt	Time	Freq	Zreal	Zimag	Zsig	Zmod	Zphz	Idc	Vdc	IERange
	#	s	Hz	ohm	ohm	V	ohm	°	A	V	#
	0	1	1000078	2174.549	-1922.203	1	2902.331	-41.47522	-8.741615E-007	-0.0405981	8
	1	1	794390.6	2583.94	-1943.786	1	3233.427	-36.95255	3.5098E-006	-0.0412509	8
	2	1	630984.4	2966.646	-1875.877	1	3509.971	-32.30609	1.204249E-006	-0.0411198	8
	3	2	501234.4	3341.926	-1733.515	1	3764.777	-27.41655	-1.605228E-006	-0.0403454	8
	4	2	398109.4	3634.583	-1575.127	1	3961.214	-23.43057	-1.398195E-006	-0.04069	8
	5	2	316265.6	3886.186	-1379.579	1	4123.794	-19.54464	4.212814E-007	-0.0409472	8
	6	3	251203.1	4079.516	-1212.271	1	4255.826	-16.54987	-1.151445E-006	-0.0407526	8
	7	3	199546.9	4227.818	-1047.368	1	4355.62	-13.91391	2.432907E-006	-0.0413973	8
	8	3	158578.1	4282.819	-925.7303	1	4381.725	-12.19683	1.661815E-006	-0.0412238	8
	9	4	125953.1	4419.363	-751.0764	1	4482.731	-9.64533	-1.535817E-007	-0.0413229	7
	10	4	100078.1	4476.166	-659.4523	1	4524.482	-8.380828	1.337846E-007	-0.0411405	7
	11	4	79453.13	4525.523	-598.0225	1	4564.865	-7.527701	2.469316E-008	-0.0410493	7
	12	4	63140.62	4566.905	-554.5941	1	4600.457	-6.923959	-2.294868E-009	-0.0409271	7
	13	5	50203.12	4606.158	-527.9459	1	4636.315	-6.538561	1.328704E-007	-0.0411517	7
	14	5	39890.62	4644.197	-518.522	1	4673.054	-6.370658	2.581834E-008	-0.0410511	7
	15	5	31640.63	4682.135	-524.6527	1	4711.438	-6.39356	1.773484E-010	-0.0410279	7
	16	6	25171.88	4723.325	-544.6749	1	4754.626	-6.578064	-6.571277E-010	-0.0409295	7
	17	6	20015.62	4766.857	-578.7595	1	4801.863	-6.922583	-4.029223E-008	-0.0409115	7
	18	6	15890.62	4815.163	-631.0734	1	4856.341	-7.466607	-5.510205E-008	-0.0408584	7
	19	7	12609.37	4864.567	-699.1395	1	4914.551	-8.178591	-5.797278E-008	-0.0408857	7
	20	7	10078.13	4925.457	-780.3245	1	4986.886	-9.002369	3.120658E-008	-0.0409974	7
	21	7	8015.625	4981.747	-891.2631	1	5060.845	-10.14323	1.33769E-007	-0.0411631	7
	22	8	6328.125	5052.191	-1025.839	1	5155.287	-11.47778	-4.078918E-008	-0.0409227	7
	23	8	5015.625	5126.787	-1189.53	1	5262.977	-13.06278	-3.135663E-008	-0.0408597	7
	24	8	3984.375	5210.341	-1390.422	1	5392.673	-14.94166	-3.959526E-008	-0.040924	7
	25	9	3170.956	5301.599	-1631.087	1	5546.836	-17.10101	3.246456E-008	-0.0410026	7
	26	9	2527.573	5404.936	-1922.881	1	5736.793	-19.58372	3.540311E-009	-0.0410478	7
	27	9	1976.103	5532.533	-2314.194	1	5997.034	-22.69899	3.338813E-008	-0.0410015	7
	28	10	1577.524	5664.738	-2751.646	1	6297.683	-25.90816	-5.457378E-008	-0.0408678	7
	29	10	1265.625	5816.995	-3268.862	1	6672.548	-29.33382	-3.092478E-008	-0.0408681	7
	30	10	998.264	6012.216	-3948.519	1	7192.881	-33.29488	4.875546E-008	-0.0411235	7
	31	11	796.875	6225.797	-4742.153	1	7826.146	-37.29631	7.905803E-008	-0.0411242	7
	32	11	627.7902	6498.954	-5758.803	1	8683.329	-41.54455	-3.998667E-008	-0.0409571	7
	33	11	505.5147	6791.554	-6888.015	1	9673.16	-45.40401	-5.960107E-009	-0.0409448	7
	34	11	397.9953	7180.996	-8402.077	1	11052.67	-49.48051	7.126881E-010	-0.0409696	6
	35	12	315.5048	7639.509	-10204.25	1	12747.11	-53.17928	1.536134E-009	-0.0409698	6
	36	12	252.4038	8173.479	-12310.34	1	14776.68	-56.41774	1.052717E-009	-0.040973	6
	37	12	198.6229	8875.381	-15062.13	1	17482.56	-59.49121	1.092947E-009	-0.0409742	6
	38	13	158.3615	9698.8	-18242.63	1	20660.6	-62.00239	9.025264E-010	-0.0409775	6
	39	13	125.558	10728.28	-22188.94	1	24646.4	-64.19638	9.8269E-010	-0.0409739	6
	40	13	100.4464	12007.22	-26804.11	1	29370.63	-65.86944	1.155463E-009	-0.0409779	6
	41	14	79.00281	13639.89	-32891.98	1	35607.99	-67.47684	6.142435E-010	-0.0409772	6
	42	14	63.3446	15126.24	-39331.28	1	42139.68	-68.96398	7.229047E-010	-0.0409797	6
	43	14	49.86702	17806.3	-48097.79	1	51288.02	-69.68492	1.266803E-009	-0.0409796	6
	44	15	39.72458	21132.15	-58331.81	1	62041.66	-70.08582	1.227148E-009	-0.0409793	6
	45	15	31.6723	25209.27	-70587.96	1	74954.44	-70.34669	2.997098E-010	-0.0409804	6
	46	15	24.93351	30317.89	-85796.07	1	90995.27	-70.53804	1.026936E-009	-0.0409803	6
	47	16	19.86229	36591.68	-103350.6	1	109637.2	-70.5033	6.546037E-010	-0.0409764	5
	48	16	15.83615	46096.59	-123853.6	1	132153.7	-69.58543	1.867774E-009	-0.0409801	5
	49	16	12.40079	55437.46	-150377.3	1	160270.5	-69.7633	-9.679543E-010	-0.0409787	5
	50	17	9.93114	69975.73	-179735.7	1	192877	-68.72776	-1.557948E-010	-0.0409748	5
	51	17	7.944915	87266.77	-213181.6	1	230351.7	-67.73806	5.811992E-010	-0.0409882	5
	52	18	6.317385	109118.6	-252612.3	1	275172.4	-66.63754	6.139824E-010	-0.0409959	5
	53	19	5.008013	137911.2	-298301.6	1	328638.7	-65.18789	3.93545E-010	-0.040984	5
	54	20	3.945707	172909.3	-350457.1	1	390791.2	-63.73909	3.230635E-010	-0.0409828	5
	55	21	3.158693	214161.9	-404307.6	1	457525.9	-62.08982	2.895893E-011	-0.040989	5
	56	23	2.504006	264117.7	-465439.7	1	535156.3	-60.42689	1.697193E-010	-0.0409906	5
	57	24	1.998082	319834.6	-531474.9	1	620290.1	-58.96103	2.849134E-010	-0.0409516	5
	58	26	1.584686	385195.5	-603666	1	716092.3	-57.45831	1.614905E-010	-0.0409923	5
	59	28	1.266892	458984.5	-682160.6	1	822198.2	-56.06578	1.011286E-010	-0.0410242	5
	60	30	0.999041	545754.3	-775294.6	1	948118.9	-54.85708	5.623687E-011	-0.0410246	5
