EXPLAIN
TAG	EISPOT
TITLE	LABEL	Potentiostatic EIS	Test &Identifier
DATE	LABEL	3/20/2020	Date
TIME	LABEL	14:46:47	Time
NOTES	NOTES	1	&Notes...
	
PSTAT	PSTAT	REF600-11020	Potentiostat
VDC	POTEN	0.00000E+000	T	DC &Voltage (V)
FREQINIT	QUANT	1.00000E+006	Initial Fre&q. (Hz)
FREQFINAL	QUANT	1.00000E+000	Final Fre&q. (Hz)
PTSPERDEC	QUANT	1.00000E+001	Points/&decade
VAC	QUANT	2.50000E+001	AC &Voltage (mV rms)
AREA	QUANT	4.00000E-004	&Area (cm^2)
CONDIT	TWOPARAM	F	5.00000E+000	0.00000E+000	Conditionin&g	Time(s)	E(V)
DELAY	TWOPARAM	T	3.00000E+000	0.00000E+000	Init. De&lay	Time(s)	Stab.(mV/s)
SPEED	SELECTOR	0	&Optimize for:
ZGUESS	QUANT	1.00000E+003	E&stimated Z (ohms)
OCVCURVE	TABLE	12
	Pt	T	Vf	Vm	Ach	Over
	#	s	V vs. Ref.	V	V	bits
	0	0.258333	2.18758E-003	2.18758E-003	6.06130E-004	...........
	1	0.516667	2.18948E-003	2.28741E-003	5.99430E-004	...........
	2	0.775	2.20123E-003	2.38377E-003	5.96363E-004	...........
	3	1.03333	2.23452E-003	2.47425E-003	6.02930E-004	...........
	4	1.29167	2.29416E-003	2.56201E-003	6.07596E-004	...........
	5	1.55	2.37333E-003	2.63709E-003	6.03030E-004	...........
	6	1.80833	2.46032E-003	2.70688E-003	6.00163E-004	...........
	7	2.06667	2.54583E-003	2.77582E-003	6.04530E-004	...........
	8	2.325	2.62564E-003	2.84143E-003	6.02930E-004	...........
	9	2.58333	2.69954E-003	2.90720E-003	6.03863E-004	...........
	10	2.84167	2.76908E-003	2.96812E-003	6.04063E-004	...........
	11	3.1	2.83581E-003	3.03593E-003	6.06163E-004	...........
EOC	QUANT	0.0028358	Open Circuit (V)
PSTATMODEL	IQUANT	4	Pstat Model
PSTATSECTION	LABEL	REF600-11020	Pstat Section
PSTATSERIALNO	LABEL	11020	Pstat Serial Number
CTRLMODE	IQUANT	1	Control Mode
IESTAB	IQUANT	0	I/E Stability
CASPEED	IQUANT	1	Control Amp Speed
CONVENTION	IQUANT	1	Current Convention
ICHRANGE	IQUANT	2	Ich Range
ICHRANGEMODE	TOGGLE	F	Ich Auto Range
ICHOFFSETENABLE	TOGGLE	T	Ich Offset Enable
ICHOFFSET	QUANT	0	Ich Offset (V)
ICHFILTER	IQUANT	3	Ich Filter
VCHRANGE	IQUANT	2	Vch Range
VCHRANGEMODE	TOGGLE	F	Vch Auto Range
VCHOFFSETENABLE	TOGGLE	T	Vch Offset Enable
VCHOFFSET	QUANT	0	Vch Offset (V)
VCHFILTER	IQUANT	3	Vch Filter
ACHRANGE	IQUANT	2	Ach Range
ACHOFFSETENABLE	TOGGLE	F	Ach Offset Enable
ACHOFFSET	QUANT	0	Ach Offset (V)
ACHFILTER	IQUANT	3	Ach Filter
IERANGELOWERLIMIT	IQUANT	1	I/E Range Lower Limit
IERANGEMODE	TOGGLE	F	I/E AutoRange
IERANGE	IQUANT	6	I/E Range
POSFEEDENABLE	TOGGLE	F	Positive Feedback IR Comp
POSFEEDRESISTANCE	QUANT	0	Positive Feedback Resistance (ohm)
ACHSELECT	IQUANT	0	Ach Select
CABLEID	IQUANT	14	Cable ID
DCCALDATE	LABEL	2/27/2020	DC Calibration Date
ACCALDATE	LABEL	2/27/2020	AC Calibration Date
THERMOSELECT	IQUANT	1	Thermo Select
FRAMEWORKVERSION	QUANT	6.33	Framework Version
INSTRUMENTVERSION	LABEL	3.50	Instrument Version
ZCURVE	TABLE
	Pt	Time	Freq	Zreal	Zimag	Zsig	Zmod	Zphz	Idc	Vdc	IERange
	#	s	Hz	ohm	ohm	V	ohm	°	A	V	#
	0	1	1000078	1953.448	-1989.042	1	2787.875	-45.51728	1.223809E-007	0.0050265	8
	1	2	794390.6	2281.591	-2103.104	1	3103.015	-42.66896	-4.846394E-007	0.0048922	8
	2	2	630984.4	2609.173	-2201.306	1	3413.727	-40.15364	-2.743735E-007	0.0046773	8
	3	2	501234.4	2934.282	-2294.647	1	3724.971	-38.02587	4.01814E-007	0.0044755	8
	4	3	398109.4	3248.833	-2389.799	1	4033.12	-36.33772	-3.408567E-007	0.0045657	8
	5	3	316265.6	3560.226	-2510.635	1	4356.432	-35.1911	-3.277899E-007	0.0045331	8
	6	3	251203.1	3879.926	-2676.696	1	4713.653	-34.60115	7.048311E-007	0.0043145	8
	7	3	199546.9	4222.214	-2864.78	1	5102.358	-34.15696	-3.105228E-007	0.0045215	8
	8	4	158578.1	4604.973	-3099.704	1	5551.03	-33.94533	-1.744665E-007	0.0044834	8
	9	4	125953.1	5088.931	-3315.101	1	6073.477	-33.08158	5.470281E-008	0.0042492	7
	10	4	100078.1	5568.935	-3601.002	1	6631.761	-32.88764	1.682664E-008	0.0043361	7
	11	5	79453.13	6136.465	-3903.476	1	7272.78	-32.46091	-3.958211E-009	0.0043627	7
	12	5	63140.62	6789.718	-4190.488	1	7978.751	-31.68212	1.593541E-008	0.004325	7
	13	5	50203.12	7507.065	-4436.739	1	8720.131	-30.58345	-3.139533E-009	0.0043455	7
	14	6	39890.62	8297.72	-4632.033	1	9503.05	-29.17155	1.442198E-009	0.0043574	7
	15	6	31640.63	9134.81	-4751.334	1	10296.6	-27.48052	2.640791E-009	0.0043562	7
	16	6	25171.88	9977.09	-4781.066	1	11063.49	-25.60395	1.634515E-008	0.0043215	7
	17	7	20015.62	10815.45	-4736.588	1	11807.17	-23.65084	1.646814E-008	0.0043339	7
	18	7	15890.62	11620.21	-4622.251	1	12505.78	-21.69152	4.264134E-009	0.0043496	7
	19	7	12609.37	12431.75	-4337.724	1	13166.79	-19.23505	2.062114E-009	0.0043636	6
	20	8	10078.13	13077	-4144.748	1	13718.12	-17.58598	-1.367861E-009	0.0044073	6
	21	8	8015.625	13662.13	-3941.588	1	14219.35	-16.09309	-3.378441E-011	0.0043796	6
	22	8	6328.125	14187.79	-3744.471	1	14673.6	-14.7845	-1.694226E-010	0.0043835	6
	23	9	5015.625	14648.08	-3588.089	1	15081.14	-13.76375	1.833483E-009	0.0043596	6
	24	9	3984.375	15049.88	-3481.065	1	15447.22	-13.02359	1.915051E-009	0.0043619	6
	25	9	3170.956	15420.63	-3435.106	1	15798.6	-12.55819	-9.801537E-011	0.0043654	6
	26	10	2527.573	15750.79	-3454.306	1	16125.12	-12.3697	-1.407243E-009	0.0043881	6
	27	10	1976.103	16085.78	-3557.695	1	16474.51	-12.47135	4.01262E-010	0.0043921	6
	28	10	1577.524	16402.43	-3736.695	1	16822.68	-12.83372	-7.055867E-010	0.0043813	6
	29	10	1265.625	16707.77	-4005.167	1	17181.12	-13.4805	-1.561325E-009	0.0044056	6
	30	11	998.264	17030.91	-4399.2	1	17589.91	-14.48331	-1.338606E-009	0.00439	6
	31	11	796.875	17376.93	-4896.951	1	18053.75	-15.73824	1.029008E-009	0.0043537	6
	32	11	627.7902	17768.87	-5574.272	1	18622.71	-17.41716	-5.490992E-010	0.00438	6
	33	12	505.5147	18156.27	-6343.87	1	19232.65	-19.25961	-4.613761E-011	0.0043897	6
	34	12	397.9953	18641.84	-7389.328	1	20052.94	-21.62259	-1.012594E-011	0.004405	6
	35	12	315.5048	19186.24	-8641.633	1	21042.56	-24.24718	-5.919173E-011	0.0044021	6
	36	13	252.4038	19786.67	-10105.62	1	22217.92	-27.0547	-1.906101E-010	0.0044004	6
	37	13	198.6229	20548.02	-12019.66	1	23805.32	-30.32569	-5.816887E-011	0.0043971	6
	38	13	158.3615	21408.86	-14221.58	1	25702	-33.59548	-1.639171E-010	0.0043924	6
	39	14	125.558	22460.26	-16953.49	1	28140.44	-37.0463	-2.309526E-010	0.004402	6
	40	14	100.4464	23704.91	-20110.62	1	31086.33	-40.31039	-7.304932E-011	0.0044007	6
	41	14	79.00281	25374.52	-24199.21	1	35063.77	-43.64187	-2.788818E-010	0.0043972	6
	42	15	63.3446	27272.49	-28692.43	1	39585.91	-46.4534	-1.222995E-010	0.0043963	6
	43	15	49.86702	29889.95	-34413.95	1	45582.12	-49.02433	-4.363308E-010	0.0043933	6
	44	15	39.72458	33006.28	-40788.32	1	52470.01	-51.01991	-2.562372E-010	0.004399	6
	45	16	31.6723	36816.26	-48162.86	1	60622.59	-52.60527	-2.775217E-011	0.0043966	6
	46	16	24.93351	41728.04	-57161.14	1	70771.64	-53.87029	-8.438426E-010	0.0044005	6
	47	16	19.86229	47338.52	-67090.88	1	82110.42	-54.79366	-1.962282E-009	0.0043968	6
	48	17	15.83615	54090.11	-78470.35	1	95306.5	-55.42126	9.06286E-010	0.0043967	6
	49	17	12.40079	62834.43	-92505.71	1	111827.9	-55.81372	1.030664E-009	0.0044001	5
	50	17	9.93114	72155.8	-107217.3	1	129236.2	-56.05997	7.574216E-010	0.0044066	5
	51	18	7.944915	83521.52	-124075.6	1	149568	-56.05352	-1.581106E-009	0.0044056	5
	52	18	6.317385	97515.3	-143964.6	1	173882.3	-55.88801	-3.726488E-011	0.0043935	5
	53	19	5.008013	114323.8	-166705.3	1	202140.1	-55.5583	3.516492E-010	0.0044078	5
	54	20	3.945707	135061.6	-192491	1	235147.6	-54.94453	-3.87609E-010	0.0043906	5
	55	21	3.158693	157525.8	-219744.7	1	270374	-54.36485	2.34064E-012	0.004408	5
	56	22	2.504006	184731.2	-250374.2	1	311147.7	-53.57934	-5.769523E-010	0.0044059	5
	57	23	1.998082	214602.7	-283805.6	1	355808.9	-52.90485	-8.14447E-010	0.0043722	5
	58	24	1.584686	249200.7	-320475.3	1	405962.3	-52.13145	-6.081052E-010	0.0044203	5
	59	26	1.266892	287942.6	-360558	1	461425	-51.38903	-5.332401E-010	0.0044335	5
	60	29	0.999041	332685.8	-408470.9	1	526809.6	-50.83834	-4.955542E-010	0.0044323	5
