EXPLAIN
TAG	EISPOT
TITLE	LABEL	Potentiostatic EIS	Test &Identifier
DATE	LABEL	3/19/2020	Date
TIME	LABEL	21:07:01	Time
NOTES	NOTES	1	&Notes...
	
PSTAT	PSTAT	REF600-11020	Potentiostat
VDC	POTEN	0.00000E+000	T	DC &Voltage (V)
FREQINIT	QUANT	1.00000E+006	Initial Fre&q. (Hz)
FREQFINAL	QUANT	1.00000E+000	Final Fre&q. (Hz)
PTSPERDEC	QUANT	1.00000E+001	Points/&decade
VAC	QUANT	2.50000E+001	AC &Voltage (mV rms)
AREA	QUANT	4.00000E-004	&Area (cm^2)
CONDIT	TWOPARAM	F	5.00000E+000	0.00000E+000	Conditionin&g	Time(s)	E(V)
DELAY	TWOPARAM	T	3.00000E+000	0.00000E+000	Init. De&lay	Time(s)	Stab.(mV/s)
SPEED	SELECTOR	0	&Optimize for:
ZGUESS	QUANT	1.00000E+003	E&stimated Z (ohms)
OCVCURVE	TABLE	12
	Pt	T	Vf	Vm	Ach	Over
	#	s	V vs. Ref.	V	V	bits
	0	0.258333	7.72798E-002	7.72798E-002	5.72463E-004	...........
	1	0.516667	7.72790E-002	7.72357E-002	5.73263E-004	...........
	2	0.775	7.72739E-002	7.71980E-002	5.71863E-004	...........
	3	1.03333	7.72596E-002	7.71523E-002	5.79497E-004	...........
	4	1.29167	7.72334E-002	7.70988E-002	5.80830E-004	...........
	5	1.55	7.71969E-002	7.70558E-002	5.73830E-004	...........
	6	1.80833	7.71534E-002	7.70069E-002	5.72397E-004	...........
	7	2.06667	7.71064E-002	7.69507E-002	5.77730E-004	...........
	8	2.325	7.70577E-002	7.69001E-002	5.78363E-004	...........
	9	2.58333	7.70076E-002	7.68503E-002	5.81297E-004	...........
	10	2.84167	7.69564E-002	7.67947E-002	5.75630E-004	...........
	11	3.1	7.69046E-002	7.67428E-002	5.78263E-004	...........
EOC	QUANT	0.0769046	Open Circuit (V)
PSTATMODEL	IQUANT	4	Pstat Model
PSTATSECTION	LABEL	REF600-11020	Pstat Section
PSTATSERIALNO	LABEL	11020	Pstat Serial Number
CTRLMODE	IQUANT	1	Control Mode
IESTAB	IQUANT	0	I/E Stability
CASPEED	IQUANT	1	Control Amp Speed
CONVENTION	IQUANT	1	Current Convention
ICHRANGE	IQUANT	2	Ich Range
ICHRANGEMODE	TOGGLE	F	Ich Auto Range
ICHOFFSETENABLE	TOGGLE	T	Ich Offset Enable
ICHOFFSET	QUANT	0	Ich Offset (V)
ICHFILTER	IQUANT	3	Ich Filter
VCHRANGE	IQUANT	2	Vch Range
VCHRANGEMODE	TOGGLE	F	Vch Auto Range
VCHOFFSETENABLE	TOGGLE	T	Vch Offset Enable
VCHOFFSET	QUANT	0	Vch Offset (V)
VCHFILTER	IQUANT	3	Vch Filter
ACHRANGE	IQUANT	2	Ach Range
ACHOFFSETENABLE	TOGGLE	F	Ach Offset Enable
ACHOFFSET	QUANT	0	Ach Offset (V)
ACHFILTER	IQUANT	3	Ach Filter
IERANGELOWERLIMIT	IQUANT	1	I/E Range Lower Limit
IERANGEMODE	TOGGLE	F	I/E AutoRange
IERANGE	IQUANT	8	I/E Range
POSFEEDENABLE	TOGGLE	F	Positive Feedback IR Comp
POSFEEDRESISTANCE	QUANT	0	Positive Feedback Resistance (ohm)
ACHSELECT	IQUANT	0	Ach Select
CABLEID	IQUANT	14	Cable ID
DCCALDATE	LABEL	2/27/2020	DC Calibration Date
ACCALDATE	LABEL	2/27/2020	AC Calibration Date
THERMOSELECT	IQUANT	1	Thermo Select
FRAMEWORKVERSION	QUANT	6.33	Framework Version
INSTRUMENTVERSION	LABEL	3.50	Instrument Version
ZCURVE	TABLE
	Pt	Time	Freq	Zreal	Zimag	Zsig	Zmod	Zphz	Idc	Vdc	IERange
	#	s	Hz	ohm	ohm	V	ohm	°	A	V	#
	0	2	1000078	1906.266	-2210.229	1	2918.727	-49.22308	2.124864E-007	0.0794361	8
	1	2	794390.6	2341.358	-2385.236	1	3342.35	-45.53187	-1.503154E-007	0.0791051	8
	2	2	630984.4	2829.424	-2497.364	1	3773.92	-41.43293	1.815446E-007	0.0788909	8
	3	3	501234.4	3334.733	-2528.477	1	4184.931	-37.1703	-4.927347E-008	0.0788294	8
	4	3	398109.4	3839.464	-2485.005	1	4573.481	-32.91203	2.920321E-007	0.0786793	8
	5	3	316265.6	4311.299	-2377.171	1	4923.234	-28.87153	1.512371E-007	0.0786741	8
	6	4	251203.1	4724.366	-2206.728	1	5214.334	-25.03704	5.549423E-008	0.0786761	8
	7	4	199546.9	5084.856	-2004.255	1	5465.602	-21.51246	1.152209E-007	0.0786467	8
	8	4	158578.1	5376.911	-1809.514	1	5673.228	-18.59984	-5.869296E-008	0.0786722	8
	9	4	125953.1	5662.079	-1520.956	1	5862.801	-15.03593	8.020326E-008	0.0784988	7
	10	5	100078.1	5825.016	-1347.684	1	5978.884	-13.02683	-4.076013E-009	0.0786104	7
	11	5	79453.13	5972.813	-1204.142	1	6092.984	-11.39827	-2.063239E-009	0.0786064	7
	12	5	63140.62	6091.473	-1083.666	1	6187.113	-10.08732	-2.076106E-009	0.0785882	7
	13	6	50203.12	6191.401	-988.003	1	6269.737	-9.066621	-6.141806E-012	0.0785888	7
	14	6	39890.62	6276.608	-916.6562	1	6343.191	-8.308921	1.415799E-008	0.078568	7
	15	6	31640.63	6351.182	-869.818	1	6410.467	-7.798356	-3.874495E-010	0.0785705	7
	16	7	25171.88	6418.813	-848.3292	1	6474.629	-7.528745	-2.164545E-009	0.0785858	7
	17	7	20015.62	6483.343	-850.0695	1	6538.834	-7.469778	2.808634E-009	0.0785703	7
	18	7	15890.62	6547.309	-877.0413	1	6605.79	-7.629607	3.056619E-009	0.078569	7
	19	8	12609.37	6612.073	-929.1628	1	6677.04	-7.999121	7.313292E-009	0.0785603	7
	20	8	10078.13	6677.443	-1007.985	1	6753.094	-8.584205	9.421255E-010	0.0785763	7
	21	8	8015.625	6748.522	-1117.53	1	6840.426	-9.402643	-1.003936E-009	0.0785834	7
	22	9	6328.125	6826.909	-1265.3	1	6943.174	-10.50006	-2.400521E-009	0.0785691	7
	23	9	5015.625	6913.32	-1453.089	1	7064.38	-11.87003	7.406593E-009	0.0785486	7
	24	9	3984.375	7008.728	-1685.651	1	7208.584	-13.52322	9.288405E-009	0.0785457	7
	25	10	3170.956	7115.634	-1972.88	1	7384.071	-15.49656	7.390037E-009	0.0785461	7
	26	10	2527.573	7236.746	-2321.746	1	7600.065	-17.78766	1.223252E-009	0.0785557	7
	27	10	1976.103	7390.159	-2790.736	1	7899.535	-20.68798	3.273526E-009	0.078547	7
	28	11	1577.524	7552.507	-3316.785	1	8248.723	-23.70933	9.266464E-010	0.0785529	7
	29	11	1265.625	7739.098	-3942.668	1	8685.521	-26.99648	6.91309E-009	0.0785505	7
	30	11	998.264	7974.136	-4763.535	1	9288.602	-30.85296	9.943435E-009	0.0785584	7
	31	11	796.875	8249.17	-5701.268	1	10027.63	-34.6496	-6.827587E-010	0.0786213	6
	32	12	627.7902	8586.269	-6921.398	1	11028.59	-38.87232	4.498291E-010	0.0785943	6
	33	12	505.5147	8951.798	-8268.861	1	12186.42	-42.72895	-5.818127E-010	0.0786198	6
	34	12	397.9953	9430.425	-10068.95	1	13795.53	-46.87553	8.318131E-010	0.078625	6
	35	13	315.5048	9994.25	-12207.4	1	15776.74	-50.69266	8.78894E-010	0.0786202	6
	36	13	252.4038	10645.6	-14700.9	1	18150.63	-54.08998	8.472077E-010	0.0786189	6
	37	13	198.6229	11494.81	-17965.54	1	21328.19	-57.38784	8.751486E-010	0.0786181	6
	38	14	158.3615	12481.97	-21734.97	1	25064.09	-60.1321	8.009305E-010	0.0786142	6
	39	14	125.558	13732.71	-26435.08	1	29789.27	-62.54865	8.162301E-010	0.0786162	6
	40	14	100.4464	15226.52	-31911.8	1	35358.31	-64.49214	7.105345E-010	0.0786165	6
	41	15	79.00281	17253.52	-39086.49	1	42725.14	-66.18243	7.72029E-010	0.0786161	6
	42	15	63.3446	19652.45	-47042.43	1	50982.44	-67.32677	7.031076E-010	0.0786157	6
	43	15	49.86702	22902.58	-57494.48	1	61888.15	-68.28043	8.048299E-010	0.0786113	6
	44	16	39.72458	26829.45	-69463.38	1	74464.63	-68.88151	7.45759E-010	0.0786179	6
	45	16	31.6723	31815.65	-83751.72	1	89591.22	-69.19919	6.162046E-010	0.0786168	6
	46	16	24.93351	38648.65	-101730.3	1	108824.5	-69.19756	5.841067E-010	0.0786173	5
	47	17	19.86229	46921.46	-122268.6	1	130962.7	-69.00534	2.426368E-010	0.0786195	5
	48	17	15.83615	57611.94	-146465.3	1	157388.8	-68.52787	9.363315E-010	0.0786207	5
	49	17	12.40079	72649.9	-177049.6	1	191375.5	-67.68987	1.145194E-009	0.0786183	5
	50	18	9.93114	90134.45	-209588.6	1	228148.2	-66.72968	8.362886E-010	0.0786262	5
	51	18	7.944915	113011.4	-247050.5	1	271671.8	-65.41862	-1.158324E-010	0.0786213	5
	52	18	6.317385	142054.1	-290061.6	1	322978.4	-63.90726	5.923793E-010	0.0786055	5
	53	19	5.008013	179491.5	-338488.4	1	383133.9	-62.06417	7.166449E-010	0.0786231	5
	54	20	3.945707	226792.4	-391680.3	1	452601.7	-59.92812	2.639347E-010	0.0786038	5
	55	21	3.158693	279625	-444322.9	1	524988.6	-57.81663	6.069109E-010	0.078618	5
	56	22	2.504006	343023.9	-500342.1	1	606636.3	-55.5663	3.805423E-010	0.0786177	5
	57	23	1.998082	411896.6	-557205.8	1	692919.3	-53.52752	2.368286E-010	0.0785746	5
	58	25	1.584686	488268.5	-615765.5	1	785858.3	-51.5875	3.052436E-010	0.0786131	5
	59	27	1.266892	569763.3	-675058.8	1	883365.5	-49.83496	3.616387E-010	0.0786391	5
	60	29	0.999041	662625.9	-745323	1	997286	-48.36146	3.554063E-010	0.0786389	4
