EXPLAIN
TAG	EISPOT
TITLE	LABEL	Potentiostatic EIS	Test &Identifier
DATE	LABEL	2/11/2020	Date
TIME	LABEL	12:40:03	Time
NOTES	NOTES	6	&Notes...
	
	
	
	
	
	
PSTAT	PSTAT	REF600-11020	Potentiostat
VDC	POTEN	0.00000E+000	T	DC &Voltage (V)
FREQINIT	QUANT	1.00000E+006	Initial Fre&q. (Hz)
FREQFINAL	QUANT	1.00000E+000	Final Fre&q. (Hz)
PTSPERDEC	QUANT	1.00000E+001	Points/&decade
VAC	QUANT	2.50000E+001	AC &Voltage (mV rms)
AREA	QUANT	4.00000E-005	&Area (cm^2)
CONDIT	TWOPARAM	F	5.00000E+000	0.00000E+000	Conditionin&g	Time(s)	E(V)
DELAY	TWOPARAM	F	5.00000E+000	0.00000E+000	Init. De&lay	Time(s)	Stab.(mV/s)
SPEED	SELECTOR	0	&Optimize for:
ZGUESS	QUANT	1.00000E+003	E&stimated Z (ohms)
OCVCURVE	TABLE	39
	Pt	T	Vf	Vm	Ach	Over
	#	s	V vs. Ref.	V	V	bits
	0	0.258333	-8.88482E-002	-8.88482E-002	5.65304E-004	...........
	1	0.516667	-8.88475E-002	-8.88140E-002	5.64638E-004	...........
	2	0.775	-8.88436E-002	-8.87838E-002	5.67438E-004	...........
	3	1.03333	-8.88335E-002	-8.88072E-002	5.71804E-004	...........
	4	1.29167	-8.88201E-002	-8.88289E-002	5.71204E-004	...........
	5	1.55	-8.88118E-002	-8.88499E-002	5.69238E-004	...........
	6	1.80833	-8.88144E-002	-8.88570E-002	5.65571E-004	...........
	7	2.06667	-8.88271E-002	-8.89253E-002	5.70971E-004	...........
	8	2.325	-8.88489E-002	-8.90007E-002	5.76671E-004	...........
	9	2.58333	-8.88819E-002	-8.90121E-002	5.69371E-004	...........
	10	2.84167	-8.89248E-002	-8.90425E-002	5.74238E-004	...........
	11	3.1	-8.89707E-002	-8.91557E-002	5.75938E-004	...........
	12	3.35833	-8.90167E-002	-8.91267E-002	5.72404E-004	...........
	13	3.61667	-8.90613E-002	-8.91000E-002	5.71871E-004	...........
	14	3.875	-8.90959E-002	-8.91256E-002	5.65571E-004	...........
	15	4.13333	-8.91146E-002	-8.91543E-002	5.66504E-004	...........
	16	4.39167	-8.91244E-002	-8.91959E-002	5.69071E-004	...........
	17	4.65	-8.91377E-002	-8.92299E-002	5.72238E-004	...........
	18	4.90833	-8.91601E-002	-8.92498E-002	5.71071E-004	...........
	19	5.16667	-8.91901E-002	-8.93255E-002	5.71804E-004	...........
	20	5.425	-8.92252E-002	-8.93501E-002	5.72304E-004	...........
	21	5.68333	-8.92644E-002	-8.93756E-002	5.77304E-004	...........
	22	5.94167	-8.93046E-002	-8.94059E-002	5.69071E-004	...........
	23	6.2	-8.93402E-002	-8.93668E-002	5.71471E-004	...........
	24	6.45833	-8.93658E-002	-8.93791E-002	5.64638E-004	...........
	25	6.71667	-8.93789E-002	-8.93973E-002	5.70438E-004	...........
	26	6.975	-8.93863E-002	-8.95408E-002	5.66938E-004	...........
	27	7.23333	-8.94019E-002	-8.94510E-002	5.70038E-004	...........
	28	7.49167	-8.94291E-002	-8.94754E-002	5.69204E-004	...........
	29	7.75	-8.94566E-002	-8.95452E-002	5.78037E-004	...........
	30	8.00833	-8.94794E-002	-8.96103E-002	5.73471E-004	...........
	31	8.26667	-8.95062E-002	-8.96020E-002	5.75271E-004	...........
	32	8.525	-8.95410E-002	-8.96520E-002	5.79137E-004	...........
	33	8.78333	-8.95787E-002	-8.97037E-002	5.72838E-004	...........
	34	9.04167	-8.96153E-002	-8.97025E-002	5.72371E-004	...........
	35	9.3	-8.96499E-002	-8.97243E-002	5.67038E-004	...........
	36	9.5583	-8.96801E-002	-8.97496E-002	5.69038E-004	...........
	37	9.8167	-8.97048E-002	-8.97719E-002	5.70271E-004	...........
	38	10.075	-8.97266E-002	-8.97908E-002	5.74571E-004	...........
EOC	QUANT	-0.0897266	Open Circuit (V)
PSTATMODEL	IQUANT	4	Pstat Model
PSTATSECTION	LABEL	REF600-11020	Pstat Section
PSTATSERIALNO	LABEL	11020	Pstat Serial Number
CTRLMODE	IQUANT	1	Control Mode
IESTAB	IQUANT	0	I/E Stability
CASPEED	IQUANT	1	Control Amp Speed
CONVENTION	IQUANT	1	Current Convention
ICHRANGE	IQUANT	2	Ich Range
ICHRANGEMODE	TOGGLE	F	Ich Auto Range
ICHOFFSETENABLE	TOGGLE	T	Ich Offset Enable
ICHOFFSET	QUANT	0	Ich Offset (V)
ICHFILTER	IQUANT	3	Ich Filter
VCHRANGE	IQUANT	2	Vch Range
VCHRANGEMODE	TOGGLE	F	Vch Auto Range
VCHOFFSETENABLE	TOGGLE	T	Vch Offset Enable
VCHOFFSET	QUANT	0	Vch Offset (V)
VCHFILTER	IQUANT	3	Vch Filter
ACHRANGE	IQUANT	2	Ach Range
ACHOFFSETENABLE	TOGGLE	F	Ach Offset Enable
ACHOFFSET	QUANT	0	Ach Offset (V)
ACHFILTER	IQUANT	3	Ach Filter
IERANGELOWERLIMIT	IQUANT	1	I/E Range Lower Limit
IERANGEMODE	TOGGLE	F	I/E AutoRange
IERANGE	IQUANT	8	I/E Range
POSFEEDENABLE	TOGGLE	F	Positive Feedback IR Comp
POSFEEDRESISTANCE	QUANT	0	Positive Feedback Resistance (ohm)
ACHSELECT	IQUANT	0	Ach Select
CABLEID	IQUANT	14	Cable ID
DCCALDATE	LABEL	1/27/2020	DC Calibration Date
ACCALDATE	LABEL	1/27/2020	AC Calibration Date
THERMOSELECT	IQUANT	1	Thermo Select
FRAMEWORKVERSION	QUANT	6.33	Framework Version
INSTRUMENTVERSION	LABEL	3.50	Instrument Version
ZCURVE	TABLE
	Pt	Time	Freq	Zreal	Zimag	Zsig	Zmod	Zphz	Idc	Vdc	IERange
	#	s	Hz	ohm	ohm	V	ohm	°	A	V	#
	0	1	1000078	2184.179	-2517.777	1	3333.142	-49.05827	-7.482639E-007	-0.0878592	8
	1	2	794390.6	2614.781	-2730.117	1	3780.293	-46.23619	-8.937077E-007	-0.0876809	8
	2	2	630984.4	3093.67	-2893.863	1	4236.181	-43.08872	3.617141E-006	-0.0886229	8
	3	2	501234.4	3608.756	-3048.892	1	4724.285	-40.19312	-4.841834E-007	-0.0882883	8
	4	2	398109.4	4141.231	-3121.607	1	5185.964	-37.00851	1.663191E-007	-0.088283	8
	5	3	316265.6	4677.43	-3203.352	1	5669.198	-34.40541	5.384505E-007	-0.0882804	8
	6	3	251203.1	5182.113	-3207.985	1	6094.708	-31.75956	2.894574E-006	-0.0886908	8
	7	3	199546.9	5675.46	-3156.545	1	6494.199	-29.08168	-3.476022E-007	-0.0881566	8
	8	4	158578.1	6163.971	-3099.912	1	6899.565	-26.6982	-2.358393E-006	-0.0876201	8
	9	5	125953.1	6699.745	-3065.031	1	7367.563	-24.58337	1.037186E-006	-0.0900479	7
	10	5	100078.1	7104.964	-3058.416	1	7735.271	-23.29004	-3.4489E-008	-0.0881533	7
	11	5	79453.13	7498.147	-3060.872	1	8098.836	-22.20613	-3.590606E-008	-0.0881618	7
	12	6	63140.62	7866.703	-3095.998	1	8454.006	-21.48248	-5.275665E-008	-0.0881756	7
	13	6	50203.12	8231.404	-3175.529	1	8822.698	-21.09573	-1.628511E-008	-0.0881973	7
	14	6	39890.62	8598.992	-3300.294	1	9210.57	-20.99681	8.252945E-008	-0.0882804	7
	15	7	31640.63	8968.599	-3472.433	1	9617.36	-21.16525	1.448548E-008	-0.0881477	7
	16	7	25171.88	9354.158	-3708.284	1	10062.39	-21.62494	4.280123E-008	-0.0883631	7
	17	7	20015.62	9768.26	-4001.793	1	10556.19	-22.27759	7.655769E-008	-0.0883915	7
	18	7	15890.62	10212.39	-4370.532	1	11108.3	-23.16917	8.457476E-009	-0.0882871	7
	19	8	12609.37	10761.91	-4734.834	1	11757.44	-23.74769	2.538241E-009	-0.0881595	6
	20	8	10078.13	11279.21	-5256.235	1	12443.82	-24.98603	-1.886222E-009	-0.0883335	6
	21	8	8015.625	11877.54	-5864.06	1	13246.25	-26.27602	4.104571E-009	-0.0884269	6
	22	9	6328.125	12573.8	-6593.494	1	14197.69	-27.67179	-7.384226E-009	-0.08816	6
	23	9	5015.625	13345.35	-7415.3	1	15267.13	-29.05859	1.120862E-008	-0.0882892	6
	24	9	3984.375	14205.12	-8345.107	1	16475.02	-30.43304	1.751536E-008	-0.0885237	6
	25	10	3170.956	15175.55	-9397.495	1	17849.66	-31.76796	2.455782E-009	-0.0881953	6
	26	10	2527.573	16272.27	-10574.78	1	19406.52	-33.01842	4.833426E-009	-0.088426	6
	27	10	1976.103	17609.1	-12028.7	1	21325.34	-34.33681	1.092077E-008	-0.0882908	6
	28	11	1577.524	18996	-13532.77	1	23323.46	-35.46613	9.27602E-009	-0.0884281	6
	29	11	1265.625	20560.69	-15183.9	1	25559.59	-36.44555	4.753672E-010	-0.0882735	6
	30	11	998.264	22442.94	-17205.3	1	28279.11	-37.47465	-6.303046E-009	-0.0881027	6
	31	12	796.875	24453.49	-19334.75	1	31173.79	-38.33252	-8.791278E-009	-0.0881909	6
	32	12	627.7902	26841.58	-21895.09	1	34639.07	-39.20466	3.075927E-009	-0.0881456	6
	33	12	505.5147	29293.26	-24515.4	1	38198.16	-39.92582	4.474473E-009	-0.0884307	6
	34	13	397.9953	32363.41	-27754.58	1	42634.58	-40.61611	7.179047E-010	-0.0882303	6
	35	13	315.5048	35701.21	-31349.43	1	47511.71	-41.28654	1.282817E-009	-0.0882369	6
	36	13	252.4038	39380.79	-35227.2	1	52837.51	-41.81351	1.400411E-009	-0.0882403	6
	37	14	198.6229	43816.64	-39923.11	1	59276.91	-42.33791	8.985898E-010	-0.08824	6
	38	14	158.3615	48679.55	-44892.87	1	66219.84	-42.68262	9.464214E-010	-0.0882445	6
	39	14	125.558	54274.21	-50681.77	1	74258.55	-43.03965	9.138617E-010	-0.0882433	6
	40	14	100.4464	60114.2	-56786.6	1	82694.83	-43.36951	6.069601E-010	-0.0882425	6
	41	15	79.00281	68062.28	-64780.21	1	93962.49	-43.58471	7.494838E-010	-0.0882498	6
	42	15	63.3446	75394.64	-69063.08	1	102245.1	-42.49034	-1.094391E-010	-0.0882516	5
	43	16	49.86702	86316.16	-78708.78	1	116814.2	-42.36063	-4.168031E-010	-0.0882528	5
	44	16	39.72458	96131.2	-89129.72	1	131092.8	-42.83567	1.97146E-010	-0.0882478	5
	45	16	31.6723	108164.8	-99246.7	1	146797.6	-42.53795	5.644122E-010	-0.0882468	5
	46	17	24.93351	121606.5	-109618.4	1	163720.3	-42.0321	-2.835388E-010	-0.0882486	5
	47	17	19.86229	135570	-121487.2	1	182039.5	-41.86419	-1.28117E-009	-0.0882518	5
	48	17	15.83615	151481	-134845.2	1	202804.6	-41.6748	8.008232E-010	-0.088249	5
	49	17	12.40079	169944.6	-150562.8	1	227046.9	-41.53942	-1.691988E-010	-0.0882433	5
	50	18	9.93114	186150.5	-164401.7	1	248354.5	-41.44984	4.377839E-010	-0.0882426	5
	51	18	7.944915	205636.3	-181494.2	1	274274.4	-41.43156	5.068685E-010	-0.0882545	5
	52	19	6.317385	227454.2	-201000.6	1	303540.2	-41.46693	2.212559E-010	-0.0882468	5
	53	20	5.008013	251534.6	-223511.1	1	336492	-41.62397	-8.53872E-011	-0.0882548	5
	54	21	3.945707	278188.7	-249465.6	1	373660.3	-41.88416	3.621739E-010	-0.0882475	5
	55	22	3.158693	306030.9	-277301.6	1	412978.3	-42.18045	1.178242E-010	-0.0882406	5
	56	24	2.504006	336296.1	-310860.3	1	457962	-42.74921	-9.771343E-012	-0.0882537	5
	57	25	1.998082	367541	-347906.1	1	506088	-43.42795	3.128661E-010	-0.0882166	5
	58	27	1.584686	402160.1	-395407.2	1	563985.4	-44.51489	3.281774E-010	-0.0882157	5
	59	29	1.266892	437804.2	-448749.3	1	626935.8	-45.70732	2.457478E-010	-0.0882604	5
	60	31	0.999041	481630.3	-516551	1	706252.6	-47.00364	2.022776E-010	-0.0882842	5
