EXPLAIN
TAG	EISPOT
TITLE	LABEL	Potentiostatic EIS	Test &Identifier
DATE	LABEL	3/12/2020	Date
TIME	LABEL	14:35:57	Time
NOTES	NOTES	1	&Notes...
	
PSTAT	PSTAT	REF600-11020	Potentiostat
VDC	POTEN	0.00000E+000	T	DC &Voltage (V)
FREQINIT	QUANT	1.00000E+006	Initial Fre&q. (Hz)
FREQFINAL	QUANT	1.00000E+000	Final Fre&q. (Hz)
PTSPERDEC	QUANT	1.00000E+001	Points/&decade
VAC	QUANT	2.50000E+001	AC &Voltage (mV rms)
AREA	QUANT	2.50000E-001	&Area (cm^2)
CONDIT	TWOPARAM	F	5.00000E+000	0.00000E+000	Conditionin&g	Time(s)	E(V)
DELAY	TWOPARAM	T	5.00000E+000	0.00000E+000	Init. De&lay	Time(s)	Stab.(mV/s)
SPEED	SELECTOR	1	&Optimize for:
ZGUESS	QUANT	5.00000E+003	E&stimated Z (ohms)
OCVCURVE	TABLE	19
	Pt	T	Vf	Vm	Ach	Over
	#	s	V vs. Ref.	V	V	bits
	0	0.258333	1.63665E-002	1.63665E-002	5.73930E-004	...........
	1	0.516667	1.63664E-002	1.63600E-002	5.73263E-004	...........
	2	0.775	1.63655E-002	1.63435E-002	5.71963E-004	...........
	3	1.03333	1.63621E-002	1.63298E-002	5.73863E-004	...........
	4	1.29167	1.63549E-002	1.63081E-002	5.69497E-004	...........
	5	1.55	1.63424E-002	1.62435E-002	5.70163E-004	...........
	6	1.80833	1.63209E-002	1.61366E-002	5.73397E-004	...........
	7	2.06667	1.62850E-002	1.61576E-002	5.73597E-004	...........
	8	2.325	1.62374E-002	1.61082E-002	5.69997E-004	...........
	9	2.58333	1.61890E-002	1.60746E-002	5.78030E-004	...........
	10	2.84167	1.61473E-002	1.60423E-002	5.73363E-004	...........
	11	3.1	1.61118E-002	1.60421E-002	5.68697E-004	...........
	12	3.35833	1.60816E-002	1.60179E-002	5.67063E-004	...........
	13	3.61667	1.60572E-002	1.60089E-002	5.71163E-004	...........
	14	3.875	1.60391E-002	1.60481E-002	5.74230E-004	...........
	15	4.13333	1.60308E-002	1.61360E-002	5.73230E-004	...........
	16	4.39167	1.60402E-002	1.61979E-002	5.68763E-004	...........
	17	4.65	1.60727E-002	1.62457E-002	5.73897E-004	...........
	18	4.90833	1.61213E-002	1.61789E-002	5.72663E-004	...........
EOC	QUANT	0.0161213	Open Circuit (V)
PSTATMODEL	IQUANT	4	Pstat Model
PSTATSECTION	LABEL	REF600-11020	Pstat Section
PSTATSERIALNO	LABEL	11020	Pstat Serial Number
CTRLMODE	IQUANT	1	Control Mode
IESTAB	IQUANT	0	I/E Stability
CASPEED	IQUANT	1	Control Amp Speed
CONVENTION	IQUANT	1	Current Convention
ICHRANGE	IQUANT	2	Ich Range
ICHRANGEMODE	TOGGLE	F	Ich Auto Range
ICHOFFSETENABLE	TOGGLE	T	Ich Offset Enable
ICHOFFSET	QUANT	0	Ich Offset (V)
ICHFILTER	IQUANT	3	Ich Filter
VCHRANGE	IQUANT	2	Vch Range
VCHRANGEMODE	TOGGLE	F	Vch Auto Range
VCHOFFSETENABLE	TOGGLE	T	Vch Offset Enable
VCHOFFSET	QUANT	0	Vch Offset (V)
VCHFILTER	IQUANT	3	Vch Filter
ACHRANGE	IQUANT	2	Ach Range
ACHOFFSETENABLE	TOGGLE	F	Ach Offset Enable
ACHOFFSET	QUANT	0	Ach Offset (V)
ACHFILTER	IQUANT	3	Ach Filter
IERANGELOWERLIMIT	IQUANT	1	I/E Range Lower Limit
IERANGEMODE	TOGGLE	F	I/E AutoRange
IERANGE	IQUANT	6	I/E Range
POSFEEDENABLE	TOGGLE	F	Positive Feedback IR Comp
POSFEEDRESISTANCE	QUANT	0	Positive Feedback Resistance (ohm)
ACHSELECT	IQUANT	0	Ach Select
CABLEID	IQUANT	14	Cable ID
DCCALDATE	LABEL	2/27/2020	DC Calibration Date
ACCALDATE	LABEL	2/27/2020	AC Calibration Date
THERMOSELECT	IQUANT	1	Thermo Select
FRAMEWORKVERSION	QUANT	6.33	Framework Version
INSTRUMENTVERSION	LABEL	3.50	Instrument Version
ZCURVE	TABLE
	Pt	Time	Freq	Zreal	Zimag	Zsig	Zmod	Zphz	Idc	Vdc	IERange
	#	s	Hz	ohm	ohm	V	ohm	°	A	V	#
	0	1	1000078	1710.783	-950.77	1	1957.228	-29.06317	4.344526E-006	0.0178154	8
	1	3	794390.6	1859.046	-938.7825	1	2082.634	-26.7929	-4.8861E-006	0.0187379	8
	2	4	630984.4	2000.027	-926.8168	1	2204.336	-24.86311	-1.905964E-006	0.0185068	8
	3	5	501234.4	2139.919	-908.3199	1	2324.714	-22.99951	-4.060546E-007	0.0179247	8
	4	7	398109.4	2277.405	-894.5479	1	2446.791	-21.44454	7.590731E-007	0.0175367	8
	5	8	316265.6	2395.625	-883.1497	1	2553.228	-20.23646	1.017781E-006	0.0175907	8
	6	10	251203.1	2527.699	-861.6296	1	2670.519	-18.82296	-6.113057E-007	0.0176967	8
	7	11	199546.9	2647.466	-849.3386	1	2780.369	-17.78686	1.175743E-007	0.0176473	8
	8	12	158578.1	2764.822	-838.4935	1	2889.171	-16.87109	1.707097E-006	0.0172784	8
	9	14	125953.1	2894.517	-810.0734	1	3005.735	-15.63506	-8.081905E-007	0.0195862	7
	10	15	100078.1	2996.433	-804.7549	1	3102.618	-15.03324	-1.563244E-008	0.0176019	7
	11	16	79453.13	3101.028	-816.7561	1	3206.784	-14.75559	7.223259E-008	0.0174296	7
	12	18	63140.62	3204.745	-833.9991	1	3311.487	-14.58703	-1.075054E-008	0.0175736	7
	13	19	50203.12	3308.722	-858.2932	1	3418.231	-14.54219	4.015008E-008	0.0174487	7
	14	20	39890.62	3413.674	-891.0373	1	3528.048	-14.62894	7.146687E-008	0.017426	7
	15	22	31640.63	3523.413	-933.8062	1	3645.056	-14.84377	7.154347E-008	0.0174192	7
	16	23	25171.88	3635.262	-986.594	1	3766.762	-15.18408	-1.184443E-008	0.0175684	7
	17	25	20015.62	3750.775	-1050.241	1	3895.038	-15.64259	-2.040341E-008	0.017559	7
	18	26	15890.62	3873.428	-1129.526	1	4034.758	-16.25715	1.813624E-008	0.0175746	7
	19	27	12609.37	3999.051	-1223.167	1	4181.931	-17.007	-3.762079E-009	0.0175994	7
	20	29	10078.13	4126.76	-1334.11	1	4337.049	-17.91512	2.13023E-008	0.0175588	7
	21	30	8015.625	4264.638	-1473.297	1	4511.956	-19.0584	1.917391E-008	0.017576	7
	22	31	6328.125	4415.899	-1648.572	1	4713.593	-20.47194	-2.068465E-008	0.0175832	7
	23	33	5015.625	4580.01	-1858.091	1	4942.57	-22.08219	1.454519E-008	0.0174887	7
	24	34	3984.375	4767.458	-2111.354	1	5214.064	-23.88702	-2.067831E-008	0.0175816	7
	25	35	3170.956	4977.212	-2407.263	1	5528.793	-25.81105	2.041484E-008	0.0175053	7
	26	37	2527.573	5220.744	-2746.331	1	5899.026	-27.74626	-7.937462E-009	0.0175215	7
	27	38	1976.103	5526.346	-3178.034	1	6374.982	-29.9019	-4.84432E-008	0.0176232	7
	28	40	1577.524	5847.156	-3636.384	1	6885.675	-31.87775	1.869875E-008	0.017552	7
	29	41	1265.625	6191.967	-4133.278	1	7444.76	-33.72401	1.244828E-009	0.0175413	7
	30	42	998.264	6597.654	-4748.839	1	8128.992	-35.74547	1.564892E-008	0.0175063	7
	31	44	796.875	7013.96	-5443.771	1	8878.642	-37.81625	2.033616E-008	0.0175549	7
	32	45	627.7902	7477.746	-6307.129	1	9782.46	-40.14606	-1.955155E-009	0.0176573	6
	33	46	505.5147	7920.025	-7260.216	1	10744.19	-42.51121	-1.237369E-009	0.017593	6
	34	48	397.9953	8448.464	-8553.338	1	12022.32	-45.35342	1.163322E-009	0.0176051	6
	35	49	315.5048	9027.884	-10109.84	1	13554.02	-48.23579	1.067668E-009	0.0176076	6
	36	51	252.4038	9666.74	-11947.4	1	15368.35	-51.02341	1.378124E-009	0.0175973	6
	37	52	198.6229	10500.67	-14376.41	1	17802.96	-53.85526	8.49159E-010	0.0175998	6
	38	53	158.3615	11482.07	-17182.89	1	20666.14	-56.24809	6.903032E-010	0.0176004	6
	39	55	125.558	12751.58	-20668.55	1	24285.63	-58.32726	8.953865E-010	0.0176108	6
	40	56	100.4464	14304.99	-24682.51	1	28528.22	-59.90516	7.49377E-010	0.0176033	6
	41	58	79.00281	16475.02	-29875.14	1	34116.71	-61.12491	6.384243E-010	0.017604	6
	42	59	63.3446	18732.86	-35437.59	1	40084.2	-62.13837	8.387621E-010	0.017602	6
	43	61	49.86702	22554.15	-42376.25	1	48004.54	-61.9765	8.173439E-010	0.0176047	6
	44	62	39.72458	26670.44	-50262.36	1	56900.06	-62.04848	3.416852E-010	0.0176069	6
	45	63	31.6723	31844.68	-59217.53	1	67236.89	-61.73052	2.661478E-010	0.0175984	6
	46	65	24.93351	38530.11	-69757.04	1	79690.74	-61.08605	2.522043E-010	0.0175965	6
	47	66	19.86229	46181.55	-81043.01	1	93277.56	-60.32378	-1.576385E-010	0.0176073	6
	48	68	15.83615	55167.59	-92960.98	1	108098.1	-59.31303	4.664384E-010	0.017606	5
	49	69	12.40079	66262.29	-108283.5	1	126948.8	-58.53614	4.885837E-010	0.0176051	5
	50	71	9.93114	78199.62	-123711.7	1	146354.9	-57.70254	2.186885E-010	0.0176102	5
	51	72	7.944915	90866.37	-140460.6	1	167289.8	-57.10048	5.74663E-010	0.0176142	5
	52	74	6.317385	104766.4	-160361.7	1	191551.2	-56.84289	4.507443E-010	0.0176212	5
	53	76	5.008013	119898.9	-183942.2	1	219568.9	-56.90251	3.603582E-010	0.0176143	5
	54	79	3.945707	136461.7	-212836.8	1	252826.6	-57.33378	1.908601E-010	0.0176031	5
	55	81	3.158693	153542.5	-245430.5	1	289502	-57.96972	6.239903E-011	0.0176115	5
	56	84	2.504006	172968.6	-286675	1	334814.4	-58.89485	3.161815E-010	0.0176032	5
	57	87	1.998082	194441.3	-335025.5	1	387362.3	-59.87008	8.995535E-011	0.017639	5
	58	90	1.584686	219757.3	-395989.3	1	452880.5	-60.97158	1.85783E-010	0.017615	5
	59	94	1.266892	251110.3	-466936.5	1	530175.5	-61.72941	7.533427E-011	0.0176453	5
	60	98	0.999041	291265.7	-556547.3	1	628156.5	-62.37495	1.239804E-010	0.017562	5
