EXPLAIN
TAG	EISPOT
TITLE	LABEL	Potentiostatic EIS	Test &Identifier
DATE	LABEL	1/7/2020	Date
TIME	LABEL	18:08:09	Time
NOTES	NOTES	5	&Notes...
	
	
	
	
	
PSTAT	PSTAT	REF600-11020	Potentiostat
VDC	POTEN	0.00000E+000	T	DC &Voltage (V)
FREQINIT	QUANT	1.00000E+006	Initial Fre&q. (Hz)
FREQFINAL	QUANT	1.00000E+000	Final Fre&q. (Hz)
PTSPERDEC	QUANT	1.00000E+001	Points/&decade
VAC	QUANT	2.50000E+001	AC &Voltage (mV rms)
AREA	QUANT	1.00000E-001	&Area (cm^2)
CONDIT	TWOPARAM	T	5.00000E+000	0.00000E+000	Conditionin&g	Time(s)	E(V)
DELAY	TWOPARAM	T	5.00000E+000	0.00000E+000	Init. De&lay	Time(s)	Stab.(mV/s)
SPEED	SELECTOR	0	&Optimize for:
ZGUESS	QUANT	1.00000E+003	E&stimated Z (ohms)
OCVCURVE	TABLE	19
	Pt	T	Vf	Vm	Ach	Over
	#	s	V vs. Ref.	V	V	bits
	0	0.258333	6.41913E-001	6.41913E-001	5.99014E-004	...........
	1	0.516667	6.42424E-001	6.68709E-001	6.05047E-004	...........
	2	0.775	6.45022E-001	6.65510E-001	6.03847E-004	...........
	3	1.03333	6.48186E-001	5.38563E-001	5.95880E-004	...........
	4	1.29167	6.41208E-001	4.79654E-001	6.03880E-004	...........
	5	1.55	6.12625E-001	4.87197E-001	6.02514E-004	...........
	6	1.80833	5.66195E-001	4.10206E-001	6.01447E-004	...........
	7	2.06667	5.14781E-001	3.33098E-001	6.03680E-004	...........
	8	2.325	4.61221E-001	2.06919E-001	5.97380E-004	...........
	9	2.58333	3.97889E-001	1.42429E-001	6.00047E-004	...........
	10	2.84167	3.22590E-001	1.46396E-001	5.99480E-004	...........
	11	3.1	2.48341E-001	1.84497E-001	6.04280E-004	...........
	12	3.35833	1.94980E-001	1.84316E-001	6.05114E-004	...........
	13	3.61667	1.71648E-001	2.00746E-001	6.01114E-004	...........
	14	3.875	1.70992E-001	1.79077E-001	6.02080E-004	...........
	15	4.13333	1.78697E-001	1.85779E-001	5.96514E-004	...........
	16	4.39167	1.84805E-001	1.94825E-001	6.00780E-004	...........
	17	4.65	1.87633E-001	1.98140E-001	5.97780E-004	...........
	18	4.90833	1.90167E-001	2.18090E-001	6.02047E-004	...........
EOC	QUANT	0.1901674	Open Circuit (V)
PSTATMODEL	IQUANT	4	Pstat Model
PSTATSECTION	LABEL	REF600-11020	Pstat Section
PSTATSERIALNO	LABEL	11020	Pstat Serial Number
CTRLMODE	IQUANT	1	Control Mode
IESTAB	IQUANT	0	I/E Stability
CASPEED	IQUANT	1	Control Amp Speed
CONVENTION	IQUANT	1	Current Convention
ICHRANGE	IQUANT	2	Ich Range
ICHRANGEMODE	TOGGLE	F	Ich Auto Range
ICHOFFSETENABLE	TOGGLE	T	Ich Offset Enable
ICHOFFSET	QUANT	0	Ich Offset (V)
ICHFILTER	IQUANT	3	Ich Filter
VCHRANGE	IQUANT	2	Vch Range
VCHRANGEMODE	TOGGLE	F	Vch Auto Range
VCHOFFSETENABLE	TOGGLE	T	Vch Offset Enable
VCHOFFSET	QUANT	0	Vch Offset (V)
VCHFILTER	IQUANT	3	Vch Filter
ACHRANGE	IQUANT	2	Ach Range
ACHOFFSETENABLE	TOGGLE	F	Ach Offset Enable
ACHOFFSET	QUANT	0	Ach Offset (V)
ACHFILTER	IQUANT	3	Ach Filter
IERANGELOWERLIMIT	IQUANT	1	I/E Range Lower Limit
IERANGEMODE	TOGGLE	F	I/E AutoRange
IERANGE	IQUANT	8	I/E Range
POSFEEDENABLE	TOGGLE	F	Positive Feedback IR Comp
POSFEEDRESISTANCE	QUANT	0	Positive Feedback Resistance (ohm)
ACHSELECT	IQUANT	0	Ach Select
CABLEID	IQUANT	14	Cable ID
DCCALDATE	LABEL	12/22/2019	DC Calibration Date
ACCALDATE	LABEL	12/22/2019	AC Calibration Date
THERMOSELECT	IQUANT	1	Thermo Select
FRAMEWORKVERSION	QUANT	6.33	Framework Version
INSTRUMENTVERSION	LABEL	3.50	Instrument Version
ZCURVE	TABLE
	Pt	Time	Freq	Zreal	Zimag	Zsig	Zmod	Zphz	Idc	Vdc	IERange
	#	s	Hz	ohm	ohm	V	ohm	°	A	V	#
	0	1	1000078	599.6215	-9142.92	1	9162.562	-86.24773	1.307236E-005	0.1903607	8
	1	1	794390.6	991.236	-11161.54	1	11205.47	-84.92498	-1.152815E-005	0.1941725	8
	2	2	630984.4	875.0392	-13269.61	1	13298.43	-86.2272	-2.795263E-006	0.1932225	8
	3	2	501234.4	1815.345	-18356.29	1	18445.84	-84.3521	-2.176626E-006	0.1918111	8
	4	3	398109.4	669.5914	-21691.78	1	21702.11	-88.23193	-7.580091E-006	0.1934026	8
	5	4	316265.6	2832.358	-32377.08	1	32500.73	-85.00047	-2.729801E-006	0.1926961	8
	6	4	251203.1	3481.736	-40173.86	1	40324.45	-85.04674	6.362244E-007	0.191284	8
	7	4	199546.9	1483.442	-46022.62	1	46046.53	-88.15383	7.931153E-006	0.1903586	8
	8	5	158578.1	10849.15	-94144.9	1	94767.96	-83.4263	1.436257E-006	0.1923139	8
	9	5	125953.1	6800.8	-68411.7	1	68748.91	-84.32288	2.060742E-006	0.1868492	7
	10	6	100078.1	6555.392	-82824.26	1	83083.27	-85.47458	-5.901171E-008	0.1918792	7
	11	6	79453.13	6925.253	-103236.6	1	103468.6	-86.16227	8.010383E-008	0.1916713	7
	12	7	63140.62	8678.849	-129328.8	1	129619.7	-86.16082	-5.617521E-008	0.1916975	7
	13	8	50203.12	8802.745	-158872	1	159115.7	-86.82861	-7.629639E-008	0.1919841	7
	14	8	39890.62	11472.09	-199968.9	1	200297.7	-86.71658	1.47999E-007	0.1917081	7
	15	8	31640.63	12762.82	-248286.8	1	248614.6	-87.05738	-1.859608E-008	0.1918399	7
	16	9	25171.88	18006.71	-316516.6	1	317028.3	-86.74393	-4.448328E-008	0.1920464	7
	17	9	20015.62	18823.48	-383801.3	1	384262.6	-87.19218	-6.995791E-008	0.1918233	7
	18	9	15890.62	39768.97	-495227.9	1	496822.2	-85.40875	2.001224E-007	0.1913285	7
	19	10	12609.37	51507.92	-617858.5	1	620001.8	-85.23454	4.392964E-008	0.1909481	6
	20	10	10078.13	53050.87	-773350.9	1	775168.4	-86.07573	8.522749E-009	0.1918565	6
	21	11	8015.625	60195.58	-962328	1	964208	-86.42069	1.056371E-008	0.1912551	6
	22	11	6328.125	79524.5	-1167899	1	1170604	-86.10464	-6.695359E-009	0.1916178	6
	23	11	5015.625	100148.3	-1497178	1	1500524	-86.17311	1.268898E-008	0.1918147	6
	24	12	3984.375	215571.6	-2238394	1	2248750	-84.49902	-2.753904E-008	0.1919692	6
	25	12	3170.956	162906.2	-2294968	1	2300743	-85.93972	3.855673E-008	0.1912592	6
	26	13	2527.573	203225.2	-2889628	1	2896766	-85.97706	-2.783903E-008	0.1919684	6
	27	13	1976.103	316187.5	-4545880	1	4556863	-86.02122	-2.379214E-008	0.192061	6
	28	14	1577.524	-1241142	-4835551	1	4992293	-104.3954	-1.542691E-008	0.1919625	6
	29	14	1265.625	553208.9	-5434934	1	5463016	-84.18802	-9.44688E-010	0.1919692	5
	30	15	998.264	441485.1	-7073486	1	7087250	-86.42857	-6.148639E-010	0.1919542	5
	31	15	796.875	616907.5	-8266616	1	8289603	-85.73213	2.050127E-009	0.1916269	5
	32	16	627.7902	775544.4	-1.106741E+007	1	1.109455E+007	-85.99158	-5.191867E-010	0.1916525	5
	33	16	505.5147	1278558	-1.264644E+007	1	1.27109E+007	-84.227	-2.080933E-010	0.1920448	5
	34	16	397.9953	2102342	-1.522134E+007	1	1.536584E+007	-82.13617	-5.87779E-012	0.1917132	5
	35	17	315.5048	388566.7	-2.07607E+007	1	2.076433E+007	-88.92775	6.223132E-010	0.1917089	5
	36	17	252.4038	3163121	-2.666979E+007	1	2.685671E+007	-83.23614	-4.072545E-010	0.1917097	5
	37	18	198.6229	759015	-3.530354E+007	1	3.53117E+007	-88.76835	8.056837E-011	0.1917141	5
	38	18	158.3615	3801274	-3.416524E+007	1	3.437606E+007	-83.6513	-4.350934E-010	0.1917167	5
	39	19	125.558	-1.362073E+007	-5.504668E+007	1	5.67068E+007	-103.8981	-5.66867E-011	0.1917624	4
	40	19	100.4464	2.520587E+007	-1.943532E+007	1	3.182872E+007	-37.63449	-6.313248E-010	0.1917582	4
	41	19	79.00281	-2054848	-1.764976E+007	1	1.776898E+007	-96.6407	5.144889E-010	0.1917458	4
	42	20	63.3446	-3402800	6121767	1	7003933	119.0676	1.822209E-010	0.1917453	4
	43	21	49.86702	-3.579805E+007	-2.686426E+007	1	4.475699E+007	-143.114	-5.379209E-011	0.1917014	5
	44	21	39.72458	2.609536E+007	-2.997706E+007	1	3.974408E+007	-48.96007	1.774707E-010	0.1917482	4
	45	22	31.6723	-2.192374E+007	1.952275E+007	1	2.935623E+007	138.3154	6.325139E-010	0.1917395	4
	46	22	24.93351	-1.203485E+007	-1.181215E+008	1	1.18733E+008	-95.8175	1.254484E-010	0.1917441	4
	47	23	19.86229	8.808674E+007	-2.781348E+007	1	9.23735E+007	-17.52357	1.207498E-010	0.1917377	4
	48	23	15.83615	1.49606E+007	-1867667	1	1.507673E+007	-7.115936	-8.814371E-010	0.1917494	4
	49	24	12.40079	-1.061444E+007	1.035735E+008	1	1.04116E+008	95.8514	2.55018E-010	0.191748	4
	50	25	9.93114	-8.835932E+008	7.734938E+008	1	1.174321E+009	138.8012	-7.667571E-011	0.1917455	4
	51	26	7.944915	-7.063962E+007	-2928633	1	7.07003E+007	-177.6259	1.975996E-010	0.1917414	4
	52	27	6.317385	1.672494E+007	-4.288799E+008	1	4.292059E+008	-87.76678	1.917518E-011	0.1916929	5
	53	29	5.008013	1.060939E+009	6.548505E+007	1	1.062958E+009	3.532026	4.583299E-011	0.1917585	4
	54	30	3.945707	1.187801E+008	-1.411052E+008	1	1.844434E+008	-49.90986	8.339683E-011	0.1917465	4
	55	33	3.158693	3.058945E+008	-3.53034E+008	1	4.671236E+008	-49.09195	4.517219E-011	0.1917582	4
	56	35	2.504006	3.358302E+008	-6.450313E+007	1	3.419687E+008	-10.87243	7.254376E-011	0.1916851	3
	57	37	1.998082	-3.75022E+008	-3.180312E+008	1	4.917167E+008	-139.7009	1.224447E-010	0.1917192	3
	58	40	1.584686	4.021776E+008	-3.121028E+008	1	5.090727E+008	-37.81262	2.13239E-010	0.1917125	3
	59	43	1.266892	-3.659041E+009	-2.828111E+009	1	4.624585E+009	-142.2992	3.693799E-011	0.1916691	2
	60	47	0.999041	2.014589E+008	4.833612E+008	1	5.236638E+008	67.37424	8.495171E-012	0.1916464	2
