EXPLAIN
TAG	EISPOT
TITLE	LABEL	Potentiostatic EIS	Test &Identifier
DATE	LABEL	3/3/2020	Date
TIME	LABEL	16:30:59	Time
NOTES	NOTES	1	&Notes...
	
PSTAT	PSTAT	REF600-11020	Potentiostat
VDC	POTEN	0.00000E+000	T	DC &Voltage (V)
FREQINIT	QUANT	1.00000E+006	Initial Fre&q. (Hz)
FREQFINAL	QUANT	1.00000E+000	Final Fre&q. (Hz)
PTSPERDEC	QUANT	1.00000E+001	Points/&decade
VAC	QUANT	2.50000E+001	AC &Voltage (mV rms)
AREA	QUANT	1.60000E-004	&Area (cm^2)
CONDIT	TWOPARAM	F	1.50000E+001	0.00000E+000	Conditionin&g	Time(s)	E(V)
DELAY	TWOPARAM	F	1.00000E+002	0.00000E+000	Init. De&lay	Time(s)	Stab.(mV/s)
SPEED	SELECTOR	1	&Optimize for:
ZGUESS	QUANT	1.00000E+004	E&stimated Z (ohms)
OCVCURVE	TABLE	39
	Pt	T	Vf	Vm	Ach	Over
	#	s	V vs. Ref.	V	V	bits
	0	0.258333	1.13623E-001	1.13623E-001	5.96796E-004	...........
	1	0.516667	1.13622E-001	1.13560E-001	6.00496E-004	...........
	2	0.775	1.13615E-001	1.13510E-001	6.00663E-004	...........
	3	1.03333	1.13595E-001	1.13466E-001	5.98496E-004	...........
	4	1.29167	1.13561E-001	1.13397E-001	6.03063E-004	...........
	5	1.55	1.13517E-001	1.13410E-001	5.99230E-004	...........
	6	1.80833	1.13469E-001	1.13282E-001	5.97396E-004	...........
	7	2.06667	1.13420E-001	1.13200E-001	6.01963E-004	...........
	8	2.325	1.13364E-001	1.13185E-001	6.02396E-004	...........
	9	2.58333	1.13300E-001	1.13160E-001	5.99896E-004	...........
	10	2.84167	1.13242E-001	1.13136E-001	6.00163E-004	...........
	11	3.1	1.13196E-001	1.13104E-001	6.00763E-004	...........
	12	3.35833	1.13161E-001	1.13067E-001	6.00130E-004	...........
	13	3.61667	1.13131E-001	1.12995E-001	5.99363E-004	...........
	14	3.875	1.13099E-001	1.13032E-001	6.01163E-004	...........
	15	4.13333	1.13067E-001	1.13076E-001	6.03563E-004	...........
	16	4.39167	1.13047E-001	1.13067E-001	6.00096E-004	...........
	17	4.65	1.13044E-001	1.13053E-001	6.01696E-004	...........
	18	4.90833	1.13049E-001	1.12952E-001	5.98163E-004	...........
	19	5.16667	1.13044E-001	1.12917E-001	5.96930E-004	...........
	20	5.425	1.12999E-001	1.11853E-001	6.05230E-004	...........
	21	5.68333	1.12875E-001	1.12859E-001	6.04363E-004	...........
	22	5.94167	1.12714E-001	1.13250E-001	6.02263E-004	...........
	23	6.2	1.12654E-001	1.13084E-001	6.02196E-004	...........
	24	6.45833	1.12755E-001	1.13016E-001	6.01996E-004	...........
	25	6.71667	1.12912E-001	1.12895E-001	6.03296E-004	...........
	26	6.975	1.13001E-001	1.12825E-001	6.02863E-004	...........
	27	7.23333	1.12999E-001	1.12919E-001	6.03863E-004	...........
	28	7.49167	1.12952E-001	1.12926E-001	6.03196E-004	...........
	29	7.75	1.12914E-001	1.12902E-001	6.01096E-004	...........
	30	8.00833	1.12900E-001	1.12853E-001	6.01696E-004	...........
	31	8.26667	1.12895E-001	1.12800E-001	6.00230E-004	...........
	32	8.525	1.12879E-001	1.12700E-001	6.01096E-004	...........
	33	8.78333	1.12844E-001	1.12704E-001	5.97863E-004	...........
	34	9.04167	1.12797E-001	1.12747E-001	5.98796E-004	...........
	35	9.3	1.12757E-001	1.12791E-001	5.99230E-004	...........
	36	9.5583	1.12740E-001	1.12758E-001	5.96596E-004	...........
	37	9.8167	1.12744E-001	1.12749E-001	5.99263E-004	...........
	38	10.075	1.12752E-001	1.12701E-001	6.01596E-004	...........
EOC	QUANT	0.1127523	Open Circuit (V)
PSTATMODEL	IQUANT	4	Pstat Model
PSTATSECTION	LABEL	REF600-11020	Pstat Section
PSTATSERIALNO	LABEL	11020	Pstat Serial Number
CTRLMODE	IQUANT	1	Control Mode
IESTAB	IQUANT	0	I/E Stability
CASPEED	IQUANT	1	Control Amp Speed
CONVENTION	IQUANT	1	Current Convention
ICHRANGE	IQUANT	2	Ich Range
ICHRANGEMODE	TOGGLE	F	Ich Auto Range
ICHOFFSETENABLE	TOGGLE	T	Ich Offset Enable
ICHOFFSET	QUANT	0	Ich Offset (V)
ICHFILTER	IQUANT	3	Ich Filter
VCHRANGE	IQUANT	2	Vch Range
VCHRANGEMODE	TOGGLE	F	Vch Auto Range
VCHOFFSETENABLE	TOGGLE	T	Vch Offset Enable
VCHOFFSET	QUANT	0	Vch Offset (V)
VCHFILTER	IQUANT	3	Vch Filter
ACHRANGE	IQUANT	2	Ach Range
ACHOFFSETENABLE	TOGGLE	F	Ach Offset Enable
ACHOFFSET	QUANT	0	Ach Offset (V)
ACHFILTER	IQUANT	3	Ach Filter
IERANGELOWERLIMIT	IQUANT	1	I/E Range Lower Limit
IERANGEMODE	TOGGLE	F	I/E AutoRange
IERANGE	IQUANT	7	I/E Range
POSFEEDENABLE	TOGGLE	F	Positive Feedback IR Comp
POSFEEDRESISTANCE	QUANT	0	Positive Feedback Resistance (ohm)
ACHSELECT	IQUANT	0	Ach Select
CABLEID	IQUANT	14	Cable ID
DCCALDATE	LABEL	2/27/2020	DC Calibration Date
ACCALDATE	LABEL	2/27/2020	AC Calibration Date
THERMOSELECT	IQUANT	1	Thermo Select
FRAMEWORKVERSION	QUANT	6.33	Framework Version
INSTRUMENTVERSION	LABEL	3.50	Instrument Version
ZCURVE	TABLE
	Pt	Time	Freq	Zreal	Zimag	Zsig	Zmod	Zphz	Idc	Vdc	IERange
	#	s	Hz	ohm	ohm	V	ohm	°	A	V	#
	0	1	1000078	2101.392	-1826.848	1	2784.46	-41.00211	-2.016561E-006	0.1151329	8
	1	3	794390.6	2474.916	-1846.466	1	3087.822	-36.72559	-8.729472E-007	0.1149192	8
	2	4	630984.4	2850.728	-1802.511	1	3372.788	-32.3051	3.177051E-006	0.1138574	8
	3	5	501234.4	3188.433	-1707.477	1	3616.847	-28.17004	-7.370815E-007	0.1144449	8
	4	7	398109.4	3505.417	-1577.194	1	3843.89	-24.22443	2.423994E-007	0.1143055	8
	5	8	316265.6	3732.286	-1409.715	1	3989.643	-20.69196	-1.165635E-006	0.1144943	8
	6	9	251203.1	3932.017	-1275.221	1	4133.636	-17.96878	-1.452823E-006	0.1147663	8
	7	11	199546.9	4076.864	-1131.919	1	4231.083	-15.51702	1.915722E-007	0.1142687	8
	8	12	158578.1	4202.749	-1012.272	1	4322.937	-13.54228	1.983675E-007	0.1142637	8
	9	14	125953.1	4314.956	-875.5745	1	4402.894	-11.4705	2.623527E-007	0.1137197	7
	10	15	100078.1	4390.566	-810.2643	1	4464.706	-10.4561	3.096927E-008	0.1140998	7
	11	16	79453.13	4462.118	-768.9112	1	4527.882	-9.77718	3.527141E-008	0.1141236	7
	12	18	63140.62	4529.483	-746.175	1	4590.533	-9.354734	3.472916E-008	0.1142374	7
	13	19	50203.12	4594.215	-740.8496	1	4653.565	-9.16049	3.558396E-008	0.1141183	7
	14	20	39890.62	4657.784	-756.9037	1	4718.882	-9.230052	-6.296729E-009	0.1141483	7
	15	22	31640.63	4726.532	-792.6536	1	4792.537	-9.52009	1.768622E-008	0.114175	7
	16	23	25171.88	4798.673	-845.1987	1	4872.538	-9.98915	-2.709642E-008	0.1143028	7
	17	24	20015.62	4877.652	-918.6099	1	4963.4	-10.66561	-4.123742E-008	0.1142658	7
	18	26	15890.62	4965.108	-1012.362	1	5067.266	-11.52437	-6.087309E-009	0.1141419	7
	19	27	12609.37	5073.126	-1131.781	1	5197.84	-12.57636	3.613409E-008	0.1142254	7
	20	28	10078.13	5171.532	-1266.986	1	5324.472	-13.76589	2.199783E-008	0.1142435	7
	21	30	8015.625	5295.868	-1434.966	1	5486.834	-15.1608	-9.681453E-009	0.1141734	7
	22	31	6328.125	5442.615	-1643.131	1	5685.238	-16.79912	-3.867918E-008	0.1142728	7
	23	32	5015.625	5605.529	-1880.792	1	5912.642	-18.54786	6.386139E-008	0.1141722	7
	24	34	3984.375	5789.037	-2158.123	1	6178.224	-20.44519	8.684243E-008	0.1140516	7
	25	35	3170.956	5993.543	-2476.649	1	6485.087	-22.45137	-9.610579E-009	0.1141735	7
	26	37	2527.573	6225.669	-2851.688	1	6847.707	-24.6103	-7.148051E-009	0.1141498	7
	27	38	1976.103	6514.273	-3326.764	1	7314.583	-27.05287	-5.61941E-008	0.1142633	7
	28	39	1577.524	6816.841	-3848.817	1	7828.328	-29.44925	6.437593E-008	0.1141754	7
	29	41	1265.625	7140.64	-4431.334	1	8403.896	-31.82289	-3.37673E-008	0.1141886	7
	30	42	998.264	7551.106	-5195.904	1	9166.059	-34.5318	3.948896E-008	0.114225	7
	31	43	796.875	7995.075	-6036.762	1	10018.17	-37.055	1.123516E-008	0.1141028	6
	32	45	627.7902	8532.29	-7104.141	1	11102.65	-39.78139	8.577597E-009	0.1142274	6
	33	46	505.5147	9096.654	-8243.55	1	12276.21	-42.18343	7.916615E-009	0.1140508	6
	34	47	397.9953	9812.05	-9744.83	1	13828.88	-44.80305	6.889153E-010	0.1142647	6
	35	49	315.5048	10624.9	-11479.63	1	15641.95	-47.21439	8.309092E-010	0.1142655	6
	36	50	252.4038	11533.13	-13456.64	1	17722.7	-49.40148	1.758352E-010	0.1142665	6
	37	52	198.6229	12677.11	-15984.95	1	20401.67	-51.58328	3.657004E-010	0.1142689	6
	38	53	158.3615	13949.07	-18830.9	1	23434.58	-53.47064	1.870092E-010	0.1142673	6
	39	54	125.558	15483.07	-22285.64	1	27136.23	-55.21015	3.475933E-010	0.1142751	6
	40	56	100.4464	17214.81	-26241.41	1	31384.09	-56.73444	3.828156E-010	0.114266	6
	41	57	79.00281	19458.36	-31251.81	1	36814.44	-58.09231	6.030036E-010	0.1142628	6
	42	58	63.3446	21947.13	-36828.86	1	42872.39	-59.20835	3.658842E-010	0.1142685	6
	43	60	49.86702	24652.84	-43609.73	1	50095.62	-60.52026	3.872086E-010	0.1142639	6
	44	61	39.72458	28031.68	-51542.43	1	58671.95	-61.46016	5.204173E-010	0.1142684	6
	45	63	31.6723	31729.95	-61008.5	1	68766.46	-62.52148	5.468744E-010	0.114268	6
	46	64	24.93351	36160.59	-72875.26	1	81353.5	-63.60946	7.189983E-011	0.1142626	6
	47	65	19.86229	41034.7	-86665.67	1	95889.4	-64.66325	5.289339E-010	0.1142699	6
	48	67	15.83615	46922.95	-103492	1	113632.5	-65.6106	-4.822711E-010	0.1142642	5
	49	68	12.40079	53638.25	-125226.2	1	136230.2	-66.81306	3.612336E-010	0.1142701	5
	50	70	9.93114	62342.53	-149133.3	1	161639.5	-67.3135	-1.256224E-010	0.1142719	5
	51	71	7.944915	72418.07	-178638.8	1	192759.4	-67.93294	3.998745E-010	0.1142712	5
	52	73	6.317385	85386.45	-214712.9	1	231068.1	-68.31341	1.85372E-010	0.1142824	5
	53	75	5.008013	102378.8	-258816.9	1	278330	-68.41801	2.542662E-010	0.114271	5
	54	77	3.945707	124634	-313106.4	1	337000.3	-68.29466	1.435297E-010	0.1142658	5
	55	80	3.158693	151301.7	-372694.9	1	402235.9	-67.90448	1.907253E-010	0.1142845	5
	56	83	2.504006	186868.9	-445860.9	1	483437.6	-67.26051	-4.66982E-011	0.1142604	5
	57	86	1.998082	230259	-527404.2	1	575477.5	-66.41444	-2.906889E-011	0.1142525	5
	58	89	1.584686	288149.7	-622621.1	1	686066.5	-65.16525	7.502073E-011	0.1143131	5
	59	93	1.266892	354282.8	-728489.8	1	810070.1	-64.06519	-5.155059E-011	0.1142548	5
	60	97	0.999041	442799.8	-854441.4	1	962363	-62.60532	2.676978E-010	0.1143039	5
