EXPLAIN
TAG	EISPOT
TITLE	LABEL	Potentiostatic EIS	Test &Identifier
DATE	LABEL	3/17/2020	Date
TIME	LABEL	16:09:02	Time
NOTES	NOTES	1	&Notes...
	
PSTAT	PSTAT	REF600-11020	Potentiostat
VDC	POTEN	0.00000E+000	T	DC &Voltage (V)
FREQINIT	QUANT	1.00000E+006	Initial Fre&q. (Hz)
FREQFINAL	QUANT	1.00000E+000	Final Fre&q. (Hz)
PTSPERDEC	QUANT	1.00000E+001	Points/&decade
VAC	QUANT	2.50000E+001	AC &Voltage (mV rms)
AREA	QUANT	4.00000E-004	&Area (cm^2)
CONDIT	TWOPARAM	F	5.00000E+000	0.00000E+000	Conditionin&g	Time(s)	E(V)
DELAY	TWOPARAM	T	3.00000E+000	0.00000E+000	Init. De&lay	Time(s)	Stab.(mV/s)
SPEED	SELECTOR	0	&Optimize for:
ZGUESS	QUANT	5.00000E+003	E&stimated Z (ohms)
OCVCURVE	TABLE	12
	Pt	T	Vf	Vm	Ach	Over
	#	s	V vs. Ref.	V	V	bits
	0	0.258333	-2.50988E-002	-2.50988E-002	5.77063E-004	...........
	1	0.516667	-2.50989E-002	-2.51049E-002	5.74463E-004	...........
	2	0.775	-2.50997E-002	-2.51130E-002	5.76097E-004	...........
	3	1.03333	-2.51019E-002	-2.51183E-002	5.76263E-004	...........
	4	1.29167	-2.51060E-002	-2.51233E-002	5.78530E-004	...........
	5	1.55	-2.51115E-002	-2.51318E-002	5.73063E-004	...........
	6	1.80833	-2.51175E-002	-2.51375E-002	5.73097E-004	...........
	7	2.06667	-2.51239E-002	-2.51434E-002	5.70230E-004	...........
	8	2.325	-2.51304E-002	-2.51490E-002	5.73763E-004	...........
	9	2.58333	-2.51367E-002	-2.51536E-002	5.70997E-004	...........
	10	2.84167	-2.51427E-002	-2.51613E-002	5.75463E-004	...........
	11	3.1	-2.51484E-002	-2.51642E-002	5.73763E-004	...........
EOC	QUANT	-0.0251484	Open Circuit (V)
PSTATMODEL	IQUANT	4	Pstat Model
PSTATSECTION	LABEL	REF600-11020	Pstat Section
PSTATSERIALNO	LABEL	11020	Pstat Serial Number
CTRLMODE	IQUANT	1	Control Mode
IESTAB	IQUANT	0	I/E Stability
CASPEED	IQUANT	1	Control Amp Speed
CONVENTION	IQUANT	1	Current Convention
ICHRANGE	IQUANT	2	Ich Range
ICHRANGEMODE	TOGGLE	F	Ich Auto Range
ICHOFFSETENABLE	TOGGLE	T	Ich Offset Enable
ICHOFFSET	QUANT	0	Ich Offset (V)
ICHFILTER	IQUANT	3	Ich Filter
VCHRANGE	IQUANT	2	Vch Range
VCHRANGEMODE	TOGGLE	F	Vch Auto Range
VCHOFFSETENABLE	TOGGLE	T	Vch Offset Enable
VCHOFFSET	QUANT	0	Vch Offset (V)
VCHFILTER	IQUANT	3	Vch Filter
ACHRANGE	IQUANT	2	Ach Range
ACHOFFSETENABLE	TOGGLE	F	Ach Offset Enable
ACHOFFSET	QUANT	0	Ach Offset (V)
ACHFILTER	IQUANT	3	Ach Filter
IERANGELOWERLIMIT	IQUANT	1	I/E Range Lower Limit
IERANGEMODE	TOGGLE	F	I/E AutoRange
IERANGE	IQUANT	6	I/E Range
POSFEEDENABLE	TOGGLE	F	Positive Feedback IR Comp
POSFEEDRESISTANCE	QUANT	0	Positive Feedback Resistance (ohm)
ACHSELECT	IQUANT	0	Ach Select
CABLEID	IQUANT	14	Cable ID
DCCALDATE	LABEL	2/27/2020	DC Calibration Date
ACCALDATE	LABEL	2/27/2020	AC Calibration Date
THERMOSELECT	IQUANT	1	Thermo Select
FRAMEWORKVERSION	QUANT	6.33	Framework Version
INSTRUMENTVERSION	LABEL	3.50	Instrument Version
ZCURVE	TABLE
	Pt	Time	Freq	Zreal	Zimag	Zsig	Zmod	Zphz	Idc	Vdc	IERange
	#	s	Hz	ohm	ohm	V	ohm	°	A	V	#
	0	1	1000078	1967.962	-2153.456	1	2917.232	-47.577	1.659202E-008	-0.0229082	8
	1	1	794390.6	2396.604	-2294.415	1	3317.838	-43.75207	1.007568E-007	-0.0232584	8
	2	1	630984.4	2855.469	-2370.02	1	3710.889	-39.69243	3.790552E-009	-0.0233528	8
	3	2	501234.4	3318.342	-2383.485	1	4085.633	-35.68878	3.424198E-008	-0.0234848	8
	4	2	398109.4	3768.385	-2327.964	1	4429.463	-31.70618	2.892775E-008	-0.0235429	8
	5	2	316265.6	4180.949	-2226.333	1	4736.759	-28.03506	4.008255E-008	-0.0235699	8
	6	3	251203.1	4545.05	-2098.522	1	5006.124	-24.78352	3.229433E-008	-0.0235777	8
	7	3	199546.9	4860.983	-1945.559	1	5235.872	-21.81325	4.92982E-008	-0.0235749	8
	8	3	158578.1	5133.812	-1804.184	1	5441.608	-19.36309	4.692843E-008	-0.0235675	8
	9	4	125953.1	5399.25	-1613.354	1	5635.141	-16.63671	1.04054E-009	-0.0236458	7
	10	4	100078.1	5577.162	-1500.724	1	5775.543	-15.06064	1.799803E-009	-0.0236462	7
	11	4	79453.13	5749.483	-1417.887	1	5921.736	-13.85336	1.857602E-009	-0.0236536	7
	12	5	63140.62	5901.919	-1356.484	1	6055.798	-12.94393	2.391707E-009	-0.0236547	7
	13	5	50203.12	6042.007	-1318.455	1	6184.188	-12.30982	2.044295E-009	-0.0236629	7
	14	5	39890.62	6173.46	-1306.352	1	6310.164	-11.94798	1.488297E-009	-0.0236649	7
	15	5	31640.63	6301.602	-1322.424	1	6438.865	-11.85183	1.618146E-009	-0.0236643	7
	16	6	25171.88	6428.463	-1367.124	1	6572.227	-12.00607	2.240725E-009	-0.0236607	7
	17	6	20015.62	6557.124	-1441.83	1	6713.773	-12.40127	2.919123E-009	-0.0236578	7
	18	6	15890.62	6692.264	-1548.952	1	6869.181	-13.03187	2.215577E-009	-0.0236663	7
	19	7	12609.37	6838.349	-1693.549	1	7044.936	-13.9097	3.190861E-009	-0.023664	7
	20	7	10078.13	6990.981	-1871.294	1	7237.096	-14.98522	2.817998E-009	-0.0236709	7
	21	7	8015.625	7161.662	-2093.543	1	7461.389	-16.29504	2.055867E-009	-0.0236711	7
	22	8	6328.125	7358.808	-2378.877	1	7733.764	-17.91443	2.183068E-009	-0.0236717	7
	23	8	5015.625	7578.722	-2720.316	1	8052.151	-19.74516	3.681855E-009	-0.023669	7
	24	8	3984.375	7822.843	-3123.503	1	8423.369	-21.76583	2.760479E-009	-0.0236748	7
	25	9	3170.956	8102.004	-3603.435	1	8867.199	-23.97751	2.294484E-009	-0.023677	7
	26	9	2527.573	8429.961	-4155.047	1	9398.333	-26.23825	1.279658E-010	-0.0236297	6
	27	9	1976.103	8831.931	-4892.314	1	10096.42	-28.98359	2.464227E-010	-0.0236253	6
	28	10	1577.524	9260.892	-5692.489	1	10870.54	-31.57823	6.374173E-011	-0.023628	6
	29	10	1265.625	9746.83	-6612.613	1	11778.26	-34.15442	3.96283E-010	-0.0236223	6
	30	10	998.264	10364.85	-7781.479	1	12960.77	-36.89762	3.791479E-010	-0.0236231	6
	31	11	796.875	11064.09	-9089.651	1	14319.07	-39.40465	-7.691599E-011	-0.023629	6
	32	11	627.7902	11941.05	-10717.93	1	16045.64	-41.91022	1.945785E-010	-0.0236308	6
	33	11	505.5147	12883.2	-12447.8	1	17914.36	-44.01527	1.218548E-010	-0.023633	6
	34	12	397.9953	14121.88	-14671.21	1	20363.49	-46.09297	4.180581E-010	-0.0236149	6
	35	12	315.5048	15559.55	-17191.11	1	23186.93	-47.85199	4.84634E-010	-0.0236169	6
	36	12	252.4038	17192.8	-19991.93	1	26367.97	-49.3049	4.112456E-010	-0.0236211	6
	37	12	198.6229	19262.46	-23471.77	1	30363.9	-50.62546	4.374218E-010	-0.0236162	6
	38	13	158.3615	21559.34	-27277.58	1	34768.83	-51.67828	3.665163E-010	-0.0236232	6
	39	13	125.558	24303.06	-31779.14	1	40006.91	-52.59309	4.278042E-010	-0.0236265	6
	40	13	100.4464	27357.22	-36778.79	1	45837.72	-53.35697	3.627128E-010	-0.0236241	6
	41	14	79.00281	31171.57	-43023.18	1	53128.71	-54.07556	4.433306E-010	-0.0236271	6
	42	14	63.3446	35241.74	-49710.62	1	60935.42	-54.66573	4.155621E-010	-0.0236283	6
	43	15	49.86702	40361.9	-58136.62	1	70773.93	-55.22932	1.85221E-010	-0.0236279	6
	44	15	39.72458	46080.05	-67503.2	1	81731.59	-55.68118	3.380714E-010	-0.0236271	6
	45	15	31.6723	52767.8	-78367.29	1	94476.84	-56.04606	-3.89893E-013	-0.0236258	6
	46	16	24.93351	61164.97	-91626.7	1	110166.3	-56.27509	5.217598E-010	-0.023626	5
	47	16	19.86229	70623.13	-106336.8	1	127652.4	-56.41005	5.658511E-010	-0.0236227	5
	48	16	15.83615	81855.06	-123260	1	147963.8	-56.41248	4.063896E-010	-0.0236251	5
	49	16	12.40079	96548.9	-144248.1	1	173577.7	-56.2046	1.216655E-009	-0.0236238	5
	50	17	9.93114	112248.3	-166081.9	1	200456.7	-55.94677	1.07204E-009	-0.0236199	5
	51	17	7.944915	131551.8	-190748.5	1	231712.8	-55.40748	-5.095037E-010	-0.0236252	5
	52	17	6.317385	155055.4	-219134.5	1	268443.9	-54.7175	4.274514E-010	-0.0236412	5
	53	18	5.008013	183466.7	-250919.5	1	310838.6	-53.82657	6.784232E-010	-0.0236199	5
	54	19	3.945707	218091.7	-285570.2	1	359324.8	-52.6308	1.110954E-010	-0.0236353	5
	55	20	3.158693	255170.5	-320822.2	1	409925.4	-51.50251	4.620399E-010	-0.0236182	5
	56	21	2.504006	298852.6	-358857.5	1	467002.8	-50.21284	1.600899E-010	-0.0236229	5
	57	22	1.998082	345788.6	-398922.6	1	527929	-49.08105	-6.016117E-011	-0.0236589	5
	58	24	1.584686	397833.4	-441417.3	1	594239.6	-47.97281	9.618459E-011	-0.0236167	5
	59	26	1.266892	454152.6	-486525.1	1	665553.4	-46.971	1.965624E-010	-0.0235974	5
	60	28	0.999041	518209.9	-540239.8	1	748599.1	-46.19234	2.73587E-010	-0.0235928	5
