EXPLAIN
TAG	EISPOT
TITLE	LABEL	Potentiostatic EIS	Test &Identifier
DATE	LABEL	6/6/2020	Date
TIME	LABEL	13:36:44	Time
NOTES	NOTES	1	&Notes...
	
PSTAT	PSTAT	REF600-11020	Potentiostat
VDC	POTEN	0.00000E+000	T	DC &Voltage (V)
FREQINIT	QUANT	1.00000E+006	Initial Fre&q. (Hz)
FREQFINAL	QUANT	1.00000E+000	Final Fre&q. (Hz)
PTSPERDEC	QUANT	1.00000E+001	Points/&decade
VAC	QUANT	2.50000E+001	AC &Voltage (mV rms)
AREA	QUANT	2.50000E-001	&Area (cm^2)
CONDIT	TWOPARAM	F	5.00000E+000	0.00000E+000	Conditionin&g	Time(s)	E(V)
DELAY	TWOPARAM	T	3.00000E+000	0.00000E+000	Init. De&lay	Time(s)	Stab.(mV/s)
SPEED	SELECTOR	0	&Optimize for:
ZGUESS	QUANT	1.00000E+003	E&stimated Z (ohms)
OCVCURVE	TABLE	12
	Pt	T	Vf	Vm	Ach	Over
	#	s	V vs. Ref.	V	V	bits
	0	0.258333	-6.42595E-002	-6.42595E-002	5.80930E-004	...........
	1	0.516667	-6.42610E-002	-6.43356E-002	5.81897E-004	...........
	2	0.775	-6.42699E-002	-6.44086E-002	5.83463E-004	...........
	3	1.03333	-6.42952E-002	-6.44773E-002	5.83130E-004	...........
	4	1.29167	-6.43405E-002	-6.45435E-002	5.80730E-004	...........
	5	1.55	-6.44007E-002	-6.46053E-002	5.78697E-004	...........
	6	1.80833	-6.44673E-002	-6.46651E-002	5.81897E-004	...........
	7	2.06667	-6.45339E-002	-6.47215E-002	5.87763E-004	...........
	8	2.325	-6.45978E-002	-6.47787E-002	5.77963E-004	...........
	9	2.58333	-6.46584E-002	-6.48296E-002	5.76363E-004	...........
	10	2.84167	-6.47163E-002	-6.48797E-002	5.77497E-004	...........
	11	3.1	-6.47716E-002	-6.49333E-002	5.82063E-004	...........
EOC	QUANT	-0.0647716	Open Circuit (V)
PSTATMODEL	IQUANT	4	Pstat Model
PSTATSECTION	LABEL	REF600-11020	Pstat Section
PSTATSERIALNO	LABEL	11020	Pstat Serial Number
CTRLMODE	IQUANT	1	Control Mode
IESTAB	IQUANT	0	I/E Stability
CASPEED	IQUANT	1	Control Amp Speed
CONVENTION	IQUANT	1	Current Convention
ICHRANGE	IQUANT	2	Ich Range
ICHRANGEMODE	TOGGLE	F	Ich Auto Range
ICHOFFSETENABLE	TOGGLE	T	Ich Offset Enable
ICHOFFSET	QUANT	0	Ich Offset (V)
ICHFILTER	IQUANT	3	Ich Filter
VCHRANGE	IQUANT	2	Vch Range
VCHRANGEMODE	TOGGLE	F	Vch Auto Range
VCHOFFSETENABLE	TOGGLE	T	Vch Offset Enable
VCHOFFSET	QUANT	0	Vch Offset (V)
VCHFILTER	IQUANT	3	Vch Filter
ACHRANGE	IQUANT	2	Ach Range
ACHOFFSETENABLE	TOGGLE	F	Ach Offset Enable
ACHOFFSET	QUANT	0	Ach Offset (V)
ACHFILTER	IQUANT	3	Ach Filter
IERANGELOWERLIMIT	IQUANT	1	I/E Range Lower Limit
IERANGEMODE	TOGGLE	F	I/E AutoRange
IERANGE	IQUANT	8	I/E Range
POSFEEDENABLE	TOGGLE	F	Positive Feedback IR Comp
POSFEEDRESISTANCE	QUANT	0	Positive Feedback Resistance (ohm)
ACHSELECT	IQUANT	0	Ach Select
CABLEID	IQUANT	14	Cable ID
DCCALDATE	LABEL	2/27/2020	DC Calibration Date
ACCALDATE	LABEL	2/27/2020	AC Calibration Date
THERMOSELECT	IQUANT	1	Thermo Select
FRAMEWORKVERSION	QUANT	6.33	Framework Version
INSTRUMENTVERSION	LABEL	3.50	Instrument Version
ZCURVE	TABLE
	Pt	Time	Freq	Zreal	Zimag	Zsig	Zmod	Zphz	Idc	Vdc	IERange
	#	s	Hz	ohm	ohm	V	ohm	°	A	V	#
	0	1	1000078	2111.687	-1756.881	1	2746.971	-39.75977	8.774862E-008	-0.0623772	8
	1	2	794390.6	2433.874	-1817.966	1	3037.885	-36.75765	2.445064E-009	-0.0626747	8
	2	2	630984.4	2764.689	-1850.349	1	3326.754	-33.79357	1.07832E-007	-0.0628813	8
	3	2	501234.4	3097.658	-1849.928	1	3608.007	-30.84574	4.614732E-008	-0.0629594	8
	4	3	398109.4	3424.07	-1820.777	1	3878.078	-28.00218	8.844045E-008	-0.0630422	8
	5	3	316265.6	3743.278	-1765.117	1	4138.571	-25.2459	7.368773E-008	-0.0630685	8
	6	3	251203.1	4038.236	-1679.917	1	4373.725	-22.58744	6.033248E-008	-0.0630902	8
	7	3	199546.9	4306.238	-1573.261	1	4584.631	-20.06951	4.658971E-008	-0.0630814	8
	8	4	158578.1	4539.3	-1462.784	1	4769.17	-17.86147	4.611847E-008	-0.0630965	8
	9	4	125953.1	4786.267	-1267.475	1	4951.247	-14.83232	1.3922E-009	-0.0631512	7
	10	4	100078.1	4933.007	-1166.981	1	5069.162	-13.30954	4.470409E-009	-0.0631627	7
	11	5	79453.13	5072.108	-1088.521	1	5187.596	-12.11248	4.568824E-009	-0.0631679	7
	12	5	63140.62	5191.034	-1025.291	1	5291.319	-11.17279	4.442265E-009	-0.0631652	7
	13	5	50203.12	5295.161	-981.229	1	5385.308	-10.49821	3.784397E-009	-0.0631737	7
	14	6	39890.62	5389.775	-958.945	1	5474.418	-10.08845	4.5189E-009	-0.063172	7
	15	6	31640.63	5477.875	-959.534	1	5561.279	-9.93544	4.251694E-009	-0.0631783	7
	16	6	25171.88	5564.779	-983.234	1	5650.975	-10.0201	4.812712E-009	-0.0631825	7
	17	7	20015.62	5653.738	-1031.972	1	5747.149	-10.34427	5.256518E-009	-0.063176	7
	18	7	15890.62	5748.771	-1106.932	1	5854.371	-10.89897	5.767503E-009	-0.0631719	7
	19	7	12609.37	5851.411	-1208.502	1	5974.905	-11.66933	5.833126E-009	-0.063178	7
	20	8	10078.13	5961.208	-1334.79	1	6108.819	-12.62107	6.083452E-009	-0.0631785	7
	21	8	8015.625	6086.09	-1494.391	1	6266.873	-13.79559	6.341599E-009	-0.063183	7
	22	8	6328.125	6230.168	-1693.891	1	6456.335	-15.2102	6.468492E-009	-0.0631801	7
	23	9	5015.625	6391.503	-1930.084	1	6676.566	-16.80309	5.350688E-009	-0.0631879	7
	24	9	3984.375	6574.861	-2210.354	1	6936.459	-18.58175	5.597126E-009	-0.0631847	7
	25	9	3170.956	6776.971	-2534.86	1	7235.527	-20.50782	4.863748E-009	-0.0631944	7
	26	10	2527.573	7005.122	-2918.94	1	7588.935	-22.62084	6.751023E-009	-0.0631842	7
	27	10	1976.103	7279.368	-3406.215	1	8036.884	-25.07618	5.058928E-009	-0.0631938	7
	28	10	1577.524	7559.824	-3938.679	1	8524.326	-27.51958	5.579766E-009	-0.0631909	7
	29	10	1265.625	7865.19	-4556.278	1	9089.603	-30.08357	5.054716E-009	-0.0631965	7
	30	11	998.264	8234.215	-5347.428	1	9818.21	-33.00032	4.380225E-010	-0.0631348	6
	31	11	796.875	8615.896	-6270.451	1	10656.09	-36.04626	6.174039E-010	-0.0631333	6
	32	11	627.7902	9075.327	-7457.552	1	11746.35	-39.41129	8.181031E-010	-0.0631331	6
	33	12	505.5147	9554	-8766.172	1	12966.29	-42.53762	6.025475E-010	-0.0631395	6
	34	12	397.9953	10175.3	-10520.81	1	14636.4	-45.95642	9.781835E-010	-0.0631209	6
	35	12	315.5048	10908.22	-12604.92	1	16669.53	-49.12727	9.349881E-010	-0.0631208	6
	36	13	252.4038	11771.93	-15025.14	1	19087.51	-51.92194	1.00348E-009	-0.0631267	6
	37	13	198.6229	12926.41	-18159.35	1	22290.22	-54.55551	1.022822E-009	-0.0631209	6
	38	13	158.3615	14297.58	-21717.32	1	26001.21	-56.64111	1.021497E-009	-0.0631234	6
	39	14	125.558	16057.05	-26059.88	1	30609.57	-58.3603	1.050805E-009	-0.0631234	6
	40	14	100.4464	18169.04	-31001.79	1	35933.62	-59.62695	8.487199E-010	-0.0631236	6
	41	14	79.00281	21018.05	-37296.25	1	42810.85	-60.59686	8.738654E-010	-0.0631291	6
	42	15	63.3446	24301.58	-44111.05	1	50362.21	-61.14884	8.028061E-010	-0.0631306	6
	43	15	49.86702	28773.9	-52750.15	1	60087.57	-61.38863	5.981634E-010	-0.0631304	6
	44	15	39.72458	34121.57	-62274.32	1	71009.67	-61.28062	1.004797E-009	-0.0631252	6
	45	16	31.6723	40794.62	-73152.78	1	83758.77	-60.8532	1.240525E-009	-0.0631255	6
	46	16	24.93351	49626.21	-86153.85	1	99424.6	-60.05726	4.699195E-010	-0.0631308	6
	47	16	19.86229	59914.51	-99819.9	1	116420.6	-59.02673	4.449121E-010	-0.0631197	5
	48	17	15.83615	72257.02	-114912.2	1	135742	-57.83823	-1.251563E-009	-0.0631189	5
	49	17	12.40079	87902.36	-132387.6	1	158912.8	-56.41674	-8.130556E-010	-0.0631221	5
	50	17	9.93114	104281.4	-149154.2	1	181993.4	-55.04062	-1.140308E-009	-0.0631207	5
	51	18	7.944915	122147.4	-167840.8	1	207582.6	-53.95448	-5.476924E-010	-0.0631143	5
	52	18	6.317385	142897.7	-188328.1	1	236404.8	-52.80988	5.936851E-010	-0.0631295	5
	53	19	5.008013	165808	-211119.7	1	268447	-51.85482	2.722186E-010	-0.0631269	5
	54	20	3.945707	190762.9	-237861.2	1	304907.2	-51.27065	-2.835595E-011	-0.0631277	5
	55	21	3.158693	215643.5	-265730.4	1	342220.4	-50.94024	3.315382E-010	-0.0631457	5
	56	22	2.504006	243378.1	-300559.9	1	386741.7	-51.00122	5.524219E-010	-0.0631347	5
	57	23	1.998082	272075	-339668.9	1	435200.8	-51.30525	2.810835E-010	-0.0631624	5
	58	25	1.584686	305098.4	-389885.2	1	495071.2	-51.95562	2.340655E-010	-0.0631844	5
	59	27	1.266892	339884.1	-447194.5	1	561697.6	-52.76384	3.066956E-010	-0.06315	5
	60	29	0.999041	383983.1	-519462	1	645975	-53.52842	3.50959E-010	-0.0631313	5
