EXPLAIN
TAG	EISPOT
TITLE	LABEL	Potentiostatic EIS	Test &Identifier
DATE	LABEL	6/1/2020	Date
TIME	LABEL	13:20:22	Time
NOTES	NOTES	1	&Notes...
	
PSTAT	PSTAT	REF600-11020	Potentiostat
VDC	POTEN	0.00000E+000	T	DC &Voltage (V)
FREQINIT	QUANT	1.00000E+006	Initial Fre&q. (Hz)
FREQFINAL	QUANT	1.00000E+000	Final Fre&q. (Hz)
PTSPERDEC	QUANT	1.00000E+001	Points/&decade
VAC	QUANT	2.50000E+001	AC &Voltage (mV rms)
AREA	QUANT	4.00000E-004	&Area (cm^2)
CONDIT	TWOPARAM	F	5.00000E+000	0.00000E+000	Conditionin&g	Time(s)	E(V)
DELAY	TWOPARAM	T	3.00000E+000	0.00000E+000	Init. De&lay	Time(s)	Stab.(mV/s)
SPEED	SELECTOR	0	&Optimize for:
ZGUESS	QUANT	1.00000E+003	E&stimated Z (ohms)
OCVCURVE	TABLE	12
	Pt	T	Vf	Vm	Ach	Over
	#	s	V vs. Ref.	V	V	bits
	0	0.258333	-2.21162E-002	-2.21162E-002	5.67130E-004	...........
	1	0.516667	-2.21162E-002	-2.21182E-002	5.68563E-004	...........
	2	0.775	-2.21164E-002	-2.21168E-002	5.67263E-004	...........
	3	1.03333	-2.21167E-002	-2.21159E-002	5.69363E-004	...........
	4	1.29167	-2.21169E-002	-2.21195E-002	5.67130E-004	...........
	5	1.55	-2.21171E-002	-2.21201E-002	5.64897E-004	...........
	6	1.80833	-2.21177E-002	-2.21223E-002	5.70330E-004	...........
	7	2.06667	-2.21188E-002	-2.21250E-002	5.62664E-004	...........
	8	2.325	-2.21204E-002	-2.21257E-002	5.75463E-004	...........
	9	2.58333	-2.21222E-002	-2.21281E-002	5.68497E-004	...........
	10	2.84167	-2.21241E-002	-2.21295E-002	5.68230E-004	...........
	11	3.1	-2.21260E-002	-2.21322E-002	5.73630E-004	...........
EOC	QUANT	-0.022126	Open Circuit (V)
PSTATMODEL	IQUANT	4	Pstat Model
PSTATSECTION	LABEL	REF600-11020	Pstat Section
PSTATSERIALNO	LABEL	11020	Pstat Serial Number
CTRLMODE	IQUANT	1	Control Mode
IESTAB	IQUANT	0	I/E Stability
CASPEED	IQUANT	1	Control Amp Speed
CONVENTION	IQUANT	1	Current Convention
ICHRANGE	IQUANT	2	Ich Range
ICHRANGEMODE	TOGGLE	F	Ich Auto Range
ICHOFFSETENABLE	TOGGLE	T	Ich Offset Enable
ICHOFFSET	QUANT	0	Ich Offset (V)
ICHFILTER	IQUANT	3	Ich Filter
VCHRANGE	IQUANT	2	Vch Range
VCHRANGEMODE	TOGGLE	F	Vch Auto Range
VCHOFFSETENABLE	TOGGLE	T	Vch Offset Enable
VCHOFFSET	QUANT	0	Vch Offset (V)
VCHFILTER	IQUANT	3	Vch Filter
ACHRANGE	IQUANT	2	Ach Range
ACHOFFSETENABLE	TOGGLE	F	Ach Offset Enable
ACHOFFSET	QUANT	0	Ach Offset (V)
ACHFILTER	IQUANT	3	Ach Filter
IERANGELOWERLIMIT	IQUANT	1	I/E Range Lower Limit
IERANGEMODE	TOGGLE	F	I/E AutoRange
IERANGE	IQUANT	7	I/E Range
POSFEEDENABLE	TOGGLE	F	Positive Feedback IR Comp
POSFEEDRESISTANCE	QUANT	0	Positive Feedback Resistance (ohm)
ACHSELECT	IQUANT	0	Ach Select
CABLEID	IQUANT	14	Cable ID
DCCALDATE	LABEL	2/27/2020	DC Calibration Date
ACCALDATE	LABEL	2/27/2020	AC Calibration Date
THERMOSELECT	IQUANT	1	Thermo Select
FRAMEWORKVERSION	QUANT	6.33	Framework Version
INSTRUMENTVERSION	LABEL	3.50	Instrument Version
ZCURVE	TABLE
	Pt	Time	Freq	Zreal	Zimag	Zsig	Zmod	Zphz	Idc	Vdc	IERange
	#	s	Hz	ohm	ohm	V	ohm	°	A	V	#
	0	1	1000078	2074.066	-1976.907	1	2865.294	-43.62608	4.047923E-008	-0.0200379	8
	1	2	794390.6	2380.436	-2092.444	1	3169.353	-41.31602	7.691178E-008	-0.0203553	8
	2	2	630984.4	2682.799	-2199.839	1	3469.395	-39.35104	3.127614E-008	-0.0204701	8
	3	2	501234.4	2981.208	-2319.566	1	3777.298	-37.88515	4.703095E-008	-0.0205245	8
	4	3	398109.4	3270.141	-2461.455	1	4092.992	-36.969	3.374518E-008	-0.0205919	8
	5	3	316265.6	3568.252	-2641.382	1	4439.519	-36.51052	4.268616E-008	-0.0205837	8
	6	3	251203.1	3897.495	-2871.05	1	4840.805	-36.37684	4.632014E-008	-0.020605	8
	7	3	199546.9	4264.489	-3153.919	1	5304.062	-36.48578	5.198623E-008	-0.0206013	8
	8	4	158578.1	4677.565	-3467.101	1	5822.405	-36.54655	4.940984E-008	-0.0205985	8
	9	4	125953.1	5273.115	-3755.994	1	6474.043	-35.46194	-1.441933E-011	-0.0206612	7
	10	4	100078.1	5840.416	-4138.32	1	7157.943	-35.32009	3.158034E-009	-0.0206744	7
	11	5	79453.13	6533.287	-4524.573	1	7947.05	-34.70421	2.839241E-009	-0.0206768	7
	12	5	63140.62	7322.725	-4864.998	1	8791.502	-33.59887	2.018679E-009	-0.0206817	7
	13	5	50203.12	8209.928	-5143.166	1	9687.88	-32.06537	2.901141E-009	-0.0206874	7
	14	6	39890.62	9166.26	-5318.309	1	10597.39	-30.12252	3.287754E-009	-0.0206908	7
	15	6	31640.63	10155.44	-5386.19	1	11495.39	-27.94035	3.687023E-009	-0.0206833	7
	16	6	25171.88	11114.78	-5333.805	1	12328.34	-25.63559	2.387782E-009	-0.0206878	7
	17	7	20015.62	12026.52	-5180.345	1	13094.77	-23.30365	2.333553E-009	-0.0206923	7
	18	7	15890.62	12872.88	-4969.443	1	13798.78	-21.10857	2.582652E-009	-0.0206941	7
	19	7	12609.37	13760.78	-4521.948	1	14484.72	-18.19111	3.757978E-010	-0.0206374	6
	20	8	10078.13	14374.05	-4301.911	1	15003.99	-16.66155	4.433064E-010	-0.0206433	6
	21	8	8015.625	14915.78	-4102.121	1	15469.58	-15.37726	5.205037E-010	-0.0206425	6
	22	8	6328.125	15416.5	-3945.717	1	15913.42	-14.35617	4.267389E-010	-0.0206418	6
	23	9	5015.625	15853.86	-3854.662	1	16315.74	-13.66557	4.101756E-010	-0.0206415	6
	24	9	3984.375	16246.71	-3833.797	1	16692.92	-13.27742	2.72193E-010	-0.0206437	6
	25	9	3170.956	16625.4	-3897.323	1	17076.1	-13.19304	4.575268E-010	-0.0206415	6
	26	10	2527.573	16988.68	-4041.046	1	17462.68	-13.38013	4.004853E-010	-0.0206415	6
	27	10	1976.103	17402.28	-4301.761	1	17926.08	-13.8849	1.751491E-010	-0.0206468	6
	28	10	1577.524	17796.84	-4639.66	1	18391.69	-14.61185	1.817022E-010	-0.0206425	6
	29	10	1265.625	18212.17	-5068.389	1	18904.28	-15.55171	2.970306E-010	-0.0206501	6
	30	11	998.264	18695.47	-5649.705	1	19530.48	-16.81463	2.301562E-011	-0.0206535	6
	31	11	796.875	19198.99	-6330.699	1	20215.81	-18.24952	1.229441E-010	-0.0206511	6
	32	11	627.7902	19797.84	-7205.294	1	21068.24	-19.99864	1.370942E-010	-0.0206515	6
	33	12	505.5147	20409.24	-8167.639	1	21982.88	-21.81096	1.366935E-010	-0.0206462	6
	34	12	397.9953	21158.4	-9433.462	1	23166.1	-24.02968	3.79343E-010	-0.0206395	6
	35	12	315.5048	22005.66	-10909.11	1	24561.31	-26.3695	2.030424E-010	-0.0206338	6
	36	13	252.4038	22924.63	-12594.54	1	26156.47	-28.78391	2.85635E-010	-0.0206475	6
	37	13	198.6229	24072.46	-14749.39	1	28231.68	-31.49614	3.032272E-010	-0.0206414	6
	38	13	158.3615	25320.53	-17175.24	1	30596.05	-34.14955	2.872674E-010	-0.0206425	6
	39	14	125.558	26808.01	-20127.57	1	33522.96	-36.89938	4.595809E-010	-0.0206418	6
	40	14	100.4464	28481.98	-23500.28	1	36925.42	-39.52579	3.790162E-010	-0.0206427	6
	41	14	79.00281	30599.67	-27829.96	1	41362.38	-42.28606	2.86814E-010	-0.0206442	6
	42	15	63.3446	32941.78	-32567.79	1	46323.01	-44.67291	2.643062E-010	-0.0206441	6
	43	15	49.86702	35988.89	-38661.21	1	52819.4	-47.0502	5.778556E-010	-0.020645	6
	44	15	39.72458	39561.17	-45500.08	1	60293.81	-48.99386	5.706983E-012	-0.0206432	6
	45	16	31.6723	43897.56	-53447.22	1	69163.59	-50.60287	2.952495E-010	-0.0206458	6
	46	16	24.93351	49554.09	-63199.54	1	80310.58	-51.90038	1.051775E-011	-0.0206479	6
	47	16	19.86229	56135.85	-73858.55	1	92770.25	-52.76352	-4.274126E-011	-0.0206478	6
	48	17	15.83615	64007.2	-85827.05	1	107066.4	-53.28554	-2.722229E-010	-0.0206431	5
	49	17	12.40079	74333.95	-100599.9	1	125083.5	-53.53905	-1.807309E-009	-0.0206345	5
	50	17	9.93114	85080.94	-115444.2	1	143409	-53.61026	-1.720331E-009	-0.0206406	5
	51	18	7.944915	97608.6	-132593.4	1	164646.4	-53.64137	-3.476222E-010	-0.0206404	5
	52	18	6.317385	112434.3	-152138	1	189175.7	-53.53454	9.348691E-011	-0.0206505	5
	53	19	5.008013	129692.2	-174592.6	1	217491.7	-53.39403	-2.766212E-010	-0.0206584	5
	54	20	3.945707	150117.3	-201054	1	250914.1	-53.25308	-3.126073E-010	-0.0206483	5
	55	21	3.158693	171505.3	-228815.5	1	285955.6	-53.14714	-1.394002E-010	-0.0206698	5
	56	22	2.504006	197486.1	-262135.5	1	328200.9	-53.00658	2.986446E-010	-0.0206631	5
	57	23	1.998082	225377.3	-298364.1	1	373919.8	-52.93346	9.895337E-011	-0.0206716	5
	58	25	1.584686	259620.9	-341561	1	429030.2	-52.76149	-5.96985E-011	-0.0207046	5
	59	26	1.266892	295883.3	-389595.5	1	489215.2	-52.78468	-2.810075E-011	-0.0206931	5
	60	29	0.999041	339782.7	-446854.7	1	561365.6	-52.75109	-7.539618E-012	-0.0206705	5
