EXPLAIN
TAG	EISPOT
TITLE	LABEL	Potentiostatic EIS	Test &Identifier
DATE	LABEL	2/18/2020	Date
TIME	LABEL	16:09:05	Time
NOTES	NOTES	1	&Notes...
	
PSTAT	PSTAT	REF600-11020	Potentiostat
VDC	POTEN	0.00000E+000	T	DC &Voltage (V)
FREQINIT	QUANT	1.00000E+006	Initial Fre&q. (Hz)
FREQFINAL	QUANT	1.00000E+000	Final Fre&q. (Hz)
PTSPERDEC	QUANT	1.00000E+001	Points/&decade
VAC	QUANT	2.50000E+001	AC &Voltage (mV rms)
AREA	QUANT	1.60000E-004	&Area (cm^2)
CONDIT	TWOPARAM	F	1.50000E+001	0.00000E+000	Conditionin&g	Time(s)	E(V)
DELAY	TWOPARAM	F	1.00000E+002	0.00000E+000	Init. De&lay	Time(s)	Stab.(mV/s)
SPEED	SELECTOR	1	&Optimize for:
ZGUESS	QUANT	1.00000E+003	E&stimated Z (ohms)
OCVCURVE	TABLE	39
	Pt	T	Vf	Vm	Ach	Over
	#	s	V vs. Ref.	V	V	bits
	0	0.258333	-3.98616E-002	-3.98616E-002	5.73371E-004	...........
	1	0.516667	-3.98619E-002	-3.98736E-002	5.69638E-004	...........
	2	0.775	-3.98629E-002	-3.98646E-002	5.65271E-004	...........
	3	1.03333	-3.98657E-002	-3.99204E-002	5.68704E-004	...........
	4	1.29167	-3.98731E-002	-3.99470E-002	5.69771E-004	...........
	5	1.55	-3.98847E-002	-3.97679E-002	5.64938E-004	...........
	6	1.80833	-3.98899E-002	-3.98810E-002	5.71838E-004	...........
	7	2.06667	-3.98816E-002	-3.99143E-002	5.72671E-004	...........
	8	2.325	-3.98747E-002	-4.00303E-002	5.66638E-004	...........
	9	2.58333	-3.98909E-002	-4.00488E-002	5.68004E-004	...........
	10	2.84167	-3.99333E-002	-4.00903E-002	5.68838E-004	...........
	11	3.1	-3.99879E-002	-4.01353E-002	5.67104E-004	...........
	12	3.35833	-4.00403E-002	-4.01420E-002	5.69104E-004	...........
	13	3.61667	-4.00841E-002	-4.01787E-002	5.65138E-004	...........
	14	3.875	-4.01182E-002	-4.01529E-002	5.66871E-004	...........
	15	4.13333	-4.01419E-002	-4.01500E-002	5.69771E-004	...........
	16	4.39167	-4.01542E-002	-4.01509E-002	5.67938E-004	...........
	17	4.65	-4.01589E-002	-4.02479E-002	5.70371E-004	...........
	18	4.90833	-4.01666E-002	-4.02468E-002	5.67738E-004	...........
	19	5.16667	-4.01856E-002	-4.02581E-002	5.72371E-004	...........
	20	5.425	-4.02124E-002	-4.02780E-002	5.69338E-004	...........
	21	5.68333	-4.02381E-002	-4.02942E-002	5.68971E-004	...........
	22	5.94167	-4.02591E-002	-4.03115E-002	5.67838E-004	...........
	23	6.2	-4.02770E-002	-4.03317E-002	5.68771E-004	...........
	24	6.45833	-4.02951E-002	-4.04004E-002	5.71671E-004	...........
	25	6.71667	-4.03274E-002	-4.09298E-002	5.71504E-004	...........
	26	6.975	-4.04064E-002	-4.09007E-002	5.69804E-004	...........
	27	7.23333	-4.05225E-002	-3.96417E-002	5.66571E-004	...........
	28	7.49167	-4.05705E-002	-4.03600E-002	5.67304E-004	...........
	29	7.75	-4.04864E-002	-4.05050E-002	5.67371E-004	...........
	30	8.00833	-4.03666E-002	-4.03140E-002	5.68871E-004	...........
	31	8.26667	-4.03179E-002	-4.03315E-002	5.69638E-004	...........
	32	8.525	-4.03332E-002	-4.06886E-002	5.69771E-004	...........
	33	8.78333	-4.03492E-002	-3.90109E-002	5.69204E-004	...........
	34	9.04167	-4.02647E-002	-3.91122E-002	5.68604E-004	...........
	35	9.3	-4.00121E-002	-3.97287E-002	5.67604E-004	...........
	36	9.5583	-3.97110E-002	-3.99953E-002	5.69004E-004	...........
	37	9.8167	-3.95708E-002	-4.01183E-002	5.69771E-004	...........
	38	10.075	-3.96573E-002	-4.06876E-002	5.65938E-004	...........
EOC	QUANT	-0.0396573	Open Circuit (V)
PSTATMODEL	IQUANT	4	Pstat Model
PSTATSECTION	LABEL	REF600-11020	Pstat Section
PSTATSERIALNO	LABEL	11020	Pstat Serial Number
CTRLMODE	IQUANT	1	Control Mode
IESTAB	IQUANT	0	I/E Stability
CASPEED	IQUANT	1	Control Amp Speed
CONVENTION	IQUANT	1	Current Convention
ICHRANGE	IQUANT	2	Ich Range
ICHRANGEMODE	TOGGLE	F	Ich Auto Range
ICHOFFSETENABLE	TOGGLE	T	Ich Offset Enable
ICHOFFSET	QUANT	0	Ich Offset (V)
ICHFILTER	IQUANT	3	Ich Filter
VCHRANGE	IQUANT	2	Vch Range
VCHRANGEMODE	TOGGLE	F	Vch Auto Range
VCHOFFSETENABLE	TOGGLE	T	Vch Offset Enable
VCHOFFSET	QUANT	0	Vch Offset (V)
VCHFILTER	IQUANT	3	Vch Filter
ACHRANGE	IQUANT	2	Ach Range
ACHOFFSETENABLE	TOGGLE	F	Ach Offset Enable
ACHOFFSET	QUANT	0	Ach Offset (V)
ACHFILTER	IQUANT	3	Ach Filter
IERANGELOWERLIMIT	IQUANT	1	I/E Range Lower Limit
IERANGEMODE	TOGGLE	F	I/E AutoRange
IERANGE	IQUANT	7	I/E Range
POSFEEDENABLE	TOGGLE	F	Positive Feedback IR Comp
POSFEEDRESISTANCE	QUANT	0	Positive Feedback Resistance (ohm)
ACHSELECT	IQUANT	0	Ach Select
CABLEID	IQUANT	14	Cable ID
DCCALDATE	LABEL	1/27/2020	DC Calibration Date
ACCALDATE	LABEL	1/27/2020	AC Calibration Date
THERMOSELECT	IQUANT	1	Thermo Select
FRAMEWORKVERSION	QUANT	6.33	Framework Version
INSTRUMENTVERSION	LABEL	3.50	Instrument Version
ZCURVE	TABLE
	Pt	Time	Freq	Zreal	Zimag	Zsig	Zmod	Zphz	Idc	Vdc	IERange
	#	s	Hz	ohm	ohm	V	ohm	°	A	V	#
	0	1	1000078	1868.361	-2233.542	1	2911.955	-50.08748	2.500518E-007	-0.0372965	8
	1	3	794390.6	2264.402	-2437.178	1	3326.763	-47.10458	1.893513E-006	-0.0384352	8
	2	4	630984.4	2716.715	-2606.582	1	3764.945	-43.81479	1.896595E-006	-0.0385866	8
	3	6	501234.4	3203.587	-2723.127	1	4204.568	-40.36534	-7.360291E-007	-0.03808	8
	4	7	398109.4	3666.462	-2805.831	1	4616.886	-37.42573	-1.199457E-006	-0.0379054	8
	5	9	316265.6	4180.973	-2823.962	1	5045.324	-34.03635	1.320938E-006	-0.0384497	8
	6	10	251203.1	4682.841	-2803.188	1	5457.734	-30.90509	3.268507E-006	-0.0388176	8
	7	11	199546.9	5131.468	-2702.592	1	5799.652	-27.77444	1.070093E-006	-0.0384367	8
	8	13	158578.1	5618.554	-2620.928	1	6199.791	-25.00799	1.302651E-007	-0.0382505	8
	9	15	125953.1	6102.327	-2450.936	1	6576.129	-21.88235	3.6842E-007	-0.0392355	7
	10	16	100078.1	6477.02	-2314.594	1	6878.163	-19.66459	2.789233E-008	-0.0382797	7
	11	17	79453.13	6808.82	-2156.827	1	7142.264	-17.57662	7.175203E-008	-0.0383888	7
	12	19	63140.62	7100.872	-1995.157	1	7375.841	-15.69396	-4.389481E-008	-0.0381754	7
	13	20	50203.12	7353.495	-1840.965	1	7580.438	-14.05524	1.665607E-009	-0.0382494	7
	14	21	39890.62	7570.104	-1709.737	1	7760.778	-12.72694	4.510325E-008	-0.0384045	7
	15	23	31640.63	7758.917	-1602.242	1	7922.625	-11.66776	3.62807E-009	-0.0382434	7
	16	24	25171.88	7917.574	-1521.214	1	8062.386	-10.87578	-2.221327E-008	-0.0382661	7
	17	25	20015.62	8063.407	-1475.607	1	8197.313	-10.37041	7.28361E-008	-0.0384011	7
	18	27	15890.62	8194.256	-1460.574	1	8323.407	-10.10647	-2.691749E-008	-0.0382636	7
	19	28	12609.37	8319.649	-1486.338	1	8451.377	-10.12925	-2.864086E-008	-0.0382634	7
	20	30	10078.13	8443.02	-1548.509	1	8583.849	-10.39294	3.789667E-009	-0.0382468	7
	21	31	8015.625	8560.187	-1654.721	1	8718.652	-10.94058	6.065275E-009	-0.0382423	7
	22	32	6328.125	8696.958	-1792.699	1	8879.8	-11.64721	1.148403E-008	-0.038397	6
	23	34	5015.625	8831.88	-2004.758	1	9056.553	-12.78892	-6.365636E-010	-0.0382813	6
	24	35	3984.375	8979.268	-2277.487	1	9263.595	-14.23227	-2.197861E-009	-0.0382331	6
	25	36	3170.956	9140.198	-2617.964	1	9507.73	-15.98294	7.324132E-009	-0.0384428	6
	26	38	2527.573	9322.278	-3036.503	1	9804.35	-18.04175	1.191378E-008	-0.0384079	6
	27	39	1976.103	9547.53	-3595.333	1	10202.04	-20.63498	1.156922E-008	-0.0384061	6
	28	41	1577.524	9789.37	-4224.715	1	10662.08	-23.34318	5.649715E-009	-0.0382735	6
	29	42	1265.625	10061.1	-4967.662	1	11220.67	-26.27783	-2.175178E-009	-0.0382343	6
	30	43	998.264	10411.59	-5936.412	1	11985.09	-29.69063	-1.120824E-009	-0.0383787	6
	31	45	796.875	10794.55	-7045.671	1	12890.45	-33.13275	1.578923E-009	-0.0382449	6
	32	46	627.7902	11280.1	-8466.362	1	14103.9	-36.89033	-2.599973E-009	-0.0381717	6
	33	47	505.5147	11802.59	-10027.45	1	15487.12	-40.35112	1.682248E-009	-0.0383513	6
	34	49	397.9953	12488.5	-12107.6	1	17394.15	-44.11277	1.479805E-009	-0.0382772	6
	35	50	315.5048	13290.92	-14557.39	1	19712.08	-47.60388	1.618645E-009	-0.0382771	6
	36	51	252.4038	14225.27	-17396.66	1	22472.25	-50.7271	8.700707E-010	-0.0382777	6
	37	53	198.6229	15459.83	-21088.92	1	26148.59	-53.75567	1.022239E-009	-0.0382714	6
	38	54	158.3615	16899.53	-25300.41	1	30425.4	-56.25886	1.536311E-009	-0.0382762	6
	39	56	125.558	18738.43	-30507.26	1	35802.54	-58.44057	1.064997E-009	-0.0382738	6
	40	57	100.4464	20985.71	-36491.44	1	42095.43	-60.0974	1.591898E-009	-0.0382772	6
	41	58	79.00281	23867.59	-44236.55	1	50264.64	-61.65117	1.072116E-009	-0.0382824	6
	42	60	63.3446	27530.2	-52013.59	1	58850.02	-62.10825	8.819878E-010	-0.0382749	6
	43	61	49.86702	32455.91	-63706.61	1	71497.68	-63.00302	7.108714E-010	-0.0382766	6
	44	63	39.72458	38075.61	-75502.66	1	84560.05	-63.23842	7.749826E-010	-0.0382776	6
	45	64	31.6723	45158.14	-89104.23	1	99894	-63.12405	1.243779E-009	-0.0382773	6
	46	65	24.93351	54833.22	-106499.6	1	119786.7	-62.75752	-1.768611E-011	-0.0382791	5
	47	67	19.86229	66427.25	-125269.6	1	141792.3	-62.06413	3.4182E-010	-0.0382786	5
	48	68	15.83615	80257.39	-145740.1	1	166377.4	-61.15894	-1.187825E-010	-0.0382819	5
	49	69	12.40079	100697.5	-170476.1	1	197995.2	-59.43034	1.2614E-009	-0.038279	5
	50	71	9.93114	120308.4	-196664.5	1	230545.1	-58.54403	1.742116E-010	-0.0382839	5
	51	73	7.944915	145999	-223416.2	1	266890.4	-56.83602	2.116915E-010	-0.038289	5
	52	74	6.317385	174196.6	-253450.2	1	307541	-55.49921	5.690986E-010	-0.0382791	5
	53	76	5.008013	207654.8	-285813.1	1	353284	-54.00008	4.65697E-010	-0.0382773	5
	54	79	3.945707	245667.7	-321408.8	1	404544.5	-52.60764	1.332197E-010	-0.0382822	5
	55	81	3.158693	283943.3	-357242.9	1	456340.1	-51.52168	2.262159E-010	-0.0382642	5
	56	85	2.504006	326957.4	-398676	1	515600.3	-50.64454	2.25152E-010	-0.0382862	5
	57	88	1.998082	370501.1	-444133.9	1	578382.2	-50.16479	-9.050845E-011	-0.0382437	5
	58	91	1.584686	419688	-499549.3	1	652447.3	-49.96526	3.010204E-010	-0.0382468	5
	59	94	1.266892	470072.9	-559457.4	1	730726.4	-49.96201	-5.801785E-013	-0.0382388	5
	60	99	0.999041	528339.6	-636841.3	1	827471.8	-50.32005	2.644374E-010	-0.0383093	5
