EXPLAIN
TAG	EISPOT
TITLE	LABEL	Potentiostatic EIS	Test &Identifier
DATE	LABEL	1/25/2020	Date
TIME	LABEL	12:01:10	Time
NOTES	NOTES	6	&Notes...
	
	
	
	
	
	
PSTAT	PSTAT	REF600-11020	Potentiostat
VDC	POTEN	0.00000E+000	T	DC &Voltage (V)
FREQINIT	QUANT	1.00000E+006	Initial Fre&q. (Hz)
FREQFINAL	QUANT	1.00000E+000	Final Fre&q. (Hz)
PTSPERDEC	QUANT	1.00000E+001	Points/&decade
VAC	QUANT	2.50000E+001	AC &Voltage (mV rms)
AREA	QUANT	1.00000E-001	&Area (cm^2)
CONDIT	TWOPARAM	F	5.00000E+000	0.00000E+000	Conditionin&g	Time(s)	E(V)
DELAY	TWOPARAM	F	5.00000E+000	0.00000E+000	Init. De&lay	Time(s)	Stab.(mV/s)
SPEED	SELECTOR	0	&Optimize for:
ZGUESS	QUANT	5.00000E+002	E&stimated Z (ohms)
OCVCURVE	TABLE	39
	Pt	T	Vf	Vm	Ach	Over
	#	s	V vs. Ref.	V	V	bits
	0	0.258333	3.21798E-002	3.21798E-002	6.37880E-004	...........
	1	0.516667	3.21779E-002	3.20783E-002	6.32146E-004	...........
	2	0.775	3.21651E-002	3.19372E-002	6.30913E-004	...........
	3	1.03333	3.21263E-002	3.18129E-002	6.35813E-004	...........
	4	1.29167	3.20534E-002	3.17458E-002	6.33980E-004	...........
	5	1.55	3.19579E-002	3.17700E-002	6.33146E-004	...........
	6	1.80833	3.18658E-002	3.17029E-002	6.35013E-004	...........
	7	2.06667	3.17934E-002	3.15431E-002	6.36246E-004	...........
	8	2.325	3.17287E-002	3.13461E-002	6.27813E-004	...........
	9	2.58333	3.16424E-002	3.11178E-002	6.31747E-004	...........
	10	2.84167	3.15130E-002	3.08922E-002	6.37980E-004	...........
	11	3.1	3.13459E-002	3.10046E-002	6.34880E-004	...........
	12	3.35833	3.11737E-002	3.07353E-002	6.35580E-004	...........
	13	3.61667	3.10283E-002	3.07952E-002	6.32813E-004	...........
	14	3.875	3.09146E-002	3.05834E-002	6.38680E-004	...........
	15	4.13333	3.08195E-002	3.05828E-002	6.34746E-004	...........
	16	4.39167	3.07320E-002	3.05106E-002	6.30147E-004	...........
	17	4.65	3.06510E-002	3.04408E-002	6.38246E-004	...........
	18	4.90833	3.05782E-002	3.03764E-002	6.39413E-004	...........
	19	5.16667	3.05117E-002	3.03333E-002	6.32913E-004	...........
	20	5.425	3.04488E-002	3.02679E-002	6.32646E-004	...........
	21	5.68333	3.03888E-002	3.02040E-002	6.31513E-004	...........
	22	5.94167	3.03299E-002	3.01364E-002	6.31846E-004	...........
	23	6.2	3.02698E-002	3.00778E-002	6.31713E-004	...........
	24	6.45833	3.02082E-002	3.00364E-002	6.28247E-004	...........
	25	6.71667	3.01475E-002	2.99761E-002	6.30080E-004	...........
	26	6.975	3.00899E-002	2.99278E-002	6.32680E-004	...........
	27	7.23333	3.00355E-002	2.98769E-002	6.33947E-004	...........
	28	7.49167	2.99831E-002	2.98292E-002	6.32447E-004	...........
	29	7.75	2.99318E-002	2.97730E-002	6.29947E-004	...........
	30	8.00833	2.98812E-002	2.97309E-002	6.30180E-004	...........
	31	8.26667	2.98311E-002	2.96853E-002	6.25980E-004	...........
	32	8.525	2.97822E-002	2.96445E-002	6.27780E-004	...........
	33	8.78333	2.97353E-002	2.95977E-002	6.26513E-004	...........
	34	9.04167	2.96902E-002	2.95566E-002	6.31480E-004	...........
	35	9.3	2.96461E-002	2.95114E-002	6.30780E-004	...........
	36	9.5583	2.96024E-002	2.94687E-002	6.27013E-004	...........
	37	9.8167	2.95588E-002	2.94191E-002	6.28247E-004	...........
	38	10.075	2.95147E-002	2.93747E-002	6.35080E-004	...........
EOC	QUANT	0.0295147	Open Circuit (V)
PSTATMODEL	IQUANT	4	Pstat Model
PSTATSECTION	LABEL	REF600-11020	Pstat Section
PSTATSERIALNO	LABEL	11020	Pstat Serial Number
CTRLMODE	IQUANT	1	Control Mode
IESTAB	IQUANT	0	I/E Stability
CASPEED	IQUANT	1	Control Amp Speed
CONVENTION	IQUANT	1	Current Convention
ICHRANGE	IQUANT	2	Ich Range
ICHRANGEMODE	TOGGLE	F	Ich Auto Range
ICHOFFSETENABLE	TOGGLE	T	Ich Offset Enable
ICHOFFSET	QUANT	0	Ich Offset (V)
ICHFILTER	IQUANT	3	Ich Filter
VCHRANGE	IQUANT	2	Vch Range
VCHRANGEMODE	TOGGLE	F	Vch Auto Range
VCHOFFSETENABLE	TOGGLE	T	Vch Offset Enable
VCHOFFSET	QUANT	0	Vch Offset (V)
VCHFILTER	IQUANT	3	Vch Filter
ACHRANGE	IQUANT	2	Ach Range
ACHOFFSETENABLE	TOGGLE	F	Ach Offset Enable
ACHOFFSET	QUANT	0	Ach Offset (V)
ACHFILTER	IQUANT	3	Ach Filter
IERANGELOWERLIMIT	IQUANT	1	I/E Range Lower Limit
IERANGEMODE	TOGGLE	F	I/E AutoRange
IERANGE	IQUANT	8	I/E Range
POSFEEDENABLE	TOGGLE	F	Positive Feedback IR Comp
POSFEEDRESISTANCE	QUANT	0	Positive Feedback Resistance (ohm)
ACHSELECT	IQUANT	0	Ach Select
CABLEID	IQUANT	14	Cable ID
DCCALDATE	LABEL	12/22/2019	DC Calibration Date
ACCALDATE	LABEL	12/22/2019	AC Calibration Date
THERMOSELECT	IQUANT	1	Thermo Select
FRAMEWORKVERSION	QUANT	6.33	Framework Version
INSTRUMENTVERSION	LABEL	3.50	Instrument Version
ZCURVE	TABLE
	Pt	Time	Freq	Zreal	Zimag	Zsig	Zmod	Zphz	Idc	Vdc	IERange
	#	s	Hz	ohm	ohm	V	ohm	°	A	V	#
	0	1	1000078	1847.08	-1551.188	1	2412.031	-40.02373	-2.449418E-006	0.031816	8
	1	1	794390.6	2052.564	-1641.057	1	2627.943	-38.64288	2.515093E-006	0.0310561	8
	2	2	630984.4	2274.99	-1745.726	1	2867.601	-37.50103	-1.22893E-006	0.0314458	8
	3	2	501234.4	2508.547	-1873.721	1	3131.077	-36.75733	-2.873185E-006	0.0318023	8
	4	2	398109.4	2754.788	-2014.179	1	3412.59	-36.17262	1.263725E-006	0.0308645	8
	5	3	316265.6	3043.113	-2193.867	1	3751.478	-35.78891	1.205241E-006	0.0308342	8
	6	3	251203.1	3367.904	-2396.576	1	4133.564	-35.43538	1.355831E-007	0.0309859	8
	7	3	199546.9	3762.892	-2578.665	1	4561.674	-34.42237	9.575717E-007	0.0308437	8
	8	4	158578.1	4181.248	-2758.769	1	5009.355	-33.41666	1.084018E-006	0.030867	8
	9	4	125953.1	4723.465	-2887.565	1	5536.167	-31.43843	3.89042E-007	0.0300003	7
	10	4	100078.1	5273.157	-2988.867	1	6061.313	-29.54491	8.463114E-008	0.0309149	7
	11	5	79453.13	5859.109	-3018.051	1	6590.735	-27.25318	2.126894E-008	0.031009	7
	12	5	63140.62	6441.739	-2960.942	1	7089.653	-24.68585	-3.842776E-008	0.0310833	7
	13	5	50203.12	6996.682	-2820.473	1	7543.781	-21.95514	-8.797645E-009	0.0311041	7
	14	6	39890.62	7488.958	-2613.269	1	7931.813	-19.23641	4.354247E-008	0.0310079	7
	15	6	31640.63	7895.124	-2364.491	1	8241.589	-16.6723	1.361212E-008	0.0309641	7
	16	6	25171.88	8232.019	-2117.501	1	8499.996	-14.42532	-7.840955E-009	0.0310509	7
	17	7	20015.62	8489.849	-1881.954	1	8695.935	-12.49871	-3.570084E-008	0.0310929	7
	18	7	15890.62	8686.036	-1675.399	1	8846.14	-10.91737	-2.846922E-008	0.0310358	7
	19	7	12609.37	8868.481	-1467.883	1	8989.141	-9.39821	-5.704167E-009	0.0310949	6
	20	7	10078.13	8981.24	-1349.22	1	9082.02	-8.543457	-3.401215E-009	0.0310348	6
	21	8	8015.625	9070.848	-1280.221	1	9160.745	-8.033425	2.805357E-009	0.0309019	6
	22	8	6328.125	9150.589	-1254.38	1	9236.165	-7.805565	-6.681939E-009	0.0310812	6
	23	8	5015.625	9218.731	-1278.02	1	9306.897	-7.892778	-2.830667E-009	0.0310647	6
	24	9	3984.375	9288.158	-1352.218	1	9386.073	-8.283221	2.761765E-009	0.0310279	6
	25	9	3170.956	9351.822	-1476.339	1	9467.638	-8.971045	2.388122E-009	0.0310238	6
	26	9	2527.573	9421.637	-1658.258	1	9566.46	-9.98213	-5.546811E-009	0.0310932	6
	27	10	1976.103	9506.25	-1928.617	1	9699.92	-11.46844	9.365235E-010	0.0310644	6
	28	10	1577.524	9603.06	-2254.148	1	9864.07	-13.21001	-1.560985E-009	0.0309833	6
	29	10	1265.625	9700.72	-2650.362	1	10056.26	-15.28101	8.44653E-009	0.0309178	6
	30	11	998.264	9840.06	-3185.698	1	10342.89	-17.93925	-2.684057E-009	0.031101	6
	31	11	796.875	9995.47	-3807.689	1	10696.17	-20.85391	5.969533E-010	0.0310618	6
	32	11	627.7902	10193.28	-4620.898	1	11191.76	-24.38612	-5.846441E-009	0.0310882	6
	33	12	505.5147	10414.09	-5518.136	1	11785.72	-27.91786	-5.766981E-009	0.0310703	6
	34	12	397.9953	10695.22	-6727.397	1	12635.1	-32.17028	2.709097E-010	0.0310297	6
	35	12	315.5048	11030.18	-8169.786	1	13726.26	-36.52645	4.922527E-010	0.0310296	6
	36	13	252.4038	11408.78	-9863.61	1	15081.48	-40.84548	6.482093E-010	0.0310245	6
	37	13	198.6229	11902.2	-12099.03	1	16972	-45.46986	4.313878E-010	0.0310214	6
	38	13	158.3615	12477.93	-14698.17	1	19280.43	-49.6706	5.533389E-010	0.0310155	6
	39	14	125.558	13218.14	-17965.75	1	22304.43	-53.65657	4.931576E-010	0.0310183	6
	40	14	100.4464	14105.18	-21819.51	1	25981.67	-57.11942	4.121482E-011	0.0310146	6
	41	14	79.00281	15315.36	-26876.65	1	30934.04	-60.32382	1.882673E-010	0.0310166	6
	42	15	63.3446	16969.74	-32543.86	1	36702.52	-62.46057	4.291354E-010	0.0310188	6
	43	15	49.86702	19022.29	-40076.14	1	44361.52	-64.60847	6.361143E-010	0.0310198	6
	44	15	39.72458	21546.38	-48709.29	1	53262.01	-66.13797	4.88061E-010	0.0310198	6
	45	16	31.6723	24922.74	-59044.06	1	64088.56	-67.1152	4.823706E-010	0.0310191	6
	46	16	24.93351	29805.56	-72237.52	1	78144.94	-67.57871	2.950553E-010	0.0310165	6
	47	16	19.86229	35914.69	-87081.16	1	94196.57	-67.58739	1.037978E-009	0.0310208	6
	48	17	15.83615	43599.87	-104345.9	1	113088.5	-67.32288	-3.292866E-010	0.0310077	5
	49	17	12.40079	54519.75	-126494.3	1	137743.3	-66.68369	-5.418767E-010	0.0310251	5
	50	17	9.93114	68159.09	-148728.1	1	163602.3	-65.37897	-1.227175E-009	0.03102	5
	51	17	7.944915	84713.07	-173168.1	1	192778.3	-63.93232	-2.194988E-011	0.0310186	5
	52	18	6.317385	105554.5	-203375.5	1	229136.1	-62.57011	2.550748E-010	0.0310036	5
	53	19	5.008013	131693.5	-235732.5	1	270024.1	-60.8098	1.482791E-011	0.0310056	5
	54	20	3.945707	163032.2	-272098.6	1	317202	-59.0714	4.672044E-010	0.0310176	5
	55	21	3.158693	197758.9	-307590.4	1	365678.1	-57.26185	-8.18378E-011	0.0310113	5
	56	23	2.504006	238145.3	-347441.2	1	421222.7	-55.57225	8.197995E-013	0.0310026	5
	57	24	1.998082	281775.2	-388429	1	479869.1	-54.04202	3.303203E-010	0.0310494	5
	58	25	1.584686	328785.6	-434813.1	1	545126	-52.90511	2.621754E-010	0.031027	5
	59	27	1.266892	379098.3	-483411.5	1	614330.7	-51.89594	1.679281E-010	0.0309847	5
	60	30	0.999041	437112.6	-543003.8	1	697080	-51.16629	9.373426E-011	0.0309679	5
