EXPLAIN
TAG	EISPOT
TITLE	LABEL	Potentiostatic EIS	Test &Identifier
DATE	LABEL	2/21/2020	Date
TIME	LABEL	18:12:57	Time
NOTES	NOTES	1	&Notes...
	
PSTAT	PSTAT	REF600-11020	Potentiostat
VDC	POTEN	0.00000E+000	T	DC &Voltage (V)
FREQINIT	QUANT	1.00000E+006	Initial Fre&q. (Hz)
FREQFINAL	QUANT	1.00000E+000	Final Fre&q. (Hz)
PTSPERDEC	QUANT	1.00000E+001	Points/&decade
VAC	QUANT	2.50000E+001	AC &Voltage (mV rms)
AREA	QUANT	2.08200E-005	&Area (cm^2)
CONDIT	TWOPARAM	F	1.50000E+001	0.00000E+000	Conditionin&g	Time(s)	E(V)
DELAY	TWOPARAM	F	1.00000E+002	0.00000E+000	Init. De&lay	Time(s)	Stab.(mV/s)
SPEED	SELECTOR	0	&Optimize for:
ZGUESS	QUANT	2.00000E+003	E&stimated Z (ohms)
OCVCURVE	TABLE	39
	Pt	T	Vf	Vm	Ach	Over
	#	s	V vs. Ref.	V	V	bits
	0	0.258333	5.24925E-002	5.24925E-002	5.73271E-004	...........
	1	0.516667	5.24926E-002	5.24986E-002	5.70538E-004	...........
	2	0.775	5.24932E-002	5.24964E-002	5.70838E-004	...........
	3	1.03333	5.24945E-002	5.25069E-002	5.72671E-004	...........
	4	1.29167	5.24959E-002	5.24635E-002	5.75971E-004	...........
	5	1.55	5.24944E-002	5.24471E-002	5.74238E-004	...........
	6	1.80833	5.24847E-002	5.23628E-002	5.73971E-004	...........
	7	2.06667	5.24633E-002	5.23759E-002	5.71971E-004	...........
	8	2.325	5.24322E-002	5.23354E-002	5.71938E-004	...........
	9	2.58333	5.23992E-002	5.23400E-002	5.77037E-004	...........
	10	2.84167	5.23718E-002	5.23483E-002	5.75071E-004	...........
	11	3.1	5.23540E-002	5.23470E-002	5.71838E-004	...........
	12	3.35833	5.23451E-002	5.23022E-002	5.75704E-004	...........
	13	3.61667	5.23402E-002	5.23637E-002	5.72271E-004	...........
	14	3.875	5.23368E-002	5.23328E-002	5.73371E-004	...........
	15	4.13333	5.23360E-002	5.23400E-002	5.71471E-004	...........
	16	4.39167	5.23371E-002	5.23143E-002	5.78137E-004	...........
	17	4.65	5.23359E-002	5.23122E-002	5.76571E-004	...........
	18	4.90833	5.23305E-002	5.23023E-002	5.80371E-004	...........
	19	5.16667	5.23219E-002	5.22870E-002	5.75571E-004	...........
	20	5.425	5.23118E-002	5.22789E-002	5.83837E-004	...........
	21	5.68333	5.23026E-002	5.23497E-002	5.78771E-004	...........
	22	5.94167	5.22999E-002	5.23448E-002	5.79737E-004	...........
	23	6.2	5.23082E-002	5.23567E-002	5.72571E-004	...........
	24	6.45833	5.23231E-002	5.23103E-002	5.72771E-004	...........
	25	6.71667	5.23344E-002	5.23326E-002	5.72171E-004	...........
	26	6.975	5.23364E-002	5.23120E-002	5.73004E-004	...........
	27	7.23333	5.23316E-002	5.23074E-002	5.74271E-004	...........
	28	7.49167	5.23239E-002	5.22915E-002	5.76938E-004	...........
	29	7.75	5.23150E-002	5.22837E-002	5.79737E-004	...........
	30	8.00833	5.23059E-002	5.23105E-002	5.76671E-004	...........
	31	8.26667	5.22988E-002	5.22840E-002	5.74404E-004	...........
	32	8.525	5.22952E-002	5.22860E-002	5.74671E-004	...........
	33	8.78333	5.22927E-002	5.22657E-002	5.77937E-004	...........
	34	9.04167	5.22881E-002	5.22634E-002	5.72838E-004	...........
	35	9.3	5.22805E-002	5.22405E-002	5.74004E-004	...........
	36	9.5583	5.22706E-002	5.22409E-002	5.75171E-004	...........
	37	9.8167	5.22600E-002	5.22494E-002	5.78571E-004	...........
	38	10.075	5.22516E-002	5.22599E-002	5.78004E-004	...........
EOC	QUANT	0.0522516	Open Circuit (V)
PSTATMODEL	IQUANT	4	Pstat Model
PSTATSECTION	LABEL	REF600-11020	Pstat Section
PSTATSERIALNO	LABEL	11020	Pstat Serial Number
CTRLMODE	IQUANT	1	Control Mode
IESTAB	IQUANT	0	I/E Stability
CASPEED	IQUANT	1	Control Amp Speed
CONVENTION	IQUANT	1	Current Convention
ICHRANGE	IQUANT	2	Ich Range
ICHRANGEMODE	TOGGLE	F	Ich Auto Range
ICHOFFSETENABLE	TOGGLE	T	Ich Offset Enable
ICHOFFSET	QUANT	0	Ich Offset (V)
ICHFILTER	IQUANT	3	Ich Filter
VCHRANGE	IQUANT	2	Vch Range
VCHRANGEMODE	TOGGLE	F	Vch Auto Range
VCHOFFSETENABLE	TOGGLE	T	Vch Offset Enable
VCHOFFSET	QUANT	0	Vch Offset (V)
VCHFILTER	IQUANT	3	Vch Filter
ACHRANGE	IQUANT	2	Ach Range
ACHOFFSETENABLE	TOGGLE	F	Ach Offset Enable
ACHOFFSET	QUANT	0	Ach Offset (V)
ACHFILTER	IQUANT	3	Ach Filter
IERANGELOWERLIMIT	IQUANT	1	I/E Range Lower Limit
IERANGEMODE	TOGGLE	F	I/E AutoRange
IERANGE	IQUANT	7	I/E Range
POSFEEDENABLE	TOGGLE	F	Positive Feedback IR Comp
POSFEEDRESISTANCE	QUANT	0	Positive Feedback Resistance (ohm)
ACHSELECT	IQUANT	0	Ach Select
CABLEID	IQUANT	14	Cable ID
DCCALDATE	LABEL	1/27/2020	DC Calibration Date
ACCALDATE	LABEL	1/27/2020	AC Calibration Date
THERMOSELECT	IQUANT	1	Thermo Select
FRAMEWORKVERSION	QUANT	6.33	Framework Version
INSTRUMENTVERSION	LABEL	3.50	Instrument Version
ZCURVE	TABLE
	Pt	Time	Freq	Zreal	Zimag	Zsig	Zmod	Zphz	Idc	Vdc	IERange
	#	s	Hz	ohm	ohm	V	ohm	°	A	V	#
	0	1	1000078	1670.988	-1118.08	1	2010.548	-33.78701	2.458685E-006	0.0539179	8
	1	2	794390.6	1863.934	-1106.328	1	2167.536	-30.69103	-1.95157E-006	0.054416	8
	2	2	630984.4	2042.166	-1089.211	1	2314.48	-28.0737	-6.395604E-007	0.0541589	8
	3	2	501234.4	2212.474	-1060.91	1	2453.685	-25.61832	2.980533E-007	0.0538994	8
	4	3	398109.4	2375.157	-1035.59	1	2591.104	-23.55765	4.546883E-007	0.0537869	8
	5	3	316265.6	2527.825	-1000.677	1	2718.686	-21.59687	-4.422006E-007	0.0539209	8
	6	3	251203.1	2670.527	-958.083	1	2837.188	-19.73604	4.655497E-007	0.0537582	8
	7	4	199546.9	2803.545	-932.1471	1	2954.448	-18.39138	1.013841E-007	0.0538303	8
	8	4	158578.1	2922.492	-903.3046	1	3058.908	-17.1757	1.501918E-006	0.0536769	8
	9	4	125953.1	3054.743	-868.8616	1	3175.906	-15.87736	-3.936877E-007	0.054843	7
	10	5	100078.1	3165.485	-847.7047	1	3277.026	-14.99182	-2.444881E-009	0.0537905	7
	11	5	79453.13	3270.118	-845.8466	1	3377.74	-14.50224	-1.162736E-008	0.0538477	7
	12	5	63140.62	3372.547	-852.9694	1	3478.74	-14.19335	1.24368E-008	0.0537948	7
	13	6	50203.12	3475.64	-866.809	1	3582.099	-14.00364	-2.524014E-008	0.0538387	7
	14	6	39890.62	3581.274	-893.1783	1	3690.974	-14.00401	1.072565E-008	0.0537937	7
	15	6	31640.63	3688.559	-927.5616	1	3803.398	-14.11548	6.778258E-009	0.053797	7
	16	6	25171.88	3800.315	-976.006	1	3923.644	-14.40356	-1.214306E-008	0.0538317	7
	17	7	20015.62	3917.45	-1030.6	1	4050.747	-14.73935	-5.984433E-009	0.0538445	7
	18	7	15890.62	4035.977	-1099.53	1	4183.07	-15.23938	8.115927E-009	0.0537596	7
	19	7	12609.37	4160.952	-1182.486	1	4325.713	-15.86443	-2.519799E-008	0.0538369	7
	20	8	10078.13	4285.883	-1282.06	1	4473.53	-16.65379	-1.482625E-008	0.0538206	7
	21	8	8015.625	4418.166	-1408.547	1	4637.262	-17.6827	-3.090285E-009	0.0537776	7
	22	8	6328.125	4566.16	-1565.106	1	4826.942	-18.91976	1.625767E-008	0.0538147	7
	23	9	5015.625	4726.042	-1758.481	1	5042.591	-20.40939	-9.431777E-009	0.053817	7
	24	9	3984.375	4901.042	-1985.582	1	5287.981	-22.05458	1.689213E-008	0.0538096	7
	25	9	3170.956	5097.398	-2249.327	1	5571.619	-23.81042	2.594649E-008	0.0537311	7
	26	10	2527.573	5322.257	-2564.813	1	5908.019	-25.72957	4.070006E-008	0.0537487	7
	27	10	1976.103	5597.761	-2953.183	1	6328.998	-27.81456	4.522609E-008	0.0537157	7
	28	10	1577.524	5874.205	-3371.35	1	6772.908	-29.85257	-5.087806E-009	0.0538295	7
	29	11	1265.625	6174.21	-3837.268	1	7269.491	-31.86093	-1.561673E-008	0.0538037	7
	30	11	998.264	6513.227	-4425.744	1	7874.6	-34.19614	2.881675E-009	0.053768	7
	31	11	796.875	6874.799	-5104.339	1	8562.543	-36.59282	-1.240333E-008	0.0538151	7
	32	11	627.7902	7254.557	-5953.793	1	9384.896	-39.37563	1.168792E-008	0.0537485	7
	33	12	505.5147	7637.202	-6917.157	1	10304.07	-42.16772	-2.878096E-009	0.0537866	6
	34	12	397.9953	8096.809	-8228.607	1	11544.19	-45.46255	9.161902E-010	0.0537985	6
	35	12	315.5048	8620.464	-9805.03	1	13055.69	-48.67844	7.119588E-010	0.0537999	6
	36	13	252.4038	9215.921	-11665.67	1	14866.78	-51.69114	2.891423E-010	0.0537976	6
	37	13	198.6229	10000.83	-14119.17	1	17302.24	-54.68944	3.844705E-010	0.0537999	6
	38	13	158.3615	10944.87	-16950.41	1	20176.88	-57.14968	3.598216E-010	0.0537915	6
	39	14	125.558	12177.2	-20453.5	1	23803.99	-59.23212	5.409714E-010	0.0537998	6
	40	14	100.4464	13704.13	-24516.69	1	28086.85	-60.79604	1.047413E-009	0.0537955	6
	41	14	79.00281	15729.16	-29651.93	1	33565.51	-62.05584	7.251086E-011	0.0537945	6
	42	15	63.3446	18587.53	-35315.43	1	39908.34	-62.24088	7.282178E-010	0.0537932	6
	43	15	49.86702	21916.85	-42460.15	1	47782.98	-62.69836	1.10936E-009	0.053789	6
	44	15	39.72458	25804.78	-50287.04	1	56521.44	-62.83539	7.692778E-010	0.0537956	6
	45	16	31.6723	30788.43	-59199.84	1	66727.41	-62.52213	5.558303E-010	0.0537945	6
	46	16	24.93351	37589.87	-70078.48	1	79523.53	-61.79103	-2.357233E-010	0.0537929	6
	47	16	19.86229	45169.68	-81632.06	1	93295.73	-61.04281	-2.743699E-010	0.0537938	6
	48	17	15.83615	54166.07	-95435.7	1	109735.8	-60.42223	-8.192783E-010	0.0537889	5
	49	17	12.40079	66013.98	-109763.7	1	128085.6	-58.97651	1.182984E-009	0.0537858	5
	50	17	9.93114	77534.99	-124954.7	1	147055.6	-58.18021	-6.074732E-010	0.0537886	5
	51	18	7.944915	90839.69	-142327.4	1	168845.9	-57.45216	-4.282777E-010	0.0537885	5
	52	18	6.317385	105120.1	-162424	1	193473	-57.08923	-4.479126E-010	0.0538059	5
	53	19	5.008013	120988.1	-186107.7	1	221977.9	-56.97222	-2.78561E-010	0.0537872	5
	54	20	3.945707	138295.1	-214600.8	1	255301.9	-57.20107	1.225814E-011	0.0537854	5
	55	22	3.158693	155786.5	-246888.1	1	291930.1	-57.74805	1.739277E-010	0.0538028	5
	56	23	2.504006	176097.2	-287339.4	1	337007.6	-58.49777	-3.403848E-011	0.0537941	5
	57	25	1.998082	197718.5	-335358.3	1	389304.3	-59.47751	-4.751265E-012	0.0537679	5
	58	26	1.584686	224902.8	-394399.7	1	454018.1	-60.30645	1.188325E-010	0.0538122	5
	59	28	1.266892	256365	-464959	1	530951.9	-61.12892	1.278842E-010	0.0538215	5
	60	31	0.999041	295723.7	-554236.8	1	628196.6	-61.917	1.369662E-010	0.0538134	5
