EXPLAIN
TAG	EISPOT
TITLE	LABEL	Potentiostatic EIS	Test &Identifier
DATE	LABEL	3/9/2020	Date
TIME	LABEL	21:19:03	Time
NOTES	NOTES	1	&Notes...
	
PSTAT	PSTAT	REF600-11020	Potentiostat
VDC	POTEN	0.00000E+000	T	DC &Voltage (V)
FREQINIT	QUANT	1.00000E+006	Initial Fre&q. (Hz)
FREQFINAL	QUANT	1.00000E+000	Final Fre&q. (Hz)
PTSPERDEC	QUANT	1.00000E+001	Points/&decade
VAC	QUANT	2.50000E+001	AC &Voltage (mV rms)
AREA	QUANT	4.00000E-005	&Area (cm^2)
CONDIT	TWOPARAM	F	5.00000E+000	0.00000E+000	Conditionin&g	Time(s)	E(V)
DELAY	TWOPARAM	T	3.00000E+000	0.00000E+000	Init. De&lay	Time(s)	Stab.(mV/s)
SPEED	SELECTOR	0	&Optimize for:
ZGUESS	QUANT	1.00000E+003	E&stimated Z (ohms)
OCVCURVE	TABLE	12
	Pt	T	Vf	Vm	Ach	Over
	#	s	V vs. Ref.	V	V	bits
	0	0.258333	3.34012E-002	3.34012E-002	5.49264E-004	...........
	1	0.516667	3.34008E-002	3.33794E-002	5.46297E-004	...........
	2	0.775	3.33982E-002	3.33573E-002	5.54964E-004	...........
	3	1.03333	3.33908E-002	3.33376E-002	5.55997E-004	...........
	4	1.29167	3.33775E-002	3.33159E-002	5.47697E-004	...........
	5	1.55	3.33596E-002	3.32944E-002	5.52897E-004	...........
	6	1.80833	3.33393E-002	3.32761E-002	5.50697E-004	...........
	7	2.06667	3.33183E-002	3.32585E-002	5.48297E-004	...........
	8	2.325	3.32978E-002	3.32394E-002	5.45097E-004	...........
	9	2.58333	3.32782E-002	3.32191E-002	5.52630E-004	...........
	10	2.84167	3.32592E-002	3.31993E-002	5.49130E-004	...........
	11	3.1	3.32400E-002	3.31767E-002	5.42430E-004	...........
EOC	QUANT	0.03324	Open Circuit (V)
PSTATMODEL	IQUANT	4	Pstat Model
PSTATSECTION	LABEL	REF600-11020	Pstat Section
PSTATSERIALNO	LABEL	11020	Pstat Serial Number
CTRLMODE	IQUANT	1	Control Mode
IESTAB	IQUANT	0	I/E Stability
CASPEED	IQUANT	1	Control Amp Speed
CONVENTION	IQUANT	1	Current Convention
ICHRANGE	IQUANT	2	Ich Range
ICHRANGEMODE	TOGGLE	F	Ich Auto Range
ICHOFFSETENABLE	TOGGLE	T	Ich Offset Enable
ICHOFFSET	QUANT	0	Ich Offset (V)
ICHFILTER	IQUANT	3	Ich Filter
VCHRANGE	IQUANT	2	Vch Range
VCHRANGEMODE	TOGGLE	F	Vch Auto Range
VCHOFFSETENABLE	TOGGLE	T	Vch Offset Enable
VCHOFFSET	QUANT	0	Vch Offset (V)
VCHFILTER	IQUANT	3	Vch Filter
ACHRANGE	IQUANT	2	Ach Range
ACHOFFSETENABLE	TOGGLE	F	Ach Offset Enable
ACHOFFSET	QUANT	0	Ach Offset (V)
ACHFILTER	IQUANT	3	Ach Filter
IERANGELOWERLIMIT	IQUANT	1	I/E Range Lower Limit
IERANGEMODE	TOGGLE	F	I/E AutoRange
IERANGE	IQUANT	7	I/E Range
POSFEEDENABLE	TOGGLE	F	Positive Feedback IR Comp
POSFEEDRESISTANCE	QUANT	0	Positive Feedback Resistance (ohm)
ACHSELECT	IQUANT	0	Ach Select
CABLEID	IQUANT	14	Cable ID
DCCALDATE	LABEL	2/27/2020	DC Calibration Date
ACCALDATE	LABEL	2/27/2020	AC Calibration Date
THERMOSELECT	IQUANT	1	Thermo Select
FRAMEWORKVERSION	QUANT	6.33	Framework Version
INSTRUMENTVERSION	LABEL	3.50	Instrument Version
ZCURVE	TABLE
	Pt	Time	Freq	Zreal	Zimag	Zsig	Zmod	Zphz	Idc	Vdc	IERange
	#	s	Hz	ohm	ohm	V	ohm	°	A	V	#
	0	1	1000078	1647.63	-2464.681	1	2964.681	-56.23742	3.539529E-008	0.0356258	8
	1	1	794390.6	2040.242	-2803.807	1	3467.552	-53.9578	-6.046015E-009	0.0353052	8
	2	2	630984.4	2509.226	-3142.873	1	4021.675	-51.39662	3.235072E-008	0.0351024	8
	3	2	501234.4	3063.985	-3453.813	1	4617.015	-48.42277	3.116008E-008	0.0350131	8
	4	2	398109.4	3684.416	-3721.84	1	5237.081	-45.28951	3.432097E-008	0.0349471	8
	5	2	316265.6	4355.739	-3921.353	1	5860.843	-41.99585	1.903414E-008	0.0349032	8
	6	3	251203.1	5054.211	-4068.786	1	6488.457	-38.83507	3.161628E-008	0.0349085	8
	7	3	199546.9	5748.95	-4148.55	1	7089.492	-35.81492	6.230198E-008	0.034909	8
	8	3	158578.1	6446.089	-4167.41	1	7675.896	-32.88276	5.648691E-008	0.0348735	8
	9	4	125953.1	7218.98	-4075.01	1	8289.715	-29.4441	-1.001248E-009	0.0348372	7
	10	4	100078.1	7823.285	-4049.319	1	8809.13	-27.366	1.14075E-009	0.0348303	7
	11	4	79453.13	8421.627	-4025.902	1	9334.436	-25.54982	7.70846E-010	0.0348276	7
	12	5	63140.62	8992.474	-4009.203	1	9845.72	-24.02922	3.359427E-010	0.0348129	7
	13	5	50203.12	9537.04	-4008.144	1	10345.06	-22.79561	9.701003E-010	0.0348112	7
	14	5	39890.62	10070.85	-4030.979	1	10847.61	-21.81436	1.66785E-009	0.0348192	7
	15	6	31640.63	10597.91	-4081.235	1	11356.59	-21.0616	1.846929E-009	0.0348168	7
	16	6	25171.88	11111.71	-4168.985	1	11868.05	-20.56551	1.917879E-009	0.0348213	7
	17	6	20015.62	11627.68	-4296.197	1	12395.98	-20.27826	1.065421E-009	0.0348133	7
	18	7	15890.62	12163.49	-4469.014	1	12958.5	-20.17394	1.007284E-009	0.0348061	7
	19	7	12609.37	12844.63	-4505.894	1	13612.04	-19.33087	3.381385E-010	0.0348638	6
	20	7	10078.13	13368.39	-4800.658	1	14204.23	-19.75348	2.398473E-010	0.0348712	6
	21	8	8015.625	13943.61	-5160.413	1	14867.88	-20.3091	3.270436E-010	0.0348697	6
	22	8	6328.125	14578.1	-5599.58	1	15616.54	-21.01224	2.737557E-010	0.0348693	6
	23	8	5015.625	15250.89	-6106.618	1	16428.04	-21.82169	2.673475E-010	0.0348604	6
	24	9	3984.375	15969.79	-6692.196	1	17315.3	-22.73629	3.001578E-010	0.0348636	6
	25	9	3170.956	16741.55	-7369.162	1	18291.64	-23.75775	1.110805E-010	0.0348638	6
	26	9	2527.573	17577.4	-8147.483	1	19373.86	-24.86868	3.621481E-011	0.0348602	6
	27	10	1976.103	18580.99	-9135.32	1	20705.25	-26.18098	2.942135E-010	0.0348637	6
	28	10	1577.524	19590.57	-10178.9	1	22077.15	-27.45555	1.815373E-010	0.0348626	6
	29	10	1265.625	20697.28	-11359.02	1	23609.42	-28.75874	2.579523E-010	0.0348584	6
	30	10	998.264	22025.12	-12835.05	1	25492.05	-30.23133	3.426613E-010	0.0348591	6
	31	11	796.875	23433.85	-14430.02	1	27520.37	-31.62379	2.182343E-010	0.0348608	6
	32	11	627.7902	25129.38	-16380	1	29996.5	-33.09737	8.358328E-011	0.0348583	6
	33	11	505.5147	26874.09	-18402.57	1	32571.02	-34.40218	-1.663415E-011	0.0348517	6
	34	12	397.9953	29035.05	-20959.75	1	35809.85	-35.82467	3.253625E-010	0.0348663	6
	35	12	315.5048	31419.33	-23799.53	1	39415.63	-37.14322	3.235385E-010	0.034866	6
	36	12	252.4038	34011.57	-26913.6	1	43371.98	-38.35482	3.291999E-010	0.0348661	6
	37	13	198.6229	37159.52	-30729.08	1	48219.35	-39.58906	3.989318E-010	0.0348655	6
	38	13	158.3615	40532.3	-34851.36	1	53455.45	-40.69032	3.068907E-010	0.0348633	6
	39	13	125.558	44442.89	-39667.27	1	59570.66	-41.75034	2.442565E-010	0.034863	6
	40	14	100.4464	48655.93	-44925.12	1	66224.36	-42.717	2.138774E-010	0.0348617	6
	41	14	79.00281	53757.63	-51393.03	1	74371.54	-43.71177	2.990485E-010	0.0348623	6
	42	14	63.3446	58984.25	-58199.55	1	82863.32	-44.61634	2.864897E-010	0.0348603	6
	43	15	49.86702	65253.24	-66697.3	1	93308.71	-45.62702	1.001695E-010	0.0348603	6
	44	15	39.72458	71851.8	-75983.36	1	104576.1	-46.60083	1.154301E-010	0.034866	5
	45	15	31.6723	79065.19	-86929.22	1	117507.4	-47.71238	-5.573048E-011	0.0348658	5
	46	16	24.93351	87493.98	-100597.9	1	133323.4	-48.98523	3.369041E-010	0.0348648	5
	47	16	19.86229	96390.3	-116199.7	1	150975	-50.32352	1.187591E-009	0.0348755	5
	48	16	15.83615	106791.4	-134707.9	1	171902.9	-51.59392	-7.11933E-010	0.0348652	5
	49	17	12.40079	119580.3	-158499.3	1	198548.4	-52.96717	-4.07312E-010	0.0348714	5
	50	17	9.93114	133348.8	-184133.9	1	227348.2	-54.08815	-6.757984E-010	0.0348671	5
	51	17	7.944915	149281.3	-214878.7	1	261644.3	-55.21138	-4.101559E-010	0.0348698	5
	52	18	6.317385	169368.6	-251574.2	1	303274.3	-56.05017	2.301781E-010	0.0348554	5
	53	18	5.008013	193948.4	-295014.2	1	353057.1	-56.67825	4.285269E-011	0.034858	5
	54	19	3.945707	223630.8	-347055.1	1	412865.6	-57.20362	-1.439995E-010	0.0348594	5
	55	20	3.158693	256499.3	-402088.7	1	476935.2	-57.4655	7.602084E-011	0.0348494	5
	56	21	2.504006	295823.5	-468820.7	1	554350.4	-57.74828	1.959132E-010	0.0348548	5
	57	23	1.998082	339001.3	-541828.8	1	639140.3	-57.96738	2.889517E-011	0.0348258	5
	58	24	1.584686	388755.2	-632022.3	1	742012.6	-58.40444	2.555475E-011	0.0348153	5
	59	26	1.266892	441011.1	-732458.9	1	854977.7	-58.94799	6.980482E-011	0.0348449	5
	60	29	0.999041	505273.8	-858696.9	1	996324	-59.52663	8.775662E-011	0.0348677	5
