EXPLAIN
TAG	EISPOT
TITLE	LABEL	Potentiostatic EIS	Test &Identifier
DATE	LABEL	1/18/2020	Date
TIME	LABEL	21:45:42	Time
NOTES	NOTES	6	&Notes...
	
	
	
	
	
	
PSTAT	PSTAT	REF600-11020	Potentiostat
VDC	POTEN	0.00000E+000	T	DC &Voltage (V)
FREQINIT	QUANT	1.00000E+006	Initial Fre&q. (Hz)
FREQFINAL	QUANT	1.00000E+000	Final Fre&q. (Hz)
PTSPERDEC	QUANT	1.00000E+001	Points/&decade
VAC	QUANT	2.50000E+001	AC &Voltage (mV rms)
AREA	QUANT	1.00000E-001	&Area (cm^2)
CONDIT	TWOPARAM	F	5.00000E+000	0.00000E+000	Conditionin&g	Time(s)	E(V)
DELAY	TWOPARAM	F	5.00000E+000	0.00000E+000	Init. De&lay	Time(s)	Stab.(mV/s)
SPEED	SELECTOR	0	&Optimize for:
ZGUESS	QUANT	5.00000E+002	E&stimated Z (ohms)
OCVCURVE	TABLE	39
	Pt	T	Vf	Vm	Ach	Over
	#	s	V vs. Ref.	V	V	bits
	0	0.258333	4.58356E-002	4.58356E-002	7.08945E-004	...........
	1	0.516667	4.58361E-002	4.58609E-002	7.06512E-004	...........
	2	0.775	4.58393E-002	4.59004E-002	7.08712E-004	...........
	3	1.03333	4.58501E-002	4.59677E-002	7.08279E-004	...........
	4	1.29167	4.58733E-002	4.60048E-002	7.07212E-004	...........
	5	1.55	4.59090E-002	4.60341E-002	7.06745E-004	...........
	6	1.80833	4.59513E-002	4.60649E-002	7.07245E-004	...........
	7	2.06667	4.59925E-002	4.60863E-002	7.06112E-004	...........
	8	2.325	4.60280E-002	4.60931E-002	7.05712E-004	...........
	9	2.58333	4.60562E-002	4.61003E-002	7.13912E-004	...........
	10	2.84167	4.60768E-002	4.61094E-002	7.04945E-004	...........
	11	3.1	4.60908E-002	4.61201E-002	7.08179E-004	...........
	12	3.35833	4.61012E-002	4.61318E-002	7.06779E-004	...........
	13	3.61667	4.61105E-002	4.61412E-002	7.08312E-004	...........
	14	3.875	4.61200E-002	4.61466E-002	7.06845E-004	...........
	15	4.13333	4.61294E-002	4.61479E-002	7.07812E-004	...........
	16	4.39167	4.61375E-002	4.61477E-002	7.08812E-004	...........
	17	4.65	4.61433E-002	4.61542E-002	7.05579E-004	...........
	18	4.90833	4.61472E-002	4.61593E-002	7.03645E-004	...........
	19	5.16667	4.61505E-002	4.61633E-002	7.07412E-004	...........
	20	5.425	4.61542E-002	4.61673E-002	7.02379E-004	...........
	21	5.68333	4.61584E-002	4.61716E-002	7.08112E-004	...........
	22	5.94167	4.61628E-002	4.61784E-002	7.03812E-004	...........
	23	6.2	4.61673E-002	4.61805E-002	6.97912E-004	...........
	24	6.45833	4.61718E-002	4.61790E-002	7.02045E-004	...........
	25	6.71667	4.61731E-002	4.60473E-002	7.06979E-004	...........
	26	6.975	4.61569E-002	4.57536E-002	7.03979E-004	...........
	27	7.23333	4.61001E-002	4.57720E-002	7.02679E-004	...........
	28	7.49167	4.60084E-002	4.61716E-002	7.03679E-004	...........
	29	7.75	4.59336E-002	4.57873E-002	7.03945E-004	...........
	30	8.00833	4.59036E-002	4.56158E-002	7.09645E-004	...........
	31	8.26667	4.58711E-002	4.53898E-002	7.06912E-004	...........
	32	8.525	4.57842E-002	4.55076E-002	7.05679E-004	...........
	33	8.78333	4.56614E-002	4.55350E-002	7.05379E-004	...........
	34	9.04167	4.55614E-002	4.55191E-002	7.03679E-004	...........
	35	9.3	4.55138E-002	4.54970E-002	7.08512E-004	...........
	36	9.5583	4.55017E-002	4.54056E-002	7.04012E-004	...........
	37	9.8167	4.55021E-002	4.58737E-002	7.08045E-004	...........
	38	10.075	4.55272E-002	4.58645E-002	7.04679E-004	...........
EOC	QUANT	0.0455272	Open Circuit (V)
PSTATMODEL	IQUANT	4	Pstat Model
PSTATSECTION	LABEL	REF600-11020	Pstat Section
PSTATSERIALNO	LABEL	11020	Pstat Serial Number
CTRLMODE	IQUANT	1	Control Mode
IESTAB	IQUANT	0	I/E Stability
CASPEED	IQUANT	1	Control Amp Speed
CONVENTION	IQUANT	1	Current Convention
ICHRANGE	IQUANT	2	Ich Range
ICHRANGEMODE	TOGGLE	F	Ich Auto Range
ICHOFFSETENABLE	TOGGLE	T	Ich Offset Enable
ICHOFFSET	QUANT	0	Ich Offset (V)
ICHFILTER	IQUANT	3	Ich Filter
VCHRANGE	IQUANT	2	Vch Range
VCHRANGEMODE	TOGGLE	F	Vch Auto Range
VCHOFFSETENABLE	TOGGLE	T	Vch Offset Enable
VCHOFFSET	QUANT	0	Vch Offset (V)
VCHFILTER	IQUANT	3	Vch Filter
ACHRANGE	IQUANT	2	Ach Range
ACHOFFSETENABLE	TOGGLE	F	Ach Offset Enable
ACHOFFSET	QUANT	0	Ach Offset (V)
ACHFILTER	IQUANT	3	Ach Filter
IERANGELOWERLIMIT	IQUANT	1	I/E Range Lower Limit
IERANGEMODE	TOGGLE	F	I/E AutoRange
IERANGE	IQUANT	8	I/E Range
POSFEEDENABLE	TOGGLE	F	Positive Feedback IR Comp
POSFEEDRESISTANCE	QUANT	0	Positive Feedback Resistance (ohm)
ACHSELECT	IQUANT	0	Ach Select
CABLEID	IQUANT	14	Cable ID
DCCALDATE	LABEL	12/22/2019	DC Calibration Date
ACCALDATE	LABEL	12/22/2019	AC Calibration Date
THERMOSELECT	IQUANT	1	Thermo Select
FRAMEWORKVERSION	QUANT	6.33	Framework Version
INSTRUMENTVERSION	LABEL	3.50	Instrument Version
ZCURVE	TABLE
	Pt	Time	Freq	Zreal	Zimag	Zsig	Zmod	Zphz	Idc	Vdc	IERange
	#	s	Hz	ohm	ohm	V	ohm	°	A	V	#
	0	1	1000078	2116.52	-1892.104	1	2838.964	-41.79573	-1.896074E-006	0.048238	8
	1	1	794390.6	2491.776	-1950.102	1	3164.15	-38.04728	3.76802E-006	0.0468516	8
	2	2	630984.4	2878.286	-1950.579	1	3476.966	-34.12502	1.93242E-006	0.0467872	8
	3	2	501234.4	3254.188	-1897.415	1	3766.951	-30.24512	-1.113076E-006	0.0474871	8
	4	2	398109.4	3605.386	-1773.427	1	4017.941	-26.19178	-3.907104E-007	0.0471114	8
	5	3	316265.6	3909.332	-1633.361	1	4236.832	-22.6757	2.61648E-007	0.0471135	8
	6	3	251203.1	4168.978	-1467.974	1	4419.878	-19.39811	2.562124E-007	0.0470261	8
	7	3	199546.9	4386.726	-1311.759	1	4578.654	-16.6482	2.065505E-006	0.0466474	8
	8	4	158578.1	4533.334	-1169.514	1	4681.76	-14.4658	-3.894423E-007	0.0471742	8
	9	4	125953.1	4678.781	-999.809	1	4784.413	-12.06212	9.443083E-007	0.0450492	7
	10	4	100078.1	4769.943	-881.4838	1	4850.708	-10.47012	-3.28505E-008	0.0470983	7
	11	5	79453.13	4857.314	-797.1396	1	4922.29	-9.319802	-2.185996E-008	0.0470704	7
	12	5	63140.62	4929.07	-731.5112	1	4983.055	-8.441512	-2.246317E-008	0.0471134	7
	13	5	50203.12	4993.207	-683.804	1	5039.812	-7.79797	5.610695E-008	0.0469784	7
	14	6	39890.62	5050.862	-651.9473	1	5092.764	-7.354869	5.566154E-008	0.0469516	7
	15	6	31640.63	5106.509	-639.0551	1	5146.341	-7.133207	-3.564307E-008	0.0472026	7
	16	6	25171.88	5159.123	-641.8929	1	5198.901	-7.092237	-2.273975E-008	0.0471127	7
	17	6	20015.62	5210.684	-661.7564	1	5252.538	-7.237812	-3.668384E-008	0.0472027	7
	18	7	15890.62	5269.249	-695.4542	1	5314.945	-7.518644	6.358765E-008	0.0470246	7
	19	7	12609.37	5326.248	-749.6337	1	5378.742	-8.011376	-3.552432E-008	0.0472038	7
	20	7	10078.13	5384.962	-819.1005	1	5446.902	-8.648899	-3.673386E-008	0.0471987	7
	21	8	8015.625	5448.587	-913.2491	1	5524.593	-9.51502	3.799665E-008	0.0470131	7
	22	8	6328.125	5518.853	-1037.603	1	5615.546	-10.64791	-2.180055E-008	0.0471062	7
	23	8	5015.625	5592.812	-1191.877	1	5718.401	-12.03026	-1.466834E-008	0.0470888	7
	24	9	3984.375	5675.084	-1379.61	1	5840.369	-13.66354	-3.276767E-008	0.047074	7
	25	9	3170.956	5763.598	-1612.2	1	5984.835	-15.62743	-2.21334E-008	0.0470466	7
	26	9	2527.573	5861.665	-1894.648	1	6160.26	-17.91223	-2.194163E-008	0.0470481	7
	27	10	1976.103	5983.113	-2276.418	1	6401.54	-20.83051	-2.906619E-008	0.0471339	7
	28	10	1577.524	6112.765	-2707.63	1	6685.593	-23.89079	-3.656926E-008	0.0470987	7
	29	10	1265.625	6255.581	-3219.378	1	7035.388	-27.2322	-2.258203E-008	0.0470941	7
	30	11	998.264	6438.858	-3893.882	1	7524.707	-31.16334	-2.123696E-008	0.0470958	7
	31	11	796.875	6645.805	-4675.361	1	8125.622	-35.1266	5.750154E-008	0.0469609	7
	32	11	627.7902	6908.229	-5694.12	1	8952.465	-39.49711	-3.39029E-008	0.0471849	7
	33	12	505.5147	7200.374	-6813.677	1	9913.2	-43.41941	-7.254043E-009	0.0471022	6
	34	12	397.9953	7587.851	-8321.504	1	11261.57	-47.6403	3.393162E-010	0.0470654	6
	35	12	315.5048	8050.154	-10113.08	1	12925.92	-51.47971	5.307068E-010	0.0470634	6
	36	13	252.4038	8598.463	-12204.02	1	14928.89	-54.83302	2.563698E-010	0.0470636	6
	37	13	198.6229	9326.119	-14932.71	1	17605.74	-58.01344	6.962724E-010	0.0470613	6
	38	13	158.3615	10181.74	-18070.27	1	20741.32	-60.60081	8.029235E-010	0.0470538	6
	39	14	125.558	11277.85	-21958.12	1	24684.99	-62.81464	5.692139E-010	0.0470637	6
	40	14	100.4464	12576.3	-26478.48	1	29313.37	-64.594	2.291938E-010	0.0470587	6
	41	14	79.00281	14293.86	-32329.18	1	35348.13	-66.1481	8.069974E-011	0.047056	6
	42	15	63.3446	16487.53	-38688.63	1	42055.3	-66.91825	5.713382E-010	0.0470532	6
	43	15	49.86702	19172.56	-47214.48	1	50958.75	-67.89922	8.877157E-010	0.047053	6
	44	15	39.72458	22214.11	-57001.72	1	61177.31	-68.70866	7.412216E-010	0.0470606	6
	45	16	31.6723	26149.55	-68617.75	1	73431.56	-69.13865	6.79395E-010	0.0470588	6
	46	16	24.93351	31607.02	-83426.32	1	89212.97	-69.25024	4.131947E-010	0.0470531	6
	47	16	19.86229	38199.93	-100219.4	1	107252.8	-69.135	4.99653E-010	0.0470486	5
	48	16	15.83615	46059.92	-120356.9	1	128869.3	-69.05843	-2.899121E-010	0.0470527	5
	49	17	12.40079	57358.98	-145875.6	1	156747.4	-68.53502	-1.360807E-010	0.0470537	5
	50	17	9.93114	71505.29	-172212.3	1	186467.4	-67.451	-9.363046E-010	0.0470511	5
	51	17	7.944915	88709.76	-203753.6	1	222227.2	-66.47277	-2.46926E-010	0.0470532	5
	52	18	6.317385	110712.3	-239766.6	1	264093.2	-65.21485	-5.582635E-013	0.0470578	5
	53	19	5.008013	138450.3	-281230.1	1	313462.7	-63.78885	2.121411E-010	0.047064	5
	54	20	3.945707	173673	-329524.8	1	372490.1	-62.20893	-2.6073E-010	0.0470512	5
	55	21	3.158693	212238.3	-377209.8	1	432819.1	-60.63558	5.851641E-011	0.0470347	5
	56	23	2.504006	259542.3	-433049.4	1	504870.3	-59.06421	2.318518E-010	0.0470451	5
	57	24	1.998082	311930.1	-491019.6	1	581722.1	-57.57343	-5.946851E-012	0.0470087	5
	58	26	1.584686	372468.9	-558682.1	1	671460.2	-56.30893	-4.660792E-011	0.0469995	5
	59	27	1.266892	437067.7	-629132.2	1	766051.9	-55.21171	-2.627756E-011	0.0470318	5
	60	30	0.999041	515132.8	-712116.8	1	878903.9	-54.11868	4.194902E-012	0.0470583	5
