EXPLAIN
TAG	EISPOT
TITLE	LABEL	Potentiostatic EIS	Test &Identifier
DATE	LABEL	3/9/2020	Date
TIME	LABEL	21:16:45	Time
NOTES	NOTES	1	&Notes...
	
PSTAT	PSTAT	REF600-11020	Potentiostat
VDC	POTEN	0.00000E+000	T	DC &Voltage (V)
FREQINIT	QUANT	1.00000E+006	Initial Fre&q. (Hz)
FREQFINAL	QUANT	1.00000E+000	Final Fre&q. (Hz)
PTSPERDEC	QUANT	1.00000E+001	Points/&decade
VAC	QUANT	2.50000E+001	AC &Voltage (mV rms)
AREA	QUANT	4.00000E-005	&Area (cm^2)
CONDIT	TWOPARAM	F	5.00000E+000	0.00000E+000	Conditionin&g	Time(s)	E(V)
DELAY	TWOPARAM	T	3.00000E+000	0.00000E+000	Init. De&lay	Time(s)	Stab.(mV/s)
SPEED	SELECTOR	0	&Optimize for:
ZGUESS	QUANT	1.00000E+003	E&stimated Z (ohms)
OCVCURVE	TABLE	12
	Pt	T	Vf	Vm	Ach	Over
	#	s	V vs. Ref.	V	V	bits
	0	0.258333	4.86888E-002	4.86888E-002	5.77730E-004	...........
	1	0.516667	4.86884E-002	4.86680E-002	5.83097E-004	...........
	2	0.775	4.86860E-002	4.86488E-002	5.77697E-004	...........
	3	1.03333	4.86791E-002	4.86301E-002	5.78763E-004	...........
	4	1.29167	4.86669E-002	4.86098E-002	5.72363E-004	...........
	5	1.55	4.86503E-002	4.85869E-002	5.79497E-004	...........
	6	1.80833	4.86312E-002	4.85686E-002	5.78897E-004	...........
	7	2.06667	4.86109E-002	4.85492E-002	5.76830E-004	...........
	8	2.325	4.85904E-002	4.85311E-002	5.73130E-004	...........
	9	2.58333	4.85705E-002	4.85114E-002	5.76697E-004	...........
	10	2.84167	4.85510E-002	4.84899E-002	5.81297E-004	...........
	11	3.1	4.85317E-002	4.84731E-002	5.75163E-004	...........
EOC	QUANT	0.0485317	Open Circuit (V)
PSTATMODEL	IQUANT	4	Pstat Model
PSTATSECTION	LABEL	REF600-11020	Pstat Section
PSTATSERIALNO	LABEL	11020	Pstat Serial Number
CTRLMODE	IQUANT	1	Control Mode
IESTAB	IQUANT	0	I/E Stability
CASPEED	IQUANT	1	Control Amp Speed
CONVENTION	IQUANT	1	Current Convention
ICHRANGE	IQUANT	2	Ich Range
ICHRANGEMODE	TOGGLE	F	Ich Auto Range
ICHOFFSETENABLE	TOGGLE	T	Ich Offset Enable
ICHOFFSET	QUANT	0	Ich Offset (V)
ICHFILTER	IQUANT	3	Ich Filter
VCHRANGE	IQUANT	2	Vch Range
VCHRANGEMODE	TOGGLE	F	Vch Auto Range
VCHOFFSETENABLE	TOGGLE	T	Vch Offset Enable
VCHOFFSET	QUANT	0	Vch Offset (V)
VCHFILTER	IQUANT	3	Vch Filter
ACHRANGE	IQUANT	2	Ach Range
ACHOFFSETENABLE	TOGGLE	F	Ach Offset Enable
ACHOFFSET	QUANT	0	Ach Offset (V)
ACHFILTER	IQUANT	3	Ach Filter
IERANGELOWERLIMIT	IQUANT	1	I/E Range Lower Limit
IERANGEMODE	TOGGLE	F	I/E AutoRange
IERANGE	IQUANT	7	I/E Range
POSFEEDENABLE	TOGGLE	F	Positive Feedback IR Comp
POSFEEDRESISTANCE	QUANT	0	Positive Feedback Resistance (ohm)
ACHSELECT	IQUANT	0	Ach Select
CABLEID	IQUANT	14	Cable ID
DCCALDATE	LABEL	2/27/2020	DC Calibration Date
ACCALDATE	LABEL	2/27/2020	AC Calibration Date
THERMOSELECT	IQUANT	1	Thermo Select
FRAMEWORKVERSION	QUANT	6.33	Framework Version
INSTRUMENTVERSION	LABEL	3.50	Instrument Version
ZCURVE	TABLE
	Pt	Time	Freq	Zreal	Zimag	Zsig	Zmod	Zphz	Idc	Vdc	IERange
	#	s	Hz	ohm	ohm	V	ohm	°	A	V	#
	0	2	1000078	1641.747	-873.3687	1	1859.598	-28.01187	3.62799E-008	0.0509025	8
	1	2	794390.6	1781.302	-862.8959	1	1979.299	-25.84641	3.624444E-008	0.0505494	8
	2	2	630984.4	1915.249	-848.8462	1	2094.927	-23.90312	3.149954E-008	0.0503813	8
	3	3	501234.4	2042.312	-831.3565	1	2205.038	-22.14958	1.346653E-008	0.0502751	8
	4	3	398109.4	2166.746	-812.1904	1	2313.967	-20.54817	4.792302E-008	0.050219	8
	5	3	316265.6	2283.71	-794.9958	1	2418.129	-19.19382	3.737604E-008	0.0501976	8
	6	3	251203.1	2397.163	-774.6989	1	2519.236	-17.90944	2.178146E-008	0.0501618	8
	7	4	199546.9	2505.687	-760.1239	1	2618.446	-16.87567	3.698761E-008	0.0501723	8
	8	4	158578.1	2607.231	-745.4619	1	2711.709	-15.95634	3.638325E-008	0.0501765	8
	9	4	125953.1	2731.579	-691.5281	1	2817.754	-14.20655	-2.894485E-009	0.050109	7
	10	5	100078.1	2815.193	-687.627	1	2897.955	-13.72607	1.574571E-009	0.0500973	7
	11	5	79453.13	2902.955	-699.9857	1	2986.156	-13.55686	6.806854E-010	0.0500898	7
	12	5	63140.62	2991.219	-717.6969	1	3076.115	-13.49219	1.013498E-009	0.0500937	7
	13	6	50203.12	3080.45	-741.3516	1	3168.402	-13.53167	1.306003E-010	0.0500881	7
	14	6	39890.62	3171.619	-771.8292	1	3264.182	-13.67735	1.290527E-010	0.0500854	7
	15	6	31640.63	3267.024	-811.4591	1	3366.291	-13.94878	1.42769E-009	0.0500863	7
	16	7	25171.88	3364.238	-858.4324	1	3472.031	-14.31437	1.049486E-009	0.0500844	7
	17	7	20015.62	3466.175	-915.9893	1	3585.165	-14.80288	1.291738E-009	0.0500845	7
	18	7	15890.62	3571.839	-984.42	1	3705.013	-15.40853	2.212993E-010	0.0500816	7
	19	8	12609.37	3681.679	-1067.822	1	3833.407	-16.17409	8.119555E-010	0.0500807	7
	20	8	10078.13	3792.942	-1165.625	1	3968.009	-17.08293	9.385664E-010	0.0500836	7
	21	8	8015.625	3912.21	-1287.54	1	4118.634	-18.21679	3.16616E-010	0.050081	7
	22	9	6328.125	4044.052	-1441.177	1	4293.174	-19.61452	7.557692E-010	0.0500779	7
	23	9	5015.625	4187.984	-1626.805	1	4492.851	-21.22845	2.068443E-009	0.0500763	7
	24	9	3984.375	4347.416	-1845.244	1	4722.812	-22.99862	9.41735E-010	0.0500733	7
	25	10	3170.956	4527.971	-2104.405	1	4993.1	-24.92696	1.24182E-009	0.0500762	7
	26	10	2527.573	4732.128	-2401.521	1	5306.632	-26.90746	1.829442E-009	0.0500697	7
	27	10	1976.103	4985.333	-2778.861	1	5707.504	-29.13562	1.482548E-009	0.0500747	7
	28	10	1577.524	5244.121	-3184.801	1	6135.451	-31.27068	1.737292E-009	0.0500765	7
	29	11	1265.625	5518.504	-3632.092	1	6606.51	-33.35155	6.888172E-010	0.0500662	7
	30	11	998.264	5835.102	-4210.926	1	7195.854	-35.81626	9.567802E-010	0.0500637	7
	31	11	796.875	6155.118	-4861.537	1	7843.47	-38.30296	1.415158E-009	0.050067	7
	32	12	627.7902	6514.463	-5709.237	1	8662.195	-41.23113	9.321273E-010	0.0500633	7
	33	12	505.5147	6877.87	-6651.293	1	9567.9	-44.04054	1.113551E-009	0.050062	7
	34	12	397.9953	7323.684	-7933.568	1	10797.12	-47.28909	3.77825E-010	0.0501353	6
	35	13	315.5048	7832.589	-9478.302	1	12295.84	-50.43068	3.139998E-010	0.0501327	6
	36	13	252.4038	8420.904	-11295.34	1	14088.87	-53.29473	3.940186E-010	0.0501316	6
	37	13	198.6229	9211.904	-13682.88	1	16494.86	-56.04986	3.496826E-010	0.0501343	6
	38	14	158.3615	10163.11	-16427.77	1	19317.36	-58.25682	2.495056E-010	0.0501259	6
	39	14	125.558	11412.14	-19810.48	1	22862.46	-60.05522	2.001515E-010	0.0501325	6
	40	14	100.4464	12952.52	-23684.52	1	26994.89	-61.32675	3.164619E-011	0.050134	6
	41	15	79.00281	15084.4	-28625.73	1	32356.94	-62.2129	2.349915E-010	0.0501341	6
	42	15	63.3446	17591.17	-33955.36	1	38241.54	-62.61279	1.861764E-010	0.050132	6
	43	15	49.86702	21034.92	-40661.37	1	45780.07	-62.6466	1.238975E-010	0.0501235	6
	44	16	39.72458	25154.28	-48004	1	54195.21	-62.34529	4.22351E-011	0.050135	6
	45	16	31.6723	30193.36	-56290.12	1	63876.57	-61.79142	1.253924E-010	0.0501351	6
	46	16	24.93351	36682.96	-66148.36	1	75638.91	-60.98918	-4.243507E-010	0.0501284	6
	47	17	19.86229	43976.22	-76672.85	1	88389.11	-60.16329	-1.748348E-009	0.0501292	6
	48	17	15.83615	52600.53	-88198.07	1	102692.3	-59.18853	1.403465E-009	0.050137	5
	49	17	12.40079	63129.62	-101912.9	1	119881.5	-58.22398	-2.536564E-010	0.0501372	5
	50	18	9.93114	73697.97	-116006.2	1	137436.7	-57.57248	8.60277E-012	0.0501339	5
	51	18	7.944915	85074.41	-131631.7	1	156730.9	-57.12517	1.206842E-009	0.0501317	5
	52	18	6.317385	97891.8	-150682.3	1	179688.5	-56.98996	-2.213229E-010	0.0501526	5
	53	19	5.008013	111692	-173367.6	1	206231.5	-57.20836	-2.774371E-010	0.0501361	5
	54	20	3.945707	126678.5	-201012.1	1	237599.1	-57.78073	2.563564E-010	0.0501357	5
	55	21	3.158693	142381.6	-232770.5	1	272863.8	-58.54662	-1.644457E-010	0.050132	5
	56	22	2.504006	160375.8	-272727.4	1	316386.8	-59.54259	-3.083367E-011	0.0501278	5
	57	23	1.998082	180932.6	-320007	1	367615.4	-60.51609	1.985225E-010	0.0501713	5
	58	25	1.584686	204983.3	-378318	1	430282.1	-61.54993	8.486213E-011	0.0501388	5
	59	27	1.266892	234840	-445954.9	1	504009.6	-62.22869	3.203898E-011	0.0500909	5
	60	29	0.999041	273431.4	-532930.6	1	598982.3	-62.83894	8.602402E-012	0.0500805	5
