EXPLAIN
TAG	EISPOT
TITLE	LABEL	Potentiostatic EIS	Test &Identifier
DATE	LABEL	1/14/2020	Date
TIME	LABEL	15:45:27	Time
NOTES	NOTES	5	&Notes...
	
	
	
	
	
PSTAT	PSTAT	REF600-11020	Potentiostat
VDC	POTEN	0.00000E+000	T	DC &Voltage (V)
FREQINIT	QUANT	1.00000E+006	Initial Fre&q. (Hz)
FREQFINAL	QUANT	1.00000E+000	Final Fre&q. (Hz)
PTSPERDEC	QUANT	1.00000E+001	Points/&decade
VAC	QUANT	2.50000E+001	AC &Voltage (mV rms)
AREA	QUANT	1.00000E-001	&Area (cm^2)
CONDIT	TWOPARAM	T	5.00000E+000	0.00000E+000	Conditionin&g	Time(s)	E(V)
DELAY	TWOPARAM	T	5.00000E+000	0.00000E+000	Init. De&lay	Time(s)	Stab.(mV/s)
SPEED	SELECTOR	0	&Optimize for:
ZGUESS	QUANT	5.00000E+002	E&stimated Z (ohms)
OCVCURVE	TABLE	19
	Pt	T	Vf	Vm	Ach	Over
	#	s	V vs. Ref.	V	V	bits
	0	0.258333	5.00007E-003	5.00007E-003	6.48813E-004	...........
	1	0.516667	4.99741E-003	4.86061E-003	6.56713E-004	...........
	2	0.775	4.98130E-003	4.74145E-003	6.53679E-004	...........
	3	1.03333	4.93676E-003	4.63835E-003	6.51746E-004	...........
	4	1.29167	4.85990E-003	4.55364E-003	6.54013E-004	...........
	5	1.55	4.76303E-003	4.47789E-003	6.54046E-004	...........
	6	1.80833	4.66321E-003	4.40751E-003	6.51346E-004	...........
	7	2.06667	4.57110E-003	4.34358E-003	6.57613E-004	...........
	8	2.325	4.48957E-003	4.28784E-003	6.54146E-004	...........
	9	2.58333	4.41754E-003	4.23391E-003	6.47113E-004	...........
	10	2.84167	4.35320E-003	4.19029E-003	6.43846E-004	...........
	11	3.1	4.29546E-003	4.15561E-003	6.46913E-004	...........
	12	3.35833	4.24421E-003	4.12249E-003	6.48746E-004	...........
	13	3.61667	4.19709E-003	3.96383E-003	6.47546E-004	...........
	14	3.875	4.13981E-003	3.63088E-003	6.51713E-004	...........
	15	4.13333	4.04204E-003	3.33721E-003	6.47313E-004	...........
	16	4.39167	3.87537E-003	2.97498E-003	6.48913E-004	...........
	17	4.65	3.64084E-003	2.93678E-003	6.52846E-004	...........
	18	4.90833	3.38316E-003	3.06214E-003	6.49080E-004	...........
EOC	QUANT	0.0033832	Open Circuit (V)
PSTATMODEL	IQUANT	4	Pstat Model
PSTATSECTION	LABEL	REF600-11020	Pstat Section
PSTATSERIALNO	LABEL	11020	Pstat Serial Number
CTRLMODE	IQUANT	1	Control Mode
IESTAB	IQUANT	0	I/E Stability
CASPEED	IQUANT	1	Control Amp Speed
CONVENTION	IQUANT	1	Current Convention
ICHRANGE	IQUANT	2	Ich Range
ICHRANGEMODE	TOGGLE	F	Ich Auto Range
ICHOFFSETENABLE	TOGGLE	T	Ich Offset Enable
ICHOFFSET	QUANT	0	Ich Offset (V)
ICHFILTER	IQUANT	3	Ich Filter
VCHRANGE	IQUANT	2	Vch Range
VCHRANGEMODE	TOGGLE	F	Vch Auto Range
VCHOFFSETENABLE	TOGGLE	T	Vch Offset Enable
VCHOFFSET	QUANT	0	Vch Offset (V)
VCHFILTER	IQUANT	3	Vch Filter
ACHRANGE	IQUANT	2	Ach Range
ACHOFFSETENABLE	TOGGLE	F	Ach Offset Enable
ACHOFFSET	QUANT	0	Ach Offset (V)
ACHFILTER	IQUANT	3	Ach Filter
IERANGELOWERLIMIT	IQUANT	1	I/E Range Lower Limit
IERANGEMODE	TOGGLE	F	I/E AutoRange
IERANGE	IQUANT	7	I/E Range
POSFEEDENABLE	TOGGLE	F	Positive Feedback IR Comp
POSFEEDRESISTANCE	QUANT	0	Positive Feedback Resistance (ohm)
ACHSELECT	IQUANT	0	Ach Select
CABLEID	IQUANT	14	Cable ID
DCCALDATE	LABEL	12/22/2019	DC Calibration Date
ACCALDATE	LABEL	12/22/2019	AC Calibration Date
THERMOSELECT	IQUANT	1	Thermo Select
FRAMEWORKVERSION	QUANT	6.33	Framework Version
INSTRUMENTVERSION	LABEL	3.50	Instrument Version
ZCURVE	TABLE
	Pt	Time	Freq	Zreal	Zimag	Zsig	Zmod	Zphz	Idc	Vdc	IERange
	#	s	Hz	ohm	ohm	V	ohm	°	A	V	#
	0	1	1000078	1719.586	-2159.183	1	2760.263	-51.46598	-4.06395E-006	0.0061843	8
	1	1	794390.6	1936.394	-2406.118	1	3088.531	-51.17361	5.420893E-006	0.0049595	8
	2	1	630984.4	2156.165	-2717.261	1	3468.797	-51.56776	-2.392407E-006	0.0055669	8
	3	2	501234.4	2383.97	-3089.942	1	3902.699	-52.34889	9.956964E-007	0.0051044	8
	4	2	398109.4	2612.103	-3555.039	1	4411.506	-53.69302	-2.338182E-006	0.0056502	8
	5	2	316265.6	2862.514	-4143.012	1	5035.726	-55.35841	2.760027E-007	0.0050813	8
	6	3	251203.1	3158.859	-4885.431	1	5817.716	-57.11379	8.754398E-007	0.0049163	8
	7	3	199546.9	3465.61	-5770.368	1	6731.092	-59.01151	5.727797E-007	0.0049941	8
	8	3	158578.1	3989.906	-6918.058	1	7986.168	-60.02632	1.304383E-006	0.0048981	8
	9	4	125953.1	4410.378	-8288.35	1	9388.726	-61.98177	8.198712E-007	0.0033006	7
	10	4	100078.1	5034.212	-9928.52	1	11131.88	-63.1129	-6.005266E-011	0.0051302	7
	11	5	79453.13	5893.379	-11976.13	1	13347.64	-63.79848	-2.567103E-008	0.0051042	7
	12	5	63140.62	7014.918	-14433.5	1	16047.9	-64.07948	4.122006E-010	0.005119	7
	13	5	50203.12	8566.818	-17294.44	1	19299.95	-63.64844	-4.455549E-008	0.0051623	7
	14	5	39890.62	10752.86	-20596.46	1	23234.42	-62.43215	-2.03636E-008	0.0051069	7
	15	6	31640.63	13622.6	-24380.49	1	27928.18	-60.80573	-4.497196E-008	0.0051576	7
	16	6	25171.88	17599.43	-28292.28	1	33319.56	-58.116	-2.050331E-008	0.0051002	7
	17	6	20015.62	22282.19	-32423.32	1	39341.68	-55.50209	5.891422E-008	0.0049619	7
	18	7	15890.62	28805.43	-36027.9	1	46127.67	-51.35657	-4.381994E-008	0.0051505	7
	19	7	12609.37	36514.14	-38878.83	1	53337.09	-46.79648	-3.356051E-009	0.0051174	6
	20	7	10078.13	44726.29	-40524.03	1	60354.27	-42.17799	1.157147E-008	0.0049414	6
	21	8	8015.625	53327.69	-40470.88	1	66945.76	-37.19521	-1.861509E-009	0.0051274	6
	22	8	6328.125	61949.4	-38863.64	1	73130.77	-32.10189	-2.148813E-009	0.0051256	6
	23	8	5015.625	69335.93	-35821.66	1	78042.7	-27.32265	-1.844945E-009	0.0051437	6
	24	9	3984.375	75577.51	-31909.08	1	82037.48	-22.88964	6.121303E-009	0.005079	6
	25	9	3170.956	80171.31	-27975.36	1	84912.07	-19.23616	-4.717389E-009	0.005137	6
	26	9	2527.573	83684.02	-24071.88	1	87077.38	-16.04799	-3.619594E-009	0.0051154	6
	27	10	1976.103	85848.96	-19954.79	1	88137.61	-13.08551	1.236589E-008	0.0048591	6
	28	10	1577.524	88386.05	-17807.71	1	90162.13	-11.39125	-6.623422E-010	0.0050733	6
	29	10	1265.625	89298.51	-14048.42	1	90396.8	-8.940484	2.161736E-010	0.0050758	5
	30	11	998.264	90322.67	-12380.31	1	91167.2	-7.80476	-4.538341E-011	0.0050622	5
	31	11	796.875	91420	-11263.51	1	92111.26	-7.0238	-1.265739E-010	0.0051384	5
	32	11	627.7902	92061.02	-10527.15	1	92660.95	-6.523417	6.084094E-010	0.0049586	5
	33	11	505.5147	91854.84	-10176.03	1	92416.8	-6.321664	7.497562E-010	0.0050696	5
	34	12	397.9953	92596.3	-10344.37	1	93172.31	-6.374351	4.518829E-010	0.0050854	5
	35	12	315.5048	92975.88	-10931.22	1	93616.27	-6.70551	5.925467E-010	0.0050827	5
	36	12	252.4038	93567.98	-11976.03	1	94331.3	-7.293792	4.843413E-010	0.0050798	5
	37	13	198.6229	94278.47	-13609.79	1	95255.7	-8.214319	3.999236E-010	0.0050807	5
	38	13	158.3615	94657.08	-15689.18	1	95948.5	-9.411077	1.531995E-010	0.005071	5
	39	13	125.558	95802	-18404.52	1	97553.8	-10.87461	2.68872E-010	0.0050756	5
	40	14	100.4464	96865.5	-21711.11	1	99268.8	-12.63329	1.096742E-012	0.005075	5
	41	14	79.00281	98730.5	-25813.95	1	102049.3	-14.65248	3.315996E-010	0.0050727	5
	42	14	63.3446	101989.3	-30796.08	1	106537.4	-16.8019	6.152965E-010	0.0050697	5
	43	15	49.86702	104259.5	-36762.48	1	110551	-19.42293	5.184412E-010	0.0050705	5
	44	15	39.72458	107781.1	-43120.78	1	116086.9	-21.80523	1.38876E-010	0.0050752	5
	45	15	31.6723	111881.9	-50552.11	1	122772.4	-24.3151	-2.583368E-010	0.0050787	5
	46	16	24.93351	116321.8	-59729.67	1	130760.8	-27.17988	5.476339E-010	0.0050783	5
	47	16	19.86229	121912.1	-69838.41	1	140499	-29.80661	1.799383E-009	0.0050815	5
	48	16	15.83615	128849.8	-81155.69	1	152277.7	-32.20466	-1.064553E-009	0.0050748	5
	49	17	12.40079	136764.1	-95493.6	1	166803.6	-34.92412	-8.329813E-010	0.0050837	5
	50	17	9.93114	144132.3	-110310.6	1	181500.9	-37.42838	-1.361047E-009	0.0050785	5
	51	17	7.944915	154483.8	-128589.5	1	200998.8	-39.77339	-5.243438E-010	0.0050752	5
	52	18	6.317385	163603.7	-150638	1	222391.5	-42.63729	-2.769538E-010	0.0050822	5
	53	18	5.008013	175149.1	-177885.5	1	249640.7	-45.4441	-4.679916E-010	0.0050681	5
	54	19	3.945707	190357.6	-211498.6	1	284548.1	-48.01146	-6.756469E-011	0.0050815	5
	55	20	3.158693	207011.2	-248800.9	1	323659.6	-50.23834	-1.698575E-010	0.0050644	5
	56	22	2.504006	228579.4	-294975.8	1	373174.6	-52.22757	9.532906E-011	0.0050605	5
	57	23	1.998082	252807.9	-348260.1	1	430345.2	-54.02347	1.32314E-010	0.0050839	5
	58	25	1.584686	284756.6	-411558.6	1	500466.6	-55.32072	-2.680302E-011	0.0050345	5
	59	27	1.266892	322561.3	-484773.5	1	582281	-56.36078	-3.627957E-011	0.0050249	5
	60	29	0.999041	369328.1	-575066.2	1	683450.4	-57.28997	-6.979744E-012	0.0050377	5
