EXPLAIN
TAG	EISPOT
TITLE	LABEL	Potentiostatic EIS	Test &Identifier
DATE	LABEL	3/12/2020	Date
TIME	LABEL	13:11:12	Time
NOTES	NOTES	1	&Notes...
	
PSTAT	PSTAT	REF600-11020	Potentiostat
VDC	POTEN	0.00000E+000	T	DC &Voltage (V)
FREQINIT	QUANT	1.00000E+006	Initial Fre&q. (Hz)
FREQFINAL	QUANT	1.00000E+000	Final Fre&q. (Hz)
PTSPERDEC	QUANT	1.00000E+001	Points/&decade
VAC	QUANT	2.50000E+001	AC &Voltage (mV rms)
AREA	QUANT	2.50000E-001	&Area (cm^2)
CONDIT	TWOPARAM	F	5.00000E+000	0.00000E+000	Conditionin&g	Time(s)	E(V)
DELAY	TWOPARAM	T	5.00000E+000	0.00000E+000	Init. De&lay	Time(s)	Stab.(mV/s)
SPEED	SELECTOR	1	&Optimize for:
ZGUESS	QUANT	5.00000E+003	E&stimated Z (ohms)
OCVCURVE	TABLE	19
	Pt	T	Vf	Vm	Ach	Over
	#	s	V vs. Ref.	V	V	bits
	0	0.258333	2.68552E-002	2.68552E-002	5.45564E-004	...........
	1	0.516667	2.68540E-002	2.67902E-002	5.47130E-004	...........
	2	0.775	2.68473E-002	2.67787E-002	5.45697E-004	...........
	3	1.03333	2.68313E-002	2.67489E-002	5.49330E-004	...........
	4	1.29167	2.68068E-002	2.67031E-002	5.50330E-004	...........
	5	1.55	2.67767E-002	2.66356E-002	5.46430E-004	...........
	6	1.80833	2.67401E-002	2.65840E-002	5.46030E-004	...........
	7	2.06667	2.66955E-002	2.65345E-002	5.45464E-004	...........
	8	2.325	2.66448E-002	2.64871E-002	5.47030E-004	...........
	9	2.58333	2.65922E-002	2.64353E-002	5.47964E-004	...........
	10	2.84167	2.65404E-002	2.63916E-002	5.49864E-004	...........
	11	3.1	2.64905E-002	2.63538E-002	5.47730E-004	...........
	12	3.35833	2.64432E-002	2.63175E-002	5.45397E-004	...........
	13	3.61667	2.63991E-002	2.62780E-002	5.50464E-004	...........
	14	3.875	2.63582E-002	2.62415E-002	5.45430E-004	...........
	15	4.13333	2.63194E-002	2.62046E-002	5.42497E-004	...........
	16	4.39167	2.62817E-002	2.61707E-002	5.41531E-004	...........
	17	4.65	2.62448E-002	2.61338E-002	5.49764E-004	...........
	18	4.90833	2.62085E-002	2.60992E-002	5.41731E-004	...........
EOC	QUANT	0.0262085	Open Circuit (V)
PSTATMODEL	IQUANT	4	Pstat Model
PSTATSECTION	LABEL	REF600-11020	Pstat Section
PSTATSERIALNO	LABEL	11020	Pstat Serial Number
CTRLMODE	IQUANT	1	Control Mode
IESTAB	IQUANT	0	I/E Stability
CASPEED	IQUANT	1	Control Amp Speed
CONVENTION	IQUANT	1	Current Convention
ICHRANGE	IQUANT	2	Ich Range
ICHRANGEMODE	TOGGLE	F	Ich Auto Range
ICHOFFSETENABLE	TOGGLE	T	Ich Offset Enable
ICHOFFSET	QUANT	0	Ich Offset (V)
ICHFILTER	IQUANT	3	Ich Filter
VCHRANGE	IQUANT	2	Vch Range
VCHRANGEMODE	TOGGLE	F	Vch Auto Range
VCHOFFSETENABLE	TOGGLE	T	Vch Offset Enable
VCHOFFSET	QUANT	0	Vch Offset (V)
VCHFILTER	IQUANT	3	Vch Filter
ACHRANGE	IQUANT	2	Ach Range
ACHOFFSETENABLE	TOGGLE	F	Ach Offset Enable
ACHOFFSET	QUANT	0	Ach Offset (V)
ACHFILTER	IQUANT	3	Ach Filter
IERANGELOWERLIMIT	IQUANT	1	I/E Range Lower Limit
IERANGEMODE	TOGGLE	F	I/E AutoRange
IERANGE	IQUANT	6	I/E Range
POSFEEDENABLE	TOGGLE	F	Positive Feedback IR Comp
POSFEEDRESISTANCE	QUANT	0	Positive Feedback Resistance (ohm)
ACHSELECT	IQUANT	0	Ach Select
CABLEID	IQUANT	14	Cable ID
DCCALDATE	LABEL	2/27/2020	DC Calibration Date
ACCALDATE	LABEL	2/27/2020	AC Calibration Date
THERMOSELECT	IQUANT	1	Thermo Select
FRAMEWORKVERSION	QUANT	6.33	Framework Version
INSTRUMENTVERSION	LABEL	3.50	Instrument Version
ZCURVE	TABLE
	Pt	Time	Freq	Zreal	Zimag	Zsig	Zmod	Zphz	Idc	Vdc	IERange
	#	s	Hz	ohm	ohm	V	ohm	°	A	V	#
	0	1	1000078	1571.961	-2096.234	1	2620.164	-53.13385	3.617996E-006	0.0278945	8
	1	3	794390.6	1925.352	-2350.935	1	3038.73	-50.68345	-1.789306E-006	0.0286947	8
	2	4	630984.4	2321.404	-2572.754	1	3465.253	-47.93996	2.929871E-006	0.0275783	8
	3	6	501234.4	2827.294	-2778.366	1	3963.951	-44.49992	-3.951112E-006	0.0285446	8
	4	7	398109.4	3348.489	-2926.273	1	4446.96	-41.15049	-5.004652E-007	0.028034	8
	5	8	316265.6	3930.489	-2983.28	1	4934.44	-37.19886	-5.671097E-007	0.0280177	8
	6	10	251203.1	4520.186	-2977.681	1	5412.824	-33.37497	2.620658E-006	0.027511	8
	7	11	199546.9	5055.652	-2883.858	1	5820.332	-29.70141	5.643972E-006	0.0268541	8
	8	13	158578.1	5595.696	-2682.106	1	6205.281	-25.60914	-4.932605E-007	0.0278764	8
	9	14	125953.1	6141.318	-2366.731	1	6581.581	-21.07558	1.215097E-006	0.0252099	7
	10	16	100078.1	6494.021	-2156.148	1	6842.608	-18.36722	6.785408E-008	0.0276568	7
	11	17	79453.13	6795.742	-1939.164	1	7066.998	-15.92609	9.766201E-008	0.0276332	7
	12	19	63140.62	7035.112	-1734.506	1	7245.779	-13.85004	-5.185726E-008	0.0278459	7
	13	20	50203.12	7233.065	-1551.028	1	7397.494	-12.10298	-3.886667E-009	0.0278705	7
	14	21	39890.62	7392.677	-1396.963	1	7523.509	-10.70076	3.510475E-008	0.027649	7
	15	23	31640.63	7528.549	-1272.818	1	7635.386	-9.596	9.874044E-008	0.027624	7
	16	24	25171.88	7635.3	-1181.182	1	7726.124	-8.793951	-4.784576E-008	0.0278082	7
	17	25	20015.62	7739.482	-1122.373	1	7820.441	-8.25146	3.832347E-008	0.0277318	7
	18	27	15890.62	7829.201	-1091.806	1	7904.962	-7.93887	-1.093636E-008	0.0277313	7
	19	28	12609.37	7920.441	-1088.536	1	7994.892	-7.82535	-4.899266E-008	0.0278055	7
	20	30	10078.13	7999.633	-1114.293	1	8076.867	-7.929877	1.506814E-007	0.0275885	7
	21	31	8015.625	8093.523	-1174.908	1	8178.357	-8.259729	9.341317E-008	0.0277499	7
	22	32	6328.125	8179.448	-1267.597	1	8277.087	-8.809245	2.610758E-008	0.0278713	7
	23	34	5015.625	8265.054	-1397.763	1	8382.413	-9.59888	-6.197302E-008	0.0278612	7
	24	35	3984.375	8359.735	-1564.934	1	8504.951	-10.60299	-6.306348E-008	0.0278691	7
	25	36	3170.956	8462.53	-1784.475	1	8648.628	-11.90739	-7.229509E-010	0.0278616	7
	26	38	2527.573	8556.762	-2066.536	1	8802.769	-13.57746	-6.004792E-008	0.0278405	7
	27	39	1976.103	8686.723	-2457.955	1	9027.773	-15.79915	-1.100482E-008	0.02791	7
	28	40	1577.524	8829.379	-2875.47	1	9285.81	-18.03891	-4.058657E-009	0.0277604	6
	29	42	1265.625	8977.411	-3415.073	1	9605.03	-20.82718	6.690682E-009	0.0278684	6
	30	43	998.264	9172.087	-4136.371	1	10061.65	-24.27413	-3.339368E-009	0.0277578	6
	31	44	796.875	9392.065	-4971.156	1	10626.54	-27.89196	-3.923343E-009	0.0277615	6
	32	46	627.7902	9677.85	-6049.252	1	11412.9	-32.00793	-1.522642E-009	0.0279746	6
	33	47	505.5147	9998.55	-7238.628	1	12343.77	-35.90334	-1.29801E-008	0.0279437	6
	34	48	397.9953	10437.58	-8835.158	1	13674.9	-40.24712	1.561422E-009	0.02785	6
	35	50	315.5048	10967.13	-10721.22	1	15336.97	-44.3504	-1.698389E-010	0.0278586	6
	36	51	252.4038	11594.13	-12907.45	1	17350.11	-48.06821	-7.264521E-011	0.0278489	6
	37	53	198.6229	12430.7	-15753.99	1	20067.65	-51.72478	5.760806E-010	0.02785	6
	38	54	158.3615	13429.07	-19010.43	1	23275.23	-54.76241	7.591812E-010	0.0278489	6
	39	55	125.558	14690.6	-23022.28	1	27310.05	-57.4579	9.115495E-010	0.0278469	6
	40	57	100.4464	16183.4	-27685.55	1	32068.56	-59.69186	1.821836E-009	0.0278475	6
	41	58	79.00281	18390.66	-33604.66	1	38307.82	-61.30965	5.246064E-010	0.0278416	6
	42	59	63.3446	20361.61	-39610.11	1	44537.13	-62.79454	6.343546E-010	0.0278445	6
	43	61	49.86702	24250.7	-48747.73	1	54446.65	-63.55087	3.196127E-010	0.0278409	6
	44	62	39.72458	27572	-58396.25	1	64578.15	-64.72549	7.565818E-010	0.0278464	6
	45	63	31.6723	32080.97	-69415.89	1	76470.61	-65.1957	2.275079E-010	0.0278409	6
	46	65	24.93351	38241.35	-83842.86	1	92152.19	-65.48192	1.031335E-009	0.0278401	6
	47	66	19.86229	45287.13	-99928	1	109711.2	-65.62009	1.086071E-009	0.0278537	5
	48	68	15.83615	55976.4	-117708.1	1	130340.1	-64.56645	-1.157727E-009	0.0278521	5
	49	69	12.40079	65933.43	-142317.1	1	156848.2	-65.1424	2.843551E-010	0.0278486	5
	50	71	9.93114	81366.8	-167569.6	1	186279.7	-64.10017	7.24631E-010	0.0278386	5
	51	72	7.944915	98244.2	-195103.7	1	218443	-63.27251	-5.645787E-010	0.0278481	5
	52	74	6.317385	121020.2	-228416.4	1	258495.5	-62.08433	-8.640696E-011	0.0278474	5
	53	76	5.008013	148026.1	-265047.1	1	303581.4	-60.81708	-1.057558E-011	0.0278443	5
	54	78	3.945707	180260	-306525	1	355599.9	-59.54124	3.943372E-010	0.0278612	5
	55	81	3.158693	214754	-349817.7	1	410477.4	-58.45412	-3.365183E-011	0.0278412	5
	56	84	2.504006	255339.7	-399294.9	1	473956.5	-57.40204	4.954169E-010	0.0278505	5
	57	87	1.998082	298490.6	-452327.5	1	541937.9	-56.57921	1.37873E-010	0.0278961	5
	58	90	1.584686	345412.1	-515303.8	1	620360.8	-56.16575	2.614753E-010	0.0278627	5
	59	94	1.266892	397164.2	-585008.4	1	707088.6	-55.82729	1.016918E-010	0.0278925	5
	60	98	0.999041	452358.1	-659785.1	1	799965.2	-55.56491	4.773866E-010	0.0278132	5
