EXPLAIN
TAG	EISPOT
TITLE	LABEL	Potentiostatic EIS	Test &Identifier
DATE	LABEL	1/7/2020	Date
TIME	LABEL	18:02:27	Time
NOTES	NOTES	5	&Notes...
	
	
	
	
	
PSTAT	PSTAT	REF600-11020	Potentiostat
VDC	POTEN	0.00000E+000	T	DC &Voltage (V)
FREQINIT	QUANT	1.00000E+006	Initial Fre&q. (Hz)
FREQFINAL	QUANT	1.00000E+000	Final Fre&q. (Hz)
PTSPERDEC	QUANT	1.00000E+001	Points/&decade
VAC	QUANT	2.50000E+001	AC &Voltage (mV rms)
AREA	QUANT	1.00000E-001	&Area (cm^2)
CONDIT	TWOPARAM	T	5.00000E+000	0.00000E+000	Conditionin&g	Time(s)	E(V)
DELAY	TWOPARAM	T	5.00000E+000	0.00000E+000	Init. De&lay	Time(s)	Stab.(mV/s)
SPEED	SELECTOR	0	&Optimize for:
ZGUESS	QUANT	1.00000E+003	E&stimated Z (ohms)
OCVCURVE	TABLE	19
	Pt	T	Vf	Vm	Ach	Over
	#	s	V vs. Ref.	V	V	bits
	0	0.258333	4.29598E-003	4.29598E-003	6.48246E-004	...........
	1	0.516667	4.29199E-003	4.08684E-003	6.45380E-004	...........
	2	0.775	4.26720E-003	3.87546E-003	6.44480E-004	...........
	3	1.03333	4.19627E-003	3.67363E-003	6.45313E-004	...........
	4	1.29167	4.06810E-003	3.49355E-003	6.48346E-004	...........
	5	1.55	3.89752E-003	3.35036E-003	6.50580E-004	...........
	6	1.80833	3.71233E-003	3.22195E-003	6.45280E-004	...........
	7	2.06667	3.53550E-003	3.09330E-003	6.44246E-004	...........
	8	2.325	3.37677E-003	2.96185E-003	6.43113E-004	...........
	9	2.58333	3.23442E-003	2.84714E-003	6.47980E-004	...........
	10	2.84167	3.10299E-003	2.74181E-003	6.49413E-004	...........
	11	3.1	2.97934E-003	2.63840E-003	6.49246E-004	...........
	12	3.35833	2.86286E-003	2.53726E-003	6.51480E-004	...........
	13	3.61667	2.75294E-003	2.44238E-003	6.51246E-004	...........
	14	3.875	2.64844E-003	2.35085E-003	6.49813E-004	...........
	15	4.13333	2.54831E-003	2.25439E-003	6.50013E-004	...........
	16	4.39167	2.45142E-003	2.16034E-003	6.51013E-004	...........
	17	4.65	2.35634E-003	2.06560E-003	6.43446E-004	...........
	18	4.90833	2.26197E-003	1.97607E-003	6.41080E-004	...........
EOC	QUANT	0.002262	Open Circuit (V)
PSTATMODEL	IQUANT	4	Pstat Model
PSTATSECTION	LABEL	REF600-11020	Pstat Section
PSTATSERIALNO	LABEL	11020	Pstat Serial Number
CTRLMODE	IQUANT	1	Control Mode
IESTAB	IQUANT	0	I/E Stability
CASPEED	IQUANT	1	Control Amp Speed
CONVENTION	IQUANT	1	Current Convention
ICHRANGE	IQUANT	2	Ich Range
ICHRANGEMODE	TOGGLE	F	Ich Auto Range
ICHOFFSETENABLE	TOGGLE	T	Ich Offset Enable
ICHOFFSET	QUANT	0	Ich Offset (V)
ICHFILTER	IQUANT	3	Ich Filter
VCHRANGE	IQUANT	2	Vch Range
VCHRANGEMODE	TOGGLE	F	Vch Auto Range
VCHOFFSETENABLE	TOGGLE	T	Vch Offset Enable
VCHOFFSET	QUANT	0	Vch Offset (V)
VCHFILTER	IQUANT	3	Vch Filter
ACHRANGE	IQUANT	2	Ach Range
ACHOFFSETENABLE	TOGGLE	F	Ach Offset Enable
ACHOFFSET	QUANT	0	Ach Offset (V)
ACHFILTER	IQUANT	3	Ach Filter
IERANGELOWERLIMIT	IQUANT	1	I/E Range Lower Limit
IERANGEMODE	TOGGLE	F	I/E AutoRange
IERANGE	IQUANT	6	I/E Range
POSFEEDENABLE	TOGGLE	F	Positive Feedback IR Comp
POSFEEDRESISTANCE	QUANT	0	Positive Feedback Resistance (ohm)
ACHSELECT	IQUANT	0	Ach Select
CABLEID	IQUANT	14	Cable ID
DCCALDATE	LABEL	12/22/2019	DC Calibration Date
ACCALDATE	LABEL	12/22/2019	AC Calibration Date
THERMOSELECT	IQUANT	1	Thermo Select
FRAMEWORKVERSION	QUANT	6.33	Framework Version
INSTRUMENTVERSION	LABEL	3.50	Instrument Version
ZCURVE	TABLE
	Pt	Time	Freq	Zreal	Zimag	Zsig	Zmod	Zphz	Idc	Vdc	IERange
	#	s	Hz	ohm	ohm	V	ohm	°	A	V	#
	0	2	1000078	1690.192	-821.7072	1	1879.349	-25.92727	1.52029E-005	0.001775	8
	1	2	794390.6	1831.214	-822.2722	1	2007.355	-24.18157	3.838932E-006	0.0023812	8
	2	2	630984.4	1968.649	-789.2309	1	2120.958	-21.84583	-3.243675E-006	0.0040706	8
	3	2	501234.4	2088.746	-765.889	1	2224.735	-20.13668	1.528761E-006	0.0033961	8
	4	3	398109.4	2206.912	-732.9534	1	2325.442	-18.37221	9.376145E-006	0.002006	8
	5	3	316265.6	2294.257	-695.5845	1	2397.385	-16.86652	-1.204575E-006	0.004392	8
	6	3	251203.1	2411.648	-684.1298	1	2506.807	-15.83743	-7.709168E-006	0.0055359	8
	7	4	199546.9	2482.988	-667.191	1	2571.065	-15.04039	-6.440979E-006	0.005135	8
	8	4	158578.1	2559.901	-670.5034	1	2646.256	-14.6775	3.561626E-006	0.0028552	8
	9	4	125953.1	2666.333	-593.5167	1	2731.592	-12.54925	9.367459E-007	0.0014098	7
	10	5	100078.1	2736.013	-591.8228	1	2799.289	-12.20552	-8.029917E-008	0.0038771	7
	11	5	79453.13	2806.872	-610.7058	1	2872.541	-12.27484	-6.989774E-008	0.003836	7
	12	5	63140.62	2879.618	-637.1741	1	2949.27	-12.47682	1.372476E-007	0.0035362	7
	13	6	50203.12	2956.234	-668.7111	1	3030.923	-12.74601	-2.057382E-008	0.0038503	7
	14	6	39890.62	3036.261	-706.8517	1	3117.454	-13.10522	1.3834E-007	0.0035306	7
	15	6	31640.63	3121.43	-755.0657	1	3211.456	-13.59848	5.178099E-009	0.0036724	7
	16	7	25171.88	3206.923	-811.1204	1	3307.911	-14.19402	-9.063498E-008	0.0039661	7
	17	7	20015.62	3295.425	-880.0759	1	3410.918	-14.95245	8.091808E-008	0.0038086	7
	18	7	15890.62	3391.416	-967.124	1	3526.617	-15.91646	1.18928E-007	0.0035463	7
	19	8	12609.37	3498.129	-1074.195	1	3659.344	-17.07052	-8.235571E-008	0.0038645	7
	20	8	10078.13	3611.534	-1198.096	1	3805.077	-18.35282	9.530215E-009	0.0038079	7
	21	8	8015.625	3743.566	-1347.24	1	3978.61	-19.79286	2.856881E-008	0.0037726	7
	22	9	6328.125	3903.819	-1526.933	1	4191.817	-21.36237	-8.212129E-008	0.0038642	7
	23	9	5015.625	4088.935	-1728.101	1	4439.112	-22.91031	1.029757E-008	0.0038095	7
	24	9	3984.375	4297.91	-1949.365	1	4719.328	-24.3972	-3.356468E-008	0.0039922	7
	25	9	3170.956	4538.128	-2187.405	1	5037.792	-25.73434	-8.318237E-008	0.0039099	7
	26	10	2527.573	4804.517	-2445.795	1	5391.224	-26.9789	-6.900544E-008	0.0038271	7
	27	10	1976.103	5114.119	-2747.725	1	5805.532	-28.24834	2.872039E-008	0.0037741	7
	28	10	1577.524	5418.557	-3071.127	1	6228.369	-29.54367	-8.1529E-008	0.0038634	7
	29	11	1265.625	5712.145	-3391.874	1	6643.297	-30.70186	-3.219726E-008	0.0039925	7
	30	11	998.264	6024.539	-3816.681	1	7131.768	-32.35518	-3.067973E-008	0.0039168	7
	31	11	796.875	6315.845	-4312.51	1	7647.722	-34.32558	2.065852E-007	0.0034869	7
	32	12	627.7902	6629.284	-4971.281	1	8286.196	-36.86613	3.787336E-008	0.003649	7
	33	12	505.5147	6913.994	-5740.639	1	8986.56	-39.7026	1.283952E-008	0.0038055	7
	34	12	397.9953	7247.55	-6783.154	1	9926.64	-43.10429	3.368922E-010	0.003795	6
	35	13	315.5048	7608.755	-8078.959	1	11097.87	-46.7168	2.272181E-010	0.0037928	6
	36	13	252.4038	8011.525	-9630.79	1	12527.43	-50.24408	1.231874E-009	0.0037864	6
	37	13	198.6229	8537.048	-11700.21	1	14483.65	-53.88367	6.583663E-010	0.0037894	6
	38	14	158.3615	9152.24	-14116.64	1	16823.88	-57.04345	6.629484E-010	0.0037866	6
	39	14	125.558	9947.24	-17160.1	1	19834.73	-59.90031	4.105092E-010	0.0037925	6
	40	14	100.4464	10892.24	-20711.87	1	23401.33	-62.26041	4.104633E-010	0.0037826	6
	41	15	79.00281	12225.93	-25329.21	1	28125.47	-64.23428	8.362629E-010	0.0037823	6
	42	15	63.3446	13991.57	-30434.87	1	33496.95	-65.31074	4.516352E-010	0.0037826	6
	43	15	49.86702	16115.64	-37232.73	1	40570.8	-66.59534	6.982298E-010	0.0037758	6
	44	16	39.72458	18610.98	-44976.27	1	48674.77	-67.52045	5.495853E-010	0.0037803	6
	45	16	31.6723	21891.27	-54194.27	1	58448.66	-68.00422	1.059008E-009	0.0037807	6
	46	16	24.93351	26459.03	-65677.77	1	70807.13	-68.0574	2.628774E-010	0.0037788	6
	47	17	19.86229	31754.77	-78671.45	1	84838.45	-68.01914	3.009326E-010	0.0037806	6
	48	17	15.83615	38994.74	-93888.47	1	101664.3	-67.4454	2.174762E-009	0.0037813	6
	49	17	12.40079	48058	-113033.4	1	122825.5	-66.96643	4.184738E-010	0.0037781	5
	50	17	9.93114	58344.48	-133339.7	1	145545.7	-66.3676	3.479416E-010	0.0037738	5
	51	18	7.944915	70867.14	-156697.1	1	171977.1	-65.66487	-1.9016E-010	0.0037835	5
	52	19	6.317385	86926.13	-183738.6	1	203263.4	-64.68132	1.065696E-011	0.0037854	5
	53	19	5.008013	106469	-215589.2	1	240446.1	-63.71748	4.237695E-010	0.0037883	5
	54	20	3.945707	130175.8	-252224.5	1	283836.1	-62.70125	1.213653E-010	0.003774	5
	55	22	3.158693	156758.3	-291436.2	1	330920.3	-61.72499	3.129448E-010	0.0037669	5
	56	23	2.504006	188148.7	-337659.9	1	386541.3	-60.87286	3.866591E-010	0.0037742	5
	57	25	1.998082	222800.6	-387047.1	1	446593.3	-60.07346	2.409354E-010	0.0037299	5
	58	26	1.584686	261803.7	-447043.4	1	518062.8	-59.64532	1.736296E-010	0.003728	5
	59	28	1.266892	303928.7	-513213.5	1	596456.9	-59.36568	3.047934E-010	0.0037719	5
	60	31	0.999041	356645.6	-594783.5	1	693515.3	-59.05215	3.107874E-010	0.0037931	5
