EXPLAIN
TAG	EISPOT
TITLE	LABEL	Potentiostatic EIS	Test &Identifier
DATE	LABEL	1/7/2020	Date
TIME	LABEL	16:54:35	Time
NOTES	NOTES	5	&Notes...
	
	
	
	
	
PSTAT	PSTAT	REF600-11020	Potentiostat
VDC	POTEN	0.00000E+000	T	DC &Voltage (V)
FREQINIT	QUANT	1.00000E+006	Initial Fre&q. (Hz)
FREQFINAL	QUANT	1.00000E+000	Final Fre&q. (Hz)
PTSPERDEC	QUANT	1.00000E+001	Points/&decade
VAC	QUANT	2.50000E+001	AC &Voltage (mV rms)
AREA	QUANT	1.00000E-001	&Area (cm^2)
CONDIT	TWOPARAM	T	5.00000E+000	0.00000E+000	Conditionin&g	Time(s)	E(V)
DELAY	TWOPARAM	T	5.00000E+000	0.00000E+000	Init. De&lay	Time(s)	Stab.(mV/s)
SPEED	SELECTOR	0	&Optimize for:
ZGUESS	QUANT	1.00000E+003	E&stimated Z (ohms)
OCVCURVE	TABLE	19
	Pt	T	Vf	Vm	Ach	Over
	#	s	V vs. Ref.	V	V	bits
	0	0.258333	1.34190E-003	1.34190E-003	6.47080E-004	...........
	1	0.516667	1.33389E-003	9.22969E-004	6.41813E-004	...........
	2	0.775	1.26833E-003	-3.33500E-004	6.40780E-004	...........
	3	1.03333	1.04448E-003	-6.92856E-004	6.46713E-004	...........
	4	1.29167	6.03773E-004	-1.30367E-003	6.48846E-004	...........
	5	1.55	2.93416E-005	-8.76973E-004	6.46446E-004	...........
	6	1.80833	-4.81383E-004	-1.75247E-004	6.46546E-004	...........
	7	2.06667	-7.37082E-004	-6.11139E-005	6.44413E-004	...........
	8	2.325	-6.88606E-004	2.91050E-005	6.47546E-004	...........
	9	2.58333	-4.63338E-004	-1.51241E-004	6.47013E-004	...........
	10	2.84167	-2.48577E-004	-5.05220E-004	6.42946E-004	...........
	11	3.1	-1.71831E-004	-9.09982E-004	6.51613E-004	...........
	12	3.35833	-2.69483E-004	-1.12809E-003	6.49880E-004	...........
	13	3.61667	-5.04448E-004	-1.54398E-003	6.47380E-004	...........
	14	3.875	-8.12181E-004	-1.84567E-003	6.40946E-004	...........
	15	4.13333	-1.14458E-003	-2.09868E-003	6.48213E-004	...........
	16	4.39167	-1.47484E-003	-2.39102E-003	6.39013E-004	...........
	17	4.65	-1.78807E-003	-2.64606E-003	6.39180E-004	...........
	18	4.90833	-2.08080E-003	-2.89397E-003	6.41680E-004	...........
EOC	QUANT	-0.0020808	Open Circuit (V)
PSTATMODEL	IQUANT	4	Pstat Model
PSTATSECTION	LABEL	REF600-11020	Pstat Section
PSTATSERIALNO	LABEL	11020	Pstat Serial Number
CTRLMODE	IQUANT	1	Control Mode
IESTAB	IQUANT	0	I/E Stability
CASPEED	IQUANT	1	Control Amp Speed
CONVENTION	IQUANT	1	Current Convention
ICHRANGE	IQUANT	2	Ich Range
ICHRANGEMODE	TOGGLE	F	Ich Auto Range
ICHOFFSETENABLE	TOGGLE	T	Ich Offset Enable
ICHOFFSET	QUANT	0	Ich Offset (V)
ICHFILTER	IQUANT	3	Ich Filter
VCHRANGE	IQUANT	2	Vch Range
VCHRANGEMODE	TOGGLE	F	Vch Auto Range
VCHOFFSETENABLE	TOGGLE	T	Vch Offset Enable
VCHOFFSET	QUANT	0	Vch Offset (V)
VCHFILTER	IQUANT	3	Vch Filter
ACHRANGE	IQUANT	2	Ach Range
ACHOFFSETENABLE	TOGGLE	F	Ach Offset Enable
ACHOFFSET	QUANT	0	Ach Offset (V)
ACHFILTER	IQUANT	3	Ach Filter
IERANGELOWERLIMIT	IQUANT	1	I/E Range Lower Limit
IERANGEMODE	TOGGLE	F	I/E AutoRange
IERANGE	IQUANT	6	I/E Range
POSFEEDENABLE	TOGGLE	F	Positive Feedback IR Comp
POSFEEDRESISTANCE	QUANT	0	Positive Feedback Resistance (ohm)
ACHSELECT	IQUANT	0	Ach Select
CABLEID	IQUANT	14	Cable ID
DCCALDATE	LABEL	12/22/2019	DC Calibration Date
ACCALDATE	LABEL	12/22/2019	AC Calibration Date
THERMOSELECT	IQUANT	1	Thermo Select
FRAMEWORKVERSION	QUANT	6.33	Framework Version
INSTRUMENTVERSION	LABEL	3.50	Instrument Version
ZCURVE	TABLE
	Pt	Time	Freq	Zreal	Zimag	Zsig	Zmod	Zphz	Idc	Vdc	IERange
	#	s	Hz	ohm	ohm	V	ohm	°	A	V	#
	0	1	1000078	2210.728	-1637.568	1	2751.172	-36.52871	7.111367E-007	-0.0002201	8
	1	1	794390.6	2561.66	-1594.371	1	3017.304	-31.89802	8.453811E-006	-0.0020749	8
	2	1	630984.4	2849.524	-1490.729	1	3215.907	-27.61631	-7.449684E-006	0.0007654	8
	3	2	501234.4	3116.109	-1351.364	1	3396.516	-23.44494	1.075965E-007	0.0001281	8
	4	2	398109.4	3331.843	-1207.753	1	3543.987	-19.92498	-2.511951E-006	2.904026E-005	8
	5	2	316265.6	3514.114	-1087.685	1	3678.594	-17.19829	-4.107735E-006	0.000514	8
	6	3	251203.1	3633.144	-940.7068	1	3752.954	-14.51643	6.955067E-008	-0.0005796	8
	7	3	199546.9	3728.265	-820.6193	1	3817.509	-12.4133	5.408009E-008	-0.0003817	8
	8	3	158578.1	3838.433	-729.231	1	3907.09	-10.75694	-7.225285E-007	-7.964789E-005	8
	9	4	125953.1	3897.193	-578.3516	1	3939.873	-8.441206	8.16411E-007	-0.0031029	7
	10	4	100078.1	3942.907	-513.9624	1	3976.264	-7.426694	1.493224E-009	-0.0004513	7
	11	4	79453.13	3986.427	-479.8919	1	4015.208	-6.864318	4.48269E-009	-0.0004586	7
	12	5	63140.62	4024.879	-456.6784	1	4050.705	-6.473316	1.246881E-007	-0.0005417	7
	13	5	50203.12	4063.476	-444.5954	1	4087.726	-6.244042	6.522065E-008	-0.0005548	7
	14	5	39890.62	4101.21	-445.2083	1	4125.305	-6.195502	-7.159797E-008	-0.0003873	7
	15	6	31640.63	4140.026	-456.5753	1	4165.126	-6.293329	-2.517135E-008	-0.0005119	7
	16	6	25171.88	4178.575	-480.9891	1	4206.167	-6.566326	1.09161E-007	-0.0006437	7
	17	6	20015.62	4221.495	-514.3315	1	4252.712	-6.946471	1.038196E-007	-0.0006762	7
	18	6	15890.62	4267.848	-562.5037	1	4304.757	-7.508326	1.994849E-009	-0.0004675	7
	19	7	12609.37	4317.122	-622.4508	1	4361.764	-8.204473	1.267525E-007	-0.0005493	7
	20	7	10078.13	4372.029	-696.5958	1	4427.175	-9.052849	-4.319102E-008	-0.0003621	7
	21	7	8015.625	4428.267	-788.458	1	4497.912	-10.09578	-3.587148E-009	-0.0004175	7
	22	8	6328.125	4493.744	-906.5485	1	4584.273	-11.40552	-4.505062E-008	-0.0004845	7
	23	8	5015.625	4563.261	-1046.02	1	4681.614	-12.91066	5.678826E-008	-0.00065	7
	24	8	3984.375	4636.374	-1219.673	1	4794.118	-14.73865	-1.199768E-008	-0.0004958	7
	25	9	3170.956	4719.283	-1425.368	1	4929.838	-16.80592	-2.338204E-008	-0.0005116	7
	26	9	2527.573	4809.492	-1677.969	1	5093.8	-19.23321	1.750153E-007	-0.0007221	7
	27	9	1976.103	4921.017	-2016.973	1	5318.325	-22.28721	1.261852E-007	-0.0005613	7
	28	10	1577.524	5038.357	-2390.736	1	5576.797	-25.38467	1.325267E-008	-0.0005815	7
	29	10	1265.625	5168.036	-2851.199	1	5902.366	-28.88547	-4.240025E-008	-0.0003687	7
	30	10	998.264	5329.742	-3441.57	1	6344.333	-32.85151	2.765969E-009	-0.0004717	7
	31	11	796.875	5511.947	-4126.962	1	6885.737	-36.82331	5.763922E-008	-0.0006551	7
	32	11	627.7902	5743.207	-5024.949	1	7631.156	-41.18391	-9.770969E-008	-0.0003134	7
	33	11	505.5147	5989.563	-6012.748	1	8486.931	-45.11068	-9.069693E-008	-0.00019	7
	34	12	397.9953	6317.001	-7330.402	1	9676.74	-49.24676	8.008318E-009	-0.0004723	7
	35	12	315.5048	6699.174	-8903.064	1	11141.97	-53.04011	8.088543E-010	-0.0004721	6
	36	12	252.4038	7131.646	-10744.75	1	12896.12	-56.42645	1.450465E-009	-0.0004739	6
	37	13	198.6229	7685.368	-13165.19	1	15244.25	-59.72514	1.083612E-009	-0.0004713	6
	38	13	158.3615	8310.536	-15971.03	1	18003.86	-62.50976	9.359694E-010	-0.0004737	6
	39	13	125.558	9096.396	-19497.38	1	21514.93	-64.98885	1.313929E-009	-0.0004728	6
	40	13	100.4464	9992.69	-23644.84	1	25669.68	-67.09029	8.484606E-010	-0.0004768	6
	41	14	79.00281	11222.22	-29088.91	1	31178.56	-68.90386	1.072753E-009	-0.0004778	6
	42	14	63.3446	12905.66	-35449.98	1	37726.08	-69.99583	9.173184E-010	-0.0004795	6
	43	15	49.86702	14816.03	-43697.48	1	46140.92	-71.2703	5.677472E-010	-0.0004766	6
	44	15	39.72458	17275.48	-53087.77	1	55827.89	-71.97441	1.068214E-009	-0.0004742	6
	45	15	31.6723	20542.39	-64482.68	1	67675.74	-72.32957	1.192727E-009	-0.0004783	6
	46	16	24.93351	25122.16	-79401.09	1	83280.59	-72.44286	9.94646E-010	-0.0004805	6
	47	16	19.86229	31031.33	-96268.8	1	101146.6	-72.13377	9.733574E-010	-0.0004724	6
	48	16	15.83615	39510.9	-115391.5	1	121968.5	-71.09842	1.557111E-009	-0.0004824	5
	49	16	12.40079	50385.63	-141577.1	1	150275.7	-70.40995	1.689848E-009	-0.0004884	5
	50	17	9.93114	63016.57	-168867	1	180241.9	-69.53579	1.212853E-011	-0.0004861	5
	51	17	7.944915	80501.47	-199863.4	1	215466.6	-68.06129	-1.444693E-010	-0.0004837	5
	52	18	6.317385	102844.6	-236191.3	1	257610.9	-66.47028	-8.281877E-012	-0.0004729	5
	53	19	5.008013	131481.9	-277715.3	1	307267.5	-64.66519	1.677723E-010	-0.0004868	5
	54	20	3.945707	166882.7	-323637.9	1	364130.9	-62.72226	5.670655E-010	-0.0004887	5
	55	21	3.158693	206781	-370274.6	1	424101	-60.81869	6.735836E-010	-0.0004731	5
	56	23	2.504006	255332.1	-422488.8	1	493650.9	-58.85324	4.153788E-010	-0.0004764	5
	57	24	1.998082	306393.2	-476585.8	1	566578.2	-57.26337	4.744818E-010	-0.0004892	5
	58	26	1.584686	366875.1	-536917.4	1	650290.4	-55.65525	6.545144E-010	-0.0004477	5
	59	28	1.266892	429246.9	-602809	1	740021.4	-54.54617	6.266938E-010	-0.0004519	5
	60	30	0.999041	500723.2	-680997.1	1	845269.6	-53.67372	6.483574E-010	-0.0004711	5
