EXPLAIN
TAG	EISPOT
TITLE	LABEL	Potentiostatic EIS	Test &Identifier
DATE	LABEL	6/6/2020	Date
TIME	LABEL	13:38:38	Time
NOTES	NOTES	1	&Notes...
	
PSTAT	PSTAT	REF600-11020	Potentiostat
VDC	POTEN	0.00000E+000	T	DC &Voltage (V)
FREQINIT	QUANT	1.00000E+006	Initial Fre&q. (Hz)
FREQFINAL	QUANT	1.00000E+000	Final Fre&q. (Hz)
PTSPERDEC	QUANT	1.00000E+001	Points/&decade
VAC	QUANT	2.50000E+001	AC &Voltage (mV rms)
AREA	QUANT	2.50000E-001	&Area (cm^2)
CONDIT	TWOPARAM	F	5.00000E+000	0.00000E+000	Conditionin&g	Time(s)	E(V)
DELAY	TWOPARAM	T	3.00000E+000	0.00000E+000	Init. De&lay	Time(s)	Stab.(mV/s)
SPEED	SELECTOR	0	&Optimize for:
ZGUESS	QUANT	1.00000E+003	E&stimated Z (ohms)
OCVCURVE	TABLE	12
	Pt	T	Vf	Vm	Ach	Over
	#	s	V vs. Ref.	V	V	bits
	0	0.258333	-7.76632E-002	-7.76632E-002	5.87296E-004	...........
	1	0.516667	-7.76633E-002	-7.76676E-002	5.87563E-004	...........
	2	0.775	-7.76638E-002	-7.76696E-002	5.85263E-004	...........
	3	1.03333	-7.76650E-002	-7.76741E-002	5.84230E-004	...........
	4	1.29167	-7.76673E-002	-7.76795E-002	5.84263E-004	...........
	5	1.55	-7.76704E-002	-7.76809E-002	5.83030E-004	...........
	6	1.80833	-7.76740E-002	-7.76874E-002	5.88530E-004	...........
	7	2.06667	-7.76781E-002	-7.76948E-002	5.87897E-004	...........
	8	2.325	-7.76826E-002	-7.77024E-002	5.80697E-004	...........
	9	2.58333	-7.76881E-002	-7.77096E-002	5.82597E-004	...........
	10	2.84167	-7.76946E-002	-7.77197E-002	5.81630E-004	...........
	11	3.1	-7.77020E-002	-7.77323E-002	5.84630E-004	...........
EOC	QUANT	-0.077702	Open Circuit (V)
PSTATMODEL	IQUANT	4	Pstat Model
PSTATSECTION	LABEL	REF600-11020	Pstat Section
PSTATSERIALNO	LABEL	11020	Pstat Serial Number
CTRLMODE	IQUANT	1	Control Mode
IESTAB	IQUANT	0	I/E Stability
CASPEED	IQUANT	1	Control Amp Speed
CONVENTION	IQUANT	1	Current Convention
ICHRANGE	IQUANT	2	Ich Range
ICHRANGEMODE	TOGGLE	F	Ich Auto Range
ICHOFFSETENABLE	TOGGLE	T	Ich Offset Enable
ICHOFFSET	QUANT	0	Ich Offset (V)
ICHFILTER	IQUANT	3	Ich Filter
VCHRANGE	IQUANT	2	Vch Range
VCHRANGEMODE	TOGGLE	F	Vch Auto Range
VCHOFFSETENABLE	TOGGLE	T	Vch Offset Enable
VCHOFFSET	QUANT	0	Vch Offset (V)
VCHFILTER	IQUANT	3	Vch Filter
ACHRANGE	IQUANT	2	Ach Range
ACHOFFSETENABLE	TOGGLE	F	Ach Offset Enable
ACHOFFSET	QUANT	0	Ach Offset (V)
ACHFILTER	IQUANT	3	Ach Filter
IERANGELOWERLIMIT	IQUANT	1	I/E Range Lower Limit
IERANGEMODE	TOGGLE	F	I/E AutoRange
IERANGE	IQUANT	8	I/E Range
POSFEEDENABLE	TOGGLE	F	Positive Feedback IR Comp
POSFEEDRESISTANCE	QUANT	0	Positive Feedback Resistance (ohm)
ACHSELECT	IQUANT	0	Ach Select
CABLEID	IQUANT	14	Cable ID
DCCALDATE	LABEL	2/27/2020	DC Calibration Date
ACCALDATE	LABEL	2/27/2020	AC Calibration Date
THERMOSELECT	IQUANT	1	Thermo Select
FRAMEWORKVERSION	QUANT	6.33	Framework Version
INSTRUMENTVERSION	LABEL	3.50	Instrument Version
ZCURVE	TABLE
	Pt	Time	Freq	Zreal	Zimag	Zsig	Zmod	Zphz	Idc	Vdc	IERange
	#	s	Hz	ohm	ohm	V	ohm	°	A	V	#
	0	1	1000078	1478.56	-2525.231	1	2926.249	-59.65041	8.093212E-008	-0.0753899	8
	1	1	794390.6	1778.014	-2976.239	1	3466.89	-59.14577	5.386916E-008	-0.0757234	8
	2	1	630984.4	2163.661	-3480.462	1	4098.176	-58.13248	5.88402E-008	-0.0758658	8
	3	2	501234.4	2649.622	-4031.629	1	4824.369	-56.68673	5.639341E-008	-0.0759575	8
	4	2	398109.4	3270.797	-4606.619	1	5649.694	-54.62444	1.222201E-008	-0.0759776	8
	5	2	316265.6	4018.628	-5191.591	1	6565.21	-52.25781	7.395024E-008	-0.0760225	8
	6	3	251203.1	4904.754	-5744.64	1	7553.642	-49.50941	6.486665E-008	-0.0760408	8
	7	3	199546.9	5901.5	-6218.499	1	8573.064	-46.49823	2.024409E-008	-0.0760112	8
	8	3	158578.1	6992.666	-6614.129	1	9625.18	-43.40646	5.744112E-008	-0.0760464	8
	9	4	125953.1	8294.431	-6816.92	1	10736.29	-39.41566	3.420647E-009	-0.0760854	7
	10	4	100078.1	9394.68	-7039.798	1	11739.62	-36.84565	4.859061E-009	-0.0760988	7
	11	4	79453.13	10514.04	-7220.537	1	12754.66	-34.47939	4.566204E-009	-0.0761122	7
	12	5	63140.62	11601.93	-7367.141	1	13743.34	-32.41526	4.619956E-009	-0.0761243	7
	13	5	50203.12	12651.59	-7520.146	1	14717.86	-30.72738	4.280221E-009	-0.0761228	7
	14	5	39890.62	13681.92	-7705.219	1	15702.4	-29.38682	4.2857E-009	-0.0761262	7
	15	6	31640.63	14716.05	-7963.589	1	16732.63	-28.42003	5.288025E-009	-0.0761248	7
	16	6	25171.88	15760.42	-8282.605	1	17804.28	-27.72336	5.335532E-009	-0.0761295	7
	17	6	20015.62	16828.81	-8662.663	1	18927.51	-27.23723	4.632779E-009	-0.0761263	7
	18	6	15890.62	17975.42	-9150.414	1	20170.42	-26.97843	5.178787E-009	-0.0761294	7
	19	7	12609.37	19440.49	-9471.932	1	21625.22	-25.9766	1.065873E-009	-0.0760833	6
	20	7	10078.13	20714.57	-10133.59	1	23060.42	-26.06793	1.234951E-009	-0.0760812	6
	21	7	8015.625	22155.39	-10864.86	1	24676.04	-26.12303	1.41653E-009	-0.076081	6
	22	8	6328.125	23797.7	-11649.15	1	26495.91	-26.08209	1.22728E-009	-0.0760837	6
	23	8	5015.625	25583.89	-12436.05	1	28446.28	-25.92388	1.44073E-009	-0.0760793	6
	24	8	3984.375	27495.91	-13176.8	1	30490.21	-25.60504	1.216176E-009	-0.0760794	6
	25	9	3170.956	29520.14	-13869.62	1	32616.03	-25.16582	1.184606E-009	-0.0760814	6
	26	9	2527.573	31619.96	-14498.36	1	34785.4	-24.63236	1.206799E-009	-0.0760845	6
	27	9	1976.103	33941.4	-15122.71	1	37157.98	-24.01553	1.522933E-009	-0.0760853	6
	28	10	1577.524	36070.11	-15685	1	39332.84	-23.5017	1.206799E-009	-0.0760868	6
	29	10	1265.625	38152.2	-16260.95	1	41472.99	-23.08431	1.157261E-009	-0.0760885	6
	30	10	998.264	40381	-16965.94	1	43800.33	-22.78955	1.02971E-009	-0.076093	6
	31	11	796.875	42482.68	-17766.38	1	46048.05	-22.69483	1.135698E-009	-0.07609	6
	32	11	627.7902	44726.79	-18799.73	1	48517.17	-22.79817	1.239459E-009	-0.0760854	6
	33	11	505.5147	46777.91	-19988.7	1	50869.65	-23.13754	1.287748E-009	-0.0760865	6
	34	12	397.9953	49091.45	-21567.14	1	53620.07	-23.71713	1.140203E-009	-0.0760761	6
	35	12	315.5048	51437.58	-23501.13	1	56551.99	-24.55501	1.178473E-009	-0.0760734	6
	36	12	252.4038	53835.28	-25798.56	1	59697.6	-25.60434	1.087873E-009	-0.076076	6
	37	13	198.6229	56576.96	-28787.92	1	63479.9	-26.96825	1.083946E-009	-0.0760768	6
	38	13	158.3615	59475.88	-32275.46	1	67668.95	-28.48712	9.658718E-010	-0.0760766	6
	39	13	125.558	62770.29	-36508.6	1	72615.34	-30.18324	1.057453E-009	-0.0760769	6
	40	14	100.4464	66378.81	-41357.12	1	78208.43	-31.92485	9.339252E-010	-0.0760813	6
	41	14	79.00281	70856.31	-47536.19	1	85324.71	-33.85693	1.120299E-009	-0.076082	6
	42	14	63.3446	75610.34	-54146.45	1	92998.71	-35.6074	9.933289E-010	-0.0760815	6
	43	15	49.86702	81632.08	-62376	1	102735.4	-37.38386	1.496302E-010	-0.0760812	5
	44	15	39.72458	88175.72	-71451.42	1	113491.3	-39.01888	6.951764E-010	-0.0760763	5
	45	15	31.6723	95748.2	-81891.59	1	125991.9	-40.53973	4.302903E-010	-0.0760759	5
	46	16	24.93351	104944.3	-94484.89	1	141211.5	-41.99778	6.487266E-010	-0.0760787	5
	47	16	19.86229	114977.5	-108313.9	1	157961.2	-43.29065	1.382755E-009	-0.0760725	5
	48	16	15.83615	126841.1	-124621.3	1	177817.7	-44.49423	6.481472E-011	-0.0760731	5
	49	16	12.40079	141659.6	-144041.1	1	202027.9	-45.4776	1.192591E-009	-0.0760778	5
	50	17	9.93114	157294.4	-164955	1	227929.1	-46.36181	1.08376E-009	-0.0760685	5
	51	17	7.944915	176537.7	-188820	1	258492.8	-46.9254	-3.78311E-010	-0.0760731	5
	52	18	6.317385	199779.3	-216369.1	1	294495	-47.28289	4.533899E-010	-0.0760873	5
	53	18	5.008013	227497.3	-246935.3	1	335756	-47.34615	7.868648E-010	-0.0760668	5
	54	19	3.945707	261988.7	-281042.2	1	384217.1	-47.00953	2.674504E-010	-0.0760849	5
	55	20	3.158693	298588.1	-315947.6	1	434715.7	-46.61808	5.241177E-010	-0.0760648	5
	56	21	2.504006	342681.9	-353182.1	1	492106.2	-45.86449	8.249221E-011	-0.0760778	5
	57	22	1.998082	390135.6	-392758	1	553592.5	-45.19192	-3.130256E-012	-0.0761036	5
	58	24	1.584686	444386.3	-432956.5	1	620427.7	-44.25361	2.029557E-010	-0.0760521	5
	59	26	1.266892	502059.3	-475602.3	1	691564.3	-43.44986	3.015907E-010	-0.0760501	5
	60	28	0.999041	566720.1	-524784.3	1	772379.6	-42.79977	3.49778E-010	-0.0760622	5
