EXPLAIN
TAG	EISPOT
TITLE	LABEL	Potentiostatic EIS	Test &Identifier
DATE	LABEL	6/1/2020	Date
TIME	LABEL	13:53:58	Time
NOTES	NOTES	1	&Notes...
	
PSTAT	PSTAT	REF600-11020	Potentiostat
VDC	POTEN	0.00000E+000	T	DC &Voltage (V)
FREQINIT	QUANT	1.00000E+006	Initial Fre&q. (Hz)
FREQFINAL	QUANT	1.00000E+000	Final Fre&q. (Hz)
PTSPERDEC	QUANT	1.00000E+001	Points/&decade
VAC	QUANT	2.50000E+001	AC &Voltage (mV rms)
AREA	QUANT	4.00000E-004	&Area (cm^2)
CONDIT	TWOPARAM	F	5.00000E+000	0.00000E+000	Conditionin&g	Time(s)	E(V)
DELAY	TWOPARAM	T	3.00000E+000	0.00000E+000	Init. De&lay	Time(s)	Stab.(mV/s)
SPEED	SELECTOR	0	&Optimize for:
ZGUESS	QUANT	1.00000E+003	E&stimated Z (ohms)
OCVCURVE	TABLE	12
	Pt	T	Vf	Vm	Ach	Over
	#	s	V vs. Ref.	V	V	bits
	0	0.258333	-1.05444E-001	-1.05444E-001	5.69663E-004	...........
	1	0.516667	-1.05447E-001	-1.05604E-001	5.66397E-004	...........
	2	0.775	-1.05466E-001	-1.05755E-001	5.63330E-004	...........
	3	1.03333	-1.05519E-001	-1.05898E-001	5.68197E-004	...........
	4	1.29167	-1.05613E-001	-1.06036E-001	5.69230E-004	...........
	5	1.55	-1.05739E-001	-1.06172E-001	5.67097E-004	...........
	6	1.80833	-1.05878E-001	-1.06300E-001	5.68097E-004	...........
	7	2.06667	-1.06019E-001	-1.06421E-001	5.70797E-004	...........
	8	2.325	-1.06155E-001	-1.06540E-001	5.72030E-004	...........
	9	2.58333	-1.06285E-001	-1.06655E-001	5.66030E-004	...........
	10	2.84167	-1.06409E-001	-1.06768E-001	5.70097E-004	...........
	11	3.1	-1.06528E-001	-1.06876E-001	5.69563E-004	...........
EOC	QUANT	-0.1065284	Open Circuit (V)
PSTATMODEL	IQUANT	4	Pstat Model
PSTATSECTION	LABEL	REF600-11020	Pstat Section
PSTATSERIALNO	LABEL	11020	Pstat Serial Number
CTRLMODE	IQUANT	1	Control Mode
IESTAB	IQUANT	0	I/E Stability
CASPEED	IQUANT	1	Control Amp Speed
CONVENTION	IQUANT	1	Current Convention
ICHRANGE	IQUANT	2	Ich Range
ICHRANGEMODE	TOGGLE	F	Ich Auto Range
ICHOFFSETENABLE	TOGGLE	T	Ich Offset Enable
ICHOFFSET	QUANT	0	Ich Offset (V)
ICHFILTER	IQUANT	3	Ich Filter
VCHRANGE	IQUANT	2	Vch Range
VCHRANGEMODE	TOGGLE	F	Vch Auto Range
VCHOFFSETENABLE	TOGGLE	T	Vch Offset Enable
VCHOFFSET	QUANT	0	Vch Offset (V)
VCHFILTER	IQUANT	3	Vch Filter
ACHRANGE	IQUANT	2	Ach Range
ACHOFFSETENABLE	TOGGLE	F	Ach Offset Enable
ACHOFFSET	QUANT	0	Ach Offset (V)
ACHFILTER	IQUANT	3	Ach Filter
IERANGELOWERLIMIT	IQUANT	1	I/E Range Lower Limit
IERANGEMODE	TOGGLE	F	I/E AutoRange
IERANGE	IQUANT	8	I/E Range
POSFEEDENABLE	TOGGLE	F	Positive Feedback IR Comp
POSFEEDRESISTANCE	QUANT	0	Positive Feedback Resistance (ohm)
ACHSELECT	IQUANT	0	Ach Select
CABLEID	IQUANT	14	Cable ID
DCCALDATE	LABEL	2/27/2020	DC Calibration Date
ACCALDATE	LABEL	2/27/2020	AC Calibration Date
THERMOSELECT	IQUANT	1	Thermo Select
FRAMEWORKVERSION	QUANT	6.33	Framework Version
INSTRUMENTVERSION	LABEL	3.50	Instrument Version
ZCURVE	TABLE
	Pt	Time	Freq	Zreal	Zimag	Zsig	Zmod	Zphz	Idc	Vdc	IERange
	#	s	Hz	ohm	ohm	V	ohm	°	A	V	#
	0	1	1000078	1821.567	-2665.178	1	3228.201	-55.64859	8.152099E-008	-0.1040897	8
	1	2	794390.6	2253.692	-3010.175	1	3760.356	-53.17812	5.677678E-008	-0.1044327	8
	2	2	630984.4	2765.585	-3332.684	1	4330.732	-50.31286	6.374749E-008	-0.1045703	8
	3	2	501234.4	3338.669	-3626.624	1	4929.413	-47.36734	5.635595E-008	-0.1046728	8
	4	3	398109.4	3969.514	-3864.9	1	5540.261	-44.23497	5.047528E-008	-0.1047432	8
	5	3	316265.6	4618.235	-4062.348	1	6150.672	-41.3359	4.0163E-008	-0.1047521	8
	6	3	251203.1	5285.797	-4223.575	1	6765.961	-38.62633	5.696342E-008	-0.1047778	8
	7	4	199546.9	5931.949	-4351.183	1	7356.685	-36.26066	2.655684E-008	-0.1047562	8
	8	4	158578.1	6588.292	-4482.9	1	7968.813	-34.23272	5.296043E-008	-0.1047774	8
	9	4	125953.1	7345.147	-4515.22	1	8621.972	-31.57994	3.02916E-009	-0.1048293	7
	10	5	100078.1	7963.655	-4662.665	1	9228.231	-30.34868	3.187266E-009	-0.1048461	7
	11	5	79453.13	8615.938	-4842.59	1	9883.58	-29.33817	2.45936E-009	-0.1048548	7
	12	5	63140.62	9290.865	-5051.588	1	10575.38	-28.53362	4.00004E-009	-0.1048508	7
	13	6	50203.12	9988.84	-5275.767	1	11296.49	-27.84149	3.78281E-009	-0.1048627	7
	14	6	39890.62	10710.61	-5527.777	1	12052.95	-27.29839	2.849721E-009	-0.104861	7
	15	6	31640.63	11473.94	-5810.921	1	12861.5	-26.85971	2.922231E-009	-0.1048636	7
	16	7	25171.88	12262.3	-6122.545	1	13705.83	-26.53287	3.029286E-009	-0.1048623	7
	17	7	20015.62	13084.89	-6461.814	1	14593.47	-26.2819	3.13336E-009	-0.1048621	7
	18	7	15890.62	13955.83	-6843.992	1	15543.66	-26.12351	3.264781E-009	-0.1048611	7
	19	7	12609.37	15014.91	-7096.14	1	16607.31	-25.2957	6.28791E-010	-0.1048064	6
	20	8	10078.13	15914.4	-7588.955	1	17631.23	-25.49465	7.942877E-010	-0.1048065	6
	21	8	8015.625	16886.13	-8159.389	1	18754.12	-25.78986	8.077238E-010	-0.1048097	6
	22	8	6328.125	17950.14	-8824.014	1	20001.77	-26.17802	3.556326E-010	-0.1048145	6
	23	9	5015.625	19062.89	-9579.94	1	21334.69	-26.68154	6.520683E-010	-0.1048187	6
	24	9	3984.375	20249.94	-10436.97	1	22781.36	-27.26692	7.472352E-010	-0.1048143	6
	25	9	3170.956	21525.81	-11409.42	1	24362.58	-27.92512	6.622207E-010	-0.1048211	6
	26	10	2527.573	22904.78	-12520.46	1	26103.47	-28.66237	2.687179E-010	-0.104827	6
	27	10	1976.103	24544.91	-13885.96	1	28200.57	-29.49844	7.375206E-010	-0.1048203	6
	28	10	1577.524	26189.56	-15305.71	1	30334.1	-30.30289	6.207799E-010	-0.1048173	6
	29	11	1265.625	27956.14	-16872.49	1	32653.13	-31.11242	5.893768E-010	-0.1048212	6
	30	11	998.264	30019.68	-18764.91	1	35402.02	-32.00897	4.643598E-010	-0.1048217	6
	31	11	796.875	32150.19	-20787.99	1	38285.45	-32.8863	6.4532E-010	-0.1048226	6
	32	12	627.7902	34552.44	-23259.07	1	41651.6	-33.94658	6.565736E-010	-0.1048189	6
	33	12	505.5147	36890.27	-25821.18	1	45029.16	-34.98992	6.903261E-010	-0.1048243	6
	34	12	397.9953	39648.58	-29157.33	1	49215.44	-36.33054	6.865101E-010	-0.1048071	6
	35	13	315.5048	42512.6	-33029	1	53835.27	-37.84444	7.285748E-010	-0.1048118	6
	36	13	252.4038	45500.89	-37502.36	1	58964.04	-39.49574	6.704395E-010	-0.104816	6
	37	13	198.6229	49064.68	-43310.88	1	65445.96	-41.43582	7.468524E-010	-0.1048088	6
	38	14	158.3615	52936.17	-49971.25	1	72796.73	-43.34968	6.828217E-010	-0.1048119	6
	39	14	125.558	57584.66	-58144.14	1	81833.58	-45.27699	6.852689E-010	-0.1048147	6
	40	14	100.4464	62899.13	-67449.91	1	92226.84	-46.99951	7.08784E-010	-0.1048169	6
	41	14	79.00281	69844.47	-79096.56	1	105520.2	-48.5546	2.62693E-010	-0.1048127	5
	42	15	63.3446	77436.16	-91698.34	1	120020.6	-49.82003	2.219034E-010	-0.1048161	5
	43	15	49.86702	87258.07	-107439.5	1	138409.6	-50.91787	3.064252E-010	-0.1048206	5
	44	16	39.72458	98355.2	-124619.7	1	158757	-51.71799	3.697677E-010	-0.1048131	5
	45	16	31.6723	111280.2	-144135.4	1	182094.2	-52.32994	4.332326E-010	-0.1048182	5
	46	16	24.93351	127267.4	-167699	1	210523.1	-52.805	3.279033E-010	-0.1048171	5
	47	17	19.86229	144759.9	-193479.4	1	241639.7	-53.19643	7.370277E-010	-0.1048083	5
	48	17	15.83615	165086.7	-222764	1	277267.8	-53.45847	-5.479883E-011	-0.1048153	5
	49	17	12.40079	190189.2	-259234.3	1	321518.8	-53.73409	-1.251659E-010	-0.1048151	5
	50	17	9.93114	216273.5	-297306.4	1	367648.3	-53.96624	-1.985152E-010	-0.1048153	5
	51	18	7.944915	246655.2	-342182	1	421814.3	-54.21479	2.194928E-010	-0.1048172	5
	52	18	6.317385	283107.1	-395124.3	1	486079.1	-54.37836	2.729927E-010	-0.1048211	5
	53	19	5.008013	327064.1	-457470.6	1	562361.3	-54.4375	1.45938E-010	-0.1048307	5
	54	20	3.945707	381822.2	-531230.3	1	654212.4	-54.29328	2.055304E-010	-0.1048168	5
	55	21	3.158693	442227.9	-609400.1	1	752950.1	-54.03246	1.871046E-010	-0.1048362	5
	56	22	2.504006	519415.6	-700606.1	1	872147.6	-53.44749	3.682482E-010	-0.1048341	5
	57	23	1.998082	606866.9	-797818.4	1	1002398	-52.74128	3.530974E-010	-0.1048297	5
	58	25	1.584686	719308.7	-906273.9	1	1157038	-51.561	2.399947E-010	-0.1048831	4
	59	27	1.266892	842436	-1019600	1	1322604	-50.43505	2.273211E-010	-0.1048767	4
	60	29	0.999041	991346	-1143113	1	1513101	-49.06708	2.047029E-010	-0.1048512	4
