EXPLAIN
TAG	EISPOT
TITLE	LABEL	Potentiostatic EIS	Test &Identifier
DATE	LABEL	7/30/2020	Date
TIME	LABEL	22:38:44	Time
NOTES	NOTES	1	&Notes...
	
PSTAT	PSTAT	REF600-11020	Potentiostat
VDC	POTEN	0.00000E+000	T	DC &Voltage (V)
FREQINIT	QUANT	1.00000E+006	Initial Fre&q. (Hz)
FREQFINAL	QUANT	1.00000E+000	Final Fre&q. (Hz)
PTSPERDEC	QUANT	1.00000E+001	Points/&decade
VAC	QUANT	2.50000E+001	AC &Voltage (mV rms)
AREA	QUANT	4.00000E-005	&Area (cm^2)
CONDIT	TWOPARAM	F	5.00000E+000	0.00000E+000	Conditionin&g	Time(s)	E(V)
DELAY	TWOPARAM	F	3.00000E+000	0.00000E+000	Init. De&lay	Time(s)	Stab.(mV/s)
SPEED	SELECTOR	0	&Optimize for:
ZGUESS	QUANT	1.00000E+003	E&stimated Z (ohms)
OCVCURVE	TABLE	39
	Pt	T	Vf	Vm	Ach	Over
	#	s	V vs. Ref.	V	V	bits
	0	0.258333	-4.43522E-002	-4.43522E-002	5.28417E-004	...........
	1	0.516667	-4.43514E-002	-4.43128E-002	5.30583E-004	...........
	2	0.775	-4.43468E-002	-4.42743E-002	5.25550E-004	...........
	3	1.03333	-4.43337E-002	-4.42461E-002	5.26317E-004	...........
	4	1.29167	-4.43109E-002	-4.42151E-002	5.27483E-004	...........
	5	1.55	-4.42817E-002	-4.41919E-002	5.24083E-004	...........
	6	1.80833	-4.42510E-002	-4.41724E-002	5.17217E-004	...........
	7	2.06667	-4.42222E-002	-4.41528E-002	5.22283E-004	...........
	8	2.325	-4.41967E-002	-4.41268E-002	5.17750E-004	...........
	9	2.58333	-4.41739E-002	-4.41121E-002	5.18617E-004	...........
	10	2.84167	-4.41525E-002	-4.40898E-002	5.20583E-004	...........
	11	3.1	-4.41319E-002	-4.40758E-002	5.20683E-004	...........
	12	3.35833	-4.41125E-002	-4.40611E-002	5.18150E-004	...........
	13	3.61667	-4.40942E-002	-4.40416E-002	5.16650E-004	...........
	14	3.875	-4.40771E-002	-4.40227E-002	5.17750E-004	...........
	15	4.13333	-4.40602E-002	-4.40091E-002	5.19117E-004	...........
	16	4.39167	-4.40431E-002	-4.39926E-002	5.18383E-004	...........
	17	4.65	-4.40262E-002	-4.39718E-002	5.25017E-004	...........
	18	4.90833	-4.40091E-002	-4.39495E-002	5.20483E-004	...........
	19	5.16667	-4.39913E-002	-4.39304E-002	5.20050E-004	...........
	20	5.425	-4.39722E-002	-4.39067E-002	5.23983E-004	...........
	21	5.68333	-4.39518E-002	-4.38863E-002	5.26917E-004	...........
	22	5.94167	-4.39308E-002	-4.38678E-002	5.23417E-004	...........
	23	6.2	-4.39097E-002	-4.38426E-002	5.20750E-004	...........
	24	6.45833	-4.38885E-002	-4.38206E-002	5.17217E-004	...........
	25	6.71667	-4.38670E-002	-4.38030E-002	5.17950E-004	...........
	26	6.975	-4.38455E-002	-4.37814E-002	5.21883E-004	...........
	27	7.23333	-4.38243E-002	-4.37616E-002	5.18583E-004	...........
	28	7.49167	-4.38036E-002	-4.37415E-002	5.19817E-004	...........
	29	7.75	-4.37833E-002	-4.37231E-002	5.21283E-004	...........
	30	8.00833	-4.37633E-002	-4.37037E-002	5.21917E-004	...........
	31	8.26667	-4.37437E-002	-4.36856E-002	5.20450E-004	...........
	32	8.525	-4.37245E-002	-4.36688E-002	5.19850E-004	...........
	33	8.78333	-4.37060E-002	-4.36579E-002	5.21383E-004	...........
	34	9.04167	-4.36885E-002	-4.36423E-002	5.20783E-004	...........
	35	9.3	-4.36726E-002	-4.36307E-002	5.22183E-004	...........
	36	9.5583	-4.36580E-002	-4.36186E-002	5.17517E-004	...........
	37	9.8167	-4.36446E-002	-4.36083E-002	5.19717E-004	...........
	38	10.075	-4.36321E-002	-4.35989E-002	5.16283E-004	...........
EOC	QUANT	-0.0436321	Open Circuit (V)
PSTATMODEL	IQUANT	4	Pstat Model
PSTATSECTION	LABEL	REF600-11020	Pstat Section
PSTATSERIALNO	LABEL	11020	Pstat Serial Number
CTRLMODE	IQUANT	1	Control Mode
IESTAB	IQUANT	0	I/E Stability
CASPEED	IQUANT	1	Control Amp Speed
CONVENTION	IQUANT	1	Current Convention
ICHRANGE	IQUANT	2	Ich Range
ICHRANGEMODE	TOGGLE	F	Ich Auto Range
ICHOFFSETENABLE	TOGGLE	T	Ich Offset Enable
ICHOFFSET	QUANT	0	Ich Offset (V)
ICHFILTER	IQUANT	3	Ich Filter
VCHRANGE	IQUANT	2	Vch Range
VCHRANGEMODE	TOGGLE	F	Vch Auto Range
VCHOFFSETENABLE	TOGGLE	T	Vch Offset Enable
VCHOFFSET	QUANT	0	Vch Offset (V)
VCHFILTER	IQUANT	3	Vch Filter
ACHRANGE	IQUANT	2	Ach Range
ACHOFFSETENABLE	TOGGLE	F	Ach Offset Enable
ACHOFFSET	QUANT	0	Ach Offset (V)
ACHFILTER	IQUANT	3	Ach Filter
IERANGELOWERLIMIT	IQUANT	1	I/E Range Lower Limit
IERANGEMODE	TOGGLE	F	I/E AutoRange
IERANGE	IQUANT	7	I/E Range
POSFEEDENABLE	TOGGLE	F	Positive Feedback IR Comp
POSFEEDRESISTANCE	QUANT	0	Positive Feedback Resistance (ohm)
ACHSELECT	IQUANT	0	Ach Select
CABLEID	IQUANT	14	Cable ID
DCCALDATE	LABEL	6/26/2020	DC Calibration Date
ACCALDATE	LABEL	6/26/2020	AC Calibration Date
THERMOSELECT	IQUANT	1	Thermo Select
FRAMEWORKVERSION	QUANT	6.33	Framework Version
INSTRUMENTVERSION	LABEL	3.50	Instrument Version
ZCURVE	TABLE
	Pt	Time	Freq	Zreal	Zimag	Zsig	Zmod	Zphz	Idc	Vdc	IERange
	#	s	Hz	ohm	ohm	V	ohm	°	A	V	#
	0	1	1000078	1321.326	-1748.016	1	2191.224	-52.91435	4.401059E-008	-0.0415025	8
	1	2	794390.6	1527.417	-1984.547	1	2504.282	-52.41613	4.437084E-008	-0.0417645	8
	2	2	630984.4	1757.901	-2253.908	1	2858.376	-52.04809	7.199977E-008	-0.0419311	8
	3	2	501234.4	2026.011	-2561.283	1	3265.715	-51.65551	4.117578E-008	-0.0420253	8
	4	3	398109.4	2329.166	-2911.032	1	3728.152	-51.33611	4.015829E-008	-0.0420424	8
	5	3	316265.6	2683.433	-3300.447	1	4253.676	-50.88711	4.297856E-008	-0.0420832	8
	6	3	251203.1	3087.838	-3742.973	1	4852.277	-50.47841	7.176045E-008	-0.0420993	8
	7	4	199546.9	3558.393	-4237.277	1	5533.234	-49.97703	2.489008E-008	-0.0420895	8
	8	4	158578.1	4107.026	-4772.656	1	6296.5	-49.28693	-3.095134E-008	-0.0420653	8
	9	4	125953.1	4788.657	-5394.173	1	7213.067	-48.40305	7.13254E-010	-0.0420879	7
	10	4	100078.1	5557.571	-6062.546	1	8224.419	-47.48833	9.021134E-010	-0.0421154	7
	11	5	79453.13	6452.002	-6779.207	1	9358.738	-46.41663	1.355457E-009	-0.0421182	7
	12	5	63140.62	7506.878	-7505.344	1	10615.24	-44.99414	1.316074E-009	-0.0421243	7
	13	5	50203.12	8725.466	-8229.627	1	11994.19	-43.32491	2.609853E-009	-0.0421166	7
	14	6	39890.62	10102.41	-8894.705	1	13460.11	-41.36243	3.221338E-009	-0.042114	7
	15	6	31640.63	11629.13	-9476.607	1	15001.42	-39.17668	1.752384E-009	-0.0421229	7
	16	6	25171.88	13208.67	-9926.07	1	16522.59	-36.92418	1.883345E-009	-0.0421223	7
	17	7	20015.62	14829.69	-10238.81	1	18020.9	-34.62223	9.447766E-010	-0.0421386	7
	18	7	15890.62	16455.72	-10513.82	1	19527.7	-32.57513	1.460941E-009	-0.0421348	7
	19	7	12609.37	18091.59	-10667.77	1	21002.55	-30.52588	7.052816E-010	-0.0421444	6
	20	7	10078.13	19583.65	-10904.94	1	22415.11	-29.11077	8.146772E-010	-0.0421349	6
	21	8	8015.625	21088.23	-11191.91	1	23874.09	-27.95571	7.412328E-010	-0.0421457	6
	22	8	6328.125	22601.11	-11541.88	1	25377.65	-27.05238	4.885588E-010	-0.0421488	6
	23	8	5015.625	24119.03	-12018.47	1	26947.57	-26.487	7.262533E-010	-0.0421404	6
	24	9	3984.375	25670.3	-12626.13	1	28607.41	-26.19062	6.290511E-010	-0.0421459	6
	25	9	3170.956	27250.84	-13306.45	1	30326.06	-26.02603	7.825093E-010	-0.0421494	6
	26	9	2527.573	28857.28	-14068.6	1	32104.02	-25.99032	4.674696E-010	-0.0421577	6
	27	10	1976.103	30772.93	-15132.79	1	34292.48	-26.18596	6.893732E-010	-0.0421545	6
	28	10	1577.524	32633.27	-16251.2	1	36455.89	-26.47306	5.720097E-010	-0.0421536	6
	29	10	1265.625	34551.29	-17510.41	1	38735.07	-26.87565	5.624775E-010	-0.0421506	6
	30	10	998.264	36724.34	-19043.25	1	41368.14	-27.40881	6.249141E-010	-0.0421552	6
	31	11	796.875	38842.9	-20687.3	1	44008.36	-28.03927	7.642171E-010	-0.0421527	6
	32	11	627.7902	41235.39	-22868.46	1	47152.13	-29.01201	5.646588E-010	-0.0421624	6
	33	11	505.5147	43417.66	-25159.59	1	50180.65	-30.09136	3.916677E-010	-0.0421627	6
	34	12	397.9953	45947.85	-28175.24	1	53898.51	-31.51664	5.805206E-010	-0.0421294	6
	35	12	315.5048	48590.75	-31890.95	1	58121.37	-33.27759	5.430835E-010	-0.0421317	6
	36	12	252.4038	51304.29	-36264.49	1	62827.09	-35.25462	4.343199E-010	-0.0421342	6
	37	13	198.6229	54330.86	-41675.11	1	68473.77	-37.49042	4.959177E-010	-0.0421322	6
	38	13	158.3615	57704.6	-48257	1	75223.39	-39.90495	4.166159E-010	-0.0421378	6
	39	13	125.558	61738.8	-56254.47	1	83523.91	-42.33881	4.220745E-010	-0.0421332	6
	40	14	100.4464	66539.14	-66016.26	1	93731.55	-44.77399	3.579236E-010	-0.0421341	6
	41	14	79.00281	72986.61	-78198.27	1	106967.4	-46.97432	1.685565E-010	-0.0421433	5
	42	14	63.3446	80499.34	-91351.04	1	121758.6	-48.61321	2.110679E-010	-0.0421419	5
	43	15	49.86702	90668.85	-108218.8	1	141181.3	-50.04276	-1.315859E-010	-0.0421491	5
	44	15	39.72458	103128.7	-127731.2	1	164167	-51.083	1.020554E-010	-0.0421473	5
	45	15	31.6723	118949.8	-146768.5	1	188918	-50.97666	-2.279187E-010	-0.0421444	5
	46	15	24.93351	139635.5	-173457.3	1	222678	-51.16547	-3.888944E-010	-0.0421509	5
	47	16	19.86229	164306.8	-196283.2	1	255976.2	-50.06762	5.871881E-010	-0.042148	5
	48	16	15.83615	194752.4	-223133.5	1	296170.7	-48.88533	6.003114E-010	-0.0421508	5
	49	16	12.40079	233569.6	-252847.7	1	344219	-47.26961	9.229767E-011	-0.0421578	5
	50	17	9.93114	273223.5	-273254.7	1	386418.4	-45.00327	3.496381E-010	-0.042148	5
	51	17	7.944915	316773.8	-292232.5	1	430982	-42.69239	1.915616E-010	-0.0421465	5
	52	17	6.317385	356721.4	-299502.8	1	465781.2	-40.01678	2.57386E-010	-0.0421574	5
	53	18	5.008013	399209	-311661.5	1	506459	-37.97907	-2.964406E-010	-0.0421613	5
	54	19	3.945707	452687.3	-336176.1	1	563861.9	-36.59844	1.541048E-011	-0.042148	5
	55	20	3.158693	486628.3	-348117	1	598324.8	-35.57862	-2.165381E-010	-0.0421537	5
	56	21	2.504006	534480.1	-371043.6	1	650647.7	-34.76892	1.046254E-011	-0.0421595	5
	57	22	1.998082	581369.5	-398696.6	1	704946.4	-34.44188	2.200282E-010	-0.0421121	5
	58	24	1.584686	626513	-429653.1	1	759684.4	-34.44174	2.194365E-010	-0.0421289	5
	59	26	1.266892	659584.9	-462590	1	805631.3	-35.04332	1.020255E-010	-0.0421612	5
	60	28	0.999041	728106.4	-514533.1	1	891562.2	-35.24781	9.824853E-011	-0.0421788	5
