EXPLAIN
TAG	EISPOT
TITLE	LABEL	Potentiostatic EIS	Test &Identifier
DATE	LABEL	2/28/2020	Date
TIME	LABEL	17:14:31	Time
NOTES	NOTES	1	&Notes...
	
PSTAT	PSTAT	REF600-11020	Potentiostat
VDC	POTEN	0.00000E+000	T	DC &Voltage (V)
FREQINIT	QUANT	1.00000E+006	Initial Fre&q. (Hz)
FREQFINAL	QUANT	1.00000E+000	Final Fre&q. (Hz)
PTSPERDEC	QUANT	1.00000E+001	Points/&decade
VAC	QUANT	2.50000E+001	AC &Voltage (mV rms)
AREA	QUANT	1.60000E-004	&Area (cm^2)
CONDIT	TWOPARAM	F	1.50000E+001	0.00000E+000	Conditionin&g	Time(s)	E(V)
DELAY	TWOPARAM	F	1.00000E+002	0.00000E+000	Init. De&lay	Time(s)	Stab.(mV/s)
SPEED	SELECTOR	1	&Optimize for:
ZGUESS	QUANT	1.00000E+003	E&stimated Z (ohms)
OCVCURVE	TABLE	39
	Pt	T	Vf	Vm	Ach	Over
	#	s	V vs. Ref.	V	V	bits
	0	0.258333	-7.46443E-002	-7.46443E-002	5.69197E-004	...........
	1	0.516667	-7.46474E-002	-7.48042E-002	5.67997E-004	...........
	2	0.775	-7.46660E-002	-7.49497E-002	5.68030E-004	...........
	3	1.03333	-7.47128E-002	-7.48010E-002	5.68963E-004	...........
	4	1.29167	-7.47643E-002	-7.42616E-002	5.65197E-004	...........
	5	1.55	-7.47387E-002	-7.34528E-002	5.73263E-004	...........
	6	1.80833	-7.45270E-002	-7.22357E-002	5.73497E-004	...........
	7	2.06667	-7.40651E-002	-7.19969E-002	5.68863E-004	...........
	8	2.325	-7.34283E-002	-7.25912E-002	5.70763E-004	...........
	9	2.58333	-7.28552E-002	-7.32041E-002	5.75963E-004	...........
	10	2.84167	-7.25903E-002	-7.35308E-002	5.76130E-004	...........
	11	3.1	-7.26845E-002	-7.36483E-002	5.71330E-004	...........
	12	3.35833	-7.29869E-002	-7.36468E-002	5.77430E-004	...........
	13	3.61667	-7.33014E-002	-7.36333E-002	5.73263E-004	...........
	14	3.875	-7.35146E-002	-7.35954E-002	5.71230E-004	...........
	15	4.13333	-7.36134E-002	-7.36402E-002	5.73963E-004	...........
	16	4.39167	-7.36408E-002	-7.37265E-002	5.73597E-004	...........
	17	4.65	-7.36467E-002	-7.36403E-002	5.72530E-004	...........
	18	4.90833	-7.36723E-002	-7.45687E-002	5.71930E-004	...........
	19	5.16667	-7.37702E-002	-7.45652E-002	5.72197E-004	...........
	20	5.425	-7.39715E-002	-7.45470E-002	5.75230E-004	...........
	21	5.68333	-7.42204E-002	-7.45979E-002	5.69797E-004	...........
	22	5.94167	-7.44229E-002	-7.46557E-002	5.70063E-004	...........
	23	6.2	-7.45369E-002	-7.42804E-002	5.73530E-004	...........
	24	6.45833	-7.45458E-002	-7.34521E-002	5.75197E-004	...........
	25	6.71667	-7.44152E-002	-7.36450E-002	5.68163E-004	...........
	26	6.975	-7.41708E-002	-7.41254E-002	5.77497E-004	...........
	27	7.23333	-7.39570E-002	-7.43828E-002	5.74397E-004	...........
	28	7.49167	-7.39121E-002	-7.43843E-002	5.73363E-004	...........
	29	7.75	-7.40265E-002	-7.43115E-002	5.77097E-004	...........
	30	8.00833	-7.41830E-002	-7.43085E-002	5.71697E-004	...........
	31	8.26667	-7.42903E-002	-7.44230E-002	5.69463E-004	...........
	32	8.525	-7.43413E-002	-7.44824E-002	5.64163E-004	...........
	33	8.78333	-7.43748E-002	-7.45657E-002	5.66464E-004	...........
	34	9.04167	-7.44207E-002	-7.46542E-002	5.66597E-004	...........
	35	9.3	-7.44847E-002	-7.47347E-002	5.73497E-004	...........
	36	9.5583	-7.45600E-002	-7.47525E-002	5.68997E-004	...........
	37	9.8167	-7.46328E-002	-7.46747E-002	5.75163E-004	...........
	38	10.075	-7.46856E-002	-7.47188E-002	5.74230E-004	...........
EOC	QUANT	-0.0746856	Open Circuit (V)
PSTATMODEL	IQUANT	4	Pstat Model
PSTATSECTION	LABEL	REF600-11020	Pstat Section
PSTATSERIALNO	LABEL	11020	Pstat Serial Number
CTRLMODE	IQUANT	1	Control Mode
IESTAB	IQUANT	0	I/E Stability
CASPEED	IQUANT	1	Control Amp Speed
CONVENTION	IQUANT	1	Current Convention
ICHRANGE	IQUANT	2	Ich Range
ICHRANGEMODE	TOGGLE	F	Ich Auto Range
ICHOFFSETENABLE	TOGGLE	T	Ich Offset Enable
ICHOFFSET	QUANT	0	Ich Offset (V)
ICHFILTER	IQUANT	3	Ich Filter
VCHRANGE	IQUANT	2	Vch Range
VCHRANGEMODE	TOGGLE	F	Vch Auto Range
VCHOFFSETENABLE	TOGGLE	T	Vch Offset Enable
VCHOFFSET	QUANT	0	Vch Offset (V)
VCHFILTER	IQUANT	3	Vch Filter
ACHRANGE	IQUANT	2	Ach Range
ACHOFFSETENABLE	TOGGLE	F	Ach Offset Enable
ACHOFFSET	QUANT	0	Ach Offset (V)
ACHFILTER	IQUANT	3	Ach Filter
IERANGELOWERLIMIT	IQUANT	1	I/E Range Lower Limit
IERANGEMODE	TOGGLE	F	I/E AutoRange
IERANGE	IQUANT	8	I/E Range
POSFEEDENABLE	TOGGLE	F	Positive Feedback IR Comp
POSFEEDRESISTANCE	QUANT	0	Positive Feedback Resistance (ohm)
ACHSELECT	IQUANT	0	Ach Select
CABLEID	IQUANT	14	Cable ID
DCCALDATE	LABEL	2/27/2020	DC Calibration Date
ACCALDATE	LABEL	2/27/2020	AC Calibration Date
THERMOSELECT	IQUANT	1	Thermo Select
FRAMEWORKVERSION	QUANT	6.33	Framework Version
INSTRUMENTVERSION	LABEL	3.50	Instrument Version
ZCURVE	TABLE
	Pt	Time	Freq	Zreal	Zimag	Zsig	Zmod	Zphz	Idc	Vdc	IERange
	#	s	Hz	ohm	ohm	V	ohm	°	A	V	#
	0	2	1000078	2179.686	-1676.696	1	2749.971	-37.56883	2.59838E-006	-0.0730468	8
	1	3	794390.6	2471.492	-1676.805	1	2986.628	-34.15527	-1.859811E-006	-0.0726416	8
	2	4	630984.4	2770.629	-1634.655	1	3216.906	-30.54036	2.167516E-006	-0.0733074	8
	3	6	501234.4	3054.951	-1578.32	1	3438.579	-27.32284	3.580556E-006	-0.0737011	8
	4	7	398109.4	3323.901	-1488.451	1	3641.951	-24.12295	-1.216695E-006	-0.0729705	8
	5	8	316265.6	3556.299	-1398.762	1	3821.491	-21.47069	3.651072E-006	-0.0737463	8
	6	10	251203.1	3768.772	-1297.873	1	3985.99	-19.00245	-2.594907E-006	-0.0726956	8
	7	11	199546.9	3941.299	-1206.379	1	4121.794	-17.01865	6.562492E-008	-0.0729859	8
	8	12	158578.1	4121.728	-1110.114	1	4268.605	-15.0739	-1.241731E-007	-0.0732227	8
	9	14	125953.1	4276.892	-969.762	1	4385.458	-12.77549	-8.17096E-007	-0.0713738	7
	10	15	100078.1	4388.557	-902.4916	1	4480.393	-11.62067	-8.367349E-009	-0.0731958	7
	11	16	79453.13	4496.113	-849.0853	1	4575.585	-10.69429	6.454099E-008	-0.0732942	7
	12	18	63140.62	4596.622	-806.2086	1	4666.788	-9.94801	4.68386E-008	-0.0733701	7
	13	19	50203.12	4689.322	-771.0585	1	4752.291	-9.337509	1.049325E-007	-0.0734182	7
	14	21	39890.62	4776.365	-747.5209	1	4834.506	-8.894874	3.307715E-009	-0.0733062	7
	15	22	31640.63	4859.543	-734.3477	1	4914.715	-8.593209	-7.231233E-009	-0.0732129	7
	16	23	25171.88	4938.653	-731.7446	1	4992.569	-8.428017	2.091793E-008	-0.0733549	7
	17	25	20015.62	5018.32	-739.192	1	5072.469	-8.379339	-4.241099E-008	-0.0732201	7
	18	26	15890.62	5095.982	-760.7718	1	5152.457	-8.490895	4.628231E-008	-0.0733767	7
	19	27	12609.37	5172.42	-793.1448	1	5232.878	-8.717894	-3.753376E-008	-0.0732412	7
	20	29	10078.13	5248.155	-845.9792	1	5315.902	-9.157054	2.43372E-008	-0.0733024	7
	21	30	8015.625	5330.523	-908.6501	1	5407.414	-9.67375	2.555145E-008	-0.0733025	7
	22	31	6328.125	5412.691	-997.73	1	5503.88	-10.44419	4.277197E-010	-0.0732534	7
	23	33	5015.625	5499.28	-1111.315	1	5610.446	-11.42468	-3.127035E-008	-0.0731787	7
	24	34	3984.375	5587.139	-1250.446	1	5725.359	-12.61536	-8.264089E-009	-0.0731828	7
	25	35	3170.956	5679.205	-1422.143	1	5854.559	-14.05848	-4.68256E-008	-0.0732051	7
	26	37	2527.573	5778.022	-1636.098	1	6005.194	-15.80994	-4.610204E-008	-0.0732082	7
	27	38	1976.103	5892.963	-1927.209	1	6200.093	-18.10959	1.055023E-007	-0.0734285	7
	28	39	1577.524	6008.929	-2258.165	1	6419.231	-20.5963	-4.009488E-008	-0.073186	7
	29	41	1265.625	6127.793	-2648.73	1	6675.749	-23.37635	-1.855354E-010	-0.0732611	7
	30	42	998.264	6273.965	-3178.888	1	7033.347	-26.87039	-1.343961E-008	-0.0733021	7
	31	43	796.875	6437.839	-3800.919	1	7476.146	-30.55773	3.297916E-009	-0.0733199	7
	32	45	627.7902	6638.285	-4610.414	1	8082.249	-34.78071	2.767606E-008	-0.0733028	7
	33	46	505.5147	6851.568	-5515.574	1	8795.769	-38.83438	2.178808E-008	-0.073219	7
	34	48	397.9953	7147.155	-6738.77	1	9823.08	-43.31541	3.078542E-010	-0.0732013	6
	35	49	315.5048	7496.305	-8203.347	1	11112.58	-47.5786	1.586938E-010	-0.0732016	6
	36	50	252.4038	7909.75	-9920.71	1	12687.97	-51.43476	-2.318214E-010	-0.0732038	6
	37	52	198.6229	8465.582	-12173.78	1	14827.91	-55.18545	9.69039E-011	-0.0732003	6
	38	53	158.3615	9127.939	-14773.23	1	17365.7	-58.28931	7.492536E-011	-0.0732023	6
	39	54	125.558	9976.05	-18014.63	1	20592.44	-61.02343	1.190596E-010	-0.0731988	6
	40	56	100.4464	11012.39	-21770.54	1	24397.32	-63.16793	4.176173E-012	-0.0732042	6
	41	57	79.00281	12424.71	-26730.57	1	29477.05	-65.0704	-9.708555E-011	-0.073206	6
	42	58	63.3446	14118.01	-32310.42	1	35260.2	-66.39712	3.108853E-010	-0.0732021	6
	43	60	49.86702	16249.78	-39287.63	1	42515.56	-67.52949	-7.832452E-010	-0.0732043	6
	44	61	39.72458	19144.19	-47510.08	1	51222.14	-68.05303	-1.179327E-010	-0.0732046	6
	45	63	31.6723	22698.52	-57330.32	1	61660.26	-68.40014	-5.472373E-010	-0.0732017	6
	46	64	24.93351	27715.6	-69567.91	1	74885.56	-68.27785	-4.14903E-011	-0.073204	6
	47	65	19.86229	33846.49	-83435.43	1	90039.19	-67.91953	-2.255371E-010	-0.0732065	6
	48	67	15.83615	41519.27	-98979.1	1	107334.5	-67.24316	-1.722573E-010	-0.0732038	5
	49	68	12.40079	52307.07	-119531.1	1	130475	-66.36571	-1.782394E-010	-0.0732042	5
	50	69	9.93114	64865.03	-139956.2	1	154256.9	-65.13384	-9.537359E-011	-0.0732067	5
	51	71	7.944915	79705.49	-162987.5	1	181432.9	-63.94006	-4.750016E-010	-0.0732043	5
	52	73	6.317385	98236	-189434.1	1	213390.7	-62.58982	-4.81785E-010	-0.0731908	5
	53	75	5.008013	120428.7	-219454.3	1	250326.3	-61.24359	1.745528E-010	-0.0732037	5
	54	77	3.945707	146490.8	-253481.9	1	292767.2	-59.97577	8.54207E-012	-0.0732056	5
	55	80	3.158693	174392.1	-289077.1	1	337606.5	-58.89859	1.529171E-010	-0.0731844	5
	56	83	2.504006	206617.9	-331040.6	1	390229.2	-58.02979	-2.149922E-010	-0.0732107	5
	57	86	1.998082	241935.9	-377505.4	1	448378.5	-57.34497	-2.960256E-010	-0.0732169	5
	58	89	1.584686	283622.6	-430696	1	515694.5	-56.63423	-3.947611E-011	-0.0731627	5
	59	92	1.266892	328069.1	-491871	1	591241.4	-56.29743	-1.538969E-010	-0.0732222	5
	60	97	0.999041	382898.3	-564864.9	1	682410.1	-55.86829	2.727011E-010	-0.0731622	5
