EXPLAIN
TAG	EISPOT
TITLE	LABEL	Potentiostatic EIS	Test &Identifier
DATE	LABEL	1/10/2020	Date
TIME	LABEL	13:36:06	Time
NOTES	NOTES	5	&Notes...
	
	
	
	
	
PSTAT	PSTAT	REF600-11020	Potentiostat
VDC	POTEN	0.00000E+000	T	DC &Voltage (V)
FREQINIT	QUANT	1.00000E+006	Initial Fre&q. (Hz)
FREQFINAL	QUANT	1.00000E+000	Final Fre&q. (Hz)
PTSPERDEC	QUANT	1.00000E+001	Points/&decade
VAC	QUANT	2.50000E+001	AC &Voltage (mV rms)
AREA	QUANT	1.00000E-001	&Area (cm^2)
CONDIT	TWOPARAM	T	5.00000E+000	0.00000E+000	Conditionin&g	Time(s)	E(V)
DELAY	TWOPARAM	T	5.00000E+000	0.00000E+000	Init. De&lay	Time(s)	Stab.(mV/s)
SPEED	SELECTOR	0	&Optimize for:
ZGUESS	QUANT	5.00000E+002	E&stimated Z (ohms)
OCVCURVE	TABLE	19
	Pt	T	Vf	Vm	Ach	Over
	#	s	V vs. Ref.	V	V	bits
	0	0.258333	8.39230E-003	8.39230E-003	6.47813E-004	...........
	1	0.516667	8.39686E-003	8.63086E-003	6.47980E-004	...........
	2	0.775	8.42471E-003	8.85017E-003	6.50580E-004	...........
	3	1.03333	8.50335E-003	9.07458E-003	6.46446E-004	...........
	4	1.29167	8.64416E-003	9.27953E-003	6.48846E-004	...........
	5	1.55	8.83222E-003	9.48859E-003	6.46880E-004	...........
	6	1.80833	9.04235E-003	9.68468E-003	6.52513E-004	...........
	7	2.06667	9.25454E-003	9.80898E-003	6.43746E-004	...........
	8	2.325	9.45360E-003	9.87257E-003	6.47613E-004	...........
	9	2.58333	9.62656E-003	1.00314E-002	6.48646E-004	...........
	10	2.84167	9.77125E-003	1.01805E-002	6.44446E-004	...........
	11	3.1	9.89719E-003	1.01257E-002	6.46346E-004	...........
	12	3.35833	1.00099E-002	1.03630E-002	6.50046E-004	...........
	13	3.61667	1.01073E-002	1.02122E-002	6.51480E-004	...........
	14	3.875	1.01727E-002	9.66309E-003	6.48213E-004	...........
	15	4.13333	1.01651E-002	9.81845E-003	6.52080E-004	...........
	16	4.39167	1.00851E-002	1.06094E-002	6.48313E-004	...........
	17	4.65	1.00307E-002	1.02483E-002	6.45946E-004	...........
	18	4.90833	1.00906E-002	1.08191E-002	6.50646E-004	...........
EOC	QUANT	0.0100906	Open Circuit (V)
PSTATMODEL	IQUANT	4	Pstat Model
PSTATSECTION	LABEL	REF600-11020	Pstat Section
PSTATSERIALNO	LABEL	11020	Pstat Serial Number
CTRLMODE	IQUANT	1	Control Mode
IESTAB	IQUANT	0	I/E Stability
CASPEED	IQUANT	1	Control Amp Speed
CONVENTION	IQUANT	1	Current Convention
ICHRANGE	IQUANT	2	Ich Range
ICHRANGEMODE	TOGGLE	F	Ich Auto Range
ICHOFFSETENABLE	TOGGLE	T	Ich Offset Enable
ICHOFFSET	QUANT	0	Ich Offset (V)
ICHFILTER	IQUANT	3	Ich Filter
VCHRANGE	IQUANT	2	Vch Range
VCHRANGEMODE	TOGGLE	F	Vch Auto Range
VCHOFFSETENABLE	TOGGLE	T	Vch Offset Enable
VCHOFFSET	QUANT	0	Vch Offset (V)
VCHFILTER	IQUANT	3	Vch Filter
ACHRANGE	IQUANT	2	Ach Range
ACHOFFSETENABLE	TOGGLE	F	Ach Offset Enable
ACHOFFSET	QUANT	0	Ach Offset (V)
ACHFILTER	IQUANT	3	Ach Filter
IERANGELOWERLIMIT	IQUANT	1	I/E Range Lower Limit
IERANGEMODE	TOGGLE	F	I/E AutoRange
IERANGE	IQUANT	7	I/E Range
POSFEEDENABLE	TOGGLE	F	Positive Feedback IR Comp
POSFEEDRESISTANCE	QUANT	0	Positive Feedback Resistance (ohm)
ACHSELECT	IQUANT	0	Ach Select
CABLEID	IQUANT	14	Cable ID
DCCALDATE	LABEL	12/22/2019	DC Calibration Date
ACCALDATE	LABEL	12/22/2019	AC Calibration Date
THERMOSELECT	IQUANT	1	Thermo Select
FRAMEWORKVERSION	QUANT	6.33	Framework Version
INSTRUMENTVERSION	LABEL	3.50	Instrument Version
ZCURVE	TABLE
	Pt	Time	Freq	Zreal	Zimag	Zsig	Zmod	Zphz	Idc	Vdc	IERange
	#	s	Hz	ohm	ohm	V	ohm	°	A	V	#
	0	1	1000078	2138.552	-1686.047	1	2723.262	-38.25245	-1.694801E-006	0.0119734	8
	1	1	794390.6	2476.128	-1680.039	1	2992.28	-34.15667	-3.442215E-006	0.0128119	8
	2	2	630984.4	2802.141	-1598.814	1	3226.174	-29.70772	-1.263362E-007	0.011874	8
	3	2	501234.4	3082.78	-1491.15	1	3424.48	-25.81319	-2.538401E-006	0.0121785	8
	4	2	398109.4	3320.738	-1363.092	1	3589.613	-22.3171	-2.492901E-006	0.0121712	8
	5	3	316265.6	3525.327	-1203.667	1	3725.151	-18.85166	6.769217E-007	0.0114546	8
	6	3	251203.1	3679.864	-1086.172	1	3836.817	-16.44483	-7.666566E-007	0.0116692	8
	7	3	199546.9	3807.022	-972.27	1	3929.215	-14.32645	1.481747E-007	0.0115316	8
	8	4	158578.1	3916.169	-850.4011	1	4007.438	-12.25164	4.880321E-007	0.011457	8
	9	4	125953.1	3996.256	-753.3398	1	4066.642	-10.67563	3.147475E-007	0.0108924	7
	10	4	100078.1	4075.204	-681.5433	1	4131.802	-9.494367	2.240218E-009	0.0115221	7
	11	5	79453.13	4139.144	-640.0483	1	4188.338	-8.790198	1.925344E-008	0.0115483	7
	12	5	63140.62	4201.6	-611.9247	1	4245.926	-8.286347	-2.726071E-008	0.0115817	7
	13	5	50203.12	4260.511	-595.2678	1	4301.895	-7.953733	8.83035E-008	0.0114322	7
	14	6	39890.62	4318.687	-592.2045	1	4359.101	-7.808048	-3.451171E-008	0.0116115	7
	15	6	31640.63	4377.823	-597.8049	1	4418.45	-7.775819	-3.75746E-008	0.0116286	7
	16	6	25171.88	4436.397	-616.9415	1	4479.088	-7.916985	5.769775E-008	0.0114541	7
	17	7	20015.62	4496.564	-649.2557	1	4543.195	-8.216113	-1.637952E-008	0.0115559	7
	18	7	15890.62	4561.686	-687.5567	1	4613.211	-8.571344	4.111895E-008	0.0115453	7
	19	7	12609.37	4626.324	-742.8268	1	4685.581	-9.121851	-2.887654E-008	0.0115735	7
	20	8	10078.13	4689.924	-813.8087	1	4760.008	-9.8441	5.60585E-008	0.0114374	7
	21	8	8015.625	4761.598	-901.7529	1	4846.232	-10.7237	-1.734996E-008	0.011619	7
	22	8	6328.125	4831.605	-1022.623	1	4938.641	-11.95045	-7.104809E-009	0.0115764	7
	23	8	5015.625	4908.167	-1169.428	1	5045.56	-13.40152	-1.143042E-008	0.0115835	7
	24	9	3984.375	4988.959	-1350.476	1	5168.51	-15.14657	1.836741E-008	0.011531	7
	25	9	3170.956	5074.086	-1571.573	1	5311.892	-17.20908	-5.454587E-009	0.0115777	7
	26	9	2527.573	5167.149	-1844.859	1	5486.614	-19.64841	-1.244147E-008	0.0115401	7
	27	10	1976.103	5280.176	-2214.757	1	5725.854	-22.7555	-1.701242E-008	0.0115465	7
	28	10	1577.524	5385.821	-2632.292	1	5994.667	-26.04683	-3.415538E-008	0.0115944	7
	29	10	1265.625	5528.835	-3143.103	1	6359.804	-29.61792	-3.556943E-008	0.0116177	7
	30	11	998.264	5699.735	-3811.986	1	6856.983	-33.77462	3.549787E-008	0.0114405	7
	31	11	796.875	5896.336	-4603.601	1	7480.636	-37.98116	-1.03849E-008	0.0116323	7
	32	11	627.7902	6159.701	-5625.899	1	8342.222	-42.40669	-2.634217E-008	0.0115831	7
	33	12	505.5147	6465.771	-6766.631	1	9359.14	-46.30249	-3.350711E-008	0.0115911	7
	34	12	397.9953	6892.643	-8284.094	1	10776.58	-50.23841	2.858338E-010	0.0115529	6
	35	12	315.5048	7432.194	-10080.64	1	12524.25	-53.59961	1.080929E-009	0.01155	6
	36	13	252.4038	8095.627	-12157.18	1	14606.03	-56.33983	1.266647E-009	0.0115447	6
	37	13	198.6229	9011.394	-14823.13	1	17347.34	-58.70341	3.708296E-010	0.0115465	6
	38	13	158.3615	10134.06	-17853.26	1	20528.96	-60.41943	-5.54452E-011	0.0115442	6
	39	14	125.558	11577.58	-21521.72	1	24438.19	-61.72204	6.680117E-010	0.0115464	6
	40	14	100.4464	13365.62	-25681.11	1	28950.98	-62.50547	-6.124334E-010	0.0115435	6
	41	14	79.00281	15722.71	-30992.92	1	34752.91	-63.10131	-3.33935E-010	0.011543	6
	42	15	63.3446	18401.58	-36194.34	1	40603.55	-63.05074	4.860178E-010	0.0115421	6
	43	15	49.86702	22183.47	-43353.02	1	48698.98	-62.90145	7.009712E-010	0.011542	6
	44	15	39.72458	26442.44	-51482.58	1	57876.24	-62.8141	6.271451E-010	0.011547	6
	45	16	31.6723	31843.21	-60635.29	1	68488.16	-62.29336	7.515977E-010	0.0115427	6
	46	16	24.93351	38813.21	-71177.49	1	81072.2	-61.39629	6.1566E-010	0.011542	6
	47	16	19.86229	46747.34	-82683.5	1	94983.55	-60.51719	2.26743E-009	0.0115503	6
	48	17	15.83615	55669.23	-96087.6	1	111049	-59.91374	-9.111296E-011	0.0115417	5
	49	17	12.40079	69156.9	-110514.8	1	130369.5	-57.96289	9.728953E-010	0.0115427	5
	50	17	9.93114	81147.36	-125540.3	1	149483.3	-57.12198	-1.304209E-009	0.0115453	5
	51	18	7.944915	95352.9	-141974.4	1	171023.1	-56.11387	-7.006933E-010	0.0115387	5
	52	19	6.317385	111043.3	-161277.3	1	195808.5	-55.45166	1.746689E-010	0.0115409	5
	53	19	5.008013	129220.2	-182671	1	223755.5	-54.72468	-1.045852E-009	0.0115322	5
	54	20	3.945707	148616.3	-208972.8	1	256430.1	-54.5805	-1.232955E-011	0.0115446	5
	55	22	3.158693	168160.8	-236793.8	1	290429.6	-54.61926	-4.527571E-010	0.0115502	5
	56	23	2.504006	190527.8	-272000.3	1	332091.9	-54.98995	-5.040246E-010	0.011539	5
	57	25	1.998082	214640.4	-312297	1	378945.8	-55.49943	-1.93992E-010	0.0115782	5
	58	26	1.584686	241622.8	-363228.7	1	436253	-56.36782	-2.202983E-010	0.0115746	5
	59	28	1.266892	272327.5	-420819.5	1	501249.7	-57.09163	-2.954584E-010	0.0115348	5
	60	31	0.999041	311943.7	-494381	1	584569.4	-57.74897	-3.314518E-010	0.0115083	5
