EXPLAIN
TAG	EISPOT
TITLE	LABEL	Potentiostatic EIS	Test &Identifier
DATE	LABEL	3/17/2020	Date
TIME	LABEL	16:05:24	Time
NOTES	NOTES	1	&Notes...
	
PSTAT	PSTAT	REF600-11020	Potentiostat
VDC	POTEN	0.00000E+000	T	DC &Voltage (V)
FREQINIT	QUANT	1.00000E+006	Initial Fre&q. (Hz)
FREQFINAL	QUANT	1.00000E+000	Final Fre&q. (Hz)
PTSPERDEC	QUANT	1.00000E+001	Points/&decade
VAC	QUANT	2.50000E+001	AC &Voltage (mV rms)
AREA	QUANT	4.00000E-004	&Area (cm^2)
CONDIT	TWOPARAM	F	5.00000E+000	0.00000E+000	Conditionin&g	Time(s)	E(V)
DELAY	TWOPARAM	T	3.00000E+000	0.00000E+000	Init. De&lay	Time(s)	Stab.(mV/s)
SPEED	SELECTOR	0	&Optimize for:
ZGUESS	QUANT	5.00000E+003	E&stimated Z (ohms)
OCVCURVE	TABLE	12
	Pt	T	Vf	Vm	Ach	Over
	#	s	V vs. Ref.	V	V	bits
	0	0.258333	-6.78360E-005	-6.78360E-005	5.80830E-004	...........
	1	0.516667	-6.75178E-005	-5.11826E-005	5.82997E-004	...........
	2	0.775	-6.55516E-005	-3.47375E-005	5.78363E-004	...........
	3	1.03333	-6.00174E-005	-2.26087E-005	5.78963E-004	...........
	4	1.29167	-5.02587E-005	-6.74691E-006	5.78430E-004	...........
	5	1.55	-3.74593E-005	6.85489E-006	5.79097E-004	...........
	6	1.80833	-2.33627E-005	1.59637E-005	5.78063E-004	...........
	7	2.06667	-9.38518E-006	2.76692E-005	5.82263E-004	...........
	8	2.325	3.61517E-006	3.85521E-005	5.76430E-004	...........
	9	2.58333	1.54787E-005	4.62590E-005	5.77530E-004	...........
	10	2.84167	2.63814E-005	5.55551E-005	5.75730E-004	...........
	11	3.1	3.64790E-005	6.61290E-005	5.77663E-004	...........
EOC	QUANT	3.647896E-005	Open Circuit (V)
PSTATMODEL	IQUANT	4	Pstat Model
PSTATSECTION	LABEL	REF600-11020	Pstat Section
PSTATSERIALNO	LABEL	11020	Pstat Serial Number
CTRLMODE	IQUANT	1	Control Mode
IESTAB	IQUANT	0	I/E Stability
CASPEED	IQUANT	1	Control Amp Speed
CONVENTION	IQUANT	1	Current Convention
ICHRANGE	IQUANT	2	Ich Range
ICHRANGEMODE	TOGGLE	F	Ich Auto Range
ICHOFFSETENABLE	TOGGLE	T	Ich Offset Enable
ICHOFFSET	QUANT	0	Ich Offset (V)
ICHFILTER	IQUANT	3	Ich Filter
VCHRANGE	IQUANT	2	Vch Range
VCHRANGEMODE	TOGGLE	F	Vch Auto Range
VCHOFFSETENABLE	TOGGLE	T	Vch Offset Enable
VCHOFFSET	QUANT	0	Vch Offset (V)
VCHFILTER	IQUANT	3	Vch Filter
ACHRANGE	IQUANT	2	Ach Range
ACHOFFSETENABLE	TOGGLE	F	Ach Offset Enable
ACHOFFSET	QUANT	0	Ach Offset (V)
ACHFILTER	IQUANT	3	Ach Filter
IERANGELOWERLIMIT	IQUANT	1	I/E Range Lower Limit
IERANGEMODE	TOGGLE	F	I/E AutoRange
IERANGE	IQUANT	4	I/E Range
POSFEEDENABLE	TOGGLE	F	Positive Feedback IR Comp
POSFEEDRESISTANCE	QUANT	0	Positive Feedback Resistance (ohm)
ACHSELECT	IQUANT	0	Ach Select
CABLEID	IQUANT	14	Cable ID
DCCALDATE	LABEL	2/27/2020	DC Calibration Date
ACCALDATE	LABEL	2/27/2020	AC Calibration Date
THERMOSELECT	IQUANT	1	Thermo Select
FRAMEWORKVERSION	QUANT	6.33	Framework Version
INSTRUMENTVERSION	LABEL	3.50	Instrument Version
ZCURVE	TABLE
	Pt	Time	Freq	Zreal	Zimag	Zsig	Zmod	Zphz	Idc	Vdc	IERange
	#	s	Hz	ohm	ohm	V	ohm	°	A	V	#
	0	1	1000078	2019.252	-2074.734	1	2895.151	-45.77644	5.087558E-008	0.0024482	8
	1	2	794390.6	2449.41	-2182.939	1	3280.98	-41.70776	1.303631E-008	0.0020777	8
	2	2	630984.4	2904.315	-2214.858	1	3652.484	-37.32949	5.010069E-008	0.0019311	8
	3	2	501234.4	3353.66	-2167.999	1	3993.401	-32.88095	1.390453E-008	0.0018409	8
	4	3	398109.4	3767.467	-2054.469	1	4291.23	-28.60445	3.071273E-008	0.0017674	8
	5	3	316265.6	4131.25	-1898.893	1	4546.76	-24.68546	3.69053E-008	0.001724	8
	6	3	251203.1	4433.553	-1712.678	1	4752.857	-21.1215	4.363605E-008	0.0017103	8
	7	4	199546.9	4670.654	-1524.241	1	4913.077	-18.0738	2.055761E-008	0.001734	8
	8	4	158578.1	4864.803	-1349.15	1	5048.417	-15.50022	4.611604E-008	0.0017064	8
	9	4	125953.1	5049.906	-1128.442	1	5174.45	-12.59627	2.896554E-009	0.0016414	7
	10	5	100078.1	5148.109	-1004.643	1	5245.22	-11.04237	1.540336E-009	0.0016421	7
	11	5	79453.13	5243.884	-913.8735	1	5322.92	-9.88589	2.849867E-009	0.0016387	7
	12	5	63140.62	5324.78	-844.2086	1	5391.286	-9.008883	1.365289E-009	0.0016346	7
	13	6	50203.12	5395.974	-796.4213	1	5454.431	-8.395981	1.466904E-009	0.0016239	7
	14	6	39890.62	5461.439	-770.2835	1	5515.493	-8.028066	6.449452E-010	0.001632	7
	15	6	31640.63	5526.013	-765.1213	1	5578.73	-7.882947	1.29816E-009	0.0016243	7
	16	6	25171.88	5588.086	-780.2065	1	5642.29	-7.948234	6.683869E-010	0.0016219	7
	17	7	20015.62	5653.294	-816.2971	1	5711.924	-8.216331	1.787278E-009	0.0016259	7
	18	7	15890.62	5722.208	-874.1773	1	5788.597	-8.685876	2.498317E-009	0.001628	7
	19	7	12609.37	5795.926	-954.064	1	5873.925	-9.347595	1.771678E-009	0.0016228	7
	20	8	10078.13	5874.244	-1056.172	1	5968.438	-10.19272	1.373176E-009	0.0016197	7
	21	8	8015.625	5961.524	-1188.132	1	6078.769	-11.27137	3.11257E-009	0.0016275	7
	22	8	6328.125	6063.248	-1356.692	1	6213.178	-12.61256	1.853485E-009	0.0016212	7
	23	9	5015.625	6175.766	-1559.7	1	6369.674	-14.17376	1.991321E-009	0.0016154	7
	24	9	3984.375	6303.235	-1804.334	1	6556.401	-15.97404	1.446872E-009	0.0016125	7
	25	9	3170.956	6446.622	-2098.692	1	6779.634	-18.03261	2.530149E-009	0.0016151	7
	26	10	2527.573	6608.801	-2447.969	1	7047.61	-20.32516	2.074469E-009	0.0016091	7
	27	10	1976.103	6811.117	-2905.068	1	7404.777	-23.09915	1.946944E-009	0.0016097	7
	28	10	1577.524	7024.011	-3405.834	1	7806.18	-25.86803	1.54E-009	0.001605	7
	29	11	1265.625	7264.425	-3992.717	1	8289.37	-28.79434	2.116665E-009	0.0016154	7
	30	11	998.264	7561.1	-4756.711	1	8932.891	-32.17412	2.174833E-009	0.0016091	7
	31	11	796.875	7894.92	-5618.84	1	9690.26	-35.43958	-4.099171E-010	0.0016566	6
	32	12	627.7902	8298.315	-6730.107	1	10684.4	-39.04277	-8.357547E-011	0.0016646	6
	33	12	505.5147	8724.088	-7945.184	1	11799.82	-42.32469	-5.999354E-010	0.0016587	6
	34	12	397.9953	9281.041	-9566.64	1	13328.85	-45.86814	5.196317E-010	0.0016738	6
	35	13	315.5048	9928.66	-11479.14	1	15177.25	-49.14246	4.733598E-010	0.0016729	6
	36	13	252.4038	10675.87	-13698.05	1	17366.95	-52.06817	3.461696E-010	0.0016714	6
	37	13	198.6229	11657.09	-16582.03	1	20269.47	-54.89296	3.948125E-010	0.001669	6
	38	13	158.3615	12805.12	-19879.45	1	23646.64	-57.21286	3.593528E-010	0.0016665	6
	39	14	125.558	14273.6	-23944.56	1	27876.11	-59.20041	3.656496E-010	0.0016641	6
	40	14	100.4464	16042.82	-28616.46	1	32806.61	-60.72435	3.459779E-010	0.0016666	6
	41	14	79.00281	18457.15	-34621.05	1	39233.7	-61.93706	2.110236E-010	0.001668	6
	42	15	63.3446	21267.48	-41167.81	1	46336.75	-62.67892	1.808598E-010	0.0016661	6
	43	15	49.86702	25112.95	-49506.96	1	55512.16	-63.1031	3.579E-010	0.0016649	6
	44	16	39.72458	29722.62	-58785.34	1	65872.23	-63.17825	5.559712E-010	0.0016695	6
	45	16	31.6723	35442.84	-69487.64	1	78004.66	-62.97571	7.024896E-010	0.00166	6
	46	16	24.93351	42936.56	-82532.67	1	93033.27	-62.51488	3.014283E-010	0.0016587	6
	47	17	19.86229	51758.54	-96726.1	1	109703.6	-61.84858	9.911044E-010	0.0016688	5
	48	17	15.83615	62518.31	-112848.8	1	129009.3	-61.01352	-1.215932E-009	0.0016691	5
	49	17	12.40079	76671.8	-132331.3	1	152938.3	-59.91231	-6.976355E-010	0.0016698	5
	50	17	9.93114	92250.94	-152003.4	1	177806.8	-58.74641	-1.073783E-009	0.0016708	5
	51	18	7.944915	110254.2	-173882.5	1	205891	-57.62232	-1.006772E-009	0.0016712	5
	52	18	6.317385	132427.7	-198340.6	1	238487.1	-56.26983	3.268109E-010	0.0016582	5
	53	19	5.008013	158638.1	-225328.2	1	275570	-54.85327	8.818336E-011	0.001662	5
	54	20	3.945707	189103.8	-255522.1	1	317886.5	-53.49603	-3.685678E-010	0.0016629	5
	55	21	3.158693	221534.6	-285116.8	1	361066.7	-52.15294	1.165862E-010	0.0016477	5
	56	22	2.504006	258960.4	-319174.9	1	411014.7	-50.94609	3.658829E-010	0.0016637	5
	57	23	1.998082	298647.3	-353657	1	462886	-49.82043	2.754534E-011	0.0016263	5
	58	25	1.584686	343507.7	-394315	1	522954.9	-48.93924	-7.473349E-011	0.0016157	5
	59	27	1.266892	388794.2	-436793.4	1	584764.4	-48.3274	-2.199029E-012	0.0016525	5
	60	29	0.999041	441306.7	-486962.4	1	657178.9	-47.81575	5.187174E-011	0.0016791	5
