EXPLAIN
TAG	EISPOT
TITLE	LABEL	Potentiostatic EIS	Test &Identifier
DATE	LABEL	6/14/2020	Date
TIME	LABEL	21:52:31	Time
NOTES	NOTES	1	&Notes...
	
PSTAT	PSTAT	REF600-10037	Potentiostat
VDC	POTEN	0.00000E+000	T	DC &Voltage (V)
FREQINIT	QUANT	1.00000E+006	Initial Fre&q. (Hz)
FREQFINAL	QUANT	1.00000E+000	Final Fre&q. (Hz)
PTSPERDEC	QUANT	1.00000E+001	Points/&decade
VAC	QUANT	2.50000E+001	AC &Voltage (mV rms)
AREA	QUANT	2.50000E-001	&Area (cm^2)
CONDIT	TWOPARAM	F	5.00000E+000	0.00000E+000	Conditionin&g	Time(s)	E(V)
DELAY	TWOPARAM	F	3.00000E+000	0.00000E+000	Init. De&lay	Time(s)	Stab.(mV/s)
SPEED	SELECTOR	0	&Optimize for:
ZGUESS	QUANT	1.00000E+003	E&stimated Z (ohms)
OCVCURVE	TABLE	39
	Pt	T	Vf	Vm	Ach	Over
	#	s	V vs. Ref.	V	V	bits
	0	0.258333	-4.45591E-002	-4.45591E-002	5.44287E-004	...........
	1	0.516667	-4.45583E-002	-4.45181E-002	5.40954E-004	...........
	2	0.775	-4.45536E-002	-4.44869E-002	5.48354E-004	...........
	3	1.03333	-4.45410E-002	-4.44596E-002	5.49887E-004	...........
	4	1.29167	-4.45193E-002	-4.44231E-002	5.43720E-004	...........
	5	1.55	-4.44917E-002	-4.44141E-002	5.47387E-004	...........
	6	1.80833	-4.44629E-002	-4.43968E-002	5.47754E-004	...........
	7	2.06667	-4.44369E-002	-4.43748E-002	5.48854E-004	...........
	8	2.325	-4.44148E-002	-4.43477E-002	5.50020E-004	...........
	9	2.58333	-4.43945E-002	-4.43353E-002	5.46320E-004	...........
	10	2.84167	-4.43745E-002	-4.43207E-002	5.44687E-004	...........
	11	3.1	-4.43553E-002	-4.43072E-002	5.39521E-004	...........
	12	3.35833	-4.43377E-002	-4.42849E-002	5.44154E-004	...........
	13	3.61667	-4.43213E-002	-4.42666E-002	5.48720E-004	...........
	14	3.875	-4.43048E-002	-4.42586E-002	5.50920E-004	...........
	15	4.13333	-4.42882E-002	-4.42469E-002	5.53820E-004	...........
	16	4.39167	-4.42730E-002	-4.42386E-002	5.48754E-004	...........
	17	4.65	-4.42598E-002	-4.42258E-002	5.44020E-004	...........
	18	4.90833	-4.42483E-002	-4.42124E-002	5.44421E-004	...........
	19	5.16667	-4.42373E-002	-4.41977E-002	5.44954E-004	...........
	20	5.425	-4.42255E-002	-4.41851E-002	5.46087E-004	...........
	21	5.68333	-4.42130E-002	-4.41801E-002	5.47420E-004	...........
	22	5.94167	-4.42006E-002	-4.41682E-002	5.45320E-004	...........
	23	6.2	-4.41893E-002	-4.41619E-002	5.41787E-004	...........
	24	6.45833	-4.41794E-002	-4.41565E-002	5.47754E-004	...........
	25	6.71667	-4.41707E-002	-4.41444E-002	5.44954E-004	...........
	26	6.975	-4.41624E-002	-4.41253E-002	5.41521E-004	...........
	27	7.23333	-4.41532E-002	-4.41167E-002	5.40921E-004	...........
	28	7.49167	-4.41421E-002	-4.41043E-002	5.42754E-004	...........
	29	7.75	-4.41300E-002	-4.41000E-002	5.41021E-004	...........
	30	8.00833	-4.41184E-002	-4.40919E-002	5.45954E-004	...........
	31	8.26667	-4.41084E-002	-4.40857E-002	5.44954E-004	...........
	32	8.525	-4.41000E-002	-4.40784E-002	5.46187E-004	...........
	33	8.78333	-4.40927E-002	-4.40746E-002	5.47487E-004	...........
	34	9.04167	-4.40861E-002	-4.40651E-002	5.45954E-004	...........
	35	9.3	-4.40796E-002	-4.40522E-002	5.49154E-004	...........
	36	9.5583	-4.40724E-002	-4.40446E-002	5.46320E-004	...........
	37	9.8167	-4.40640E-002	-4.40356E-002	5.45554E-004	...........
	38	10.075	-4.40548E-002	-4.40270E-002	5.46154E-004	...........
EOC	QUANT	-0.0440548	Open Circuit (V)
PSTATMODEL	IQUANT	4	Pstat Model
PSTATSECTION	LABEL	REF600-10037	Pstat Section
PSTATSERIALNO	LABEL	10037	Pstat Serial Number
CTRLMODE	IQUANT	1	Control Mode
IESTAB	IQUANT	0	I/E Stability
CASPEED	IQUANT	1	Control Amp Speed
CONVENTION	IQUANT	1	Current Convention
ICHRANGE	IQUANT	2	Ich Range
ICHRANGEMODE	TOGGLE	F	Ich Auto Range
ICHOFFSETENABLE	TOGGLE	T	Ich Offset Enable
ICHOFFSET	QUANT	0	Ich Offset (V)
ICHFILTER	IQUANT	3	Ich Filter
VCHRANGE	IQUANT	2	Vch Range
VCHRANGEMODE	TOGGLE	F	Vch Auto Range
VCHOFFSETENABLE	TOGGLE	T	Vch Offset Enable
VCHOFFSET	QUANT	0	Vch Offset (V)
VCHFILTER	IQUANT	3	Vch Filter
ACHRANGE	IQUANT	2	Ach Range
ACHOFFSETENABLE	TOGGLE	F	Ach Offset Enable
ACHOFFSET	QUANT	0	Ach Offset (V)
ACHFILTER	IQUANT	3	Ach Filter
IERANGELOWERLIMIT	IQUANT	1	I/E Range Lower Limit
IERANGEMODE	TOGGLE	F	I/E AutoRange
IERANGE	IQUANT	7	I/E Range
POSFEEDENABLE	TOGGLE	F	Positive Feedback IR Comp
POSFEEDRESISTANCE	QUANT	0	Positive Feedback Resistance (ohm)
ACHSELECT	IQUANT	0	Ach Select
CABLEID	IQUANT	14	Cable ID
DCCALDATE	LABEL	6/8/2020	DC Calibration Date
ACCALDATE	LABEL	6/8/2020	AC Calibration Date
THERMOSELECT	IQUANT	1	Thermo Select
FRAMEWORKVERSION	QUANT	6.33	Framework Version
INSTRUMENTVERSION	LABEL	3.50	Instrument Version
ZCURVE	TABLE
	Pt	Time	Freq	Zreal	Zimag	Zsig	Zmod	Zphz	Idc	Vdc	IERange
	#	s	Hz	ohm	ohm	V	ohm	°	A	V	#
	0	1	1000078	1776.002	-1607.724	1	2395.613	-42.15293	3.189092E-007	-0.0349689	8
	1	1	794390.6	2025.172	-1751.352	1	2677.416	-40.85297	4.736899E-008	-0.0351382	8
	2	1	630984.4	2297.327	-1889.136	1	2974.315	-39.43111	1.010313E-007	-0.0352825	8
	3	2	501234.4	2595.006	-2020.299	1	3288.718	-37.90196	4.037568E-007	-0.0354241	8
	4	2	398109.4	2912.484	-2144.652	1	3616.918	-36.36663	2.957119E-007	-0.0354749	8
	5	2	316265.6	3252.577	-2262.066	1	3961.844	-34.81741	2.600414E-007	-0.035445	8
	6	3	251203.1	3601.895	-2377.248	1	4315.664	-33.42478	-2.558155E-007	-0.0354321	8
	7	3	199546.9	3962.359	-2475.227	1	4671.942	-31.99241	-1.041885E-007	-0.0354189	8
	8	3	158578.1	4322.763	-2579.801	1	5034.049	-30.82852	2.81494E-007	-0.0354752	8
	9	4	125953.1	4841.994	-2540.069	1	5467.801	-27.68112	-1.611276E-007	-0.0353174	7
	10	4	100078.1	5201.403	-2668.212	1	5845.849	-27.15689	4.372596E-008	-0.0355356	7
	11	4	79453.13	5579.698	-2806.175	1	6245.61	-26.69901	5.559475E-008	-0.035468	7
	12	5	63140.62	5983.24	-2957.087	1	6674.094	-26.29989	-6.854565E-009	-0.0353969	7
	13	5	50203.12	6408.456	-3116.599	1	7126.113	-25.93486	-2.658741E-008	-0.0353855	7
	14	5	39890.62	6862.171	-3282.454	1	7606.833	-25.56367	-6.460025E-008	-0.0353836	7
	15	5	31640.63	7344.506	-3454.837	1	8116.506	-25.19218	6.570004E-008	-0.035524	7
	16	6	25171.88	7845.831	-3625.509	1	8642.996	-24.80136	-6.161766E-008	-0.0354033	7
	17	6	20015.62	8367.657	-3800.024	1	9190.097	-24.42434	2.741292E-008	-0.0355372	7
	18	6	15890.62	8899.616	-3984.068	1	9750.69	-24.1165	3.037207E-008	-0.0355402	7
	19	7	12609.37	9671.67	-3868.657	1	10416.7	-21.80135	-7.06279E-009	-0.0354657	6
	20	7	10078.13	10164.12	-4112.833	1	10964.71	-22.03033	-3.745965E-009	-0.0355201	6
	21	7	8015.625	10701.19	-4395.115	1	11568.6	-22.32858	1.067696E-008	-0.0355575	6
	22	8	6328.125	11262.74	-4715.922	1	12210.21	-22.71999	1.194431E-008	-0.0355669	6
	23	8	5015.625	11839.35	-5089.244	1	12886.84	-23.26086	7.740661E-009	-0.0354854	6
	24	8	3984.375	12433.03	-5516.299	1	13601.83	-23.92595	-4.965337E-009	-0.0353187	6
	25	9	3170.956	13050.37	-6020.687	1	14372.23	-24.76587	-6.706663E-009	-0.0354662	6
	26	9	2527.573	13695.74	-6612.689	1	15208.58	-25.77257	8.01615E-009	-0.0354904	6
	27	9	1976.103	14432.29	-7379.744	1	16209.62	-27.08228	-1.831734E-010	-0.0355647	6
	28	10	1577.524	15150.47	-8229.404	1	17241.22	-28.50985	6.032138E-009	-0.0356134	6
	29	10	1265.625	15896.41	-9225.168	1	18379.32	-30.1279	1.027127E-008	-0.0356123	6
	30	10	998.264	16753.87	-10527.6	1	19786.93	-32.14395	2.230243E-009	-0.0353921	6
	31	10	796.875	17665.22	-12045.85	1	21381.36	-34.28995	-7.156112E-009	-0.0354645	6
	32	11	627.7902	18757.99	-14009.56	1	23412.17	-36.75453	-3.461343E-010	-0.035577	6
	33	11	505.5147	19946.73	-16150.49	1	25665.35	-38.99644	1.934404E-009	-0.035403	6
	34	11	397.9953	21474.71	-18976.1	1	28657.56	-41.46539	7.587191E-010	-0.0354487	6
	35	12	315.5048	23300.98	-22237.96	1	32209.66	-43.66278	7.08746E-010	-0.0354511	6
	36	12	252.4038	25429.84	-25897.37	1	36295.33	-45.52188	5.852179E-010	-0.0354548	6
	37	12	198.6229	28211.36	-30452.53	1	41511.89	-47.18784	6.865917E-010	-0.0354522	6
	38	13	158.3615	31380.71	-35405.34	1	47310.54	-48.44855	5.96538E-010	-0.0354555	6
	39	13	125.558	35278.97	-41178.38	1	54224.21	-49.41217	6.555615E-010	-0.0354541	6
	40	13	100.4464	39706.25	-47426.71	1	61853.69	-50.0635	7.356064E-010	-0.035454	6
	41	14	79.00281	45317.05	-55017.3	1	71277.9	-50.52215	7.769013E-010	-0.035453	6
	42	14	63.3446	51163.77	-62959.59	1	81127.31	-50.90115	7.007718E-010	-0.0354559	6
	43	14	49.86702	58478.75	-72456.31	1	93111.13	-51.09335	5.073484E-010	-0.0354573	6
	44	15	39.72458	66414.11	-82539.28	1	105941.3	-51.17858	8.065174E-011	-0.0354451	5
	45	15	31.6723	75113.59	-94231.39	1	120505.6	-51.441	3.171294E-010	-0.035449	5
	46	15	24.93351	85486.73	-108614	1	138220.8	-51.79482	-1.655368E-010	-0.0354506	5
	47	16	19.86229	96373.4	-124814.6	1	157691.2	-52.32711	-4.286425E-009	-0.0440876	5
	48	16	15.83615	109243	-143253.1	1	180154.1	-52.67131	-2.931608E-009	-0.0440939	5
	49	16	12.40079	125266.4	-166402.7	1	208282.4	-53.02792	-2.049701E-009	-0.0440896	5
	50	17	9.93114	142806.1	-190999.2	1	238483.2	-53.2153	-1.662616E-009	-0.0440871	5
	51	17	7.944915	163132.3	-219071.3	1	273138	-53.32664	-1.338424E-009	-0.0440839	5
	52	18	6.317385	188405.4	-251667.4	1	314377.3	-53.18042	-9.558535E-010	-0.0440849	5
	53	18	5.008013	218272.7	-288705.9	1	361931.1	-52.90933	-7.219504E-010	-0.0440858	5
	54	20	3.945707	253905.2	-330794	1	417004.2	-52.49149	-5.388907E-010	-0.0440894	5
	55	21	3.158693	291901.5	-373969.2	1	474404.3	-52.0262	-4.413024E-010	-0.0440886	5
	56	22	2.504006	336885.3	-423430.5	1	541096.3	-51.49391	-3.177741E-010	-0.0440965	5
	57	24	1.998082	383042.7	-476568.3	1	611423.9	-51.20935	-2.514596E-010	-0.0440931	5
	58	26	1.584686	433646.2	-538411	1	691328.7	-51.15139	-1.460939E-010	-0.0441009	5
	59	28	1.266892	484744.5	-607453.1	1	777159.3	-51.41031	-9.500798E-011	-0.0441006	5
	60	32	0.999041	541805.1	-694932.1	1	881183	-52.05817	-9.141099E-011	-0.0441016	5
