EXPLAIN
TAG	EISPOT
TITLE	LABEL	Potentiostatic EIS	Test &Identifier
DATE	LABEL	2/13/2020	Date
TIME	LABEL	10:48:06	Time
NOTES	NOTES	1	&Notes...
	
PSTAT	PSTAT	REF600-11020	Potentiostat
VDC	POTEN	0.00000E+000	T	DC &Voltage (V)
FREQINIT	QUANT	1.00000E+006	Initial Fre&q. (Hz)
FREQFINAL	QUANT	1.00000E+000	Final Fre&q. (Hz)
PTSPERDEC	QUANT	1.00000E+001	Points/&decade
VAC	QUANT	2.50000E+001	AC &Voltage (mV rms)
AREA	QUANT	5.00000E-004	&Area (cm^2)
CONDIT	TWOPARAM	F	1.50000E+001	0.00000E+000	Conditionin&g	Time(s)	E(V)
DELAY	TWOPARAM	F	1.00000E+002	0.00000E+000	Init. De&lay	Time(s)	Stab.(mV/s)
SPEED	SELECTOR	0	&Optimize for:
ZGUESS	QUANT	1.00000E+003	E&stimated Z (ohms)
OCVCURVE	TABLE	39
	Pt	T	Vf	Vm	Ach	Over
	#	s	V vs. Ref.	V	V	bits
	0	0.258333	2.31834E-002	2.31834E-002	5.67604E-004	...........
	1	0.516667	2.31835E-002	2.31872E-002	5.63138E-004	...........
	2	0.775	2.31832E-002	2.31496E-002	5.67804E-004	...........
	3	1.03333	2.31806E-002	2.31657E-002	5.70304E-004	...........
	4	1.29167	2.31746E-002	2.31454E-002	5.76704E-004	...........
	5	1.55	2.31662E-002	2.31298E-002	5.72338E-004	...........
	6	1.80833	2.31565E-002	2.31200E-002	5.70171E-004	...........
	7	2.06667	2.31452E-002	2.30959E-002	5.73038E-004	...........
	8	2.325	2.31319E-002	2.30868E-002	5.68804E-004	...........
	9	2.58333	2.31171E-002	2.30660E-002	5.69538E-004	...........
	10	2.84167	2.31014E-002	2.30564E-002	5.76437E-004	...........
	11	3.1	2.30858E-002	2.30460E-002	5.71504E-004	...........
	12	3.35833	2.30715E-002	2.30424E-002	5.71071E-004	...........
	13	3.61667	2.30593E-002	2.30342E-002	5.68171E-004	...........
	14	3.875	2.30495E-002	2.30242E-002	5.69338E-004	...........
	15	4.13333	2.30412E-002	2.30145E-002	5.72204E-004	...........
	16	4.39167	2.30332E-002	2.30059E-002	5.72438E-004	...........
	17	4.65	2.30246E-002	2.29934E-002	5.72038E-004	...........
	18	4.90833	2.30154E-002	2.29885E-002	5.72971E-004	...........
	19	5.16667	2.30059E-002	2.29773E-002	5.67604E-004	...........
	20	5.425	2.29966E-002	2.29675E-002	5.62438E-004	...........
	21	5.68333	2.29873E-002	2.29574E-002	5.69671E-004	...........
	22	5.94167	2.29780E-002	2.29532E-002	5.67738E-004	...........
	23	6.2	2.29689E-002	2.29446E-002	5.72438E-004	...........
	24	6.45833	2.29604E-002	2.29339E-002	5.70338E-004	...........
	25	6.71667	2.29523E-002	2.29274E-002	5.72704E-004	...........
	26	6.975	2.29443E-002	2.29250E-002	5.71671E-004	...........
	27	7.23333	2.29365E-002	2.29073E-002	5.72104E-004	...........
	28	7.49167	2.29289E-002	2.29128E-002	5.70338E-004	...........
	29	7.75	2.29216E-002	2.28999E-002	5.68804E-004	...........
	30	8.00833	2.29149E-002	2.29049E-002	5.65438E-004	...........
	31	8.26667	2.29095E-002	2.29020E-002	5.70104E-004	...........
	32	8.525	2.29055E-002	2.28872E-002	5.69604E-004	...........
	33	8.78333	2.29016E-002	2.28731E-002	5.68371E-004	...........
	34	9.04167	2.28960E-002	2.28779E-002	5.72504E-004	...........
	35	9.3	2.28886E-002	2.28709E-002	5.70538E-004	...........
	36	9.5583	2.28814E-002	2.28598E-002	5.67171E-004	...........
	37	9.8167	2.28749E-002	2.28474E-002	5.69371E-004	...........
	38	10.075	2.28678E-002	2.28370E-002	5.76304E-004	...........
EOC	QUANT	0.0228678	Open Circuit (V)
PSTATMODEL	IQUANT	4	Pstat Model
PSTATSECTION	LABEL	REF600-11020	Pstat Section
PSTATSERIALNO	LABEL	11020	Pstat Serial Number
CTRLMODE	IQUANT	1	Control Mode
IESTAB	IQUANT	0	I/E Stability
CASPEED	IQUANT	1	Control Amp Speed
CONVENTION	IQUANT	1	Current Convention
ICHRANGE	IQUANT	2	Ich Range
ICHRANGEMODE	TOGGLE	F	Ich Auto Range
ICHOFFSETENABLE	TOGGLE	T	Ich Offset Enable
ICHOFFSET	QUANT	0	Ich Offset (V)
ICHFILTER	IQUANT	3	Ich Filter
VCHRANGE	IQUANT	2	Vch Range
VCHRANGEMODE	TOGGLE	F	Vch Auto Range
VCHOFFSETENABLE	TOGGLE	T	Vch Offset Enable
VCHOFFSET	QUANT	0	Vch Offset (V)
VCHFILTER	IQUANT	3	Vch Filter
ACHRANGE	IQUANT	2	Ach Range
ACHOFFSETENABLE	TOGGLE	F	Ach Offset Enable
ACHOFFSET	QUANT	0	Ach Offset (V)
ACHFILTER	IQUANT	3	Ach Filter
IERANGELOWERLIMIT	IQUANT	1	I/E Range Lower Limit
IERANGEMODE	TOGGLE	F	I/E AutoRange
IERANGE	IQUANT	7	I/E Range
POSFEEDENABLE	TOGGLE	F	Positive Feedback IR Comp
POSFEEDRESISTANCE	QUANT	0	Positive Feedback Resistance (ohm)
ACHSELECT	IQUANT	0	Ach Select
CABLEID	IQUANT	14	Cable ID
DCCALDATE	LABEL	1/27/2020	DC Calibration Date
ACCALDATE	LABEL	1/27/2020	AC Calibration Date
THERMOSELECT	IQUANT	1	Thermo Select
FRAMEWORKVERSION	QUANT	6.33	Framework Version
INSTRUMENTVERSION	LABEL	3.50	Instrument Version
ZCURVE	TABLE
	Pt	Time	Freq	Zreal	Zimag	Zsig	Zmod	Zphz	Idc	Vdc	IERange
	#	s	Hz	ohm	ohm	V	ohm	°	A	V	#
	0	1	1000078	1930.997	-1772.249	1	2620.995	-42.54539	-1.406628E-006	0.0251293	8
	1	1	794390.6	2290.521	-1768.569	1	2893.843	-37.67263	8.383802E-007	0.0248321	8
	2	2	630984.4	2655.918	-1720.83	1	3164.673	-32.94012	-3.668431E-006	0.0252026	8
	3	2	501234.4	2995.484	-1603.845	1	3397.829	-28.16553	-5.478334E-007	0.0247015	8
	4	2	398109.4	3292.978	-1453.649	1	3599.555	-23.81854	4.24382E-008	0.024382	8
	5	3	316265.6	3508.348	-1298.195	1	3740.831	-20.306	3.472703E-006	0.0237171	8
	6	3	251203.1	3677.919	-1134.083	1	3848.796	-17.1371	2.075132E-006	0.0239002	8
	7	3	199546.9	3802.23	-975.388	1	3925.345	-14.38786	1.83384E-007	0.0244678	8
	8	4	158578.1	3916.665	-842.2117	1	4006.193	-12.13568	1.432271E-006	0.0240533	8
	9	4	125953.1	4002.734	-699.5513	1	4063.404	-9.91337	4.440141E-007	0.0230912	7
	10	4	100078.1	4065.946	-617.2583	1	4112.533	-8.632258	-1.031311E-008	0.0244167	7
	11	4	79453.13	4109.497	-558.2457	1	4147.24	-7.735869	-3.319751E-008	0.0243183	7
	12	5	63140.62	4149.787	-518.4346	1	4182.046	-7.12109	-3.783093E-008	0.0243281	7
	13	5	50203.12	4187.106	-495.3464	1	4216.305	-6.746892	-2.439787E-008	0.0243029	7
	14	5	39890.62	4221.813	-487.5237	1	4249.869	-6.587187	4.190416E-009	0.02431	7
	15	6	31640.63	4258.043	-493.6298	1	4286.561	-6.612712	4.059224E-008	0.0241774	7
	16	6	25171.88	4296.287	-513.8883	1	4326.912	-6.820868	1.063972E-008	0.024221	7
	17	6	20015.62	4336.75	-548.7341	1	4371.329	-7.21138	-1.085543E-008	0.0243444	7
	18	7	15890.62	4381.528	-598.0054	1	4422.149	-7.771896	7.399991E-008	0.0241615	7
	19	7	12609.37	4429.511	-664.2862	1	4479.045	-8.528989	-2.956733E-008	0.0242931	7
	20	7	10078.13	4482.32	-743.8485	1	4543.623	-9.422458	2.320705E-008	0.0242641	7
	21	8	8015.625	4537.773	-845.6456	1	4615.897	-10.55637	-2.726859E-008	0.0243213	7
	22	8	6328.125	4603.569	-977.402	1	4706.183	-11.9867	8.146028E-008	0.0241451	7
	23	8	5015.625	4674.676	-1136.075	1	4810.745	-13.65963	2.43369E-008	0.0243109	7
	24	9	3984.375	4752.993	-1326.839	1	4934.718	-15.59754	-1.409803E-008	0.0243607	7
	25	9	3170.956	4838.383	-1561.589	1	5084.144	-17.8875	-2.771551E-008	0.0242881	7
	26	9	2527.573	4934.848	-1845.641	1	5268.692	-20.50587	4.929563E-009	0.0242537	7
	27	10	1976.103	5055.648	-2225.489	1	5523.801	-23.75902	2.54386E-008	0.0243078	7
	28	10	1577.524	5181.489	-2650.09	1	5819.863	-27.08763	2.58074E-008	0.0243098	7
	29	10	1265.625	5326.43	-3154.826	1	6190.621	-30.63811	1.487936E-008	0.0242032	7
	30	11	998.264	5508.11	-3816.042	1	6700.855	-34.71438	2.02712E-008	0.0242628	7
	31	11	796.875	5714.042	-4581.04	1	7323.674	-38.71971	5.238133E-009	0.0242447	7
	32	11	627.7902	5974.198	-5575.977	1	8172.06	-43.02537	-3.705535E-008	0.024319	7
	33	12	505.5147	6255.074	-6670.594	1	9144.549	-46.84125	1.366772E-008	0.0242069	7
	34	12	397.9953	6630.324	-8146.062	1	10503.31	-50.85682	8.68966E-010	0.0242962	6
	35	12	315.5048	7073.36	-9899.45	1	12166.82	-54.45342	4.705267E-010	0.0242959	6
	36	12	252.4038	7592.883	-11947.63	1	14156.19	-57.56348	4.145346E-010	0.024293	6
	37	13	198.6229	8279.596	-14627	1	16807.76	-60.48801	9.607074E-010	0.0242938	6
	38	13	158.3615	9082.801	-17710.88	1	19904.08	-62.84955	4.80374E-010	0.0242914	6
	39	13	125.558	10104.45	-21550.72	1	23801.96	-64.87962	6.000032E-010	0.0242946	6
	40	14	100.4464	11302.87	-26019.71	1	28368.64	-66.52004	1.334501E-009	0.0242927	6
	41	14	79.00281	12890.41	-31834.27	1	34345.06	-67.95587	7.517607E-010	0.024288	6
	42	14	63.3446	15119.96	-38287.2	1	41164.59	-68.45049	7.010261E-010	0.0242819	6
	43	15	49.86702	17574.98	-46823.6	1	50013.29	-69.42666	1.690046E-010	0.0242871	6
	44	15	39.72458	20405.83	-56544.39	1	60113.78	-70.15643	8.036553E-010	0.0242913	6
	45	16	31.6723	24032.94	-68349.56	1	72451.67	-70.6274	3.851006E-010	0.0242925	6
	46	16	24.93351	29350.17	-83242.82	1	88265.51	-70.57811	2.697156E-010	0.0242839	6
	47	16	19.86229	35678.5	-100114.4	1	106282	-70.38509	-6.236462E-010	0.0242814	5
	48	16	15.83615	43652.95	-121480.1	1	129085.2	-70.23448	1.452133E-009	0.0242833	5
	49	17	12.40079	54947.16	-146804.3	1	156750.4	-69.47971	-1.044545E-011	0.0242882	5
	50	17	9.93114	68323.11	-173351	1	186329.3	-68.48903	2.719966E-011	0.0242901	5
	51	18	7.944915	85282.65	-205006.5	1	222037.8	-67.4127	5.696504E-010	0.0242842	5
	52	18	6.317385	106283.3	-242394.8	1	264672.2	-66.32389	5.918278E-010	0.0242719	5
	53	19	5.008013	133569.8	-285621.5	1	315310.2	-64.93703	3.673725E-010	0.0242856	5
	54	20	3.945707	166826.4	-334830.2	1	374088.6	-63.5156	1.84383E-010	0.0242858	5
	55	21	3.158693	204634.5	-386409.3	1	437249.8	-62.09521	-6.862303E-011	0.0242695	5
	56	23	2.504006	250800.5	-445128.4	1	510920.9	-60.6016	1.411201E-010	0.0242669	5
	57	24	1.998082	301316.5	-509257.7	1	591722.1	-59.38814	1.900966E-010	0.0242997	5
	58	26	1.584686	361982.1	-580608.8	1	684205.9	-58.05841	5.556672E-011	0.0242492	5
	59	28	1.266892	429042.7	-659963	1	787165.1	-56.97206	1.208842E-011	0.0242355	5
	60	30	0.999041	507350.8	-754352.9	1	909094.6	-56.07663	-1.974279E-011	0.024237	5
