EXPLAIN
TAG	EISPOT
TITLE	LABEL	Potentiostatic EIS	Test &Identifier
DATE	LABEL	2/11/2020	Date
TIME	LABEL	12:22:11	Time
NOTES	NOTES	6	&Notes...
	
	
	
	
	
	
PSTAT	PSTAT	REF600-11020	Potentiostat
VDC	POTEN	0.00000E+000	T	DC &Voltage (V)
FREQINIT	QUANT	1.00000E+006	Initial Fre&q. (Hz)
FREQFINAL	QUANT	1.00000E+000	Final Fre&q. (Hz)
PTSPERDEC	QUANT	1.00000E+001	Points/&decade
VAC	QUANT	2.50000E+001	AC &Voltage (mV rms)
AREA	QUANT	4.00000E-005	&Area (cm^2)
CONDIT	TWOPARAM	F	5.00000E+000	0.00000E+000	Conditionin&g	Time(s)	E(V)
DELAY	TWOPARAM	F	5.00000E+000	0.00000E+000	Init. De&lay	Time(s)	Stab.(mV/s)
SPEED	SELECTOR	0	&Optimize for:
ZGUESS	QUANT	1.00000E+003	E&stimated Z (ohms)
OCVCURVE	TABLE	39
	Pt	T	Vf	Vm	Ach	Over
	#	s	V vs. Ref.	V	V	bits
	0	0.258333	2.00459E-002	2.00459E-002	5.54838E-004	...........
	1	0.516667	2.00485E-002	2.01858E-002	5.54638E-004	...........
	2	0.775	2.00641E-002	2.02755E-002	5.53405E-004	...........
	3	1.03333	2.01051E-002	2.03407E-002	5.58971E-004	...........
	4	1.29167	2.01716E-002	2.04086E-002	5.53338E-004	...........
	5	1.55	2.02500E-002	2.04684E-002	5.50971E-004	...........
	6	1.80833	2.03268E-002	2.05007E-002	5.51705E-004	...........
	7	2.06667	2.03944E-002	2.05398E-002	5.55605E-004	...........
	8	2.325	2.04509E-002	2.05912E-002	5.56738E-004	...........
	9	2.58333	2.04988E-002	2.06340E-002	5.56904E-004	...........
	10	2.84167	2.05428E-002	2.06762E-002	5.55971E-004	...........
	11	3.1	2.05873E-002	2.07730E-002	5.53171E-004	...........
	12	3.35833	2.06356E-002	2.07967E-002	5.48838E-004	...........
	13	3.61667	2.06880E-002	2.07971E-002	5.53038E-004	...........
	14	3.875	2.07367E-002	2.07936E-002	5.48905E-004	...........
	15	4.13333	2.07724E-002	2.08430E-002	5.47805E-004	...........
	16	4.39167	2.07962E-002	2.08856E-002	5.48238E-004	...........
	17	4.65	2.08178E-002	2.09176E-002	5.49138E-004	...........
	18	4.90833	2.08450E-002	2.09433E-002	5.44905E-004	...........
	19	5.16667	2.08768E-002	2.09597E-002	5.52004E-004	...........
	20	5.425	2.09082E-002	2.09859E-002	5.52171E-004	...........
	21	5.68333	2.09360E-002	2.10036E-002	5.44871E-004	...........
	22	5.94167	2.09601E-002	2.10154E-002	5.48705E-004	...........
	23	6.2	2.09817E-002	2.10682E-002	5.49171E-004	...........
	24	6.45833	2.10037E-002	2.10936E-002	5.44305E-004	...........
	25	6.71667	2.10289E-002	2.11054E-002	5.53405E-004	...........
	26	6.975	2.10562E-002	2.11158E-002	5.52271E-004	...........
	27	7.23333	2.10811E-002	2.11297E-002	5.53805E-004	...........
	28	7.49167	2.11008E-002	2.11470E-002	5.51705E-004	...........
	29	7.75	2.11161E-002	2.11357E-002	5.50938E-004	...........
	30	8.00833	2.11289E-002	2.11993E-002	5.52071E-004	...........
	31	8.26667	2.11424E-002	2.12097E-002	5.52838E-004	...........
	32	8.525	2.11605E-002	2.12324E-002	5.50971E-004	...........
	33	8.78333	2.11828E-002	2.12378E-002	5.49871E-004	...........
	34	9.04167	2.12051E-002	2.12577E-002	5.50105E-004	...........
	35	9.3	2.12242E-002	2.12633E-002	5.54038E-004	...........
	36	9.5583	2.12399E-002	2.12855E-002	5.48738E-004	...........
	37	9.8167	2.12542E-002	2.13162E-002	5.49305E-004	...........
	38	10.075	2.12699E-002	2.13335E-002	5.47838E-004	...........
EOC	QUANT	0.0212699	Open Circuit (V)
PSTATMODEL	IQUANT	4	Pstat Model
PSTATSECTION	LABEL	REF600-11020	Pstat Section
PSTATSERIALNO	LABEL	11020	Pstat Serial Number
CTRLMODE	IQUANT	1	Control Mode
IESTAB	IQUANT	0	I/E Stability
CASPEED	IQUANT	1	Control Amp Speed
CONVENTION	IQUANT	1	Current Convention
ICHRANGE	IQUANT	2	Ich Range
ICHRANGEMODE	TOGGLE	F	Ich Auto Range
ICHOFFSETENABLE	TOGGLE	T	Ich Offset Enable
ICHOFFSET	QUANT	0	Ich Offset (V)
ICHFILTER	IQUANT	3	Ich Filter
VCHRANGE	IQUANT	2	Vch Range
VCHRANGEMODE	TOGGLE	F	Vch Auto Range
VCHOFFSETENABLE	TOGGLE	T	Vch Offset Enable
VCHOFFSET	QUANT	0	Vch Offset (V)
VCHFILTER	IQUANT	3	Vch Filter
ACHRANGE	IQUANT	2	Ach Range
ACHOFFSETENABLE	TOGGLE	F	Ach Offset Enable
ACHOFFSET	QUANT	0	Ach Offset (V)
ACHFILTER	IQUANT	3	Ach Filter
IERANGELOWERLIMIT	IQUANT	1	I/E Range Lower Limit
IERANGEMODE	TOGGLE	F	I/E AutoRange
IERANGE	IQUANT	7	I/E Range
POSFEEDENABLE	TOGGLE	F	Positive Feedback IR Comp
POSFEEDRESISTANCE	QUANT	0	Positive Feedback Resistance (ohm)
ACHSELECT	IQUANT	0	Ach Select
CABLEID	IQUANT	14	Cable ID
DCCALDATE	LABEL	1/27/2020	DC Calibration Date
ACCALDATE	LABEL	1/27/2020	AC Calibration Date
THERMOSELECT	IQUANT	1	Thermo Select
FRAMEWORKVERSION	QUANT	6.33	Framework Version
INSTRUMENTVERSION	LABEL	3.50	Instrument Version
ZCURVE	TABLE
	Pt	Time	Freq	Zreal	Zimag	Zsig	Zmod	Zphz	Idc	Vdc	IERange
	#	s	Hz	ohm	ohm	V	ohm	°	A	V	#
	0	1	1000078	2096.333	-2326.214	1	3131.434	-47.97552	8.003336E-006	0.022779	8
	1	1	794390.6	2535.782	-2494.92	1	3557.361	-44.53461	-7.83929E-006	0.0242016	8
	2	1	630984.4	3037.686	-2576.3	1	3983.071	-40.3017	2.827969E-007	0.0235899	8
	3	2	501234.4	3468.569	-2600.753	1	4335.307	-36.86278	-5.590911E-006	0.0241915	8
	4	2	398109.4	3992.843	-2633.486	1	4783.099	-33.40691	-9.077882E-007	0.0232503	8
	5	2	316265.6	4491.639	-2566.51	1	5173.18	-29.74352	-1.435832E-006	0.0232308	8
	6	3	251203.1	4919.833	-2459.123	1	5500.186	-26.55765	2.511576E-006	0.0222268	8
	7	3	199546.9	5320.509	-2316.374	1	5802.879	-23.52671	-5.040552E-006	0.0239565	8
	8	3	158578.1	5687.687	-2205.085	1	6100.179	-21.19104	3.645978E-007	0.0230359	8
	9	4	125953.1	6033.59	-1942.454	1	6338.56	-17.84545	-9.755489E-007	0.0256899	7
	10	4	100078.1	6328.61	-1788.929	1	6576.593	-15.78418	-6.120134E-008	0.0229053	7
	11	4	79453.13	6558.253	-1639.04	1	6759.966	-14.03194	-3.780571E-008	0.0228587	7
	12	5	63140.62	6759.143	-1503.662	1	6924.378	-12.54198	3.864425E-008	0.022773	7
	13	5	50203.12	6926.512	-1387.389	1	7064.094	-11.32653	-3.123965E-008	0.0229264	7
	14	5	39890.62	7068.152	-1292.594	1	7185.373	-10.36349	3.850409E-008	0.0227702	7
	15	6	31640.63	7194.432	-1224.503	1	7297.894	-9.65926	-1.727759E-008	0.0228576	7
	16	6	25171.88	7305.399	-1189.479	1	7401.602	-9.247853	-2.073187E-009	0.022732	7
	17	6	20015.62	7411.772	-1170.225	1	7503.585	-8.972212	-5.218125E-009	0.0228435	7
	18	7	15890.62	7510.658	-1191.12	1	7604.522	-9.011523	7.927791E-008	0.0226609	7
	19	7	12609.37	7607.002	-1240.596	1	7707.5	-9.262601	3.161205E-008	0.0226979	7
	20	7	10078.13	7702.728	-1324.244	1	7815.73	-9.75487	4.733809E-008	0.022648	7
	21	8	8015.625	7805.598	-1438.73	1	7937.084	-10.44356	4.819226E-008	0.022645	7
	22	8	6328.125	7920.248	-1610.031	1	8082.235	-11.49054	-1.562955E-008	0.0228526	7
	23	8	5015.625	8046.554	-1818.772	1	8249.543	-12.73661	7.377589E-008	0.0227783	7
	24	8	3984.375	8172.73	-2090.081	1	8435.755	-14.34527	-5.475518E-009	0.0228407	7
	25	9	3170.956	8322.15	-2412.118	1	8664.67	-16.16387	-1.029896E-009	0.0227227	7
	26	9	2527.573	8489.121	-2817.598	1	8944.497	-18.36136	4.945838E-008	0.022639	7
	27	9	1976.103	8710.165	-3340.083	1	9328.619	-20.9803	2.083624E-009	0.0228414	6
	28	10	1577.524	8932.433	-3937.891	1	9761.93	-23.79044	3.575849E-009	0.0226899	6
	29	10	1265.625	9188.955	-4639.162	1	10293.63	-26.78751	-1.188349E-009	0.0227892	6
	30	10	998.264	9515.82	-5559.372	1	11020.77	-30.2945	-3.781425E-009	0.0229457	6
	31	11	796.875	9885.28	-6610.265	1	11891.77	-33.77057	-6.862166E-009	0.0227968	6
	32	11	627.7902	10343.7	-7959.536	1	13051.68	-37.57848	-6.028553E-009	0.0227991	6
	33	11	505.5147	10844.14	-9432.431	1	14372.41	-41.01735	1.871582E-008	0.0224521	6
	34	12	397.9953	11510.02	-11396.18	1	16197.33	-44.71524	1.46365E-009	0.0227988	6
	35	12	315.5048	12303.15	-13708.14	1	18419.57	-48.0918	2.601896E-010	0.0227953	6
	36	12	252.4038	13235.64	-16379.99	1	21059.12	-51.06049	1.764296E-010	0.0227963	6
	37	13	198.6229	14485.88	-19838.67	1	24564.48	-53.86369	7.245476E-010	0.022796	6
	38	13	158.3615	15972.46	-23759.08	1	28628.89	-56.08833	1.2135E-009	0.0227956	6
	39	13	125.558	17889.43	-28568.45	1	33707.39	-57.9454	9.88945E-010	0.0227934	6
	40	14	100.4464	20138.29	-34047.62	1	39557.44	-59.39677	1.361068E-009	0.0227996	6
	41	14	79.00281	23244.13	-40870.5	1	47017.95	-60.37197	9.145429E-010	0.0227924	6
	42	14	63.3446	27698.69	-48760.96	1	56078.95	-60.40124	1.372986E-009	0.0227904	6
	43	15	49.86702	32421.79	-58283.83	1	66694.66	-60.91394	1.502377E-009	0.0227895	6
	44	15	39.72458	37956.54	-68142.05	1	78000.24	-60.88129	8.421004E-010	0.0227932	6
	45	15	31.6723	45327.21	-79734.93	1	91718.13	-60.38291	-2.200207E-010	0.0227891	6
	46	16	24.93351	54495.11	-94094.15	1	108735.6	-59.9225	3.63765E-010	0.0227866	5
	47	16	19.86229	65317.73	-109384.3	1	127402.2	-59.15689	1.829414E-009	0.0227956	5
	48	16	15.83615	78104.87	-125138.9	1	147513.1	-58.02984	-2.480833E-010	0.0227899	5
	49	17	12.40079	95406.4	-145196.3	1	173736.4	-56.69164	-1.176872E-010	0.0227876	5
	50	17	9.93114	113290.4	-165628.9	1	200668	-55.62782	-3.370123E-010	0.0227922	5
	51	18	7.944915	132922.5	-187031	1	229453.6	-54.59869	7.25595E-010	0.0227753	5
	52	18	6.317385	156374.6	-210133.7	1	261933.5	-53.34459	3.272635E-010	0.0227833	5
	53	19	5.008013	183049	-236158.7	1	298794	-52.22038	-2.941772E-011	0.0227819	5
	54	20	3.945707	212471.8	-265900.2	1	340363.3	-51.37284	1.871667E-010	0.0227938	5
	55	21	3.158693	243270.3	-297079.3	1	383974.7	-50.68687	-7.332713E-011	0.0227959	5
	56	23	2.504006	277454.3	-333638.2	1	433930.1	-50.25301	-1.343155E-010	0.0227716	5
	57	24	1.998082	313696.8	-373368.5	1	487657.4	-49.96369	1.874162E-010	0.0228198	5
	58	26	1.584686	353245	-422630.2	1	550816.1	-50.11027	1.829215E-010	0.0228133	5
	59	28	1.266892	394977.2	-476366.5	1	618815	-50.33632	8.542295E-011	0.0227726	5
	60	30	0.999041	445230.9	-544023.8	1	702988.2	-50.70299	4.54663E-011	0.0227439	5
