EXPLAIN
TAG	EISPOT
TITLE	LABEL	Potentiostatic EIS	Test &Identifier
DATE	LABEL	6/1/2020	Date
TIME	LABEL	13:52:55	Time
NOTES	NOTES	1	&Notes...
	
PSTAT	PSTAT	REF600-11020	Potentiostat
VDC	POTEN	0.00000E+000	T	DC &Voltage (V)
FREQINIT	QUANT	1.00000E+006	Initial Fre&q. (Hz)
FREQFINAL	QUANT	1.00000E+000	Final Fre&q. (Hz)
PTSPERDEC	QUANT	1.00000E+001	Points/&decade
VAC	QUANT	2.50000E+001	AC &Voltage (mV rms)
AREA	QUANT	4.00000E-004	&Area (cm^2)
CONDIT	TWOPARAM	F	5.00000E+000	0.00000E+000	Conditionin&g	Time(s)	E(V)
DELAY	TWOPARAM	T	3.00000E+000	0.00000E+000	Init. De&lay	Time(s)	Stab.(mV/s)
SPEED	SELECTOR	0	&Optimize for:
ZGUESS	QUANT	1.00000E+003	E&stimated Z (ohms)
OCVCURVE	TABLE	12
	Pt	T	Vf	Vm	Ach	Over
	#	s	V vs. Ref.	V	V	bits
	0	0.258333	-6.87756E-002	-6.87756E-002	5.68963E-004	...........
	1	0.516667	-6.87756E-002	-6.87730E-002	5.67463E-004	...........
	2	0.775	-6.87753E-002	-6.87750E-002	5.70297E-004	...........
	3	1.03333	-6.87750E-002	-6.87749E-002	5.70197E-004	...........
	4	1.29167	-6.87747E-002	-6.87756E-002	5.73630E-004	...........
	5	1.55	-6.87747E-002	-6.87752E-002	5.66130E-004	...........
	6	1.80833	-6.87749E-002	-6.87751E-002	5.68997E-004	...........
	7	2.06667	-6.87751E-002	-6.87737E-002	5.71497E-004	...........
	8	2.325	-6.87750E-002	-6.87727E-002	5.70163E-004	...........
	9	2.58333	-6.87746E-002	-6.87729E-002	5.69997E-004	...........
	10	2.84167	-6.87739E-002	-6.87694E-002	5.72263E-004	...........
	11	3.1	-6.87731E-002	-6.87746E-002	5.67730E-004	...........
EOC	QUANT	-0.0687731	Open Circuit (V)
PSTATMODEL	IQUANT	4	Pstat Model
PSTATSECTION	LABEL	REF600-11020	Pstat Section
PSTATSERIALNO	LABEL	11020	Pstat Serial Number
CTRLMODE	IQUANT	1	Control Mode
IESTAB	IQUANT	0	I/E Stability
CASPEED	IQUANT	1	Control Amp Speed
CONVENTION	IQUANT	1	Current Convention
ICHRANGE	IQUANT	2	Ich Range
ICHRANGEMODE	TOGGLE	F	Ich Auto Range
ICHOFFSETENABLE	TOGGLE	T	Ich Offset Enable
ICHOFFSET	QUANT	0	Ich Offset (V)
ICHFILTER	IQUANT	3	Ich Filter
VCHRANGE	IQUANT	2	Vch Range
VCHRANGEMODE	TOGGLE	F	Vch Auto Range
VCHOFFSETENABLE	TOGGLE	T	Vch Offset Enable
VCHOFFSET	QUANT	0	Vch Offset (V)
VCHFILTER	IQUANT	3	Vch Filter
ACHRANGE	IQUANT	2	Ach Range
ACHOFFSETENABLE	TOGGLE	F	Ach Offset Enable
ACHOFFSET	QUANT	0	Ach Offset (V)
ACHFILTER	IQUANT	3	Ach Filter
IERANGELOWERLIMIT	IQUANT	1	I/E Range Lower Limit
IERANGEMODE	TOGGLE	F	I/E AutoRange
IERANGE	IQUANT	8	I/E Range
POSFEEDENABLE	TOGGLE	F	Positive Feedback IR Comp
POSFEEDRESISTANCE	QUANT	0	Positive Feedback Resistance (ohm)
ACHSELECT	IQUANT	0	Ach Select
CABLEID	IQUANT	14	Cable ID
DCCALDATE	LABEL	2/27/2020	DC Calibration Date
ACCALDATE	LABEL	2/27/2020	AC Calibration Date
THERMOSELECT	IQUANT	1	Thermo Select
FRAMEWORKVERSION	QUANT	6.33	Framework Version
INSTRUMENTVERSION	LABEL	3.50	Instrument Version
ZCURVE	TABLE
	Pt	Time	Freq	Zreal	Zimag	Zsig	Zmod	Zphz	Idc	Vdc	IERange
	#	s	Hz	ohm	ohm	V	ohm	°	A	V	#
	0	2	1000078	1336.172	-2948.48	1	3237.111	-65.62124	7.03786E-008	-0.0663651	8
	1	2	794390.6	1570.532	-3520	1	3854.475	-65.95482	3.37291E-008	-0.0667306	8
	2	2	630984.4	1865.102	-4198.749	1	4594.355	-66.049	-1.069707E-009	-0.0668774	8
	3	3	501234.4	2222.039	-5012.347	1	5482.798	-66.09166	5.183379E-008	-0.0669984	8
	4	3	398109.4	2692.305	-5977.996	1	6556.29	-65.75467	4.685027E-008	-0.0670661	8
	5	3	316265.6	3283.588	-7088.81	1	7812.373	-65.14609	5.649026E-008	-0.0670811	8
	6	3	251203.1	4015.346	-8400.839	1	9311.128	-64.45362	5.864435E-008	-0.0670845	8
	7	4	199546.9	4955.586	-9889.2	1	11061.38	-63.38404	5.259706E-008	-0.0670915	8
	8	4	158578.1	6142.722	-11568.13	1	13097.89	-62.03153	6.034742E-008	-0.0670969	8
	9	4	125953.1	7838.086	-13399.9	1	15523.95	-59.6751	1.979351E-009	-0.067153	7
	10	5	100078.1	9590.55	-15466.15	1	18198.36	-58.19698	3.730626E-009	-0.0671771	7
	11	5	79453.13	11787.5	-17734.11	1	21294.22	-56.38881	3.680307E-009	-0.0671835	7
	12	5	63140.62	14429.62	-20102.75	1	24745.39	-54.32947	3.619355E-009	-0.0671847	7
	13	6	50203.12	17599.32	-22508.22	1	28571.95	-51.97792	3.855172E-009	-0.0671907	7
	14	6	39890.62	21256.13	-24859.98	1	32708.44	-49.46844	4.040351E-009	-0.0671852	7
	15	6	31640.63	25466.09	-27071.18	1	37166.79	-46.74993	3.266653E-009	-0.0671974	7
	16	7	25171.88	30081.5	-28925.11	1	41731.99	-43.87728	3.195862E-009	-0.0671949	7
	17	7	20015.62	35003.22	-30532.86	1	46448.7	-41.09777	3.098346E-009	-0.0671958	7
	18	7	15890.62	40174	-31800.66	1	51237.02	-38.36419	3.657484E-009	-0.067203	7
	19	8	12609.37	46026.05	-32326.05	1	56243.85	-35.082	5.604695E-010	-0.0671549	6
	20	8	10078.13	51022.51	-33078.78	1	60807.09	-32.95604	5.948494E-010	-0.0671459	6
	21	8	8015.625	56085.76	-33665.67	1	65413.99	-30.97443	5.796473E-010	-0.0671549	6
	22	9	6328.125	61240.44	-34255.27	1	70169.9	-29.22077	7.208216E-010	-0.0671472	6
	23	9	5015.625	66264.51	-34831.97	1	74861.55	-27.72868	6.795219E-010	-0.0671457	6
	24	9	3984.375	71153.42	-35447.34	1	79494.17	-26.48165	6.584418E-010	-0.0671479	6
	25	10	3170.956	75984.4	-36212.12	1	84172.13	-25.48121	4.852623E-010	-0.0671561	6
	26	10	2527.573	80846.22	-37218.03	1	89001.64	-24.71925	5.162349E-010	-0.0671535	6
	27	10	1976.103	86166.13	-38531.98	1	94389.17	-24.09335	4.443522E-010	-0.067163	6
	28	10	1577.524	91097.14	-40048.71	1	99511.8	-23.73156	6.108896E-010	-0.067151	6
	29	11	1265.625	97134.8	-40004.3	1	105050.1	-22.38398	-1.110175E-011	-0.067156	5
	30	11	998.264	102479.4	-42530.45	1	110954.3	-22.53918	5.495441E-012	-0.0671526	5
	31	11	796.875	107881.6	-45290.46	1	117002.9	-22.77345	-1.900951E-011	-0.0671573	5
	32	12	627.7902	113911.9	-48662.9	1	123870.9	-23.13205	-1.537065E-012	-0.0671568	5
	33	12	505.5147	119771	-52151.79	1	130632.7	-23.52972	-7.709251E-011	-0.0671632	5
	34	12	397.9953	126625.8	-56533.69	1	138672.8	-24.05898	7.855755E-011	-0.0671403	5
	35	13	315.5048	133813.1	-61416.94	1	147234.5	-24.65396	6.736189E-011	-0.0671399	5
	36	13	252.4038	141272.9	-66758.25	1	156252	-25.29299	8.350644E-011	-0.067141	5
	37	13	198.6229	149976.3	-73308.55	1	166934.2	-26.04943	3.416893E-011	-0.0671437	5
	38	14	158.3615	158943.1	-80359.35	1	178102.6	-26.82051	9.940385E-011	-0.0671473	5
	39	14	125.558	169007	-88546.21	1	190797.8	-27.65095	1.696893E-010	-0.0671437	5
	40	14	100.4464	179646.2	-97448	1	204374.3	-28.47735	1.165692E-010	-0.0671475	5
	41	15	79.00281	192266.4	-108249.1	1	220645	-29.38021	7.257622E-011	-0.0671533	5
	42	15	63.3446	205071.5	-119425.3	1	237311.4	-30.21478	-1.204764E-011	-0.0671508	5
	43	15	49.86702	220291.4	-133065.6	1	257361.2	-31.1338	1.157934E-010	-0.067156	5
	44	16	39.72458	236263.4	-147707.5	1	278635.7	-32.01286	1.471033E-010	-0.0671475	5
	45	16	31.6723	253815.3	-164246.8	1	302323	-32.90737	2.276223E-010	-0.0671483	5
	46	16	24.93351	274363.1	-184020.9	1	330361.6	-33.85057	1.702098E-010	-0.0671507	5
	47	17	19.86229	296281.7	-205716.9	1	360696.9	-34.77336	6.179606E-010	-0.0671444	5
	48	17	15.83615	320760.2	-229379.5	1	394337.5	-35.56902	-4.086403E-010	-0.0671474	5
	49	17	12.40079	350036.6	-258807	1	435323.7	-36.47816	-6.460708E-010	-0.0671467	5
	50	18	9.93114	378503.4	-288990.7	1	476214.7	-37.36205	-7.390824E-010	-0.0671517	5
	51	18	7.944915	412099	-324620.8	1	524599.1	-38.2284	-5.967391E-011	-0.0671431	5
	52	18	6.317385	450442	-365288.3	1	579942.7	-39.0405	1.197279E-010	-0.0671557	5
	53	19	5.008013	494325.5	-411891.2	1	643437.7	-39.80237	-1.067278E-010	-0.0671546	5
	54	20	3.945707	546800.1	-466263.4	1	718604.2	-40.45465	-1.067514E-010	-0.067151	5
	55	21	3.158693	600642.5	-522400.1	1	796036	-41.01464	-1.680137E-011	-0.0671706	5
	56	22	2.504006	666079.4	-587865.6	1	888396.2	-41.43084	2.151288E-010	-0.0671646	5
	57	23	1.998082	735602.3	-658668.4	1	987398	-41.8417	9.917805E-011	-0.0671748	4
	58	25	1.584686	818005.4	-738644.4	1	1102147	-42.08147	-6.964531E-012	-0.0672084	4
	59	27	1.266892	904088.2	-827703.7	1	1225752	-42.47448	-2.628426E-011	-0.0671884	4
	60	29	0.999041	1002672	-931324.3	1	1368472	-42.88723	-6.411486E-012	-0.0671691	4
