EXPLAIN
TAG	EISPOT
TITLE	LABEL	Potentiostatic EIS	Test &Identifier
DATE	LABEL	3/17/2020	Date
TIME	LABEL	15:26:41	Time
NOTES	NOTES	1	&Notes...
	
PSTAT	PSTAT	REF600-11020	Potentiostat
VDC	POTEN	0.00000E+000	T	DC &Voltage (V)
FREQINIT	QUANT	1.00000E+006	Initial Fre&q. (Hz)
FREQFINAL	QUANT	1.00000E+000	Final Fre&q. (Hz)
PTSPERDEC	QUANT	1.00000E+001	Points/&decade
VAC	QUANT	2.50000E+001	AC &Voltage (mV rms)
AREA	QUANT	4.00000E-004	&Area (cm^2)
CONDIT	TWOPARAM	F	5.00000E+000	0.00000E+000	Conditionin&g	Time(s)	E(V)
DELAY	TWOPARAM	T	3.00000E+000	0.00000E+000	Init. De&lay	Time(s)	Stab.(mV/s)
SPEED	SELECTOR	0	&Optimize for:
ZGUESS	QUANT	5.00000E+003	E&stimated Z (ohms)
OCVCURVE	TABLE	12
	Pt	T	Vf	Vm	Ach	Over
	#	s	V vs. Ref.	V	V	bits
	0	0.258333	-3.19978E-005	-3.19978E-005	5.75330E-004	...........
	1	0.516667	-3.19726E-005	-3.06785E-005	5.83863E-004	...........
	2	0.775	-3.19126E-005	-3.43841E-005	5.78730E-004	...........
	3	1.03333	-3.20581E-005	-3.79828E-005	5.78997E-004	...........
	4	1.29167	-3.28099E-005	-3.50821E-005	5.79297E-004	...........
	5	1.55	-3.40643E-005	-3.58195E-005	5.83530E-004	...........
	6	1.80833	-3.51204E-005	-3.34602E-005	5.77263E-004	...........
	7	2.06667	-3.54592E-005	-3.43875E-005	5.76997E-004	...........
	8	2.325	-3.51773E-005	-3.42282E-005	5.78397E-004	...........
	9	2.58333	-3.47130E-005	-3.45215E-005	5.71730E-004	...........
	10	2.84167	-3.44356E-005	-3.58415E-005	5.76897E-004	...........
	11	3.1	-3.44961E-005	-3.61201E-005	5.77863E-004	...........
EOC	QUANT	-3.449605E-005	Open Circuit (V)
PSTATMODEL	IQUANT	4	Pstat Model
PSTATSECTION	LABEL	REF600-11020	Pstat Section
PSTATSERIALNO	LABEL	11020	Pstat Serial Number
CTRLMODE	IQUANT	1	Control Mode
IESTAB	IQUANT	0	I/E Stability
CASPEED	IQUANT	1	Control Amp Speed
CONVENTION	IQUANT	1	Current Convention
ICHRANGE	IQUANT	2	Ich Range
ICHRANGEMODE	TOGGLE	F	Ich Auto Range
ICHOFFSETENABLE	TOGGLE	T	Ich Offset Enable
ICHOFFSET	QUANT	0	Ich Offset (V)
ICHFILTER	IQUANT	3	Ich Filter
VCHRANGE	IQUANT	2	Vch Range
VCHRANGEMODE	TOGGLE	F	Vch Auto Range
VCHOFFSETENABLE	TOGGLE	T	Vch Offset Enable
VCHOFFSET	QUANT	0	Vch Offset (V)
VCHFILTER	IQUANT	3	Vch Filter
ACHRANGE	IQUANT	2	Ach Range
ACHOFFSETENABLE	TOGGLE	F	Ach Offset Enable
ACHOFFSET	QUANT	0	Ach Offset (V)
ACHFILTER	IQUANT	3	Ach Filter
IERANGELOWERLIMIT	IQUANT	1	I/E Range Lower Limit
IERANGEMODE	TOGGLE	F	I/E AutoRange
IERANGE	IQUANT	4	I/E Range
POSFEEDENABLE	TOGGLE	F	Positive Feedback IR Comp
POSFEEDRESISTANCE	QUANT	0	Positive Feedback Resistance (ohm)
ACHSELECT	IQUANT	0	Ach Select
CABLEID	IQUANT	14	Cable ID
DCCALDATE	LABEL	2/27/2020	DC Calibration Date
ACCALDATE	LABEL	2/27/2020	AC Calibration Date
THERMOSELECT	IQUANT	1	Thermo Select
FRAMEWORKVERSION	QUANT	6.33	Framework Version
INSTRUMENTVERSION	LABEL	3.50	Instrument Version
ZCURVE	TABLE
	Pt	Time	Freq	Zreal	Zimag	Zsig	Zmod	Zphz	Idc	Vdc	IERange
	#	s	Hz	ohm	ohm	V	ohm	°	A	V	#
	0	1	1000078	1548.802	-2110.006	1	2617.425	-53.72031	3.106594E-008	0.0029794	8
	1	2	794390.6	1974.664	-2296.085	1	3028.416	-49.30402	6.421661E-008	0.0024067	8
	2	2	630984.4	2463.496	-2414.698	1	3449.577	-44.42688	5.133186E-008	0.0021356	8
	3	2	501234.4	2980.678	-2439.276	1	3851.56	-39.29562	5.005937E-008	0.0019848	8
	4	3	398109.4	3485.99	-2364.709	1	4212.359	-34.15088	3.397539E-008	0.0018703	8
	5	3	316265.6	3937.608	-2205.002	1	4512.958	-29.24817	5.587154E-008	0.0018306	8
	6	3	251203.1	4316.3	-1999.111	1	4756.773	-24.85139	5.14889E-008	0.0013517	8
	7	4	199546.9	4600.121	-1777.001	1	4931.414	-21.12126	5.899747E-008	0.0015373	8
	8	4	158578.1	4809.906	-1572.311	1	5060.372	-18.10205	5.377345E-008	0.001597	8
	9	4	125953.1	4976.405	-1374.162	1	5162.647	-15.43672	8.488052E-011	0.0015517	7
	10	5	100078.1	5102.049	-1255.475	1	5254.248	-13.82427	8.14895E-009	0.0015476	7
	11	5	79453.13	5216.895	-1174.243	1	5347.415	-12.685	5.822093E-009	0.0015553	7
	12	5	63140.62	5326.888	-1120.175	1	5443.393	-11.87553	7.519204E-009	0.001562	7
	13	6	50203.12	5425.914	-1090.145	1	5534.344	-11.36031	7.150402E-009	0.0015681	7
	14	6	39890.62	5524.642	-1087.096	1	5630.581	-11.132	6.537828E-009	0.0015845	7
	15	6	31640.63	5624.017	-1108.849	1	5732.287	-11.15356	6.392491E-009	0.0015986	7
	16	7	25171.88	5725.199	-1156.576	1	5840.854	-11.4209	6.154962E-009	0.0016047	7
	17	7	20015.62	5832.632	-1229.602	1	5960.832	-11.90445	6.530015E-009	0.0016064	7
	18	7	15890.62	5940.155	-1333.852	1	6088.071	-12.65575	4.430455E-008	0.0016668	8
	19	8	12609.37	6066.303	-1464.228	1	6240.513	-13.56997	4.123567E-008	0.0016672	8
	20	8	10078.13	6211.357	-1619.235	1	6418.947	-14.61121	6.583239E-009	0.0016232	7
	21	8	8015.625	6366.587	-1815.075	1	6620.266	-15.91252	6.370509E-009	0.0016241	7
	22	9	6328.125	6547.963	-2059.418	1	6864.185	-17.45903	6.252686E-009	0.0016218	7
	23	9	5015.625	6750.326	-2347.589	1	7146.893	-19.17636	6.956233E-009	0.0016266	7
	24	9	3984.375	6978.317	-2684.346	1	7476.806	-21.04022	6.652445E-009	0.0016196	7
	25	10	3170.956	7238.898	-3079.351	1	7866.641	-23.04439	7.32314E-009	0.001619	7
	26	10	2527.573	7536.088	-3537.274	1	8324.958	-25.14433	6.59867E-009	0.0016117	7
	27	10	1976.103	7910.277	-4124.699	1	8921.078	-27.53913	6.669633E-009	0.001611	7
	28	11	1577.524	8339.656	-4736.071	1	9590.63	-29.59214	3.514342E-009	0.001667	6
	29	11	1265.625	8787.982	-5452.036	1	10341.82	-31.81533	3.165221E-009	0.0016684	6
	30	11	998.264	9352.093	-6347.357	1	11302.68	-34.16512	3.191841E-009	0.0016649	6
	31	12	796.875	9973.49	-7335.283	1	12380.5	-36.33367	3.321492E-009	0.0016639	6
	32	12	627.7902	10742.48	-8550.244	1	13729.8	-38.51728	3.121865E-009	0.0016648	6
	33	12	505.5147	11551	-9825.35	1	15164.53	-40.38467	2.980024E-009	0.0016646	6
	34	13	397.9953	12592.73	-11452.24	1	17021.47	-42.2844	3.799549E-009	0.0016784	6
	35	13	315.5048	13775.6	-13282.77	1	19136.33	-43.95655	3.744875E-009	0.0016749	6
	36	13	252.4038	15094.44	-15306.19	1	21497.02	-45.39907	3.772589E-009	0.0016738	6
	37	14	198.6229	16739.3	-17812.59	1	24443.66	-46.77921	3.768297E-009	0.0016741	6
	38	14	158.3615	18539.66	-20544.8	1	27673.23	-47.93686	3.539912E-009	0.0016772	6
	39	14	125.558	20662.01	-23765.46	1	31491.52	-48.99588	3.644019E-009	0.0016692	6
	40	15	100.4464	23001.03	-27329.68	1	35720.57	-49.91558	3.49571E-009	0.0016675	6
	41	15	79.00281	25886.3	-31765.02	1	40977.03	-50.82234	3.46873E-009	0.0016672	6
	42	15	63.3446	28917.06	-36491.8	1	46560.15	-51.60577	3.376265E-009	0.0016691	6
	43	16	49.86702	32657.92	-42425.26	1	53539.16	-52.41181	3.617299E-009	0.0016696	6
	44	16	39.72458	36714.45	-49015.4	1	61241	-53.16535	3.572175E-009	0.0016737	6
	45	16	31.6723	41293.41	-56655.07	1	70106.66	-53.91333	3.480967E-009	0.0016727	6
	46	17	24.93351	46844.78	-66146.79	1	81054.49	-54.69409	3.881603E-009	0.0016703	6
	47	17	19.86229	52835.16	-76823.33	1	93238.28	-55.4818	4.921798E-009	0.0016777	6
	48	17	15.83615	60089.53	-89334.43	1	107663.3	-56.07381	2.139898E-009	0.0016705	5
	49	17	12.40079	68948.71	-105273.9	1	125843.3	-56.77737	3.064019E-009	0.0016726	5
	50	18	9.93114	78469.33	-122501.1	1	145478.4	-57.35799	2.844138E-009	0.0016812	5
	51	18	7.944915	89666.53	-142584.6	1	168435.3	-57.83562	1.99284E-009	0.0016767	5
	52	19	6.317385	103673.8	-166847.8	1	196434.3	-58.14451	3.230916E-009	0.0016542	5
	53	19	5.008013	120781.6	-195608	1	229892.8	-58.30603	3.189002E-009	0.0016697	5
	54	20	3.945707	141780.6	-229558.7	1	269812.8	-58.29958	2.591961E-009	0.0016603	5
	55	21	3.158693	165825	-266127.1	1	313562.7	-58.07278	2.990945E-009	0.0016675	5
	56	22	2.504006	195203.5	-309498.9	1	365915.2	-57.76004	2.865355E-009	0.0016666	5
	57	23	1.998082	229725	-357103.4	1	424613.3	-57.24678	2.508358E-009	0.0016196	5
	58	25	1.584686	270331.7	-412541.7	1	493224	-56.76385	2.481237E-009	0.0016424	5
	59	27	1.266892	317862.8	-471500	1	568637.8	-56.01403	2.473584E-009	0.0016741	5
	60	29	0.999041	377668.2	-542467.4	1	660987.3	-55.15419	2.440327E-009	0.0016954	5
