EXPLAIN
TAG	EISPOT
TITLE	LABEL	Potentiostatic EIS	Test &Identifier
DATE	LABEL	2/11/2020	Date
TIME	LABEL	12:32:43	Time
NOTES	NOTES	6	&Notes...
	
	
	
	
	
	
PSTAT	PSTAT	REF600-11020	Potentiostat
VDC	POTEN	0.00000E+000	T	DC &Voltage (V)
FREQINIT	QUANT	1.00000E+006	Initial Fre&q. (Hz)
FREQFINAL	QUANT	1.00000E+000	Final Fre&q. (Hz)
PTSPERDEC	QUANT	1.00000E+001	Points/&decade
VAC	QUANT	2.50000E+001	AC &Voltage (mV rms)
AREA	QUANT	4.00000E-005	&Area (cm^2)
CONDIT	TWOPARAM	F	5.00000E+000	0.00000E+000	Conditionin&g	Time(s)	E(V)
DELAY	TWOPARAM	F	5.00000E+000	0.00000E+000	Init. De&lay	Time(s)	Stab.(mV/s)
SPEED	SELECTOR	0	&Optimize for:
ZGUESS	QUANT	1.00000E+003	E&stimated Z (ohms)
OCVCURVE	TABLE	39
	Pt	T	Vf	Vm	Ach	Over
	#	s	V vs. Ref.	V	V	bits
	0	0.258333	-1.07496E-002	-1.07496E-002	5.81971E-004	...........
	1	0.516667	-1.07480E-002	-1.06609E-002	5.80304E-004	...........
	2	0.775	-1.07373E-002	-1.05656E-002	5.72804E-004	...........
	3	1.03333	-1.07044E-002	-1.03630E-002	5.75071E-004	...........
	4	1.29167	-1.06397E-002	-1.04149E-002	5.77371E-004	...........
	5	1.55	-1.05565E-002	-1.05529E-002	5.79171E-004	...........
	6	1.80833	-1.04926E-002	-1.05199E-002	5.76104E-004	...........
	7	2.06667	-1.04725E-002	-1.04759E-002	5.79271E-004	...........
	8	2.325	-1.04806E-002	-1.04363E-002	5.76437E-004	...........
	9	2.58333	-1.04870E-002	-1.04859E-002	5.75271E-004	...........
	10	2.84167	-1.04834E-002	-1.05466E-002	5.82371E-004	...........
	11	3.1	-1.04826E-002	-1.05052E-002	5.75971E-004	...........
	12	3.35833	-1.04894E-002	-1.03787E-002	5.74171E-004	...........
	13	3.61667	-1.04893E-002	-1.04280E-002	5.72804E-004	...........
	14	3.875	-1.04719E-002	-1.04238E-002	5.79171E-004	...........
	15	4.13333	-1.04464E-002	-1.03799E-002	5.76971E-004	...........
	16	4.39167	-1.04252E-002	-1.04000E-002	5.76238E-004	...........
	17	4.65	-1.04111E-002	-1.04288E-002	5.79704E-004	...........
	18	4.90833	-1.04062E-002	-1.04853E-002	5.75938E-004	...........
	19	5.16667	-1.04136E-002	-1.04342E-002	5.75604E-004	...........
	20	5.425	-1.04283E-002	-1.04048E-002	5.77471E-004	...........
	21	5.68333	-1.04361E-002	-1.03510E-002	5.71871E-004	...........
	22	5.94167	-1.04269E-002	-1.03454E-002	5.72971E-004	...........
	23	6.2	-1.04031E-002	-1.03317E-002	5.71538E-004	...........
	24	6.45833	-1.03750E-002	-1.03091E-002	5.74304E-004	...........
	25	6.71667	-1.03503E-002	-1.02957E-002	5.76171E-004	...........
	26	6.975	-1.03318E-002	-1.03718E-002	5.79404E-004	...........
	27	7.23333	-1.03235E-002	-1.03586E-002	5.72504E-004	...........
	28	7.49167	-1.03286E-002	-1.03806E-002	5.71938E-004	...........
	29	7.75	-1.03432E-002	-1.03885E-002	5.72904E-004	...........
	30	8.00833	-1.03598E-002	-1.03823E-002	5.70771E-004	...........
	31	8.26667	-1.03729E-002	-1.03844E-002	5.75271E-004	...........
	32	8.525	-1.03808E-002	-1.03872E-002	5.80371E-004	...........
	33	8.78333	-1.03843E-002	-1.03878E-002	5.78071E-004	...........
	34	9.04167	-1.03858E-002	-1.03868E-002	5.77604E-004	...........
	35	9.3	-1.03859E-002	-1.03551E-002	5.73904E-004	...........
	36	9.5583	-1.03832E-002	-1.03571E-002	5.75738E-004	...........
	37	9.8167	-1.03768E-002	-1.03735E-002	5.73604E-004	...........
	38	10.075	-1.03712E-002	-1.04329E-002	5.72071E-004	...........
EOC	QUANT	-0.0103712	Open Circuit (V)
PSTATMODEL	IQUANT	4	Pstat Model
PSTATSECTION	LABEL	REF600-11020	Pstat Section
PSTATSERIALNO	LABEL	11020	Pstat Serial Number
CTRLMODE	IQUANT	1	Control Mode
IESTAB	IQUANT	0	I/E Stability
CASPEED	IQUANT	1	Control Amp Speed
CONVENTION	IQUANT	1	Current Convention
ICHRANGE	IQUANT	2	Ich Range
ICHRANGEMODE	TOGGLE	F	Ich Auto Range
ICHOFFSETENABLE	TOGGLE	T	Ich Offset Enable
ICHOFFSET	QUANT	0	Ich Offset (V)
ICHFILTER	IQUANT	3	Ich Filter
VCHRANGE	IQUANT	2	Vch Range
VCHRANGEMODE	TOGGLE	F	Vch Auto Range
VCHOFFSETENABLE	TOGGLE	T	Vch Offset Enable
VCHOFFSET	QUANT	0	Vch Offset (V)
VCHFILTER	IQUANT	3	Vch Filter
ACHRANGE	IQUANT	2	Ach Range
ACHOFFSETENABLE	TOGGLE	F	Ach Offset Enable
ACHOFFSET	QUANT	0	Ach Offset (V)
ACHFILTER	IQUANT	3	Ach Filter
IERANGELOWERLIMIT	IQUANT	1	I/E Range Lower Limit
IERANGEMODE	TOGGLE	F	I/E AutoRange
IERANGE	IQUANT	7	I/E Range
POSFEEDENABLE	TOGGLE	F	Positive Feedback IR Comp
POSFEEDRESISTANCE	QUANT	0	Positive Feedback Resistance (ohm)
ACHSELECT	IQUANT	0	Ach Select
CABLEID	IQUANT	14	Cable ID
DCCALDATE	LABEL	1/27/2020	DC Calibration Date
ACCALDATE	LABEL	1/27/2020	AC Calibration Date
THERMOSELECT	IQUANT	1	Thermo Select
FRAMEWORKVERSION	QUANT	6.33	Framework Version
INSTRUMENTVERSION	LABEL	3.50	Instrument Version
ZCURVE	TABLE
	Pt	Time	Freq	Zreal	Zimag	Zsig	Zmod	Zphz	Idc	Vdc	IERange
	#	s	Hz	ohm	ohm	V	ohm	°	A	V	#
	0	1	1000078	1941.103	-1457.535	1	2427.404	-36.90215	-1.037553E-006	-0.0076918	8
	1	2	794390.6	2200.348	-1472.717	1	2647.721	-33.79482	5.043922E-006	-0.0091356	8
	2	2	630984.4	2464.89	-1473.797	1	2871.892	-30.87588	4.013212E-006	-0.0093249	8
	3	2	501234.4	2706.116	-1433.776	1	3062.479	-27.9159	-1.795159E-006	-0.0082633	8
	4	3	398109.4	2935.161	-1394.733	1	3249.684	-25.41618	1.223216E-006	-0.0088897	8
	5	3	316265.6	3136.293	-1335.249	1	3408.698	-23.06144	3.536236E-007	-0.0088439	8
	6	3	251203.1	3353.867	-1275.536	1	3588.233	-20.82271	-3.22428E-006	-0.0080601	8
	7	4	199546.9	3521.197	-1208.233	1	3722.721	-18.9387	1.595245E-006	-0.0089575	8
	8	4	158578.1	3690.23	-1171.828	1	3871.818	-17.61718	-3.156996E-006	-0.008079	8
	9	4	125953.1	3864.47	-1099.304	1	4017.785	-15.87916	1.103816E-006	-0.0105083	7
	10	5	100078.1	3999.043	-1064.225	1	4138.227	-14.90216	3.357581E-011	-0.0087757	7
	11	5	79453.13	4134.107	-1048.387	1	4264.969	-14.22991	7.123548E-008	-0.008865	7
	12	5	63140.62	4263.113	-1042.731	1	4388.783	-13.74435	-3.587132E-008	-0.0087057	7
	13	6	50203.12	4390.442	-1048.208	1	4513.836	-13.42787	-2.537302E-008	-0.0086256	7
	14	6	39890.62	4518.567	-1062.634	1	4641.836	-13.23381	-3.679954E-008	-0.0087173	7
	15	6	31640.63	4653.739	-1089.208	1	4779.504	-13.17296	-1.468872E-008	-0.0086875	7
	16	7	25171.88	4787.99	-1125.251	1	4918.439	-13.22538	1.859706E-008	-0.0088065	7
	17	7	20015.62	4927.643	-1171.486	1	5064.982	-13.37311	-1.000933E-009	-0.0087914	7
	18	7	15890.62	5075.877	-1228.886	1	5222.518	-13.60962	-4.242846E-008	-0.0087007	7
	19	8	12609.37	5227.636	-1297.905	1	5386.347	-13.94333	-2.365714E-008	-0.0087274	7
	20	8	10078.13	5380.285	-1376.103	1	5553.479	-14.34685	7.535322E-008	-0.0088661	7
	21	8	8015.625	5538.182	-1470.139	1	5729.989	-14.86659	-3.559626E-008	-0.0087228	7
	22	8	6328.125	5706.303	-1590.311	1	5923.764	-15.57282	5.557398E-008	-0.0087456	7
	23	9	5015.625	5873.063	-1727.634	1	6121.894	-16.3919	-3.756724E-008	-0.0086855	7
	24	9	3984.375	6045.429	-1898.995	1	6336.67	-17.43859	2.697453E-008	-0.0087616	7
	25	9	3170.956	6215.047	-2107.932	1	6562.788	-18.73518	-4.087346E-008	-0.0087082	7
	26	10	2527.573	6388.59	-2364.36	1	6812.069	-20.30906	5.656045E-008	-0.0087488	7
	27	10	1976.103	6575.197	-2703.953	1	7109.471	-22.35419	7.420942E-008	-0.0088786	7
	28	10	1577.524	6756.832	-3104.754	1	7436.012	-24.67871	-1.838682E-010	-0.0087091	7
	29	11	1265.625	6935.97	-3579.68	1	7805.241	-27.29843	-3.92112E-008	-0.0087126	7
	30	11	998.264	7138.165	-4234.413	1	8299.617	-30.67673	7.099706E-008	-0.0088824	7
	31	11	796.875	7345.942	-5012.542	1	8893.169	-34.30788	-2.344405E-008	-0.0086443	7
	32	12	627.7902	7597.397	-6025.477	1	9696.74	-38.41785	1.303936E-009	-0.0086703	6
	33	12	505.5147	7856.637	-7176.113	1	10640.65	-42.40802	2.01613E-009	-0.0088143	6
	34	12	397.9953	8183.34	-8748.795	1	11979.5	-46.9127	9.549124E-010	-0.0087355	6
	35	13	315.5048	8567.271	-10647.19	1	13666.04	-51.17808	1.195148E-009	-0.0087321	6
	36	13	252.4038	9011.708	-12896.37	1	15733	-55.05497	1.25898E-009	-0.0087401	6
	37	13	198.6229	9596.33	-15875.1	1	18550.16	-58.84749	4.698214E-010	-0.0087344	6
	38	14	158.3615	10285.7	-19348.48	1	21912.54	-62.00477	1.040044E-009	-0.0087361	6
	39	14	125.558	11164.94	-23728.57	1	26224.05	-64.80174	4.24813E-010	-0.0087392	6
	40	14	100.4464	12285.06	-28870.18	1	31375.31	-66.94891	9.670437E-010	-0.008737	6
	41	15	79.00281	13772.06	-35748.63	1	38309.71	-68.93097	1.249482E-009	-0.0087425	6
	42	15	63.3446	15083.59	-43612.97	1	46147.65	-70.922	3.500454E-010	-0.008742	6
	43	15	49.86702	17572.28	-53493.65	1	56305.91	-71.81502	7.225927E-010	-0.00874	6
	44	16	39.72458	20910.87	-65248.22	1	68517.12	-72.23029	3.670774E-010	-0.008736	6
	45	16	31.6723	24776.46	-79508.05	1	83279.06	-72.69181	7.73609E-010	-0.0087409	6
	46	16	24.93351	30271.22	-97344.1	1	101942.3	-72.72581	6.249478E-010	-0.0087411	6
	47	17	19.86229	36807.09	-118042.1	1	123647.5	-72.68183	7.285907E-010	-0.0087383	5
	48	17	15.83615	46491.04	-142050.4	1	149464.8	-71.87747	8.377766E-010	-0.0087459	5
	49	17	12.40079	56617.62	-174384	1	183344.9	-72.01283	-8.993319E-010	-0.0087452	5
	50	18	9.93114	73322.76	-209490.3	1	221951.4	-70.70967	-3.230462E-010	-0.0087353	5
	51	18	7.944915	92810.02	-248989.2	1	265724.1	-69.5572	-2.021327E-011	-0.0087493	5
	52	19	6.317385	118063.7	-296987.6	1	319594.5	-68.32033	1.629727E-010	-0.0087475	5
	53	19	5.008013	151643.5	-352276.6	1	383529	-66.70971	-1.651312E-011	-0.0087513	5
	54	21	3.945707	194625.1	-415589.5	1	458904.8	-64.90579	1.840842E-010	-0.0087421	5
	55	22	3.158693	244902.1	-481344.3	1	540064.3	-63.03356	-6.478368E-011	-0.0087361	5
	56	24	2.504006	307209.4	-554890	1	634255.9	-61.02932	-6.446926E-011	-0.0087432	5
	57	25	1.998082	378808.4	-630295.7	1	735369.6	-58.99408	1.577845E-010	-0.0087003	5
	58	26	1.584686	459956.6	-713814.4	1	849170.8	-57.2037	1.397549E-010	-0.008725	5
	59	28	1.266892	548613.4	-797139.6	1	967682	-55.46318	7.974027E-011	-0.0087673	5
	60	31	0.999041	653357.9	-894673.4	1	1107843	-53.86027	4.906525E-012	-0.0088447	4
