EXPLAIN
TAG	EISPOT
TITLE	LABEL	Potentiostatic EIS	Test &Identifier
DATE	LABEL	5/26/2020	Date
TIME	LABEL	18:24:09	Time
NOTES	NOTES	1	&Notes...
	
PSTAT	PSTAT	REF600-11020	Potentiostat
VDC	POTEN	0.00000E+000	T	DC &Voltage (V)
FREQINIT	QUANT	1.00000E+006	Initial Fre&q. (Hz)
FREQFINAL	QUANT	1.00000E+000	Final Fre&q. (Hz)
PTSPERDEC	QUANT	1.00000E+001	Points/&decade
VAC	QUANT	2.50000E+001	AC &Voltage (mV rms)
AREA	QUANT	5.00000E-004	&Area (cm^2)
CONDIT	TWOPARAM	F	5.00000E+000	0.00000E+000	Conditionin&g	Time(s)	E(V)
DELAY	TWOPARAM	T	3.00000E+000	0.00000E+000	Init. De&lay	Time(s)	Stab.(mV/s)
SPEED	SELECTOR	0	&Optimize for:
ZGUESS	QUANT	1.00000E+003	E&stimated Z (ohms)
OCVCURVE	TABLE	12
	Pt	T	Vf	Vm	Ach	Over
	#	s	V vs. Ref.	V	V	bits
	0	0.258333	1.07145E-001	1.07145E-001	5.79197E-004	...........
	1	0.516667	1.07145E-001	1.07135E-001	5.82930E-004	...........
	2	0.775	1.07144E-001	1.07121E-001	5.80397E-004	...........
	3	1.03333	1.07140E-001	1.07107E-001	5.79197E-004	...........
	4	1.29167	1.07132E-001	1.07091E-001	5.80997E-004	...........
	5	1.55	1.07121E-001	1.07087E-001	5.78763E-004	...........
	6	1.80833	1.07109E-001	1.07074E-001	5.82730E-004	...........
	7	2.06667	1.07097E-001	1.07066E-001	5.85963E-004	...........
	8	2.325	1.07086E-001	1.07057E-001	5.82930E-004	...........
	9	2.58333	1.07076E-001	1.07045E-001	5.77430E-004	...........
	10	2.84167	1.07066E-001	1.07036E-001	5.73097E-004	...........
	11	3.1	1.07056E-001	1.07024E-001	5.79330E-004	...........
EOC	QUANT	0.1070563	Open Circuit (V)
PSTATMODEL	IQUANT	4	Pstat Model
PSTATSECTION	LABEL	REF600-11020	Pstat Section
PSTATSERIALNO	LABEL	11020	Pstat Serial Number
CTRLMODE	IQUANT	1	Control Mode
IESTAB	IQUANT	0	I/E Stability
CASPEED	IQUANT	1	Control Amp Speed
CONVENTION	IQUANT	1	Current Convention
ICHRANGE	IQUANT	2	Ich Range
ICHRANGEMODE	TOGGLE	F	Ich Auto Range
ICHOFFSETENABLE	TOGGLE	T	Ich Offset Enable
ICHOFFSET	QUANT	0	Ich Offset (V)
ICHFILTER	IQUANT	3	Ich Filter
VCHRANGE	IQUANT	2	Vch Range
VCHRANGEMODE	TOGGLE	F	Vch Auto Range
VCHOFFSETENABLE	TOGGLE	T	Vch Offset Enable
VCHOFFSET	QUANT	0	Vch Offset (V)
VCHFILTER	IQUANT	3	Vch Filter
ACHRANGE	IQUANT	2	Ach Range
ACHOFFSETENABLE	TOGGLE	F	Ach Offset Enable
ACHOFFSET	QUANT	0	Ach Offset (V)
ACHFILTER	IQUANT	3	Ach Filter
IERANGELOWERLIMIT	IQUANT	1	I/E Range Lower Limit
IERANGEMODE	TOGGLE	F	I/E AutoRange
IERANGE	IQUANT	8	I/E Range
POSFEEDENABLE	TOGGLE	F	Positive Feedback IR Comp
POSFEEDRESISTANCE	QUANT	0	Positive Feedback Resistance (ohm)
ACHSELECT	IQUANT	0	Ach Select
CABLEID	IQUANT	14	Cable ID
DCCALDATE	LABEL	2/27/2020	DC Calibration Date
ACCALDATE	LABEL	2/27/2020	AC Calibration Date
THERMOSELECT	IQUANT	1	Thermo Select
FRAMEWORKVERSION	QUANT	6.33	Framework Version
INSTRUMENTVERSION	LABEL	3.50	Instrument Version
ZCURVE	TABLE
	Pt	Time	Freq	Zreal	Zimag	Zsig	Zmod	Zphz	Idc	Vdc	IERange
	#	s	Hz	ohm	ohm	V	ohm	°	A	V	#
	0	1	1000078	1578.515	-1319.536	1	2057.397	-39.89342	1.168207E-007	0.1092453	8
	1	2	794390.6	1780.462	-1405.06	1	2268.091	-38.27892	3.571917E-008	0.1089713	8
	2	2	630984.4	1990.105	-1488.679	1	2485.293	-36.79798	6.507744E-008	0.1088556	8
	3	2	501234.4	2208.601	-1572.724	1	2711.343	-35.45432	5.600245E-008	0.1087684	8
	4	3	398109.4	2435.399	-1665.296	1	2950.318	-34.36384	6.063822E-008	0.1087201	8
	5	3	316265.6	2672.113	-1757.753	1	3198.418	-33.33747	2.345955E-008	0.1087143	8
	6	3	251203.1	2919.249	-1862.128	1	3462.591	-32.53295	4.96423E-008	0.1086871	8
	7	4	199546.9	3183.575	-1984.401	1	3751.399	-31.9363	3.038924E-008	0.1086861	8
	8	4	158578.1	3460.196	-2101.93	1	4048.588	-31.277	4.739285E-008	0.1086834	8
	9	4	125953.1	3810.835	-2192.791	1	4396.681	-29.91653	6.129977E-009	0.1086324	7
	10	5	100078.1	4117.407	-2332.078	1	4731.979	-29.527	1.923127E-009	0.1086169	7
	11	5	79453.13	4459.793	-2495.089	1	5110.306	-29.2254	2.13723E-009	0.1086142	7
	12	5	63140.62	4832.277	-2659.363	1	5515.715	-28.82545	1.793508E-009	0.1086124	7
	13	5	50203.12	5233.394	-2818.992	1	5944.335	-28.30933	1.45912E-009	0.1086031	7
	14	6	39890.62	5658.382	-2975.37	1	6392.974	-27.73692	2.313866E-009	0.1086058	7
	15	6	31640.63	6112.837	-3128.579	1	6866.934	-27.10358	2.234183E-009	0.1086052	7
	16	6	25171.88	6577.856	-3272.28	1	7346.837	-26.44892	2.941768E-009	0.1086024	7
	17	7	20015.62	7054.681	-3410.14	1	7835.661	-25.79851	1.878962E-009	0.1085964	7
	18	7	15890.62	7539.245	-3556.412	1	8335.963	-25.25418	3.278687E-009	0.1085992	7
	19	7	12609.37	8025.75	-3710.109	1	8841.808	-24.80995	2.581872E-009	0.1085937	7
	20	8	10078.13	8558.149	-3791.761	1	9360.522	-23.89615	5.497314E-010	0.1086397	6
	21	8	8015.625	9031.113	-4007.976	1	9880.53	-23.93148	7.60712E-010	0.1086433	6
	22	8	6328.125	9527.04	-4274.122	1	10441.87	-24.16247	4.923926E-010	0.1086417	6
	23	9	5015.625	10021.22	-4592.443	1	11023.4	-24.62066	5.092556E-010	0.1086375	6
	24	9	3984.375	10522.02	-4976.771	1	11639.64	-25.3135	5.056671E-010	0.1086396	6
	25	9	3170.956	11032.49	-5450.063	1	12305.24	-26.28943	4.806702E-010	0.1086386	6
	26	10	2527.573	11566.41	-6035.176	1	13046.27	-27.55487	5.095614E-010	0.1086368	6
	27	10	1976.103	12197.99	-6830.683	1	13980.31	-29.24815	5.162911E-010	0.1086385	6
	28	10	1577.524	12847.85	-7733.743	1	14995.93	-31.04577	2.989187E-010	0.1086355	6
	29	11	1265.625	13581.15	-8796.963	1	16181.29	-32.93248	4.301875E-010	0.1086367	6
	30	11	998.264	14540.84	-10175.77	1	17747.74	-34.98458	4.80366E-010	0.1086327	6
	31	11	796.875	15653.28	-11714.55	1	19551.37	-36.81032	5.053338E-010	0.1086371	6
	32	11	627.7902	17125.11	-13573.54	1	21852.01	-38.40071	4.796707E-010	0.1086345	6
	33	12	505.5147	18773.21	-15443.57	1	24309.2	-39.44204	4.17032E-010	0.1086352	6
	34	12	397.9953	20986.15	-17644.4	1	27417.94	-40.05591	4.682667E-010	0.1086532	6
	35	12	315.5048	23530.2	-19853.66	1	30786.97	-40.15607	4.262105E-010	0.1086518	6
	36	13	252.4038	26297.41	-21977.56	1	34271.95	-39.88655	3.514749E-010	0.1086462	6
	37	13	198.6229	29522.48	-24223.76	1	38188.58	-39.36953	4.354656E-010	0.1086467	6
	38	13	158.3615	32700.7	-26369.21	1	42007.99	-38.88204	3.272181E-010	0.1086453	6
	39	14	125.558	35927.08	-28664.56	1	45960.98	-38.58475	3.331698E-010	0.1086435	6
	40	14	100.4464	38945.45	-31169.28	1	49882.58	-38.67139	2.60687E-010	0.1086437	6
	41	14	79.00281	42072.43	-34444.75	1	54373.99	-39.30723	2.888818E-010	0.1086377	6
	42	15	63.3446	44852.46	-38235.68	1	58938.19	-40.44683	2.499143E-010	0.1086335	6
	43	15	49.86702	47782.13	-43461.13	1	64591.03	-42.28868	4.344303E-010	0.1086292	6
	44	15	39.72458	50642.16	-49857.88	1	71066.42	-44.55289	4.752752E-010	0.1086292	6
	45	16	31.6723	53665.09	-57938.97	1	78973.84	-47.19307	5.793698E-010	0.1086297	6
	46	16	24.93351	57302.49	-68739.91	1	89491.63	-50.18497	3.164002E-010	0.1086339	6
	47	16	19.86229	61251.48	-81513.43	1	101961.7	-53.07777	6.617986E-010	0.108645	5
	48	17	15.83615	66240.05	-97361.9	1	117758.6	-55.77063	-2.679269E-010	0.108633	5
	49	17	12.40079	72995.14	-118336	1	139038.5	-58.33179	6.314251E-010	0.1086294	5
	50	17	9.93114	80628.63	-141514.3	1	162872	-60.32741	5.769822E-010	0.1086403	5
	51	18	7.944915	90580.84	-169578.7	1	192254.6	-61.891	-3.412778E-010	0.1086365	5
	52	18	6.317385	103544.8	-204045.7	1	228814.7	-63.09408	1.066694E-010	0.1086223	5
	53	19	5.008013	120448	-245673	1	273611	-63.88232	2.402731E-010	0.1086364	5
	54	20	3.945707	142508.2	-295962.5	1	328485	-64.28883	-1.127054E-010	0.1086341	5
	55	21	3.158693	169052.8	-351234	1	389800.2	-64.29798	1.718168E-010	0.1086362	5
	56	22	2.504006	203130.4	-417888.9	1	464643	-64.07621	1.46266E-010	0.1086354	5
	57	23	1.998082	244805.8	-492409.2	1	549906.1	-63.56531	-1.843331E-011	0.1085939	5
	58	24	1.584686	295640.6	-579583.8	1	650631	-62.97427	4.698559E-011	0.1086175	5
	59	26	1.266892	357589.5	-674326.3	1	763273.4	-62.06337	9.933509E-011	0.1086512	5
	60	29	0.999041	437060	-789589.9	1	902482	-61.03425	1.301711E-010	0.1086736	5
