EXPLAIN
TAG	EISPOT
TITLE	LABEL	Potentiostatic EIS	Test &Identifier
DATE	LABEL	1/10/2020	Date
TIME	LABEL	12:53:41	Time
NOTES	NOTES	5	&Notes...
	
	
	
	
	
PSTAT	PSTAT	REF600-11020	Potentiostat
VDC	POTEN	0.00000E+000	T	DC &Voltage (V)
FREQINIT	QUANT	1.00000E+006	Initial Fre&q. (Hz)
FREQFINAL	QUANT	1.00000E+000	Final Fre&q. (Hz)
PTSPERDEC	QUANT	1.00000E+001	Points/&decade
VAC	QUANT	2.50000E+001	AC &Voltage (mV rms)
AREA	QUANT	1.00000E-001	&Area (cm^2)
CONDIT	TWOPARAM	T	5.00000E+000	0.00000E+000	Conditionin&g	Time(s)	E(V)
DELAY	TWOPARAM	T	5.00000E+000	0.00000E+000	Init. De&lay	Time(s)	Stab.(mV/s)
SPEED	SELECTOR	0	&Optimize for:
ZGUESS	QUANT	5.00000E+002	E&stimated Z (ohms)
OCVCURVE	TABLE	19
	Pt	T	Vf	Vm	Ach	Over
	#	s	V vs. Ref.	V	V	bits
	0	0.258333	-9.13267E-003	-9.13267E-003	6.39613E-004	...........
	1	0.516667	-9.15260E-003	-1.01763E-002	6.34613E-004	...........
	2	0.775	-9.26681E-003	-1.07353E-002	6.35580E-004	...........
	3	1.03333	-9.56002E-003	-1.11377E-002	6.41446E-004	...........
	4	1.29167	-1.00364E-002	-1.23530E-002	6.42580E-004	...........
	5	1.55	-1.06433E-002	-1.28286E-002	6.43046E-004	...........
	6	1.80833	-1.13285E-002	-1.31456E-002	6.46113E-004	...........
	7	2.06667	-1.20157E-002	-1.36435E-002	6.42980E-004	...........
	8	2.325	-1.26294E-002	-1.42066E-002	6.42246E-004	...........
	9	2.58333	-1.31544E-002	-1.42509E-002	6.44946E-004	...........
	10	2.84167	-1.36084E-002	-1.47724E-002	6.41746E-004	...........
	11	3.1	-1.40063E-002	-1.52208E-002	6.46580E-004	...........
	12	3.35833	-1.43788E-002	-1.55804E-002	6.41480E-004	...........
	13	3.61667	-1.47645E-002	-1.62583E-002	6.38313E-004	...........
	14	3.875	-1.51891E-002	-1.67952E-002	6.45280E-004	...........
	15	4.13333	-1.56618E-002	-1.71331E-002	6.31813E-004	...........
	16	4.39167	-1.61610E-002	-1.74805E-002	6.38780E-004	...........
	17	4.65	-1.66388E-002	-1.77594E-002	6.38613E-004	...........
	18	4.90833	-1.70642E-002	-1.82985E-002	6.42546E-004	...........
EOC	QUANT	-0.0170642	Open Circuit (V)
PSTATMODEL	IQUANT	4	Pstat Model
PSTATSECTION	LABEL	REF600-11020	Pstat Section
PSTATSERIALNO	LABEL	11020	Pstat Serial Number
CTRLMODE	IQUANT	1	Control Mode
IESTAB	IQUANT	0	I/E Stability
CASPEED	IQUANT	1	Control Amp Speed
CONVENTION	IQUANT	1	Current Convention
ICHRANGE	IQUANT	2	Ich Range
ICHRANGEMODE	TOGGLE	F	Ich Auto Range
ICHOFFSETENABLE	TOGGLE	T	Ich Offset Enable
ICHOFFSET	QUANT	0	Ich Offset (V)
ICHFILTER	IQUANT	3	Ich Filter
VCHRANGE	IQUANT	2	Vch Range
VCHRANGEMODE	TOGGLE	F	Vch Auto Range
VCHOFFSETENABLE	TOGGLE	T	Vch Offset Enable
VCHOFFSET	QUANT	0	Vch Offset (V)
VCHFILTER	IQUANT	3	Vch Filter
ACHRANGE	IQUANT	2	Ach Range
ACHOFFSETENABLE	TOGGLE	F	Ach Offset Enable
ACHOFFSET	QUANT	0	Ach Offset (V)
ACHFILTER	IQUANT	3	Ach Filter
IERANGELOWERLIMIT	IQUANT	1	I/E Range Lower Limit
IERANGEMODE	TOGGLE	F	I/E AutoRange
IERANGE	IQUANT	7	I/E Range
POSFEEDENABLE	TOGGLE	F	Positive Feedback IR Comp
POSFEEDRESISTANCE	QUANT	0	Positive Feedback Resistance (ohm)
ACHSELECT	IQUANT	0	Ach Select
CABLEID	IQUANT	14	Cable ID
DCCALDATE	LABEL	12/22/2019	DC Calibration Date
ACCALDATE	LABEL	12/22/2019	AC Calibration Date
THERMOSELECT	IQUANT	1	Thermo Select
FRAMEWORKVERSION	QUANT	6.33	Framework Version
INSTRUMENTVERSION	LABEL	3.50	Instrument Version
ZCURVE	TABLE
	Pt	Time	Freq	Zreal	Zimag	Zsig	Zmod	Zphz	Idc	Vdc	IERange
	#	s	Hz	ohm	ohm	V	ohm	°	A	V	#
	0	1	1000078	2083.936	-1437.276	1	2531.512	-34.59375	-2.815721E-006	-0.014063	8
	1	1	794390.6	2370.141	-1396.922	1	2751.174	-30.5144	2.402723E-006	-0.0153693	8
	2	2	630984.4	2627.223	-1302.257	1	2932.264	-26.36662	-2.548102E-006	-0.0147149	8
	3	2	501234.4	2846.243	-1195.69	1	3087.195	-22.78699	-2.476944E-006	-0.014767	8
	4	2	398109.4	3024.474	-1070.971	1	3208.492	-19.49913	1.412947E-006	-0.0156009	8
	5	3	316265.6	3167.161	-954.644	1	3307.908	-16.77383	-3.071243E-006	-0.0147522	8
	6	3	251203.1	3289.792	-842.4228	1	3395.94	-14.36319	3.033199E-007	-0.0154365	8
	7	3	199546.9	3367.081	-745.9733	1	3448.726	-12.49204	4.838836E-007	-0.015528	8
	8	4	158578.1	3444.014	-672.3616	1	3509.031	-11.04669	3.603672E-006	-0.0160086	8
	9	4	125953.1	3519.6	-594.0703	1	3569.384	-9.5806	9.021666E-007	-0.0173057	7
	10	4	100078.1	3558.352	-548.5541	1	3600.386	-8.763706	-2.88672E-008	-0.0154252	7
	11	5	79453.13	3606.522	-529.8873	1	3645.241	-8.358365	-5.564023E-009	-0.0154062	7
	12	5	63140.62	3651.777	-524.1737	1	3689.205	-8.168404	-2.090357E-008	-0.0154476	7
	13	5	50203.12	3697.971	-531.1415	1	3735.921	-8.173521	4.604617E-008	-0.0155773	7
	14	5	39890.62	3745.656	-549.3791	1	3785.731	-8.344134	-3.789654E-008	-0.0153918	7
	15	6	31640.63	3797.765	-581.5226	1	3842.029	-8.705644	-2.856248E-008	-0.0154363	7
	16	6	25171.88	3852.047	-626.4291	1	3902.65	-9.236719	1.980977E-008	-0.0155159	7
	17	6	20015.62	3912.354	-685.1636	1	3971.896	-9.93338	2.777745E-009	-0.0154382	7
	18	7	15890.62	3980.214	-758.2625	1	4051.798	-10.78605	-4.101791E-010	-0.0154458	7
	19	7	12609.37	4055.66	-847.2473	1	4143.212	-11.79967	1.09023E-008	-0.0154625	7
	20	7	10078.13	4138.744	-952.239	1	4246.877	-12.95707	2.877737E-009	-0.0154404	7
	21	8	8015.625	4234.028	-1077.536	1	4368.99	-14.27834	3.120006E-009	-0.0154394	7
	22	8	6328.125	4342.836	-1228.715	1	4513.31	-15.79776	-3.62963E-008	-0.0153947	7
	23	8	5015.625	4464.058	-1405.796	1	4680.179	-17.47997	-2.687626E-008	-0.0154367	7
	24	9	3984.375	4598.705	-1615.655	1	4874.262	-19.35782	-7.311084E-009	-0.0153916	7
	25	9	3170.956	4748.556	-1854.071	1	5097.682	-21.32813	-3.849347E-008	-0.0153987	7
	26	9	2527.573	4917.645	-2136.176	1	5361.574	-23.47964	-4.1716E-009	-0.0154256	7
	27	10	1976.103	5127.361	-2499.954	1	5704.35	-25.99253	-2.309449E-008	-0.0154411	7
	28	10	1577.524	5345.646	-2886.918	1	6075.379	-28.37128	-2.796544E-008	-0.0154421	7
	29	10	1265.625	5583.229	-3347.444	1	6509.825	-30.94494	-2.160471E-008	-0.0154399	7
	30	11	998.264	5882.195	-3921.414	1	7069.491	-33.68974	1.718496E-008	-0.0155364	7
	31	11	796.875	6204.932	-4575.13	1	7709.28	-36.40275	1.997674E-008	-0.0155193	7
	32	11	627.7902	6602.049	-5398.835	1	8528.451	-39.27464	-8.415225E-009	-0.0154683	7
	33	12	505.5147	7011.73	-6283.668	1	9415.352	-41.86559	8.433726E-011	-0.0154173	7
	34	12	397.9953	7543.773	-7434.99	1	10591.86	-44.5839	2.167156E-009	-0.0154559	6
	35	12	315.5048	8143.693	-8772.58	1	11969.87	-47.12907	1.935244E-009	-0.0154593	6
	36	13	252.4038	8801.675	-10291.15	1	13541.69	-49.46074	2.225758E-009	-0.0154649	6
	37	13	198.6229	9608.43	-12230.26	1	15553.18	-51.84586	1.540131E-009	-0.0154673	6
	38	13	158.3615	10480.25	-14410.76	1	17818.68	-53.97342	2.154205E-009	-0.015468	6
	39	14	125.558	11467.6	-17091.52	1	20582.18	-56.14027	2.051521E-009	-0.0154693	6
	40	14	100.4464	12533.2	-20189.47	1	23763.33	-58.16887	1.345403E-009	-0.0154683	6
	41	14	79.00281	13781.84	-24302.67	1	27938.49	-60.44278	1.015452E-009	-0.015473	6
	42	15	63.3446	14972.97	-28641.88	1	32319.45	-62.40101	1.618343E-009	-0.015476	6
	43	15	49.86702	16696.77	-34804.33	1	38602.12	-64.37144	2.338282E-009	-0.0154773	6
	44	15	39.72458	18482.62	-42150.46	1	46024.65	-66.32296	2.349224E-009	-0.015474	6
	45	16	31.6723	20718.1	-50995.93	1	55043.84	-67.88959	2.263174E-009	-0.015476	6
	46	16	24.93351	23616.05	-62318.87	1	66643.52	-69.24554	1.592422E-009	-0.0154761	6
	47	16	19.86229	27074.99	-75624.21	1	80324.82	-70.30161	2.780467E-009	-0.0154675	6
	48	16	15.83615	32025.76	-91205.73	1	96665.1	-70.65191	2.749912E-009	-0.0154696	6
	49	17	12.40079	38358.5	-112512.6	1	118871.6	-71.17441	2.389225E-009	-0.0154758	5
	50	17	9.93114	45629.41	-136563.6	1	143985	-71.5242	1.129984E-009	-0.0154795	5
	51	18	7.944915	55204	-164609.8	1	173619.9	-71.46046	8.005954E-010	-0.0154763	5
	52	18	6.317385	67997.3	-198529.3	1	209851.2	-71.09341	8.074273E-010	-0.0154696	5
	53	19	5.008013	85223.63	-239767	1	254462.8	-70.43258	8.990996E-010	-0.0154863	5
	54	20	3.945707	108089.1	-289000.1	1	308551.9	-69.49366	7.038525E-010	-0.0154798	5
	55	22	3.158693	135988	-343122.9	1	369088.2	-68.38037	8.898747E-010	-0.01546	5
	56	23	2.504006	172773.2	-407675	1	442774.8	-67.03271	7.911571E-010	-0.0154789	5
	57	24	1.998082	216732.3	-477972.1	1	524814.5	-65.60849	9.330356E-010	-0.0154481	5
	58	26	1.584686	273338.2	-561555.1	1	624546.2	-64.04539	9.722231E-010	-0.0154321	5
	59	28	1.266892	337639.3	-648699.6	1	731308	-62.50364	9.078399E-010	-0.0154685	5
	60	30	0.999041	422269.2	-750608.3	1	861234.1	-60.63923	8.872349E-010	-0.0154994	5
