EXPLAIN
TAG	EISPOT
TITLE	LABEL	Potentiostatic EIS	Test &Identifier
DATE	LABEL	1/10/2020	Date
TIME	LABEL	13:02:30	Time
NOTES	NOTES	5	&Notes...
	
	
	
	
	
PSTAT	PSTAT	REF600-11020	Potentiostat
VDC	POTEN	0.00000E+000	T	DC &Voltage (V)
FREQINIT	QUANT	1.00000E+006	Initial Fre&q. (Hz)
FREQFINAL	QUANT	1.00000E+000	Final Fre&q. (Hz)
PTSPERDEC	QUANT	1.00000E+001	Points/&decade
VAC	QUANT	2.50000E+001	AC &Voltage (mV rms)
AREA	QUANT	1.00000E-001	&Area (cm^2)
CONDIT	TWOPARAM	T	5.00000E+000	0.00000E+000	Conditionin&g	Time(s)	E(V)
DELAY	TWOPARAM	T	5.00000E+000	0.00000E+000	Init. De&lay	Time(s)	Stab.(mV/s)
SPEED	SELECTOR	0	&Optimize for:
ZGUESS	QUANT	5.00000E+002	E&stimated Z (ohms)
OCVCURVE	TABLE	19
	Pt	T	Vf	Vm	Ach	Over
	#	s	V vs. Ref.	V	V	bits
	0	0.258333	5.45275E-003	5.45275E-003	6.89046E-004	...........
	1	0.516667	5.45440E-003	5.53921E-003	6.82379E-004	...........
	2	0.775	5.46490E-003	5.64002E-003	6.91046E-004	...........
	3	1.03333	5.49439E-003	5.66220E-003	6.91846E-004	...........
	4	1.29167	5.54493E-003	5.77206E-003	6.89946E-004	...........
	5	1.55	5.60971E-003	5.85822E-003	6.93046E-004	...........
	6	1.80833	5.68315E-003	5.93339E-003	6.92046E-004	...........
	7	2.06667	5.76297E-003	6.02871E-003	6.93012E-004	...........
	8	2.325	5.84657E-003	6.10387E-003	6.88412E-004	...........
	9	2.58333	5.93168E-003	6.20485E-003	6.87079E-004	...........
	10	2.84167	6.01796E-003	6.30081E-003	6.93112E-004	...........
	11	3.1	6.10699E-003	6.41601E-003	6.88179E-004	...........
	12	3.35833	6.20118E-003	6.53191E-003	6.95046E-004	...........
	13	3.61667	6.30135E-003	6.59809E-003	6.87546E-004	...........
	14	3.875	6.40329E-003	6.66016E-003	6.85446E-004	...........
	15	4.13333	6.49933E-003	6.75384E-003	6.86912E-004	...........
	16	4.39167	6.58603E-003	6.83620E-003	6.90546E-004	...........
	17	4.65	6.66672E-003	6.89542E-003	6.86712E-004	...........
	18	4.90833	6.74492E-003	6.97648E-003	6.86112E-004	...........
EOC	QUANT	0.0067449	Open Circuit (V)
PSTATMODEL	IQUANT	4	Pstat Model
PSTATSECTION	LABEL	REF600-11020	Pstat Section
PSTATSERIALNO	LABEL	11020	Pstat Serial Number
CTRLMODE	IQUANT	1	Control Mode
IESTAB	IQUANT	0	I/E Stability
CASPEED	IQUANT	1	Control Amp Speed
CONVENTION	IQUANT	1	Current Convention
ICHRANGE	IQUANT	2	Ich Range
ICHRANGEMODE	TOGGLE	F	Ich Auto Range
ICHOFFSETENABLE	TOGGLE	T	Ich Offset Enable
ICHOFFSET	QUANT	0	Ich Offset (V)
ICHFILTER	IQUANT	3	Ich Filter
VCHRANGE	IQUANT	2	Vch Range
VCHRANGEMODE	TOGGLE	F	Vch Auto Range
VCHOFFSETENABLE	TOGGLE	T	Vch Offset Enable
VCHOFFSET	QUANT	0	Vch Offset (V)
VCHFILTER	IQUANT	3	Vch Filter
ACHRANGE	IQUANT	2	Ach Range
ACHOFFSETENABLE	TOGGLE	F	Ach Offset Enable
ACHOFFSET	QUANT	0	Ach Offset (V)
ACHFILTER	IQUANT	3	Ach Filter
IERANGELOWERLIMIT	IQUANT	1	I/E Range Lower Limit
IERANGEMODE	TOGGLE	F	I/E AutoRange
IERANGE	IQUANT	7	I/E Range
POSFEEDENABLE	TOGGLE	F	Positive Feedback IR Comp
POSFEEDRESISTANCE	QUANT	0	Positive Feedback Resistance (ohm)
ACHSELECT	IQUANT	0	Ach Select
CABLEID	IQUANT	14	Cable ID
DCCALDATE	LABEL	12/22/2019	DC Calibration Date
ACCALDATE	LABEL	12/22/2019	AC Calibration Date
THERMOSELECT	IQUANT	1	Thermo Select
FRAMEWORKVERSION	QUANT	6.33	Framework Version
INSTRUMENTVERSION	LABEL	3.50	Instrument Version
ZCURVE	TABLE
	Pt	Time	Freq	Zreal	Zimag	Zsig	Zmod	Zphz	Idc	Vdc	IERange
	#	s	Hz	ohm	ohm	V	ohm	°	A	V	#
	0	1	1000078	2256.834	-1311.626	1	2610.299	-30.16428	-5.668983E-006	0.0095791	8
	1	1	794390.6	2436.923	-1328.096	1	2775.326	-28.58988	-3.622582E-007	0.0091459	8
	2	2	630984.4	2585.502	-1312.44	1	2899.538	-26.91304	1.321525E-006	0.0083238	8
	3	2	501234.4	2714.768	-1331.512	1	3023.721	-26.12657	4.392015E-007	0.0083	8
	4	2	398109.4	2840.943	-1385.278	1	3160.688	-25.99442	-1.952046E-006	0.0087689	8
	5	3	316265.6	2956.465	-1473.716	1	3303.411	-26.49499	-8.690428E-007	0.0085478	8
	6	3	251203.1	3078.73	-1617.928	1	3477.969	-27.72274	-3.27165E-008	0.008442	8
	7	3	199546.9	3210.513	-1812.708	1	3686.909	-29.44978	-1.789029E-006	0.008711	8
	8	3	158578.1	3359.682	-2059.318	1	3940.591	-31.50622	-8.796395E-007	0.0085557	8
	9	4	125953.1	3568.545	-2365.172	1	4281.186	-33.53575	-4.118997E-007	0.0092029	7
	10	4	100078.1	3816.887	-2765.737	1	4713.59	-35.92729	6.018848E-009	0.008416	7
	11	4	79453.13	4146.079	-3249.25	1	5267.599	-38.08553	5.389099E-008	0.0082597	7
	12	5	63140.62	4587.351	-3795.456	1	5953.929	-39.60349	5.346126E-008	0.0082552	7
	13	5	50203.12	5174.699	-4390.385	1	6786.235	-40.31237	5.339115E-008	0.0082504	7
	14	5	39890.62	5940.944	-4994.798	1	7761.625	-40.05516	8.233163E-008	0.0082252	7
	15	6	31640.63	6908.183	-5545.189	1	8858.449	-38.75396	-9.357256E-009	0.0083157	7
	16	6	25171.88	8048.108	-5972.458	1	10022.09	-36.57891	-6.872221E-009	0.0083192	7
	17	6	20015.62	9322.332	-6198.227	1	11194.82	-33.61911	-6.899108E-009	0.0083184	7
	18	7	15890.62	10639.95	-6167.947	1	12298.46	-30.10074	-8.774211E-009	0.008314	7
	19	7	12609.37	11954.93	-5842.098	1	13306.03	-26.04369	-4.768726E-009	0.0084348	6
	20	7	10078.13	13008.83	-5414.819	1	14090.77	-22.59913	-3.660156E-009	0.0084457	6
	21	8	8015.625	13887.12	-4878.327	1	14719.04	-19.35558	4.933592E-009	0.0082191	6
	22	8	6328.125	14593.25	-4297.025	1	15212.73	-16.40722	3.955188E-009	0.0082204	6
	23	8	5015.625	15107.31	-3775.879	1	15572.03	-14.03286	-7.811983E-010	0.0083134	6
	24	9	3984.375	15470.37	-3346.09	1	15828.09	-12.20452	2.545167E-009	0.0082644	6
	25	9	3170.956	15724.61	-3001.057	1	16008.43	-10.80501	5.709477E-009	0.0083301	6
	26	9	2527.573	15925.82	-2777.141	1	16166.14	-9.89176	1.069636E-008	0.008149	6
	27	10	1976.103	16084.77	-2653.497	1	16302.17	-9.367687	-4.83484E-009	0.0083609	6
	28	10	1577.524	16178.98	-2647.831	1	16394.22	-9.294556	-7.304093E-010	0.0083367	6
	29	10	1265.625	16312.64	-2747.549	1	16542.4	-9.56063	-3.528734E-009	0.0083547	6
	30	11	998.264	16436.42	-2964.988	1	16701.71	-10.22569	1.331552E-009	0.0082659	6
	31	11	796.875	16563.05	-3298.217	1	16888.24	-11.26205	-4.67138E-009	0.0084381	6
	32	11	627.7902	16702.74	-3793.589	1	17128.13	-12.79615	-5.263899E-009	0.0084319	6
	33	11	505.5147	16839.96	-4384.784	1	17401.45	-14.59459	-2.927406E-009	0.0083396	6
	34	12	397.9953	17077.93	-5228.287	1	17860.31	-17.02159	4.974994E-010	0.0083396	6
	35	12	315.5048	17298.81	-6264.917	1	18398.32	-19.9083	1.131556E-009	0.0083389	6
	36	12	252.4038	17555.16	-7514.702	1	19095.93	-23.17394	1.181096E-009	0.008334	6
	37	13	198.6229	17936.55	-9180.286	1	20149.38	-27.10428	3.218099E-010	0.0083349	6
	38	13	158.3615	18357.84	-11142.24	1	21474.63	-31.25555	2.095444E-010	0.0083339	6
	39	13	125.558	18892.31	-13603.3	1	23280.23	-35.75555	6.518637E-010	0.008334	6
	40	14	100.4464	19601.55	-16478.35	1	25607.75	-40.05261	7.991307E-010	0.0083326	6
	41	14	79.00281	20622.62	-20329.71	1	28958.41	-44.59021	1.137862E-009	0.0083319	6
	42	14	63.3446	21518.75	-24567.66	1	32659.25	-48.78496	7.829241E-010	0.0083327	6
	43	15	49.86702	23318.11	-30168.97	1	38130.05	-52.29896	4.188966E-010	0.0083314	6
	44	15	39.72458	25627.12	-36679.9	1	44745.55	-55.05918	1.178765E-009	0.0083309	6
	45	15	31.6723	28518.57	-44305.99	1	52690.89	-57.23171	7.361929E-010	0.0083318	6
	46	16	24.93351	32432.33	-53883.94	1	62891.46	-58.95659	8.979585E-010	0.0083259	6
	47	16	19.86229	37342.37	-64595.26	1	74612.34	-59.96789	2.623647E-009	0.0083347	6
	48	16	15.83615	44753.73	-76913.3	1	88986.24	-59.80606	-3.118488E-009	0.0083252	6
	49	17	12.40079	52965.51	-92274.02	1	106394.7	-60.14407	-1.294427E-009	0.0083272	5
	50	17	9.93114	63078.93	-107797.7	1	124897.2	-59.66553	8.464782E-010	0.0083195	5
	51	18	7.944915	75549.4	-125341.8	1	146349.9	-58.92066	-9.285141E-010	0.008328	5
	52	18	6.317385	91325.89	-144525.4	1	170962	-57.71112	-7.960488E-010	0.0083306	5
	53	19	5.008013	110215.2	-165621.2	1	198941.6	-56.3576	-4.965252E-011	0.0083256	5
	54	20	3.945707	132533.6	-188730	1	230616.9	-54.92196	-4.102823E-010	0.0083103	5
	55	21	3.158693	156055	-211945	1	263199.2	-53.6358	1.60957E-010	0.0083123	5
	56	23	2.504006	182702.5	-237610	1	299731	-52.44269	6.034532E-011	0.0083206	5
	57	24	1.998082	210659	-264830.4	1	338396.7	-51.49955	-3.518952E-010	0.008275	5
	58	26	1.584686	239480.4	-296343.7	1	381012.4	-51.05773	-2.138754E-010	0.0083006	5
	59	28	1.266892	269528.2	-330786.4	1	426690.9	-50.8265	-6.222056E-011	0.00834	5
	60	30	0.999041	303601.8	-375169.1	1	482624	-51.01884	3.236714E-011	0.0083567	5
