EXPLAIN
TAG	EISPOT
TITLE	LABEL	Potentiostatic EIS	Test &Identifier
DATE	LABEL	3/17/2020	Date
TIME	LABEL	16:55:39	Time
NOTES	NOTES	1	&Notes...
	
PSTAT	PSTAT	REF600-11020	Potentiostat
VDC	POTEN	0.00000E+000	T	DC &Voltage (V)
FREQINIT	QUANT	1.00000E+006	Initial Fre&q. (Hz)
FREQFINAL	QUANT	1.00000E+000	Final Fre&q. (Hz)
PTSPERDEC	QUANT	1.00000E+001	Points/&decade
VAC	QUANT	2.50000E+001	AC &Voltage (mV rms)
AREA	QUANT	4.00000E-004	&Area (cm^2)
CONDIT	TWOPARAM	F	5.00000E+000	0.00000E+000	Conditionin&g	Time(s)	E(V)
DELAY	TWOPARAM	T	3.00000E+000	0.00000E+000	Init. De&lay	Time(s)	Stab.(mV/s)
SPEED	SELECTOR	0	&Optimize for:
ZGUESS	QUANT	5.00000E+003	E&stimated Z (ohms)
OCVCURVE	TABLE	12
	Pt	T	Vf	Vm	Ach	Over
	#	s	V vs. Ref.	V	V	bits
	0	0.258333	6.59167E-002	6.59167E-002	5.90063E-004	...........
	1	0.516667	6.59167E-002	6.59190E-002	5.88463E-004	...........
	2	0.775	6.59170E-002	6.59235E-002	5.89696E-004	...........
	3	1.03333	6.59181E-002	6.59283E-002	5.85663E-004	...........
	4	1.29167	6.59203E-002	6.59313E-002	5.85797E-004	...........
	5	1.55	6.59234E-002	6.59315E-002	5.87063E-004	...........
	6	1.80833	6.59268E-002	6.59351E-002	5.90463E-004	...........
	7	2.06667	6.59297E-002	6.59360E-002	5.89530E-004	...........
	8	2.325	6.59321E-002	6.59358E-002	5.88030E-004	...........
	9	2.58333	6.59339E-002	6.59356E-002	5.89196E-004	...........
	10	2.84167	6.59351E-002	6.59356E-002	5.92263E-004	...........
	11	3.1	6.59356E-002	6.59379E-002	5.87630E-004	...........
EOC	QUANT	0.0659356	Open Circuit (V)
PSTATMODEL	IQUANT	4	Pstat Model
PSTATSECTION	LABEL	REF600-11020	Pstat Section
PSTATSERIALNO	LABEL	11020	Pstat Serial Number
CTRLMODE	IQUANT	1	Control Mode
IESTAB	IQUANT	0	I/E Stability
CASPEED	IQUANT	1	Control Amp Speed
CONVENTION	IQUANT	1	Current Convention
ICHRANGE	IQUANT	2	Ich Range
ICHRANGEMODE	TOGGLE	F	Ich Auto Range
ICHOFFSETENABLE	TOGGLE	T	Ich Offset Enable
ICHOFFSET	QUANT	0	Ich Offset (V)
ICHFILTER	IQUANT	3	Ich Filter
VCHRANGE	IQUANT	2	Vch Range
VCHRANGEMODE	TOGGLE	F	Vch Auto Range
VCHOFFSETENABLE	TOGGLE	T	Vch Offset Enable
VCHOFFSET	QUANT	0	Vch Offset (V)
VCHFILTER	IQUANT	3	Vch Filter
ACHRANGE	IQUANT	2	Ach Range
ACHOFFSETENABLE	TOGGLE	F	Ach Offset Enable
ACHOFFSET	QUANT	0	Ach Offset (V)
ACHFILTER	IQUANT	3	Ach Filter
IERANGELOWERLIMIT	IQUANT	1	I/E Range Lower Limit
IERANGEMODE	TOGGLE	F	I/E AutoRange
IERANGE	IQUANT	7	I/E Range
POSFEEDENABLE	TOGGLE	F	Positive Feedback IR Comp
POSFEEDRESISTANCE	QUANT	0	Positive Feedback Resistance (ohm)
ACHSELECT	IQUANT	0	Ach Select
CABLEID	IQUANT	14	Cable ID
DCCALDATE	LABEL	2/27/2020	DC Calibration Date
ACCALDATE	LABEL	2/27/2020	AC Calibration Date
THERMOSELECT	IQUANT	1	Thermo Select
FRAMEWORKVERSION	QUANT	6.33	Framework Version
INSTRUMENTVERSION	LABEL	3.50	Instrument Version
ZCURVE	TABLE
	Pt	Time	Freq	Zreal	Zimag	Zsig	Zmod	Zphz	Idc	Vdc	IERange
	#	s	Hz	ohm	ohm	V	ohm	°	A	V	#
	0	1	1000078	1653.932	-2019.675	1	2610.475	-50.68562	-1.991728E-008	0.0684068	8
	1	2	794390.6	1944.473	-2261.706	1	2982.665	-49.31312	3.556175E-008	0.0680076	8
	2	2	630984.4	2279.251	-2516.376	1	3395.163	-47.83074	3.663649E-008	0.0678619	8
	3	2	501234.4	2657.586	-2777.132	1	3843.855	-46.26012	1.197043E-008	0.0677659	8
	4	3	398109.4	3093.614	-3038.553	1	4336.271	-44.48555	2.419184E-008	0.0677033	8
	5	3	316265.6	3571.633	-3297.327	1	4860.959	-42.71316	2.948866E-008	0.0676732	8
	6	3	251203.1	4099.105	-3536.607	1	5413.894	-40.78682	7.29766E-008	0.0676383	8
	7	4	199546.9	4668.652	-3767.556	1	5999.232	-38.90318	2.547405E-008	0.0676642	8
	8	4	158578.1	5285.278	-3978.458	1	6615.308	-36.97036	1.947682E-008	0.0676917	8
	9	4	125953.1	6031.574	-4092.872	1	7289.135	-34.15981	1.199803E-009	0.0676033	7
	10	5	100078.1	6680.18	-4251.047	1	7918.094	-32.47133	1.11745E-009	0.067596	7
	11	5	79453.13	7380.555	-4388.445	1	8586.679	-30.73553	8.733524E-010	0.0675867	7
	12	5	63140.62	8093.211	-4484.956	1	9252.832	-28.99358	9.846262E-010	0.0675877	7
	13	6	50203.12	8809.67	-4546.88	1	9913.85	-27.29933	1.594872E-009	0.067586	7
	14	6	39890.62	9507.9	-4574.58	1	10551.16	-25.69381	1.415456E-009	0.0675799	7
	15	6	31640.63	10202.15	-4592.874	1	11188.31	-24.23666	1.984446E-009	0.067578	7
	16	7	25171.88	10849.19	-4601.117	1	11784.54	-22.98168	1.040729E-009	0.0675784	7
	17	7	20015.62	11483.23	-4630.322	1	12381.62	-21.9605	2.738913E-009	0.0675843	7
	18	7	15890.62	12083.4	-4673.881	1	12955.84	-21.14656	1.522666E-009	0.0675769	7
	19	7	12609.37	12785.42	-4607.417	1	13590.26	-19.81738	3.365844E-010	0.0676261	6
	20	8	10078.13	13322.5	-4771.681	1	14151.25	-19.70585	4.184686E-010	0.0676322	6
	21	8	8015.625	13886.37	-5003.405	1	14760.26	-19.81463	7.669917E-011	0.067623	6
	22	8	6328.125	14491.6	-5319.896	1	15437.22	-20.15829	1.395185E-010	0.0676216	6
	23	9	5015.625	15114.47	-5708.278	1	16156.47	-20.69003	2.554674E-010	0.0676285	6
	24	9	3984.375	15787.78	-6176.617	1	16953.02	-21.36681	2.292195E-010	0.0676308	6
	25	9	3170.956	16512.38	-6721.516	1	17827.99	-22.14924	2.056181E-010	0.0676232	6
	26	10	2527.573	17289.29	-7343.401	1	18784.18	-23.01272	4.855896E-011	0.0676207	6
	27	10	1976.103	18198.85	-8122.741	1	19929.3	-24.05277	3.387111E-011	0.067624	6
	28	10	1577.524	19088.79	-8946.846	1	21081.46	-25.11231	5.340701E-011	0.0676151	6
	29	11	1265.625	20002.18	-9888.47	1	22312.97	-26.30639	1.984162E-010	0.0676183	6
	30	11	998.264	21058.93	-11087.33	1	23799.32	-27.76638	1.933427E-010	0.0676214	6
	31	11	796.875	22125.08	-12455.68	1	25390.22	-29.37807	4.01008E-011	0.0676174	6
	32	12	627.7902	23377.73	-14212.09	1	27358.76	-31.29679	-3.412146E-012	0.0676173	6
	33	12	505.5147	24655.54	-16130.9	1	29463.57	-33.19473	-5.704277E-012	0.0676115	6
	34	12	397.9953	26279	-18677.03	1	32240	-35.40219	3.383885E-010	0.067629	6
	35	13	315.5048	28151.37	-21613.12	1	35491.21	-37.51513	3.493236E-010	0.0676266	6
	36	13	252.4038	30285.65	-24909.87	1	39213.8	-39.43721	3.536176E-010	0.0676247	6
	37	13	198.6229	33016.72	-29005.26	1	43947.8	-41.29937	2.43252E-010	0.0676291	6
	38	14	158.3615	36075.75	-33433.05	1	49185.66	-42.82269	2.662681E-010	0.0676223	6
	39	14	125.558	39731.89	-38591.1	1	55388.59	-44.16553	2.40435E-010	0.0676227	6
	40	14	100.4464	43782.59	-44209.01	1	62220.19	-45.27766	2.271906E-010	0.0676239	6
	41	15	79.00281	48746.85	-51084.62	1	70610.86	-46.34146	3.242865E-010	0.0676233	6
	42	15	63.3446	53941.79	-58327.39	1	79446.84	-47.23703	3.592171E-010	0.0676174	6
	43	15	49.86702	60299.93	-67368.14	1	90413.2	-48.16889	1.640442E-010	0.0676128	6
	44	16	39.72458	67187.48	-77237.32	1	102370.7	-48.98053	-8.858188E-011	0.0676267	5
	45	16	31.6723	74994.37	-88755.85	1	116197.1	-49.80382	1.390753E-010	0.0676197	5
	46	16	24.93351	84500.08	-102889	1	133140.5	-50.60461	-4.999388E-010	0.0676192	5
	47	17	19.86229	94815.3	-118591.3	1	151834.9	-51.3572	-1.116166E-009	0.0676158	5
	48	17	15.83615	106913.2	-136760.7	1	173591.2	-51.98334	5.815528E-010	0.0676199	5
	49	17	12.40079	122092.9	-159370.6	1	200762.7	-52.54449	-1.100092E-010	0.0676213	5
	50	17	9.93114	138235.5	-183316.5	1	229595.3	-52.98074	3.391999E-010	0.0676158	5
	51	18	7.944915	156699.5	-210873.7	1	262721.2	-53.38409	9.142373E-010	0.0676156	5
	52	18	6.317385	179698.8	-243652.2	1	302750.8	-53.59041	-2.816264E-010	0.0676321	5
	53	19	5.008013	207395.5	-281748.1	1	349849.8	-53.64312	-1.623893E-010	0.0676192	5
	54	20	3.945707	240418.6	-325944.3	1	405019.5	-53.58728	3.111662E-010	0.0676163	5
	55	21	3.158693	277572	-371861.2	1	464033.4	-53.26088	-1.002193E-010	0.0676211	5
	56	22	2.504006	321311.9	-425315.5	1	533042.8	-52.93015	-1.053916E-010	0.0676133	5
	57	23	1.998082	369914.7	-481349.5	1	607070.2	-52.4579	1.468208E-010	0.0676534	5
	58	25	1.584686	423777.6	-547484.5	1	692334.3	-52.25852	1.414665E-010	0.067644	5
	59	27	1.266892	480199	-617287.8	1	782071.1	-52.12003	7.191279E-011	0.0676108	5
	60	29	0.999041	546269.6	-703008.2	1	890298.3	-52.15116	3.363189E-011	0.0675772	5
