EXPLAIN
TAG	EISPOT
TITLE	LABEL	Potentiostatic EIS	Test &Identifier
DATE	LABEL	1/10/2020	Date
TIME	LABEL	12:51:51	Time
NOTES	NOTES	5	&Notes...
	
	
	
	
	
PSTAT	PSTAT	REF600-11020	Potentiostat
VDC	POTEN	0.00000E+000	T	DC &Voltage (V)
FREQINIT	QUANT	1.00000E+006	Initial Fre&q. (Hz)
FREQFINAL	QUANT	1.00000E+000	Final Fre&q. (Hz)
PTSPERDEC	QUANT	1.00000E+001	Points/&decade
VAC	QUANT	2.50000E+001	AC &Voltage (mV rms)
AREA	QUANT	1.00000E-001	&Area (cm^2)
CONDIT	TWOPARAM	T	5.00000E+000	0.00000E+000	Conditionin&g	Time(s)	E(V)
DELAY	TWOPARAM	T	5.00000E+000	0.00000E+000	Init. De&lay	Time(s)	Stab.(mV/s)
SPEED	SELECTOR	0	&Optimize for:
ZGUESS	QUANT	5.00000E+002	E&stimated Z (ohms)
OCVCURVE	TABLE	19
	Pt	T	Vf	Vm	Ach	Over
	#	s	V vs. Ref.	V	V	bits
	0	0.258333	1.68910E-003	1.68910E-003	6.75279E-004	...........
	1	0.516667	1.68414E-003	1.42938E-003	6.79579E-004	...........
	2	0.775	1.65422E-003	1.21154E-003	6.74379E-004	...........
	3	1.03333	1.57178E-003	1.02480E-003	6.75713E-004	...........
	4	1.29167	1.42936E-003	8.30615E-004	6.72546E-004	...........
	5	1.55	1.24738E-003	6.75521E-004	6.74846E-004	...........
	6	1.80833	1.05370E-003	5.05856E-004	6.79346E-004	...........
	7	2.06667	8.66529E-004	3.73351E-004	6.77946E-004	...........
	8	2.325	6.92719E-004	2.21341E-004	6.79846E-004	...........
	9	2.58333	5.32711E-004	1.17847E-004	6.77012E-004	...........
	10	2.84167	3.85511E-004	-4.84012E-006	6.75513E-004	...........
	11	3.1	2.50242E-004	-1.20460E-004	6.74113E-004	...........
	12	3.35833	1.24651E-004	-2.36539E-004	6.72879E-004	...........
	13	3.61667	5.12661E-006	-3.46283E-004	6.74346E-004	...........
	14	3.875	-1.10818E-004	-4.44008E-004	6.72246E-004	...........
	15	4.13333	-2.23355E-004	-5.46612E-004	6.75046E-004	...........
	16	4.39167	-3.31440E-004	-6.29167E-004	6.71879E-004	...........
	17	4.65	-4.34233E-004	-7.27545E-004	6.70846E-004	...........
	18	4.90833	-5.31635E-004	-7.98842E-004	6.78813E-004	...........
EOC	QUANT	-0.0005316	Open Circuit (V)
PSTATMODEL	IQUANT	4	Pstat Model
PSTATSECTION	LABEL	REF600-11020	Pstat Section
PSTATSERIALNO	LABEL	11020	Pstat Serial Number
CTRLMODE	IQUANT	1	Control Mode
IESTAB	IQUANT	0	I/E Stability
CASPEED	IQUANT	1	Control Amp Speed
CONVENTION	IQUANT	1	Current Convention
ICHRANGE	IQUANT	2	Ich Range
ICHRANGEMODE	TOGGLE	F	Ich Auto Range
ICHOFFSETENABLE	TOGGLE	T	Ich Offset Enable
ICHOFFSET	QUANT	0	Ich Offset (V)
ICHFILTER	IQUANT	3	Ich Filter
VCHRANGE	IQUANT	2	Vch Range
VCHRANGEMODE	TOGGLE	F	Vch Auto Range
VCHOFFSETENABLE	TOGGLE	T	Vch Offset Enable
VCHOFFSET	QUANT	0	Vch Offset (V)
VCHFILTER	IQUANT	3	Vch Filter
ACHRANGE	IQUANT	2	Ach Range
ACHOFFSETENABLE	TOGGLE	F	Ach Offset Enable
ACHOFFSET	QUANT	0	Ach Offset (V)
ACHFILTER	IQUANT	3	Ach Filter
IERANGELOWERLIMIT	IQUANT	1	I/E Range Lower Limit
IERANGEMODE	TOGGLE	F	I/E AutoRange
IERANGE	IQUANT	6	I/E Range
POSFEEDENABLE	TOGGLE	F	Positive Feedback IR Comp
POSFEEDRESISTANCE	QUANT	0	Positive Feedback Resistance (ohm)
ACHSELECT	IQUANT	0	Ach Select
CABLEID	IQUANT	14	Cable ID
DCCALDATE	LABEL	12/22/2019	DC Calibration Date
ACCALDATE	LABEL	12/22/2019	AC Calibration Date
THERMOSELECT	IQUANT	1	Thermo Select
FRAMEWORKVERSION	QUANT	6.33	Framework Version
INSTRUMENTVERSION	LABEL	3.50	Instrument Version
ZCURVE	TABLE
	Pt	Time	Freq	Zreal	Zimag	Zsig	Zmod	Zphz	Idc	Vdc	IERange
	#	s	Hz	ohm	ohm	V	ohm	°	A	V	#
	0	1	1000078	2217.632	-1734.681	1	2815.495	-38.03331	1.859428E-006	0.0015511	8
	1	1	794390.6	2572.733	-1699.652	1	3083.467	-33.45037	-3.408847E-006	0.0018988	8
	2	1	630984.4	2886.804	-1614.042	1	3307.381	-29.21	1.579743E-006	0.0011424	8
	3	2	501234.4	3187.521	-1504.706	1	3524.83	-25.2702	-6.096399E-007	0.001208	8
	4	2	398109.4	3422.85	-1352.26	1	3680.287	-21.55742	2.244308E-006	0.0006646	8
	5	2	316265.6	3607.454	-1236.803	1	3813.582	-18.92409	-2.263249E-006	0.0015131	8
	6	3	251203.1	3782.024	-1112.576	1	3942.275	-16.39256	1.472174E-006	0.0007806	8
	7	3	199546.9	3900.355	-1022.516	1	4032.16	-14.69005	-1.421393E-006	0.0014489	8
	8	3	158578.1	3998.382	-902.9558	1	4099.072	-12.72565	-2.900214E-006	0.0017421	8
	9	4	125953.1	4108.858	-805.5085	1	4187.071	-11.09171	1.118331E-006	-0.0012788	7
	10	4	100078.1	4176.891	-748.0143	1	4243.341	-10.15313	3.234276E-008	0.0010977	7
	11	4	79453.13	4246.639	-720.1527	1	4307.269	-9.62476	-1.061467E-008	0.0011616	7
	12	5	63140.62	4315.667	-707.2191	1	4373.23	-9.306483	5.518335E-008	0.0009665	7
	13	5	50203.12	4382.768	-709.5012	1	4439.825	-9.195513	-1.098505E-008	0.001128	7
	14	5	39890.62	4450.766	-726.2537	1	4509.629	-9.267563	-3.960651E-009	0.0010938	7
	15	5	31640.63	4522.771	-757.5106	1	4585.769	-9.50811	4.289886E-008	0.0009541	7
	16	6	25171.88	4596.836	-807.1622	1	4667.163	-9.95909	-1.113975E-008	0.001125	7
	17	6	20015.62	4678.126	-871.9627	1	4758.696	-10.55828	1.320107E-008	0.0010021	7
	18	6	15890.62	4765.965	-953.072	1	4860.326	-11.30853	-2.215531E-008	0.0010807	7
	19	7	12609.37	4863.922	-1055.195	1	4977.065	-12.24026	-2.980633E-008	0.0010881	7
	20	7	10078.13	4967.269	-1173.272	1	5103.952	-13.28972	-2.61324E-008	0.001093	7
	21	7	8015.625	5089.688	-1318.186	1	5257.617	-14.52008	-2.047224E-008	0.0011228	7
	22	8	6328.125	5225.827	-1495.388	1	5435.573	-15.96865	1.010065E-008	0.0010667	7
	23	8	5015.625	5378.008	-1702.137	1	5640.943	-17.56256	2.369471E-008	0.0009953	7
	24	8	3984.375	5549.291	-1943.566	1	5879.802	-19.30213	-1.091315E-008	0.0011411	7
	25	9	3170.956	5743.74	-2223.547	1	6159.116	-21.16268	1.820957E-008	0.0009835	7
	26	9	2527.573	5957.403	-2545.672	1	6478.511	-23.13762	-3.47019E-009	0.0010769	7
	27	9	1976.103	6227.742	-2958.742	1	6894.848	-25.41196	-2.194772E-008	0.0010837	7
	28	10	1577.524	6503.884	-3397.079	1	7337.619	-27.57876	-8.535898E-009	0.0010449	7
	29	10	1265.625	6816.232	-3890.799	1	7848.524	-29.71832	-2.927576E-008	0.0010721	7
	30	10	998.264	7194.089	-4516.669	1	8494.423	-32.12186	-1.512207E-009	0.001069	7
	31	11	796.875	7594.919	-5209.174	1	9209.685	-34.4453	-3.06311E-008	0.0010749	7
	32	11	627.7902	8064.952	-6074.007	1	10096.39	-36.98473	-3.844622E-009	0.0011658	6
	33	11	505.5147	8534.984	-7004.928	1	11041.51	-39.3768	-3.400743E-009	0.0011282	6
	34	12	397.9953	9107.024	-8222.202	1	12269.58	-42.07704	1.021177E-009	0.0010608	6
	35	12	315.5048	9720.3	-9652.41	1	13698.65	-44.79921	1.512534E-009	0.00106	6
	36	12	252.4038	10368.1	-11303.23	1	15338.21	-47.4708	1.255133E-009	0.0010535	6
	37	13	198.6229	11136.68	-13470.37	1	17477.88	-50.41764	1.171326E-009	0.0010563	6
	38	13	158.3615	11961.37	-15960.88	1	19945.53	-53.15147	8.216746E-010	0.0010523	6
	39	13	125.558	12912.47	-19108.7	1	23062.39	-55.95162	9.027623E-010	0.0010562	6
	40	14	100.4464	13962.03	-22791.09	1	26727.74	-58.50798	1.579135E-009	0.0010547	6
	41	14	79.00281	15341.44	-27649.88	1	31620.81	-60.97644	8.781981E-010	0.0010549	6
	42	14	63.3446	16933.53	-33534.48	1	37567.36	-63.20811	4.216317E-010	0.0010509	6
	43	15	49.86702	18951.33	-40816.07	1	45001.16	-65.09406	4.5836E-010	0.0010486	6
	44	15	39.72458	21622.78	-49136.88	1	53684.05	-66.24801	9.006126E-010	0.0010508	6
	45	15	31.6723	24890.85	-59308.66	1	64320.07	-67.23302	7.625387E-010	0.0010517	6
	46	16	24.93351	29446.82	-72487.16	1	78240.03	-67.89129	1.313968E-009	0.0010476	6
	47	16	19.86229	35263.84	-87367.58	1	94215.88	-68.01971	1.84472E-009	0.0010546	6
	48	16	15.83615	42424.97	-104034.5	1	112352.4	-67.81451	1.362574E-009	0.0010454	5
	49	17	12.40079	53092.09	-127579.3	1	138185.6	-67.40538	-4.251811E-012	0.0010506	5
	50	17	9.93114	65628.27	-150433.7	1	164126	-66.43026	3.996427E-010	0.0010538	5
	51	17	7.944915	81355.73	-177211.8	1	194994.3	-65.34074	1.060497E-009	0.0010421	5
	52	18	6.317385	101017.7	-208369.6	1	231565.2	-64.13587	1.016588E-009	0.0010318	5
	53	19	5.008013	126243.8	-243919.4	1	274652.8	-62.63556	7.677983E-010	0.0010471	5
	54	20	3.945707	157011.7	-283474.8	1	324053.5	-61.0187	3.711092E-010	0.0010477	5
	55	21	3.158693	191119	-323954.7	1	376129.1	-59.46127	1.788857E-010	0.0010354	5
	56	23	2.504006	233060.3	-370014.6	1	437296.2	-57.79449	5.20774E-010	0.0010399	5
	57	24	1.998082	277606.2	-418274.9	1	502015.1	-56.42804	4.738274E-010	0.001051	5
	58	26	1.584686	331175.7	-471635.8	1	576296.5	-54.92404	2.77604E-010	0.0010021	5
	59	28	1.266892	387998.3	-530349.8	1	657125.3	-53.81119	2.35363E-010	0.0009976	5
	60	30	0.999041	453420.3	-598532	1	750886.4	-52.85411	2.052033E-010	0.0010224	5
