EXPLAIN
TAG	EISPOT
TITLE	LABEL	Potentiostatic EIS	Test &Identifier
DATE	LABEL	1/10/2020	Date
TIME	LABEL	13:18:33	Time
NOTES	NOTES	5	&Notes...
	
	
	
	
	
PSTAT	PSTAT	REF600-11020	Potentiostat
VDC	POTEN	0.00000E+000	T	DC &Voltage (V)
FREQINIT	QUANT	1.00000E+006	Initial Fre&q. (Hz)
FREQFINAL	QUANT	1.00000E+000	Final Fre&q. (Hz)
PTSPERDEC	QUANT	1.00000E+001	Points/&decade
VAC	QUANT	2.50000E+001	AC &Voltage (mV rms)
AREA	QUANT	1.00000E-001	&Area (cm^2)
CONDIT	TWOPARAM	T	5.00000E+000	0.00000E+000	Conditionin&g	Time(s)	E(V)
DELAY	TWOPARAM	T	5.00000E+000	0.00000E+000	Init. De&lay	Time(s)	Stab.(mV/s)
SPEED	SELECTOR	0	&Optimize for:
ZGUESS	QUANT	5.00000E+002	E&stimated Z (ohms)
OCVCURVE	TABLE	19
	Pt	T	Vf	Vm	Ach	Over
	#	s	V vs. Ref.	V	V	bits
	0	0.258333	6.54306E-003	6.54306E-003	6.36246E-004	...........
	1	0.516667	6.54449E-003	6.61795E-003	6.38080E-004	...........
	2	0.775	6.55403E-003	6.72824E-003	6.38080E-004	...........
	3	1.03333	6.58342E-003	6.82998E-003	6.37213E-004	...........
	4	1.29167	6.64048E-003	6.92666E-003	6.40980E-004	...........
	5	1.55	6.72220E-003	7.04757E-003	6.41013E-004	...........
	6	1.80833	6.81892E-003	7.11864E-003	6.39480E-004	...........
	7	2.06667	6.92122E-003	7.23761E-003	6.41946E-004	...........
	8	2.325	7.02273E-003	7.29815E-003	6.46013E-004	...........
	9	2.58333	7.12080E-003	7.42977E-003	6.40880E-004	...........
	10	2.84167	7.21651E-003	7.51507E-003	6.43013E-004	...........
	11	3.1	7.31298E-003	7.62913E-003	6.41980E-004	...........
	12	3.35833	7.41177E-003	7.70378E-003	6.37113E-004	...........
	13	3.61667	7.51117E-003	7.80916E-003	6.41313E-004	...........
	14	3.875	7.60851E-003	7.88283E-003	6.40013E-004	...........
	15	4.13333	7.70239E-003	7.97527E-003	6.41013E-004	...........
	16	4.39167	7.79255E-003	8.04780E-003	6.41580E-004	...........
	17	4.65	7.87925E-003	8.13556E-003	6.39780E-004	...........
	18	4.90833	7.96356E-003	8.23193E-003	6.39346E-004	...........
EOC	QUANT	0.0079636	Open Circuit (V)
PSTATMODEL	IQUANT	4	Pstat Model
PSTATSECTION	LABEL	REF600-11020	Pstat Section
PSTATSERIALNO	LABEL	11020	Pstat Serial Number
CTRLMODE	IQUANT	1	Control Mode
IESTAB	IQUANT	0	I/E Stability
CASPEED	IQUANT	1	Control Amp Speed
CONVENTION	IQUANT	1	Current Convention
ICHRANGE	IQUANT	2	Ich Range
ICHRANGEMODE	TOGGLE	F	Ich Auto Range
ICHOFFSETENABLE	TOGGLE	T	Ich Offset Enable
ICHOFFSET	QUANT	0	Ich Offset (V)
ICHFILTER	IQUANT	3	Ich Filter
VCHRANGE	IQUANT	2	Vch Range
VCHRANGEMODE	TOGGLE	F	Vch Auto Range
VCHOFFSETENABLE	TOGGLE	T	Vch Offset Enable
VCHOFFSET	QUANT	0	Vch Offset (V)
VCHFILTER	IQUANT	3	Vch Filter
ACHRANGE	IQUANT	2	Ach Range
ACHOFFSETENABLE	TOGGLE	F	Ach Offset Enable
ACHOFFSET	QUANT	0	Ach Offset (V)
ACHFILTER	IQUANT	3	Ach Filter
IERANGELOWERLIMIT	IQUANT	1	I/E Range Lower Limit
IERANGEMODE	TOGGLE	F	I/E AutoRange
IERANGE	IQUANT	7	I/E Range
POSFEEDENABLE	TOGGLE	F	Positive Feedback IR Comp
POSFEEDRESISTANCE	QUANT	0	Positive Feedback Resistance (ohm)
ACHSELECT	IQUANT	0	Ach Select
CABLEID	IQUANT	14	Cable ID
DCCALDATE	LABEL	12/22/2019	DC Calibration Date
ACCALDATE	LABEL	12/22/2019	AC Calibration Date
THERMOSELECT	IQUANT	1	Thermo Select
FRAMEWORKVERSION	QUANT	6.33	Framework Version
INSTRUMENTVERSION	LABEL	3.50	Instrument Version
ZCURVE	TABLE
	Pt	Time	Freq	Zreal	Zimag	Zsig	Zmod	Zphz	Idc	Vdc	IERange
	#	s	Hz	ohm	ohm	V	ohm	°	A	V	#
	0	1	1000078	2087.221	-1883.669	1	2811.531	-42.06553	-2.25626E-006	0.0104546	8
	1	2	794390.6	2474.2	-1924.629	1	3134.623	-37.87862	3.228852E-006	0.0094983	8
	2	2	630984.4	2857.49	-1914.769	1	3439.708	-33.82555	-3.602214E-006	0.0103656	8
	3	2	501234.4	3228.627	-1839.627	1	3715.947	-29.67389	9.588096E-007	0.0095681	8
	4	2	398109.4	3567.237	-1740.357	1	3969.133	-26.00648	-3.431039E-006	0.0103981	8
	5	3	316265.6	3848.533	-1575.883	1	4158.679	-22.26793	3.315092E-006	0.0090564	8
	6	3	251203.1	4091.962	-1433.991	1	4335.952	-19.31255	-5.337963E-007	0.009684	8
	7	3	199546.9	4289.366	-1256.093	1	4469.5	-16.32207	4.378899E-007	0.0094895	8
	8	4	158578.1	4474.364	-1118.521	1	4612.052	-14.03539	1.27587E-006	0.0093187	8
	9	4	125953.1	4607.073	-935.8504	1	4701.163	-11.48245	4.198921E-007	0.0086021	7
	10	4	100078.1	4695.516	-804.352	1	4763.911	-9.72054	-1.620607E-008	0.0096903	7
	11	5	79453.13	4773.685	-704.0931	1	4825.33	-8.390329	-4.237681E-008	0.0096436	7
	12	5	63140.62	4837.667	-620.0461	1	4877.24	-7.303808	-1.089284E-008	0.0096127	7
	13	5	50203.12	4889.223	-552.0566	1	4920.291	-6.442151	4.409278E-008	0.0095712	7
	14	6	39890.62	4930.223	-497.7949	1	4955.29	-5.765502	-1.129913E-008	0.0096134	7
	15	6	31640.63	4967.162	-459.8727	1	4988.405	-5.289512	2.059897E-008	0.0095581	7
	16	6	25171.88	4997.696	-437.7364	1	5016.83	-5.005627	-4.105008E-008	0.0096611	7
	17	7	20015.62	5025.941	-427.076	1	5044.054	-4.857003	2.136002E-008	0.0095585	7
	18	7	15890.62	5052.254	-431.6055	1	5070.656	-4.882826	-1.37104E-008	0.0095681	7
	19	7	12609.37	5078.316	-452.1756	1	5098.408	-5.088224	-1.609198E-008	0.0096713	7
	20	8	10078.13	5102.336	-487.226	1	5125.546	-5.454679	2.157097E-008	0.0095573	7
	21	8	8015.625	5132.189	-534.8458	1	5159.983	-5.949543	6.063097E-008	0.009451	7
	22	8	6328.125	5155.651	-614.9017	1	5192.191	-6.801397	-1.495276E-008	0.0095587	7
	23	9	5015.625	5183.25	-712.2886	1	5231.963	-7.824647	3.358356E-008	0.0094674	7
	24	9	3984.375	5217.904	-844.5079	1	5285.804	-9.193492	-3.377875E-008	0.009596	7
	25	9	3170.956	5250.86	-998.469	1	5344.949	-10.76645	2.037861E-008	0.0095456	7
	26	9	2527.573	5290.543	-1198.728	1	5424.647	-12.76648	-4.039842E-008	0.0096503	7
	27	10	1976.103	5343.168	-1468.36	1	5541.257	-15.36617	-3.004076E-008	0.0095885	7
	28	10	1577.524	5400.84	-1778.518	1	5686.141	-18.22692	-1.585599E-008	0.0095627	7
	29	10	1265.625	5467.621	-2153.045	1	5876.265	-21.49358	-1.367445E-008	0.0095529	7
	30	11	998.264	5559.133	-2650.933	1	6158.848	-25.49465	-4.085749E-008	0.0096401	7
	31	11	796.875	5663.99	-3232.25	1	6521.367	-29.71196	5.986843E-008	0.0094369	7
	32	11	627.7902	5806.534	-3994.29	1	7047.708	-34.52391	-6.814663E-009	0.0095926	7
	33	12	505.5147	5974.012	-4843.152	1	7690.575	-39.0318	-2.718346E-008	0.0095993	7
	34	12	397.9953	6202.077	-5991.808	1	8623.66	-44.0121	5.864955E-009	0.0095704	7
	35	12	315.5048	6495.879	-7364.088	1	9819.69	-48.58441	5.472446E-009	0.0095699	7
	36	13	252.4038	6860.829	-8973.024	1	11295.4	-52.59826	-5.559896E-011	0.0095701	6
	37	13	198.6229	7370.021	-11082.39	1	13309.27	-56.37527	3.376246E-010	0.0095685	6
	38	13	158.3615	7996.162	-13506.11	1	15695.65	-59.37275	-2.48552E-010	0.0095708	6
	39	14	125.558	8834.321	-16515.87	1	18730.17	-61.85772	6.515286E-011	0.009573	6
	40	14	100.4464	9898.58	-19992.36	1	22308.66	-63.65914	3.383578E-010	0.0095697	6
	41	14	79.00281	11392.94	-24535.52	1	27051.63	-65.09244	1.073794E-009	0.0095613	6
	42	15	63.3446	12890.44	-29444.11	1	32142.17	-66.35651	1.306548E-010	0.0095623	6
	43	15	49.86702	15436.59	-35801.11	1	38987.27	-66.67544	-1.772709E-010	0.0095578	6
	44	15	39.72458	18656.25	-43103.94	1	46968.13	-66.59607	3.573716E-010	0.0095657	6
	45	16	31.6723	22684.99	-51472.2	1	56249.41	-66.21581	-1.974056E-010	0.0095633	6
	46	16	24.93351	27868.84	-61627.1	1	67635.58	-65.66669	9.904687E-010	0.0095603	6
	47	16	19.86229	34083.96	-72724.73	1	80315.65	-64.88889	2.020916E-009	0.0095665	6
	48	17	15.83615	42490.44	-86186.63	1	96091.5	-63.75647	-2.213764E-009	0.0095631	6
	49	17	12.40079	51947.7	-100581.2	1	113204	-62.68477	2.721418E-010	0.0095605	5
	50	17	9.93114	62677.58	-115910.3	1	131771.3	-61.59804	1.652459E-011	0.009555	5
	51	18	7.944915	74938.34	-133008.6	1	152666.5	-60.60268	-1.028191E-009	0.0095638	5
	52	18	6.317385	89334.16	-152748	1	176953.5	-59.67892	-7.164474E-010	0.0095738	5
	53	19	5.008013	105587.1	-175606.5	1	204905.5	-58.98271	-3.831974E-010	0.0095632	5
	54	20	3.945707	123751.3	-202561.6	1	237372.3	-58.57793	-2.120533E-010	0.0095532	5
	55	22	3.158693	142605.3	-232334	1	272608.4	-58.45863	4.890508E-011	0.0095685	5
	56	23	2.504006	165115.4	-268863.4	1	315516.5	-58.44493	-1.608089E-010	0.0095621	5
	57	25	1.998082	189409.7	-311174.3	1	364287.7	-58.67141	-2.361301E-010	0.0095275	5
	58	26	1.584686	218758.8	-361285.7	1	422353.8	-58.80506	-7.590439E-011	0.0095761	5
	59	28	1.266892	253044	-419868.3	1	490225.1	-58.92369	-1.0116E-011	0.0095927	5
	60	31	0.999041	295350.4	-493096.1	1	574783.1	-59.0796	7.946038E-012	0.0095933	5
