EXPLAIN
TAG	EISPOT
TITLE	LABEL	Potentiostatic EIS	Test &Identifier
DATE	LABEL	9/11/2020	Date
TIME	LABEL	20:05:56	Time
NOTES	NOTES	1	&Notes...
	
PSTAT	PSTAT	REF600-11020	Potentiostat
VDC	POTEN	0.00000E+000	T	DC &Voltage (V)
FREQINIT	QUANT	1.00000E+006	Initial Fre&q. (Hz)
FREQFINAL	QUANT	1.00000E+000	Final Fre&q. (Hz)
PTSPERDEC	QUANT	1.00000E+001	Points/&decade
VAC	QUANT	2.50000E+001	AC &Voltage (mV rms)
AREA	QUANT	4.00000E-005	&Area (cm^2)
CONDIT	TWOPARAM	F	5.00000E+000	0.00000E+000	Conditionin&g	Time(s)	E(V)
DELAY	TWOPARAM	F	3.00000E+000	0.00000E+000	Init. De&lay	Time(s)	Stab.(mV/s)
SPEED	SELECTOR	0	&Optimize for:
ZGUESS	QUANT	1.00000E+003	E&stimated Z (ohms)
OCVCURVE	TABLE	39
	Pt	T	Vf	Vm	Ach	Over
	#	s	V vs. Ref.	V	V	bits
	0	0.258333	-2.13768E-001	-2.13768E-001	5.02659E-004	...........
	1	0.516667	-2.13768E-001	-2.13764E-001	5.15726E-004	...........
	2	0.775	-2.13767E-001	-2.13761E-001	5.17059E-004	...........
	3	1.03333	-2.13766E-001	-2.13757E-001	5.05426E-004	...........
	4	1.29167	-2.13764E-001	-2.13755E-001	5.09293E-004	...........
	5	1.55	-2.13761E-001	-2.13753E-001	5.17093E-004	...........
	6	1.80833	-2.13758E-001	-2.13751E-001	5.11993E-004	...........
	7	2.06667	-2.13756E-001	-2.13748E-001	5.03859E-004	...........
	8	2.325	-2.13753E-001	-2.13748E-001	5.14593E-004	...........
	9	2.58333	-2.13751E-001	-2.13749E-001	5.17226E-004	...........
	10	2.84167	-2.13750E-001	-2.13745E-001	5.11926E-004	...........
	11	3.1	-2.13749E-001	-2.13749E-001	5.04859E-004	...........
	12	3.35833	-2.13748E-001	-2.13748E-001	5.16693E-004	...........
	13	3.61667	-2.13748E-001	-2.13751E-001	5.19259E-004	...........
	14	3.875	-2.13748E-001	-2.13753E-001	5.04926E-004	...........
	15	4.13333	-2.13749E-001	-2.13756E-001	5.04326E-004	...........
	16	4.39167	-2.13751E-001	-2.13759E-001	5.10126E-004	...........
	17	4.65	-2.13753E-001	-2.13762E-001	5.06493E-004	...........
	18	4.90833	-2.13756E-001	-2.13761E-001	5.01293E-004	...........
	19	5.16667	-2.13758E-001	-2.13765E-001	5.02259E-004	...........
	20	5.425	-2.13760E-001	-2.13766E-001	5.04593E-004	...........
	21	5.68333	-2.13762E-001	-2.13768E-001	5.07493E-004	...........
	22	5.94167	-2.13764E-001	-2.13768E-001	4.93460E-004	...........
	23	6.2	-2.13766E-001	-2.13771E-001	5.02493E-004	...........
	24	6.45833	-2.13768E-001	-2.13769E-001	5.08326E-004	...........
	25	6.71667	-2.13769E-001	-2.13770E-001	5.03359E-004	...........
	26	6.975	-2.13769E-001	-2.13771E-001	4.98459E-004	...........
	27	7.23333	-2.13770E-001	-2.13773E-001	5.05759E-004	...........
	28	7.49167	-2.13771E-001	-2.13777E-001	5.09859E-004	...........
	29	7.75	-2.13772E-001	-2.13779E-001	5.10959E-004	...........
	30	8.00833	-2.13774E-001	-2.13781E-001	5.04793E-004	...........
	31	8.26667	-2.13776E-001	-2.13783E-001	5.13659E-004	...........
	32	8.525	-2.13779E-001	-2.13783E-001	5.16359E-004	...........
	33	8.78333	-2.13781E-001	-2.13788E-001	5.11093E-004	...........
	34	9.04167	-2.13783E-001	-2.13790E-001	5.07893E-004	...........
	35	9.3	-2.13785E-001	-2.13794E-001	5.19426E-004	...........
	36	9.5583	-2.13787E-001	-2.13798E-001	5.17993E-004	...........
	37	9.8167	-2.13790E-001	-2.13793E-001	5.02759E-004	...........
	38	10.075	-2.13793E-001	-2.13803E-001	5.09893E-004	...........
EOC	QUANT	-0.2137931	Open Circuit (V)
PSTATMODEL	IQUANT	4	Pstat Model
PSTATSECTION	LABEL	REF600-11020	Pstat Section
PSTATSERIALNO	LABEL	11020	Pstat Serial Number
CTRLMODE	IQUANT	1	Control Mode
IESTAB	IQUANT	0	I/E Stability
CASPEED	IQUANT	1	Control Amp Speed
CONVENTION	IQUANT	1	Current Convention
ICHRANGE	IQUANT	2	Ich Range
ICHRANGEMODE	TOGGLE	F	Ich Auto Range
ICHOFFSETENABLE	TOGGLE	T	Ich Offset Enable
ICHOFFSET	QUANT	0	Ich Offset (V)
ICHFILTER	IQUANT	3	Ich Filter
VCHRANGE	IQUANT	2	Vch Range
VCHRANGEMODE	TOGGLE	F	Vch Auto Range
VCHOFFSETENABLE	TOGGLE	T	Vch Offset Enable
VCHOFFSET	QUANT	0	Vch Offset (V)
VCHFILTER	IQUANT	3	Vch Filter
ACHRANGE	IQUANT	2	Ach Range
ACHOFFSETENABLE	TOGGLE	F	Ach Offset Enable
ACHOFFSET	QUANT	0	Ach Offset (V)
ACHFILTER	IQUANT	3	Ach Filter
IERANGELOWERLIMIT	IQUANT	1	I/E Range Lower Limit
IERANGEMODE	TOGGLE	F	I/E AutoRange
IERANGE	IQUANT	8	I/E Range
POSFEEDENABLE	TOGGLE	F	Positive Feedback IR Comp
POSFEEDRESISTANCE	QUANT	0	Positive Feedback Resistance (ohm)
ACHSELECT	IQUANT	0	Ach Select
CABLEID	IQUANT	14	Cable ID
DCCALDATE	LABEL	9/1/2020	DC Calibration Date
ACCALDATE	LABEL	9/1/2020	AC Calibration Date
THERMOSELECT	IQUANT	1	Thermo Select
FRAMEWORKVERSION	QUANT	6.33	Framework Version
INSTRUMENTVERSION	LABEL	3.50	Instrument Version
ZCURVE	TABLE
	Pt	Time	Freq	Zreal	Zimag	Zsig	Zmod	Zphz	Idc	Vdc	IERange
	#	s	Hz	ohm	ohm	V	ohm	°	A	V	#
	0	1	1000078	1852.235	-2380.329	1	3016.081	-52.112	-9.599738E-010	-0.2117321	8
	1	1	794390.6	2276.659	-2621.39	1	3472.011	-49.02591	6.460016E-008	-0.2120152	8
	2	2	630984.4	2751.944	-2825.211	1	3943.985	-45.75265	6.07661E-008	-0.2121204	8
	3	2	501234.4	3266.894	-2979.513	1	4421.549	-42.36583	8.299205E-008	-0.2121832	8
	4	2	398109.4	3808.984	-3083.562	1	4900.685	-38.99189	6.959109E-008	-0.2122284	8
	5	2	316265.6	4353.859	-3139.35	1	5367.645	-35.79349	6.774754E-008	-0.2122704	8
	6	3	251203.1	4881.175	-3134.614	1	5801.006	-32.70794	5.381285E-008	-0.2122866	8
	7	3	199546.9	5388.265	-3117.906	1	6225.33	-30.05571	6.20763E-008	-0.2122815	8
	8	3	158578.1	5857.386	-3058.686	1	6607.915	-27.57325	5.686523E-008	-0.2122877	8
	9	4	125953.1	6343.553	-2988.401	1	7012.218	-25.22478	-7.041863E-010	-0.2122744	7
	10	4	100078.1	6746.015	-2949.091	1	7362.462	-23.61305	1.499313E-009	-0.2122927	7
	11	4	79453.13	7127.567	-2943.87	1	7711.588	-22.4419	1.772468E-009	-0.2123025	7
	12	5	63140.62	7486.881	-2969.213	1	8054.167	-21.63272	2.274569E-009	-0.2123002	7
	13	5	50203.12	7842.048	-3030.912	1	8407.387	-21.13127	4.043561E-009	-0.2123008	7
	14	5	39890.62	8196.806	-3133.019	1	8775.16	-20.91808	2.192371E-009	-0.2123068	7
	15	6	31640.63	8560.538	-3283.69	1	9168.721	-20.98604	3.137176E-009	-0.212302	7
	16	6	25171.88	8937.629	-3480.975	1	9591.58	-21.27963	9.020328E-010	-0.2123183	7
	17	6	20015.62	9337.25	-3733.425	1	10055.98	-21.7936	1.00158E-009	-0.2123123	7
	18	7	15890.62	9771.99	-4041.916	1	10574.92	-22.47108	1.7384E-009	-0.2123117	7
	19	7	12609.37	10340.11	-4351.287	1	11218.36	-22.82215	1.662612E-010	-0.2123123	6
	20	7	10078.13	10835.8	-4778.295	1	11842.58	-23.79617	7.610356E-010	-0.2123173	6
	21	8	8015.625	11399.92	-5283.297	1	12564.69	-24.86538	6.194523E-010	-0.2123187	6
	22	8	6328.125	12054.42	-5881.268	1	13412.62	-26.00743	5.144417E-010	-0.2123206	6
	23	8	5015.625	12777.13	-6551.939	1	14359.07	-27.14813	2.467542E-010	-0.2123283	6
	24	9	3984.375	13581.59	-7303.439	1	15420.76	-28.26894	4.200486E-010	-0.2123277	6
	25	9	3170.956	14477.84	-8140.383	1	16609.45	-29.34752	5.952292E-010	-0.2123248	6
	26	9	2527.573	15478.02	-9072.26	1	17940.88	-30.3762	5.206885E-010	-0.2123252	6
	27	9	1976.103	16700.48	-10204.21	1	19571.2	-31.42548	1.900207E-010	-0.2123254	6
	28	10	1577.524	17958.23	-11352.77	1	21245.79	-32.30011	-1.281603E-011	-0.212329	6
	29	10	1265.625	19330.99	-12606.79	1	23078.53	-33.11056	7.569722E-010	-0.2123359	6
	30	10	998.264	21005.11	-14093.2	1	25294.92	-33.85931	-7.32836E-012	-0.2123265	6
	31	11	796.875	22755.06	-15663.63	1	27625.03	-34.5419	8.647987E-010	-0.2123369	6
	32	11	627.7902	24850.35	-17488.86	1	30387.5	-35.13662	3.362886E-010	-0.2123286	6
	33	11	505.5147	26989.68	-19330.24	1	33197.91	-35.61057	3.361358E-010	-0.2123323	6
	34	12	397.9953	29596.1	-21549.26	1	36610.11	-36.05879	3.652837E-010	-0.2123172	6
	35	12	315.5048	32437.11	-23917.71	1	40301.65	-36.40344	5.016885E-010	-0.2123172	6
	36	12	252.4038	35461.78	-26400.65	1	44210.09	-36.66702	4.645325E-010	-0.2123215	6
	37	13	198.6229	39045.98	-29301.7	1	48817.8	-36.88606	5.834883E-010	-0.2123211	6
	38	13	158.3615	42754.88	-32292.04	1	53579.43	-37.06314	3.494676E-010	-0.2123192	6
	39	13	125.558	46880.82	-35657.43	1	58900.45	-37.25652	5.432378E-010	-0.2123196	6
	40	14	100.4464	51132.3	-39242.34	1	64455.21	-37.50504	2.938769E-010	-0.2123209	6
	41	14	79.00281	56033.62	-43603.5	1	71000.23	-37.88887	4.795833E-010	-0.2123292	6
	42	14	63.3446	60896.64	-48223.05	1	77677.95	-38.37513	4.364438E-010	-0.2123256	6
	43	15	49.86702	66622.01	-54042.64	1	85785.19	-39.04838	7.55844E-010	-0.212325	6
	44	15	39.72458	72622.05	-60516.93	1	94531.8	-39.8049	6.881802E-010	-0.2123192	6
	45	15	31.6723	79353.47	-67933.92	1	104460.5	-40.56659	3.456115E-010	-0.212328	5
	46	16	24.93351	87419.79	-77141.6	1	116589.2	-41.42606	-4.65726E-010	-0.2123287	5
	47	16	19.86229	96134.3	-87237.39	1	129815.9	-42.22228	-1.059293E-009	-0.2123298	5
	48	16	15.83615	106273.7	-98789.6	1	145098.2	-42.90981	2.630243E-010	-0.2123283	5
	49	16	12.40079	118914.3	-112665.5	1	163811.2	-43.45435	-1.153485E-009	-0.2123237	5
	50	17	9.93114	132138.5	-127198.3	1	183412.1	-43.90868	-3.501225E-010	-0.2123321	5
	51	17	7.944915	147188.3	-142907.6	1	205151.1	-44.15459	1.651796E-009	-0.2123343	5
	52	18	6.317385	165407.6	-161211.8	1	230973.8	-44.26402	-2.122383E-010	-0.2123114	5
	53	18	5.008013	186325	-181368.2	1	260022	-44.22766	-1.387741E-011	-0.2123248	5
	54	19	3.945707	210237.8	-204237.5	1	293109	-44.1706	6.07051E-010	-0.2123345	5
	55	20	3.158693	235118.4	-226792.6	1	326673.5	-43.96737	7.746582E-011	-0.2123185	5
	56	21	2.504006	263800.4	-253278.6	1	365705.7	-43.83427	-2.055948E-010	-0.2123353	5
	57	22	1.998082	293313.8	-280717.8	1	405999.3	-43.74295	1.828718E-010	-0.2123084	5
	58	24	1.584686	327230.6	-313963.3	1	453489.6	-43.81463	3.30598E-010	-0.2122882	5
	59	26	1.266892	361206.2	-350198.5	1	503099.3	-44.11352	2.421483E-010	-0.2123222	5
	60	28	0.999041	400695.6	-393599.2	1	561673.7	-44.48812	1.798397E-010	-0.2123535	5
