EXPLAIN
TAG	EISPOT
TITLE	LABEL	Potentiostatic EIS	Test &Identifier
DATE	LABEL	5/26/2020	Date
TIME	LABEL	18:15:57	Time
NOTES	NOTES	1	&Notes...
	
PSTAT	PSTAT	REF600-11020	Potentiostat
VDC	POTEN	0.00000E+000	T	DC &Voltage (V)
FREQINIT	QUANT	1.00000E+006	Initial Fre&q. (Hz)
FREQFINAL	QUANT	1.00000E+000	Final Fre&q. (Hz)
PTSPERDEC	QUANT	1.00000E+001	Points/&decade
VAC	QUANT	2.50000E+001	AC &Voltage (mV rms)
AREA	QUANT	5.00000E-004	&Area (cm^2)
CONDIT	TWOPARAM	F	5.00000E+000	0.00000E+000	Conditionin&g	Time(s)	E(V)
DELAY	TWOPARAM	T	3.00000E+000	0.00000E+000	Init. De&lay	Time(s)	Stab.(mV/s)
SPEED	SELECTOR	0	&Optimize for:
ZGUESS	QUANT	1.00000E+003	E&stimated Z (ohms)
OCVCURVE	TABLE	12
	Pt	T	Vf	Vm	Ach	Over
	#	s	V vs. Ref.	V	V	bits
	0	0.258333	9.12521E-002	9.12521E-002	5.99463E-004	...........
	1	0.516667	9.12519E-002	9.12382E-002	5.96463E-004	...........
	2	0.775	9.12501E-002	9.12210E-002	6.00263E-004	...........
	3	1.03333	9.12450E-002	9.12045E-002	5.96563E-004	...........
	4	1.29167	9.12355E-002	9.11933E-002	6.00596E-004	...........
	5	1.55	9.12228E-002	9.11852E-002	5.98996E-004	...........
	6	1.80833	9.12092E-002	9.11744E-002	5.96796E-004	...........
	7	2.06667	9.11966E-002	9.11640E-002	5.98563E-004	...........
	8	2.325	9.11854E-002	9.11557E-002	6.00996E-004	...........
	9	2.58333	9.11751E-002	9.11443E-002	6.00763E-004	...........
	10	2.84167	9.11653E-002	9.11381E-002	5.98696E-004	...........
	11	3.1	9.11558E-002	9.11280E-002	6.00096E-004	...........
EOC	QUANT	0.0911558	Open Circuit (V)
PSTATMODEL	IQUANT	4	Pstat Model
PSTATSECTION	LABEL	REF600-11020	Pstat Section
PSTATSERIALNO	LABEL	11020	Pstat Serial Number
CTRLMODE	IQUANT	1	Control Mode
IESTAB	IQUANT	0	I/E Stability
CASPEED	IQUANT	1	Control Amp Speed
CONVENTION	IQUANT	1	Current Convention
ICHRANGE	IQUANT	2	Ich Range
ICHRANGEMODE	TOGGLE	F	Ich Auto Range
ICHOFFSETENABLE	TOGGLE	T	Ich Offset Enable
ICHOFFSET	QUANT	0	Ich Offset (V)
ICHFILTER	IQUANT	3	Ich Filter
VCHRANGE	IQUANT	2	Vch Range
VCHRANGEMODE	TOGGLE	F	Vch Auto Range
VCHOFFSETENABLE	TOGGLE	T	Vch Offset Enable
VCHOFFSET	QUANT	0	Vch Offset (V)
VCHFILTER	IQUANT	3	Vch Filter
ACHRANGE	IQUANT	2	Ach Range
ACHOFFSETENABLE	TOGGLE	F	Ach Offset Enable
ACHOFFSET	QUANT	0	Ach Offset (V)
ACHFILTER	IQUANT	3	Ach Filter
IERANGELOWERLIMIT	IQUANT	1	I/E Range Lower Limit
IERANGEMODE	TOGGLE	F	I/E AutoRange
IERANGE	IQUANT	8	I/E Range
POSFEEDENABLE	TOGGLE	F	Positive Feedback IR Comp
POSFEEDRESISTANCE	QUANT	0	Positive Feedback Resistance (ohm)
ACHSELECT	IQUANT	0	Ach Select
CABLEID	IQUANT	14	Cable ID
DCCALDATE	LABEL	2/27/2020	DC Calibration Date
ACCALDATE	LABEL	2/27/2020	AC Calibration Date
THERMOSELECT	IQUANT	1	Thermo Select
FRAMEWORKVERSION	QUANT	6.33	Framework Version
INSTRUMENTVERSION	LABEL	3.50	Instrument Version
ZCURVE	TABLE
	Pt	Time	Freq	Zreal	Zimag	Zsig	Zmod	Zphz	Idc	Vdc	IERange
	#	s	Hz	ohm	ohm	V	ohm	°	A	V	#
	0	1	1000078	1567.992	-2530.657	1	2977.049	-58.2177	7.5746E-008	0.0937508	8
	1	1	794390.6	1841.631	-2911.613	1	3445.155	-57.68615	4.915625E-008	0.0933654	8
	2	2	630984.4	2150.888	-3337.868	1	3970.854	-57.20269	7.090148E-008	0.0932079	8
	3	2	501234.4	2487.426	-3838.631	1	4574.098	-57.05684	5.455347E-008	0.0930927	8
	4	2	398109.4	2862.657	-4417.618	1	5264.043	-57.05639	3.54302E-008	0.0930279	8
	5	3	316265.6	3299.783	-5098.59	1	6073.235	-57.08924	6.293413E-008	0.0929977	8
	6	3	251203.1	3775.228	-5902.211	1	7006.314	-57.39582	4.136349E-008	0.0929763	8
	7	3	199546.9	4348.304	-6866.324	1	8127.371	-57.65475	6.067156E-008	0.0929718	8
	8	4	158578.1	4994.712	-7981.394	1	9415.402	-57.96189	3.665501E-008	0.092971	8
	9	4	125953.1	5935.164	-9237.9	1	10980.21	-57.28008	2.440196E-009	0.0929415	7
	10	4	100078.1	6825.964	-10771.06	1	12751.84	-57.63626	3.453559E-009	0.0929061	7
	11	5	79453.13	7936.381	-12597.32	1	14888.88	-57.78885	3.359163E-009	0.0928963	7
	12	5	63140.62	9269.918	-14745.83	1	17417.55	-57.84462	3.697026E-009	0.0928931	7
	13	5	50203.12	10902.62	-17183.82	1	20350.7	-57.60611	3.589041E-009	0.0928889	7
	14	6	39890.62	12928.91	-20006.48	1	23820.49	-57.12799	4.503541E-009	0.092884	7
	15	6	31640.63	15482.21	-23161.6	1	27859.62	-56.23953	3.595295E-009	0.0928815	7
	16	6	25171.88	18541.95	-26669.07	1	32481.43	-55.19064	4.291171E-009	0.0928818	7
	17	6	20015.62	22313.64	-30326.13	1	37650.67	-53.65477	3.543099E-009	0.0928775	7
	18	7	15890.62	26863.46	-34310.29	1	43575.7	-51.94061	3.788909E-009	0.0928754	7
	19	7	12609.37	32855.83	-38113.18	1	50320.17	-49.2367	1.20602E-009	0.0929363	6
	20	7	10078.13	38859.69	-41939.34	1	57175.03	-47.18277	1.141323E-009	0.092932	6
	21	8	8015.625	45812.5	-45640.4	1	64667.08	-44.89218	1.132887E-009	0.0929299	6
	22	8	6328.125	53786.88	-49069.21	1	72806.7	-42.37387	1.142032E-009	0.0929265	6
	23	8	5015.625	62339.13	-52028.37	1	81198.02	-39.84845	1.208948E-009	0.0929255	6
	24	9	3984.375	71365.23	-54286.09	1	89665.91	-37.25952	1.049695E-009	0.0929241	6
	25	9	3170.956	80703.22	-56156.43	1	98318.6	-34.8317	1.245252E-009	0.0929309	6
	26	9	2527.573	90136.53	-57064.17	1	106681.4	-32.33733	9.944863E-010	0.0929236	6
	27	10	1976.103	100646.6	-57741.77	1	116033.8	-29.84325	1.14957E-009	0.0929245	6
	28	10	1577.524	110107.7	-57492.97	1	124214.1	-27.57141	1.104516E-009	0.0929261	6
	29	10	1265.625	120638.2	-54519.58	1	132385.7	-24.31946	4.977097E-010	0.0929268	5
	30	11	998.264	129956.7	-53346.41	1	140479.9	-22.31784	5.500083E-010	0.0929302	5
	31	11	796.875	138212.5	-51482.67	1	147489.5	-20.42982	5.025532E-010	0.092932	5
	32	11	627.7902	146439	-49116.6	1	154456.6	-18.54179	4.920881E-010	0.0929309	5
	33	12	505.5147	153235.5	-46771.85	1	160214.6	-16.97369	4.521295E-010	0.0929211	5
	34	12	397.9953	159400.8	-44079.52	1	165383.2	-15.45786	4.806726E-010	0.0929466	5
	35	12	315.5048	164725	-41943.85	1	169981.2	-14.28562	4.955335E-010	0.092947	5
	36	12	252.4038	168957	-40473.5	1	173737	-13.47131	4.220737E-010	0.0929486	5
	37	13	198.6229	172890.6	-39851.01	1	177424	-12.97988	4.420745E-010	0.0929504	5
	38	13	158.3615	176026.1	-40292.17	1	180578.7	-12.89283	3.693461E-010	0.0929471	5
	39	13	125.558	179069.4	-42019.94	1	183933.5	-13.20594	3.812764E-010	0.0929488	5
	40	14	100.4464	182212.6	-45030.7	1	187694.5	-13.88152	2.529585E-010	0.09295	5
	41	14	79.00281	185272.8	-49776.95	1	191843	-15.03845	4.121194E-010	0.0929438	5
	42	14	63.3446	188807.7	-55799.86	1	196880.6	-16.46441	2.48228E-010	0.09294	5
	43	15	49.86702	193457.9	-64151.29	1	203817	-18.34569	3.315832E-010	0.0929371	5
	44	16	39.72458	198794.5	-74032.72	1	212132.3	-20.42575	3.574039E-010	0.0929392	5
	45	16	31.6723	205406.4	-85862.79	1	222630.2	-22.68562	3.479839E-010	0.0929395	5
	46	16	24.93351	214079.9	-100577.4	1	236529.1	-25.16473	1.414584E-010	0.0929397	5
	47	17	19.86229	224102.1	-116955.9	1	252785.4	-27.55946	8.779703E-010	0.0929437	5
	48	17	15.83615	237445.5	-135394.7	1	273335.1	-29.69238	-7.212297E-010	0.0929395	5
	49	17	12.40079	253407.2	-157913.9	1	298583.3	-31.92962	-1.102494E-009	0.0929429	5
	50	17	9.93114	269980.6	-181346.3	1	325232.2	-33.8893	-9.441677E-010	0.0929341	5
	51	18	7.944915	289015.3	-207268.8	1	355654.6	-35.6464	2.170863E-010	0.092931	5
	52	18	6.317385	313147	-237184.2	1	392832.5	-37.14106	-5.172378E-010	0.0929548	5
	53	19	5.008013	340287	-270738.3	1	434850	-38.50638	-3.321267E-010	0.092938	5
	54	20	3.945707	370884.6	-310036.1	1	483402.3	-39.89349	1.03666E-010	0.0929351	5
	55	21	3.158693	404144.6	-351719.6	1	535760.7	-41.03245	-2.105691E-010	0.0929444	5
	56	22	2.504006	442408.7	-402712.1	1	598249.5	-42.31071	-2.542772E-010	0.0929283	5
	57	23	1.998082	484234.3	-458227.1	1	666674.5	-43.41933	2.440977E-011	0.0929704	5
	58	25	1.584686	534009	-527112.2	1	750341.8	-44.62761	4.849522E-011	0.0929688	5
	59	27	1.266892	589336.1	-601693.5	1	842230.4	-45.59445	1.856262E-011	0.0929234	5
	60	29	0.999041	659786.1	-692338.8	1	956374	-46.37914	-1.377512E-011	0.0929035	5
