EXPLAIN
TAG	EISPOT
TITLE	LABEL	Potentiostatic EIS	Test &Identifier
DATE	LABEL	1/21/2020	Date
TIME	LABEL	16:10:37	Time
NOTES	NOTES	6	&Notes...
	
	
	
	
	
	
PSTAT	PSTAT	REF600-11020	Potentiostat
VDC	POTEN	0.00000E+000	T	DC &Voltage (V)
FREQINIT	QUANT	1.00000E+006	Initial Fre&q. (Hz)
FREQFINAL	QUANT	1.00000E+000	Final Fre&q. (Hz)
PTSPERDEC	QUANT	1.00000E+001	Points/&decade
VAC	QUANT	2.50000E+001	AC &Voltage (mV rms)
AREA	QUANT	1.00000E-001	&Area (cm^2)
CONDIT	TWOPARAM	F	5.00000E+000	0.00000E+000	Conditionin&g	Time(s)	E(V)
DELAY	TWOPARAM	F	5.00000E+000	0.00000E+000	Init. De&lay	Time(s)	Stab.(mV/s)
SPEED	SELECTOR	0	&Optimize for:
ZGUESS	QUANT	5.00000E+002	E&stimated Z (ohms)
OCVCURVE	TABLE	39
	Pt	T	Vf	Vm	Ach	Over
	#	s	V vs. Ref.	V	V	bits
	0	0.258333	-4.21711E-002	-4.21711E-002	6.72513E-004	...........
	1	0.516667	-4.21716E-002	-4.21959E-002	6.75646E-004	...........
	2	0.775	-4.21747E-002	-4.22313E-002	6.71013E-004	...........
	3	1.03333	-4.21840E-002	-4.22462E-002	6.74213E-004	...........
	4	1.29167	-4.22005E-002	-4.22670E-002	6.72346E-004	...........
	5	1.55	-4.22216E-002	-4.22841E-002	6.75446E-004	...........
	6	1.80833	-4.22432E-002	-4.22961E-002	6.73846E-004	...........
	7	2.06667	-4.22641E-002	-4.23682E-002	6.66879E-004	...........
	8	2.325	-4.22869E-002	-4.23749E-002	6.67779E-004	...........
	9	2.58333	-4.23142E-002	-4.23890E-002	6.69479E-004	...........
	10	2.84167	-4.23429E-002	-4.24076E-002	6.71079E-004	...........
	11	3.1	-4.23684E-002	-4.24349E-002	6.76179E-004	...........
	12	3.35833	-4.23898E-002	-4.24328E-002	6.75513E-004	...........
	13	3.61667	-4.24080E-002	-4.24476E-002	6.75979E-004	...........
	14	3.875	-4.24230E-002	-4.24484E-002	6.70279E-004	...........
	15	4.13333	-4.24346E-002	-4.24592E-002	6.64979E-004	...........
	16	4.39167	-4.24438E-002	-4.24837E-002	6.72246E-004	...........
	17	4.65	-4.24532E-002	-4.24991E-002	6.65746E-004	...........
	18	4.90833	-4.24650E-002	-4.25013E-002	6.69613E-004	...........
	19	5.16667	-4.24782E-002	-4.24971E-002	6.69713E-004	...........
	20	5.425	-4.24897E-002	-4.25138E-002	6.70513E-004	...........
	21	5.68333	-4.24983E-002	-4.25389E-002	6.75013E-004	...........
	22	5.94167	-4.25064E-002	-4.25227E-002	6.76646E-004	...........
	23	6.2	-4.25156E-002	-4.25556E-002	6.76379E-004	...........
	24	6.45833	-4.25258E-002	-4.25671E-002	6.73446E-004	...........
	25	6.71667	-4.25370E-002	-4.25707E-002	6.71579E-004	...........
	26	6.975	-4.25492E-002	-4.25769E-002	6.75546E-004	...........
	27	7.23333	-4.25606E-002	-4.25897E-002	6.70179E-004	...........
	28	7.49167	-4.25703E-002	-4.25960E-002	6.73213E-004	...........
	29	7.75	-4.25788E-002	-4.25923E-002	6.72013E-004	...........
	30	8.00833	-4.25860E-002	-4.26039E-002	6.67279E-004	...........
	31	8.26667	-4.25921E-002	-4.26219E-002	6.68613E-004	...........
	32	8.525	-4.25960E-002	-4.24884E-002	6.72746E-004	...........
	33	8.78333	-4.25915E-002	-4.25485E-002	6.68579E-004	...........
	34	9.04167	-4.25763E-002	-4.25955E-002	6.73713E-004	...........
	35	9.3	-4.25627E-002	-4.26140E-002	6.72413E-004	...........
	36	9.5583	-4.25646E-002	-4.26276E-002	6.72313E-004	...........
	37	9.8167	-4.25813E-002	-4.26412E-002	6.67713E-004	...........
	38	10.075	-4.26031E-002	-4.26556E-002	6.67213E-004	...........
EOC	QUANT	-0.0426031	Open Circuit (V)
PSTATMODEL	IQUANT	4	Pstat Model
PSTATSECTION	LABEL	REF600-11020	Pstat Section
PSTATSERIALNO	LABEL	11020	Pstat Serial Number
CTRLMODE	IQUANT	1	Control Mode
IESTAB	IQUANT	0	I/E Stability
CASPEED	IQUANT	1	Control Amp Speed
CONVENTION	IQUANT	1	Current Convention
ICHRANGE	IQUANT	2	Ich Range
ICHRANGEMODE	TOGGLE	F	Ich Auto Range
ICHOFFSETENABLE	TOGGLE	T	Ich Offset Enable
ICHOFFSET	QUANT	0	Ich Offset (V)
ICHFILTER	IQUANT	3	Ich Filter
VCHRANGE	IQUANT	2	Vch Range
VCHRANGEMODE	TOGGLE	F	Vch Auto Range
VCHOFFSETENABLE	TOGGLE	T	Vch Offset Enable
VCHOFFSET	QUANT	0	Vch Offset (V)
VCHFILTER	IQUANT	3	Vch Filter
ACHRANGE	IQUANT	2	Ach Range
ACHOFFSETENABLE	TOGGLE	F	Ach Offset Enable
ACHOFFSET	QUANT	0	Ach Offset (V)
ACHFILTER	IQUANT	3	Ach Filter
IERANGELOWERLIMIT	IQUANT	1	I/E Range Lower Limit
IERANGEMODE	TOGGLE	F	I/E AutoRange
IERANGE	IQUANT	8	I/E Range
POSFEEDENABLE	TOGGLE	F	Positive Feedback IR Comp
POSFEEDRESISTANCE	QUANT	0	Positive Feedback Resistance (ohm)
ACHSELECT	IQUANT	0	Ach Select
CABLEID	IQUANT	14	Cable ID
DCCALDATE	LABEL	12/22/2019	DC Calibration Date
ACCALDATE	LABEL	12/22/2019	AC Calibration Date
THERMOSELECT	IQUANT	1	Thermo Select
FRAMEWORKVERSION	QUANT	6.33	Framework Version
INSTRUMENTVERSION	LABEL	3.50	Instrument Version
ZCURVE	TABLE
	Pt	Time	Freq	Zreal	Zimag	Zsig	Zmod	Zphz	Idc	Vdc	IERange
	#	s	Hz	ohm	ohm	V	ohm	°	A	V	#
	0	2	1000078	2207.82	-1798.511	1	2847.65	-39.16658	-2.105999E-006	-0.0402047	8
	1	2	794390.6	2569.145	-1819.63	1	3148.263	-35.30853	2.742373E-006	-0.0409353	8
	2	2	630984.4	2911.297	-1783.892	1	3414.37	-31.49782	-1.471023E-006	-0.0403456	8
	3	2	501234.4	3240.506	-1707.629	1	3662.906	-27.7876	1.339967E-007	-0.0407433	8
	4	3	398109.4	3531.976	-1609.25	1	3881.306	-24.4951	-3.615414E-007	-0.0408036	8
	5	3	316265.6	3777.309	-1482.593	1	4057.85	-21.43	2.889065E-006	-0.0412999	8
	6	3	251203.1	4003.262	-1340.308	1	4221.674	-18.51075	5.314717E-008	-0.0408751	8
	7	4	199546.9	4195.75	-1220.623	1	4369.695	-16.22071	-1.535346E-006	-0.0404698	8
	8	4	158578.1	4340.86	-1088.582	1	4475.274	-14.07807	-2.75674E-007	-0.0408779	8
	9	4	125953.1	4483.163	-947.8748	1	4582.271	-11.93822	3.1677E-007	-0.0414537	7
	10	5	100078.1	4576.475	-865.7635	1	4657.646	-10.71245	-2.321328E-008	-0.0409216	7
	11	5	79453.13	4665.443	-802.9428	1	4734.034	-9.76519	4.513956E-009	-0.0409667	7
	12	5	63140.62	4743.488	-756.9394	1	4803.502	-9.066501	3.066908E-008	-0.0410339	7
	13	6	50203.12	4814.142	-725.6682	1	4868.527	-8.572046	5.642572E-008	-0.0410319	7
	14	6	39890.62	4880.006	-712.3867	1	4931.729	-8.305413	6.096386E-008	-0.0410337	7
	15	6	31640.63	4945.552	-715.7089	1	4997.072	-8.234544	6.705998E-008	-0.0410423	7
	16	7	25171.88	5009.348	-736.4844	1	5063.198	-8.363822	2.105371E-008	-0.0409029	7
	17	7	20015.62	5075.486	-767.0842	1	5133.125	-8.59436	-2.629181E-008	-0.0408808	7
	18	7	15890.62	5145.742	-829.6191	1	5212.19	-9.158666	3.090974E-008	-0.0410369	7
	19	8	12609.37	5220.365	-906.184	1	5298.432	-9.84764	2.959237E-008	-0.0409839	7
	20	8	10078.13	5301.938	-999.797	1	5395.381	-10.67898	6.80476E-008	-0.041052	7
	21	8	8015.625	5388.696	-1126.958	1	5505.278	-11.81223	-2.313042E-008	-0.0408682	7
	22	8	6328.125	5492.302	-1273.187	1	5637.942	-13.05138	7.869127E-008	-0.0410416	7
	23	9	5015.625	5603.744	-1456.914	1	5790.038	-14.57365	4.792771E-008	-0.0409588	7
	24	9	3984.375	5727.683	-1675.881	1	5967.824	-16.30912	-1.410263E-008	-0.040855	7
	25	9	3170.956	5866.056	-1936.044	1	6177.287	-18.26505	9.727709E-009	-0.0410196	7
	26	10	2527.573	6022.332	-2246.903	1	6427.834	-20.4603	-3.41128E-008	-0.0409231	7
	27	10	1976.103	6217.064	-2653.138	1	6759.514	-23.11041	-1.426043E-008	-0.0408603	7
	28	10	1577.524	6419.167	-3127.899	1	7140.69	-25.97881	3.205731E-008	-0.0410468	7
	29	11	1265.625	6638.819	-3621.03	1	7562.127	-28.6095	-2.579606E-008	-0.0408951	7
	30	11	998.264	6911.796	-4294.45	1	8137.274	-31.85358	2.252597E-008	-0.0409161	7
	31	11	796.875	7216.017	-5067.741	1	8817.761	-35.08001	-2.886757E-008	-0.0408994	7
	32	12	627.7902	7587.146	-6048.775	1	9703.22	-38.56325	6.734334E-009	-0.0410934	6
	33	12	505.5147	7982.302	-7129.325	1	10702.54	-41.76936	2.37437E-009	-0.0410725	6
	34	12	397.9953	8491.927	-8564.227	1	12060.63	-45.24287	6.631422E-010	-0.0409364	6
	35	13	315.5048	9083.989	-10253.5	1	13698.66	-48.46098	3.064464E-010	-0.0409396	6
	36	13	252.4038	9761.56	-12209.84	1	15632.29	-51.35826	1.286201E-010	-0.0409453	6
	37	13	198.6229	10639.61	-14743.71	1	18181.82	-54.18437	4.4995E-010	-0.0409445	6
	38	14	158.3615	11647.94	-17634.24	1	21133.88	-56.55406	3.396932E-010	-0.0409475	6
	39	14	125.558	12910.84	-21209.73	1	24830.27	-58.67018	7.312132E-010	-0.0409452	6
	40	14	100.4464	14428.42	-25319.45	1	29141.96	-60.32313	-1.083497E-010	-0.0409468	6
	41	15	79.00281	16442.13	-30708.45	1	34833.21	-61.8342	-1.045661E-011	-0.0409478	6
	42	15	63.3446	18659.38	-36219.87	1	40743.73	-62.74385	3.944412E-010	-0.0409496	6
	43	15	49.86702	21927.16	-43800.87	1	48982.82	-63.40698	-3.701001E-011	-0.0409491	6
	44	16	39.72458	25740.5	-52507.55	1	58477.49	-63.88476	3.638288E-010	-0.0409441	6
	45	16	31.6723	30569.04	-62439.49	1	69520.91	-63.91462	5.642221E-011	-0.0409477	6
	46	16	24.93351	36851.99	-74461.72	1	83081.98	-63.66865	1.167416E-009	-0.0409542	6
	47	17	19.86229	44500.68	-87910.66	1	98532.2	-63.15131	1.18112E-009	-0.0409495	6
	48	17	15.83615	53816.94	-103388.4	1	116556.5	-62.5016	9.384169E-010	-0.0409575	5
	49	17	12.40079	65041.09	-121868.8	1	138138.8	-61.91126	-4.226533E-010	-0.0409567	5
	50	17	9.93114	79518.88	-140836.1	1	161734.5	-60.55006	1.087754E-009	-0.0409526	5
	51	18	7.944915	96029.9	-162389.1	1	188658.3	-59.40175	-9.324284E-012	-0.0409477	5
	52	19	6.317385	116269.9	-187092.9	1	220278.1	-58.1409	-1.477194E-010	-0.0409499	5
	53	19	5.008013	140845.7	-213993.1	1	256184.6	-56.64795	3.011703E-010	-0.0409496	5
	54	20	3.945707	170369.3	-244784.9	1	298237.1	-55.16225	-1.657455E-010	-0.0409578	5
	55	21	3.158693	201639.6	-273753.2	1	339999.1	-53.62559	3.42684E-010	-0.0409624	5
	56	23	2.504006	238409	-307128.2	1	388801.4	-52.17951	5.104873E-010	-0.0409521	5
	57	24	1.998082	277787.3	-340398.8	1	439359.9	-50.78335	8.941143E-011	-0.0409951	5
	58	26	1.584686	320938	-379112.7	1	496716.9	-49.7504	6.76269E-011	-0.0409961	5
	59	28	1.266892	365017	-418697.3	1	555468.1	-48.91834	1.685615E-010	-0.0409601	5
	60	30	0.999041	415848.5	-466238.2	1	624746.3	-48.2695	2.418782E-010	-0.0409349	5
