EXPLAIN
TAG	EISPOT
TITLE	LABEL	Potentiostatic EIS	Test &Identifier
DATE	LABEL	5/26/2020	Date
TIME	LABEL	17:48:57	Time
NOTES	NOTES	1	&Notes...
	
PSTAT	PSTAT	REF600-11020	Potentiostat
VDC	POTEN	0.00000E+000	T	DC &Voltage (V)
FREQINIT	QUANT	1.00000E+006	Initial Fre&q. (Hz)
FREQFINAL	QUANT	1.00000E+000	Final Fre&q. (Hz)
PTSPERDEC	QUANT	1.00000E+001	Points/&decade
VAC	QUANT	2.50000E+001	AC &Voltage (mV rms)
AREA	QUANT	5.00000E-004	&Area (cm^2)
CONDIT	TWOPARAM	F	5.00000E+000	0.00000E+000	Conditionin&g	Time(s)	E(V)
DELAY	TWOPARAM	T	3.00000E+000	0.00000E+000	Init. De&lay	Time(s)	Stab.(mV/s)
SPEED	SELECTOR	0	&Optimize for:
ZGUESS	QUANT	1.00000E+003	E&stimated Z (ohms)
OCVCURVE	TABLE	12
	Pt	T	Vf	Vm	Ach	Over
	#	s	V vs. Ref.	V	V	bits
	0	0.258333	1.04402E-001	1.04402E-001	5.51197E-004	...........
	1	0.516667	1.04402E-001	1.04415E-001	5.53997E-004	...........
	2	0.775	1.04404E-001	1.04424E-001	5.58497E-004	...........
	3	1.03333	1.04408E-001	1.04435E-001	5.60330E-004	...........
	4	1.29167	1.04415E-001	1.04445E-001	5.56997E-004	...........
	5	1.55	1.04424E-001	1.04455E-001	5.58630E-004	...........
	6	1.80833	1.04434E-001	1.04459E-001	5.56164E-004	...........
	7	2.06667	1.04443E-001	1.04465E-001	5.53030E-004	...........
	8	2.325	1.04452E-001	1.04469E-001	5.56297E-004	...........
	9	2.58333	1.04459E-001	1.04470E-001	5.61230E-004	...........
	10	2.84167	1.04464E-001	1.04471E-001	5.59464E-004	...........
	11	3.1	1.04467E-001	1.04471E-001	5.60697E-004	...........
EOC	QUANT	0.1044672	Open Circuit (V)
PSTATMODEL	IQUANT	4	Pstat Model
PSTATSECTION	LABEL	REF600-11020	Pstat Section
PSTATSERIALNO	LABEL	11020	Pstat Serial Number
CTRLMODE	IQUANT	1	Control Mode
IESTAB	IQUANT	0	I/E Stability
CASPEED	IQUANT	1	Control Amp Speed
CONVENTION	IQUANT	1	Current Convention
ICHRANGE	IQUANT	2	Ich Range
ICHRANGEMODE	TOGGLE	F	Ich Auto Range
ICHOFFSETENABLE	TOGGLE	T	Ich Offset Enable
ICHOFFSET	QUANT	0	Ich Offset (V)
ICHFILTER	IQUANT	3	Ich Filter
VCHRANGE	IQUANT	2	Vch Range
VCHRANGEMODE	TOGGLE	F	Vch Auto Range
VCHOFFSETENABLE	TOGGLE	T	Vch Offset Enable
VCHOFFSET	QUANT	0	Vch Offset (V)
VCHFILTER	IQUANT	3	Vch Filter
ACHRANGE	IQUANT	2	Ach Range
ACHOFFSETENABLE	TOGGLE	F	Ach Offset Enable
ACHOFFSET	QUANT	0	Ach Offset (V)
ACHFILTER	IQUANT	3	Ach Filter
IERANGELOWERLIMIT	IQUANT	1	I/E Range Lower Limit
IERANGEMODE	TOGGLE	F	I/E AutoRange
IERANGE	IQUANT	8	I/E Range
POSFEEDENABLE	TOGGLE	F	Positive Feedback IR Comp
POSFEEDRESISTANCE	QUANT	0	Positive Feedback Resistance (ohm)
ACHSELECT	IQUANT	0	Ach Select
CABLEID	IQUANT	14	Cable ID
DCCALDATE	LABEL	2/27/2020	DC Calibration Date
ACCALDATE	LABEL	2/27/2020	AC Calibration Date
THERMOSELECT	IQUANT	1	Thermo Select
FRAMEWORKVERSION	QUANT	6.33	Framework Version
INSTRUMENTVERSION	LABEL	3.50	Instrument Version
ZCURVE	TABLE
	Pt	Time	Freq	Zreal	Zimag	Zsig	Zmod	Zphz	Idc	Vdc	IERange
	#	s	Hz	ohm	ohm	V	ohm	°	A	V	#
	0	1	1000078	2028.764	-1697.947	1	2645.545	-39.92721	6.317272E-008	0.1068778	8
	1	2	794390.6	2360.87	-1735.152	1	2929.925	-36.31452	5.486753E-008	0.106517	8
	2	2	630984.4	2691.431	-1725.224	1	3196.905	-32.66013	6.323072E-008	0.1063724	8
	3	2	501234.4	2999.922	-1678.491	1	3437.567	-29.22752	4.751183E-008	0.1062411	8
	4	3	398109.4	3283.936	-1607.238	1	3656.152	-26.07825	6.406537E-008	0.1061961	8
	5	3	316265.6	3532.765	-1518.284	1	3845.207	-23.25668	6.298426E-008	0.1061577	8
	6	3	251203.1	3747.946	-1428.727	1	4011.03	-20.86698	7.080354E-008	0.1061592	8
	7	4	199546.9	3939.892	-1346.419	1	4163.604	-18.86736	3.278064E-008	0.1061635	8
	8	4	158578.1	4110.533	-1274.313	1	4303.528	-17.22405	3.785094E-008	0.106168	8
	9	4	125953.1	4304.896	-1152.482	1	4456.495	-14.98744	3.905845E-009	0.1061047	7
	10	5	100078.1	4427.708	-1115.977	1	4566.18	-14.14641	2.487249E-009	0.1060686	7
	11	5	79453.13	4558.824	-1104.821	1	4690.789	-13.62286	2.849776E-009	0.1060597	7
	12	5	63140.62	4684.354	-1106.326	1	4813.225	-13.28832	1.726233E-009	0.1060553	7
	13	6	50203.12	4807.329	-1123.025	1	4936.759	-13.14888	1.304305E-009	0.1060578	7
	14	6	39890.62	4931.985	-1157.896	1	5066.083	-13.21221	2.465423E-009	0.1060556	7
	15	6	31640.63	5058.9	-1212.343	1	5202.138	-13.47653	3.626513E-009	0.1060631	7
	16	6	25171.88	5189.091	-1285.535	1	5345.958	-13.91419	2.465478E-009	0.1060545	7
	17	7	20015.62	5327.572	-1383.451	1	5504.268	-14.55691	2.823367E-009	0.1060591	7
	18	7	15890.62	5477.211	-1505.792	1	5680.427	-15.37196	2.945245E-009	0.1060621	7
	19	7	12609.37	5640.941	-1655.603	1	5878.88	-16.35684	3.04527E-009	0.1060551	7
	20	8	10078.13	5814.732	-1830.491	1	6096.048	-17.47412	3.20466E-009	0.1060588	7
	21	8	8015.625	6011.895	-2039.612	1	6348.456	-18.74016	3.563559E-009	0.1060544	7
	22	8	6328.125	6240.364	-2296.752	1	6649.603	-20.20602	4.311164E-009	0.1060611	7
	23	9	5015.625	6494.557	-2591.204	1	6992.397	-21.75106	4.659346E-009	0.1060582	7
	24	9	3984.375	6777.675	-2926.184	1	7382.373	-23.35172	3.69827E-009	0.1060489	7
	25	9	3170.956	7098.767	-3316.548	1	7835.304	-25.04201	4.165839E-009	0.1060559	7
	26	10	2527.573	7458.578	-3758.277	1	8351.948	-26.74292	4.276483E-009	0.1060536	7
	27	10	1976.103	7901.31	-4305.064	1	8998.015	-28.58396	3.960339E-009	0.1060486	7
	28	10	1577.524	8372.529	-4867.567	1	9684.65	-30.17259	1.479706E-010	0.1061051	6
	29	11	1265.625	8881.286	-5514.332	1	10453.95	-31.83587	1.395265E-010	0.1061082	6
	30	11	998.264	9488.996	-6309.975	1	11395.47	-33.62304	1.879906E-010	0.1061024	6
	31	11	796.875	10137.37	-7178.661	1	12421.73	-35.30378	-7.503651E-011	0.1061037	6
	32	12	627.7902	10901.01	-8241.659	1	13665.9	-37.09094	3.868031E-010	0.1061067	6
	33	12	505.5147	11674.73	-9361.133	1	14964.3	-38.72363	1.504664E-010	0.1061009	6
	34	12	397.9953	12621.13	-10799.89	1	16611.16	-40.55357	4.934007E-010	0.1061229	6
	35	12	315.5048	13651.43	-12446.95	1	18473.99	-42.35759	4.632134E-010	0.1061193	6
	36	13	252.4038	14756.84	-14307.32	1	20553.92	-44.1139	4.227489E-010	0.1061149	6
	37	13	198.6229	16089.56	-16670.21	1	23168.29	-46.01543	4.493138E-010	0.1061181	6
	38	13	158.3615	17508.83	-19324.69	1	26076.86	-47.82235	4.033348E-010	0.1061163	6
	39	14	125.558	19151.44	-22554.22	1	29588.35	-49.66446	4.132264E-010	0.1061216	6
	40	14	100.4464	20940.33	-26240.02	1	33571.36	-51.40908	4.026824E-010	0.1061177	6
	41	14	79.00281	23131.15	-30977.1	1	38660.46	-53.25065	3.688557E-010	0.1061137	6
	42	15	63.3446	25426.89	-36169.61	1	44212.75	-54.89314	4.021384E-010	0.1061172	6
	43	15	49.86702	28249.26	-42891.3	1	51358.39	-56.63013	3.727506E-010	0.1061168	6
	44	16	39.72458	31278.37	-50566.26	1	59458.24	-58.26064	6.001154E-010	0.1061202	6
	45	16	31.6723	34685.15	-59733.78	1	69073.76	-59.85788	6.5795E-010	0.1061148	6
	46	16	24.93351	38783.85	-71528.62	1	81366.64	-61.53281	3.786255E-010	0.1061132	6
	47	17	19.86229	43234.21	-85160.09	1	95506.2	-63.08393	3.601933E-011	0.1061123	6
	48	17	15.83615	48377.77	-101653.5	1	112578.2	-64.54983	2.595929E-010	0.1061174	5
	49	17	12.40079	55091.11	-123602.5	1	135324.1	-65.9769	-3.474137E-010	0.1061233	5
	50	17	9.93114	62416.31	-147973	1	160598.3	-67.12956	-2.853546E-010	0.1061166	5
	51	18	7.944915	71511.15	-177634.6	1	191488.6	-68.07155	3.917806E-010	0.106113	5
	52	18	6.317385	83249.26	-214728	1	230301	-68.80888	-1.848049E-011	0.1061321	5
	53	19	5.008013	98588	-260299.8	1	278344.3	-69.25593	-1.228486E-010	0.1061191	5
	54	20	3.945707	119100.5	-316330.6	1	338008.8	-69.36832	1.625815E-010	0.106129	5
	55	21	3.158693	144203.5	-379323.5	1	405809	-69.18522	-6.665211E-011	0.1061218	5
	56	22	2.504006	177603.5	-456230.2	1	489580.5	-68.7298	2.255072E-011	0.1061074	5
	57	23	1.998082	219651.7	-543810	1	586494.8	-68.00559	1.376356E-010	0.1061566	5
	58	25	1.584686	273258.8	-646852.9	1	702203.1	-67.09869	7.94677E-011	0.1061271	5
	59	27	1.266892	341178.3	-761069.3	1	834043.9	-65.85387	7.05036E-011	0.1060838	5
	60	29	0.999041	430564.8	-900440.4	1	998088	-64.44421	5.398592E-011	0.1060702	5
