EXPLAIN
TAG	EISPOT
TITLE	LABEL	Potentiostatic EIS	Test &Identifier
DATE	LABEL	6/6/2020	Date
TIME	LABEL	18:50:33	Time
NOTES	NOTES	1	&Notes...
	
PSTAT	PSTAT	REF600-11020	Potentiostat
VDC	POTEN	0.00000E+000	T	DC &Voltage (V)
FREQINIT	QUANT	1.00000E+006	Initial Fre&q. (Hz)
FREQFINAL	QUANT	1.00000E+000	Final Fre&q. (Hz)
PTSPERDEC	QUANT	1.00000E+001	Points/&decade
VAC	QUANT	2.50000E+001	AC &Voltage (mV rms)
AREA	QUANT	4.00000E-004	&Area (cm^2)
CONDIT	TWOPARAM	F	5.00000E+000	0.00000E+000	Conditionin&g	Time(s)	E(V)
DELAY	TWOPARAM	T	3.00000E+000	0.00000E+000	Init. De&lay	Time(s)	Stab.(mV/s)
SPEED	SELECTOR	0	&Optimize for:
ZGUESS	QUANT	1.00000E+003	E&stimated Z (ohms)
OCVCURVE	TABLE	12
	Pt	T	Vf	Vm	Ach	Over
	#	s	V vs. Ref.	V	V	bits
	0	0.258333	1.58459E-001	1.58459E-001	5.91896E-004	...........
	1	0.516667	1.58458E-001	1.58441E-001	5.88463E-004	...........
	2	0.775	1.58456E-001	1.58423E-001	5.97996E-004	...........
	3	1.03333	1.58450E-001	1.58411E-001	5.95730E-004	...........
	4	1.29167	1.58440E-001	1.58399E-001	5.98630E-004	...........
	5	1.55	1.58427E-001	1.58385E-001	5.98296E-004	...........
	6	1.80833	1.58413E-001	1.58360E-001	5.95663E-004	...........
	7	2.06667	1.58397E-001	1.58273E-001	5.89296E-004	...........
	8	2.325	1.58372E-001	1.58204E-001	5.83563E-004	...........
	9	2.58333	1.58333E-001	1.58148E-001	5.92296E-004	...........
	10	2.84167	1.58280E-001	1.58099E-001	5.91763E-004	...........
	11	3.1	1.58219E-001	1.58059E-001	5.97363E-004	...........
EOC	QUANT	0.1582195	Open Circuit (V)
PSTATMODEL	IQUANT	4	Pstat Model
PSTATSECTION	LABEL	REF600-11020	Pstat Section
PSTATSERIALNO	LABEL	11020	Pstat Serial Number
CTRLMODE	IQUANT	1	Control Mode
IESTAB	IQUANT	0	I/E Stability
CASPEED	IQUANT	1	Control Amp Speed
CONVENTION	IQUANT	1	Current Convention
ICHRANGE	IQUANT	2	Ich Range
ICHRANGEMODE	TOGGLE	F	Ich Auto Range
ICHOFFSETENABLE	TOGGLE	T	Ich Offset Enable
ICHOFFSET	QUANT	0	Ich Offset (V)
ICHFILTER	IQUANT	3	Ich Filter
VCHRANGE	IQUANT	2	Vch Range
VCHRANGEMODE	TOGGLE	F	Vch Auto Range
VCHOFFSETENABLE	TOGGLE	T	Vch Offset Enable
VCHOFFSET	QUANT	0	Vch Offset (V)
VCHFILTER	IQUANT	3	Vch Filter
ACHRANGE	IQUANT	2	Ach Range
ACHOFFSETENABLE	TOGGLE	F	Ach Offset Enable
ACHOFFSET	QUANT	0	Ach Offset (V)
ACHFILTER	IQUANT	3	Ach Filter
IERANGELOWERLIMIT	IQUANT	1	I/E Range Lower Limit
IERANGEMODE	TOGGLE	F	I/E AutoRange
IERANGE	IQUANT	8	I/E Range
POSFEEDENABLE	TOGGLE	F	Positive Feedback IR Comp
POSFEEDRESISTANCE	QUANT	0	Positive Feedback Resistance (ohm)
ACHSELECT	IQUANT	0	Ach Select
CABLEID	IQUANT	14	Cable ID
DCCALDATE	LABEL	2/27/2020	DC Calibration Date
ACCALDATE	LABEL	2/27/2020	AC Calibration Date
THERMOSELECT	IQUANT	1	Thermo Select
FRAMEWORKVERSION	QUANT	6.33	Framework Version
INSTRUMENTVERSION	LABEL	3.50	Instrument Version
ZCURVE	TABLE
	Pt	Time	Freq	Zreal	Zimag	Zsig	Zmod	Zphz	Idc	Vdc	IERange
	#	s	Hz	ohm	ohm	V	ohm	°	A	V	#
	0	1	1000078	1634.156	-898.2653	1	1864.765	-28.79678	4.899798E-008	0.1605331	8
	1	1	794390.6	1771.188	-897.3889	1	1985.552	-26.86947	6.28792E-008	0.160205	8
	2	2	630984.4	1905.111	-896.1813	1	2105.372	-25.19271	8.316998E-008	0.1600437	8
	3	2	501234.4	2036.312	-895.7542	1	2224.621	-23.74424	2.260285E-008	0.1600116	8
	4	2	398109.4	2165.338	-897.2823	1	2343.887	-22.50835	5.841303E-008	0.159951	8
	5	3	316265.6	2294.323	-899.343	1	2464.292	-21.40449	5.669954E-008	0.1599282	8
	6	3	251203.1	2424.514	-905.282	1	2588.011	-20.47498	3.650798E-008	0.1599089	8
	7	3	199546.9	2551.394	-908.4109	1	2708.288	-19.59801	1.014102E-008	0.1599393	8
	8	4	158578.1	2678.696	-914.5518	1	2830.515	-18.85077	6.969972E-008	0.1599202	8
	9	4	125953.1	2824.994	-893.8901	1	2963.044	-17.55851	2.894775E-009	0.1598669	7
	10	4	100078.1	2940.964	-903.8619	1	3076.724	-17.08404	3.091958E-009	0.1598437	7
	11	5	79453.13	3062.778	-929.7672	1	3200.793	-16.88671	2.052764E-009	0.1598303	7
	12	5	63140.62	3186.233	-961.349	1	3328.104	-16.78959	2.896607E-009	0.1598387	7
	13	5	50203.12	3310.577	-997.243	1	3457.515	-16.76384	2.237157E-009	0.1598343	7
	14	6	39890.62	3437.881	-1041.669	1	3592.228	-16.85668	2.966963E-009	0.1598344	7
	15	6	31640.63	3568.513	-1095.354	1	3732.838	-17.06385	3.596763E-009	0.1598346	7
	16	6	25171.88	3701.909	-1159.98	1	3879.392	-17.39819	4.021815E-009	0.1598387	7
	17	7	20015.62	3839.858	-1237.722	1	4034.41	-17.86597	3.698333E-009	0.1598359	7
	18	7	15890.62	3982.017	-1330.115	1	4198.293	-18.4709	2.807613E-009	0.1598319	7
	19	7	12609.37	4130.636	-1443.52	1	4375.604	-19.26282	3.127963E-009	0.1598304	7
	20	7	10078.13	4280.023	-1577.925	1	4561.627	-20.23752	4.08278E-009	0.1598311	7
	21	8	8015.625	4441.69	-1744.001	1	4771.808	-21.43714	3.521808E-009	0.15983	7
	22	8	6328.125	4619.494	-1952.22	1	5015.066	-22.90915	3.764021E-009	0.1598286	7
	23	8	5015.625	4815.067	-2205.779	1	5296.256	-24.61249	3.612477E-009	0.1598249	7
	24	9	3984.375	5032.161	-2509.688	1	5623.271	-26.5068	3.345309E-009	0.1598255	7
	25	9	3170.956	5279.416	-2867.228	1	6007.764	-28.50619	3.521907E-009	0.1598275	7
	26	9	2527.573	5562.068	-3282.012	1	6458.189	-30.5436	2.466066E-009	0.1598176	7
	27	10	1976.103	5926.808	-3812.141	1	7046.947	-32.74925	4.487911E-009	0.1598265	7
	28	10	1577.524	6316.788	-4373.213	1	7682.89	-34.69547	4.04614E-009	0.1598266	7
	29	10	1265.625	6758.028	-4991.734	1	8401.688	-36.45097	3.211186E-009	0.1598163	7
	30	11	998.264	7301.24	-5755.183	1	9296.786	-38.24685	5.137916E-009	0.1598291	7
	31	11	796.875	7879.778	-6563.877	1	10255.51	-39.79439	4.076683E-011	0.1598773	6
	32	11	627.7902	8546.325	-7556.131	1	11407.66	-41.48112	4.506985E-010	0.1598849	6
	33	12	505.5147	9203.462	-8599.979	1	12596.16	-43.05859	-7.878451E-011	0.1598712	6
	34	12	397.9953	9972.97	-9961.3	1	14095.67	-44.96646	6.298854E-010	0.1598945	6
	35	12	315.5048	10773.51	-11556.52	1	15799.42	-47.00828	6.397947E-010	0.1598908	6
	36	13	252.4038	11608.05	-13418.9	1	17742.99	-49.13848	4.196121E-010	0.1598871	6
	37	13	198.6229	12619.91	-15879.29	1	20283.34	-51.52443	3.977355E-010	0.1598898	6
	38	13	158.3615	13725.83	-18733.07	1	23223.4	-53.76955	5.182997E-010	0.1598874	6
	39	14	125.558	15092.19	-22308.53	1	26934.08	-55.92082	4.868405E-010	0.1598834	6
	40	14	100.4464	16711.15	-26472.47	1	31305.82	-57.7372	3.234329E-010	0.1598799	6
	41	14	79.00281	18891.61	-31881.69	1	37058.54	-59.35099	1.516421E-010	0.1598828	6
	42	15	63.3446	21429.54	-37822.19	1	43471.18	-60.46469	1.139765E-010	0.1598787	6
	43	15	49.86702	24913.92	-45430.32	1	51813.29	-61.2597	4.692475E-010	0.1598753	6
	44	15	39.72458	29145.21	-53927.1	1	61299.07	-61.61074	6.547957E-011	0.1598772	6
	45	16	31.6723	34401.25	-63696.2	1	72392.35	-61.62726	1.14289E-010	0.1598745	6
	46	16	24.93351	41370.28	-75541.2	1	86127.65	-61.2926	-7.527407E-011	0.1598748	6
	47	16	19.86229	49404.12	-88341.76	1	101217.8	-60.78439	-1.36322E-009	0.1598714	6
	48	17	15.83615	59130.13	-102541.7	1	118368.8	-60.03033	7.249213E-010	0.1598785	5
	49	17	12.40079	71780.77	-119631.4	1	139514	-59.03556	-1.053222E-009	0.1598831	5
	50	17	9.93114	84660.67	-136928.6	1	160987.2	-58.27219	-8.1928E-010	0.1598771	5
	51	18	7.944915	99557.8	-155973	1	185038.7	-57.44984	7.787008E-010	0.1598774	5
	52	18	6.317385	116394.6	-178402.2	1	213014.1	-56.87844	-1.916905E-010	0.1598846	5
	53	19	5.008013	135084.8	-204155.6	1	244800.7	-56.50836	-3.932578E-010	0.1598693	5
	54	20	3.945707	156363.8	-234656.5	1	281981	-56.32242	-1.063349E-010	0.1598819	5
	55	21	3.158693	177550.2	-268414.3	1	321823.4	-56.51624	-2.058814E-010	0.1598691	5
	56	22	2.504006	202559.2	-309954.7	1	370273.1	-56.83488	1.476628E-010	0.1598655	5
	57	23	1.998082	229064.1	-358299.3	1	425263.2	-57.40884	1.090391E-010	0.1598738	5
	58	24	1.584686	262609.3	-417794.3	1	493473.1	-57.84813	-1.206934E-011	0.1598302	5
	59	26	1.266892	299732.5	-487728	1	572466.8	-58.42726	1.337964E-012	0.1598306	5
	60	29	0.999041	346700.6	-574391.1	1	670914.6	-58.88495	1.023626E-011	0.1598491	5
