EXPLAIN
TAG	EISPOT
TITLE	LABEL	Potentiostatic EIS	Test &Identifier
DATE	LABEL	1/7/2020	Date
TIME	LABEL	16:33:39	Time
NOTES	NOTES	5	&Notes...
	
	
	
	
	
PSTAT	PSTAT	REF600-11020	Potentiostat
VDC	POTEN	0.00000E+000	T	DC &Voltage (V)
FREQINIT	QUANT	1.00000E+006	Initial Fre&q. (Hz)
FREQFINAL	QUANT	1.00000E+000	Final Fre&q. (Hz)
PTSPERDEC	QUANT	1.00000E+001	Points/&decade
VAC	QUANT	2.50000E+001	AC &Voltage (mV rms)
AREA	QUANT	1.00000E-001	&Area (cm^2)
CONDIT	TWOPARAM	T	5.00000E+000	0.00000E+000	Conditionin&g	Time(s)	E(V)
DELAY	TWOPARAM	T	5.00000E+000	0.00000E+000	Init. De&lay	Time(s)	Stab.(mV/s)
SPEED	SELECTOR	0	&Optimize for:
ZGUESS	QUANT	1.00000E+003	E&stimated Z (ohms)
OCVCURVE	TABLE	19
	Pt	T	Vf	Vm	Ach	Over
	#	s	V vs. Ref.	V	V	bits
	0	0.258333	1.39877E-003	1.39877E-003	6.54413E-004	...........
	1	0.516667	1.39248E-003	1.06968E-003	6.48880E-004	...........
	2	0.775	1.35407E-003	7.67628E-004	6.49880E-004	...........
	3	1.03333	1.24643E-003	4.98917E-004	6.47713E-004	...........
	4	1.29167	1.05713E-003	2.57217E-004	6.47546E-004	...........
	5	1.55	8.12852E-004	7.06104E-005	6.43213E-004	...........
	6	1.80833	5.53808E-004	-1.88080E-004	6.41513E-004	...........
	7	2.06667	3.04617E-004	-3.94718E-004	6.36646E-004	...........
	8	2.325	6.96317E-005	-5.84718E-004	6.41313E-004	...........
	9	2.58333	-1.53686E-004	-7.85614E-004	6.45280E-004	...........
	10	2.84167	-3.66347E-004	-9.72079E-004	6.48980E-004	...........
	11	3.1	-5.69284E-004	-1.14729E-003	6.44813E-004	...........
	12	3.35833	-7.63741E-004	-1.31757E-003	6.45280E-004	...........
	13	3.61667	-9.50316E-004	-1.49153E-003	6.44946E-004	...........
	14	3.875	-1.12989E-003	-1.65312E-003	6.41146E-004	...........
	15	4.13333	-1.30380E-003	-1.81211E-003	6.41880E-004	...........
	16	4.39167	-1.47278E-003	-1.96427E-003	6.48013E-004	...........
	17	4.65	-1.63673E-003	-2.11262E-003	6.48413E-004	...........
	18	4.90833	-1.79548E-003	-2.25753E-003	6.47213E-004	...........
EOC	QUANT	-0.0017955	Open Circuit (V)
PSTATMODEL	IQUANT	4	Pstat Model
PSTATSECTION	LABEL	REF600-11020	Pstat Section
PSTATSERIALNO	LABEL	11020	Pstat Serial Number
CTRLMODE	IQUANT	1	Control Mode
IESTAB	IQUANT	0	I/E Stability
CASPEED	IQUANT	1	Control Amp Speed
CONVENTION	IQUANT	1	Current Convention
ICHRANGE	IQUANT	2	Ich Range
ICHRANGEMODE	TOGGLE	F	Ich Auto Range
ICHOFFSETENABLE	TOGGLE	T	Ich Offset Enable
ICHOFFSET	QUANT	0	Ich Offset (V)
ICHFILTER	IQUANT	3	Ich Filter
VCHRANGE	IQUANT	2	Vch Range
VCHRANGEMODE	TOGGLE	F	Vch Auto Range
VCHOFFSETENABLE	TOGGLE	T	Vch Offset Enable
VCHOFFSET	QUANT	0	Vch Offset (V)
VCHFILTER	IQUANT	3	Vch Filter
ACHRANGE	IQUANT	2	Ach Range
ACHOFFSETENABLE	TOGGLE	F	Ach Offset Enable
ACHOFFSET	QUANT	0	Ach Offset (V)
ACHFILTER	IQUANT	3	Ach Filter
IERANGELOWERLIMIT	IQUANT	1	I/E Range Lower Limit
IERANGEMODE	TOGGLE	F	I/E AutoRange
IERANGE	IQUANT	6	I/E Range
POSFEEDENABLE	TOGGLE	F	Positive Feedback IR Comp
POSFEEDRESISTANCE	QUANT	0	Positive Feedback Resistance (ohm)
ACHSELECT	IQUANT	0	Ach Select
CABLEID	IQUANT	14	Cable ID
DCCALDATE	LABEL	12/22/2019	DC Calibration Date
ACCALDATE	LABEL	12/22/2019	AC Calibration Date
THERMOSELECT	IQUANT	1	Thermo Select
FRAMEWORKVERSION	QUANT	6.33	Framework Version
INSTRUMENTVERSION	LABEL	3.50	Instrument Version
ZCURVE	TABLE
	Pt	Time	Freq	Zreal	Zimag	Zsig	Zmod	Zphz	Idc	Vdc	IERange
	#	s	Hz	ohm	ohm	V	ohm	°	A	V	#
	0	1	1000078	2488.717	-1724.386	1	3027.742	-34.71738	-8.857267E-006	0.0017163	8
	1	1	794390.6	2789.229	-1660.673	1	3246.172	-30.76906	-8.288012E-007	0.0007725	8
	2	1	630984.4	3101.646	-1599.628	1	3489.844	-27.28175	-6.547007E-007	0.0001305	8
	3	2	501234.4	3330.906	-1531.815	1	3666.251	-24.69672	1.087843E-006	-0.0003886	8
	4	2	398109.4	3572.286	-1428.935	1	3847.477	-21.8017	3.176523E-006	-0.0009539	8
	5	2	316265.6	3747.51	-1333.905	1	3977.831	-19.5929	-8.246086E-007	0.0002876	8
	6	3	251203.1	3960.495	-1259.229	1	4155.861	-17.63793	1.061208E-006	-0.0003347	8
	7	3	199546.9	4138.169	-1176.224	1	4302.086	-15.86715	-1.191462E-006	0.0002867	8
	8	3	158578.1	4292.182	-1120.716	1	4436.083	-14.63358	6.582663E-006	-0.0014525	8
	9	4	125953.1	4472.648	-942.2924	1	4570.832	-11.89703	-1.052886E-007	-0.0005221	7
	10	4	100078.1	4592.163	-857.3491	1	4671.51	-10.57528	-3.673089E-009	-0.0002474	7
	11	4	79453.13	4704.667	-805.5558	1	4773.134	-9.71624	-5.633654E-008	-8.954755E-005	7
	12	4	63140.62	4797.6	-754.9187	1	4856.631	-8.942363	1.086406E-007	-0.00043	7
	13	5	50203.12	4880.481	-713.6702	1	4932.385	-8.319368	-7.630332E-008	-0.0001102	7
	14	5	39890.62	4954.733	-685.1654	1	5001.883	-7.873216	-8.07633E-008	5.65284E-005	7
	15	5	31640.63	5023.836	-671.4007	1	5068.501	-7.612077	-3.781056E-008	-0.000233	7
	16	6	25171.88	5086.452	-671.665	1	5130.607	-7.522375	-8.761891E-008	-0.0001205	7
	17	6	20015.62	5148.528	-687.0217	1	5194.164	-7.600671	-1.588726E-008	-0.0001735	7
	18	6	15890.62	5214.659	-718.7063	1	5263.953	-7.847308	-8.142586E-008	5.494243E-005	7
	19	7	12609.37	5280.873	-766.7162	1	5336.241	-8.260903	-3.928106E-008	-0.0002385	7
	20	7	10078.13	5345.85	-830.8029	1	5410.022	-8.833718	-1.641562E-009	-0.0001643	7
	21	7	8015.625	5426.341	-917.657	1	5503.387	-9.59856	1.500758E-008	-7.852422E-005	7
	22	8	6328.125	5510.081	-1026.682	1	5604.915	-10.55477	-3.723078E-008	-0.0002417	7
	23	8	5015.625	5598.735	-1158.756	1	5717.391	-11.69327	1.173262E-007	-0.0002797	7
	24	8	3984.375	5694.8	-1318.452	1	5845.431	-13.03538	1.187514E-007	-0.0002827	7
	25	9	3170.956	5800.136	-1514.488	1	5994.602	-14.6339	1.488258E-008	-8.533675E-005	7
	26	9	2527.573	5912.178	-1745.433	1	6164.445	-16.44801	6.173307E-008	-0.0004115	7
	27	9	1976.103	6046.309	-2060.066	1	6387.623	-18.81473	1.688039E-008	-0.0003427	7
	28	9	1577.524	6188.521	-2410.683	1	6641.474	-21.28296	-3.682677E-008	-0.0002463	7
	29	10	1265.625	6327.564	-2823.179	1	6928.811	-24.04507	6.609319E-008	-0.0002989	7
	30	10	998.264	6506.414	-3367.655	1	7326.29	-27.36563	-5.134886E-008	-0.0001155	7
	31	10	796.875	6692.972	-3994.028	1	7794.109	-30.82662	1.586743E-008	-0.0003479	7
	32	11	627.7902	6917.055	-4822.035	1	8431.943	-34.88122	-5.370213E-008	-0.0002179	7
	33	11	505.5147	7144.286	-5738.993	1	9163.889	-38.77485	1.204575E-007	-0.000285	7
	34	11	397.9953	7449.818	-6983.689	1	10211.35	-43.15028	9.284651E-010	-0.0002147	6
	35	12	315.5048	7796.797	-8486.066	1	11524.03	-47.42394	6.333691E-010	-0.0002176	6
	36	12	252.4038	8201.844	-10259.72	1	13135.14	-51.36039	4.364733E-010	-0.0002233	6
	37	12	198.6229	8744.993	-12608.13	1	15344.05	-55.25485	7.167708E-010	-0.0002188	6
	38	13	158.3615	9399.841	-15341.01	1	17991.76	-58.5031	5.426161E-010	-0.000218	6
	39	13	125.558	10269.75	-18767.89	1	21393.96	-61.31261	8.360874E-010	-0.0002175	6
	40	13	100.4464	11381.25	-22779.5	1	25464.46	-63.45207	5.636051E-010	-0.0002207	6
	41	14	79.00281	12925.5	-28050.86	1	30885.59	-65.26031	2.549392E-010	-0.0002252	6
	42	14	63.3446	14741.16	-33603.07	1	36694.25	-66.31366	7.594902E-010	-0.0002255	6
	43	14	49.86702	17555.88	-41151.98	1	44740.3	-66.89639	1.251038E-009	-0.0002207	6
	44	15	39.72458	20957.74	-49784.86	1	54016.28	-67.17056	4.468432E-010	-0.0002142	6
	45	15	31.6723	25256.89	-59708.9	1	64831.04	-67.07162	9.304171E-010	-0.0002195	6
	46	15	24.93351	31452.92	-71913.52	1	78491.02	-66.37681	1.322406E-009	-0.0002213	6
	47	16	19.86229	38833.42	-85145.38	1	93582.96	-65.48305	1.549059E-009	-0.0002164	6
	48	16	15.83615	47501.73	-100691.7	1	111333.9	-64.74422	-4.392917E-010	-0.0002213	5
	49	16	12.40079	59767.19	-119098.9	1	133254.2	-63.35122	1.46721E-009	-0.0002203	5
	50	17	9.93114	73137.81	-136871.4	1	155186.7	-61.88198	1.611992E-009	-0.000219	5
	51	17	7.944915	88479.23	-157345.2	1	180516.2	-60.64984	1.038698E-009	-0.0002233	5
	52	18	6.317385	106771.2	-180624.1	1	209821.7	-59.41166	8.351964E-010	-0.000231	5
	53	18	5.008013	128072.6	-206749.2	1	243203.2	-58.22349	7.874946E-010	-0.0002169	5
	54	20	3.945707	153038.8	-236942.6	1	282068.6	-57.14199	2.890037E-010	-0.0002171	5
	55	21	3.158693	178262.1	-268445.5	1	322242.7	-56.41373	3.602262E-010	-0.0002408	5
	56	23	2.504006	208270.5	-305948.7	1	370109.8	-55.75544	6.485957E-010	-0.0002369	5
	57	24	1.998082	239196.9	-346936.8	1	421402.8	-55.41553	4.303414E-010	-0.0002445	5
	58	25	1.584686	276923.8	-396775.5	1	483856.9	-55.08744	2.670417E-010	-0.0002838	5
	59	27	1.266892	313991.2	-453266.5	1	551399.1	-55.28851	3.055301E-010	-0.0002674	5
	60	30	0.999041	359096.1	-523028.7	1	634435.9	-55.52766	3.060144E-010	-0.0002427	5
