EXPLAIN
TAG	EISPOT
TITLE	LABEL	Potentiostatic EIS	Test &Identifier
DATE	LABEL	1/10/2020	Date
TIME	LABEL	12:49:24	Time
NOTES	NOTES	5	&Notes...
	
	
	
	
	
PSTAT	PSTAT	REF600-11020	Potentiostat
VDC	POTEN	0.00000E+000	T	DC &Voltage (V)
FREQINIT	QUANT	1.00000E+006	Initial Fre&q. (Hz)
FREQFINAL	QUANT	1.00000E+000	Final Fre&q. (Hz)
PTSPERDEC	QUANT	1.00000E+001	Points/&decade
VAC	QUANT	2.50000E+001	AC &Voltage (mV rms)
AREA	QUANT	1.00000E-001	&Area (cm^2)
CONDIT	TWOPARAM	T	5.00000E+000	0.00000E+000	Conditionin&g	Time(s)	E(V)
DELAY	TWOPARAM	T	5.00000E+000	0.00000E+000	Init. De&lay	Time(s)	Stab.(mV/s)
SPEED	SELECTOR	0	&Optimize for:
ZGUESS	QUANT	5.00000E+002	E&stimated Z (ohms)
OCVCURVE	TABLE	19
	Pt	T	Vf	Vm	Ach	Over
	#	s	V vs. Ref.	V	V	bits
	0	0.258333	6.64272E-003	6.64272E-003	6.24213E-004	...........
	1	0.516667	6.64313E-003	6.66403E-003	6.22180E-004	...........
	2	0.775	6.64616E-003	6.71190E-003	6.20480E-004	...........
	3	1.03333	6.65699E-003	6.78462E-003	6.18713E-004	...........
	4	1.29167	6.68040E-003	6.77016E-003	6.16647E-004	...........
	5	1.55	6.71419E-003	6.82880E-003	6.19113E-004	...........
	6	1.80833	6.75175E-003	6.90386E-003	6.16480E-004	...........
	7	2.06667	6.79294E-003	6.99862E-003	6.21280E-004	...........
	8	2.325	6.84469E-003	7.08510E-003	6.21213E-004	...........
	9	2.58333	6.91078E-003	7.14029E-003	6.21413E-004	...........
	10	2.84167	6.98669E-003	7.22558E-003	6.23113E-004	...........
	11	3.1	7.06472E-003	7.28610E-003	6.21547E-004	...........
	12	3.35833	7.14039E-003	7.35859E-003	6.22147E-004	...........
	13	3.61667	7.21306E-003	7.42989E-003	6.23380E-004	...........
	14	3.875	7.28353E-003	7.48687E-003	6.21347E-004	...........
	15	4.13333	7.35313E-003	7.59799E-003	6.19313E-004	...........
	16	4.39167	7.42445E-003	7.66619E-003	6.18313E-004	...........
	17	4.65	7.49962E-003	7.72010E-003	6.25080E-004	...........
	18	4.90833	7.57580E-003	7.76493E-003	6.25013E-004	...........
EOC	QUANT	0.0075758	Open Circuit (V)
PSTATMODEL	IQUANT	4	Pstat Model
PSTATSECTION	LABEL	REF600-11020	Pstat Section
PSTATSERIALNO	LABEL	11020	Pstat Serial Number
CTRLMODE	IQUANT	1	Control Mode
IESTAB	IQUANT	0	I/E Stability
CASPEED	IQUANT	1	Control Amp Speed
CONVENTION	IQUANT	1	Current Convention
ICHRANGE	IQUANT	2	Ich Range
ICHRANGEMODE	TOGGLE	F	Ich Auto Range
ICHOFFSETENABLE	TOGGLE	T	Ich Offset Enable
ICHOFFSET	QUANT	0	Ich Offset (V)
ICHFILTER	IQUANT	3	Ich Filter
VCHRANGE	IQUANT	2	Vch Range
VCHRANGEMODE	TOGGLE	F	Vch Auto Range
VCHOFFSETENABLE	TOGGLE	T	Vch Offset Enable
VCHOFFSET	QUANT	0	Vch Offset (V)
VCHFILTER	IQUANT	3	Vch Filter
ACHRANGE	IQUANT	2	Ach Range
ACHOFFSETENABLE	TOGGLE	F	Ach Offset Enable
ACHOFFSET	QUANT	0	Ach Offset (V)
ACHFILTER	IQUANT	3	Ach Filter
IERANGELOWERLIMIT	IQUANT	1	I/E Range Lower Limit
IERANGEMODE	TOGGLE	F	I/E AutoRange
IERANGE	IQUANT	7	I/E Range
POSFEEDENABLE	TOGGLE	F	Positive Feedback IR Comp
POSFEEDRESISTANCE	QUANT	0	Positive Feedback Resistance (ohm)
ACHSELECT	IQUANT	0	Ach Select
CABLEID	IQUANT	14	Cable ID
DCCALDATE	LABEL	12/22/2019	DC Calibration Date
ACCALDATE	LABEL	12/22/2019	AC Calibration Date
THERMOSELECT	IQUANT	1	Thermo Select
FRAMEWORKVERSION	QUANT	6.33	Framework Version
INSTRUMENTVERSION	LABEL	3.50	Instrument Version
ZCURVE	TABLE
	Pt	Time	Freq	Zreal	Zimag	Zsig	Zmod	Zphz	Idc	Vdc	IERange
	#	s	Hz	ohm	ohm	V	ohm	°	A	V	#
	0	1	1000078	2054.571	-1867.235	1	2776.297	-42.26519	9.755262E-007	0.009417	8
	1	1	794390.6	2416.376	-1930.439	1	3092.809	-38.6213	-1.999904E-006	0.0098482	8
	2	1	630984.4	2786.626	-1961.673	1	3407.851	-35.14402	-7.642089E-008	0.0093408	8
	3	2	501234.4	3178.38	-1914.715	1	3710.556	-31.06554	7.917779E-007	0.0089864	8
	4	2	398109.4	3545.659	-1834.733	1	3992.236	-27.35971	-1.378091E-006	0.0094946	8
	5	2	316265.6	3844.78	-1698.009	1	4203.042	-23.82818	3.953181E-006	0.0084873	8
	6	3	251203.1	4100.047	-1539.053	1	4379.392	-20.57485	1.729763E-006	0.0087202	8
	7	3	199546.9	4346.31	-1402.482	1	4566.987	-17.88403	3.724138E-006	0.0085069	8
	8	3	158578.1	4529.721	-1231.666	1	4694.185	-15.2114	-3.537921E-007	0.009115	8
	9	4	125953.1	4705.452	-1085.475	1	4829.03	-12.99001	6.423326E-008	0.0085671	7
	10	4	100078.1	4803.539	-963.139	1	4899.145	-11.33781	-2.993293E-008	0.0091308	7
	11	4	79453.13	4904.415	-874.6044	1	4981.788	-10.11127	1.708129E-008	0.0090853	7
	12	5	63140.62	4989.292	-803.7391	1	5053.615	-9.151318	2.057383E-009	0.0091133	7
	13	5	50203.12	5063.035	-749.5598	1	5118.218	-8.421217	9.239935E-008	0.0089555	7
	14	5	39890.62	5129.169	-712.3779	1	5178.403	-7.90709	-3.086117E-008	0.0091113	7
	15	6	31640.63	5191.929	-695.6899	1	5238.331	-7.63186	2.607448E-009	0.009103	7
	16	6	25171.88	5251.706	-692.6919	1	5297.191	-7.513852	-2.958131E-008	0.0091129	7
	17	6	20015.62	5312.267	-708.8414	1	5359.351	-7.600357	5.77181E-008	0.0089743	7
	18	6	15890.62	5373.268	-742.8193	1	5424.37	-7.870882	-1.098034E-008	0.0091454	7
	19	7	12609.37	5436.292	-793.8788	1	5493.953	-8.308354	2.34884E-008	0.0090225	7
	20	7	10078.13	5501.961	-861.338	1	5568.975	-8.897497	-3.084866E-008	0.0091089	7
	21	7	8015.625	5571.017	-954.039	1	5652.116	-9.71766	-3.078302E-008	0.009106	7
	22	8	6328.125	5647.559	-1078.362	1	5749.59	-10.81011	-1.175387E-008	0.0091707	7
	23	8	5015.625	5727.724	-1229.136	1	5858.123	-12.11165	-3.602777E-009	0.0091102	7
	24	8	3984.375	5814.407	-1419.037	1	5985.064	-13.71523	1.016787E-008	0.0090178	7
	25	9	3170.956	5908.78	-1651.062	1	6135.119	-15.6117	-1.101279E-008	0.0091377	7
	26	9	2527.573	6015.72	-1931.481	1	6318.188	-17.80038	5.501481E-009	0.0090988	7
	27	9	1976.103	6144.935	-2311.762	1	6565.399	-20.61661	9.41378E-008	0.00894	7
	28	10	1577.524	6277.601	-2735.283	1	6847.631	-23.54377	2.262413E-008	0.0090107	7
	29	10	1265.625	6435.845	-3246.257	1	7208.209	-26.7665	3.834722E-008	0.0090828	7
	30	10	998.264	6628.143	-3912.801	1	7696.901	-30.55469	4.98886E-009	0.0090955	7
	31	11	796.875	6847.474	-4686.969	1	8297.926	-34.39092	6.637462E-008	0.0089611	7
	32	11	627.7902	7120.571	-5688.587	1	9113.866	-38.62118	-3.706133E-008	0.0091554	7
	33	11	505.5147	7426.956	-6785.109	1	10059.69	-42.41416	-4.521825E-009	0.0091747	6
	34	12	397.9953	7826.347	-8256.573	1	11376.41	-46.53233	1.299216E-010	0.0090791	6
	35	12	315.5048	8296.948	-10000.63	1	12994.31	-50.31947	1.115458E-009	0.0090779	6
	36	12	252.4038	8834.18	-12027.56	1	14923.31	-53.70292	6.942358E-011	0.0090755	6
	37	13	198.6229	9532.03	-14670.58	1	17495.3	-56.9867	7.380661E-010	0.0090761	6
	38	13	158.3615	10303.19	-17723.38	1	20500.59	-59.82914	6.323639E-010	0.0090741	6
	39	13	125.558	11263.7	-21518.15	1	24287.89	-62.37014	6.273787E-010	0.0090762	6
	40	14	100.4464	12388.99	-25985.53	1	28787.76	-64.50983	1.203646E-009	0.0090761	6
	41	14	79.00281	13792.73	-31875.73	1	34731.85	-66.60171	1.218346E-009	0.0090769	6
	42	14	63.3446	15694.9	-38141.77	1	41244.7	-67.63339	3.338096E-010	0.0090776	6
	43	15	49.86702	17984.15	-47010.91	1	50333.45	-69.06551	3.501478E-010	0.0090692	6
	44	15	39.72458	20602.75	-57332.39	1	60921.89	-70.23379	6.259687E-010	0.0090769	6
	45	15	31.6723	24224.76	-69802.97	1	73887.03	-70.86093	9.035983E-010	0.009071	6
	46	16	24.93351	29413.65	-85270.2	1	90200.72	-70.96831	6.811034E-010	0.0090751	6
	47	16	19.86229	35718.83	-103038.8	1	109054.2	-70.88091	8.416166E-010	0.0090722	5
	48	16	15.83615	44408.22	-123882.2	1	131601.3	-70.2787	9.006234E-011	0.0090666	5
	49	17	12.40079	56244.38	-151417	1	161525.6	-69.62231	-6.151346E-010	0.0090702	5
	50	17	9.93114	69850.57	-180823	1	193845.5	-68.87883	-1.029291E-011	0.0090728	5
	51	18	7.944915	87688.91	-213790.5	1	231075.2	-67.69839	7.235633E-010	0.0090623	5
	52	18	6.317385	112406.6	-252373.6	1	276274.7	-65.99191	4.317012E-010	0.0090525	5
	53	19	5.008013	142956.7	-296468	1	329135.1	-64.25666	5.982585E-011	0.0090645	5
	54	20	3.945707	182718.3	-345589.6	1	390919.6	-62.13393	-1.167211E-010	0.0090677	5
	55	21	3.158693	225621.4	-396750	1	456416	-60.37423	-2.785808E-010	0.0090542	5
	56	23	2.504006	279577.5	-451878.8	1	531373.7	-58.25491	-4.5225E-011	0.0090574	5
	57	24	1.998082	337970.6	-509385.3	1	611308.1	-56.43624	4.310696E-011	0.0090835	5
	58	26	1.584686	405937.1	-569882.9	1	699679.6	-54.5371	-1.068073E-010	0.0090352	5
	59	28	1.266892	479789.7	-634829.6	1	795742.9	-52.91884	-1.708873E-010	0.0090178	5
	60	30	0.999041	563714.4	-710173.9	1	906708.8	-51.55853	-2.11946E-010	0.0090244	5
