EXPLAIN
TAG	EISPOT
TITLE	LABEL	Potentiostatic EIS	Test &Identifier
DATE	LABEL	1/28/2020	Date
TIME	LABEL	12:42:29	Time
NOTES	NOTES	6	&Notes...
	
	
	
	
	
	
PSTAT	PSTAT	REF600-11020	Potentiostat
VDC	POTEN	0.00000E+000	T	DC &Voltage (V)
FREQINIT	QUANT	1.00000E+006	Initial Fre&q. (Hz)
FREQFINAL	QUANT	1.00000E+000	Final Fre&q. (Hz)
PTSPERDEC	QUANT	1.00000E+001	Points/&decade
VAC	QUANT	2.50000E+001	AC &Voltage (mV rms)
AREA	QUANT	1.60000E-004	&Area (cm^2)
CONDIT	TWOPARAM	F	5.00000E+000	0.00000E+000	Conditionin&g	Time(s)	E(V)
DELAY	TWOPARAM	F	5.00000E+000	0.00000E+000	Init. De&lay	Time(s)	Stab.(mV/s)
SPEED	SELECTOR	0	&Optimize for:
ZGUESS	QUANT	1.00000E+003	E&stimated Z (ohms)
OCVCURVE	TABLE	39
	Pt	T	Vf	Vm	Ach	Over
	#	s	V vs. Ref.	V	V	bits
	0	0.258333	3.72968E-002	3.72968E-002	5.77637E-004	...........
	1	0.516667	3.73030E-002	3.76206E-002	5.73638E-004	...........
	2	0.775	3.73403E-002	3.78882E-002	5.75638E-004	...........
	3	1.03333	3.74412E-002	3.80457E-002	5.76271E-004	...........
	4	1.29167	3.75996E-002	3.77235E-002	5.72838E-004	...........
	5	1.55	3.77485E-002	3.76901E-002	5.66338E-004	...........
	6	1.80833	3.78131E-002	3.74745E-002	5.71404E-004	...........
	7	2.06667	3.77773E-002	3.75038E-002	5.69404E-004	...........
	8	2.325	3.76887E-002	3.77350E-002	5.71438E-004	...........
	9	2.58333	3.76224E-002	3.79473E-002	5.72638E-004	...........
	10	2.84167	3.76375E-002	3.81079E-002	5.71438E-004	...........
	11	3.1	3.77399E-002	3.81706E-002	5.73404E-004	...........
	12	3.35833	3.78931E-002	3.85334E-002	5.76904E-004	...........
	13	3.61667	3.80634E-002	3.84861E-002	5.73271E-004	...........
	14	3.875	3.82353E-002	3.87634E-002	5.73771E-004	...........
	15	4.13333	3.84013E-002	3.89085E-002	5.77237E-004	...........
	16	4.39167	3.85639E-002	3.91073E-002	5.75871E-004	...........
	17	4.65	3.87292E-002	3.91714E-002	5.73671E-004	...........
	18	4.90833	3.88901E-002	3.91796E-002	5.76904E-004	...........
	19	5.16667	3.90252E-002	3.91874E-002	5.77271E-004	...........
	20	5.425	3.91169E-002	3.91802E-002	5.74271E-004	...........
	21	5.68333	3.91670E-002	3.92762E-002	5.76004E-004	...........
	22	5.94167	3.91920E-002	3.91498E-002	5.82104E-004	...........
	23	6.2	3.92025E-002	3.91078E-002	5.73337E-004	...........
	24	6.45833	3.91954E-002	3.91210E-002	5.78104E-004	...........
	25	6.71667	3.91682E-002	3.89423E-002	5.79137E-004	...........
	26	6.975	3.91273E-002	3.91110E-002	5.80371E-004	...........
	27	7.23333	3.90889E-002	3.91923E-002	5.79304E-004	...........
	28	7.49167	3.90753E-002	3.90823E-002	5.78237E-004	...........
	29	7.75	3.90820E-002	3.87793E-002	5.76471E-004	...........
	30	8.00833	3.90652E-002	3.86953E-002	5.76404E-004	...........
	31	8.26667	3.89945E-002	3.88733E-002	5.77804E-004	...........
	32	8.525	3.89059E-002	3.91095E-002	5.74838E-004	...........
	33	8.78333	3.88682E-002	3.90374E-002	5.74471E-004	...........
	34	9.04167	3.89031E-002	3.90629E-002	5.85037E-004	...........
	35	9.3	3.89711E-002	3.91128E-002	5.77538E-004	...........
	36	9.5583	3.90311E-002	3.91419E-002	5.72504E-004	...........
	37	9.8167	3.90738E-002	3.91509E-002	5.73238E-004	...........
	38	10.075	3.91048E-002	3.91289E-002	5.75137E-004	...........
EOC	QUANT	0.0391048	Open Circuit (V)
PSTATMODEL	IQUANT	4	Pstat Model
PSTATSECTION	LABEL	REF600-11020	Pstat Section
PSTATSERIALNO	LABEL	11020	Pstat Serial Number
CTRLMODE	IQUANT	1	Control Mode
IESTAB	IQUANT	0	I/E Stability
CASPEED	IQUANT	1	Control Amp Speed
CONVENTION	IQUANT	1	Current Convention
ICHRANGE	IQUANT	2	Ich Range
ICHRANGEMODE	TOGGLE	F	Ich Auto Range
ICHOFFSETENABLE	TOGGLE	T	Ich Offset Enable
ICHOFFSET	QUANT	0	Ich Offset (V)
ICHFILTER	IQUANT	3	Ich Filter
VCHRANGE	IQUANT	2	Vch Range
VCHRANGEMODE	TOGGLE	F	Vch Auto Range
VCHOFFSETENABLE	TOGGLE	T	Vch Offset Enable
VCHOFFSET	QUANT	0	Vch Offset (V)
VCHFILTER	IQUANT	3	Vch Filter
ACHRANGE	IQUANT	2	Ach Range
ACHOFFSETENABLE	TOGGLE	F	Ach Offset Enable
ACHOFFSET	QUANT	0	Ach Offset (V)
ACHFILTER	IQUANT	3	Ach Filter
IERANGELOWERLIMIT	IQUANT	1	I/E Range Lower Limit
IERANGEMODE	TOGGLE	F	I/E AutoRange
IERANGE	IQUANT	7	I/E Range
POSFEEDENABLE	TOGGLE	F	Positive Feedback IR Comp
POSFEEDRESISTANCE	QUANT	0	Positive Feedback Resistance (ohm)
ACHSELECT	IQUANT	0	Ach Select
CABLEID	IQUANT	14	Cable ID
DCCALDATE	LABEL	1/27/2020	DC Calibration Date
ACCALDATE	LABEL	1/27/2020	AC Calibration Date
THERMOSELECT	IQUANT	1	Thermo Select
FRAMEWORKVERSION	QUANT	6.33	Framework Version
INSTRUMENTVERSION	LABEL	3.50	Instrument Version
ZCURVE	TABLE
	Pt	Time	Freq	Zreal	Zimag	Zsig	Zmod	Zphz	Idc	Vdc	IERange
	#	s	Hz	ohm	ohm	V	ohm	°	A	V	#
	0	1	1000078	1994.497	-2633.694	1	3303.689	-52.86335	-3.554676E-007	0.0404894	8
	1	1	794390.6	2445.989	-2911.672	1	3802.722	-49.96762	2.558227E-006	0.0402811	8
	2	2	630984.4	2931.802	-3169.037	1	4317.205	-47.22687	3.868551E-006	0.039999	8
	3	2	501234.4	3499.332	-3405.78	1	4883.099	-44.22379	-3.159481E-006	0.0411985	8
	4	2	398109.4	4099.712	-3604.235	1	5458.769	-41.32011	-7.520309E-007	0.0409569	8
	5	3	316265.6	4698.068	-3709.172	1	5985.8	-38.29145	-9.04481E-008	0.04062	8
	6	3	251203.1	5369.435	-3772.005	1	6561.924	-35.08788	2.014973E-007	0.040526	8
	7	3	199546.9	6005.559	-3821.108	1	7118.118	-32.46704	-1.562078E-007	0.0406415	8
	8	4	158578.1	6612.504	-3789.122	1	7621.198	-29.81373	-2.522841E-006	0.0411672	8
	9	4	125953.1	7241.019	-3735.344	1	8147.708	-27.28735	4.483187E-007	0.0397264	7
	10	5	100078.1	7801.99	-3700.652	1	8635.153	-25.376	7.244917E-008	0.0404378	7
	11	5	79453.13	8322.228	-3680.678	1	9099.827	-23.8584	-4.839464E-008	0.0406205	7
	12	5	63140.62	8831.492	-3674.189	1	9565.3	-22.58891	-2.060274E-008	0.040593	7
	13	6	50203.12	9324.504	-3685.016	1	10026.25	-21.56378	4.922467E-009	0.0405664	7
	14	6	39890.62	9799.71	-3717.531	1	10481.14	-20.7743	4.132837E-008	0.0404207	7
	15	6	31640.63	10285.38	-3788.194	1	10960.82	-20.21918	7.434771E-008	0.0404217	7
	16	7	25171.88	10762.78	-3884.828	1	11442.43	-19.84706	7.002524E-008	0.0403993	7
	17	7	20015.62	11247.11	-4017.941	1	11943.25	-19.65887	3.975924E-008	0.0404969	7
	18	7	15890.62	11745.17	-4200.973	1	12473.86	-19.68095	-3.481826E-008	0.0405842	7
	19	8	12609.37	12319.36	-4352.839	1	13065.75	-19.46001	-6.871671E-009	0.0406255	6
	20	8	10078.13	12820	-4641.703	1	13634.43	-19.90367	-7.033702E-009	0.0406251	6
	21	8	8015.625	13383.42	-4978.303	1	14279.34	-20.40396	9.087408E-009	0.0405082	6
	22	9	6328.125	14001.23	-5400.029	1	15006.49	-21.09075	3.018034E-009	0.0404382	6
	23	9	5015.625	14646.57	-5885.962	1	15785.01	-21.89353	8.418255E-009	0.0403629	6
	24	9	3984.375	15339.8	-6451.116	1	16641.1	-22.80908	8.842687E-009	0.0403638	6
	25	10	3170.956	16083.06	-7102.78	1	17581.65	-23.82774	-1.665371E-009	0.0404455	6
	26	10	2527.573	16884.24	-7847.081	1	18618.66	-24.92701	1.451544E-008	0.0403601	6
	27	10	1976.103	17836.49	-8803.043	1	19890.55	-26.26824	1.556104E-008	0.0402706	6
	28	11	1577.524	18820.13	-9827.95	1	21231.72	-27.57376	-2.239192E-009	0.0404425	6
	29	11	1265.625	19869.89	-10964.37	1	22694.28	-28.89028	1.438464E-008	0.0403559	6
	30	11	998.264	21146.38	-12387.04	1	24507.31	-30.36073	-5.180856E-009	0.0406604	6
	31	11	796.875	22499.27	-13928.7	1	26461.78	-31.76056	-5.088304E-009	0.040656	6
	32	12	627.7902	24129.52	-15845.74	1	28867.3	-33.29272	-2.385186E-009	0.0405018	6
	33	12	505.5147	25773.79	-17821.79	1	31335.35	-34.66269	8.613748E-009	0.0404936	6
	34	12	397.9953	27859.23	-20317.76	1	34481.12	-36.1033	1.28655E-009	0.0405342	6
	35	13	315.5048	30165.24	-23101.64	1	37995.1	-37.4462	3.905181E-010	0.0405369	6
	36	13	252.4038	32652.53	-26166.04	1	41843.15	-38.70688	2.156914E-010	0.0405346	6
	37	13	198.6229	35678.47	-29894.71	1	46547.26	-39.95938	7.214195E-010	0.0405313	6
	38	14	158.3615	38931.55	-33965.24	1	51665.3	-41.10258	7.136627E-010	0.040527	6
	39	14	125.558	42652.02	-38656.86	1	57563.42	-42.187	8.290293E-010	0.0405291	6
	40	14	100.4464	46675.34	-43622.07	1	63886.41	-43.06337	9.366825E-010	0.0405256	6
	41	15	79.00281	51698.3	-50075.41	1	71974.03	-44.08644	1.075463E-009	0.0405313	6
	42	15	63.3446	55193.17	-57848.54	1	79954.61	-46.34564	1.890476E-010	0.0405299	6
	43	15	49.86702	61063.94	-65861.3	1	89813.78	-47.16456	4.387281E-010	0.0405274	6
	44	16	39.72458	67830.4	-75255.97	1	101313.5	-47.97074	1.841373E-010	0.0405277	5
	45	16	31.6723	74220.69	-86259.01	1	113795.1	-49.28999	3.853421E-010	0.0405229	5
	46	16	24.93351	81796.59	-101329.2	1	130224	-51.08827	3.759849E-011	0.0405251	5
	47	17	19.86229	90233.62	-117876.5	1	148448.5	-52.5662	6.864573E-011	0.0405367	5
	48	17	15.83615	97754	-138521.6	1	169540.8	-54.78959	6.630828E-010	0.0405194	5
	49	17	12.40079	111686.8	-164974.9	1	199225.2	-55.90229	-6.591617E-011	0.040522	5
	50	18	9.93114	126354.3	-193125.6	1	230787.5	-56.80489	-3.922283E-010	0.0405247	5
	51	18	7.944915	143063.5	-227165.7	1	268461.2	-57.79827	-5.305291E-010	0.0405316	5
	52	19	6.317385	165483.3	-266743.8	1	313905.9	-58.18524	-2.885171E-010	0.0405409	5
	53	20	5.008013	192484.3	-313793.9	1	368126	-58.47464	-3.526354E-011	0.0405273	5
	54	21	3.945707	225732.5	-368668.5	1	432286.5	-58.52123	5.072715E-011	0.0405146	5
	55	22	3.158693	262261.1	-427357.4	1	501413.3	-58.46335	1.520436E-010	0.0405275	5
	56	24	2.504006	305867.5	-496076.7	1	582792.4	-58.34314	5.570444E-011	0.0405228	5
	57	25	1.998082	353051.2	-573354.1	1	673335	-58.37671	1.218916E-011	0.0404884	5
	58	27	1.584686	406838.1	-663098.9	1	777957.3	-58.4692	1.004564E-010	0.0405294	5
	59	29	1.266892	467328.8	-766616.8	1	897829.3	-58.63356	1.286196E-010	0.040553	5
	60	31	0.999041	538357.2	-899757.3	1	1048519	-59.1064	9.042735E-011	0.0405042	4
