EXPLAIN
TAG	EISPOT
TITLE	LABEL	Potentiostatic EIS	Test &Identifier
DATE	LABEL	1/14/2020	Date
TIME	LABEL	18:25:17	Time
NOTES	NOTES	5	&Notes...
	
	
	
	
	
PSTAT	PSTAT	REF600-11020	Potentiostat
VDC	POTEN	0.00000E+000	T	DC &Voltage (V)
FREQINIT	QUANT	1.00000E+006	Initial Fre&q. (Hz)
FREQFINAL	QUANT	1.00000E+000	Final Fre&q. (Hz)
PTSPERDEC	QUANT	1.00000E+001	Points/&decade
VAC	QUANT	2.50000E+001	AC &Voltage (mV rms)
AREA	QUANT	1.00000E-001	&Area (cm^2)
CONDIT	TWOPARAM	T	5.00000E+000	0.00000E+000	Conditionin&g	Time(s)	E(V)
DELAY	TWOPARAM	T	5.00000E+000	0.00000E+000	Init. De&lay	Time(s)	Stab.(mV/s)
SPEED	SELECTOR	1	&Optimize for:
ZGUESS	QUANT	5.00000E+002	E&stimated Z (ohms)
OCVCURVE	TABLE	19
	Pt	T	Vf	Vm	Ach	Over
	#	s	V vs. Ref.	V	V	bits
	0	0.258333	9.29763E-003	9.29763E-003	6.56413E-004	...........
	1	0.516667	9.30154E-003	9.50206E-003	6.56146E-004	...........
	2	0.775	9.32597E-003	9.71935E-003	6.55013E-004	...........
	3	1.03333	9.39648E-003	9.92303E-003	6.53846E-004	...........
	4	1.29167	9.52601E-003	1.01651E-002	6.58613E-004	...........
	5	1.55	9.70903E-003	1.05849E-002	6.55179E-004	...........
	6	1.80833	9.94050E-003	1.09186E-002	6.52480E-004	...........
	7	2.06667	1.02186E-002	1.11405E-002	6.53113E-004	...........
	8	2.325	1.05239E-002	1.13171E-002	6.51080E-004	...........
	9	2.58333	1.08211E-002	1.16044E-002	6.51180E-004	...........
	10	2.84167	1.10899E-002	1.18180E-002	6.48680E-004	...........
	11	3.1	1.13361E-002	1.20711E-002	6.53713E-004	...........
	12	3.35833	1.15715E-002	1.21981E-002	6.48813E-004	...........
	13	3.61667	1.17955E-002	1.23239E-002	6.45413E-004	...........
	14	3.875	1.19995E-002	1.26104E-002	6.49480E-004	...........
	15	4.13333	1.21840E-002	1.26303E-002	6.48580E-004	...........
	16	4.39167	1.23558E-002	1.28496E-002	6.54513E-004	...........
	17	4.65	1.25153E-002	1.28787E-002	6.52046E-004	...........
	18	4.90833	1.26601E-002	1.31031E-002	6.52446E-004	...........
EOC	QUANT	0.0126601	Open Circuit (V)
PSTATMODEL	IQUANT	4	Pstat Model
PSTATSECTION	LABEL	REF600-11020	Pstat Section
PSTATSERIALNO	LABEL	11020	Pstat Serial Number
CTRLMODE	IQUANT	1	Control Mode
IESTAB	IQUANT	0	I/E Stability
CASPEED	IQUANT	1	Control Amp Speed
CONVENTION	IQUANT	1	Current Convention
ICHRANGE	IQUANT	2	Ich Range
ICHRANGEMODE	TOGGLE	F	Ich Auto Range
ICHOFFSETENABLE	TOGGLE	T	Ich Offset Enable
ICHOFFSET	QUANT	0	Ich Offset (V)
ICHFILTER	IQUANT	3	Ich Filter
VCHRANGE	IQUANT	2	Vch Range
VCHRANGEMODE	TOGGLE	F	Vch Auto Range
VCHOFFSETENABLE	TOGGLE	T	Vch Offset Enable
VCHOFFSET	QUANT	0	Vch Offset (V)
VCHFILTER	IQUANT	3	Vch Filter
ACHRANGE	IQUANT	2	Ach Range
ACHOFFSETENABLE	TOGGLE	F	Ach Offset Enable
ACHOFFSET	QUANT	0	Ach Offset (V)
ACHFILTER	IQUANT	3	Ach Filter
IERANGELOWERLIMIT	IQUANT	1	I/E Range Lower Limit
IERANGEMODE	TOGGLE	F	I/E AutoRange
IERANGE	IQUANT	7	I/E Range
POSFEEDENABLE	TOGGLE	F	Positive Feedback IR Comp
POSFEEDRESISTANCE	QUANT	0	Positive Feedback Resistance (ohm)
ACHSELECT	IQUANT	0	Ach Select
CABLEID	IQUANT	14	Cable ID
DCCALDATE	LABEL	12/22/2019	DC Calibration Date
ACCALDATE	LABEL	12/22/2019	AC Calibration Date
THERMOSELECT	IQUANT	1	Thermo Select
FRAMEWORKVERSION	QUANT	6.33	Framework Version
INSTRUMENTVERSION	LABEL	3.50	Instrument Version
ZCURVE	TABLE
	Pt	Time	Freq	Zreal	Zimag	Zsig	Zmod	Zphz	Idc	Vdc	IERange
	#	s	Hz	ohm	ohm	V	ohm	°	A	V	#
	0	1	1000078	2134.919	-1789.321	1	2785.597	-39.96709	-3.712363E-007	0.0151166	8
	1	2	794390.6	2404.47	-1835.546	1	3025.014	-37.35772	2.284284E-006	0.0142734	8
	2	4	630984.4	2662.563	-1893.505	1	3267.201	-35.41887	-4.49075E-007	0.0144967	8
	3	5	501234.4	2924.509	-1960.004	1	3520.563	-33.82996	8.579018E-008	0.0144829	8
	4	6	398109.4	3163.65	-2040.976	1	3764.872	-32.82742	2.839147E-006	0.0140051	8
	5	8	316265.6	3398.178	-2177.645	1	4036.057	-32.65286	-7.872082E-007	0.0146011	8
	6	9	251203.1	3667.431	-2323.144	1	4341.318	-32.35233	-1.337383E-006	0.0145929	8
	7	10	199546.9	3954.515	-2560.252	1	4710.953	-32.92003	1.694255E-006	0.0140384	8
	8	12	158578.1	4282.125	-2805.204	1	5119.156	-33.22866	-1.703313E-006	0.0147226	8
	9	13	125953.1	4735.845	-3070.334	1	5644.039	-32.95607	3.39076E-007	0.0140415	7
	10	14	100078.1	5227.895	-3371.09	1	6220.541	-32.81504	-5.870022E-009	0.0143566	7
	11	16	79453.13	5834.416	-3670.207	1	6892.81	-32.17242	1.356775E-008	0.0143843	7
	12	17	63140.62	6545.167	-3900.832	1	7619.429	-30.79438	5.503637E-008	0.014235	7
	13	18	50203.12	7334.173	-4030.708	1	8368.794	-28.79227	6.149453E-008	0.0142838	7
	14	20	39890.62	8154.832	-4021.425	1	9092.477	-26.24947	8.726498E-008	0.0142026	7
	15	21	31640.63	8949.722	-3867.66	1	9749.68	-23.37179	3.381098E-008	0.0142779	7
	16	23	25171.88	9654.27	-3616.265	1	10309.33	-20.53478	7.569762E-009	0.0143214	7
	17	24	20015.62	10257.51	-3310.557	1	10778.51	-17.88721	-8.576898E-009	0.0143579	7
	18	26	15890.62	10731.69	-2955.15	1	11131.13	-15.39579	5.735631E-008	0.0142241	7
	19	28	12609.37	11129.28	-2571.249	1	11422.44	-13.00906	1.938455E-009	0.0143423	6
	20	29	10078.13	11397.88	-2308.108	1	11629.23	-11.44778	-2.965279E-010	0.0143744	6
	21	31	8015.625	11605.23	-2102.87	1	11794.21	-10.27056	1.097686E-008	0.0141867	6
	22	32	6328.125	11784.21	-1944.839	1	11943.62	-9.37149	-1.368139E-009	0.0142938	6
	23	34	5015.625	11921.49	-1860.2	1	12065.74	-8.86878	-3.252915E-009	0.014404	6
	24	35	3984.375	12028.25	-1835.372	1	12167.47	-8.675758	-1.961034E-010	0.0143749	6
	25	37	3170.956	12142.71	-1892.506	1	12289.3	-8.858585	3.469816E-009	0.0141821	6
	26	38	2527.573	12244.7	-2013.024	1	12409.07	-9.335897	-3.120314E-009	0.0144	6
	27	40	1976.103	12356.59	-2228.911	1	12556.01	-10.22519	-3.895421E-009	0.0143775	6
	28	42	1577.524	12431.49	-2501.641	1	12680.7	-11.37791	2.708473E-009	0.0142314	6
	29	43	1265.625	12576.7	-2880.135	1	12902.27	-12.89864	1.882738E-009	0.0143477	6
	30	45	998.264	12703.12	-3394.577	1	13148.86	-14.96122	-3.242626E-009	0.0144009	6
	31	46	796.875	12847.06	-4018.143	1	13460.77	-17.36799	-5.236604E-009	0.0143633	6
	32	47	627.7902	13028.29	-4853.452	1	13902.96	-20.43196	-2.949372E-009	0.0144011	6
	33	49	505.5147	13218.39	-5794.108	1	14432.51	-23.66962	-3.030545E-009	0.0144005	6
	34	50	397.9953	13474.97	-7081.929	1	15222.63	-27.7247	1.445705E-009	0.0143098	6
	35	51	315.5048	13775.4	-8639.332	1	16260.37	-32.09415	1.180149E-009	0.014308	6
	36	53	252.4038	14136.87	-10481.48	1	17598.65	-36.55431	9.98262E-010	0.0143094	6
	37	54	198.6229	14616.7	-12923.57	1	19510.68	-41.48198	1.171715E-009	0.0143041	6
	38	55	158.3615	15194.38	-15771.89	1	21900.27	-46.06841	7.485579E-010	0.0142986	6
	39	57	125.558	15951.86	-19351.94	1	25079.06	-50.50114	9.795061E-010	0.0143005	6
	40	58	100.4464	16895.8	-23556.2	1	28989.01	-54.34983	8.0326E-010	0.0142991	6
	41	60	79.00281	18204.72	-29100.17	1	34325.38	-57.97039	8.587945E-010	0.0142984	6
	42	61	63.3446	19913.79	-35263.2	1	40497.56	-60.54576	8.369974E-010	0.0143043	6
	43	63	49.86702	22063.88	-43569.93	1	48838.04	-63.14227	8.267692E-010	0.0143055	6
	44	64	39.72458	24937.8	-52828.28	1	58418.5	-64.73016	7.461031E-010	0.0143093	6
	45	66	31.6723	28706.46	-64052.73	1	70191.26	-65.85955	3.296696E-010	0.014311	6
	46	67	24.93351	33747.43	-78220.77	1	85190.25	-66.66279	9.837062E-010	0.0143081	6
	47	68	19.86229	40138.59	-94340.73	1	102524.5	-66.95199	3.957452E-010	0.014304	6
	48	70	15.83615	48373.63	-113193.1	1	123096.3	-66.86033	-3.451848E-010	0.014301	5
	49	71	12.40079	59665.45	-136371.4	1	148852.7	-66.36958	9.370074E-010	0.014301	5
	50	73	9.93114	73318.02	-162133.6	1	177940.5	-65.66716	-6.446288E-011	0.0143033	5
	51	74	7.944915	90392.77	-190833.9	1	211159.8	-64.65437	-1.097173E-010	0.0143012	5
	52	76	6.317385	112419.1	-223821.2	1	250467.5	-63.3309	3.722062E-010	0.0142931	5
	53	78	5.008013	140264.8	-261394.7	1	296650.3	-61.78192	-1.262344E-010	0.014302	5
	54	80	3.945707	174830.7	-303096.7	1	349904.8	-60.02301	2.190764E-010	0.0143101	5
	55	83	3.158693	213519.9	-345676.7	1	406304.2	-58.29693	-2.594897E-010	0.0142989	5
	56	86	2.504006	260360.5	-391951.8	1	470546.3	-56.40524	3.617164E-010	0.0142998	5
	57	89	1.998082	310144.6	-438473.1	1	537073.9	-54.72713	-1.93314E-010	0.0143348	5
	58	92	1.584686	366988.3	-491024.2	1	613013.3	-53.2258	8.427069E-011	0.0143455	5
	59	96	1.266892	424013.1	-544369.1	1	690017.9	-52.08471	-2.940449E-010	0.0143251	5
	60	100	0.999041	488863.3	-609610.1	1	781416.6	-51.2729	2.444859E-010	0.0143094	5
