EXPLAIN
TAG	EISPOT
TITLE	LABEL	Potentiostatic EIS	Test &Identifier
DATE	LABEL	9/11/2020	Date
TIME	LABEL	20:28:19	Time
NOTES	NOTES	1	&Notes...
	
PSTAT	PSTAT	REF600-11020	Potentiostat
VDC	POTEN	0.00000E+000	T	DC &Voltage (V)
FREQINIT	QUANT	1.00000E+006	Initial Fre&q. (Hz)
FREQFINAL	QUANT	1.00000E+000	Final Fre&q. (Hz)
PTSPERDEC	QUANT	1.00000E+001	Points/&decade
VAC	QUANT	2.50000E+001	AC &Voltage (mV rms)
AREA	QUANT	4.00000E-005	&Area (cm^2)
CONDIT	TWOPARAM	F	5.00000E+000	0.00000E+000	Conditionin&g	Time(s)	E(V)
DELAY	TWOPARAM	F	3.00000E+000	0.00000E+000	Init. De&lay	Time(s)	Stab.(mV/s)
SPEED	SELECTOR	0	&Optimize for:
ZGUESS	QUANT	1.00000E+003	E&stimated Z (ohms)
OCVCURVE	TABLE	39
	Pt	T	Vf	Vm	Ach	Over
	#	s	V vs. Ref.	V	V	bits
	0	0.258333	-8.55270E-002	-8.55270E-002	5.54159E-004	...........
	1	0.516667	-8.55271E-002	-8.55334E-002	5.53692E-004	...........
	2	0.775	-8.55279E-002	-8.55396E-002	5.46125E-004	...........
	3	1.03333	-8.55301E-002	-8.55489E-002	5.53592E-004	...........
	4	1.29167	-8.55344E-002	-8.55599E-002	5.48659E-004	...........
	5	1.55	-8.55407E-002	-8.55639E-002	5.45592E-004	...........
	6	1.80833	-8.55484E-002	-8.55700E-002	5.44192E-004	...........
	7	2.06667	-8.55562E-002	-8.55762E-002	5.53725E-004	...........
	8	2.325	-8.55633E-002	-8.55848E-002	5.52992E-004	...........
	9	2.58333	-8.55701E-002	-8.55932E-002	5.52792E-004	...........
	10	2.84167	-8.55770E-002	-8.56022E-002	5.49525E-004	...........
	11	3.1	-8.55845E-002	-8.56074E-002	5.44859E-004	...........
	12	3.35833	-8.55923E-002	-8.56137E-002	5.56359E-004	...........
	13	3.61667	-8.55999E-002	-8.56232E-002	5.52059E-004	...........
	14	3.875	-8.56072E-002	-8.56299E-002	5.48292E-004	...........
	15	4.13333	-8.56145E-002	-8.56379E-002	5.47492E-004	...........
	16	4.39167	-8.56220E-002	-8.56458E-002	5.46192E-004	...........
	17	4.65	-8.56295E-002	-8.56499E-002	5.48259E-004	...........
	18	4.90833	-8.56369E-002	-8.56576E-002	5.52059E-004	...........
	19	5.16667	-8.56439E-002	-8.56663E-002	5.53859E-004	...........
	20	5.425	-8.56507E-002	-8.56725E-002	5.51792E-004	...........
	21	5.68333	-8.56577E-002	-8.56812E-002	5.53992E-004	...........
	22	5.94167	-8.56651E-002	-8.56881E-002	5.51959E-004	...........
	23	6.2	-8.56725E-002	-8.56933E-002	5.55225E-004	...........
	24	6.45833	-8.56798E-002	-8.56989E-002	5.53759E-004	...........
	25	6.71667	-8.56866E-002	-8.57091E-002	5.47725E-004	...........
	26	6.975	-8.56933E-002	-8.57164E-002	5.55259E-004	...........
	27	7.23333	-8.57003E-002	-8.57237E-002	5.52092E-004	...........
	28	7.49167	-8.57078E-002	-8.57300E-002	5.49859E-004	...........
	29	7.75	-8.57153E-002	-8.57351E-002	5.55592E-004	...........
	30	8.00833	-8.57223E-002	-8.57391E-002	5.52892E-004	...........
	31	8.26667	-8.57287E-002	-8.57482E-002	5.48725E-004	...........
	32	8.525	-8.57347E-002	-8.57574E-002	5.52825E-004	...........
	33	8.78333	-8.57410E-002	-8.57615E-002	5.47492E-004	...........
	34	9.04167	-8.57478E-002	-8.57681E-002	5.51725E-004	...........
	35	9.3	-8.57548E-002	-8.57773E-002	5.46092E-004	...........
	36	9.5583	-8.57617E-002	-8.57844E-002	5.44459E-004	...........
	37	9.8167	-8.57687E-002	-8.57872E-002	5.46959E-004	...........
	38	10.075	-8.57757E-002	-8.57939E-002	5.48259E-004	...........
EOC	QUANT	-0.0857757	Open Circuit (V)
PSTATMODEL	IQUANT	4	Pstat Model
PSTATSECTION	LABEL	REF600-11020	Pstat Section
PSTATSERIALNO	LABEL	11020	Pstat Serial Number
CTRLMODE	IQUANT	1	Control Mode
IESTAB	IQUANT	0	I/E Stability
CASPEED	IQUANT	1	Control Amp Speed
CONVENTION	IQUANT	1	Current Convention
ICHRANGE	IQUANT	2	Ich Range
ICHRANGEMODE	TOGGLE	F	Ich Auto Range
ICHOFFSETENABLE	TOGGLE	T	Ich Offset Enable
ICHOFFSET	QUANT	0	Ich Offset (V)
ICHFILTER	IQUANT	3	Ich Filter
VCHRANGE	IQUANT	2	Vch Range
VCHRANGEMODE	TOGGLE	F	Vch Auto Range
VCHOFFSETENABLE	TOGGLE	T	Vch Offset Enable
VCHOFFSET	QUANT	0	Vch Offset (V)
VCHFILTER	IQUANT	3	Vch Filter
ACHRANGE	IQUANT	2	Ach Range
ACHOFFSETENABLE	TOGGLE	F	Ach Offset Enable
ACHOFFSET	QUANT	0	Ach Offset (V)
ACHFILTER	IQUANT	3	Ach Filter
IERANGELOWERLIMIT	IQUANT	1	I/E Range Lower Limit
IERANGEMODE	TOGGLE	F	I/E AutoRange
IERANGE	IQUANT	8	I/E Range
POSFEEDENABLE	TOGGLE	F	Positive Feedback IR Comp
POSFEEDRESISTANCE	QUANT	0	Positive Feedback Resistance (ohm)
ACHSELECT	IQUANT	0	Ach Select
CABLEID	IQUANT	14	Cable ID
DCCALDATE	LABEL	9/1/2020	DC Calibration Date
ACCALDATE	LABEL	9/1/2020	AC Calibration Date
THERMOSELECT	IQUANT	1	Thermo Select
FRAMEWORKVERSION	QUANT	6.33	Framework Version
INSTRUMENTVERSION	LABEL	3.50	Instrument Version
ZCURVE	TABLE
	Pt	Time	Freq	Zreal	Zimag	Zsig	Zmod	Zphz	Idc	Vdc	IERange
	#	s	Hz	ohm	ohm	V	ohm	°	A	V	#
	0	1	1000078	1923.24	-1360.496	1	2355.802	-35.27552	1.517534E-007	-0.0836787	8
	1	2	794390.6	2149.452	-1370.32	1	2549.102	-32.51836	3.191842E-008	-0.0840086	8
	2	2	630984.4	2362.279	-1366.339	1	2728.964	-30.04503	5.555999E-008	-0.0841274	8
	3	2	501234.4	2557.538	-1358.98	1	2896.175	-27.98451	8.488446E-008	-0.0841926	8
	4	3	398109.4	2743.495	-1361.412	1	3062.713	-26.39211	7.636068E-008	-0.0842486	8
	5	3	316265.6	2919.916	-1369.417	1	3225.091	-25.12619	1.330704E-007	-0.0842323	8
	6	3	251203.1	3092.725	-1401.595	1	3395.499	-24.3796	7.540091E-008	-0.0842653	8
	7	4	199546.9	3263.605	-1441.972	1	3567.969	-23.83747	1.100138E-007	-0.0842869	8
	8	4	158578.1	3438.644	-1507.313	1	3754.499	-23.67002	1.085339E-007	-0.0842849	8
	9	4	125953.1	3655.939	-1567.29	1	3977.724	-23.20467	1.646223E-008	-0.0842752	7
	10	5	100078.1	3853.958	-1662.043	1	4197.067	-23.32842	5.542136E-009	-0.0842858	7
	11	5	79453.13	4064.519	-1788.867	1	4440.761	-23.75515	5.695286E-009	-0.0842904	7
	12	5	63140.62	4294.323	-1932.261	1	4709.017	-24.2257	1.366607E-009	-0.0842909	7
	13	6	50203.12	4547.211	-2094.853	1	5006.55	-24.73503	3.651255E-009	-0.0842956	7
	14	6	39890.62	4824.354	-2272.947	1	5332.981	-25.22701	2.510489E-009	-0.0843021	7
	15	6	31640.63	5132.196	-2469.742	1	5695.53	-25.69803	2.851172E-009	-0.0843031	7
	16	7	25171.88	5465.763	-2689.918	1	6091.816	-26.20362	6.803259E-009	-0.084301	7
	17	7	20015.62	5833.661	-2923.535	1	6525.232	-26.61771	5.765362E-009	-0.0843043	7
	18	7	15890.62	6240.489	-3177.327	1	7002.793	-26.98279	5.627999E-009	-0.0843117	7
	19	7	12609.37	6679.407	-3414.135	1	7501.386	-27.07355	4.116999E-009	-0.0843076	7
	20	8	10078.13	7151.443	-3685.044	1	8045.042	-27.26145	2.40301E-009	-0.0843088	7
	21	8	8015.625	7682.884	-3987.937	1	8656.232	-27.43237	6.120863E-009	-0.0843137	7
	22	8	6328.125	8270.256	-4298.397	1	9320.587	-27.46278	4.20748E-009	-0.0843171	7
	23	9	5015.625	8914.779	-4554.592	1	10010.87	-27.06265	1.010429E-009	-0.0843129	6
	24	9	3984.375	9502.25	-4777.586	1	10635.7	-26.69254	8.80893E-010	-0.0843133	6
	25	9	3170.956	10136.21	-5071.131	1	11333.98	-26.57875	8.976214E-010	-0.0843136	6
	26	10	2527.573	10824.94	-5440.244	1	12115.1	-26.68254	7.088397E-010	-0.0843165	6
	27	10	1976.103	11514.48	-5766.478	1	12877.71	-26.60182	7.97758E-010	-0.0843145	6
	28	10	1577.524	12181.8	-6149.073	1	13645.79	-26.78351	2.469103E-010	-0.0843101	6
	29	11	1265.625	12957.29	-6706.392	1	14589.96	-27.36504	6.438344E-010	-0.0843155	6
	30	11	998.264	13786.81	-7342.993	1	15620.36	-28.04021	8.207241E-010	-0.084318	6
	31	11	796.875	14591.15	-8010.101	1	16645.22	-28.76545	1.096698E-009	-0.0843282	6
	32	12	627.7902	15473.18	-8812.217	1	17806.59	-29.66218	6.799127E-010	-0.0843207	6
	33	12	505.5147	16403.73	-9714.05	1	19064.23	-30.63339	7.16496E-010	-0.0843149	6
	34	12	397.9953	17531.66	-10888.26	1	20637.67	-31.84286	7.203368E-010	-0.0843047	6
	35	13	315.5048	18830.88	-12271.37	1	22476.4	-33.09077	7.60603E-010	-0.0843086	6
	36	13	252.4038	20401.15	-13969.99	1	24725.85	-34.40198	1.063812E-009	-0.0843121	6
	37	13	198.6229	22353.51	-16070.09	1	27530.47	-35.71261	9.528823E-010	-0.0843094	6
	38	14	158.3615	24144.07	-18046.23	1	30143.04	-36.77589	7.026508E-010	-0.0843136	6
	39	14	125.558	26103.72	-20309.97	1	33074.15	-37.88466	7.748842E-010	-0.0843079	6
	40	14	100.4464	28317.01	-22934.11	1	36439.35	-39.00421	7.439548E-010	-0.0843148	6
	41	15	79.00281	30753.01	-26130.22	1	40355.12	-40.3539	5.419515E-010	-0.0843141	6
	42	15	63.3446	33254.9	-29633.06	1	44542.19	-41.70387	5.110593E-010	-0.0843097	6
	43	15	49.86702	36483.66	-34255.93	1	50045.24	-43.19624	8.932914E-010	-0.0843165	6
	44	16	39.72458	39752.5	-39358.58	1	55940.68	-44.71471	6.420786E-010	-0.0843133	6
	45	16	31.6723	43468.42	-45372.75	1	62834.63	-46.22796	7.722858E-010	-0.0843161	6
	46	16	24.93351	48353.22	-52829.23	1	71616.77	-47.53294	1.13597E-009	-0.0843169	6
	47	17	19.86229	54004.76	-61074.02	1	81526.38	-48.51525	2.661477E-009	-0.08431	6
	48	17	15.83615	60581.22	-70449.05	1	92914.77	-49.30679	-6.797276E-010	-0.0843162	6
	49	17	12.40079	69659.47	-81637.45	1	107317.8	-49.52659	7.039204E-010	-0.0843175	5
	50	17	9.93114	78918.81	-93090.83	1	122041.3	-49.71001	2.421613E-010	-0.0843172	5
	51	18	7.944915	89950.09	-105580.5	1	138702	-49.57041	-1.840023E-009	-0.0843207	5
	52	18	6.317385	103407.6	-119992.8	1	158402.7	-49.24583	6.310865E-010	-0.084337	5
	53	19	5.008013	118138.3	-136166.7	1	180272.1	-49.05507	8.300867E-010	-0.0843232	5
	54	20	3.945707	134705	-154334.6	1	204852.7	-48.88517	-2.53435E-010	-0.0843316	5
	55	21	3.158693	152683.5	-173483.9	1	231103.7	-48.64894	5.644203E-010	-0.0843258	5
	56	22	2.504006	172425.8	-195834.2	1	260924.7	-48.6371	3.67721E-010	-0.0843269	5
	57	23	1.998082	194855.9	-220542	1	294291.7	-48.53838	-7.837534E-011	-0.0843748	5
	58	25	1.584686	218740.9	-249707	1	331965.6	-48.78196	4.986199E-011	-0.0843452	5
	59	27	1.266892	244632	-281908	1	373251.9	-49.04945	1.863179E-010	-0.0843133	5
	60	29	0.999041	275321.3	-322704.6	1	424193.5	-49.53024	2.67277E-010	-0.0842988	5
