EXPLAIN
TAG	EISPOT
TITLE	LABEL	Potentiostatic EIS	Test &Identifier
DATE	LABEL	6/14/2020	Date
TIME	LABEL	20:50:57	Time
NOTES	NOTES	1	&Notes...
	
PSTAT	PSTAT	REF600-10037	Potentiostat
VDC	POTEN	0.00000E+000	T	DC &Voltage (V)
FREQINIT	QUANT	1.00000E+006	Initial Fre&q. (Hz)
FREQFINAL	QUANT	1.00000E+000	Final Fre&q. (Hz)
PTSPERDEC	QUANT	1.00000E+001	Points/&decade
VAC	QUANT	2.50000E+001	AC &Voltage (mV rms)
AREA	QUANT	2.50000E-001	&Area (cm^2)
CONDIT	TWOPARAM	F	5.00000E+000	0.00000E+000	Conditionin&g	Time(s)	E(V)
DELAY	TWOPARAM	F	3.00000E+000	0.00000E+000	Init. De&lay	Time(s)	Stab.(mV/s)
SPEED	SELECTOR	0	&Optimize for:
ZGUESS	QUANT	1.00000E+003	E&stimated Z (ohms)
OCVCURVE	TABLE	39
	Pt	T	Vf	Vm	Ach	Over
	#	s	V vs. Ref.	V	V	bits
	0	0.258333	-6.74408E-002	-6.74408E-002	5.46787E-004	...........
	1	0.516667	-6.74424E-002	-6.75226E-002	5.43587E-004	...........
	2	0.775	-6.74520E-002	-6.76022E-002	5.46287E-004	...........
	3	1.03333	-6.74795E-002	-6.76849E-002	5.47054E-004	...........
	4	1.29167	-6.75295E-002	-6.77631E-002	5.45820E-004	...........
	5	1.55	-6.75974E-002	-6.78419E-002	5.43587E-004	...........
	6	1.80833	-6.76746E-002	-6.79182E-002	5.43087E-004	...........
	7	2.06667	-6.77546E-002	-6.79981E-002	5.46787E-004	...........
	8	2.325	-6.78343E-002	-6.80756E-002	5.41721E-004	...........
	9	2.58333	-6.79130E-002	-6.81497E-002	5.39821E-004	...........
	10	2.84167	-6.79910E-002	-6.82250E-002	5.46920E-004	...........
	11	3.1	-6.80678E-002	-6.82985E-002	5.48720E-004	...........
	12	3.35833	-6.81436E-002	-6.83710E-002	5.45621E-004	...........
	13	3.61667	-6.82183E-002	-6.84427E-002	5.46054E-004	...........
	14	3.875	-6.82921E-002	-6.85160E-002	5.49254E-004	...........
	15	4.13333	-6.83650E-002	-6.85872E-002	5.45254E-004	...........
	16	4.39167	-6.84375E-002	-6.86596E-002	5.47520E-004	...........
	17	4.65	-6.85098E-002	-6.87307E-002	5.45120E-004	...........
	18	4.90833	-6.85818E-002	-6.88007E-002	5.45820E-004	...........
	19	5.16667	-6.86534E-002	-6.88712E-002	5.50120E-004	...........
	20	5.425	-6.87245E-002	-6.89395E-002	5.49720E-004	...........
	21	5.68333	-6.87950E-002	-6.90095E-002	5.46287E-004	...........
	22	5.94167	-6.88648E-002	-6.90711E-002	5.52587E-004	...........
	23	6.2	-6.89337E-002	-6.91430E-002	5.46020E-004	...........
	24	6.45833	-6.90016E-002	-6.92074E-002	5.47420E-004	...........
	25	6.71667	-6.90689E-002	-6.92754E-002	5.45920E-004	...........
	26	6.975	-6.91358E-002	-6.93341E-002	5.42587E-004	...........
	27	7.23333	-6.92020E-002	-6.93989E-002	5.47420E-004	...........
	28	7.49167	-6.92669E-002	-6.94603E-002	5.50454E-004	...........
	29	7.75	-6.93306E-002	-6.95264E-002	5.56487E-004	...........
	30	8.00833	-6.93938E-002	-6.95945E-002	5.53054E-004	...........
	31	8.26667	-6.94576E-002	-6.96544E-002	5.53487E-004	...........
	32	8.525	-6.95219E-002	-6.97139E-002	5.46954E-004	...........
	33	8.78333	-6.95858E-002	-6.97795E-002	5.54220E-004	...........
	34	9.04167	-6.96488E-002	-6.98395E-002	5.47220E-004	...........
	35	9.3	-6.97113E-002	-6.99079E-002	5.48187E-004	...........
	36	9.5583	-6.97738E-002	-6.99627E-002	5.52320E-004	...........
	37	9.8167	-6.98363E-002	-7.00192E-002	5.47654E-004	...........
	38	10.075	-6.98978E-002	-7.00848E-002	5.47787E-004	...........
EOC	QUANT	-0.0698978	Open Circuit (V)
PSTATMODEL	IQUANT	4	Pstat Model
PSTATSECTION	LABEL	REF600-10037	Pstat Section
PSTATSERIALNO	LABEL	10037	Pstat Serial Number
CTRLMODE	IQUANT	1	Control Mode
IESTAB	IQUANT	0	I/E Stability
CASPEED	IQUANT	1	Control Amp Speed
CONVENTION	IQUANT	1	Current Convention
ICHRANGE	IQUANT	2	Ich Range
ICHRANGEMODE	TOGGLE	F	Ich Auto Range
ICHOFFSETENABLE	TOGGLE	T	Ich Offset Enable
ICHOFFSET	QUANT	0	Ich Offset (V)
ICHFILTER	IQUANT	3	Ich Filter
VCHRANGE	IQUANT	2	Vch Range
VCHRANGEMODE	TOGGLE	F	Vch Auto Range
VCHOFFSETENABLE	TOGGLE	T	Vch Offset Enable
VCHOFFSET	QUANT	0	Vch Offset (V)
VCHFILTER	IQUANT	3	Vch Filter
ACHRANGE	IQUANT	2	Ach Range
ACHOFFSETENABLE	TOGGLE	F	Ach Offset Enable
ACHOFFSET	QUANT	0	Ach Offset (V)
ACHFILTER	IQUANT	3	Ach Filter
IERANGELOWERLIMIT	IQUANT	1	I/E Range Lower Limit
IERANGEMODE	TOGGLE	F	I/E AutoRange
IERANGE	IQUANT	8	I/E Range
POSFEEDENABLE	TOGGLE	F	Positive Feedback IR Comp
POSFEEDRESISTANCE	QUANT	0	Positive Feedback Resistance (ohm)
ACHSELECT	IQUANT	0	Ach Select
CABLEID	IQUANT	14	Cable ID
DCCALDATE	LABEL	6/8/2020	DC Calibration Date
ACCALDATE	LABEL	6/8/2020	AC Calibration Date
THERMOSELECT	IQUANT	1	Thermo Select
FRAMEWORKVERSION	QUANT	6.33	Framework Version
INSTRUMENTVERSION	LABEL	3.50	Instrument Version
ZCURVE	TABLE
	Pt	Time	Freq	Zreal	Zimag	Zsig	Zmod	Zphz	Idc	Vdc	IERange
	#	s	Hz	ohm	ohm	V	ohm	°	A	V	#
	0	1	1000078	2361.994	-1670.644	1	2893.107	-35.27186	-5.364788E-008	-0.0609621	8
	1	2	794390.6	2604.262	-1726.033	1	3124.32	-33.53531	4.075157E-007	-0.0612237	8
	2	2	630984.4	2832.048	-1790.947	1	3350.819	-32.30867	-3.226533E-007	-0.0612631	8
	3	2	501234.4	3058.258	-1869.652	1	3584.486	-31.43934	4.200524E-007	-0.0614133	8
	4	2	398109.4	3276.267	-1969.408	1	3822.629	-31.01063	1.13112E-007	-0.0614087	8
	5	3	316265.6	3498.03	-2097.069	1	4078.469	-30.94268	1.786188E-007	-0.061437	8
	6	3	251203.1	3716.736	-2272.531	1	4356.435	-31.44294	-3.439843E-008	-0.0614603	8
	7	3	199546.9	3942.448	-2479.484	1	4657.332	-32.1666	-7.547408E-008	-0.0614101	8
	8	4	158578.1	4166.009	-2755.128	1	4994.634	-33.47806	1.087753E-007	-0.061403	8
	9	4	125953.1	4569.373	-2945.082	1	5436.237	-32.80285	1.252204E-007	-0.0614537	7
	10	4	100078.1	4820.814	-3381.295	1	5888.413	-35.04563	9.705707E-009	-0.0615055	7
	11	5	79453.13	5101.071	-3909.655	1	6427	-37.46793	4.945487E-008	-0.0615385	7
	12	5	63140.62	5423.65	-4545.558	1	7076.586	-39.96635	1.296143E-008	-0.0615253	7
	13	5	50203.12	5794.604	-5308.374	1	7858.516	-42.49246	-3.945058E-008	-0.0614507	7
	14	6	39890.62	6228.321	-6225.795	1	8806.391	-44.98838	7.251002E-008	-0.0615072	7
	15	6	31640.63	6744.596	-7338.005	1	9966.74	-47.41289	3.313527E-008	-0.061432	7
	16	6	25171.88	7352.385	-8653.247	1	11355.01	-49.64652	-3.07861E-008	-0.06137	7
	17	7	20015.62	8084.32	-10239.2	1	13045.98	-51.70728	-5.972911E-008	-0.0614176	7
	18	7	15890.62	8975.156	-12122.67	1	15083.52	-53.48518	4.55296E-008	-0.0614549	7
	19	7	12609.37	10680.25	-14138.17	1	17718.79	-52.93189	-6.129093E-009	-0.0614637	6
	20	8	10078.13	11958.03	-16780.15	1	20605.05	-54.52521	1.579531E-009	-0.0613879	6
	21	8	8015.625	13624.99	-19977.78	1	24181.65	-55.70573	8.580418E-009	-0.0614777	6
	22	8	6328.125	15916.97	-23798.79	1	28630.97	-56.22483	-8.285191E-009	-0.0613002	6
	23	9	5015.625	18892.21	-28147.74	1	33900.01	-56.13126	8.619461E-009	-0.0614773	6
	24	9	3984.375	22837.5	-33060.86	1	40181.73	-55.36439	9.78164E-009	-0.0616205	6
	25	9	3170.956	28006.13	-38201.01	1	47367.29	-53.75391	-2.683225E-009	-0.0615119	6
	26	9	2527.573	34667.12	-43216.08	1	55402.51	-51.26408	1.689987E-009	-0.0613924	6
	27	10	1976.103	43487.56	-48742.46	1	65322.25	-48.26096	6.226644E-010	-0.0615565	6
	28	10	1577.524	53214.48	-51936.29	1	74358.31	-44.30356	-1.027887E-008	-0.0613061	6
	29	10	1265.625	63786.97	-54578.3	1	83949.8	-40.55142	1.01212E-008	-0.0615196	6
	30	11	998.264	75778.27	-55181.47	1	93740.82	-36.06198	8.190838E-009	-0.0614817	6
	31	11	796.875	88224.16	-51590.17	1	102201	-30.31749	-5.413469E-010	-0.0614964	5
	32	11	627.7902	98178	-48490.47	1	109500	-26.28492	-9.083439E-010	-0.0612939	5
	33	12	505.5147	105613	-44539.91	1	114620.7	-22.86649	-2.094122E-010	-0.061359	5
	34	12	397.9953	111754.7	-39859.79	1	118650.4	-19.6299	-1.077715E-010	-0.0614402	5
	35	12	315.5048	116207.3	-35583.13	1	121533.1	-17.02479	4.164218E-011	-0.0614428	5
	36	13	252.4038	120170.2	-32662.82	1	124530.1	-15.2059	9.034084E-011	-0.0614364	5
	37	13	198.6229	123074	-30030.97	1	126684.9	-13.71264	6.555313E-011	-0.0614415	5
	38	13	158.3615	124242.8	-28309.2	1	127427.1	-12.83593	1.260504E-010	-0.0614464	5
	39	14	125.558	127024.8	-28116.8	1	130099.4	-12.48112	-8.643371E-011	-0.0614429	5
	40	14	100.4464	129008.5	-28620.95	1	132145.2	-12.50866	-2.200344E-010	-0.0614452	5
	41	14	79.00281	130176.5	-30346.46	1	133666.8	-13.12231	1.758764E-010	-0.0614497	5
	42	15	63.3446	133322.9	-33660.61	1	137506.5	-14.16959	1.222065E-010	-0.06145	5
	43	15	49.86702	136338.9	-37836.54	1	141491.7	-15.51031	-5.370933E-011	-0.0614447	5
	44	16	39.72458	138614.1	-43455.04	1	145266	-17.40602	3.522077E-011	-0.0614457	5
	45	16	31.6723	141439.2	-50220.4	1	150090.4	-19.54828	5.352473E-011	-0.0614484	5
	46	16	24.93351	144537.3	-59660.5	1	156366.3	-22.42931	-4.325109E-011	-0.0614452	5
	47	17	19.86229	145219.5	-69984.23	1	161203.3	-25.73036	-1.015055E-008	-0.0700767	5
	48	17	15.83615	155003.8	-82353.55	1	175522.9	-27.98171	-6.351971E-009	-0.0700867	5
	49	18	12.40079	163209.9	-98380.9	1	190568.3	-31.08107	-4.188374E-009	-0.0700825	5
	50	18	9.93114	173239.2	-114826.4	1	207838.7	-33.53721	-3.143804E-009	-0.070078	5
	51	18	7.944915	184727.9	-133680.2	1	228023.7	-35.89177	-2.251864E-009	-0.0700794	5
	52	19	6.317385	201226.9	-154262.5	1	253553.1	-37.47413	-1.365467E-009	-0.070084	5
	53	20	5.008013	220165.8	-177972.9	1	283103	-38.95063	-9.49286E-010	-0.070085	5
	54	21	3.945707	244900.8	-203752.8	1	318577.5	-39.75981	-6.449812E-010	-0.0700843	5
	55	22	3.158693	269313.8	-229615.6	1	353911.4	-40.45073	-4.698139E-010	-0.0700852	5
	56	23	2.504006	297787.8	-258080.6	1	394059.9	-40.91414	-3.162851E-010	-0.0700876	5
	57	25	1.998082	328102.7	-289506.7	1	437567.7	-41.4241	-2.027082E-010	-0.0700792	5
	58	27	1.584686	358015.9	-325128.3	1	483615.4	-42.24382	-3.256224E-011	-0.0700867	5
	59	29	1.266892	389488.5	-363936.1	1	533057.9	-43.05756	4.545125E-011	-0.0700887	5
	60	33	0.999041	423288.8	-413583.6	1	591797.9	-44.33557	3.261692E-011	-0.0700898	5
