EXPLAIN
TAG	EISPOT
TITLE	LABEL	Potentiostatic EIS	Test &Identifier
DATE	LABEL	2/18/2020	Date
TIME	LABEL	17:11:21	Time
NOTES	NOTES	1	&Notes...
	
PSTAT	PSTAT	REF600-11020	Potentiostat
VDC	POTEN	0.00000E+000	T	DC &Voltage (V)
FREQINIT	QUANT	1.00000E+006	Initial Fre&q. (Hz)
FREQFINAL	QUANT	1.00000E+000	Final Fre&q. (Hz)
PTSPERDEC	QUANT	1.00000E+001	Points/&decade
VAC	QUANT	2.50000E+001	AC &Voltage (mV rms)
AREA	QUANT	1.60000E-004	&Area (cm^2)
CONDIT	TWOPARAM	F	1.50000E+001	0.00000E+000	Conditionin&g	Time(s)	E(V)
DELAY	TWOPARAM	F	1.00000E+002	0.00000E+000	Init. De&lay	Time(s)	Stab.(mV/s)
SPEED	SELECTOR	1	&Optimize for:
ZGUESS	QUANT	1.00000E+003	E&stimated Z (ohms)
OCVCURVE	TABLE	39
	Pt	T	Vf	Vm	Ach	Over
	#	s	V vs. Ref.	V	V	bits
	0	0.258333	3.29161E-002	3.29161E-002	5.75338E-004	...........
	1	0.516667	3.29185E-002	3.30412E-002	5.77871E-004	...........
	2	0.775	3.29302E-002	3.30066E-002	5.79737E-004	...........
	3	1.03333	3.29548E-002	3.30286E-002	5.76571E-004	...........
	4	1.29167	3.29859E-002	3.31225E-002	5.75137E-004	...........
	5	1.55	3.30197E-002	3.31887E-002	5.79337E-004	...........
	6	1.80833	3.30595E-002	3.31340E-002	5.79237E-004	...........
	7	2.06667	3.31012E-002	3.31485E-002	5.76704E-004	...........
	8	2.325	3.31318E-002	3.31404E-002	5.81604E-004	...........
	9	2.58333	3.31455E-002	3.31485E-002	5.82171E-004	...........
	10	2.84167	3.31486E-002	3.31646E-002	5.77871E-004	...........
	11	3.1	3.31496E-002	3.31676E-002	5.78837E-004	...........
	12	3.35833	3.31527E-002	3.31468E-002	5.75338E-004	...........
	13	3.61667	3.31563E-002	3.31528E-002	5.85037E-004	...........
	14	3.875	3.31569E-002	3.31389E-002	5.80904E-004	...........
	15	4.13333	3.31541E-002	3.31442E-002	5.82271E-004	...........
	16	4.39167	3.31495E-002	3.31310E-002	5.79237E-004	...........
	17	4.65	3.31433E-002	3.30670E-002	5.73337E-004	...........
	18	4.90833	3.31326E-002	3.30911E-002	5.76671E-004	...........
	19	5.16667	3.31170E-002	3.31040E-002	5.78571E-004	...........
	20	5.425	3.31031E-002	3.31114E-002	5.75538E-004	...........
	21	5.68333	3.30980E-002	3.31287E-002	5.77338E-004	...........
	22	5.94167	3.31023E-002	3.31390E-002	5.68704E-004	...........
	23	6.2	3.31118E-002	3.31212E-002	5.81971E-004	...........
	24	6.45833	3.31158E-002	3.28413E-002	5.72971E-004	...........
	25	6.71667	3.30817E-002	3.22621E-002	5.76371E-004	...........
	26	6.975	3.29560E-002	3.19167E-002	5.77871E-004	...........
	27	7.23333	3.27086E-002	3.16187E-002	5.79571E-004	...........
	28	7.49167	3.23807E-002	3.17748E-002	5.78604E-004	...........
	29	7.75	3.20776E-002	3.21738E-002	5.77804E-004	...........
	30	8.00833	3.19036E-002	3.19158E-002	5.74604E-004	...........
	31	8.26667	3.18613E-002	3.12761E-002	5.76171E-004	...........
	32	8.525	3.18396E-002	3.16100E-002	5.74104E-004	...........
	33	8.78333	3.17565E-002	3.15765E-002	5.76871E-004	...........
	34	9.04167	3.16719E-002	3.27261E-002	5.80804E-004	...........
	35	9.3	3.17333E-002	3.34401E-002	5.79571E-004	...........
	36	9.5583	3.20286E-002	3.29654E-002	5.81137E-004	...........
	37	9.8167	3.24608E-002	3.29905E-002	5.79304E-004	...........
	38	10.075	3.28025E-002	3.20800E-002	5.75538E-004	...........
EOC	QUANT	0.0328025	Open Circuit (V)
PSTATMODEL	IQUANT	4	Pstat Model
PSTATSECTION	LABEL	REF600-11020	Pstat Section
PSTATSERIALNO	LABEL	11020	Pstat Serial Number
CTRLMODE	IQUANT	1	Control Mode
IESTAB	IQUANT	0	I/E Stability
CASPEED	IQUANT	1	Control Amp Speed
CONVENTION	IQUANT	1	Current Convention
ICHRANGE	IQUANT	2	Ich Range
ICHRANGEMODE	TOGGLE	F	Ich Auto Range
ICHOFFSETENABLE	TOGGLE	T	Ich Offset Enable
ICHOFFSET	QUANT	0	Ich Offset (V)
ICHFILTER	IQUANT	3	Ich Filter
VCHRANGE	IQUANT	2	Vch Range
VCHRANGEMODE	TOGGLE	F	Vch Auto Range
VCHOFFSETENABLE	TOGGLE	T	Vch Offset Enable
VCHOFFSET	QUANT	0	Vch Offset (V)
VCHFILTER	IQUANT	3	Vch Filter
ACHRANGE	IQUANT	2	Ach Range
ACHOFFSETENABLE	TOGGLE	F	Ach Offset Enable
ACHOFFSET	QUANT	0	Ach Offset (V)
ACHFILTER	IQUANT	3	Ach Filter
IERANGELOWERLIMIT	IQUANT	1	I/E Range Lower Limit
IERANGEMODE	TOGGLE	F	I/E AutoRange
IERANGE	IQUANT	7	I/E Range
POSFEEDENABLE	TOGGLE	F	Positive Feedback IR Comp
POSFEEDRESISTANCE	QUANT	0	Positive Feedback Resistance (ohm)
ACHSELECT	IQUANT	0	Ach Select
CABLEID	IQUANT	14	Cable ID
DCCALDATE	LABEL	1/27/2020	DC Calibration Date
ACCALDATE	LABEL	1/27/2020	AC Calibration Date
THERMOSELECT	IQUANT	1	Thermo Select
FRAMEWORKVERSION	QUANT	6.33	Framework Version
INSTRUMENTVERSION	LABEL	3.50	Instrument Version
ZCURVE	TABLE
	Pt	Time	Freq	Zreal	Zimag	Zsig	Zmod	Zphz	Idc	Vdc	IERange
	#	s	Hz	ohm	ohm	V	ohm	°	A	V	#
	0	1	1000078	1897.718	-2328.675	1	3004.008	-50.82222	-5.217597E-006	0.0362086	8
	1	3	794390.6	2324.621	-2571.386	1	3466.394	-47.88535	4.026057E-006	0.0341746	8
	2	4	630984.4	2810.76	-2733.553	1	3920.802	-44.20218	1.700578E-006	0.0337906	8
	3	6	501234.4	3372.51	-2830.475	1	4402.887	-40.00601	-1.823677E-006	0.034602	8
	4	7	398109.4	3968.171	-2857.615	1	4890.025	-35.75895	2.615404E-006	0.0336866	8
	5	9	316265.6	4497.63	-2790.894	1	5293.182	-31.82066	-3.10471E-006	0.0348269	8
	6	10	251203.1	5061.307	-2672.783	1	5723.687	-27.83771	-2.730421E-006	0.0347694	8
	7	12	199546.9	5551.514	-2471.326	1	6076.739	-23.99684	-5.277828E-007	0.0343558	8
	8	13	158578.1	5900.678	-2228.649	1	6307.526	-20.69124	-2.845971E-006	0.0347615	8
	9	15	125953.1	6267.289	-1923.558	1	6555.836	-17.06231	7.015714E-008	0.034062	7
	10	16	100078.1	6501.588	-1739.068	1	6730.156	-14.9751	-4.382746E-008	0.0343195	7
	11	18	79453.13	6703.817	-1529.529	1	6876.091	-12.85248	-1.221144E-008	0.0342662	7
	12	19	63140.62	6862.101	-1343.364	1	6992.357	-11.07647	-8.242293E-009	0.0343201	7
	13	21	50203.12	6984.674	-1187.94	1	7084.975	-9.6524	-2.884183E-008	0.0342309	7
	14	22	39890.62	7086.541	-1063.353	1	7165.876	-8.533707	-2.589235E-008	0.0342466	7
	15	23	31640.63	7174.637	-971.214	1	7240.074	-7.709139	1.278761E-008	0.0342728	7
	16	25	25171.88	7246.644	-904.8163	1	7302.913	-7.117121	9.226014E-009	0.0342194	7
	17	26	20015.62	7311.955	-867.6915	1	7363.258	-6.767499	-2.565828E-008	0.034271	7
	18	27	15890.62	7372.852	-855.0941	1	7422.273	-6.615536	-2.186181E-008	0.0342169	7
	19	29	12609.37	7432.282	-868.0239	1	7482.799	-6.661455	-2.048739E-008	0.0343	7
	20	30	10078.13	7497.008	-899.9544	1	7550.831	-6.845135	-1.878169E-008	0.0342091	7
	21	31	8015.625	7550.723	-970.6	1	7612.85	-7.324862	-3.208399E-008	0.0342354	7
	22	33	6328.125	7614.142	-1068.366	1	7688.729	-7.987217	-3.017654E-008	0.0342519	7
	23	34	5015.625	7679.513	-1201.854	1	7772.99	-8.894711	-2.500896E-008	0.0342143	7
	24	36	3984.375	7748.263	-1373.213	1	7869.008	-10.05009	-2.892058E-008	0.0342351	7
	25	37	3170.956	7827.172	-1597.567	1	7988.544	-11.53592	4.552516E-008	0.034203	7
	26	38	2527.573	7907.781	-1871.141	1	8126.141	-13.31249	4.199737E-008	0.0340972	7
	27	40	1976.103	8013.669	-2251.195	1	8323.868	-15.69108	1.11029E-007	0.0340521	7
	28	41	1577.524	8117.492	-2686.282	1	8550.426	-18.31068	-1.002644E-008	0.0342693	7
	29	42	1265.625	8241.27	-3204.741	1	8842.448	-21.24931	5.598848E-008	0.034191	7
	30	44	998.264	8398.458	-3892.661	1	9256.723	-24.86759	-3.417517E-009	0.0342759	6
	31	45	796.875	8580.058	-4702.447	1	9784.19	-28.72569	-4.617545E-009	0.0343151	6
	32	46	627.7902	8812.687	-5757.824	1	10526.92	-33.15884	-4.965617E-009	0.0342718	6
	33	48	505.5147	9068.899	-6927.095	1	11411.82	-37.37366	1.058363E-009	0.0342597	6
	34	49	397.9953	9418.412	-8501.316	1	12687.75	-42.07027	1.25721E-009	0.0342191	6
	35	51	315.5048	9841.01	-10380.86	1	14304.12	-46.52921	1.705839E-009	0.0342195	6
	36	52	252.4038	10341.43	-12579.71	1	16284.79	-50.57731	1.272474E-009	0.0342118	6
	37	53	198.6229	11008.1	-15457.88	1	18976.94	-54.54399	1.445729E-009	0.034215	6
	38	55	158.3615	11791.35	-18783.6	1	22177.9	-57.88157	9.03643E-010	0.0342137	6
	39	56	125.558	12781.95	-22928.67	1	26250.76	-60.86184	1.438833E-009	0.03421	6
	40	57	100.4464	13979.8	-27779.73	1	31099.01	-63.28675	9.958391E-010	0.0342055	6
	41	59	79.00281	15512.73	-34159.32	1	37516.72	-65.57583	1.60187E-009	0.0342048	6
	42	60	63.3446	17121.49	-41206.23	1	44621.73	-67.43677	1.166399E-009	0.0342122	6
	43	62	49.86702	20080.47	-50619.38	1	54456.84	-68.362	6.940732E-010	0.0342112	6
	44	63	39.72458	23007.02	-61576.99	1	65734.69	-69.51279	1.296102E-009	0.0342115	6
	45	64	31.6723	26840.74	-74685.55	1	79362.19	-70.23241	1.164061E-009	0.0342057	6
	46	66	24.93351	32472.19	-91463.09	1	97056.4	-70.45358	1.355696E-009	0.0342045	6
	47	67	19.86229	39569.58	-110569.2	1	117436.4	-70.30915	3.52251E-010	0.0342036	5
	48	69	15.83615	47713.54	-132999	1	141298.7	-70.2645	1.292207E-009	0.0342052	5
	49	70	12.40079	61878.11	-162019.1	1	173433.2	-69.09721	-1.685231E-010	0.0342086	5
	50	71	9.93114	76853.38	-192152.7	1	206952	-68.20058	6.617561E-010	0.0342022	5
	51	73	7.944915	96444.5	-226912.1	1	246557.6	-66.97305	-1.000761E-010	0.0342011	5
	52	75	6.317385	121230.2	-267051.7	1	293280.3	-65.58396	2.595723E-010	0.0341955	5
	53	77	5.008013	151894.9	-312515.5	1	347473.8	-64.07841	1.414165E-010	0.0342009	5
	54	79	3.945707	189450.2	-364261.6	1	410582.4	-62.52134	2.965048E-011	0.0341948	5
	55	82	3.158693	230273.8	-417539.9	1	476828.7	-61.12321	3.374707E-010	0.034214	5
	56	85	2.504006	278390.1	-479042	1	554059.9	-59.83745	-7.419308E-011	0.0342115	5
	57	88	1.998082	330112.6	-545285.5	1	637424.9	-58.80954	1.811461E-010	0.0341624	5
	58	91	1.584686	388292.9	-622804	1	733932	-58.05814	9.27062E-011	0.0342252	5
	59	95	1.266892	452392.6	-711460.3	1	843110.3	-57.54915	8.520363E-011	0.0341689	5
	60	99	0.999041	529288.9	-818837.3	1	975008	-57.12174	2.630288E-010	0.0342409	5
