EXPLAIN
TAG	EISPOT
TITLE	LABEL	Potentiostatic EIS	Test &Identifier
DATE	LABEL	3/17/2020	Date
TIME	LABEL	16:02:21	Time
NOTES	NOTES	1	&Notes...
	
PSTAT	PSTAT	REF600-11020	Potentiostat
VDC	POTEN	0.00000E+000	T	DC &Voltage (V)
FREQINIT	QUANT	1.00000E+006	Initial Fre&q. (Hz)
FREQFINAL	QUANT	1.00000E+000	Final Fre&q. (Hz)
PTSPERDEC	QUANT	1.00000E+001	Points/&decade
VAC	QUANT	2.50000E+001	AC &Voltage (mV rms)
AREA	QUANT	4.00000E-004	&Area (cm^2)
CONDIT	TWOPARAM	F	5.00000E+000	0.00000E+000	Conditionin&g	Time(s)	E(V)
DELAY	TWOPARAM	T	3.00000E+000	0.00000E+000	Init. De&lay	Time(s)	Stab.(mV/s)
SPEED	SELECTOR	0	&Optimize for:
ZGUESS	QUANT	5.00000E+003	E&stimated Z (ohms)
OCVCURVE	TABLE	12
	Pt	T	Vf	Vm	Ach	Over
	#	s	V vs. Ref.	V	V	bits
	0	0.258333	-4.06524E-002	-4.06524E-002	5.72530E-004	...........
	1	0.516667	-4.06523E-002	-4.06495E-002	5.70663E-004	...........
	2	0.775	-4.06520E-002	-4.06468E-002	5.74997E-004	...........
	3	1.03333	-4.06510E-002	-4.06420E-002	5.73997E-004	...........
	4	1.29167	-4.06491E-002	-4.06394E-002	5.72163E-004	...........
	5	1.55	-4.06463E-002	-4.06344E-002	5.71763E-004	...........
	6	1.80833	-4.06429E-002	-4.06342E-002	5.72030E-004	...........
	7	2.06667	-4.06395E-002	-4.06322E-002	5.75263E-004	...........
	8	2.325	-4.06365E-002	-4.06316E-002	5.73563E-004	...........
	9	2.58333	-4.06343E-002	-4.06303E-002	5.69997E-004	...........
	10	2.84167	-4.06327E-002	-4.06276E-002	5.76397E-004	...........
	11	3.1	-4.06313E-002	-4.06284E-002	5.69830E-004	...........
EOC	QUANT	-0.0406313	Open Circuit (V)
PSTATMODEL	IQUANT	4	Pstat Model
PSTATSECTION	LABEL	REF600-11020	Pstat Section
PSTATSERIALNO	LABEL	11020	Pstat Serial Number
CTRLMODE	IQUANT	1	Control Mode
IESTAB	IQUANT	0	I/E Stability
CASPEED	IQUANT	1	Control Amp Speed
CONVENTION	IQUANT	1	Current Convention
ICHRANGE	IQUANT	2	Ich Range
ICHRANGEMODE	TOGGLE	F	Ich Auto Range
ICHOFFSETENABLE	TOGGLE	T	Ich Offset Enable
ICHOFFSET	QUANT	0	Ich Offset (V)
ICHFILTER	IQUANT	3	Ich Filter
VCHRANGE	IQUANT	2	Vch Range
VCHRANGEMODE	TOGGLE	F	Vch Auto Range
VCHOFFSETENABLE	TOGGLE	T	Vch Offset Enable
VCHOFFSET	QUANT	0	Vch Offset (V)
VCHFILTER	IQUANT	3	Vch Filter
ACHRANGE	IQUANT	2	Ach Range
ACHOFFSETENABLE	TOGGLE	F	Ach Offset Enable
ACHOFFSET	QUANT	0	Ach Offset (V)
ACHFILTER	IQUANT	3	Ach Filter
IERANGELOWERLIMIT	IQUANT	1	I/E Range Lower Limit
IERANGEMODE	TOGGLE	F	I/E AutoRange
IERANGE	IQUANT	7	I/E Range
POSFEEDENABLE	TOGGLE	F	Positive Feedback IR Comp
POSFEEDRESISTANCE	QUANT	0	Positive Feedback Resistance (ohm)
ACHSELECT	IQUANT	0	Ach Select
CABLEID	IQUANT	14	Cable ID
DCCALDATE	LABEL	2/27/2020	DC Calibration Date
ACCALDATE	LABEL	2/27/2020	AC Calibration Date
THERMOSELECT	IQUANT	1	Thermo Select
FRAMEWORKVERSION	QUANT	6.33	Framework Version
INSTRUMENTVERSION	LABEL	3.50	Instrument Version
ZCURVE	TABLE
	Pt	Time	Freq	Zreal	Zimag	Zsig	Zmod	Zphz	Idc	Vdc	IERange
	#	s	Hz	ohm	ohm	V	ohm	°	A	V	#
	0	1	1000078	2001.761	-1705.565	1	2629.829	-40.43207	2.945607E-008	-0.0383496	8
	1	2	794390.6	2303.993	-1766.789	1	2903.434	-37.48235	5.692156E-008	-0.0386976	8
	2	2	630984.4	2606.384	-1797.241	1	3165.961	-34.58833	5.516929E-008	-0.0388523	8
	3	2	501234.4	2899.498	-1809.711	1	3417.915	-31.9702	3.321554E-008	-0.0389756	8
	4	2	398109.4	3178.118	-1812.823	1	3658.793	-29.70077	4.053014E-008	-0.0390327	8
	5	3	316265.6	3440.801	-1813.836	1	3889.616	-27.79618	2.612812E-008	-0.0390589	8
	6	3	251203.1	3694.343	-1812.647	1	4115.078	-26.1351	5.742907E-008	-0.0390574	8
	7	3	199546.9	3936.775	-1838.909	1	4345.087	-25.03778	4.263436E-008	-0.0390772	8
	8	4	158578.1	4175.679	-1865.018	1	4573.247	-24.06737	3.971969E-008	-0.0390601	8
	9	4	125953.1	4460.483	-1866.631	1	4835.31	-22.70842	4.721595E-010	-0.0391118	7
	10	4	100078.1	4690.873	-1936.731	1	5074.959	-22.43437	2.627945E-009	-0.03913	7
	11	5	79453.13	4947.647	-2034.476	1	5349.608	-22.3525	2.402922E-009	-0.0391448	7
	12	5	63140.62	5217.449	-2145.691	1	5641.433	-22.35505	2.742109E-009	-0.0391437	7
	13	5	50203.12	5501.417	-2267.694	1	5950.464	-22.40154	2.029514E-009	-0.039154	7
	14	6	39890.62	5800.946	-2404.65	1	6279.596	-22.51534	1.908984E-009	-0.0391623	7
	15	6	31640.63	6119.523	-2559.79	1	6633.332	-22.69951	1.773321E-009	-0.0391533	7
	16	6	25171.88	6448.594	-2732.293	1	7003.555	-22.96255	2.097894E-009	-0.0391577	7
	17	7	20015.62	6794.567	-2929.361	1	7399.142	-23.32246	2.368266E-009	-0.0391555	7
	18	7	15890.62	7160.993	-3159.777	1	7827.133	-23.80939	2.200559E-009	-0.039157	7
	19	7	12609.37	7545.176	-3424.347	1	8285.882	-24.41073	2.808625E-009	-0.0391561	7
	20	8	10078.13	7940.392	-3724.035	1	8770.306	-25.12652	2.418898E-009	-0.0391583	7
	21	8	8015.625	8419.035	-4027.496	1	9332.785	-25.56551	4.178445E-010	-0.0391037	6
	22	8	6328.125	8911.136	-4479.03	1	9973.47	-26.68561	5.872441E-010	-0.0391077	6
	23	8	5015.625	9448.575	-4990.163	1	10685.38	-27.84029	2.112451E-010	-0.0391143	6
	24	9	3984.375	10057.56	-5571.094	1	11497.46	-28.98299	5.878714E-010	-0.0391053	6
	25	9	3170.956	10736.43	-6212.344	1	12404.2	-30.05465	5.794291E-010	-0.0391038	6
	26	9	2527.573	11488.24	-6913.54	1	13408.08	-31.03923	2.676747E-010	-0.0391147	6
	27	10	1976.103	12395.78	-7756.593	1	14622.59	-32.03606	3.840803E-010	-0.0391149	6
	28	10	1577.524	13292.99	-8610.918	1	15838.29	-32.93431	6.724019E-010	-0.0391146	6
	29	10	1265.625	14227.49	-9544.32	1	17132.3	-33.85516	2.990651E-010	-0.0391176	6
	30	11	998.264	15294.08	-10712.02	1	18672.34	-35.00753	4.206438E-010	-0.039112	6
	31	11	796.875	16357.08	-12021.54	1	20299.55	-36.31382	1.785747E-010	-0.0391105	6
	32	11	627.7902	17584.23	-13694.69	1	22287.89	-37.91165	3.360713E-010	-0.0391159	6
	33	12	505.5147	18827.8	-15530.98	1	24406.92	-39.51909	4.368789E-010	-0.0391098	6
	34	12	397.9953	20402.92	-17967.64	1	27186.68	-41.36845	3.916913E-010	-0.0391033	6
	35	12	315.5048	22223.41	-20800.93	1	30439.43	-43.10637	4.682503E-010	-0.0391015	6
	36	13	252.4038	24317.8	-23981.51	1	34153.6	-44.60108	4.526575E-010	-0.0391062	6
	37	13	198.6229	27034.77	-27928.55	1	38870.07	-45.93163	5.09107E-010	-0.0391061	6
	38	13	158.3615	30127.8	-32190.58	1	44089.88	-46.89584	3.439616E-010	-0.0391112	6
	39	14	125.558	33895.95	-37113.02	1	50262.43	-47.59402	2.095387E-010	-0.0391083	6
	40	14	100.4464	38160.64	-42422.87	1	57060.8	-48.02767	2.754089E-010	-0.0391114	6
	41	14	79.00281	43515.54	-48807.16	1	65389.14	-48.28041	4.813521E-010	-0.0391157	6
	42	15	63.3446	49218.88	-55329.4	1	74052.96	-48.34496	4.676691E-010	-0.0391143	6
	43	15	49.86702	56424.54	-63204.52	1	84726.27	-48.24377	1.651391E-010	-0.0391153	6
	44	15	39.72458	64357.98	-71441.67	1	96155.4	-47.986	1.418346E-010	-0.0391082	6
	45	16	31.6723	73435.65	-80309.97	1	108823.2	-47.56012	-2.021427E-010	-0.0391102	5
	46	16	24.93351	84273.72	-90539.34	1	123690.9	-47.05271	-4.684969E-010	-0.0391058	5
	47	16	19.86229	95699.4	-100976.7	1	139121	-46.53702	-1.24125E-009	-0.0391138	5
	48	17	15.83615	108357.1	-112381.8	1	156111.9	-46.04454	3.885772E-010	-0.039111	5
	49	17	12.40079	123169.2	-125501.3	1	175844.4	-45.53732	-1.214998E-009	-0.0391088	5
	50	17	9.93114	137459.4	-139319.4	1	195716.6	-45.38504	-4.759863E-010	-0.0391172	5
	51	18	7.944915	152613.2	-154411.9	1	217103.3	-45.33566	1.359785E-009	-0.0391187	5
	52	18	6.317385	169882.4	-172974.3	1	242446.1	-45.51669	-4.571911E-010	-0.0390985	5
	53	19	5.008013	188805.2	-194897.8	1	271353.2	-45.90969	-4.964911E-010	-0.0391111	5
	54	20	3.945707	209538.3	-220703.5	1	304329.3	-46.48655	2.135281E-010	-0.0391108	5
	55	21	3.158693	231362	-249587.5	1	340326.8	-47.17018	-2.828545E-010	-0.0391156	5
	56	22	2.504006	255864.5	-284630.7	1	382728.8	-48.04652	-4.510452E-011	-0.0391273	5
	57	23	1.998082	282880.8	-325236.8	1	431045.9	-48.98428	1.998206E-010	-0.0390738	5
	58	24	1.584686	312786.6	-374202.3	1	487711.8	-50.10857	7.061415E-011	-0.0391149	5
	59	26	1.266892	347436.8	-430146.9	1	552936.4	-51.07161	-2.73753E-011	-0.0391579	5
	60	29	0.999041	389610.5	-502179.4	1	635594.6	-52.19429	-6.523871E-011	-0.0391621	5
