EXPLAIN
TAG	EISPOT
TITLE	LABEL	Potentiostatic EIS	Test &Identifier
DATE	LABEL	1/18/2020	Date
TIME	LABEL	22:30:46	Time
NOTES	NOTES	6	&Notes...
	
	
	
	
	
	
PSTAT	PSTAT	REF600-11020	Potentiostat
VDC	POTEN	0.00000E+000	T	DC &Voltage (V)
FREQINIT	QUANT	1.00000E+006	Initial Fre&q. (Hz)
FREQFINAL	QUANT	1.00000E+000	Final Fre&q. (Hz)
PTSPERDEC	QUANT	1.00000E+001	Points/&decade
VAC	QUANT	2.50000E+001	AC &Voltage (mV rms)
AREA	QUANT	1.00000E-001	&Area (cm^2)
CONDIT	TWOPARAM	F	5.00000E+000	0.00000E+000	Conditionin&g	Time(s)	E(V)
DELAY	TWOPARAM	F	5.00000E+000	0.00000E+000	Init. De&lay	Time(s)	Stab.(mV/s)
SPEED	SELECTOR	0	&Optimize for:
ZGUESS	QUANT	5.00000E+002	E&stimated Z (ohms)
OCVCURVE	TABLE	39
	Pt	T	Vf	Vm	Ach	Over
	#	s	V vs. Ref.	V	V	bits
	0	0.258333	-1.57327E-001	-1.57327E-001	6.82446E-004	...........
	1	0.516667	-1.57333E-001	-1.57655E-001	6.82079E-004	...........
	2	0.775	-1.57360E-001	-1.57333E-001	6.82979E-004	...........
	3	1.03333	-1.57392E-001	-1.56910E-001	6.82612E-004	...........
	4	1.29167	-1.57358E-001	-1.56251E-001	6.85046E-004	...........
	5	1.55	-1.57148E-001	-1.54418E-001	6.84579E-004	...........
	6	1.80833	-1.56656E-001	-1.53611E-001	6.88579E-004	...........
	7	2.06667	-1.55856E-001	-1.52941E-001	6.84046E-004	...........
	8	2.325	-1.54876E-001	-1.52153E-001	6.81212E-004	...........
	9	2.58333	-1.53894E-001	-1.51081E-001	6.88212E-004	...........
	10	2.84167	-1.52984E-001	-1.50652E-001	6.84146E-004	...........
	11	3.1	-1.52158E-001	-1.50747E-001	6.86479E-004	...........
	12	3.35833	-1.51480E-001	-1.50884E-001	6.85612E-004	...........
	13	3.61667	-1.51041E-001	-1.51038E-001	6.78212E-004	...........
	14	3.875	-1.50862E-001	-1.51087E-001	6.80112E-004	...........
	15	4.13333	-1.50871E-001	-1.51270E-001	6.81112E-004	...........
	16	4.39167	-1.50971E-001	-1.51353E-001	6.78412E-004	...........
	17	4.65	-1.51097E-001	-1.51391E-001	6.78379E-004	...........
	18	4.90833	-1.51216E-001	-1.51429E-001	6.80046E-004	...........
	19	5.16667	-1.51310E-001	-1.51451E-001	6.81546E-004	...........
	20	5.425	-1.51376E-001	-1.51473E-001	6.75313E-004	...........
	21	5.68333	-1.51419E-001	-1.51487E-001	6.83846E-004	...........
	22	5.94167	-1.51448E-001	-1.51499E-001	6.88579E-004	...........
	23	6.2	-1.51469E-001	-1.51506E-001	6.86179E-004	...........
	24	6.45833	-1.51484E-001	-1.51508E-001	6.81612E-004	...........
	25	6.71667	-1.51495E-001	-1.51510E-001	6.84779E-004	...........
	26	6.975	-1.51503E-001	-1.51513E-001	6.85079E-004	...........
	27	7.23333	-1.51507E-001	-1.51516E-001	6.84179E-004	...........
	28	7.49167	-1.51510E-001	-1.51513E-001	6.83879E-004	...........
	29	7.75	-1.51512E-001	-1.51513E-001	6.87446E-004	...........
	30	8.00833	-1.51514E-001	-1.51510E-001	6.81212E-004	...........
	31	8.26667	-1.51513E-001	-1.51509E-001	6.80946E-004	...........
	32	8.525	-1.51512E-001	-1.51507E-001	6.81012E-004	...........
	33	8.78333	-1.51511E-001	-1.51503E-001	6.82279E-004	...........
	34	9.04167	-1.51509E-001	-1.51502E-001	6.84612E-004	...........
	35	9.3	-1.51507E-001	-1.51500E-001	6.85179E-004	...........
	36	9.5583	-1.51504E-001	-1.51496E-001	6.84812E-004	...........
	37	9.8167	-1.51502E-001	-1.51493E-001	6.82912E-004	...........
	38	10.075	-1.51499E-001	-1.51494E-001	6.82512E-004	...........
EOC	QUANT	-0.1514994	Open Circuit (V)
PSTATMODEL	IQUANT	4	Pstat Model
PSTATSECTION	LABEL	REF600-11020	Pstat Section
PSTATSERIALNO	LABEL	11020	Pstat Serial Number
CTRLMODE	IQUANT	1	Control Mode
IESTAB	IQUANT	0	I/E Stability
CASPEED	IQUANT	1	Control Amp Speed
CONVENTION	IQUANT	1	Current Convention
ICHRANGE	IQUANT	2	Ich Range
ICHRANGEMODE	TOGGLE	F	Ich Auto Range
ICHOFFSETENABLE	TOGGLE	T	Ich Offset Enable
ICHOFFSET	QUANT	0	Ich Offset (V)
ICHFILTER	IQUANT	3	Ich Filter
VCHRANGE	IQUANT	2	Vch Range
VCHRANGEMODE	TOGGLE	F	Vch Auto Range
VCHOFFSETENABLE	TOGGLE	T	Vch Offset Enable
VCHOFFSET	QUANT	0	Vch Offset (V)
VCHFILTER	IQUANT	3	Vch Filter
ACHRANGE	IQUANT	2	Ach Range
ACHOFFSETENABLE	TOGGLE	F	Ach Offset Enable
ACHOFFSET	QUANT	0	Ach Offset (V)
ACHFILTER	IQUANT	3	Ach Filter
IERANGELOWERLIMIT	IQUANT	1	I/E Range Lower Limit
IERANGEMODE	TOGGLE	F	I/E AutoRange
IERANGE	IQUANT	8	I/E Range
POSFEEDENABLE	TOGGLE	F	Positive Feedback IR Comp
POSFEEDRESISTANCE	QUANT	0	Positive Feedback Resistance (ohm)
ACHSELECT	IQUANT	0	Ach Select
CABLEID	IQUANT	14	Cable ID
DCCALDATE	LABEL	12/22/2019	DC Calibration Date
ACCALDATE	LABEL	12/22/2019	AC Calibration Date
THERMOSELECT	IQUANT	1	Thermo Select
FRAMEWORKVERSION	QUANT	6.33	Framework Version
INSTRUMENTVERSION	LABEL	3.50	Instrument Version
ZCURVE	TABLE
	Pt	Time	Freq	Zreal	Zimag	Zsig	Zmod	Zphz	Idc	Vdc	IERange
	#	s	Hz	ohm	ohm	V	ohm	°	A	V	#
	0	1	1000078	1737.241	-1855.876	1	2542.102	-46.89106	-1.326846E-006	-0.1490428	8
	1	2	794390.6	1997.896	-2057.545	1	2867.94	-45.84267	-2.329122E-006	-0.1488398	8
	2	2	630984.4	2296.086	-2275.997	1	3232.982	-44.74826	1.578811E-007	-0.1494353	8
	3	2	501234.4	2612.724	-2493.9	1	3611.906	-43.66705	3.23356E-007	-0.1498787	8
	4	2	398109.4	2993.509	-2738.823	1	4057.369	-42.45604	-2.432907E-007	-0.1497548	8
	5	3	316265.6	3411.347	-2998.124	1	4541.59	-41.31121	-2.193205E-006	-0.1493371	8
	6	3	251203.1	3901.358	-3215.594	1	5055.752	-39.49617	-2.079921E-006	-0.1493582	8
	7	3	199546.9	4442.101	-3454.675	1	5627.347	-37.87263	2.318116E-007	-0.1499213	8
	8	4	158578.1	5063.602	-3589.463	1	6206.795	-35.33189	-2.591721E-007	-0.1498478	8
	9	4	125953.1	5703.513	-3761.921	1	6832.431	-33.40804	1.569541E-007	-0.1503283	7
	10	5	100078.1	6358.347	-3858.607	1	7437.569	-31.25176	6.812331E-008	-0.1500129	7
	11	5	79453.13	7030.839	-3910.357	1	8045.098	-29.0816	7.70695E-009	-0.1499549	7
	12	5	63140.62	7703.986	-3917.858	1	8642.975	-26.95559	-2.436835E-008	-0.1498055	7
	13	6	50203.12	8357.747	-3862.362	1	9207.05	-24.80305	-2.514159E-008	-0.1499135	7
	14	6	39890.62	8987.686	-3770.971	1	9746.73	-22.7615	3.544277E-008	-0.1500255	7
	15	6	31640.63	9590.45	-3653.387	1	10262.75	-20.85385	6.82074E-008	-0.1500313	7
	16	7	25171.88	10132.5	-3510.678	1	10723.45	-19.11003	-1.582844E-008	-0.1498749	7
	17	7	20015.62	10634.24	-3364.142	1	11153.68	-17.55477	-1.568077E-008	-0.1498765	7
	18	7	15890.62	11086.16	-3217.941	1	11543.75	-16.18625	-3.197284E-008	-0.1499026	7
	19	8	12609.37	11543.61	-3044.161	1	11938.26	-14.77312	-3.805014E-009	-0.1498	6
	20	8	10078.13	11908.67	-2962.076	1	12271.52	-13.96789	1.736625E-009	-0.1498764	6
	21	8	8015.625	12252.47	-2911.438	1	12593.63	-13.36676	-5.2152E-009	-0.1498413	6
	22	9	6328.125	12601.62	-2904.09	1	12931.92	-12.97745	7.025419E-009	-0.1499323	6
	23	9	5015.625	12939.99	-2939.574	1	13269.68	-12.79865	1.829615E-009	-0.1498794	6
	24	9	3984.375	13288.64	-3013.241	1	13625.99	-12.77595	-5.303957E-009	-0.1498401	6
	25	9	3170.956	13647.47	-3121.672	1	13999.94	-12.88398	-4.611687E-009	-0.1498271	6
	26	10	2527.573	14007.05	-3261.068	1	14381.65	-13.10592	1.827733E-009	-0.1500009	6
	27	10	1976.103	14411.38	-3445.044	1	14817.43	-13.44426	-7.711921E-010	-0.1499404	6
	28	10	1577.524	14782.53	-3659.947	1	15228.87	-13.906	2.824118E-009	-0.1500638	6
	29	11	1265.625	15154.36	-3914.538	1	15651.78	-14.48354	2.748316E-009	-0.1500657	6
	30	11	998.264	15548.04	-4266.901	1	16122.91	-15.34606	1.282503E-008	-0.1501431	6
	31	11	796.875	15920.77	-4687.438	1	16596.47	-16.40563	-8.144785E-009	-0.1498646	6
	32	12	627.7902	16330.24	-5254.255	1	17154.7	-17.83558	-1.457339E-009	-0.1499993	6
	33	12	505.5147	16717.9	-5899.784	1	17728.38	-19.43805	1.300636E-009	-0.1500088	6
	34	12	397.9953	17172.03	-6788.819	1	18465.29	-21.57095	5.759806E-010	-0.1499176	6
	35	13	315.5048	17644.29	-7860.475	1	19316.01	-24.01282	5.386728E-010	-0.149917	6
	36	13	252.4038	18138.5	-9125.621	1	20304.73	-26.70733	3.255166E-010	-0.1499216	6
	37	13	198.6229	18710.59	-10803.46	1	21605.58	-30.00206	5.92147E-010	-0.1499164	6
	38	14	158.3615	19305.36	-12768.18	1	23145.69	-33.47986	8.292683E-010	-0.1499181	6
	39	14	125.558	19985.25	-15258.2	1	25144.04	-37.36076	6.379698E-010	-0.1499214	6
	40	14	100.4464	20710.65	-18211.71	1	27578.93	-41.32647	4.502025E-010	-0.1499245	6
	41	15	79.00281	21652.88	-22137.88	1	30966.64	-45.63455	7.938123E-010	-0.1499306	6
	42	15	63.3446	22863.51	-26675.6	1	35133	-49.4003	1.240931E-010	-0.149929	6
	43	15	49.86702	24228.21	-32650.33	1	40657.72	-53.4227	-6.358518E-011	-0.1499276	6
	44	16	39.72458	25840.6	-39527.36	1	47224.45	-56.82576	4.87856E-010	-0.1499252	6
	45	16	31.6723	27911.14	-47943.08	1	55475.86	-59.79321	3.178405E-010	-0.1499291	6
	46	16	24.93351	30822.98	-58848.9	1	66432.3	-62.35604	1.441128E-010	-0.1499334	6
	47	17	19.86229	34310.52	-71409.57	1	79224.61	-64.33688	4.896277E-010	-0.1499288	6
	48	17	15.83615	38617.46	-86274.37	1	94522.88	-65.88612	-3.439166E-010	-0.1499317	6
	49	17	12.40079	44739.98	-105709.3	1	114787.3	-67.06017	-1.255962E-009	-0.1499313	5
	50	17	9.93114	51470.92	-127592.1	1	137582.7	-68.03075	-8.803648E-010	-0.1499394	5
	51	18	7.944915	60302.32	-152934.5	1	164393.8	-68.4806	3.216558E-010	-0.1499308	5
	52	18	6.317385	71644.82	-185290.7	1	198659.6	-68.86042	-1.206325E-010	-0.1499323	5
	53	19	5.008013	86543.96	-223880.2	1	240025.4	-68.8653	-1.715863E-010	-0.1499375	5
	54	20	3.945707	106086.5	-270474.1	1	290535	-68.58369	4.939945E-011	-0.1499309	5
	55	21	3.158693	129910.4	-322584.3	1	347760.5	-68.06448	-2.534813E-011	-0.1499256	5
	56	23	2.504006	161275.1	-385869.5	1	418216.4	-67.31739	-8.816356E-011	-0.149933	5
	57	24	1.998082	199842.1	-455475.8	1	497388.3	-66.31032	1.154884E-010	-0.1499047	5
	58	26	1.584686	248596.2	-539340	1	593875.1	-65.25377	1.250336E-010	-0.1498906	5
	59	28	1.266892	306600.4	-628961.1	1	699711.3	-64.0121	8.412248E-011	-0.149934	5
	60	30	0.999041	383458.1	-735596.6	1	829543.5	-62.46748	7.570054E-011	-0.1499705	5
