EXPLAIN
TAG	EISPOT
TITLE	LABEL	Potentiostatic EIS	Test &Identifier
DATE	LABEL	1/14/2020	Date
TIME	LABEL	18:06:32	Time
NOTES	NOTES	5	&Notes...
	
	
	
	
	
PSTAT	PSTAT	REF600-11020	Potentiostat
VDC	POTEN	0.00000E+000	T	DC &Voltage (V)
FREQINIT	QUANT	1.00000E+006	Initial Fre&q. (Hz)
FREQFINAL	QUANT	1.00000E+000	Final Fre&q. (Hz)
PTSPERDEC	QUANT	1.00000E+001	Points/&decade
VAC	QUANT	2.50000E+001	AC &Voltage (mV rms)
AREA	QUANT	1.00000E-001	&Area (cm^2)
CONDIT	TWOPARAM	T	5.00000E+000	0.00000E+000	Conditionin&g	Time(s)	E(V)
DELAY	TWOPARAM	T	5.00000E+000	0.00000E+000	Init. De&lay	Time(s)	Stab.(mV/s)
SPEED	SELECTOR	1	&Optimize for:
ZGUESS	QUANT	5.00000E+002	E&stimated Z (ohms)
OCVCURVE	TABLE	19
	Pt	T	Vf	Vm	Ach	Over
	#	s	V vs. Ref.	V	V	bits
	0	0.258333	7.99371E-003	7.99371E-003	6.08847E-004	...........
	1	0.516667	7.99832E-003	8.23504E-003	6.07914E-004	...........
	2	0.775	8.02699E-003	8.48252E-003	5.96014E-004	...........
	3	1.03333	8.10940E-003	8.72646E-003	6.01380E-004	...........
	4	1.29167	8.25984E-003	8.96872E-003	6.12380E-004	...........
	5	1.55	8.46514E-003	9.21917E-003	6.10780E-004	...........
	6	1.80833	8.70100E-003	9.48522E-003	5.97814E-004	...........
	7	2.06667	8.94976E-003	9.72510E-003	5.95847E-004	...........
	8	2.325	9.20194E-003	9.93314E-003	6.13313E-004	...........
	9	2.58333	9.45016E-003	1.01550E-002	6.06947E-004	...........
	10	2.84167	9.68617E-003	1.02420E-002	5.97314E-004	...........
	11	3.1	9.89568E-003	1.01624E-002	6.02014E-004	...........
	12	3.35833	1.00514E-002	9.99386E-003	6.07614E-004	...........
	13	3.61667	1.01268E-002	1.00692E-002	6.04614E-004	...........
	14	3.875	1.01394E-002	1.06141E-002	5.97480E-004	...........
	15	4.13333	1.01701E-002	1.09323E-002	6.04580E-004	...........
	16	4.39167	1.03046E-002	1.12923E-002	6.04180E-004	...........
	17	4.65	1.05568E-002	1.15099E-002	5.95414E-004	...........
	18	4.90833	1.08713E-002	1.17203E-002	5.99780E-004	...........
EOC	QUANT	0.0108713	Open Circuit (V)
PSTATMODEL	IQUANT	4	Pstat Model
PSTATSECTION	LABEL	REF600-11020	Pstat Section
PSTATSERIALNO	LABEL	11020	Pstat Serial Number
CTRLMODE	IQUANT	1	Control Mode
IESTAB	IQUANT	0	I/E Stability
CASPEED	IQUANT	1	Control Amp Speed
CONVENTION	IQUANT	1	Current Convention
ICHRANGE	IQUANT	2	Ich Range
ICHRANGEMODE	TOGGLE	F	Ich Auto Range
ICHOFFSETENABLE	TOGGLE	T	Ich Offset Enable
ICHOFFSET	QUANT	0	Ich Offset (V)
ICHFILTER	IQUANT	3	Ich Filter
VCHRANGE	IQUANT	2	Vch Range
VCHRANGEMODE	TOGGLE	F	Vch Auto Range
VCHOFFSETENABLE	TOGGLE	T	Vch Offset Enable
VCHOFFSET	QUANT	0	Vch Offset (V)
VCHFILTER	IQUANT	3	Vch Filter
ACHRANGE	IQUANT	2	Ach Range
ACHOFFSETENABLE	TOGGLE	F	Ach Offset Enable
ACHOFFSET	QUANT	0	Ach Offset (V)
ACHFILTER	IQUANT	3	Ach Filter
IERANGELOWERLIMIT	IQUANT	1	I/E Range Lower Limit
IERANGEMODE	TOGGLE	F	I/E AutoRange
IERANGE	IQUANT	7	I/E Range
POSFEEDENABLE	TOGGLE	F	Positive Feedback IR Comp
POSFEEDRESISTANCE	QUANT	0	Positive Feedback Resistance (ohm)
ACHSELECT	IQUANT	0	Ach Select
CABLEID	IQUANT	14	Cable ID
DCCALDATE	LABEL	12/22/2019	DC Calibration Date
ACCALDATE	LABEL	12/22/2019	AC Calibration Date
THERMOSELECT	IQUANT	1	Thermo Select
FRAMEWORKVERSION	QUANT	6.33	Framework Version
INSTRUMENTVERSION	LABEL	3.50	Instrument Version
ZCURVE	TABLE
	Pt	Time	Freq	Zreal	Zimag	Zsig	Zmod	Zphz	Idc	Vdc	IERange
	#	s	Hz	ohm	ohm	V	ohm	°	A	V	#
	0	2	1000078	2368.428	-1922.055	1	3050.204	-39.06042	-3.54703E-007	0.0132672	8
	1	3	794390.6	2731.737	-1925.872	1	3342.36	-35.1838	3.654483E-006	0.0120244	8
	2	4	630984.4	3095.209	-1898.056	1	3630.831	-31.51762	-4.057267E-006	0.0132552	8
	3	6	501234.4	3431.125	-1832.756	1	3889.937	-28.10917	-1.793971E-006	0.0129081	8
	4	7	398109.4	3763.341	-1734.466	1	4143.804	-24.74425	3.580408E-006	0.0118414	8
	5	8	316265.6	4048.22	-1608.078	1	4355.916	-21.66451	1.233671E-006	0.011989	8
	6	10	251203.1	4299.078	-1462.736	1	4541.109	-18.79057	-2.765916E-006	0.0129519	8
	7	11	199546.9	4505.358	-1311.744	1	4692.433	-16.23303	6.925105E-007	0.0121845	8
	8	12	158578.1	4682.198	-1176.275	1	4827.691	-14.10217	-1.189142E-006	0.0124922	8
	9	14	125953.1	4854.112	-1006.927	1	4957.449	-11.71912	-3.923307E-007	0.0131293	7
	10	15	100078.1	4958.094	-877.9417	1	5035.224	-10.04142	4.825272E-008	0.0122834	7
	11	17	79453.13	5052.96	-776.0512	1	5112.208	-8.731459	3.222867E-008	0.0121978	7
	12	18	63140.62	5129.566	-687.1168	1	5175.382	-7.629481	5.650387E-008	0.0122001	7
	13	19	50203.12	5191.872	-616.2482	1	5228.316	-6.769042	9.365893E-008	0.0121551	7
	14	21	39890.62	5242.846	-559.7937	1	5272.646	-6.094545	-2.696376E-008	0.0123065	7
	15	22	31640.63	5286.56	-520.3666	1	5312.109	-5.621628	-2.305854E-008	0.0122983	7
	16	23	25171.88	5323.092	-497.4157	1	5346.282	-5.338495	-2.030192E-008	0.0123117	7
	17	25	20015.62	5360.03	-489.2147	1	5382.309	-5.214988	-1.593128E-009	0.0123137	7
	18	26	15890.62	5390.372	-499.2377	1	5413.441	-5.291442	-1.101004E-008	0.0122775	7
	19	27	12609.37	5423.407	-523.1275	1	5448.578	-5.509555	5.189854E-008	0.0122738	7
	20	29	10078.13	5452.24	-570.8878	1	5482.046	-5.977489	-1.441987E-008	0.0122882	7
	21	30	8015.625	5485.603	-625.6663	1	5521.168	-6.506814	-9.54733E-009	0.0123835	7
	22	31	6328.125	5522.899	-716.8073	1	5569.221	-7.39498	-4.073283E-008	0.0123481	7
	23	33	5015.625	5561.803	-831.2016	1	5623.571	-8.499845	-2.366644E-008	0.0123688	7
	24	34	3984.375	5599.757	-977.381	1	5684.413	-9.90067	-2.301481E-008	0.0122959	7
	25	35	3170.956	5649.372	-1157.353	1	5766.704	-11.57765	-9.242586E-009	0.0123725	7
	26	37	2527.573	5700.021	-1382.2	1	5865.213	-13.63057	3.44149E-008	0.0121872	7
	27	38	1976.103	5768.713	-1689.416	1	6011.004	-16.32311	2.086619E-008	0.0122172	7
	28	40	1577.524	5838.366	-2033.702	1	6182.432	-19.20497	-1.81719E-008	0.0123008	7
	29	41	1265.625	5927.072	-2462.029	1	6418.082	-22.55736	1.93112E-008	0.0122121	7
	30	42	998.264	6039.19	-3020.19	1	6752.286	-26.56957	-3.812033E-008	0.0123388	7
	31	44	796.875	6173.466	-3675.959	1	7185.009	-30.77147	5.319393E-008	0.0122584	7
	32	45	627.7902	6353.92	-4526.002	1	7801.089	-35.4629	-1.729977E-008	0.0122979	7
	33	46	505.5147	6557.548	-5480.551	1	8546.22	-39.8876	-2.120464E-008	0.0123625	7
	34	48	397.9953	6847.19	-6756.531	1	9619.5	-44.61817	8.949071E-009	0.0122853	7
	35	49	315.5048	7213.709	-8283.528	1	10984.28	-48.94903	1.207971E-009	0.0122812	6
	36	50	252.4038	7668.179	-10069.17	1	12656.59	-52.70891	5.423363E-010	0.0122776	6
	37	52	198.6229	8306.594	-12403.44	1	14927.99	-56.18975	1.082439E-009	0.0122849	6
	38	53	158.3615	9106.488	-15081.48	1	17617.58	-58.87562	7.888516E-010	0.0122795	6
	39	54	125.558	10178.62	-18386.11	1	21015.55	-61.03091	5.921313E-010	0.0122805	6
	40	56	100.4464	11545.96	-22175.02	1	25000.81	-62.49517	-4.391988E-010	0.0122778	6
	41	57	79.00281	13459.5	-27030.12	1	30195.79	-63.52924	9.526824E-010	0.0122831	6
	42	59	63.3446	15707.65	-32281.61	1	35900.31	-64.05328	4.147556E-010	0.0122749	6
	43	60	49.86702	19186.89	-38947.45	1	43417.05	-63.77351	2.891982E-010	0.012275	6
	44	61	39.72458	23160.5	-46278.46	1	51750.41	-63.41388	1.703057E-009	0.012278	6
	45	63	31.6723	28286.83	-54457.22	1	61365.57	-62.55119	4.073628E-010	0.0122822	6
	46	64	24.93351	35004.09	-64178.61	1	73103.9	-61.39121	9.165418E-010	0.0122818	6
	47	65	19.86229	42859.87	-74290.41	1	85767.32	-60.01835	-6.883745E-010	0.0122856	6
	48	67	15.83615	52015.8	-85290.35	1	99900.4	-58.62235	2.22801E-009	0.0122776	6
	49	68	12.40079	63559.94	-97883.2	1	116709	-57.00254	1.178271E-009	0.0122756	5
	50	70	9.93114	75715.16	-109923.8	1	133476.7	-55.44104	-1.258074E-009	0.0122816	5
	51	71	7.944915	88754.29	-122956	1	151642.6	-54.17682	8.703789E-010	0.0122733	5
	52	73	6.317385	103099.6	-137835.7	1	172128.5	-53.20392	5.114602E-010	0.0122771	5
	53	75	5.008013	118452	-154936.9	1	195029	-52.60144	-5.616626E-010	0.0122712	5
	54	77	3.945707	134716.6	-174934.8	1	220795.7	-52.40029	1.554985E-010	0.0122893	5
	55	80	3.158693	151803.2	-197553.6	1	249141.8	-52.46076	-8.511981E-011	0.0122822	5
	56	83	2.504006	170261.5	-225380.9	1	282463.3	-52.93117	1.3706E-010	0.0122727	5
	57	86	1.998082	189310.9	-257545.1	1	319637.5	-53.68191	-1.684317E-010	0.0123178	5
	58	89	1.584686	211042.8	-297989.4	1	365153	-54.69302	-6.804834E-013	0.0123061	5
	59	92	1.266892	235575.6	-344186.8	1	417085.6	-55.61066	-4.728886E-010	0.0123163	5
	60	97	0.999041	266248.2	-404260.2	1	484060.4	-56.63086	5.780151E-012	0.0122593	5
