EXPLAIN
TAG	EISPOT
TITLE	LABEL	Potentiostatic EIS	Test &Identifier
DATE	LABEL	1/7/2020	Date
TIME	LABEL	16:28:50	Time
NOTES	NOTES	5	&Notes...
	
	
	
	
	
PSTAT	PSTAT	REF600-11020	Potentiostat
VDC	POTEN	0.00000E+000	T	DC &Voltage (V)
FREQINIT	QUANT	1.00000E+006	Initial Fre&q. (Hz)
FREQFINAL	QUANT	1.00000E+000	Final Fre&q. (Hz)
PTSPERDEC	QUANT	1.00000E+001	Points/&decade
VAC	QUANT	2.50000E+001	AC &Voltage (mV rms)
AREA	QUANT	1.00000E-001	&Area (cm^2)
CONDIT	TWOPARAM	T	5.00000E+000	0.00000E+000	Conditionin&g	Time(s)	E(V)
DELAY	TWOPARAM	T	5.00000E+000	0.00000E+000	Init. De&lay	Time(s)	Stab.(mV/s)
SPEED	SELECTOR	0	&Optimize for:
ZGUESS	QUANT	1.00000E+003	E&stimated Z (ohms)
OCVCURVE	TABLE	19
	Pt	T	Vf	Vm	Ach	Over
	#	s	V vs. Ref.	V	V	bits
	0	0.258333	-2.93046E-003	-2.93046E-003	6.51280E-004	...........
	1	0.516667	-2.94739E-003	-3.81683E-003	6.47013E-004	...........
	2	0.775	-3.05148E-003	-4.66295E-003	6.44113E-004	...........
	3	1.03333	-3.34755E-003	-5.53921E-003	6.45246E-004	...........
	4	1.29167	-3.87792E-003	-6.09556E-003	6.47180E-004	...........
	5	1.55	-4.57005E-003	-6.64634E-003	6.46113E-004	...........
	6	1.80833	-5.29078E-003	-6.79135E-003	6.50113E-004	...........
	7	2.06667	-5.93069E-003	-7.40444E-003	6.56113E-004	...........
	8	2.325	-6.45835E-003	-7.83938E-003	6.42446E-004	...........
	9	2.58333	-6.91668E-003	-8.33906E-003	6.41846E-004	...........
	10	2.84167	-7.35692E-003	-8.50829E-003	6.52380E-004	...........
	11	3.1	-7.78545E-003	-8.94837E-003	6.46946E-004	...........
	12	3.35833	-8.18266E-003	-9.19522E-003	6.52146E-004	...........
	13	3.61667	-8.54438E-003	-9.63123E-003	6.45313E-004	...........
	14	3.875	-8.88764E-003	-9.98169E-003	6.43580E-004	...........
	15	4.13333	-9.23226E-003	-1.03286E-002	6.42013E-004	...........
	16	4.39167	-9.58538E-003	-1.06615E-002	6.42780E-004	...........
	17	4.65	-9.94023E-003	-1.09622E-002	6.48980E-004	...........
	18	4.90833	-1.02861E-002	-1.12552E-002	6.42546E-004	...........
EOC	QUANT	-0.0102861	Open Circuit (V)
PSTATMODEL	IQUANT	4	Pstat Model
PSTATSECTION	LABEL	REF600-11020	Pstat Section
PSTATSERIALNO	LABEL	11020	Pstat Serial Number
CTRLMODE	IQUANT	1	Control Mode
IESTAB	IQUANT	0	I/E Stability
CASPEED	IQUANT	1	Control Amp Speed
CONVENTION	IQUANT	1	Current Convention
ICHRANGE	IQUANT	2	Ich Range
ICHRANGEMODE	TOGGLE	F	Ich Auto Range
ICHOFFSETENABLE	TOGGLE	T	Ich Offset Enable
ICHOFFSET	QUANT	0	Ich Offset (V)
ICHFILTER	IQUANT	3	Ich Filter
VCHRANGE	IQUANT	2	Vch Range
VCHRANGEMODE	TOGGLE	F	Vch Auto Range
VCHOFFSETENABLE	TOGGLE	T	Vch Offset Enable
VCHOFFSET	QUANT	0	Vch Offset (V)
VCHFILTER	IQUANT	3	Vch Filter
ACHRANGE	IQUANT	2	Ach Range
ACHOFFSETENABLE	TOGGLE	F	Ach Offset Enable
ACHOFFSET	QUANT	0	Ach Offset (V)
ACHFILTER	IQUANT	3	Ach Filter
IERANGELOWERLIMIT	IQUANT	1	I/E Range Lower Limit
IERANGEMODE	TOGGLE	F	I/E AutoRange
IERANGE	IQUANT	7	I/E Range
POSFEEDENABLE	TOGGLE	F	Positive Feedback IR Comp
POSFEEDRESISTANCE	QUANT	0	Positive Feedback Resistance (ohm)
ACHSELECT	IQUANT	0	Ach Select
CABLEID	IQUANT	14	Cable ID
DCCALDATE	LABEL	12/22/2019	DC Calibration Date
ACCALDATE	LABEL	12/22/2019	AC Calibration Date
THERMOSELECT	IQUANT	1	Thermo Select
FRAMEWORKVERSION	QUANT	6.33	Framework Version
INSTRUMENTVERSION	LABEL	3.50	Instrument Version
ZCURVE	TABLE
	Pt	Time	Freq	Zreal	Zimag	Zsig	Zmod	Zphz	Idc	Vdc	IERange
	#	s	Hz	ohm	ohm	V	ohm	°	A	V	#
	0	1	1000078	2369.077	-1989.018	1	3093.334	-40.01599	2.567336E-006	-0.0072599	8
	1	1	794390.6	2774.813	-1994.787	1	3417.421	-35.712	-1.563783E-006	-0.0085037	8
	2	1	630984.4	3208.435	-1908.109	1	3732.953	-30.74065	-4.558732E-007	-0.0078942	8
	3	2	501234.4	3546.906	-1798.812	1	3976.967	-26.89183	1.52513E-006	-0.0088404	8
	4	2	398109.4	3882.817	-1629.448	1	4210.863	-22.76566	5.392195E-006	-0.009875	8
	5	2	316265.6	4100.209	-1460.873	1	4352.685	-19.61059	-2.118568E-006	-0.0082855	8
	6	3	251203.1	4328.159	-1299.723	1	4519.097	-16.71474	3.285419E-006	-0.0094461	8
	7	3	199546.9	4493.454	-1153.01	1	4639.026	-14.39147	-6.016423E-007	-0.0088167	8
	8	3	158578.1	4590.9	-996.558	1	4697.817	-12.24733	-5.332122E-007	-0.0083723	8
	9	4	125953.1	4733.006	-821.2972	1	4803.735	-9.84425	1.054252E-006	-0.0109106	7
	10	4	100078.1	4796.832	-720.9813	1	4850.712	-8.54778	1.496362E-009	-0.0087495	7
	11	4	79453.13	4859.49	-660.2211	1	4904.135	-7.736959	-5.487852E-008	-0.0086901	7
	12	5	63140.62	4915.239	-612.6709	1	4953.276	-7.105114	-4.717434E-008	-0.0085727	7
	13	5	50203.12	4964.952	-585.2926	1	4999.331	-6.723275	-4.837761E-008	-0.0085744	7
	14	5	39890.62	5013.718	-571.2045	1	5046.151	-6.499589	1.539865E-010	-0.0087665	7
	15	5	31640.63	5061.173	-572.0261	1	5093.396	-6.448344	1.180247E-007	-0.0089037	7
	16	6	25171.88	5108.899	-588.8826	1	5142.727	-6.57524	1.707974E-008	-0.0085775	7
	17	6	20015.62	5160.257	-620.7828	1	5197.463	-6.85976	6.701778E-008	-0.0087917	7
	18	6	15890.62	5214.856	-667.6172	1	5257.417	-7.295446	1.673905E-008	-0.0085731	7
	19	7	12609.37	5276.238	-729.0789	1	5326.372	-7.8674	-9.298372E-008	-0.0085612	7
	20	7	10078.13	5336.181	-808.6027	1	5397.098	-8.616596	-7.654084E-008	-0.0086145	7
	21	7	8015.625	5402.102	-901.1953	1	5476.756	-9.471043	-5.600835E-008	-0.0086021	7
	22	8	6328.125	5478.277	-1032.002	1	5574.634	-10.6684	-7.532034E-008	-0.0086177	7
	23	8	5015.625	5556.151	-1183.698	1	5680.841	-12.02665	-3.589936E-008	-0.0087355	7
	24	8	3984.375	5640.197	-1375.317	1	5805.456	-13.7037	-7.554537E-008	-0.0086182	7
	25	9	3170.956	5730.748	-1601.628	1	5950.351	-15.6146	6.219214E-008	-0.0089094	7
	26	9	2527.573	5828.055	-1880.765	1	6124.01	-17.88535	-3.687961E-008	-0.0087374	7
	27	9	1976.103	5948.891	-2255.736	1	6362.205	-20.76602	2.837236E-009	-0.0087754	7
	28	10	1577.524	6078.279	-2679.403	1	6642.641	-23.78866	2.205575E-009	-0.0086704	7
	29	10	1265.625	6212.505	-3190.441	1	6983.848	-27.18283	6.937036E-008	-0.0087954	7
	30	10	998.264	6393.648	-3861.79	1	7469.415	-31.13215	-5.460661E-008	-0.0087077	7
	31	11	796.875	6588.424	-4638.349	1	8057.395	-35.14612	-7.90494E-008	-0.008453	7
	32	11	627.7902	6836.193	-5643.926	1	8864.956	-39.54291	1.230227E-007	-0.0087857	7
	33	11	505.5147	7108.371	-6766.291	1	9813.85	-43.58766	-5.484565E-008	-0.008715	7
	34	11	397.9953	7455.438	-8267.194	1	11132.39	-47.95555	1.262356E-009	-0.0087124	6
	35	12	315.5048	7861.678	-10071	1	12776.19	-52.02351	1.381118E-009	-0.0087111	6
	36	12	252.4038	8333.732	-12193.16	1	14769.03	-55.64834	1.37955E-009	-0.0087151	6
	37	12	198.6229	8955.049	-14993.34	1	17464.05	-59.15146	1.108036E-009	-0.0087145	6
	38	13	158.3615	9689.83	-18256.28	1	20668.45	-62.04212	1.260351E-009	-0.0087183	6
	39	13	125.558	10652.74	-22347.46	1	24756.61	-64.51347	8.975539E-010	-0.0087146	6
	40	13	100.4464	11816.7	-27133.29	1	29594.77	-66.4666	1.601462E-009	-0.0087179	6
	41	14	79.00281	13535.71	-33406.42	1	36044.48	-67.94305	1.285283E-009	-0.0087196	6
	42	14	63.3446	15347.68	-40791.32	1	43583.06	-69.38125	9.885824E-010	-0.0087213	6
	43	14	49.86702	18251.22	-49921.99	1	53153.66	-69.91785	1.342073E-009	-0.0087208	6
	44	15	39.72458	22018.86	-60313.57	1	64207.14	-69.94422	1.26023E-009	-0.0087179	6
	45	15	31.6723	26868.03	-72854.6	1	77651.04	-69.75655	9.203409E-010	-0.0087232	6
	46	15	24.93351	33475.18	-88332.29	1	94462.59	-69.24486	5.860294E-010	-0.0087253	6
	47	16	19.86229	41553.89	-105609.5	1	113490.5	-68.52199	-9.095436E-010	-0.0087295	5
	48	16	15.83615	52510.36	-124185.1	1	134830.5	-67.07944	-8.146209E-010	-0.008726	5
	49	16	12.40079	66872.91	-149822	1	164069	-65.94646	-4.266379E-010	-0.0087164	5
	50	17	9.93114	82415.76	-175501.4	1	193889.4	-64.84517	8.686858E-010	-0.0087141	5
	51	17	7.944915	101826.9	-203372.4	1	227440.2	-63.40325	1.639019E-009	-0.0087271	5
	52	18	6.317385	126317.8	-235481.2	1	267222	-61.78981	1.17953E-009	-0.0087321	5
	53	19	5.008013	154985.8	-271280.6	1	312432	-60.26015	8.634929E-010	-0.0087177	5
	54	20	3.945707	189775.3	-311493.1	1	364750.1	-58.64839	4.943641E-010	-0.0087195	5
	55	21	3.158693	225077.9	-353036.8	1	418682.5	-57.48053	4.010598E-010	-0.0087416	5
	56	23	2.504006	268037.7	-401297	1	482580	-56.25991	7.0993E-010	-0.0087346	5
	57	24	1.998082	311371	-452399.9	1	549197.2	-55.46173	6.552564E-010	-0.0087234	5
	58	26	1.584686	363683.3	-511873.1	1	627916.8	-54.6064	4.683411E-010	-0.0087721	5
	59	28	1.266892	417408.2	-579201.9	1	713935.9	-54.22118	4.391068E-010	-0.0087727	5
	60	30	0.999041	478104.8	-662047.3	1	816633.9	-54.16465	4.369919E-010	-0.0087565	5
