EXPLAIN
TAG	EISPOT
TITLE	LABEL	Potentiostatic EIS	Test &Identifier
DATE	LABEL	3/9/2020	Date
TIME	LABEL	20:36:09	Time
NOTES	NOTES	1	&Notes...
	
PSTAT	PSTAT	REF600-11020	Potentiostat
VDC	POTEN	0.00000E+000	T	DC &Voltage (V)
FREQINIT	QUANT	1.00000E+006	Initial Fre&q. (Hz)
FREQFINAL	QUANT	1.00000E+000	Final Fre&q. (Hz)
PTSPERDEC	QUANT	1.00000E+001	Points/&decade
VAC	QUANT	2.50000E+001	AC &Voltage (mV rms)
AREA	QUANT	4.00000E-005	&Area (cm^2)
CONDIT	TWOPARAM	F	5.00000E+000	0.00000E+000	Conditionin&g	Time(s)	E(V)
DELAY	TWOPARAM	T	3.00000E+000	0.00000E+000	Init. De&lay	Time(s)	Stab.(mV/s)
SPEED	SELECTOR	0	&Optimize for:
ZGUESS	QUANT	1.00000E+003	E&stimated Z (ohms)
OCVCURVE	TABLE	12
	Pt	T	Vf	Vm	Ach	Over
	#	s	V vs. Ref.	V	V	bits
	0	0.258333	2.29502E-002	2.29502E-002	5.81197E-004	...........
	1	0.516667	2.29499E-002	2.29349E-002	5.86030E-004	...........
	2	0.775	2.29482E-002	2.29218E-002	5.85797E-004	...........
	3	1.03333	2.29432E-002	2.29072E-002	5.84330E-004	...........
	4	1.29167	2.29344E-002	2.28939E-002	5.83697E-004	...........
	5	1.55	2.29225E-002	2.28811E-002	5.84430E-004	...........
	6	1.80833	2.29092E-002	2.28697E-002	5.89996E-004	...........
	7	2.06667	2.28957E-002	2.28521E-002	5.80663E-004	...........
	8	2.325	2.28823E-002	2.28432E-002	5.91163E-004	...........
	9	2.58333	2.28690E-002	2.28299E-002	5.88263E-004	...........
	10	2.84167	2.28559E-002	2.28163E-002	5.85230E-004	...........
	11	3.1	2.28431E-002	2.28048E-002	5.84197E-004	...........
EOC	QUANT	0.0228431	Open Circuit (V)
PSTATMODEL	IQUANT	4	Pstat Model
PSTATSECTION	LABEL	REF600-11020	Pstat Section
PSTATSERIALNO	LABEL	11020	Pstat Serial Number
CTRLMODE	IQUANT	1	Control Mode
IESTAB	IQUANT	0	I/E Stability
CASPEED	IQUANT	1	Control Amp Speed
CONVENTION	IQUANT	1	Current Convention
ICHRANGE	IQUANT	2	Ich Range
ICHRANGEMODE	TOGGLE	F	Ich Auto Range
ICHOFFSETENABLE	TOGGLE	T	Ich Offset Enable
ICHOFFSET	QUANT	0	Ich Offset (V)
ICHFILTER	IQUANT	3	Ich Filter
VCHRANGE	IQUANT	2	Vch Range
VCHRANGEMODE	TOGGLE	F	Vch Auto Range
VCHOFFSETENABLE	TOGGLE	T	Vch Offset Enable
VCHOFFSET	QUANT	0	Vch Offset (V)
VCHFILTER	IQUANT	3	Vch Filter
ACHRANGE	IQUANT	2	Ach Range
ACHOFFSETENABLE	TOGGLE	F	Ach Offset Enable
ACHOFFSET	QUANT	0	Ach Offset (V)
ACHFILTER	IQUANT	3	Ach Filter
IERANGELOWERLIMIT	IQUANT	1	I/E Range Lower Limit
IERANGEMODE	TOGGLE	F	I/E AutoRange
IERANGE	IQUANT	7	I/E Range
POSFEEDENABLE	TOGGLE	F	Positive Feedback IR Comp
POSFEEDRESISTANCE	QUANT	0	Positive Feedback Resistance (ohm)
ACHSELECT	IQUANT	0	Ach Select
CABLEID	IQUANT	14	Cable ID
DCCALDATE	LABEL	2/27/2020	DC Calibration Date
ACCALDATE	LABEL	2/27/2020	AC Calibration Date
THERMOSELECT	IQUANT	1	Thermo Select
FRAMEWORKVERSION	QUANT	6.33	Framework Version
INSTRUMENTVERSION	LABEL	3.50	Instrument Version
ZCURVE	TABLE
	Pt	Time	Freq	Zreal	Zimag	Zsig	Zmod	Zphz	Idc	Vdc	IERange
	#	s	Hz	ohm	ohm	V	ohm	°	A	V	#
	0	1	1000078	1951.14	-1567.327	1	2502.69	-38.77449	-2.901889E-008	0.0250997	8
	1	1	794390.6	2265.689	-1573.859	1	2758.692	-34.78574	2.764084E-008	0.0248041	8
	2	2	630984.4	2569.019	-1530.934	1	2990.588	-30.79163	9.324818E-008	0.0245892	8
	3	2	501234.4	2852.868	-1441.424	1	3196.336	-26.80539	2.372105E-008	0.0245127	8
	4	2	398109.4	3098.116	-1320.908	1	3367.955	-23.09139	4.216864E-008	0.0244668	8
	5	2	316265.6	3296.029	-1192.735	1	3505.199	-19.89368	1.072947E-008	0.0244369	8
	6	3	251203.1	3456.104	-1061.006	1	3615.299	-17.06622	7.880774E-008	0.0243982	8
	7	3	199546.9	3581.781	-947.3886	1	3704.956	-14.81557	3.071105E-008	0.0244345	8
	8	3	158578.1	3679.805	-849.4956	1	3776.587	-12.9992	3.513738E-008	0.024434	8
	9	4	125953.1	3796.383	-703.8254	1	3861.074	-10.50303	-1.901054E-009	0.0243654	7
	10	4	100078.1	3847.144	-654.2256	1	3902.375	-9.6511	1.188596E-009	0.0243583	7
	11	4	79453.13	3904.767	-631.8689	1	3955.562	-9.191916	1.608977E-009	0.0243576	7
	12	5	63140.62	3959.537	-624.8698	1	4008.54	-8.968105	1.863697E-009	0.0243543	7
	13	5	50203.12	4014.19	-632.116	1	4063.656	-8.948901	3.119551E-010	0.0243421	7
	14	5	39890.62	4070.576	-655.8627	1	4123.074	-9.152994	1.426129E-009	0.024353	7
	15	6	31640.63	4130.573	-695.6311	1	4188.739	-9.5595	1.004212E-009	0.0243528	7
	16	6	25171.88	4194.885	-751.1841	1	4261.612	-10.15243	1.13392E-009	0.0243405	7
	17	6	20015.62	4265.797	-824.3879	1	4344.726	-10.93788	2.212243E-009	0.0243489	7
	18	7	15890.62	4345.867	-915.9381	1	4441.34	-11.90152	1.371473E-009	0.024349	7
	19	7	12609.37	4436.065	-1028.375	1	4553.705	-13.05184	9.198648E-010	0.0243459	7
	20	7	10078.13	4533.919	-1158.41	1	4679.566	-14.33237	1.487125E-009	0.0243466	7
	21	8	8015.625	4648.072	-1315.464	1	4830.633	-15.80219	1.612151E-009	0.0243367	7
	22	8	6328.125	4780.744	-1507.475	1	5012.783	-17.50122	1.398081E-009	0.0243395	7
	23	8	5015.625	4929.222	-1730.788	1	5224.257	-19.34761	1.946617E-009	0.0243434	7
	24	9	3984.375	5096.354	-1990.809	1	5471.394	-21.33731	1.413803E-009	0.0243449	7
	25	9	3170.956	5284.64	-2291.463	1	5760.054	-23.44195	1.391932E-009	0.0243353	7
	26	9	2527.573	5496.111	-2642.976	1	6098.57	-25.68202	2.857726E-009	0.0243466	7
	27	9	1976.103	5757.471	-3092.104	1	6535.257	-28.23844	2.027896E-009	0.0243415	7
	28	10	1577.524	6030.583	-3578.542	1	7012.41	-30.68485	3.807664E-009	0.0243455	7
	29	10	1265.625	6334.241	-4137.897	1	7566.03	-33.15492	2.46451E-009	0.0243403	7
	30	10	998.264	6707.1	-4849.326	1	8276.542	-35.86745	2.907933E-009	0.0243454	7
	31	11	796.875	7115.313	-5650.454	1	9085.994	-38.454	2.357007E-009	0.0243408	7
	32	11	627.7902	7618.254	-6647.003	1	10110.41	-41.10502	-7.871796E-011	0.0243962	6
	33	11	505.5147	8136.852	-7727.826	1	11221.75	-43.52312	-1.080073E-010	0.024399	6
	34	12	397.9953	8800.41	-9150.226	1	12695.43	-46.11642	3.698029E-010	0.0244102	6
	35	12	315.5048	9554.16	-10794.43	1	14415.33	-48.48794	4.489871E-010	0.0244057	6
	36	12	252.4038	10399.66	-12669.5	1	16391.13	-50.61942	3.426429E-010	0.0244012	6
	37	13	198.6229	11464.71	-15066.37	1	18932.38	-52.73077	4.311431E-010	0.0243948	6
	38	13	158.3615	12651.03	-17763.69	1	21808.19	-54.5421	3.117947E-010	0.0244023	6
	39	13	125.558	14082.69	-21041.33	1	25319.16	-56.2061	3.510522E-010	0.0243975	6
	40	14	100.4464	15697.78	-24766.14	1	29322.04	-57.63182	2.330196E-010	0.0243963	6
	41	14	79.00281	17732.26	-29513.53	1	34430.82	-59.00179	3.016602E-010	0.0243939	6
	42	14	63.3446	19895.3	-34690.53	1	39990.7	-60.16538	2.443084E-010	0.024393	6
	43	15	49.86702	22585.15	-41354.23	1	47119.65	-61.35934	1.832783E-010	0.0243919	6
	44	15	39.72458	25507.4	-48948.48	1	55195.85	-62.47566	2.360086E-010	0.0244005	6
	45	15	31.6723	28816.02	-58025.9	1	64787.1	-63.59072	1.876776E-010	0.0243975	6
	46	16	24.93351	32854.97	-69651.55	1	77011.6	-64.74652	5.149555E-010	0.0243957	6
	47	16	19.86229	37343.25	-83106.32	1	91110.8	-65.80356	9.180077E-010	0.0244023	6
	48	16	15.83615	42692.25	-99398.2	1	108178.7	-66.75612	-1.934702E-010	0.024397	5
	49	17	12.40079	49796.76	-120848	1	130705.6	-67.60535	6.136668E-010	0.0244031	5
	50	17	9.93114	57701.28	-144568.9	1	155658.6	-68.24174	5.701462E-010	0.024406	5
	51	17	7.944915	67756.95	-173261.2	1	186038.9	-68.64112	-2.939013E-010	0.0244028	5
	52	18	6.317385	80809.52	-208599.1	1	223704.6	-68.82405	2.57501E-010	0.0243904	5
	53	18	5.008013	97926.3	-251430.6	1	269827.6	-68.72025	3.899399E-010	0.0244098	5
	54	19	3.945707	120883.8	-303541.3	1	326726.5	-68.28533	1.231129E-010	0.0243932	5
	55	20	3.158693	147966.1	-360757.9	1	389923.3	-67.69884	2.771889E-010	0.0244084	5
	56	21	2.504006	184117.8	-429405.6	1	467213.6	-66.79162	7.338976E-011	0.0244016	5
	57	23	1.998082	227105.5	-506061.2	1	554684.4	-65.83085	1.648656E-011	0.0243732	5
	58	24	1.584686	283321.6	-594068.6	1	658170.7	-64.50272	1.014488E-010	0.0244199	5
	59	26	1.266892	349559.2	-692026.1	1	775301.1	-63.20055	1.257616E-010	0.0244362	5
	60	29	0.999041	432225.2	-807876.5	1	916233.1	-61.8526	1.489039E-010	0.02443	5
