EXPLAIN
TAG	EISPOT
TITLE	LABEL	Potentiostatic EIS	Test &Identifier
DATE	LABEL	1/14/2020	Date
TIME	LABEL	17:31:03	Time
NOTES	NOTES	5	&Notes...
	
	
	
	
	
PSTAT	PSTAT	REF600-11020	Potentiostat
VDC	POTEN	0.00000E+000	T	DC &Voltage (V)
FREQINIT	QUANT	1.00000E+006	Initial Fre&q. (Hz)
FREQFINAL	QUANT	1.00000E+000	Final Fre&q. (Hz)
PTSPERDEC	QUANT	1.00000E+001	Points/&decade
VAC	QUANT	2.50000E+001	AC &Voltage (mV rms)
AREA	QUANT	1.00000E-001	&Area (cm^2)
CONDIT	TWOPARAM	T	5.00000E+000	0.00000E+000	Conditionin&g	Time(s)	E(V)
DELAY	TWOPARAM	T	5.00000E+000	0.00000E+000	Init. De&lay	Time(s)	Stab.(mV/s)
SPEED	SELECTOR	0	&Optimize for:
ZGUESS	QUANT	5.00000E+002	E&stimated Z (ohms)
OCVCURVE	TABLE	19
	Pt	T	Vf	Vm	Ach	Over
	#	s	V vs. Ref.	V	V	bits
	0	0.258333	1.11809E-002	1.11809E-002	6.39680E-004	...........
	1	0.516667	1.11851E-002	1.14018E-002	6.43646E-004	...........
	2	0.775	1.12113E-002	1.16273E-002	6.49280E-004	...........
	3	1.03333	1.12866E-002	1.18454E-002	6.40013E-004	...........
	4	1.29167	1.14244E-002	1.21128E-002	6.45846E-004	...........
	5	1.55	1.16143E-002	1.22806E-002	6.44780E-004	...........
	6	1.80833	1.18318E-002	1.24924E-002	6.36880E-004	...........
	7	2.06667	1.20546E-002	1.27292E-002	6.38513E-004	...........
	8	2.325	1.22716E-002	1.28678E-002	6.47780E-004	...........
	9	2.58333	1.24800E-002	1.30604E-002	6.49446E-004	...........
	10	2.84167	1.26779E-002	1.32538E-002	6.51813E-004	...........
	11	3.1	1.28667E-002	1.34336E-002	6.46913E-004	...........
	12	3.35833	1.30511E-002	1.35997E-002	6.48346E-004	...........
	13	3.61667	1.32328E-002	1.37492E-002	6.46780E-004	...........
	14	3.875	1.34092E-002	1.39196E-002	6.44680E-004	...........
	15	4.13333	1.35796E-002	1.41223E-002	6.45780E-004	...........
	16	4.39167	1.37481E-002	1.42745E-002	6.49013E-004	...........
	17	4.65	1.39187E-002	1.44250E-002	6.43313E-004	...........
	18	4.90833	1.40885E-002	1.45581E-002	6.46346E-004	...........
EOC	QUANT	0.0140885	Open Circuit (V)
PSTATMODEL	IQUANT	4	Pstat Model
PSTATSECTION	LABEL	REF600-11020	Pstat Section
PSTATSERIALNO	LABEL	11020	Pstat Serial Number
CTRLMODE	IQUANT	1	Control Mode
IESTAB	IQUANT	0	I/E Stability
CASPEED	IQUANT	1	Control Amp Speed
CONVENTION	IQUANT	1	Current Convention
ICHRANGE	IQUANT	2	Ich Range
ICHRANGEMODE	TOGGLE	F	Ich Auto Range
ICHOFFSETENABLE	TOGGLE	T	Ich Offset Enable
ICHOFFSET	QUANT	0	Ich Offset (V)
ICHFILTER	IQUANT	3	Ich Filter
VCHRANGE	IQUANT	2	Vch Range
VCHRANGEMODE	TOGGLE	F	Vch Auto Range
VCHOFFSETENABLE	TOGGLE	T	Vch Offset Enable
VCHOFFSET	QUANT	0	Vch Offset (V)
VCHFILTER	IQUANT	3	Vch Filter
ACHRANGE	IQUANT	2	Ach Range
ACHOFFSETENABLE	TOGGLE	F	Ach Offset Enable
ACHOFFSET	QUANT	0	Ach Offset (V)
ACHFILTER	IQUANT	3	Ach Filter
IERANGELOWERLIMIT	IQUANT	1	I/E Range Lower Limit
IERANGEMODE	TOGGLE	F	I/E AutoRange
IERANGE	IQUANT	7	I/E Range
POSFEEDENABLE	TOGGLE	F	Positive Feedback IR Comp
POSFEEDRESISTANCE	QUANT	0	Positive Feedback Resistance (ohm)
ACHSELECT	IQUANT	0	Ach Select
CABLEID	IQUANT	14	Cable ID
DCCALDATE	LABEL	12/22/2019	DC Calibration Date
ACCALDATE	LABEL	12/22/2019	AC Calibration Date
THERMOSELECT	IQUANT	1	Thermo Select
FRAMEWORKVERSION	QUANT	6.33	Framework Version
INSTRUMENTVERSION	LABEL	3.50	Instrument Version
ZCURVE	TABLE
	Pt	Time	Freq	Zreal	Zimag	Zsig	Zmod	Zphz	Idc	Vdc	IERange
	#	s	Hz	ohm	ohm	V	ohm	°	A	V	#
	0	1	1000078	2340.139	-1848.888	1	2982.388	-38.31141	3.361049E-006	0.0155309	8
	1	2	794390.6	2716.308	-1806.036	1	3261.916	-33.6194	-3.864508E-006	0.0164699	8
	2	2	630984.4	3070.463	-1698.267	1	3508.825	-28.9469	8.110211E-007	0.015885	8
	3	2	501234.4	3382.3	-1568.918	1	3728.465	-24.88476	-2.630916E-007	0.0157103	8
	4	3	398109.4	3631.161	-1408.989	1	3894.943	-21.20761	-7.333301E-007	0.0158634	8
	5	3	316265.6	3838.504	-1228.457	1	4030.288	-17.74651	-4.682373E-007	0.015727	8
	6	3	251203.1	3997.795	-1067.27	1	4137.806	-14.94736	-2.098713E-006	0.0160854	8
	7	3	199546.9	4113.093	-934.1102	1	4217.831	-12.79521	1.345983E-006	0.01529	8
	8	4	158578.1	4180.891	-808.3884	1	4258.326	-10.94328	-6.881673E-007	0.0158027	8
	9	4	125953.1	4286.715	-686.461	1	4341.331	-9.09792	6.307349E-008	0.0154376	7
	10	4	100078.1	4337.88	-608.2381	1	4380.314	-7.981721	-2.520258E-008	0.015647	7
	11	5	79453.13	4386.72	-555.0701	1	4421.698	-7.211551	-2.119891E-008	0.0155561	7
	12	5	63140.62	4432.6	-517.0187	1	4462.651	-6.652921	-2.1263E-008	0.0155505	7
	13	5	50203.12	4474.394	-491.3343	1	4501.29	-6.266557	2.944704E-008	0.0154622	7
	14	6	39890.62	4512.808	-478.6445	1	4538.12	-6.05436	4.571781E-009	0.0156086	7
	15	6	31640.63	4551.873	-478.64	1	4576.968	-6.002726	2.711077E-008	0.0155143	7
	16	6	25171.88	4590.231	-491.2662	1	4616.445	-6.108786	-2.29898E-008	0.0155892	7
	17	6	20015.62	4631.376	-518.7093	1	4660.333	-6.390437	9.206778E-009	0.0155046	7
	18	7	15890.62	4669.622	-557.3774	1	4702.769	-6.80676	-2.772793E-008	0.0155686	7
	19	7	12609.37	4711.329	-614.371	1	4751.218	-7.429612	6.953347E-009	0.015495	7
	20	7	10078.13	4754.931	-684.2272	1	4803.909	-8.188562	-2.659654E-008	0.0155721	7
	21	8	8015.625	4796.31	-774.0721	1	4858.372	-9.167863	2.937828E-008	0.0154599	7
	22	8	6328.125	4851.944	-899.0565	1	4934.538	-10.49774	5.12922E-008	0.0154422	7
	23	8	5015.625	4907.382	-1050.506	1	5018.562	-12.08275	3.531011E-009	0.0156034	7
	24	9	3984.375	4968.2	-1234.893	1	5119.372	-13.95853	-1.100691E-008	0.0155836	7
	25	9	3170.956	5035.443	-1467.258	1	5244.858	-16.24538	2.607939E-008	0.0155119	7
	26	9	2527.573	5113.3	-1749.457	1	5404.298	-18.88779	2.060528E-009	0.0155557	7
	27	10	1976.103	5211.417	-2129.761	1	5629.81	-22.22847	-2.376019E-008	0.0155563	7
	28	10	1577.524	5303.514	-2574.24	1	5895.25	-25.89118	-2.348672E-008	0.0156278	7
	29	10	1265.625	5442.362	-3074.434	1	6250.716	-29.46246	4.848938E-008	0.0155163	7
	30	10	998.264	5606.553	-3746.406	1	6743.07	-33.7516	-2.502601E-008	0.0155714	7
	31	11	796.875	5799.393	-4531.492	1	7359.849	-38.00313	-1.994354E-008	0.0155368	7
	32	11	627.7902	6042.786	-5548.06	1	8203.429	-42.55596	8.150744E-008	0.0154225	7
	33	11	505.5147	6325.463	-6667.083	1	9190.293	-46.50616	-1.812346E-008	0.0155383	7
	34	12	397.9953	6703.972	-8161.934	1	10562.22	-50.60132	4.054748E-010	0.0155481	6
	35	12	315.5048	7157.54	-9932.29	1	12242.58	-54.22222	3.659875E-010	0.0155463	6
	36	12	252.4038	7690.641	-11988.58	1	14243.32	-57.31994	6.657898E-010	0.0155437	6
	37	13	198.6229	8389.459	-14667.58	1	16897.36	-60.23161	5.493795E-010	0.0155437	6
	38	13	158.3615	9193.518	-17741.8	1	19982.3	-62.60754	4.013068E-010	0.0155427	6
	39	13	125.558	10199.21	-21560.67	1	23851.34	-64.68366	3.575541E-010	0.0155433	6
	40	14	100.4464	11378.28	-26011.07	1	28390.86	-66.37352	4.053299E-010	0.0155393	6
	41	14	79.00281	12916.27	-31809.67	1	34331.98	-67.90046	4.476766E-010	0.0155357	6
	42	14	63.3446	14778.52	-38446.44	1	41189	-68.97362	-6.061435E-011	0.0155401	6
	43	15	49.86702	17053.43	-47099.77	1	50092	-70.09618	2.665425E-010	0.0155269	6
	44	15	39.72458	19885.59	-56991.52	1	60361.17	-70.765	7.279372E-010	0.0155371	6
	45	15	31.6723	23534.75	-69031.41	1	72932.98	-71.17432	2.077725E-010	0.0155352	6
	46	16	24.93351	28505.33	-84292.62	1	88982.02	-71.31595	5.537136E-010	0.0155367	6
	47	16	19.86229	34599.7	-101763.8	1	107485	-71.22197	9.016192E-010	0.0155344	5
	48	16	15.83615	42505.09	-123096.8	1	130228.6	-70.95029	5.101184E-010	0.0155369	5
	49	16	12.40079	53232.12	-148744.2	1	157982.6	-70.30888	-7.347482E-010	0.0155378	5
	50	17	9.93114	66314.56	-177644.5	1	189618.5	-69.52943	-5.666197E-011	0.0155332	5
	51	17	7.944915	82210.11	-210814.7	1	226277.1	-68.69601	3.42751E-012	0.0155337	5
	52	17	6.317385	103172.1	-249899.5	1	270359.5	-67.56651	-2.32037E-011	0.0155277	5
	53	18	5.008013	129490.4	-295856.3	1	322953.2	-66.36196	4.528086E-011	0.0155408	5
	54	19	3.945707	162886.1	-349517.9	1	385609.4	-65.01302	-1.713893E-010	0.0155392	5
	55	20	3.158693	201071.7	-406423.7	1	453442.4	-63.67682	-2.862931E-010	0.015526	5
	56	22	2.504006	249543.9	-472417.6	1	534275.7	-62.15576	-1.439098E-010	0.0155293	5
	57	23	1.998082	303452	-543388.4	1	622377.7	-60.81909	-5.274567E-011	0.0155609	5
	58	25	1.584686	368708.8	-622455.8	1	723462	-59.35982	-1.356266E-010	0.0155131	5
	59	27	1.266892	443495.8	-708088.4	1	835510.4	-57.93992	-1.748036E-010	0.0154863	5
	60	29	0.999041	532590.8	-810393	1	969737	-56.68706	-2.056346E-010	0.0154852	5
