EXPLAIN
TAG	EISPOT
TITLE	LABEL	Potentiostatic EIS	Test &Identifier
DATE	LABEL	1/14/2020	Date
TIME	LABEL	18:55:02	Time
NOTES	NOTES	5	&Notes...
	
	
	
	
	
PSTAT	PSTAT	REF600-11020	Potentiostat
VDC	POTEN	0.00000E+000	T	DC &Voltage (V)
FREQINIT	QUANT	1.00000E+006	Initial Fre&q. (Hz)
FREQFINAL	QUANT	1.00000E+000	Final Fre&q. (Hz)
PTSPERDEC	QUANT	1.00000E+001	Points/&decade
VAC	QUANT	2.50000E+001	AC &Voltage (mV rms)
AREA	QUANT	1.00000E-001	&Area (cm^2)
CONDIT	TWOPARAM	T	5.00000E+000	0.00000E+000	Conditionin&g	Time(s)	E(V)
DELAY	TWOPARAM	T	5.00000E+000	0.00000E+000	Init. De&lay	Time(s)	Stab.(mV/s)
SPEED	SELECTOR	0	&Optimize for:
ZGUESS	QUANT	5.00000E+002	E&stimated Z (ohms)
OCVCURVE	TABLE	19
	Pt	T	Vf	Vm	Ach	Over
	#	s	V vs. Ref.	V	V	bits
	0	0.258333	7.09032E-003	7.09032E-003	6.29280E-004	...........
	1	0.516667	7.09066E-003	7.10785E-003	6.36980E-004	...........
	2	0.775	7.09316E-003	7.14797E-003	6.32480E-004	...........
	3	1.03333	7.10187E-003	7.19347E-003	6.37780E-004	...........
	4	1.29167	7.12119E-003	7.25060E-003	6.37546E-004	...........
	5	1.55	7.15313E-003	7.31190E-003	6.32313E-004	...........
	6	1.80833	7.19686E-003	7.38026E-003	6.32080E-004	...........
	7	2.06667	7.25027E-003	7.45415E-003	6.37980E-004	...........
	8	2.325	7.31125E-003	7.52616E-003	6.38180E-004	...........
	9	2.58333	7.37791E-003	7.60021E-003	6.38513E-004	...........
	10	2.84167	7.44868E-003	7.69208E-003	6.33613E-004	...........
	11	3.1	7.52622E-003	7.93532E-003	6.33113E-004	...........
	12	3.35833	7.62134E-003	8.05451E-003	6.37580E-004	...........
	13	3.61667	7.74202E-003	8.12777E-003	6.39080E-004	...........
	14	3.875	7.87585E-003	8.14279E-003	6.34646E-004	...........
	15	4.13333	7.99469E-003	8.12464E-003	6.36780E-004	...........
	16	4.39167	8.07770E-003	8.18894E-003	6.34213E-004	...........
	17	4.65	8.12718E-003	8.27811E-003	6.36646E-004	...........
	18	4.90833	8.16461E-003	8.35394E-003	6.28647E-004	...........
EOC	QUANT	0.0081646	Open Circuit (V)
PSTATMODEL	IQUANT	4	Pstat Model
PSTATSECTION	LABEL	REF600-11020	Pstat Section
PSTATSERIALNO	LABEL	11020	Pstat Serial Number
CTRLMODE	IQUANT	1	Control Mode
IESTAB	IQUANT	0	I/E Stability
CASPEED	IQUANT	1	Control Amp Speed
CONVENTION	IQUANT	1	Current Convention
ICHRANGE	IQUANT	2	Ich Range
ICHRANGEMODE	TOGGLE	F	Ich Auto Range
ICHOFFSETENABLE	TOGGLE	T	Ich Offset Enable
ICHOFFSET	QUANT	0	Ich Offset (V)
ICHFILTER	IQUANT	3	Ich Filter
VCHRANGE	IQUANT	2	Vch Range
VCHRANGEMODE	TOGGLE	F	Vch Auto Range
VCHOFFSETENABLE	TOGGLE	T	Vch Offset Enable
VCHOFFSET	QUANT	0	Vch Offset (V)
VCHFILTER	IQUANT	3	Vch Filter
ACHRANGE	IQUANT	2	Ach Range
ACHOFFSETENABLE	TOGGLE	F	Ach Offset Enable
ACHOFFSET	QUANT	0	Ach Offset (V)
ACHFILTER	IQUANT	3	Ach Filter
IERANGELOWERLIMIT	IQUANT	1	I/E Range Lower Limit
IERANGEMODE	TOGGLE	F	I/E AutoRange
IERANGE	IQUANT	7	I/E Range
POSFEEDENABLE	TOGGLE	F	Positive Feedback IR Comp
POSFEEDRESISTANCE	QUANT	0	Positive Feedback Resistance (ohm)
ACHSELECT	IQUANT	0	Ach Select
CABLEID	IQUANT	14	Cable ID
DCCALDATE	LABEL	12/22/2019	DC Calibration Date
ACCALDATE	LABEL	12/22/2019	AC Calibration Date
THERMOSELECT	IQUANT	1	Thermo Select
FRAMEWORKVERSION	QUANT	6.33	Framework Version
INSTRUMENTVERSION	LABEL	3.50	Instrument Version
ZCURVE	TABLE
	Pt	Time	Freq	Zreal	Zimag	Zsig	Zmod	Zphz	Idc	Vdc	IERange
	#	s	Hz	ohm	ohm	V	ohm	°	A	V	#
	0	1	1000078	2213.966	-1566.662	1	2712.209	-35.28425	-1.299164E-006	0.0107248	8
	1	2	794390.6	2505.894	-1536.996	1	2939.704	-31.52297	2.2081E-008	0.010203	8
	2	2	630984.4	2788.53	-1466.059	1	3150.433	-27.73297	7.807898E-008	0.0101815	8
	3	2	501234.4	3031.823	-1374.78	1	3328.96	-24.39192	-7.629594E-007	0.0101139	8
	4	3	398109.4	3246.701	-1261.243	1	3483.073	-21.22962	-1.583977E-006	0.0102352	8
	5	3	316265.6	3425.976	-1156.448	1	3615.893	-18.65227	-2.310403E-006	0.010327	8
	6	3	251203.1	3567.432	-1061.436	1	3721.991	-16.56958	-2.279431E-006	0.010312	8
	7	4	199546.9	3705.218	-964.535	1	3828.703	-14.59129	-1.489202E-006	0.0101648	8
	8	4	158578.1	3814.431	-881.6463	1	3914.995	-13.01448	-1.508584E-006	0.0101601	8
	9	4	125953.1	3934.894	-798.9928	1	4015.194	-11.47804	1.179304E-007	0.0093781	7
	10	5	100078.1	4016.811	-758.1642	1	4087.736	-10.6887	-3.989524E-008	0.0098764	7
	11	5	79453.13	4096.035	-728.1861	1	4160.259	-10.08063	6.40924E-008	0.0097683	7
	12	5	63140.62	4174.6	-711.2372	1	4234.754	-9.66879	1.626042E-009	0.0098417	7
	13	6	50203.12	4251.736	-705.7392	1	4309.91	-9.424511	4.978419E-008	0.0097176	7
	14	6	39890.62	4328.303	-711.2409	1	4386.351	-9.331635	-7.307945E-009	0.0097939	7
	15	6	31640.63	4407.538	-729.105	1	4467.436	-9.392938	-1.06428E-008	0.0098441	7
	16	6	25171.88	4486.674	-758.2614	1	4550.297	-9.59252	-1.058655E-008	0.0098456	7
	17	7	20015.62	4571.495	-797.8715	1	4640.599	-9.90022	-1.912053E-008	0.009873	7
	18	7	15890.62	4658.759	-850.5479	1	4735.765	-10.34652	-3.814655E-008	0.0098877	7
	19	7	12609.37	4751.893	-915.9111	1	4839.357	-10.90978	2.995336E-008	0.0097338	7
	20	8	10078.13	4848.603	-985.954	1	4947.833	-11.49427	6.40455E-008	0.0097654	7
	21	8	8015.625	4950.95	-1087.975	1	5069.083	-12.3938	-2.00675E-008	0.0098697	7
	22	8	6328.125	5061.022	-1209.086	1	5203.444	-13.43621	-2.009563E-008	0.0098706	7
	23	9	5015.625	5175.018	-1351.76	1	5348.651	-14.63907	4.550861E-008	0.0097383	7
	24	9	3984.375	5296.579	-1524.439	1	5511.593	-16.05665	3.263184E-008	0.0097716	7
	25	9	3170.956	5416.441	-1732.988	1	5686.922	-17.74205	7.684701E-009	0.0097983	7
	26	10	2527.573	5547.009	-1988.028	1	5892.5	-19.71749	-3.770899E-008	0.009879	7
	27	10	1976.103	5697.779	-2328.135	1	6155.071	-22.22512	4.532036E-008	0.0097398	7
	28	10	1577.524	5840.333	-2720.253	1	6442.768	-24.9747	1.993674E-009	0.0098277	7
	29	11	1265.625	6018.742	-3177.775	1	6806.138	-27.83315	-3.943526E-008	0.0098654	7
	30	11	998.264	6220.742	-3785.77	1	7282.148	-31.32353	3.39546E-008	0.0097716	7
	31	11	796.875	6441.413	-4499.521	1	7857.321	-34.93546	6.689908E-008	0.0097601	7
	32	12	627.7902	6713.981	-5417.839	1	8627.313	-38.90175	3.433453E-008	0.009769	7
	33	12	505.5147	7004.588	-6439.165	1	9514.57	-42.59164	8.057314E-008	0.0096966	7
	34	12	397.9953	7383.395	-7805.458	1	10744.29	-46.59171	5.176302E-010	0.0098205	6
	35	12	315.5048	7822.291	-9431.585	1	12253.29	-50.32864	9.296567E-010	0.0098154	6
	36	13	252.4038	8325.829	-11330.83	1	14060.84	-53.69177	6.620813E-010	0.0098139	6
	37	13	198.6229	8971.421	-13818.12	1	16475.03	-57.00632	7.185349E-010	0.0098167	6
	38	13	158.3615	9708.42	-16694.03	1	19311.76	-59.81984	6.180756E-010	0.009813	6
	39	14	125.558	10624.62	-20283.93	1	22898.04	-62.35468	7.364236E-010	0.0098161	6
	40	14	100.4464	11705.65	-24496.13	1	27149.26	-64.45888	6.305887E-010	0.0098119	6
	41	14	79.00281	13133.46	-30036.77	1	32782.55	-66.38283	8.521521E-010	0.0098094	6
	42	15	63.3446	14863.11	-36078.35	1	39019.99	-67.60992	6.538472E-010	0.0098046	6
	43	15	49.86702	17152.52	-44281.8	1	47487.76	-68.82616	5.427467E-010	0.0098069	6
	44	16	39.72458	19902.08	-53796.59	1	57359.97	-69.69802	6.259706E-010	0.0098154	6
	45	16	31.6723	23452.85	-65068.67	1	69166.23	-70.1792	5.788077E-010	0.0098129	6
	46	16	24.93351	28374.78	-79549.32	1	84458.41	-70.36898	7.64022E-010	0.0098102	6
	47	16	19.86229	34447.51	-96059.8	1	102049.6	-70.27192	1.922385E-009	0.0098151	6
	48	17	15.83615	42105.77	-115425	1	122865.1	-69.95859	-7.242237E-010	0.0098064	5
	49	17	12.40079	53053.2	-139851.8	1	149576.6	-69.22561	4.476915E-010	0.0098113	5
	50	17	9.93114	66618.18	-166342.5	1	179186.5	-68.17448	-5.120694E-010	0.0098154	5
	51	18	7.944915	83377.78	-196671.4	1	213615.3	-67.02574	-9.102005E-010	0.0098201	5
	52	18	6.317385	104687.1	-231915	1	254448.3	-65.70544	1.215556E-010	0.0097981	5
	53	19	5.008013	131864	-272176.7	1	302437.2	-64.15077	-2.485629E-011	0.0098055	5
	54	20	3.945707	166106.8	-317125.2	1	357994.2	-62.35493	-1.918021E-010	0.0098124	5
	55	21	3.158693	203588	-364157.5	1	417203.6	-60.79193	-3.398161E-010	0.0098012	5
	56	23	2.504006	249366.9	-416654.8	1	485577.1	-59.09958	-9.517411E-011	0.0097981	5
	57	24	1.998082	297314.3	-472566.7	1	558314.5	-57.82404	1.857517E-010	0.0098411	5
	58	26	1.584686	351563.6	-534990.3	1	640165.3	-56.68948	-1.740884E-010	0.0098058	5
	59	28	1.266892	413678.6	-604306.3	1	732336	-55.60636	-1.916515E-010	0.0097667	5
	60	30	0.999041	484282	-685776.7	1	839534.8	-54.77102	-1.375552E-010	0.0097597	5
