EXPLAIN
TAG	EISPOT
TITLE	LABEL	Potentiostatic EIS	Test &Identifier
DATE	LABEL	3/17/2020	Date
TIME	LABEL	15:36:11	Time
NOTES	NOTES	1	&Notes...
	
PSTAT	PSTAT	REF600-11020	Potentiostat
VDC	POTEN	0.00000E+000	T	DC &Voltage (V)
FREQINIT	QUANT	1.00000E+006	Initial Fre&q. (Hz)
FREQFINAL	QUANT	1.00000E+000	Final Fre&q. (Hz)
PTSPERDEC	QUANT	1.00000E+001	Points/&decade
VAC	QUANT	2.50000E+001	AC &Voltage (mV rms)
AREA	QUANT	4.00000E-004	&Area (cm^2)
CONDIT	TWOPARAM	F	5.00000E+000	0.00000E+000	Conditionin&g	Time(s)	E(V)
DELAY	TWOPARAM	T	3.00000E+000	0.00000E+000	Init. De&lay	Time(s)	Stab.(mV/s)
SPEED	SELECTOR	0	&Optimize for:
ZGUESS	QUANT	5.00000E+003	E&stimated Z (ohms)
OCVCURVE	TABLE	12
	Pt	T	Vf	Vm	Ach	Over
	#	s	V vs. Ref.	V	V	bits
	0	0.258333	6.46698E-002	6.46698E-002	5.71697E-004	...........
	1	0.516667	6.46702E-002	6.46886E-002	5.67197E-004	...........
	2	0.775	6.46724E-002	6.47035E-002	5.73897E-004	...........
	3	1.03333	6.46783E-002	6.47214E-002	5.73463E-004	...........
	4	1.29167	6.46888E-002	6.47339E-002	5.75030E-004	...........
	5	1.55	6.47026E-002	6.47470E-002	5.69863E-004	...........
	6	1.80833	6.47175E-002	6.47612E-002	5.68497E-004	...........
	7	2.06667	6.47321E-002	6.47703E-002	5.64563E-004	...........
	8	2.325	6.47457E-002	6.47796E-002	5.66763E-004	...........
	9	2.58333	6.47579E-002	6.47868E-002	5.68097E-004	...........
	10	2.84167	6.47686E-002	6.47932E-002	5.70130E-004	...........
	11	3.1	6.47778E-002	6.48002E-002	5.75963E-004	...........
EOC	QUANT	0.0647778	Open Circuit (V)
PSTATMODEL	IQUANT	4	Pstat Model
PSTATSECTION	LABEL	REF600-11020	Pstat Section
PSTATSERIALNO	LABEL	11020	Pstat Serial Number
CTRLMODE	IQUANT	1	Control Mode
IESTAB	IQUANT	0	I/E Stability
CASPEED	IQUANT	1	Control Amp Speed
CONVENTION	IQUANT	1	Current Convention
ICHRANGE	IQUANT	2	Ich Range
ICHRANGEMODE	TOGGLE	F	Ich Auto Range
ICHOFFSETENABLE	TOGGLE	T	Ich Offset Enable
ICHOFFSET	QUANT	0	Ich Offset (V)
ICHFILTER	IQUANT	3	Ich Filter
VCHRANGE	IQUANT	2	Vch Range
VCHRANGEMODE	TOGGLE	F	Vch Auto Range
VCHOFFSETENABLE	TOGGLE	T	Vch Offset Enable
VCHOFFSET	QUANT	0	Vch Offset (V)
VCHFILTER	IQUANT	3	Vch Filter
ACHRANGE	IQUANT	2	Ach Range
ACHOFFSETENABLE	TOGGLE	F	Ach Offset Enable
ACHOFFSET	QUANT	0	Ach Offset (V)
ACHFILTER	IQUANT	3	Ach Filter
IERANGELOWERLIMIT	IQUANT	1	I/E Range Lower Limit
IERANGEMODE	TOGGLE	F	I/E AutoRange
IERANGE	IQUANT	7	I/E Range
POSFEEDENABLE	TOGGLE	F	Positive Feedback IR Comp
POSFEEDRESISTANCE	QUANT	0	Positive Feedback Resistance (ohm)
ACHSELECT	IQUANT	0	Ach Select
CABLEID	IQUANT	14	Cable ID
DCCALDATE	LABEL	2/27/2020	DC Calibration Date
ACCALDATE	LABEL	2/27/2020	AC Calibration Date
THERMOSELECT	IQUANT	1	Thermo Select
FRAMEWORKVERSION	QUANT	6.33	Framework Version
INSTRUMENTVERSION	LABEL	3.50	Instrument Version
ZCURVE	TABLE
	Pt	Time	Freq	Zreal	Zimag	Zsig	Zmod	Zphz	Idc	Vdc	IERange
	#	s	Hz	ohm	ohm	V	ohm	°	A	V	#
	0	2	1000078	2198.458	-1895.344	1	2902.679	-40.76542	-4.719299E-009	0.0670624	8
	1	2	794390.6	2596.402	-1906.519	1	3221.199	-36.28957	2.270196E-008	0.0667355	8
	2	2	630984.4	2982.8	-1849.619	1	3509.728	-31.80284	3.802955E-008	0.0665993	8
	3	3	501234.4	3333.893	-1733.2	1	3757.502	-27.4687	2.416195E-008	0.0664988	8
	4	3	398109.4	3631.819	-1580.751	1	3960.92	-23.52111	3.943622E-008	0.0664753	8
	5	3	316265.6	3872.662	-1413.339	1	4122.504	-20.0497	4.685993E-008	0.0664364	8
	6	3	251203.1	4067.386	-1246.77	1	4254.182	-17.0418	3.784706E-008	0.0664115	8
	7	4	199546.9	4216.433	-1098.611	1	4357.207	-14.60397	2.521776E-008	0.0664186	8
	8	4	158578.1	4334.852	-967.135	1	4441.429	-12.5771	3.567383E-008	0.0664215	8
	9	4	125953.1	4457.807	-791.6281	1	4527.551	-10.06975	-5.117937E-010	0.0663491	7
	10	5	100078.1	4513.446	-712.5812	1	4569.351	-8.971783	5.354346E-010	0.0663531	7
	11	5	79453.13	4573.884	-662.0661	1	4621.552	-8.236314	9.33897E-010	0.0663376	7
	12	5	63140.62	4630.138	-628.6437	1	4672.619	-7.731892	1.360524E-009	0.0663443	7
	13	6	50203.12	4682.257	-610.4595	1	4721.885	-7.428163	7.385969E-010	0.0663344	7
	14	6	39890.62	4733.147	-608.7136	1	4772.129	-7.328385	1.018303E-009	0.0663406	7
	15	6	31640.63	4784.913	-622.9013	1	4825.288	-7.417069	1.157411E-009	0.0663366	7
	16	7	25171.88	4837.115	-652.766	1	4880.961	-7.685604	1.043353E-009	0.0663324	7
	17	7	20015.62	4892.99	-699.0271	1	4942.67	-8.130429	1.326192E-009	0.066344	7
	18	7	15890.62	4952.31	-762.5155	1	5010.669	-8.753188	4.15131E-010	0.0663367	7
	19	8	12609.37	5017.75	-847.3203	1	5088.788	-9.58481	1.168369E-009	0.0663356	7
	20	8	10078.13	5086.825	-949.5547	1	5174.693	-10.57368	1.344963E-009	0.0663333	7
	21	8	8015.625	5164.839	-1079.236	1	5276.393	-11.80261	1.995089E-009	0.0663301	7
	22	9	6328.125	5254.589	-1244.267	1	5399.899	-13.32204	1.606021E-009	0.0663355	7
	23	9	5015.625	5352.896	-1441.32	1	5543.545	-15.07004	1.796664E-009	0.0663346	7
	24	9	3984.375	5464.171	-1679.332	1	5716.408	-17.08404	2.060779E-009	0.0663335	7
	25	9	3170.956	5587.943	-1963.648	1	5922.923	-19.36189	2.152966E-009	0.0663255	7
	26	10	2527.573	5728.773	-2304.535	1	6174.927	-21.91363	2.686424E-009	0.066329	7
	27	10	1976.103	5905.905	-2753.674	1	6516.32	-24.99765	2.027111E-009	0.0663282	7
	28	10	1577.524	6092.1	-3250.427	1	6904.995	-28.08206	2.726745E-009	0.0663221	7
	29	11	1265.625	6304.041	-3832.428	1	7377.563	-31.29675	1.775518E-009	0.0663192	7
	30	11	998.264	6564.276	-4592.53	1	8011.308	-34.97758	2.317738E-009	0.0663242	7
	31	11	796.875	6854.133	-5463.916	1	8765.473	-38.56083	1.826769E-009	0.0663281	7
	32	12	627.7902	7220.638	-6573.908	1	9764.93	-42.31577	-3.12941E-010	0.0663807	6
	33	12	505.5147	7604.894	-7802.125	1	10895.3	-45.73342	-3.675653E-010	0.0663762	6
	34	12	397.9953	8103.853	-9446.244	1	12446.04	-49.37399	4.974291E-010	0.0663859	6
	35	13	315.5048	8688.187	-11392.76	1	14327.58	-52.67065	5.06336E-010	0.0663856	6
	36	13	252.4038	9365.11	-13659.25	1	16561.42	-55.56454	3.725308E-010	0.0663833	6
	37	13	198.6229	10254.68	-16617.97	1	19527.3	-58.32194	5.061483E-010	0.0663836	6
	38	14	158.3615	11295.62	-20016.45	1	22983.67	-60.56323	3.602429E-010	0.0663791	6
	39	14	125.558	12626.71	-24228.75	1	27321.53	-62.47392	4.727826E-010	0.0663808	6
	40	14	100.4464	14232.01	-29101.27	1	32394.97	-63.939	3.660696E-010	0.0663774	6
	41	15	79.00281	16424.15	-35414.72	1	39037.87	-65.11972	3.501021E-010	0.0663763	6
	42	15	63.3446	18984.49	-42367.26	1	46426.23	-65.86317	2.333652E-010	0.0663768	6
	43	15	49.86702	22511.26	-51331.78	1	56050.94	-66.32042	-1.558801E-011	0.0663751	6
	44	16	39.72458	26764.87	-61441.58	1	67018.1	-66.46134	2.588635E-010	0.0663835	6
	45	16	31.6723	32097.82	-73270.56	1	79992.78	-66.34309	2.135638E-010	0.066381	6
	46	16	24.93351	39228.17	-87943.51	1	96296	-65.96021	-9.487086E-011	0.0663788	6
	47	17	19.86229	47660.72	-104198	1	114580.8	-65.42039	-1.316403E-009	0.0663834	5
	48	17	15.83615	58255.12	-122852.8	1	135965	-64.63033	1.02274E-009	0.0663836	5
	49	17	12.40079	72625.16	-145889.2	1	162966.5	-63.5354	4.17156E-011	0.0663851	5
	50	18	9.93114	88762.96	-169623.8	1	191444.8	-62.37725	5.407311E-010	0.0663763	5
	51	18	7.944915	107868.5	-195752.7	1	223505.5	-61.14327	1.162653E-009	0.0663784	5
	52	18	6.317385	131826.8	-225803.3	1	261467.9	-59.72308	-2.730439E-010	0.0664025	5
	53	19	5.008013	160283	-258980.3	1	304567.6	-58.24662	-1.731541E-010	0.0663811	5
	54	20	3.945707	193096.3	-295688.6	1	353154.3	-56.85388	3.62461E-010	0.0663808	5
	55	21	3.158693	228198.9	-333089.3	1	403761.3	-55.58502	-7.959339E-011	0.0663806	5
	56	22	2.504006	267618.1	-376432	1	461866.3	-54.58971	-1.028534E-010	0.066376	5
	57	23	1.998082	309837	-422620.4	1	524029.6	-53.75362	1.715495E-010	0.0664198	5
	58	25	1.584686	355644.1	-478626	1	596293.2	-53.38573	1.534198E-010	0.0664054	5
	59	27	1.266892	403866.1	-539248.6	1	673718.7	-53.1689	7.786018E-011	0.0663655	5
	60	29	0.999041	461771.3	-615465.6	1	769435.2	-53.11985	3.632749E-011	0.0663345	5
