EXPLAIN
TAG	EISPOT
TITLE	LABEL	Potentiostatic EIS	Test &Identifier
DATE	LABEL	1/10/2020	Date
TIME	LABEL	14:03:22	Time
NOTES	NOTES	5	&Notes...
	
	
	
	
	
PSTAT	PSTAT	REF600-11020	Potentiostat
VDC	POTEN	0.00000E+000	T	DC &Voltage (V)
FREQINIT	QUANT	1.00000E+006	Initial Fre&q. (Hz)
FREQFINAL	QUANT	1.00000E+000	Final Fre&q. (Hz)
PTSPERDEC	QUANT	1.00000E+001	Points/&decade
VAC	QUANT	2.50000E+001	AC &Voltage (mV rms)
AREA	QUANT	1.00000E-001	&Area (cm^2)
CONDIT	TWOPARAM	T	5.00000E+000	0.00000E+000	Conditionin&g	Time(s)	E(V)
DELAY	TWOPARAM	T	5.00000E+000	0.00000E+000	Init. De&lay	Time(s)	Stab.(mV/s)
SPEED	SELECTOR	0	&Optimize for:
ZGUESS	QUANT	5.00000E+002	E&stimated Z (ohms)
OCVCURVE	TABLE	19
	Pt	T	Vf	Vm	Ach	Over
	#	s	V vs. Ref.	V	V	bits
	0	0.258333	9.25708E-003	9.25708E-003	6.16113E-004	...........
	1	0.516667	9.26414E-003	9.62657E-003	6.24313E-004	...........
	2	0.775	9.30716E-003	9.95956E-003	6.25913E-004	...........
	3	1.03333	9.42791E-003	1.02878E-002	6.25013E-004	...........
	4	1.29167	9.64263E-003	1.06061E-002	6.19780E-004	...........
	5	1.55	9.92755E-003	1.09130E-002	6.21680E-004	...........
	6	1.80833	1.02446E-002	1.12161E-002	6.24613E-004	...........
	7	2.06667	1.05663E-002	1.14989E-002	6.26880E-004	...........
	8	2.325	1.08799E-002	1.17839E-002	6.26680E-004	...........
	9	2.58333	1.11817E-002	1.20447E-002	6.28180E-004	...........
	10	2.84167	1.14721E-002	1.23197E-002	6.30213E-004	...........
	11	3.1	1.17526E-002	1.25739E-002	6.22113E-004	...........
	12	3.35833	1.20255E-002	1.28475E-002	6.24847E-004	...........
	13	3.61667	1.22932E-002	1.30926E-002	6.30080E-004	...........
	14	3.875	1.25573E-002	1.33592E-002	6.26747E-004	...........
	15	4.13333	1.28183E-002	1.35984E-002	6.26480E-004	...........
	16	4.39167	1.30756E-002	1.38268E-002	6.30380E-004	...........
	17	4.65	1.33269E-002	1.40402E-002	6.26880E-004	...........
	18	4.90833	1.35686E-002	1.42509E-002	6.25447E-004	...........
EOC	QUANT	0.0135686	Open Circuit (V)
PSTATMODEL	IQUANT	4	Pstat Model
PSTATSECTION	LABEL	REF600-11020	Pstat Section
PSTATSERIALNO	LABEL	11020	Pstat Serial Number
CTRLMODE	IQUANT	1	Control Mode
IESTAB	IQUANT	0	I/E Stability
CASPEED	IQUANT	1	Control Amp Speed
CONVENTION	IQUANT	1	Current Convention
ICHRANGE	IQUANT	2	Ich Range
ICHRANGEMODE	TOGGLE	F	Ich Auto Range
ICHOFFSETENABLE	TOGGLE	T	Ich Offset Enable
ICHOFFSET	QUANT	0	Ich Offset (V)
ICHFILTER	IQUANT	3	Ich Filter
VCHRANGE	IQUANT	2	Vch Range
VCHRANGEMODE	TOGGLE	F	Vch Auto Range
VCHOFFSETENABLE	TOGGLE	T	Vch Offset Enable
VCHOFFSET	QUANT	0	Vch Offset (V)
VCHFILTER	IQUANT	3	Vch Filter
ACHRANGE	IQUANT	2	Ach Range
ACHOFFSETENABLE	TOGGLE	F	Ach Offset Enable
ACHOFFSET	QUANT	0	Ach Offset (V)
ACHFILTER	IQUANT	3	Ach Filter
IERANGELOWERLIMIT	IQUANT	1	I/E Range Lower Limit
IERANGEMODE	TOGGLE	F	I/E AutoRange
IERANGE	IQUANT	7	I/E Range
POSFEEDENABLE	TOGGLE	F	Positive Feedback IR Comp
POSFEEDRESISTANCE	QUANT	0	Positive Feedback Resistance (ohm)
ACHSELECT	IQUANT	0	Ach Select
CABLEID	IQUANT	14	Cable ID
DCCALDATE	LABEL	12/22/2019	DC Calibration Date
ACCALDATE	LABEL	12/22/2019	AC Calibration Date
THERMOSELECT	IQUANT	1	Thermo Select
FRAMEWORKVERSION	QUANT	6.33	Framework Version
INSTRUMENTVERSION	LABEL	3.50	Instrument Version
ZCURVE	TABLE
	Pt	Time	Freq	Zreal	Zimag	Zsig	Zmod	Zphz	Idc	Vdc	IERange
	#	s	Hz	ohm	ohm	V	ohm	°	A	V	#
	0	1	1000078	2137.016	-1945.44	1	2889.909	-42.31328	-5.065693E-006	0.0163196	8
	1	1	794390.6	2514.996	-1991.024	1	3207.707	-38.36727	1.209618E-006	0.0155163	8
	2	2	630984.4	2896.028	-1983.728	1	3510.293	-34.41045	5.158952E-007	0.0151064	8
	3	2	501234.4	3268.584	-1921.727	1	3791.659	-30.45292	-1.491308E-007	0.0151757	8
	4	2	398109.4	3620.404	-1816.282	1	4050.458	-26.64198	8.797306E-007	0.0148736	8
	5	3	316265.6	3920.682	-1681.528	1	4266.062	-23.21384	2.911037E-006	0.0146409	8
	6	3	251203.1	4207.271	-1527.443	1	4475.959	-19.95335	-4.67808E-007	0.0151794	8
	7	3	199546.9	4425.435	-1378.026	1	4635.022	-17.29595	3.913315E-007	0.0149772	8
	8	3	158578.1	4602.299	-1209.875	1	4758.672	-14.72894	6.475844E-007	0.0149688	8
	9	4	125953.1	4772.377	-1031.192	1	4882.514	-12.19275	-2.056264E-007	0.015126	7
	10	4	100078.1	4879.158	-896.203	1	4960.782	-10.40807	-1.491561E-009	0.0150819	7
	11	4	79453.13	4971.419	-786.9384	1	5033.317	-8.994861	1.129457E-008	0.0150078	7
	12	5	63140.62	5045.775	-694.3776	1	5093.33	-7.835578	7.753795E-008	0.0149513	7
	13	5	50203.12	5103.739	-618.6656	1	5141.099	-6.911566	2.169909E-008	0.0150304	7
	14	5	39890.62	5153.618	-560.829	1	5184.044	-6.210624	7.642844E-008	0.0149457	7
	15	6	31640.63	5194.799	-519.7282	1	5220.733	-5.713305	3.086286E-008	0.0149681	7
	16	6	25171.88	5229.819	-494.7014	1	5253.164	-5.40367	2.972676E-008	0.0149657	7
	17	6	20015.62	5263.207	-486.6133	1	5285.654	-5.282302	-1.677956E-008	0.015053	7
	18	7	15890.62	5293.371	-494.0653	1	5316.378	-5.332345	-1.128508E-008	0.0150789	7
	19	7	12609.37	5325.694	-519.5978	1	5350.981	-5.572389	-1.682175E-008	0.015048	7
	20	7	10078.13	5354.536	-560.2062	1	5383.761	-5.972713	-2.244284E-008	0.0150918	7
	21	8	8015.625	5382.094	-622.8727	1	5418.017	-6.601503	-2.711691E-008	0.0150763	7
	22	8	6328.125	5420.868	-706.7468	1	5466.745	-7.428052	-2.90078E-008	0.0150747	7
	23	8	5015.625	5458.025	-818.1918	1	5519.01	-8.52551	-3.243794E-008	0.0150993	7
	24	9	3984.375	5498.292	-959.351	1	5581.359	-9.89742	-1.653891E-008	0.0150419	7
	25	9	3170.956	5543.885	-1137.87	1	5659.453	-11.59875	-3.290051E-008	0.0150984	7
	26	9	2527.573	5596.161	-1358.306	1	5758.647	-13.64306	4.8845E-008	0.0149649	7
	27	10	1976.103	5661.564	-1659.463	1	5899.757	-16.3364	5.017958E-008	0.0150059	7
	28	10	1577.524	5731.402	-1997.563	1	6069.533	-19.21496	7.989342E-009	0.0149931	7
	29	10	1265.625	5814.889	-2416.106	1	6296.864	-22.56305	7.433369E-008	0.0149393	7
	30	10	998.264	5926.878	-2962.995	1	6626.253	-26.56161	-6.040773E-009	0.0150604	7
	31	11	796.875	6059.366	-3604.491	1	7050.409	-30.74684	5.149213E-008	0.0150101	7
	32	11	627.7902	6232.91	-4440.205	1	7652.75	-35.46534	-2.955683E-008	0.0150734	7
	33	11	505.5147	6434.423	-5367.553	1	8379.285	-39.83464	2.706599E-008	0.0149613	7
	34	12	397.9953	6715.485	-6622.285	1	9431.458	-44.59964	5.790135E-009	0.015047	7
	35	12	315.5048	7074.165	-8118.813	1	10768.42	-48.93338	6.324292E-010	0.0150489	6
	36	12	252.4038	7514.83	-9868.24	1	12403.82	-52.71012	-7.414594E-011	0.0150457	6
	37	13	198.6229	8140.953	-12158.25	1	14632.09	-56.19442	1.762769E-010	0.0150475	6
	38	13	158.3615	8908.326	-14787.8	1	17263.76	-58.9348	1.291759E-010	0.0150399	6
	39	13	125.558	9959.06	-18022.57	1	20591.16	-61.07547	-1.155963E-010	0.0150458	6
	40	14	100.4464	11283.47	-21772.21	1	24522.35	-62.60451	6.982241E-010	0.0150451	6
	41	14	79.00281	13124.19	-26517.38	1	29587.42	-63.6679	8.505912E-010	0.0150402	6
	42	14	63.3446	15720.11	-31677.52	1	35363.64	-63.60689	-3.065891E-010	0.0150357	6
	43	15	49.86702	18883.44	-38318.86	1	42719.07	-63.76603	-1.146144E-009	0.0150417	6
	44	15	39.72458	22618.1	-45374.94	1	50699.74	-63.50507	-1.243272E-010	0.0150414	6
	45	15	31.6723	27512.91	-53573.32	1	60225.09	-62.81696	6.446023E-011	0.0150353	6
	46	16	24.93351	34230.52	-63172.75	1	71850.71	-61.54869	-4.434734E-010	0.015039	6
	47	16	19.86229	41994.72	-73181.47	1	84374.66	-60.15091	9.167905E-010	0.0150409	6
	48	16	15.83615	50969.39	-83884.17	1	98155.1	-58.71645	-1.121634E-009	0.0150388	6
	49	17	12.40079	62533.01	-96127.8	1	114677.5	-56.95522	1.700529E-009	0.0150335	5
	50	17	9.93114	74379.02	-108316.7	1	131395.3	-55.52335	-2.064657E-009	0.0150388	5
	51	18	7.944915	87349.73	-121164.3	1	149367.9	-54.21143	-1.415518E-009	0.0150352	5
	52	18	6.317385	101864.5	-135975.9	1	169899.4	-53.1618	-9.755083E-010	0.015045	5
	53	19	5.008013	117430.9	-152604.9	1	192557.2	-52.42138	-9.612621E-010	0.015029	5
	54	20	3.945707	134545.3	-172389.5	1	218679.1	-52.02894	-1.36096E-010	0.015036	5
	55	21	3.158693	151251.8	-193545.6	1	245635.9	-51.99313	-5.388182E-010	0.0150486	5
	56	23	2.504006	170413.9	-220391.5	1	278591.7	-52.28762	-7.540204E-010	0.0150367	5
	57	24	1.998082	189947.8	-250549.3	1	314412.3	-52.83331	-4.001439E-010	0.0150654	5
	58	26	1.584686	213178.3	-289221	1	359296.2	-53.60691	-2.692649E-010	0.0150834	5
	59	28	1.266892	237461.8	-332869	1	408888.5	-54.49673	-3.683974E-010	0.0150465	5
	60	30	0.999041	267190.4	-388060.4	1	471149.2	-55.4515	-3.069149E-010	0.015022	5
