EXPLAIN
TAG	EISPOT
TITLE	LABEL	Potentiostatic EIS	Test &Identifier
DATE	LABEL	6/6/2020	Date
TIME	LABEL	18:42:45	Time
NOTES	NOTES	1	&Notes...
	
PSTAT	PSTAT	REF600-11020	Potentiostat
VDC	POTEN	0.00000E+000	T	DC &Voltage (V)
FREQINIT	QUANT	1.00000E+006	Initial Fre&q. (Hz)
FREQFINAL	QUANT	1.00000E+000	Final Fre&q. (Hz)
PTSPERDEC	QUANT	1.00000E+001	Points/&decade
VAC	QUANT	2.50000E+001	AC &Voltage (mV rms)
AREA	QUANT	4.00000E-004	&Area (cm^2)
CONDIT	TWOPARAM	F	5.00000E+000	0.00000E+000	Conditionin&g	Time(s)	E(V)
DELAY	TWOPARAM	T	3.00000E+000	0.00000E+000	Init. De&lay	Time(s)	Stab.(mV/s)
SPEED	SELECTOR	0	&Optimize for:
ZGUESS	QUANT	1.00000E+003	E&stimated Z (ohms)
OCVCURVE	TABLE	12
	Pt	T	Vf	Vm	Ach	Over
	#	s	V vs. Ref.	V	V	bits
	0	0.258333	-1.77381E-002	-1.77381E-002	5.81930E-004	...........
	1	0.516667	-1.77383E-002	-1.77471E-002	5.85396E-004	...........
	2	0.775	-1.77392E-002	-1.77461E-002	5.84363E-004	...........
	3	1.03333	-1.77411E-002	-1.77467E-002	5.88430E-004	...........
	4	1.29167	-1.77435E-002	-1.77499E-002	5.84163E-004	...........
	5	1.55	-1.77456E-002	-1.77507E-002	5.87396E-004	...........
	6	1.80833	-1.77476E-002	-1.77579E-002	5.83763E-004	...........
	7	2.06667	-1.77499E-002	-1.77627E-002	5.92363E-004	...........
	8	2.325	-1.77531E-002	-1.77681E-002	5.87530E-004	...........
	9	2.58333	-1.77572E-002	-1.77697E-002	5.86163E-004	...........
	10	2.84167	-1.77618E-002	-1.77747E-002	5.87730E-004	...........
	11	3.1	-1.77662E-002	-1.77783E-002	5.81897E-004	...........
EOC	QUANT	-0.0177662	Open Circuit (V)
PSTATMODEL	IQUANT	4	Pstat Model
PSTATSECTION	LABEL	REF600-11020	Pstat Section
PSTATSERIALNO	LABEL	11020	Pstat Serial Number
CTRLMODE	IQUANT	1	Control Mode
IESTAB	IQUANT	0	I/E Stability
CASPEED	IQUANT	1	Control Amp Speed
CONVENTION	IQUANT	1	Current Convention
ICHRANGE	IQUANT	2	Ich Range
ICHRANGEMODE	TOGGLE	F	Ich Auto Range
ICHOFFSETENABLE	TOGGLE	T	Ich Offset Enable
ICHOFFSET	QUANT	0	Ich Offset (V)
ICHFILTER	IQUANT	3	Ich Filter
VCHRANGE	IQUANT	2	Vch Range
VCHRANGEMODE	TOGGLE	F	Vch Auto Range
VCHOFFSETENABLE	TOGGLE	T	Vch Offset Enable
VCHOFFSET	QUANT	0	Vch Offset (V)
VCHFILTER	IQUANT	3	Vch Filter
ACHRANGE	IQUANT	2	Ach Range
ACHOFFSETENABLE	TOGGLE	F	Ach Offset Enable
ACHOFFSET	QUANT	0	Ach Offset (V)
ACHFILTER	IQUANT	3	Ach Filter
IERANGELOWERLIMIT	IQUANT	1	I/E Range Lower Limit
IERANGEMODE	TOGGLE	F	I/E AutoRange
IERANGE	IQUANT	7	I/E Range
POSFEEDENABLE	TOGGLE	F	Positive Feedback IR Comp
POSFEEDRESISTANCE	QUANT	0	Positive Feedback Resistance (ohm)
ACHSELECT	IQUANT	0	Ach Select
CABLEID	IQUANT	14	Cable ID
DCCALDATE	LABEL	2/27/2020	DC Calibration Date
ACCALDATE	LABEL	2/27/2020	AC Calibration Date
THERMOSELECT	IQUANT	1	Thermo Select
FRAMEWORKVERSION	QUANT	6.33	Framework Version
INSTRUMENTVERSION	LABEL	3.50	Instrument Version
ZCURVE	TABLE
	Pt	Time	Freq	Zreal	Zimag	Zsig	Zmod	Zphz	Idc	Vdc	IERange
	#	s	Hz	ohm	ohm	V	ohm	°	A	V	#
	0	1	1000078	2141.892	-1703.29	1	2736.585	-38.49267	4.473186E-008	-0.015469	8
	1	1	794390.6	2449.998	-1732.678	1	3000.777	-35.26857	4.160908E-008	-0.0157435	8
	2	2	630984.4	2750.791	-1737.064	1	3253.343	-32.27151	4.656404E-008	-0.0159078	8
	3	2	501234.4	3037.38	-1718.917	1	3490.037	-29.50643	8.303759E-008	-0.0159854	8
	4	2	398109.4	3313.797	-1695.338	1	3722.287	-27.09428	1.832751E-008	-0.0160492	8
	5	2	316265.6	3575.385	-1658.32	1	3941.243	-24.88261	1.542628E-008	-0.0160451	8
	6	3	251203.1	3834.128	-1626.115	1	4164.708	-22.98258	5.876785E-008	-0.0160754	8
	7	3	199546.9	4075.309	-1580.502	1	4371.056	-21.19748	1.011367E-007	-0.0160715	8
	8	3	158578.1	4315.456	-1537.982	1	4581.326	-19.61552	5.607029E-008	-0.0160647	8
	9	4	125953.1	4577.56	-1431.685	1	4796.225	-17.36768	3.91436E-009	-0.0161465	7
	10	4	100078.1	4777.647	-1381.046	1	4973.249	-16.12268	2.512304E-009	-0.0161512	7
	11	4	79453.13	4980.648	-1337.271	1	5157.048	-15.02908	1.221467E-009	-0.0161564	7
	12	5	63140.62	5170.455	-1289.318	1	5328.785	-14.00186	1.4825E-009	-0.0161626	7
	13	5	50203.12	5348.487	-1243.74	1	5491.193	-13.09093	1.515378E-009	-0.0161697	7
	14	5	39890.62	5513.119	-1201.445	1	5642.513	-12.29395	2.328003E-009	-0.0161592	7
	15	6	31640.63	5670.092	-1166.235	1	5788.786	-11.62262	2.123267E-009	-0.0161663	7
	16	6	25171.88	5815.088	-1141.369	1	5926.042	-11.10469	2.735841E-009	-0.0161643	7
	17	6	20015.62	5951.221	-1127.079	1	6057.008	-10.72402	3.10727E-009	-0.0161649	7
	18	7	15890.62	6081.383	-1124.796	1	6184.528	-10.47885	2.194931E-009	-0.0161767	7
	19	7	12609.37	6210.371	-1139.676	1	6314.077	-10.39875	3.394482E-009	-0.0161751	7
	20	7	10078.13	6330.48	-1168.853	1	6437.484	-10.46122	3.860495E-009	-0.0161697	7
	21	8	8015.625	6450.281	-1217.801	1	6564.234	-10.69149	3.544349E-009	-0.0161726	7
	22	8	6328.125	6573.377	-1292.201	1	6699.185	-11.12145	2.91301E-009	-0.0161801	7
	23	8	5015.625	6694.945	-1392.096	1	6838.145	-11.74627	2.49062E-009	-0.0161828	7
	24	9	3984.375	6819.62	-1524.229	1	6987.882	-12.59891	4.280236E-009	-0.0161726	7
	25	9	3170.956	6944.369	-1691.648	1	7147.442	-13.6906	4.223806E-009	-0.0161707	7
	26	9	2527.573	7076.483	-1904.042	1	7328.164	-15.05969	4.332586E-009	-0.0161687	7
	27	10	1976.103	7223.583	-2189.668	1	7548.165	-16.86351	2.961127E-009	-0.0161784	7
	28	10	1577.524	7371.487	-2520.249	1	7790.409	-18.87513	3.135698E-009	-0.0161775	7
	29	10	1265.625	7528.813	-2920.357	1	8075.364	-21.20081	2.848468E-009	-0.0161811	7
	30	10	998.264	7714.672	-3451.357	1	8451.51	-24.10258	3.373442E-009	-0.0161793	7
	31	11	796.875	7911.529	-4074.036	1	8898.88	-27.24617	3.219466E-009	-0.0161835	7
	32	11	627.7902	8160.056	-4891.12	1	9513.65	-30.93838	-1.26457E-010	-0.0161313	6
	33	11	505.5147	8412.846	-5801.587	1	10219.31	-34.59055	-2.372282E-010	-0.016123	6
	34	12	397.9953	8750.515	-7031.288	1	11225.44	-38.78287	5.764467E-010	-0.0161139	6
	35	12	315.5048	9148.207	-8499.137	1	12486.99	-42.89361	5.499676E-010	-0.0161113	6
	36	12	252.4038	9612.44	-10216.3	1	14027.54	-46.74432	4.65902E-010	-0.0161176	6
	37	13	198.6229	10225.34	-12463.62	1	16121.4	-50.63402	5.551682E-010	-0.0161215	6
	38	13	158.3615	10941	-15052.38	1	18608.59	-53.98802	5.682935E-010	-0.0161219	6
	39	13	125.558	11852.15	-18269.55	1	21777.28	-57.02699	5.995039E-010	-0.0161218	6
	40	14	100.4464	12942.07	-22011.65	1	25534.48	-59.54598	4.147268E-010	-0.0161208	6
	41	14	79.00281	14409.51	-26892.43	1	30509.62	-61.81669	5.94929E-010	-0.0161222	6
	42	14	63.3446	16113.99	-32320.44	1	36114.7	-63.50055	5.45601E-010	-0.0161268	6
	43	15	49.86702	18454.4	-39416.34	1	43522.55	-64.9114	2.368053E-010	-0.0161304	6
	44	15	39.72458	21304.22	-47541.12	1	52096.34	-65.86179	6.626319E-010	-0.0161257	6
	45	15	31.6723	24958.31	-57230.14	1	62435.61	-66.43777	5.323639E-010	-0.0161259	6
	46	16	24.93351	29955.78	-69394.87	1	75584.37	-66.65153	9.266645E-010	-0.0161273	6
	47	16	19.86229	36114.82	-83048.45	1	90561.17	-66.49749	1.912665E-009	-0.0161183	6
	48	16	15.83615	44043.48	-98968.1	1	108325.9	-66.00964	-4.904329E-010	-0.0161257	5
	49	17	12.40079	55195.89	-118688.1	1	130894.8	-65.05923	1.192385E-009	-0.0161266	5
	50	17	9.93114	67709.72	-139050	1	154659.3	-64.03646	1.204819E-009	-0.0161199	5
	51	17	7.944915	83412.48	-162120.3	1	182320.1	-62.77373	-4.520019E-010	-0.016126	5
	52	18	6.317385	102752	-188297.8	1	214508.8	-61.37919	3.126478E-010	-0.0161304	5
	53	19	5.008013	126224.5	-217434.7	1	251416.9	-59.86412	6.53917E-010	-0.0161128	5
	54	19	3.945707	154989.2	-250147.3	1	294270.8	-58.21799	2.788995E-010	-0.0161315	5
	55	20	3.158693	185301	-283430.4	1	338628.5	-56.82415	4.161281E-010	-0.01611	5
	56	21	2.504006	222126.6	-321050.4	1	390401.8	-55.32162	-7.650788E-011	-0.0161193	5
	57	23	1.998082	261010.7	-360868.1	1	445367.7	-54.12233	-3.36732E-011	-0.0161358	5
	58	24	1.584686	307261.9	-404795.6	1	508202	-52.79952	1.808796E-010	-0.0160904	5
	59	26	1.266892	356110.9	-453272	1	576429.1	-51.84523	2.186007E-010	-0.0160936	5
	60	29	0.999041	412087.5	-509684.2	1	655434.3	-51.04393	2.207027E-010	-0.0161199	5
