EXPLAIN
TAG	EISPOT
TITLE	LABEL	Potentiostatic EIS	Test &Identifier
DATE	LABEL	7/30/2020	Date
TIME	LABEL	23:18:31	Time
NOTES	NOTES	1	&Notes...
	
PSTAT	PSTAT	REF600-11020	Potentiostat
VDC	POTEN	0.00000E+000	T	DC &Voltage (V)
FREQINIT	QUANT	1.00000E+006	Initial Fre&q. (Hz)
FREQFINAL	QUANT	1.00000E+000	Final Fre&q. (Hz)
PTSPERDEC	QUANT	1.00000E+001	Points/&decade
VAC	QUANT	2.50000E+001	AC &Voltage (mV rms)
AREA	QUANT	4.00000E-005	&Area (cm^2)
CONDIT	TWOPARAM	F	5.00000E+000	0.00000E+000	Conditionin&g	Time(s)	E(V)
DELAY	TWOPARAM	F	3.00000E+000	0.00000E+000	Init. De&lay	Time(s)	Stab.(mV/s)
SPEED	SELECTOR	0	&Optimize for:
ZGUESS	QUANT	1.00000E+003	E&stimated Z (ohms)
OCVCURVE	TABLE	39
	Pt	T	Vf	Vm	Ach	Over
	#	s	V vs. Ref.	V	V	bits
	0	0.258333	-3.16334E-002	-3.16334E-002	5.30416E-004	...........
	1	0.516667	-3.16302E-002	-3.14680E-002	5.32850E-004	...........
	2	0.775	-3.16106E-002	-3.13025E-002	5.32950E-004	...........
	3	1.03333	-3.15548E-002	-3.11448E-002	5.33817E-004	...........
	4	1.29167	-3.14539E-002	-3.09966E-002	5.32950E-004	...........
	5	1.55	-3.13190E-002	-3.08702E-002	5.35516E-004	...........
	6	1.80833	-3.11705E-002	-3.07464E-002	5.32450E-004	...........
	7	2.06667	-3.10242E-002	-3.06255E-002	5.32517E-004	...........
	8	2.325	-3.08871E-002	-3.05153E-002	5.34183E-004	...........
	9	2.58333	-3.07598E-002	-3.04159E-002	5.39016E-004	...........
	10	2.84167	-3.06412E-002	-3.03210E-002	5.29916E-004	...........
	11	3.1	-3.05309E-002	-3.02345E-002	5.33650E-004	...........
	12	3.35833	-3.04285E-002	-3.01505E-002	5.29450E-004	...........
	13	3.61667	-3.03332E-002	-3.00691E-002	5.32950E-004	...........
	14	3.875	-3.02439E-002	-2.99967E-002	5.31717E-004	...........
	15	4.13333	-3.01595E-002	-2.99220E-002	5.30283E-004	...........
	16	4.39167	-3.00796E-002	-2.98547E-002	5.32283E-004	...........
	17	4.65	-3.00036E-002	-2.97924E-002	5.32450E-004	...........
	18	4.90833	-2.99315E-002	-2.97317E-002	5.36683E-004	...........
	19	5.16667	-2.98634E-002	-2.96698E-002	5.31283E-004	...........
	20	5.425	-2.97988E-002	-2.96161E-002	5.37283E-004	...........
	21	5.68333	-2.97370E-002	-2.95595E-002	5.37683E-004	...........
	22	5.94167	-2.96778E-002	-2.95115E-002	5.36816E-004	...........
	23	6.2	-2.96212E-002	-2.94628E-002	5.35683E-004	...........
	24	6.45833	-2.95674E-002	-2.94118E-002	5.29850E-004	...........
	25	6.71667	-2.95159E-002	-2.93660E-002	5.34517E-004	...........
	26	6.975	-2.94661E-002	-2.93200E-002	5.34117E-004	...........
	27	7.23333	-2.94177E-002	-2.92798E-002	5.27083E-004	...........
	28	7.49167	-2.93708E-002	-2.92320E-002	5.30050E-004	...........
	29	7.75	-2.93254E-002	-2.91909E-002	5.32450E-004	...........
	30	8.00833	-2.92811E-002	-2.91501E-002	5.31950E-004	...........
	31	8.26667	-2.92376E-002	-2.91102E-002	5.34083E-004	...........
	32	8.525	-2.91952E-002	-2.90714E-002	5.29950E-004	...........
	33	8.78333	-2.91541E-002	-2.90326E-002	5.33717E-004	...........
	34	9.04167	-2.91140E-002	-2.89974E-002	5.31583E-004	...........
	35	9.3	-2.90750E-002	-2.89615E-002	5.30516E-004	...........
	36	9.5583	-2.90372E-002	-2.89247E-002	5.28783E-004	...........
	37	9.8167	-2.90003E-002	-2.88929E-002	5.36950E-004	...........
	38	10.075	-2.89644E-002	-2.88580E-002	5.36583E-004	...........
EOC	QUANT	-0.0289644	Open Circuit (V)
PSTATMODEL	IQUANT	4	Pstat Model
PSTATSECTION	LABEL	REF600-11020	Pstat Section
PSTATSERIALNO	LABEL	11020	Pstat Serial Number
CTRLMODE	IQUANT	1	Control Mode
IESTAB	IQUANT	0	I/E Stability
CASPEED	IQUANT	1	Control Amp Speed
CONVENTION	IQUANT	1	Current Convention
ICHRANGE	IQUANT	2	Ich Range
ICHRANGEMODE	TOGGLE	F	Ich Auto Range
ICHOFFSETENABLE	TOGGLE	T	Ich Offset Enable
ICHOFFSET	QUANT	0	Ich Offset (V)
ICHFILTER	IQUANT	3	Ich Filter
VCHRANGE	IQUANT	2	Vch Range
VCHRANGEMODE	TOGGLE	F	Vch Auto Range
VCHOFFSETENABLE	TOGGLE	T	Vch Offset Enable
VCHOFFSET	QUANT	0	Vch Offset (V)
VCHFILTER	IQUANT	3	Vch Filter
ACHRANGE	IQUANT	2	Ach Range
ACHOFFSETENABLE	TOGGLE	F	Ach Offset Enable
ACHOFFSET	QUANT	0	Ach Offset (V)
ACHFILTER	IQUANT	3	Ach Filter
IERANGELOWERLIMIT	IQUANT	1	I/E Range Lower Limit
IERANGEMODE	TOGGLE	F	I/E AutoRange
IERANGE	IQUANT	7	I/E Range
POSFEEDENABLE	TOGGLE	F	Positive Feedback IR Comp
POSFEEDRESISTANCE	QUANT	0	Positive Feedback Resistance (ohm)
ACHSELECT	IQUANT	0	Ach Select
CABLEID	IQUANT	14	Cable ID
DCCALDATE	LABEL	6/26/2020	DC Calibration Date
ACCALDATE	LABEL	6/26/2020	AC Calibration Date
THERMOSELECT	IQUANT	1	Thermo Select
FRAMEWORKVERSION	QUANT	6.33	Framework Version
INSTRUMENTVERSION	LABEL	3.50	Instrument Version
ZCURVE	TABLE
	Pt	Time	Freq	Zreal	Zimag	Zsig	Zmod	Zphz	Idc	Vdc	IERange
	#	s	Hz	ohm	ohm	V	ohm	°	A	V	#
	0	1	1000078	1681.689	-2367.137	1	2903.69	-54.60882	3.528239E-008	-0.026708	8
	1	1	794390.6	2082.071	-2655.471	1	3374.396	-51.90112	5.538788E-008	-0.0270452	8
	2	2	630984.4	2562.723	-2913.26	1	3880.03	-48.6627	1.0264E-007	-0.0271826	8
	3	2	501234.4	3096.944	-3125.315	1	4399.847	-45.26125	1.746294E-008	-0.0272517	8
	4	2	398109.4	3676.747	-3281.34	1	4928.048	-41.74756	6.277341E-008	-0.0272776	8
	5	2	316265.6	4273.614	-3368.785	1	5441.736	-38.24784	5.577638E-008	-0.0273085	8
	6	3	251203.1	4864.191	-3387.337	1	5927.429	-34.85267	-2.116741E-008	-0.0273006	8
	7	3	199546.9	5427.031	-3373.456	1	6390.061	-31.86519	5.984987E-008	-0.027312	8
	8	3	158578.1	5958.794	-3323.94	1	6823.181	-29.15369	3.428669E-008	-0.0273329	8
	9	4	125953.1	6496.001	-3212.448	1	7246.92	-26.31364	2.87519E-009	-0.0273232	7
	10	4	100078.1	6954.398	-3170.557	1	7643.042	-24.50856	8.075594E-010	-0.0273517	7
	11	4	79453.13	7366.917	-3142.954	1	8009.346	-23.10459	5.545726E-010	-0.0273592	7
	12	5	63140.62	7760.544	-3144.291	1	8373.328	-22.05601	1.071369E-009	-0.0273657	7
	13	5	50203.12	8139.479	-3185.169	1	8740.505	-21.37157	1.501426E-009	-0.027371	7
	14	5	39890.62	8516.728	-3265.394	1	9121.264	-20.97729	2.26699E-009	-0.0273663	7
	15	6	31640.63	8904.681	-3390.685	1	9528.38	-20.84561	1.860383E-009	-0.0273775	7
	16	6	25171.88	9296.37	-3560.583	1	9954.91	-20.95723	1.691138E-009	-0.0273724	7
	17	6	20015.62	9711.74	-3784.553	1	10423.09	-21.29029	2.233087E-009	-0.0273726	7
	18	7	15890.62	10160.36	-4065.658	1	10943.61	-21.80877	2.135405E-009	-0.0273755	7
	19	7	12609.37	10689.87	-4327.08	1	11532.43	-22.03728	2.801016E-010	-0.0273843	6
	20	7	10078.13	11188.52	-4720.716	1	12143.64	-22.8761	1.725832E-010	-0.0273866	6
	21	8	8015.625	11746.28	-5188.202	1	12841.05	-23.83051	6.029348E-010	-0.0273816	6
	22	8	6328.125	12386.52	-5745.891	1	13654.34	-24.88577	2.034883E-010	-0.0273898	6
	23	8	5015.625	13080.25	-6373.305	1	14550.32	-25.9775	2.619294E-010	-0.0273925	6
	24	8	3984.375	13837.45	-7081.281	1	15544.12	-27.10098	8.675682E-011	-0.0273866	6
	25	9	3170.956	14679.76	-7879.934	1	16660.99	-28.22642	3.503884E-010	-0.0273904	6
	26	9	2527.573	15596.69	-8776.613	1	17896.53	-29.36744	3.4945E-010	-0.0273895	6
	27	9	1976.103	16715.16	-9887.23	1	19420.45	-30.60485	1.15674E-010	-0.0273976	6
	28	10	1577.524	17846.76	-11040.72	1	20985.81	-31.74261	4.690034E-010	-0.027391	6
	29	10	1265.625	19069.22	-12322.02	1	22703.91	-32.86946	1.5147E-010	-0.0273919	6
	30	10	998.264	20530.43	-13886.58	1	24785.79	-34.07403	1.533147E-010	-0.0273973	6
	31	11	796.875	22081.53	-15591.97	1	27031.53	-35.22627	2.757135E-011	-0.0273933	6
	32	11	627.7902	23905.95	-17674.22	1	29729.99	-36.47637	2.799133E-010	-0.0273894	6
	33	11	505.5147	25773.47	-19846.57	1	32529.35	-37.59766	2.571278E-010	-0.0273921	6
	34	12	397.9953	28047.8	-22588.95	1	36013.05	-38.84705	1.490597E-010	-0.0273656	6
	35	12	315.5048	30572.4	-25653.44	1	39909.53	-40.00017	2.016502E-010	-0.0273685	6
	36	12	252.4038	33310.73	-29018.49	1	44177.8	-41.0606	1.700416E-010	-0.0273717	6
	37	13	198.6229	36612.64	-33139.49	1	49383.31	-42.14944	1.969953E-010	-0.0273739	6
	38	13	158.3615	40101.88	-37588.78	1	54964.33	-43.14727	1.894221E-010	-0.0273749	6
	39	13	125.558	44045.23	-42807.28	1	61420.24	-44.18339	1.920993E-010	-0.0273728	6
	40	14	100.4464	48178.68	-48578.07	1	68417.94	-45.2365	2.065217E-010	-0.0273726	6
	41	14	79.00281	53022.69	-55845.25	1	77007.13	-46.48514	8.658214E-011	-0.0273691	6
	42	14	63.3446	57839.71	-63725.33	1	86060.15	-47.77184	6.971486E-011	-0.0273768	6
	43	15	49.86702	63511	-73890.96	1	97434.7	-49.32017	8.21523E-011	-0.0273764	6
	44	15	39.72458	69375.66	-85433.86	1	110054.2	-50.92204	-1.404138E-010	-0.0273812	5
	45	15	31.6723	75771.29	-99374.2	1	124966.1	-52.67504	-2.737889E-010	-0.0273799	5
	46	16	24.93351	83237.7	-117253.9	1	143795	-54.62934	-1.123197E-010	-0.0273863	5
	47	16	19.86229	91118.06	-138022.6	1	165386.7	-56.5685	-3.027645E-010	-0.0273906	5
	48	16	15.83615	100103.1	-163291.1	1	191532.2	-58.49026	1.816274E-010	-0.027386	5
	49	16	12.40079	111387.1	-196789.1	1	226126.1	-60.48914	1.339684E-010	-0.0273823	5
	50	17	9.93114	123593.4	-234087.1	1	264711.3	-62.16684	2.14399E-010	-0.0273773	5
	51	17	7.944915	138524.1	-279841.4	1	312250.1	-63.66416	-1.366692E-010	-0.0273841	5
	52	17	6.317385	157711.5	-336861.6	1	371952.5	-64.912	1.331389E-011	-0.0273956	5
	53	18	5.008013	182790.1	-407101.2	1	446255.1	-65.81973	4.257343E-011	-0.0273829	5
	54	19	3.945707	215880.4	-493724.3	1	538858.1	-66.38271	-1.038199E-010	-0.0273929	5
	55	20	3.158693	256701	-590083.3	1	643501.1	-66.48975	-3.993553E-011	-0.0274017	5
	56	21	2.504006	311140.8	-709003.7	1	774270.5	-66.30611	1.575071E-011	-0.0273965	5
	57	22	1.998082	380198.6	-841907	1	923774	-65.69644	-5.723305E-011	-0.0274318	5
	58	24	1.584686	472101.3	-1004595	1	1109995	-64.82919	-8.539329E-011	-0.027443	4
	59	26	1.266892	582630.1	-1179436	1	1315495	-63.71107	-7.571839E-011	-0.0274239	4
	60	28	0.999041	732967.6	-1385616	1	1567537	-62.12191	-8.017369E-011	-0.0274007	4
