EXPLAIN
TAG	EISPOT
TITLE	LABEL	Potentiostatic EIS	Test &Identifier
DATE	LABEL	1/28/2020	Date
TIME	LABEL	11:53:10	Time
NOTES	NOTES	6	&Notes...
	
	
	
	
	
	
PSTAT	PSTAT	REF600-11020	Potentiostat
VDC	POTEN	0.00000E+000	T	DC &Voltage (V)
FREQINIT	QUANT	1.00000E+006	Initial Fre&q. (Hz)
FREQFINAL	QUANT	1.00000E+000	Final Fre&q. (Hz)
PTSPERDEC	QUANT	1.00000E+001	Points/&decade
VAC	QUANT	2.50000E+001	AC &Voltage (mV rms)
AREA	QUANT	1.60000E-004	&Area (cm^2)
CONDIT	TWOPARAM	F	5.00000E+000	0.00000E+000	Conditionin&g	Time(s)	E(V)
DELAY	TWOPARAM	F	5.00000E+000	0.00000E+000	Init. De&lay	Time(s)	Stab.(mV/s)
SPEED	SELECTOR	0	&Optimize for:
ZGUESS	QUANT	1.00000E+003	E&stimated Z (ohms)
OCVCURVE	TABLE	39
	Pt	T	Vf	Vm	Ach	Over
	#	s	V vs. Ref.	V	V	bits
	0	0.258333	5.46754E-002	5.46754E-002	5.78571E-004	...........
	1	0.516667	5.46803E-002	5.49357E-002	5.76138E-004	...........
	2	0.775	5.47053E-002	5.48917E-002	5.74771E-004	...........
	3	1.03333	5.47586E-002	5.49057E-002	5.77137E-004	...........
	4	1.29167	5.48184E-002	5.46820E-002	5.70838E-004	...........
	5	1.55	5.48442E-002	5.46254E-002	5.72404E-004	...........
	6	1.80833	5.48126E-002	5.44981E-002	5.74004E-004	...........
	7	2.06667	5.47311E-002	5.43229E-002	5.73737E-004	...........
	8	2.325	5.46202E-002	5.42650E-002	5.72804E-004	...........
	9	2.58333	5.45007E-002	5.43218E-002	5.79171E-004	...........
	10	2.84167	5.43957E-002	5.41562E-002	5.78504E-004	...........
	11	3.1	5.43167E-002	5.41496E-002	5.73471E-004	...........
	12	3.35833	5.42558E-002	5.41371E-002	5.76071E-004	...........
	13	3.61667	5.42024E-002	5.39690E-002	5.71904E-004	...........
	14	3.875	5.41415E-002	5.35873E-002	5.73071E-004	...........
	15	4.13333	5.40554E-002	5.41205E-002	5.72738E-004	...........
	16	4.39167	5.39682E-002	5.41121E-002	5.72238E-004	...........
	17	4.65	5.39340E-002	5.38589E-002	5.74437E-004	...........
	18	4.90833	5.39636E-002	5.45944E-002	5.76437E-004	...........
	19	5.16667	5.40367E-002	5.41968E-002	5.77338E-004	...........
	20	5.425	5.41317E-002	5.40318E-002	5.76038E-004	...........
	21	5.68333	5.41957E-002	5.39971E-002	5.69804E-004	...........
	22	5.94167	5.41836E-002	5.39541E-002	5.71038E-004	...........
	23	6.2	5.41138E-002	5.38906E-002	5.71238E-004	...........
	24	6.45833	5.40317E-002	5.38604E-002	5.73971E-004	...........
	25	6.71667	5.39611E-002	5.38043E-002	5.69604E-004	...........
	26	6.975	5.39038E-002	5.37337E-002	5.71171E-004	...........
	27	7.23333	5.38533E-002	5.37415E-002	5.77338E-004	...........
	28	7.49167	5.38071E-002	5.37214E-002	5.76371E-004	...........
	29	7.75	5.37692E-002	5.37181E-002	5.77704E-004	...........
	30	8.00833	5.37429E-002	5.36993E-002	5.67371E-004	...........
	31	8.26667	5.37248E-002	5.36384E-002	5.73171E-004	...........
	32	8.525	5.37065E-002	5.35949E-002	5.75304E-004	...........
	33	8.78333	5.36785E-002	5.34788E-002	5.72271E-004	...........
	34	9.04167	5.36306E-002	5.32079E-002	5.73838E-004	...........
	35	9.3	5.35507E-002	5.32286E-002	5.73771E-004	...........
	36	9.5583	5.34469E-002	5.34337E-002	5.76171E-004	...........
	37	9.8167	5.33631E-002	5.34552E-002	5.73471E-004	...........
	38	10.075	5.33374E-002	5.33554E-002	5.72638E-004	...........
EOC	QUANT	0.0533374	Open Circuit (V)
PSTATMODEL	IQUANT	4	Pstat Model
PSTATSECTION	LABEL	REF600-11020	Pstat Section
PSTATSERIALNO	LABEL	11020	Pstat Serial Number
CTRLMODE	IQUANT	1	Control Mode
IESTAB	IQUANT	0	I/E Stability
CASPEED	IQUANT	1	Control Amp Speed
CONVENTION	IQUANT	1	Current Convention
ICHRANGE	IQUANT	2	Ich Range
ICHRANGEMODE	TOGGLE	F	Ich Auto Range
ICHOFFSETENABLE	TOGGLE	T	Ich Offset Enable
ICHOFFSET	QUANT	0	Ich Offset (V)
ICHFILTER	IQUANT	3	Ich Filter
VCHRANGE	IQUANT	2	Vch Range
VCHRANGEMODE	TOGGLE	F	Vch Auto Range
VCHOFFSETENABLE	TOGGLE	T	Vch Offset Enable
VCHOFFSET	QUANT	0	Vch Offset (V)
VCHFILTER	IQUANT	3	Vch Filter
ACHRANGE	IQUANT	2	Ach Range
ACHOFFSETENABLE	TOGGLE	F	Ach Offset Enable
ACHOFFSET	QUANT	0	Ach Offset (V)
ACHFILTER	IQUANT	3	Ach Filter
IERANGELOWERLIMIT	IQUANT	1	I/E Range Lower Limit
IERANGEMODE	TOGGLE	F	I/E AutoRange
IERANGE	IQUANT	8	I/E Range
POSFEEDENABLE	TOGGLE	F	Positive Feedback IR Comp
POSFEEDRESISTANCE	QUANT	0	Positive Feedback Resistance (ohm)
ACHSELECT	IQUANT	0	Ach Select
CABLEID	IQUANT	14	Cable ID
DCCALDATE	LABEL	1/27/2020	DC Calibration Date
ACCALDATE	LABEL	1/27/2020	AC Calibration Date
THERMOSELECT	IQUANT	1	Thermo Select
FRAMEWORKVERSION	QUANT	6.33	Framework Version
INSTRUMENTVERSION	LABEL	3.50	Instrument Version
ZCURVE	TABLE
	Pt	Time	Freq	Zreal	Zimag	Zsig	Zmod	Zphz	Idc	Vdc	IERange
	#	s	Hz	ohm	ohm	V	ohm	°	A	V	#
	0	1	1000078	2022.272	-1878.026	1	2759.813	-42.88198	-6.043039E-006	0.0562327	8
	1	2	794390.6	2302.812	-1988.468	1	3042.523	-40.81046	5.1635E-006	0.0544527	8
	2	2	630984.4	2573.85	-2100.926	1	3322.438	-39.22332	1.528895E-006	0.0543731	8
	3	2	501234.4	2846.884	-2232.763	1	3618.007	-38.1065	-1.407491E-006	0.0551347	8
	4	3	398109.4	3130.031	-2406.967	1	3948.492	-37.55997	1.861589E-006	0.0546108	8
	5	3	316265.6	3456.006	-2598.372	1	4323.831	-36.9374	-1.592287E-006	0.0552387	8
	6	3	251203.1	3773.304	-2848.549	1	4727.796	-37.04994	-3.649227E-006	0.0555896	8
	7	4	199546.9	4184.699	-3107.121	1	5212.092	-36.59372	-1.370044E-006	0.0552293	8
	8	4	158578.1	4646.182	-3441.352	1	5781.86	-36.52676	1.597893E-006	0.0545951	8
	9	4	125953.1	5289.07	-3679.099	1	6442.828	-34.82264	6.537246E-007	0.0540088	7
	10	5	100078.1	5928.022	-3951.887	1	7124.525	-33.68922	8.364632E-008	0.0546755	7
	11	5	79453.13	6689.929	-4180.477	1	7888.696	-32.00089	-2.039143E-008	0.0548298	7
	12	5	63140.62	7519.331	-4299.434	1	8661.725	-29.76024	8.355335E-008	0.0546862	7
	13	6	50203.12	8373.242	-4294.309	1	9410.222	-27.15151	6.782808E-008	0.0548162	7
	14	6	39890.62	9196.525	-4146.65	1	10088.15	-24.27029	4.872234E-008	0.0546778	7
	15	6	31640.63	9952.4	-3885.355	1	10683.93	-21.32536	-2.528682E-008	0.0548276	7
	16	6	25171.88	10606.53	-3571.659	1	11191.75	-18.61052	-5.482177E-008	0.0549385	7
	17	7	20015.62	11125.55	-3203.218	1	11577.5	-16.06193	3.434209E-008	0.0547921	7
	18	7	15890.62	11544.8	-2851.934	1	11891.84	-13.87607	-2.065273E-008	0.054813	7
	19	7	12609.37	11941.74	-2424.389	1	12185.35	-11.47611	-6.215199E-009	0.0549662	6
	20	8	10078.13	12166.92	-2180.344	1	12360.74	-10.15971	-1.525224E-009	0.0547607	6
	21	8	8015.625	12338.14	-1994.565	1	12498.32	-9.182901	7.597026E-009	0.0546332	6
	22	8	6328.125	12498.6	-1854.022	1	12635.36	-8.437637	5.253609E-009	0.054817	6
	23	9	5015.625	12616.58	-1790.607	1	12743.02	-8.077747	8.458548E-009	0.0546288	6
	24	9	3984.375	12713.19	-1803.184	1	12840.43	-8.072739	-7.341819E-010	0.0547094	6
	25	9	3170.956	12804.93	-1869.362	1	12940.67	-8.305802	4.976705E-009	0.0548177	6
	26	10	2527.573	12891.23	-2018.682	1	13048.33	-8.899866	1.786006E-008	0.0545001	6
	27	10	1976.103	12993.51	-2261.277	1	13188.81	-9.87238	-1.864002E-009	0.0548204	6
	28	10	1577.524	13104.34	-2583.333	1	13356.55	-11.15204	1.422304E-008	0.054651	6
	29	11	1265.625	13212.47	-2987.257	1	13545.96	-12.74002	2.989589E-009	0.0548616	6
	30	11	998.264	13363.6	-3540.469	1	13824.65	-14.83868	2.087244E-009	0.0547258	6
	31	11	796.875	13529.86	-4201.473	1	14167.2	-17.25131	1.785148E-008	0.0544964	6
	32	12	627.7902	13748.56	-5072.283	1	14654.38	-20.25063	5.943129E-009	0.0546129	6
	33	12	505.5147	13986.83	-6041.669	1	15235.92	-23.36213	-3.937853E-009	0.0548623	6
	34	12	397.9953	14296.94	-7348.127	1	16074.74	-27.20159	6.770927E-010	0.0548151	6
	35	13	315.5048	14674.4	-8901.429	1	17163.14	-31.24082	8.418242E-010	0.0548165	6
	36	13	252.4038	15097.11	-10718.89	1	18515.33	-35.3746	6.831303E-010	0.0548071	6
	37	13	198.6229	15649.27	-13101.32	1	20409.41	-39.93552	6.653624E-010	0.0548103	6
	38	14	158.3615	16263.3	-15865.6	1	22720.3	-44.29082	3.671868E-010	0.0548062	6
	39	14	125.558	17040.11	-19338.79	1	25775.07	-48.61555	8.805994E-010	0.0548064	6
	40	14	100.4464	17945.4	-23381.22	1	29474.04	-52.49329	5.74133E-010	0.05481	6
	41	15	79.00281	19206.28	-28892.53	1	34693.79	-56.38606	1.140874E-009	0.054807	6
	42	15	63.3446	20352.23	-34630.38	1	40168.1	-59.5573	4.994367E-010	0.0548084	6
	43	15	49.86702	22417.58	-42724.52	1	48248.65	-62.31398	1.604092E-010	0.0548117	6
	44	16	39.72458	24952.58	-52433.37	1	58067.98	-64.55063	6.055852E-010	0.0548119	6
	45	16	31.6723	28257.14	-63859.89	1	69832.31	-66.13126	9.701667E-010	0.0548071	6
	46	16	24.93351	32593.87	-78335.31	1	84845.63	-67.40871	3.914798E-010	0.0548088	6
	47	17	19.86229	38099.31	-95122.2	1	102468.5	-68.1724	-1.922505E-010	0.0548068	6
	48	17	15.83615	46210.33	-114023.6	1	123031.6	-67.93877	-1.243591E-009	0.0548056	5
	49	17	12.40079	56496.83	-140010.2	1	150979.3	-68.02497	1.015297E-009	0.0548026	5
	50	18	9.93114	68656.3	-167942.2	1	181433.9	-67.76481	-2.302318E-010	0.0547961	5
	51	18	7.944915	85022.2	-199300.1	1	216677.8	-66.89671	-8.259014E-010	0.0548044	5
	52	19	6.317385	107300.1	-236317.6	1	259536.7	-65.57954	-5.434047E-010	0.0548171	5
	53	20	5.008013	135421.7	-278315.9	1	309513.8	-64.05359	-2.120548E-010	0.0547995	5
	54	21	3.945707	172001.1	-325572.9	1	368214.8	-62.15237	1.505179E-010	0.0547922	5
	55	22	3.158693	211483.9	-373659.8	1	429356.6	-60.49101	2.341224E-010	0.054809	5
	56	24	2.504006	261241.1	-426914.6	1	500502.8	-58.53636	-5.578863E-011	0.0548052	5
	57	25	1.998082	314741	-482256.4	1	575875.9	-56.86983	-4.191299E-011	0.0547856	5
	58	26	1.584686	377562.2	-540804.9	1	659562.8	-55.07924	1.285823E-010	0.0548287	5
	59	28	1.266892	443827.4	-604055.5	1	749577.1	-53.69356	1.897415E-010	0.0548312	5
	60	31	0.999041	516849.8	-678064.1	1	852587	-52.68378	2.215042E-010	0.0548207	5
