EXPLAIN
TAG	EISPOT
TITLE	LABEL	Potentiostatic EIS	Test &Identifier
DATE	LABEL	6/19/2020	Date
TIME	LABEL	15:59:35	Time
NOTES	NOTES	1	&Notes...
	
PSTAT	PSTAT	REF600-10037	Potentiostat
VDC	POTEN	0.00000E+000	T	DC &Voltage (V)
FREQINIT	QUANT	1.00000E+006	Initial Fre&q. (Hz)
FREQFINAL	QUANT	1.00000E+000	Final Fre&q. (Hz)
PTSPERDEC	QUANT	1.00000E+001	Points/&decade
VAC	QUANT	1.00000E+002	AC &Voltage (mV rms)
AREA	QUANT	2.50000E-001	&Area (cm^2)
CONDIT	TWOPARAM	F	5.00000E+000	0.00000E+000	Conditionin&g	Time(s)	E(V)
DELAY	TWOPARAM	F	5.00000E+000	0.00000E+000	Init. De&lay	Time(s)	Stab.(mV/s)
SPEED	SELECTOR	0	&Optimize for:
ZGUESS	QUANT	1.00000E+003	E&stimated Z (ohms)
OCVCURVE	TABLE	39
	Pt	T	Vf	Vm	Ach	Over
	#	s	V vs. Ref.	V	V	bits
	0	0.258333	6.28466E-002	6.28466E-002	5.33287E-004	...........
	1	0.516667	6.28455E-002	6.27892E-002	5.35521E-004	...........
	2	0.775	6.28387E-002	6.27319E-002	5.32854E-004	...........
	3	1.03333	6.28197E-002	6.26947E-002	5.28521E-004	...........
	4	1.29167	6.27863E-002	6.26385E-002	5.39687E-004	...........
	5	1.55	6.27431E-002	6.25986E-002	5.30954E-004	...........
	6	1.80833	6.26957E-002	6.25530E-002	5.28954E-004	...........
	7	2.06667	6.26482E-002	6.25140E-002	5.33454E-004	...........
	8	2.325	6.26025E-002	6.24764E-002	5.26287E-004	...........
	9	2.58333	6.25593E-002	6.24382E-002	5.34054E-004	...........
	10	2.84167	6.25185E-002	6.24034E-002	5.35254E-004	...........
	11	3.1	6.24797E-002	6.23662E-002	5.34354E-004	...........
	12	3.35833	6.24423E-002	6.23318E-002	5.33621E-004	...........
	13	3.61667	6.24058E-002	6.23001E-002	5.40121E-004	...........
	14	3.875	6.23703E-002	6.22671E-002	5.36654E-004	...........
	15	4.13333	6.23359E-002	6.22323E-002	5.41087E-004	...........
	16	4.39167	6.23024E-002	6.22067E-002	5.36487E-004	...........
	17	4.65	6.22697E-002	6.21769E-002	5.32954E-004	...........
	18	4.90833	6.22384E-002	6.21496E-002	5.31021E-004	...........
	19	5.16667	6.22086E-002	6.21255E-002	5.34754E-004	...........
	20	5.425	6.21802E-002	6.20973E-002	5.28854E-004	...........
	21	5.68333	6.21529E-002	6.20723E-002	5.35287E-004	...........
	22	5.94167	6.21264E-002	6.20483E-002	5.31354E-004	...........
	23	6.2	6.21003E-002	6.20174E-002	5.32921E-004	...........
	24	6.45833	6.20743E-002	6.19957E-002	5.34221E-004	...........
	25	6.71667	6.20484E-002	6.19749E-002	5.30521E-004	...........
	26	6.975	6.20231E-002	6.19492E-002	5.28621E-004	...........
	27	7.23333	6.19987E-002	6.19259E-002	5.27354E-004	...........
	28	7.49167	6.19751E-002	6.19084E-002	5.30787E-004	...........
	29	7.75	6.19522E-002	6.18902E-002	5.34221E-004	...........
	30	8.00833	6.19305E-002	6.18699E-002	5.32587E-004	...........
	31	8.26667	6.19101E-002	6.18438E-002	5.35887E-004	...........
	32	8.525	6.18900E-002	6.18277E-002	5.30587E-004	...........
	33	8.78333	6.18696E-002	6.18136E-002	5.31921E-004	...........
	34	9.04167	6.18495E-002	6.17877E-002	5.32121E-004	...........
	35	9.3	6.18300E-002	6.17639E-002	5.38021E-004	...........
	36	9.5583	6.18101E-002	6.17482E-002	5.34187E-004	...........
	37	9.8167	6.17898E-002	6.17362E-002	5.32621E-004	...........
	38	10.075	6.17699E-002	6.17128E-002	5.28754E-004	...........
EOC	QUANT	0.0617699	Open Circuit (V)
PSTATMODEL	IQUANT	4	Pstat Model
PSTATSECTION	LABEL	REF600-10037	Pstat Section
PSTATSERIALNO	LABEL	10037	Pstat Serial Number
CTRLMODE	IQUANT	1	Control Mode
IESTAB	IQUANT	0	I/E Stability
CASPEED	IQUANT	1	Control Amp Speed
CONVENTION	IQUANT	1	Current Convention
ICHRANGE	IQUANT	2	Ich Range
ICHRANGEMODE	TOGGLE	F	Ich Auto Range
ICHOFFSETENABLE	TOGGLE	T	Ich Offset Enable
ICHOFFSET	QUANT	0	Ich Offset (V)
ICHFILTER	IQUANT	3	Ich Filter
VCHRANGE	IQUANT	2	Vch Range
VCHRANGEMODE	TOGGLE	F	Vch Auto Range
VCHOFFSETENABLE	TOGGLE	T	Vch Offset Enable
VCHOFFSET	QUANT	0	Vch Offset (V)
VCHFILTER	IQUANT	3	Vch Filter
ACHRANGE	IQUANT	2	Ach Range
ACHOFFSETENABLE	TOGGLE	F	Ach Offset Enable
ACHOFFSET	QUANT	0	Ach Offset (V)
ACHFILTER	IQUANT	3	Ach Filter
IERANGELOWERLIMIT	IQUANT	1	I/E Range Lower Limit
IERANGEMODE	TOGGLE	F	I/E AutoRange
IERANGE	IQUANT	8	I/E Range
POSFEEDENABLE	TOGGLE	F	Positive Feedback IR Comp
POSFEEDRESISTANCE	QUANT	0	Positive Feedback Resistance (ohm)
ACHSELECT	IQUANT	0	Ach Select
CABLEID	IQUANT	14	Cable ID
DCCALDATE	LABEL	6/8/2020	DC Calibration Date
ACCALDATE	LABEL	6/8/2020	AC Calibration Date
THERMOSELECT	IQUANT	1	Thermo Select
FRAMEWORKVERSION	QUANT	6.33	Framework Version
INSTRUMENTVERSION	LABEL	3.50	Instrument Version
ZCURVE	TABLE
	Pt	Time	Freq	Zreal	Zimag	Zsig	Zmod	Zphz	Idc	Vdc	IERange
	#	s	Hz	ohm	ohm	V	ohm	°	A	V	#
	0	2	1000078	1961.345	-1991.25	1	2794.987	-45.43349	5.634673E-008	0.0706594	8
	1	2	794390.6	2345.64	-2120.699	1	3162.182	-42.11681	1.313344E-007	0.0703518	8
	2	3	630984.4	2760.861	-2194.279	1	3526.643	-38.47699	1.22187E-007	0.0701993	8
	3	3	501234.4	3184.095	-2202.429	1	3871.583	-34.6715	1.000699E-007	0.0701579	8
	4	3	398109.4	3592.616	-2161.846	1	4192.907	-31.0373	5.46389E-008	0.0700973	8
	5	4	316265.6	3970.912	-2073.19	1	4479.538	-27.5688	9.714172E-008	0.0701021	8
	6	4	251203.1	4307.065	-1954.608	1	4729.832	-24.40923	5.214683E-008	0.070112	8
	7	4	199546.9	4600.298	-1834.478	1	4952.58	-21.74082	5.768849E-008	0.0701337	8
	8	5	158578.1	4849.293	-1703.166	1	5139.69	-19.35227	7.648499E-008	0.0701755	8
	9	5	125953.1	5132.329	-1520.222	1	5352.744	-16.49956	2.452218E-008	0.0701919	7
	10	5	100078.1	5317.643	-1411.057	1	5501.673	-14.86117	8.313586E-009	0.0701469	7
	11	5	79453.13	5492.879	-1358.419	1	5658.358	-13.89085	-1.945683E-009	0.070139	7
	12	6	63140.62	5621.453	-1309.247	1	5771.902	-13.11058	2.396258E-008	0.0701078	7
	13	6	50203.12	5759.517	-1290.708	1	5902.369	-12.63129	3.156513E-008	0.070109	7
	14	6	39890.62	5918.407	-1303.684	1	6060.292	-12.42251	-1.151098E-008	0.0700663	7
	15	7	31640.63	6030.944	-1321.569	1	6174.045	-12.35994	5.741409E-009	0.0700944	7
	16	7	25171.88	6168.312	-1372.515	1	6319.167	-12.54455	-5.527427E-009	0.0700743	7
	17	7	20015.62	6308.436	-1444.988	1	6471.812	-12.90141	-1.537719E-008	0.0700926	7
	18	8	15890.62	6457.93	-1545.181	1	6640.214	-13.45611	2.487366E-008	0.0700938	7
	19	8	12609.37	6620.412	-1675.08	1	6829.037	-14.19885	-8.382466E-009	0.0700955	7
	20	8	10078.13	6789.92	-1830.318	1	7032.288	-15.08629	-1.523338E-008	0.0700939	7
	21	9	8015.625	6979.206	-2022.099	1	7266.237	-16.15799	3.022432E-008	0.07008	7
	22	9	6328.125	7215.371	-2257.96	1	7560.42	-17.37686	3.407645E-008	0.0700736	7
	23	9	5015.625	7429.898	-2534.196	1	7850.193	-18.83353	1.422843E-008	0.0700738	7
	24	10	3984.375	7690.222	-2854.677	1	8202.968	-20.36536	4.816207E-009	0.0700679	7
	25	10	3170.956	7978.384	-3218.393	1	8603.062	-21.96861	6.035119E-009	0.0700931	7
	26	10	2527.573	8303.287	-3651.178	1	9070.594	-23.73638	-1.862608E-008	0.0700887	7
	27	11	1976.103	8700.622	-4190.292	1	9657.09	-25.71586	5.00058E-009	0.0700931	7
	28	11	1577.524	9118.368	-4782.33	1	10296.37	-27.67576	-1.340348E-008	0.0700767	7
	29	11	1265.625	9577.97	-5441.189	1	11015.63	-29.60066	1.356892E-008	0.0700705	7
	30	12	998.264	10139.3	-6242.642	1	11906.97	-31.6201	1.370144E-008	0.0700905	7
	31	12	796.875	10744.77	-7127.999	1	12894.12	-33.56	3.158701E-008	0.0700759	7
	32	12	627.7902	11473.01	-8268.925	1	14142.31	-35.78137	3.129405E-008	0.0700808	7
	33	12	505.5147	12220.94	-9445.28	1	15445.54	-37.6996	-1.953718E-008	0.0700793	7
	34	13	397.9953	13151.15	-10930.74	1	17100.7	-39.73207	7.695443E-009	0.0701085	7
	35	13	315.5048	14164.1	-12638.49	1	18982.97	-41.74222	7.575305E-009	0.0701097	7
	36	13	252.4038	15251.84	-14560.9	1	21086.46	-43.67235	7.468648E-009	0.0701019	7
	37	14	198.6229	16556.28	-17002.73	1	23731.9	-45.76219	7.427625E-009	0.0701082	7
	38	14	158.3615	17939.06	-19753.51	1	26683.54	-47.75599	8.685644E-009	0.0701028	7
	39	14	125.558	19522.14	-23116.42	1	30256.95	-49.81844	8.609429E-009	0.0701049	7
	40	15	100.4464	21199.44	-26891.73	1	34242.98	-51.75038	9.256903E-009	0.0700927	7
	41	15	79.00281	23329.72	-32063.93	1	39653.14	-53.96035	8.386483E-009	0.0701082	7
	42	15	63.3446	25575.72	-37705.73	1	45561.38	-55.85103	9.275272E-010	0.0701027	6
	43	16	49.86702	28462.95	-45139.44	1	53363.93	-57.76627	1.839244E-009	0.0700969	6
	44	16	39.72458	31819.79	-53732.14	1	62447.11	-59.36628	1.734542E-009	0.0700995	6
	45	16	31.6723	35973.08	-64046.84	1	73457.88	-60.67846	6.599102E-010	0.070098	6
	46	17	24.93351	41532.95	-77104.84	1	87579.34	-61.69063	1.88575E-009	0.0700985	6
	47	17	19.86229	48468	-92226.49	1	104186.7	-62.27662	-7.352128E-009	0.0615308	6
	48	18	15.83615	57296.23	-109627.1	1	123697	-62.40632	-5.487817E-009	0.0615284	6
	49	18	12.40079	69119.5	-131159.6	1	148257.7	-62.21132	-4.450451E-009	0.0615339	6
	50	18	9.93114	82781.35	-153542.8	1	174436.7	-61.66904	-3.605946E-009	0.06153	6
	51	19	7.944915	99623.8	-178709	1	204601.6	-60.86191	-2.996737E-009	0.0615332	6
	52	19	6.317385	120318.8	-207111.9	1	239524.4	-59.84615	-1.59594E-009	0.0615362	6
	53	20	5.008013	145096.8	-239004	1	279599.7	-58.73851	-9.403822E-010	0.0615369	6
	54	21	3.945707	174438.7	-274999.2	1	325658.4	-57.61205	-6.26726E-010	0.0615335	6
	55	22	3.158693	205289.3	-312116.8	1	373578.2	-56.66579	-3.902646E-010	0.0615309	6
	56	23	2.504006	241602.9	-354966.3	1	429386.8	-55.75938	-7.318567E-010	0.0615347	5
	57	25	1.998082	279354.5	-401567	1	489177.9	-55.17516	-5.541586E-010	0.0615336	5
	58	27	1.584686	322881.4	-457357.1	1	559846.3	-54.77897	-3.375915E-010	0.0615323	5
	59	30	1.266892	369072.7	-519178.9	1	636994	-54.59183	-2.296037E-010	0.0615278	5
	60	33	0.999041	423073.5	-595475.3	1	730466.9	-54.60695	-2.975456E-010	0.0615328	5
