EXPLAIN
TAG	EISPOT
TITLE	LABEL	Potentiostatic EIS	Test &Identifier
DATE	LABEL	7/5/2020	Date
TIME	LABEL	17:25:44	Time
NOTES	NOTES	1	&Notes...
	
PSTAT	PSTAT	REF600-11020	Potentiostat
VDC	POTEN	0.00000E+000	T	DC &Voltage (V)
FREQINIT	QUANT	1.00000E+006	Initial Fre&q. (Hz)
FREQFINAL	QUANT	1.00000E+000	Final Fre&q. (Hz)
PTSPERDEC	QUANT	1.00000E+001	Points/&decade
VAC	QUANT	2.50000E+001	AC &Voltage (mV rms)
AREA	QUANT	4.00000E-004	&Area (cm^2)
CONDIT	TWOPARAM	F	5.00000E+000	0.00000E+000	Conditionin&g	Time(s)	E(V)
DELAY	TWOPARAM	F	3.00000E+000	0.00000E+000	Init. De&lay	Time(s)	Stab.(mV/s)
SPEED	SELECTOR	0	&Optimize for:
ZGUESS	QUANT	1.00000E+003	E&stimated Z (ohms)
OCVCURVE	TABLE	39
	Pt	T	Vf	Vm	Ach	Over
	#	s	V vs. Ref.	V	V	bits
	0	0.258333	7.78993E-002	7.78993E-002	5.03884E-004	...........
	1	0.516667	7.78998E-002	7.79271E-002	4.96950E-004	...........
	2	0.775	7.79029E-002	7.79458E-002	4.98117E-004	...........
	3	1.03333	7.79114E-002	7.79691E-002	5.00250E-004	...........
	4	1.29167	7.79261E-002	7.79964E-002	5.00517E-004	...........
	5	1.55	7.79458E-002	7.80218E-002	4.95284E-004	...........
	6	1.80833	7.79689E-002	7.80502E-002	4.99817E-004	...........
	7	2.06667	7.79944E-002	7.80919E-002	4.97584E-004	...........
	8	2.325	7.80221E-002	7.81076E-002	5.02284E-004	...........
	9	2.58333	7.80510E-002	7.81217E-002	4.94684E-004	...........
	10	2.84167	7.80781E-002	7.81257E-002	4.93317E-004	...........
	11	3.1	7.81000E-002	7.81349E-002	4.98484E-004	...........
	12	3.35833	7.81155E-002	7.81413E-002	4.97450E-004	...........
	13	3.61667	7.81262E-002	7.81504E-002	5.06384E-004	...........
	14	3.875	7.81343E-002	7.81488E-002	5.03950E-004	...........
	15	4.13333	7.81410E-002	7.81590E-002	5.07450E-004	...........
	16	4.39167	7.81467E-002	7.81658E-002	4.95450E-004	...........
	17	4.65	7.81524E-002	7.81777E-002	4.94384E-004	...........
	18	4.90833	7.81590E-002	7.81809E-002	4.97217E-004	...........
	19	5.16667	7.81664E-002	7.81881E-002	4.99084E-004	...........
	20	5.425	7.81739E-002	7.81939E-002	4.98850E-004	...........
	21	5.68333	7.81810E-002	7.82045E-002	4.93850E-004	...........
	22	5.94167	7.81878E-002	7.82066E-002	4.99817E-004	...........
	23	6.2	7.81946E-002	7.82151E-002	4.99784E-004	...........
	24	6.45833	7.82012E-002	7.82188E-002	4.99250E-004	...........
	25	6.71667	7.82075E-002	7.82271E-002	4.96384E-004	...........
	26	6.975	7.82136E-002	7.82324E-002	5.00184E-004	...........
	27	7.23333	7.82197E-002	7.82371E-002	4.98517E-004	...........
	28	7.49167	7.82255E-002	7.82332E-002	5.01784E-004	...........
	29	7.75	7.82304E-002	7.82425E-002	4.99050E-004	...........
	30	8.00833	7.82348E-002	7.82772E-002	4.97850E-004	...........
	31	8.26667	7.82413E-002	7.82819E-002	5.00650E-004	...........
	32	8.525	7.82521E-002	7.82938E-002	4.97117E-004	...........
	33	8.78333	7.82657E-002	7.82933E-002	4.99817E-004	...........
	34	9.04167	7.82784E-002	7.83007E-002	4.98950E-004	...........
	35	9.3	7.82874E-002	7.82736E-002	4.94484E-004	...........
	36	9.5583	7.82911E-002	7.82786E-002	4.94984E-004	...........
	37	9.8167	7.82894E-002	7.82779E-002	4.93550E-004	...........
	38	10.075	7.82850E-002	7.82854E-002	4.97017E-004	...........
EOC	QUANT	0.078285	Open Circuit (V)
PSTATMODEL	IQUANT	4	Pstat Model
PSTATSECTION	LABEL	REF600-11020	Pstat Section
PSTATSERIALNO	LABEL	11020	Pstat Serial Number
CTRLMODE	IQUANT	1	Control Mode
IESTAB	IQUANT	0	I/E Stability
CASPEED	IQUANT	1	Control Amp Speed
CONVENTION	IQUANT	1	Current Convention
ICHRANGE	IQUANT	2	Ich Range
ICHRANGEMODE	TOGGLE	F	Ich Auto Range
ICHOFFSETENABLE	TOGGLE	T	Ich Offset Enable
ICHOFFSET	QUANT	0	Ich Offset (V)
ICHFILTER	IQUANT	3	Ich Filter
VCHRANGE	IQUANT	2	Vch Range
VCHRANGEMODE	TOGGLE	F	Vch Auto Range
VCHOFFSETENABLE	TOGGLE	T	Vch Offset Enable
VCHOFFSET	QUANT	0	Vch Offset (V)
VCHFILTER	IQUANT	3	Vch Filter
ACHRANGE	IQUANT	2	Ach Range
ACHOFFSETENABLE	TOGGLE	F	Ach Offset Enable
ACHOFFSET	QUANT	0	Ach Offset (V)
ACHFILTER	IQUANT	3	Ach Filter
IERANGELOWERLIMIT	IQUANT	1	I/E Range Lower Limit
IERANGEMODE	TOGGLE	F	I/E AutoRange
IERANGE	IQUANT	8	I/E Range
POSFEEDENABLE	TOGGLE	F	Positive Feedback IR Comp
POSFEEDRESISTANCE	QUANT	0	Positive Feedback Resistance (ohm)
ACHSELECT	IQUANT	0	Ach Select
CABLEID	IQUANT	14	Cable ID
DCCALDATE	LABEL	6/26/2020	DC Calibration Date
ACCALDATE	LABEL	6/26/2020	AC Calibration Date
THERMOSELECT	IQUANT	1	Thermo Select
FRAMEWORKVERSION	QUANT	6.33	Framework Version
INSTRUMENTVERSION	LABEL	3.50	Instrument Version
ZCURVE	TABLE
	Pt	Time	Freq	Zreal	Zimag	Zsig	Zmod	Zphz	Idc	Vdc	IERange
	#	s	Hz	ohm	ohm	V	ohm	°	A	V	#
	0	1	1000078	1411.412	-1985.12	1	2435.731	-54.58732	-1.858344E-006	0.0813771	8
	1	1	794390.6	1700.012	-2224.458	1	2799.688	-52.61161	-5.378219E-008	0.0809472	8
	2	2	630984.4	2035.652	-2462.981	1	3195.333	-50.42629	-2.348408E-006	0.0807139	8
	3	2	501234.4	2419.038	-2713.096	1	3634.919	-48.27932	1.036599E-006	0.0805512	8
	4	2	398109.4	2849.603	-2969.038	1	4115.267	-46.1759	7.900638E-006	0.079153	8
	5	2	316265.6	3286.272	-3206.277	1	4591.274	-44.29409	6.798065E-006	0.0792141	8
	6	3	251203.1	3839.128	-3436.931	1	5152.805	-41.8361	-2.088037E-006	0.0803951	8
	7	3	199546.9	4371.927	-3667.22	1	5706.334	-39.9903	1.559082E-007	0.0796072	8
	8	3	158578.1	5015.958	-3846.409	1	6320.973	-37.48223	-3.723866E-006	0.0804485	8
	9	4	125953.1	5658.377	-4088.857	1	6981.116	-35.85263	7.133748E-007	0.0827452	7
	10	4	100078.1	6367.956	-4170.63	1	7612.163	-33.2224	-3.859783E-007	0.0816281	7
	11	4	79453.13	7104.925	-4195.54	1	8251.213	-30.56234	-1.376991E-006	0.0819137	7
	12	5	63140.62	7897.998	-4258.419	1	8972.876	-28.33253	4.558756E-007	0.0806201	7
	13	5	50203.12	8601.564	-4139.543	1	9545.82	-25.69941	-7.962846E-007	0.0818943	7
	14	5	39890.62	9362.658	-3970.054	1	10169.6	-22.97843	6.172211E-007	0.0778188	7
	15	6	31640.63	10032.92	-3747.825	1	10710.07	-20.48332	6.202772E-007	0.0778236	7
	16	6	25171.88	10564.37	-3439.325	1	11110.13	-18.03312	-1.278453E-006	0.0804819	7
	17	6	20015.62	11216.24	-3246.62	1	11676.67	-16.14346	1.479931E-006	0.0779336	7
	18	7	15890.62	11530.02	-2905.941	1	11890.58	-14.1458	1.718884E-007	0.078019	7
	19	7	12609.37	11940.04	-2659.625	1	12232.67	-12.55753	1.916232E-007	0.0761084	6
	20	7	10078.13	12157.06	-2430.773	1	12397.69	-11.30704	-9.426115E-008	0.078463	6
	21	8	8015.625	12519.83	-2269.949	1	12723.95	-10.27656	4.436178E-008	0.0818714	6
	22	8	6328.125	12611.78	-2133.265	1	12790.93	-9.60062	-2.815969E-007	0.0834629	6
	23	8	5015.625	12870.78	-2092.427	1	13039.75	-9.2339	4.453852E-008	0.0818755	6
	24	9	3984.375	12972.26	-2105.235	1	13141.98	-9.218019	-1.196991E-007	0.0835373	6
	25	9	3170.956	13117.12	-2196.451	1	13299.75	-9.50594	-3.851548E-008	0.0828301	6
	26	9	2527.573	13222.22	-2348.805	1	13429.22	-10.07299	2.425778E-007	0.0769643	6
	27	10	1976.103	13342.38	-2626.561	1	13598.46	-11.13675	2.281409E-007	0.0763787	6
	28	10	1577.524	13535.04	-2987.375	1	13860.8	-12.44644	1.843007E-007	0.0795509	6
	29	10	1265.625	13599.73	-3414.128	1	14021.73	-14.09251	1.908146E-007	0.0760959	6
	30	10	998.264	13857.54	-4045.041	1	14435.85	-16.27262	2.262845E-007	0.0784622	6
	31	11	796.875	14058.39	-4778.043	1	14848.17	-18.77142	1.842416E-007	0.0795427	6
	32	11	627.7902	14266.03	-5726.59	1	15372.49	-21.87124	2.420546E-007	0.0769648	6
	33	11	505.5147	14570.09	-6821.657	1	16087.96	-25.08881	1.84293E-007	0.0795464	6
	34	12	397.9953	14856.52	-8260.88	1	16998.78	-29.07599	7.853836E-010	0.0799019	6
	35	12	315.5048	15282.33	-10008.25	1	18267.86	-33.22039	-1.887398E-010	0.0799085	6
	36	12	252.4038	15782.16	-12055.42	1	19859.75	-37.3749	4.792363E-010	0.0798877	6
	37	13	198.6229	16450.69	-14748.11	1	22093.71	-41.87634	3.376206E-010	0.0798933	6
	38	13	158.3615	17256.29	-17857.58	1	24832.9	-45.98102	6.171563E-010	0.0798873	6
	39	13	125.558	18314.03	-21753.48	1	28436.21	-49.90633	7.182351E-010	0.0798926	6
	40	14	100.4464	19623.38	-26305.12	1	32818.23	-53.27741	6.622715E-010	0.0798843	6
	41	14	79.00281	21431.15	-32221.46	1	38697.77	-56.37131	6.531121E-010	0.0798817	6
	42	14	63.3446	23791.85	-38756.8	1	45476.82	-58.45526	-3.413944E-010	0.0798919	6
	43	15	49.86702	26955.42	-47474.06	1	54592.87	-60.41241	5.874654E-010	0.07988	6
	44	15	39.72458	30869.7	-57246.92	1	65039.59	-61.66478	2.807833E-010	0.0798866	6
	45	15	31.6723	36216.32	-68667.19	1	77632.5	-62.19202	1.508898E-010	0.0798836	6
	46	16	24.93351	43590.65	-82761.8	1	93539.62	-62.22422	8.48687E-010	0.0798859	6
	47	16	19.86229	52754.21	-98059.7	1	111349.5	-61.72061	2.353037E-009	0.079888	5
	48	16	15.83615	64582.03	-114882.2	1	131790.6	-60.6571	-9.049734E-010	0.0798725	5
	49	17	12.40079	81576.84	-134930	1	157673.3	-58.84341	2.988727E-010	0.0798829	5
	50	17	9.93114	99286.6	-154292.8	1	183477.8	-57.23893	-4.30153E-010	0.0798871	5
	51	17	7.944915	119144.9	-174678.9	1	211443.2	-55.7029	-2.04583E-009	0.07988	5
	52	18	6.317385	144455.9	-194256.6	1	242080.8	-53.36424	5.606582E-010	0.0798667	5
	53	18	5.008013	171694.8	-215242.5	1	275333.3	-51.4213	2.275116E-010	0.0798752	5
	54	19	3.945707	200108.8	-237338.1	1	310439.9	-49.86448	-3.006241E-010	0.0798656	5
	55	20	3.158693	227989.7	-259610	1	345509.2	-48.71037	1.179603E-010	0.0798658	5
	56	22	2.504006	256396.5	-286493.6	1	384470.7	-48.17315	2.57382E-010	0.0798676	5
	57	23	1.998082	283913	-316700.8	1	425330.4	-48.12471	-9.246949E-011	0.0798277	5
	58	25	1.584686	312138.8	-356839.9	1	474094.2	-48.82282	-8.922033E-011	0.0798254	5
	59	27	1.266892	339622.8	-403595.1	1	527477.7	-49.91959	1.1553E-012	0.0798637	5
	60	29	0.999041	371998.3	-465598.7	1	595957.2	-51.37628	5.027544E-011	0.0798882	5
