EXPLAIN
TAG	EISPOT
TITLE	LABEL	Potentiostatic EIS	Test &Identifier
DATE	LABEL	3/9/2020	Date
TIME	LABEL	21:00:41	Time
NOTES	NOTES	1	&Notes...
	
PSTAT	PSTAT	REF600-11020	Potentiostat
VDC	POTEN	0.00000E+000	T	DC &Voltage (V)
FREQINIT	QUANT	1.00000E+006	Initial Fre&q. (Hz)
FREQFINAL	QUANT	1.00000E+000	Final Fre&q. (Hz)
PTSPERDEC	QUANT	1.00000E+001	Points/&decade
VAC	QUANT	2.50000E+001	AC &Voltage (mV rms)
AREA	QUANT	4.00000E-005	&Area (cm^2)
CONDIT	TWOPARAM	F	5.00000E+000	0.00000E+000	Conditionin&g	Time(s)	E(V)
DELAY	TWOPARAM	T	3.00000E+000	0.00000E+000	Init. De&lay	Time(s)	Stab.(mV/s)
SPEED	SELECTOR	0	&Optimize for:
ZGUESS	QUANT	1.00000E+003	E&stimated Z (ohms)
OCVCURVE	TABLE	12
	Pt	T	Vf	Vm	Ach	Over
	#	s	V vs. Ref.	V	V	bits
	0	0.258333	4.53192E-002	4.53192E-002	5.84463E-004	...........
	1	0.516667	4.53187E-002	4.52922E-002	5.84830E-004	...........
	2	0.775	4.53155E-002	4.52669E-002	5.80030E-004	...........
	3	1.03333	4.53066E-002	4.52444E-002	5.79063E-004	...........
	4	1.29167	4.52909E-002	4.52236E-002	5.78630E-004	...........
	5	1.55	4.52704E-002	4.51996E-002	5.75930E-004	...........
	6	1.80833	4.52478E-002	4.51758E-002	5.78497E-004	...........
	7	2.06667	4.52246E-002	4.51547E-002	5.78330E-004	...........
	8	2.325	4.52016E-002	4.51359E-002	5.78863E-004	...........
	9	2.58333	4.51792E-002	4.51153E-002	5.85130E-004	...........
	10	2.84167	4.51577E-002	4.50975E-002	5.79697E-004	...........
	11	3.1	4.51373E-002	4.50787E-002	5.81097E-004	...........
EOC	QUANT	0.0451373	Open Circuit (V)
PSTATMODEL	IQUANT	4	Pstat Model
PSTATSECTION	LABEL	REF600-11020	Pstat Section
PSTATSERIALNO	LABEL	11020	Pstat Serial Number
CTRLMODE	IQUANT	1	Control Mode
IESTAB	IQUANT	0	I/E Stability
CASPEED	IQUANT	1	Control Amp Speed
CONVENTION	IQUANT	1	Current Convention
ICHRANGE	IQUANT	2	Ich Range
ICHRANGEMODE	TOGGLE	F	Ich Auto Range
ICHOFFSETENABLE	TOGGLE	T	Ich Offset Enable
ICHOFFSET	QUANT	0	Ich Offset (V)
ICHFILTER	IQUANT	3	Ich Filter
VCHRANGE	IQUANT	2	Vch Range
VCHRANGEMODE	TOGGLE	F	Vch Auto Range
VCHOFFSETENABLE	TOGGLE	T	Vch Offset Enable
VCHOFFSET	QUANT	0	Vch Offset (V)
VCHFILTER	IQUANT	3	Vch Filter
ACHRANGE	IQUANT	2	Ach Range
ACHOFFSETENABLE	TOGGLE	F	Ach Offset Enable
ACHOFFSET	QUANT	0	Ach Offset (V)
ACHFILTER	IQUANT	3	Ach Filter
IERANGELOWERLIMIT	IQUANT	1	I/E Range Lower Limit
IERANGEMODE	TOGGLE	F	I/E AutoRange
IERANGE	IQUANT	7	I/E Range
POSFEEDENABLE	TOGGLE	F	Positive Feedback IR Comp
POSFEEDRESISTANCE	QUANT	0	Positive Feedback Resistance (ohm)
ACHSELECT	IQUANT	0	Ach Select
CABLEID	IQUANT	14	Cable ID
DCCALDATE	LABEL	2/27/2020	DC Calibration Date
ACCALDATE	LABEL	2/27/2020	AC Calibration Date
THERMOSELECT	IQUANT	1	Thermo Select
FRAMEWORKVERSION	QUANT	6.33	Framework Version
INSTRUMENTVERSION	LABEL	3.50	Instrument Version
ZCURVE	TABLE
	Pt	Time	Freq	Zreal	Zimag	Zsig	Zmod	Zphz	Idc	Vdc	IERange
	#	s	Hz	ohm	ohm	V	ohm	°	A	V	#
	0	1	1000078	1956.494	-1920.342	1	2741.457	-44.46572	1.219616E-007	0.0475419	8
	1	1	794390.6	2356.274	-2001.145	1	3091.377	-40.3407	1.274971E-008	0.0472536	8
	2	2	630984.4	2769.887	-2013.568	1	3424.431	-36.01525	-1.93368E-010	0.0471067	8
	3	2	501234.4	3187.324	-1952.55	1	3737.845	-31.49157	3.797668E-008	0.046996	8
	4	2	398109.4	3543.014	-1846.553	1	3995.336	-27.52769	4.033252E-008	0.0469131	8
	5	3	316265.6	3860.852	-1692.737	1	4215.629	-23.67438	-4.489062E-009	0.0469184	8
	6	3	251203.1	4129.919	-1527.679	1	4403.412	-20.2997	-8.432006E-010	0.0468909	8
	7	3	199546.9	4337.62	-1351.83	1	4543.39	-17.30978	3.522775E-008	0.0468964	8
	8	3	158578.1	4511.934	-1193.022	1	4666.996	-14.81089	1.089366E-009	0.0468808	8
	9	4	125953.1	4680.435	-967.658	1	4779.418	-11.68106	-1.933058E-009	0.0468191	7
	10	4	100078.1	4762.531	-857.5271	1	4839.117	-10.20714	1.291527E-010	0.0468231	7
	11	4	79453.13	4842.347	-776.3833	1	4904.192	-9.108825	1.101149E-009	0.0468189	7
	12	5	63140.62	4909.877	-713.2512	1	4961.414	-8.265461	-1.05236E-010	0.0468067	7
	13	5	50203.12	4968.546	-668.6405	1	5013.335	-7.664513	-4.896957E-010	0.0468049	7
	14	5	39890.62	5022.359	-642.7414	1	5063.32	-7.292842	1.324638E-009	0.0468162	7
	15	6	31640.63	5072.404	-634.7529	1	5111.965	-7.132828	1.074611E-009	0.0468027	7
	16	6	25171.88	5120.436	-644.736	1	5160.867	-7.176589	4.667374E-010	0.0468035	7
	17	6	20015.62	5169.491	-673.5198	1	5213.182	-7.423108	1.171519E-009	0.0467978	7
	18	7	15890.62	5219.913	-721.4033	1	5269.527	-7.868557	3.776709E-010	0.0467971	7
	19	7	12609.37	5273.707	-791.0181	1	5332.7	-8.530363	8.558774E-010	0.0468022	7
	20	7	10078.13	5329.496	-881.3622	1	5401.881	-9.390267	2.340472E-009	0.046812	7
	21	8	8015.625	5391.323	-999.509	1	5483.191	-10.50294	1.587253E-009	0.0468083	7
	22	8	6328.125	5463.164	-1154.014	1	5583.718	-11.92756	9.059273E-010	0.0468041	7
	23	8	5015.625	5541.9	-1344.669	1	5702.701	-13.6385	2.006055E-009	0.0468072	7
	24	9	3984.375	5629.512	-1576.91	1	5846.2	-15.64835	1.94981E-009	0.0467956	7
	25	9	3170.956	5729.052	-1859.052	1	6023.132	-17.97802	8.54333E-010	0.0467931	7
	26	9	2527.573	5841.987	-2202.649	1	6243.435	-20.65833	1.339528E-009	0.046794	7
	27	10	1976.103	5986.081	-2658.638	1	6549.925	-23.94777	1.362014E-009	0.046793	7
	28	10	1577.524	6140.092	-3170.519	1	6910.349	-27.31017	1.725355E-009	0.046793	7
	29	10	1265.625	6318.201	-3777.639	1	7361.401	-30.87511	1.318588E-009	0.0467899	7
	30	11	998.264	6543.607	-4570.974	1	7982.017	-34.93585	2.206959E-009	0.0467918	7
	31	11	796.875	6800.238	-5489.226	1	8739.27	-38.91085	2.55687E-009	0.0467972	7
	32	11	627.7902	7127.911	-6664.205	1	9758.01	-43.07438	-2.21265E-010	0.0468484	6
	33	11	505.5147	7477.947	-7963.284	1	10923.99	-46.80029	-5.330585E-010	0.0468451	6
	34	12	397.9953	7941.714	-9705.3	1	12540.48	-50.70701	5.745242E-010	0.0468531	6
	35	12	315.5048	8484.209	-11771.7	1	14510.51	-54.21861	5.152372E-010	0.0468536	6
	36	12	252.4038	9111.225	-14181.43	1	16856.08	-57.28024	4.56919E-010	0.046851	6
	37	13	198.6229	9929.75	-17334.98	1	19977.53	-60.19525	5.338889E-010	0.0468534	6
	38	13	158.3615	10880.33	-20974.77	1	23628.85	-62.58269	3.854713E-010	0.0468524	6
	39	13	125.558	12084.21	-25512.61	1	28229.79	-64.65513	3.804105E-010	0.0468543	6
	40	14	100.4464	13520.57	-30799.86	1	33636.84	-66.29942	2.91951E-010	0.0468515	6
	41	14	79.00281	15468.15	-37719.14	1	40767.59	-67.70208	3.839615E-010	0.0468487	6
	42	14	63.3446	17729.97	-45420.62	1	48758.43	-68.67678	2.908701E-010	0.0468514	6
	43	15	49.86702	20830.46	-55501.53	1	59281.76	-69.42822	1.215404E-010	0.0468491	6
	44	15	39.72458	24581.21	-67046.53	1	71410.59	-69.86559	4.594901E-010	0.0468547	6
	45	15	31.6723	29305.67	-80832.38	1	85980.78	-70.07195	4.834644E-010	0.0468557	6
	46	16	24.93351	35700.04	-98339.7	1	104619.2	-70.0477	2.14356E-010	0.0468535	6
	47	16	19.86229	43498.53	-118142.5	1	125895.9	-69.78696	7.504689E-010	0.0468642	5
	48	16	15.83615	53508.34	-141778.1	1	151539.3	-69.32304	-6.169287E-010	0.0468554	5
	49	17	12.40079	67559.99	-171759	1	184568.5	-68.52822	-3.120482E-010	0.0468642	5
	50	17	9.93114	84189.08	-203627.9	1	220345.5	-67.53757	-5.94116E-010	0.0468653	5
	51	17	7.944915	104997.1	-240247.8	1	262189.7	-66.39291	-5.923189E-010	0.0468657	5
	52	18	6.317385	132655.2	-282585.3	1	312172.8	-64.85303	2.543197E-010	0.0468501	5
	53	19	5.008013	167867	-330694.8	1	370861.7	-63.08679	9.416511E-011	0.0468601	5
	54	19	3.945707	211695.2	-384885.8	1	439263	-61.18829	-2.133061E-010	0.0468586	5
	55	20	3.158693	261274.5	-437847	1	509876.8	-59.1744	1.072495E-010	0.0468469	5
	56	21	2.504006	320444.8	-497132.7	1	591460.8	-57.19474	2.58168E-010	0.0468545	5
	57	23	1.998082	385114	-555865.9	1	676239.4	-55.28508	3.897057E-011	0.046817	5
	58	24	1.584686	457993.4	-622649.1	1	772948.8	-53.66343	-2.192642E-011	0.0468106	5
	59	26	1.266892	531987.2	-689811.8	1	871120.4	-52.36037	1.612449E-011	0.0468431	5
	60	29	0.999041	617653	-768795.2	1	986175	-51.22147	1.999232E-011	0.0468734	4
