EXPLAIN
TAG	EISPOT
TITLE	LABEL	Potentiostatic EIS	Test &Identifier
DATE	LABEL	1/7/2020	Date
TIME	LABEL	16:07:33	Time
NOTES	NOTES	5	&Notes...
	
	
	
	
	
PSTAT	PSTAT	REF600-11020	Potentiostat
VDC	POTEN	0.00000E+000	T	DC &Voltage (V)
FREQINIT	QUANT	1.00000E+006	Initial Fre&q. (Hz)
FREQFINAL	QUANT	1.00000E+000	Final Fre&q. (Hz)
PTSPERDEC	QUANT	1.00000E+001	Points/&decade
VAC	QUANT	2.50000E+001	AC &Voltage (mV rms)
AREA	QUANT	1.00000E-001	&Area (cm^2)
CONDIT	TWOPARAM	T	5.00000E+000	0.00000E+000	Conditionin&g	Time(s)	E(V)
DELAY	TWOPARAM	T	5.00000E+000	0.00000E+000	Init. De&lay	Time(s)	Stab.(mV/s)
SPEED	SELECTOR	0	&Optimize for:
ZGUESS	QUANT	1.00000E+003	E&stimated Z (ohms)
OCVCURVE	TABLE	19
	Pt	T	Vf	Vm	Ach	Over
	#	s	V vs. Ref.	V	V	bits
	0	0.258333	-7.57935E-004	-7.57935E-004	6.37946E-004	...........
	1	0.516667	-7.68316E-004	-1.30133E-003	6.41846E-004	...........
	2	0.775	-8.31545E-004	-1.78938E-003	6.39513E-004	...........
	3	1.03333	-1.00549E-003	-2.08986E-003	6.27047E-004	...........
	4	1.29167	-1.29869E-003	-2.34223E-003	6.44380E-004	...........
	5	1.55	-1.65479E-003	-2.74738E-003	6.49746E-004	...........
	6	1.80833	-2.01744E-003	-3.16513E-003	6.35113E-004	...........
	7	2.06667	-2.37521E-003	-3.50336E-003	6.38980E-004	...........
	8	2.325	-2.73658E-003	-3.79065E-003	6.44613E-004	...........
	9	2.58333	-3.09734E-003	-4.14527E-003	6.49313E-004	...........
	10	2.84167	-3.44626E-003	-4.43518E-003	6.23613E-004	...........
	11	3.1	-3.77889E-003	-4.69039E-003	6.28713E-004	...........
	12	3.35833	-4.09318E-003	-4.91503E-003	6.45246E-004	...........
	13	3.61667	-4.38602E-003	-5.23700E-003	6.51346E-004	...........
	14	3.875	-4.66004E-003	-5.41968E-003	6.26613E-004	...........
	15	4.13333	-4.92130E-003	-5.65697E-003	6.24880E-004	...........
	16	4.39167	-5.17087E-003	-5.87218E-003	6.43146E-004	...........
	17	4.65	-5.40829E-003	-6.11487E-003	6.42646E-004	...........
	18	4.90833	-5.63740E-003	-6.32114E-003	6.24980E-004	...........
EOC	QUANT	-0.0056374	Open Circuit (V)
PSTATMODEL	IQUANT	4	Pstat Model
PSTATSECTION	LABEL	REF600-11020	Pstat Section
PSTATSERIALNO	LABEL	11020	Pstat Serial Number
CTRLMODE	IQUANT	1	Control Mode
IESTAB	IQUANT	0	I/E Stability
CASPEED	IQUANT	1	Control Amp Speed
CONVENTION	IQUANT	1	Current Convention
ICHRANGE	IQUANT	2	Ich Range
ICHRANGEMODE	TOGGLE	F	Ich Auto Range
ICHOFFSETENABLE	TOGGLE	T	Ich Offset Enable
ICHOFFSET	QUANT	0	Ich Offset (V)
ICHFILTER	IQUANT	3	Ich Filter
VCHRANGE	IQUANT	2	Vch Range
VCHRANGEMODE	TOGGLE	F	Vch Auto Range
VCHOFFSETENABLE	TOGGLE	T	Vch Offset Enable
VCHOFFSET	QUANT	0	Vch Offset (V)
VCHFILTER	IQUANT	3	Vch Filter
ACHRANGE	IQUANT	2	Ach Range
ACHOFFSETENABLE	TOGGLE	F	Ach Offset Enable
ACHOFFSET	QUANT	0	Ach Offset (V)
ACHFILTER	IQUANT	3	Ach Filter
IERANGELOWERLIMIT	IQUANT	1	I/E Range Lower Limit
IERANGEMODE	TOGGLE	F	I/E AutoRange
IERANGE	IQUANT	7	I/E Range
POSFEEDENABLE	TOGGLE	F	Positive Feedback IR Comp
POSFEEDRESISTANCE	QUANT	0	Positive Feedback Resistance (ohm)
ACHSELECT	IQUANT	0	Ach Select
CABLEID	IQUANT	14	Cable ID
DCCALDATE	LABEL	12/22/2019	DC Calibration Date
ACCALDATE	LABEL	12/22/2019	AC Calibration Date
THERMOSELECT	IQUANT	1	Thermo Select
FRAMEWORKVERSION	QUANT	6.33	Framework Version
INSTRUMENTVERSION	LABEL	3.50	Instrument Version
ZCURVE	TABLE
	Pt	Time	Freq	Zreal	Zimag	Zsig	Zmod	Zphz	Idc	Vdc	IERange
	#	s	Hz	ohm	ohm	V	ohm	°	A	V	#
	0	1	1000078	2244.21	-1634.651	1	2776.43	-36.06906	6.678522E-007	-0.0040282	8
	1	2	794390.6	2569.796	-1589.517	1	3021.657	-31.73837	1.018182E-006	-0.0042596	8
	2	2	630984.4	2853.8	-1456.598	1	3204.037	-27.04006	-1.946863E-006	-0.0032842	8
	3	2	501234.4	3132.091	-1370.508	1	3418.813	-23.63272	1.000786E-007	-0.0042092	8
	4	3	398109.4	3339.551	-1231.001	1	3559.209	-20.23453	2.131582E-007	-0.0044332	8
	5	3	316265.6	3511.966	-1090.877	1	3677.488	-17.25569	-1.527436E-007	-0.0042641	8
	6	3	251203.1	3642.907	-963.547	1	3768.182	-14.81543	-4.582029E-006	-0.0032212	8
	7	4	199546.9	3757.303	-859.6574	1	3854.392	-12.88725	7.818569E-006	-0.005772	8
	8	4	158578.1	3843.5	-773.8242	1	3920.625	-11.38336	-1.51411E-006	-0.0035527	8
	9	4	125953.1	3930.904	-630.7838	1	3981.192	-9.116414	-9.482942E-007	-0.0016233	7
	10	5	100078.1	3975.158	-586.8735	1	4018.246	-8.398213	1.087657E-007	-0.0044281	7
	11	5	79453.13	4030.454	-564.1959	1	4069.752	-7.968666	-5.726876E-010	-0.0041669	7
	12	5	63140.62	4082.754	-554.6461	1	4120.257	-7.736325	1.188858E-007	-0.0044241	7
	13	5	50203.12	4136.13	-553.9727	1	4173.063	-7.628513	-9.297278E-008	-0.0040792	7
	14	6	39890.62	4188.7	-567.1851	1	4226.927	-7.711426	-2.233836E-009	-0.0041725	7
	15	6	31640.63	4245.514	-592.9839	1	4286.726	-7.951238	-7.942403E-008	-0.0041207	7
	16	6	25171.88	4305.463	-628.4743	1	4351.091	-8.304889	-2.692316E-008	-0.0042677	7
	17	7	20015.62	4368.324	-678.2983	1	4420.672	-8.826207	-2.74951E-008	-0.0042643	7
	18	7	15890.62	4440.175	-739.6642	1	4501.362	-9.457739	-5.747262E-008	-0.0041087	7
	19	7	12609.37	4516.842	-817.3033	1	4590.19	-10.25645	-2.660592E-008	-0.0042683	7
	20	8	10078.13	4594.772	-909.5115	1	4683.924	-11.19666	-4.173172E-009	-0.0042625	7
	21	8	8015.625	4692.746	-1016.928	1	4801.667	-12.22706	-3.058301E-008	-0.0042652	7
	22	8	6328.125	4803.947	-1150.901	1	4939.886	-13.47265	-7.811447E-008	-0.0039809	7
	23	9	5015.625	4922.392	-1303.485	1	5092.054	-14.83191	-4.712316E-009	-0.0042661	7
	24	9	3984.375	5055.006	-1483.697	1	5268.249	-16.35751	-4.596793E-008	-0.0042375	7
	25	9	3170.956	5203.958	-1687.128	1	5470.611	-17.96275	-9.461517E-008	-0.0040877	7
	26	10	2527.573	5366.227	-1925.078	1	5701.08	-19.73492	-5.689753E-008	-0.0041197	7
	27	10	1976.103	5557.058	-2227.393	1	5986.833	-21.84202	-7.936934E-008	-0.0039866	7
	28	10	1577.524	5749.63	-2550.8	1	6290.058	-23.92427	-8.488376E-009	-0.0042031	7
	29	11	1265.625	5952.397	-2924.666	1	6632.097	-26.16685	1.189971E-007	-0.0044419	7
	30	11	998.264	6189.929	-3407.068	1	7065.645	-28.82932	-4.734208E-008	-0.0042426	7
	31	11	796.875	6431.408	-3957.942	1	7551.709	-31.60849	2.729759E-008	-0.0043699	7
	32	11	627.7902	6701.806	-4676.305	1	8172.027	-34.90609	-3.438614E-008	-0.0041425	7
	33	12	505.5147	6971.81	-5464.053	1	8857.878	-38.08705	-2.744956E-008	-0.0042793	7
	34	12	397.9953	7292.784	-6532.723	1	9790.87	-41.85331	1.688961E-009	-0.0042365	6
	35	12	315.5048	7638.434	-7825.863	1	10935.71	-45.6944	8.698028E-010	-0.0042373	6
	36	13	252.4038	8013.541	-9359.309	1	12321.26	-49.4295	9.601686E-010	-0.0042392	6
	37	13	198.6229	8480.911	-11398.66	1	14207.58	-53.34975	1.413735E-009	-0.00424	6
	38	13	158.3615	9006.285	-13786.77	1	16467.79	-56.8452	8.107358E-010	-0.0042416	6
	39	14	125.558	9662.88	-16813.85	1	19392.71	-60.11411	9.529405E-010	-0.004239	6
	40	14	100.4464	10456.15	-20380.07	1	22905.86	-62.83956	4.122493E-010	-0.0042374	6
	41	14	79.00281	11557.46	-25144.35	1	27673.33	-65.3144	7.406774E-010	-0.0042403	6
	42	15	63.3446	12638.16	-30540.03	1	33051.72	-67.5191	6.616574E-010	-0.0042497	6
	43	15	49.86702	14454.06	-37549.84	1	40235.69	-68.94679	7.755832E-010	-0.004251	6
	44	15	39.72458	16836.23	-45734.81	1	48735.32	-69.78996	7.347654E-010	-0.004248	6
	45	16	31.6723	19757.5	-55608.98	1	59014.55	-70.44022	9.822113E-010	-0.0042474	6
	46	16	24.93351	23964.82	-68108.48	1	72201.65	-70.61494	1.254959E-009	-0.0042463	6
	47	16	19.86229	29187.57	-82336.95	1	87357.23	-70.48112	1.541245E-009	-0.0042378	6
	48	17	15.83615	35629.67	-99667.8	1	105844.9	-70.32882	-5.505434E-010	-0.0042398	5
	49	17	12.40079	45571.57	-120683	1	129000.6	-69.31277	1.747533E-009	-0.0042479	5
	50	17	9.93114	56728.89	-143351.5	1	154168.2	-68.40968	1.348917E-009	-0.0042448	5
	51	18	7.944915	70773.51	-169583.3	1	183759	-67.34737	1.023261E-009	-0.0042442	5
	52	18	6.317385	88688.66	-199797.3	1	218597	-66.0639	9.363504E-010	-0.0042488	5
	53	19	5.008013	111264.4	-234813.9	1	259841	-64.64649	9.353954E-010	-0.004236	5
	54	20	3.945707	139755.6	-274702.5	1	308209.5	-63.03517	4.802321E-010	-0.0042447	5
	55	22	3.158693	170783.1	-316001.1	1	359198.5	-61.61096	4.130994E-010	-0.0042635	5
	56	23	2.504006	209311.6	-363674.9	1	419607.9	-60.0776	7.131338E-010	-0.0042613	5
	57	25	1.998082	250408.7	-413859.9	1	483719.4	-58.82368	5.486432E-010	-0.0042604	5
	58	26	1.584686	300114.5	-471934.2	1	559276.9	-57.54672	3.818292E-010	-0.0043004	5
	59	28	1.266892	351853.4	-535839.7	1	641034.3	-56.70952	3.714598E-010	-0.00429	5
	60	31	0.999041	412607.1	-610928.9	1	737210.1	-55.96583	3.581938E-010	-0.0042682	5
