EXPLAIN
TAG	EISPOT
TITLE	LABEL	Potentiostatic EIS	Test &Identifier
DATE	LABEL	2/25/2020	Date
TIME	LABEL	14:18:42	Time
NOTES	NOTES	1	&Notes...
	
PSTAT	PSTAT	REF600-11020	Potentiostat
VDC	POTEN	0.00000E+000	T	DC &Voltage (V)
FREQINIT	QUANT	1.00000E+006	Initial Fre&q. (Hz)
FREQFINAL	QUANT	1.00000E+000	Final Fre&q. (Hz)
PTSPERDEC	QUANT	1.00000E+001	Points/&decade
VAC	QUANT	2.50000E+001	AC &Voltage (mV rms)
AREA	QUANT	1.60000E-004	&Area (cm^2)
CONDIT	TWOPARAM	F	1.50000E+001	0.00000E+000	Conditionin&g	Time(s)	E(V)
DELAY	TWOPARAM	F	1.00000E+002	0.00000E+000	Init. De&lay	Time(s)	Stab.(mV/s)
SPEED	SELECTOR	1	&Optimize for:
ZGUESS	QUANT	1.00000E+003	E&stimated Z (ohms)
OCVCURVE	TABLE	39
	Pt	T	Vf	Vm	Ach	Over
	#	s	V vs. Ref.	V	V	bits
	0	0.258333	5.07641E-002	5.07641E-002	5.78237E-004	...........
	1	0.516667	5.07595E-002	5.05213E-002	5.75971E-004	...........
	2	0.775	5.07319E-002	5.03361E-002	5.75371E-004	...........
	3	1.03333	5.06590E-002	5.02843E-002	5.77237E-004	...........
	4	1.29167	5.05453E-002	5.02736E-002	5.80504E-004	...........
	5	1.55	5.04313E-002	5.04897E-002	5.76704E-004	...........
	6	1.80833	5.03805E-002	5.13044E-002	5.74671E-004	...........
	7	2.06667	5.04626E-002	5.13793E-002	5.77437E-004	...........
	8	2.325	5.06979E-002	5.17181E-002	5.78604E-004	...........
	9	2.58333	5.10181E-002	5.16619E-002	5.74504E-004	...........
	10	2.84167	5.13166E-002	5.16077E-002	5.77237E-004	...........
	11	3.1	5.15245E-002	5.18386E-002	5.71671E-004	...........
	12	3.35833	5.16430E-002	5.18704E-002	5.70438E-004	...........
	13	3.61667	5.17154E-002	5.17201E-002	5.78671E-004	...........
	14	3.875	5.17609E-002	5.16022E-002	5.73371E-004	...........
	15	4.13333	5.17628E-002	5.14855E-002	5.69138E-004	...........
	16	4.39167	5.17107E-002	5.14108E-002	5.75971E-004	...........
	17	4.65	5.16212E-002	5.13217E-002	5.72038E-004	...........
	18	4.90833	5.15198E-002	5.12435E-002	5.75371E-004	...........
	19	5.16667	5.14226E-002	5.11736E-002	5.73538E-004	...........
	20	5.425	5.13349E-002	5.11300E-002	5.71904E-004	...........
	21	5.68333	5.12577E-002	5.10752E-002	5.73204E-004	...........
	22	5.94167	5.11911E-002	5.10287E-002	5.69871E-004	...........
	23	6.2	5.11337E-002	5.10054E-002	5.76338E-004	...........
	24	6.45833	5.10842E-002	5.09679E-002	5.76571E-004	...........
	25	6.71667	5.10414E-002	5.09151E-002	5.76771E-004	...........
	26	6.975	5.10024E-002	5.08826E-002	5.76004E-004	...........
	27	7.23333	5.09638E-002	5.08460E-002	5.76171E-004	...........
	28	7.49167	5.09249E-002	5.08169E-002	5.78304E-004	...........
	29	7.75	5.08872E-002	5.07805E-002	5.74471E-004	...........
	30	8.00833	5.08512E-002	5.07345E-002	5.76838E-004	...........
	31	8.26667	5.08159E-002	5.07107E-002	5.78337E-004	...........
	32	8.525	5.07803E-002	5.06774E-002	5.78871E-004	...........
	33	8.78333	5.07454E-002	5.06467E-002	5.72571E-004	...........
	34	9.04167	5.07121E-002	5.06174E-002	5.74238E-004	...........
	35	9.3	5.06804E-002	5.05885E-002	5.73604E-004	...........
	36	9.5583	5.06497E-002	5.05523E-002	5.73337E-004	...........
	37	9.8167	5.06195E-002	5.05394E-002	5.78371E-004	...........
	38	10.075	5.05904E-002	5.05205E-002	5.75904E-004	...........
EOC	QUANT	0.0505904	Open Circuit (V)
PSTATMODEL	IQUANT	4	Pstat Model
PSTATSECTION	LABEL	REF600-11020	Pstat Section
PSTATSERIALNO	LABEL	11020	Pstat Serial Number
CTRLMODE	IQUANT	1	Control Mode
IESTAB	IQUANT	0	I/E Stability
CASPEED	IQUANT	1	Control Amp Speed
CONVENTION	IQUANT	1	Current Convention
ICHRANGE	IQUANT	2	Ich Range
ICHRANGEMODE	TOGGLE	F	Ich Auto Range
ICHOFFSETENABLE	TOGGLE	T	Ich Offset Enable
ICHOFFSET	QUANT	0	Ich Offset (V)
ICHFILTER	IQUANT	3	Ich Filter
VCHRANGE	IQUANT	2	Vch Range
VCHRANGEMODE	TOGGLE	F	Vch Auto Range
VCHOFFSETENABLE	TOGGLE	T	Vch Offset Enable
VCHOFFSET	QUANT	0	Vch Offset (V)
VCHFILTER	IQUANT	3	Vch Filter
ACHRANGE	IQUANT	2	Ach Range
ACHOFFSETENABLE	TOGGLE	F	Ach Offset Enable
ACHOFFSET	QUANT	0	Ach Offset (V)
ACHFILTER	IQUANT	3	Ach Filter
IERANGELOWERLIMIT	IQUANT	1	I/E Range Lower Limit
IERANGEMODE	TOGGLE	F	I/E AutoRange
IERANGE	IQUANT	7	I/E Range
POSFEEDENABLE	TOGGLE	F	Positive Feedback IR Comp
POSFEEDRESISTANCE	QUANT	0	Positive Feedback Resistance (ohm)
ACHSELECT	IQUANT	0	Ach Select
CABLEID	IQUANT	14	Cable ID
DCCALDATE	LABEL	1/27/2020	DC Calibration Date
ACCALDATE	LABEL	1/27/2020	AC Calibration Date
THERMOSELECT	IQUANT	1	Thermo Select
FRAMEWORKVERSION	QUANT	6.33	Framework Version
INSTRUMENTVERSION	LABEL	3.50	Instrument Version
ZCURVE	TABLE
	Pt	Time	Freq	Zreal	Zimag	Zsig	Zmod	Zphz	Idc	Vdc	IERange
	#	s	Hz	ohm	ohm	V	ohm	°	A	V	#
	0	2	1000078	1481.582	-2127.724	1	2592.739	-55.14965	3.20335E-006	0.0521919	8
	1	3	794390.6	1810.804	-2401.745	1	3007.888	-52.9854	-3.387255E-007	0.052288	8
	2	4	630984.4	2204.39	-2666.332	1	3459.575	-50.41775	1.631856E-007	0.0524328	8
	3	6	501234.4	2672.796	-2935.157	1	3969.759	-47.67855	-1.975433E-006	0.0526936	8
	4	7	398109.4	3213.63	-3185.875	1	4525.177	-44.75151	1.268705E-006	0.0519291	8
	5	8	316265.6	3830.508	-3366.902	1	5099.884	-41.31451	-1.201349E-006	0.0522963	8
	6	10	251203.1	4504.335	-3475.453	1	5689.271	-37.65305	1.118995E-006	0.0518645	8
	7	11	199546.9	5171.376	-3466.84	1	6225.922	-33.83752	1.36551E-006	0.051815	8
	8	13	158578.1	5848.384	-3373.928	1	6751.814	-29.98061	-3.257082E-007	0.0521411	8
	9	14	125953.1	6482.949	-3126.908	1	7197.651	-25.74932	-2.785474E-007	0.0526085	7
	10	16	100078.1	7020.232	-2884.945	1	7589.899	-22.34008	4.297251E-008	0.0520183	7
	11	17	79453.13	7461.208	-2615.881	1	7906.482	-19.32054	2.162428E-008	0.0519716	7
	12	18	63140.62	7817.824	-2345.695	1	8162.147	-16.70159	-2.237251E-008	0.0520831	7
	13	20	50203.12	8107.148	-2097.195	1	8374.012	-14.5036	-2.371723E-009	0.052047	7
	14	21	39890.62	8342.506	-1876.372	1	8550.917	-12.67586	2.745968E-008	0.0519891	7
	15	23	31640.63	8526.4	-1691.573	1	8692.579	-11.22134	-9.131464E-009	0.0520162	7
	16	24	25171.88	8690.994	-1549.725	1	8828.082	-10.11037	4.772046E-009	0.0520406	7
	17	26	20015.62	8829.922	-1443.617	1	8947.153	-9.285224	7.11176E-008	0.0519238	7
	18	28	15890.62	8953.358	-1373.191	1	9058.051	-8.719599	-1.220621E-009	0.0520456	7
	19	29	12609.37	9086.485	-1296.195	1	9178.472	-8.118519	-1.930312E-009	0.0520936	6
	20	31	10078.13	9190.281	-1299.612	1	9281.717	-8.048916	-2.293431E-009	0.0520629	6
	21	32	8015.625	9294.471	-1337.109	1	9390.157	-8.186446	-3.73384E-009	0.0520681	6
	22	34	6328.125	9399.534	-1413.479	1	9505.22	-8.551921	8.415445E-009	0.0518653	6
	23	35	5015.625	9505.91	-1529.129	1	9628.11	-9.138368	2.702461E-009	0.0520425	6
	24	37	3984.375	9614.78	-1687.103	1	9761.68	-9.95235	2.318821E-009	0.0520242	6
	25	39	3170.956	9728.22	-1896.655	1	9911.38	-11.03224	-2.743143E-009	0.0520235	6
	26	40	2527.573	9847.92	-2163.765	1	10082.82	-12.39201	2.269369E-009	0.0520394	6
	27	42	1976.103	9986.16	-2533.113	1	10302.43	-14.23356	3.027905E-009	0.0520158	6
	28	43	1577.524	10130.38	-2962.814	1	10554.75	-16.30252	1.365501E-009	0.0519483	6
	29	45	1265.625	10289.3	-3477.03	1	10860.92	-18.67148	2.248979E-009	0.0520369	6
	30	46	998.264	10480.48	-4172.725	1	11280.61	-21.7096	-7.41798E-011	0.0519952	6
	31	48	796.875	10694.25	-4986.056	1	11799.48	-24.99668	1.850654E-009	0.0519543	6
	32	49	627.7902	10969.28	-6046.869	1	12525.56	-28.86596	-1.475201E-009	0.0519965	6
	33	50	505.5147	11262.91	-7226.19	1	13381.74	-32.68391	-7.783976E-010	0.0520711	6
	34	52	397.9953	11660.29	-8819.895	1	14620.29	-37.10403	1.481192E-009	0.0520311	6
	35	53	315.5048	12141.1	-10720.74	1	16196.93	-41.44489	1.583803E-009	0.0520281	6
	36	55	252.4038	12712.36	-12945.04	1	18143.26	-45.5196	1.50511E-009	0.0520277	6
	37	56	198.6229	13485.32	-15855.19	1	20814.43	-49.61783	1.103307E-009	0.0520283	6
	38	57	158.3615	14408.4	-19206.01	1	24009.85	-53.12267	1.362851E-009	0.0520259	6
	39	59	125.558	15618.16	-23353.19	1	28094.45	-56.22615	9.793965E-010	0.0520192	6
	40	60	100.4464	17055.15	-28143.57	1	32908.04	-58.78392	5.096185E-010	0.0520227	6
	41	61	79.00281	19116.99	-34327.14	1	39291.37	-60.8863	1.013774E-009	0.0520241	6
	42	63	63.3446	21603.24	-40984.19	1	46329.3	-62.20576	1.029817E-009	0.052021	6
	43	64	49.86702	24637.52	-50306.31	1	56015.46	-63.9067	1.163662E-009	0.0520116	6
	44	66	39.72458	28282.96	-60174.25	1	66489.59	-64.82565	1.151357E-009	0.0520216	6
	45	67	31.6723	32898.66	-71780.33	1	78960.35	-65.37687	1.232104E-009	0.052022	6
	46	68	24.93351	39096.66	-86763.77	1	95165.6	-65.74318	7.060196E-010	0.0520159	6
	47	70	19.86229	46298.29	-103231.9	1	113138.7	-65.84433	7.972649E-010	0.0520198	5
	48	71	15.83615	55712.5	-123528	1	135510.3	-65.7241	-7.910735E-010	0.0520166	5
	49	72	12.40079	67184.88	-147427.8	1	162014.7	-65.50059	-2.851887E-011	0.0520203	5
	50	74	9.93114	79954.88	-173932.3	1	191429.5	-65.31225	4.637662E-010	0.0520152	5
	51	76	7.944915	95978.9	-204613.3	1	226005.6	-64.86991	3.378769E-011	0.0520159	5
	52	77	6.317385	115591.1	-240903.7	1	267200.1	-64.36723	4.411627E-010	0.0520021	5
	53	79	5.008013	140181.4	-284388.7	1	317061.1	-63.7603	3.087293E-010	0.0520272	5
	54	82	3.945707	171291.9	-335787.8	1	376954.1	-62.97298	-3.624425E-011	0.0520092	5
	55	84	3.158693	206953.2	-390841.1	1	442251.5	-62.09846	3.656336E-010	0.0520355	5
	56	88	2.504006	252849.3	-455845	1	521274.8	-60.98363	-1.473672E-010	0.0520135	5
	57	90	1.998082	306081.4	-525359.1	1	608019.8	-59.77434	1.440024E-010	0.0519729	5
	58	94	1.584686	370460.5	-603387.3	1	708037.6	-58.45141	5.43879E-011	0.052039	5
	59	97	1.266892	444562.5	-688008.2	1	819140.4	-57.13113	5.395057E-011	0.051984	5
	60	102	0.999041	534853.8	-782997	1	948236.7	-55.66359	3.210209E-010	0.0520586	5
