EXPLAIN
TAG	EISPOT
TITLE	LABEL	Potentiostatic EIS	Test &Identifier
DATE	LABEL	1/18/2020	Date
TIME	LABEL	22:52:28	Time
NOTES	NOTES	6	&Notes...
	
	
	
	
	
	
PSTAT	PSTAT	REF600-11020	Potentiostat
VDC	POTEN	0.00000E+000	T	DC &Voltage (V)
FREQINIT	QUANT	1.00000E+006	Initial Fre&q. (Hz)
FREQFINAL	QUANT	1.00000E+000	Final Fre&q. (Hz)
PTSPERDEC	QUANT	1.00000E+001	Points/&decade
VAC	QUANT	2.50000E+001	AC &Voltage (mV rms)
AREA	QUANT	1.00000E-001	&Area (cm^2)
CONDIT	TWOPARAM	F	5.00000E+000	0.00000E+000	Conditionin&g	Time(s)	E(V)
DELAY	TWOPARAM	F	5.00000E+000	0.00000E+000	Init. De&lay	Time(s)	Stab.(mV/s)
SPEED	SELECTOR	0	&Optimize for:
ZGUESS	QUANT	5.00000E+002	E&stimated Z (ohms)
OCVCURVE	TABLE	39
	Pt	T	Vf	Vm	Ach	Over
	#	s	V vs. Ref.	V	V	bits
	0	0.258333	1.01812E-002	1.01812E-002	6.53580E-004	...........
	1	0.516667	1.01851E-002	1.03825E-002	6.58479E-004	...........
	2	0.775	1.02083E-002	1.05529E-002	6.63079E-004	...........
	3	1.03333	1.02710E-002	1.06262E-002	6.59446E-004	...........
	4	1.29167	1.03728E-002	1.06819E-002	6.56313E-004	...........
	5	1.55	1.04919E-002	1.09487E-002	6.64313E-004	...........
	6	1.80833	1.05995E-002	1.02053E-002	6.63813E-004	...........
	7	2.06667	1.06691E-002	1.14147E-002	6.61046E-004	...........
	8	2.325	1.07336E-002	1.16360E-002	6.55246E-004	...........
	9	2.58333	1.08967E-002	1.22345E-002	6.61079E-004	...........
	10	2.84167	1.12088E-002	1.22557E-002	6.60879E-004	...........
	11	3.1	1.16030E-002	1.27003E-002	6.58646E-004	...........
	12	3.35833	1.19720E-002	1.21215E-002	6.56380E-004	...........
	13	3.61667	1.22167E-002	1.16422E-002	6.54580E-004	...........
	14	3.875	1.22688E-002	1.20016E-002	6.58546E-004	...........
	15	4.13333	1.21242E-002	9.89141E-003	6.59113E-004	...........
	16	4.39167	1.18099E-002	1.11809E-002	6.60346E-004	...........
	17	4.65	1.13927E-002	1.03579E-002	6.61013E-004	...........
	18	4.90833	1.10023E-002	1.02551E-002	6.59746E-004	...........
	19	5.16667	1.07238E-002	1.08279E-002	6.55946E-004	...........
	20	5.425	1.05705E-002	1.06701E-002	6.57813E-004	...........
	21	5.68333	1.05490E-002	1.11580E-002	6.59879E-004	...........
	22	5.94167	1.06465E-002	1.13072E-002	6.57913E-004	...........
	23	6.2	1.08252E-002	1.14723E-002	6.55980E-004	...........
	24	6.45833	1.10381E-002	1.14726E-002	6.60546E-004	...........
	25	6.71667	1.12334E-002	1.15103E-002	6.61846E-004	...........
	26	6.975	1.13759E-002	1.15506E-002	6.60079E-004	...........
	27	7.23333	1.14631E-002	1.15818E-002	6.62313E-004	...........
	28	7.49167	1.15141E-002	1.15917E-002	6.54946E-004	...........
	29	7.75	1.15472E-002	1.16038E-002	6.62046E-004	...........
	30	8.00833	1.15711E-002	1.16118E-002	6.59679E-004	...........
	31	8.26667	1.15885E-002	1.16150E-002	6.63913E-004	...........
	32	8.525	1.16007E-002	1.16221E-002	6.58446E-004	...........
	33	8.78333	1.16092E-002	1.16185E-002	6.60346E-004	...........
	34	9.04167	1.16137E-002	1.15620E-002	6.61913E-004	...........
	35	9.3	1.16095E-002	1.14742E-002	6.62846E-004	...........
	36	9.5583	1.15881E-002	1.14051E-002	6.58179E-004	...........
	37	9.8167	1.15470E-002	1.14443E-002	6.58379E-004	...........
	38	10.075	1.14989E-002	1.14689E-002	6.62079E-004	...........
EOC	QUANT	0.0114989	Open Circuit (V)
PSTATMODEL	IQUANT	4	Pstat Model
PSTATSECTION	LABEL	REF600-11020	Pstat Section
PSTATSERIALNO	LABEL	11020	Pstat Serial Number
CTRLMODE	IQUANT	1	Control Mode
IESTAB	IQUANT	0	I/E Stability
CASPEED	IQUANT	1	Control Amp Speed
CONVENTION	IQUANT	1	Current Convention
ICHRANGE	IQUANT	2	Ich Range
ICHRANGEMODE	TOGGLE	F	Ich Auto Range
ICHOFFSETENABLE	TOGGLE	T	Ich Offset Enable
ICHOFFSET	QUANT	0	Ich Offset (V)
ICHFILTER	IQUANT	3	Ich Filter
VCHRANGE	IQUANT	2	Vch Range
VCHRANGEMODE	TOGGLE	F	Vch Auto Range
VCHOFFSETENABLE	TOGGLE	T	Vch Offset Enable
VCHOFFSET	QUANT	0	Vch Offset (V)
VCHFILTER	IQUANT	3	Vch Filter
ACHRANGE	IQUANT	2	Ach Range
ACHOFFSETENABLE	TOGGLE	F	Ach Offset Enable
ACHOFFSET	QUANT	0	Ach Offset (V)
ACHFILTER	IQUANT	3	Ach Filter
IERANGELOWERLIMIT	IQUANT	1	I/E Range Lower Limit
IERANGEMODE	TOGGLE	F	I/E AutoRange
IERANGE	IQUANT	7	I/E Range
POSFEEDENABLE	TOGGLE	F	Positive Feedback IR Comp
POSFEEDRESISTANCE	QUANT	0	Positive Feedback Resistance (ohm)
ACHSELECT	IQUANT	0	Ach Select
CABLEID	IQUANT	14	Cable ID
DCCALDATE	LABEL	12/22/2019	DC Calibration Date
ACCALDATE	LABEL	12/22/2019	AC Calibration Date
THERMOSELECT	IQUANT	1	Thermo Select
FRAMEWORKVERSION	QUANT	6.33	Framework Version
INSTRUMENTVERSION	LABEL	3.50	Instrument Version
ZCURVE	TABLE
	Pt	Time	Freq	Zreal	Zimag	Zsig	Zmod	Zphz	Idc	Vdc	IERange
	#	s	Hz	ohm	ohm	V	ohm	°	A	V	#
	0	1	1000078	1952.965	-2141.121	1	2898.012	-47.63134	-1.473426E-007	0.0140967	8
	1	1	794390.6	2301.205	-2347.248	1	3287.114	-45.56749	2.392831E-006	0.0129827	8
	2	2	630984.4	2701.042	-2516.66	1	3691.775	-42.97614	1.317028E-006	0.0128325	8
	3	2	501234.4	3103.826	-2664.21	1	4090.447	-40.64158	9.555725E-008	0.013096	8
	4	2	398109.4	3590.779	-2815.903	1	4563.223	-38.10368	1.488968E-006	0.0128968	8
	5	3	316265.6	4022.259	-2917.41	1	4968.888	-35.95399	-9.52551E-008	0.0133031	8
	6	3	251203.1	4535.419	-3024.823	1	5451.567	-33.70065	-2.673484E-006	0.0136782	8
	7	3	199546.9	5051.558	-3077.605	1	5915.225	-31.3514	1.432101E-006	0.0128782	8
	8	4	158578.1	5505.963	-3109.049	1	6323.117	-29.45209	1.414298E-006	0.0128764	8
	9	4	125953.1	6055.722	-3117.406	1	6811.02	-27.23882	-1.374737E-007	0.0131632	7
	10	4	100078.1	6524.243	-3106.907	1	7226.245	-25.46424	6.687235E-008	0.012972	7
	11	5	79453.13	6994.497	-3105.972	1	7653.107	-23.94406	-5.364002E-008	0.013183	7
	12	5	63140.62	7456.031	-3101	1	8075.184	-22.58267	6.010707E-008	0.0130863	7
	13	5	50203.12	7893.391	-3092.343	1	8477.512	-21.39344	-3.362759E-008	0.0131226	7
	14	6	39890.62	8325.94	-3097.971	1	8883.62	-20.40956	6.425685E-008	0.0129866	7
	15	6	31640.63	8751.334	-3112.476	1	9288.345	-19.5783	6.0108E-008	0.0130807	7
	16	6	25171.88	9154.478	-3142.306	1	9678.77	-18.94496	3.200104E-008	0.0130631	7
	17	7	20015.62	9562.5	-3189.427	1	10080.37	-18.44534	-3.328021E-008	0.0131131	7
	18	7	15890.62	9963.46	-3281.149	1	10489.83	-18.22766	3.398507E-008	0.012979	7
	19	7	12609.37	10389.62	-3358.457	1	10918.95	-17.91348	1.288335E-008	0.0129443	6
	20	8	10078.13	10788.44	-3520.619	1	11348.35	-18.07319	-1.181863E-009	0.0130902	6
	21	8	8015.625	11206.85	-3726.697	1	11810.24	-18.3939	-3.120238E-009	0.0132061	6
	22	8	6328.125	11665.78	-3989.923	1	12329.23	-18.88169	-5.060638E-009	0.0131188	6
	23	9	5015.625	12142.45	-4308.02	1	12884.03	-19.53417	1.762878E-009	0.0130122	6
	24	9	3984.375	12659.83	-4678.244	1	13496.57	-20.281	-8.833001E-009	0.0131672	6
	25	9	3170.956	13204.34	-5116.422	1	14160.94	-21.18037	2.620337E-009	0.0130075	6
	26	10	2527.573	13803.76	-5612.583	1	14901.17	-22.12657	-6.552078E-009	0.0131545	6
	27	10	1976.103	14513.23	-6232.253	1	15794.77	-23.23959	-5.321922E-009	0.0132202	6
	28	10	1577.524	15231.51	-6882.922	1	16714.47	-24.3176	-6.907755E-009	0.0131795	6
	29	10	1265.625	15953.1	-7614.407	1	17677.12	-25.51513	-4.923905E-009	0.0132149	6
	30	11	998.264	16810.1	-8527.455	1	18849.32	-26.89784	-4.127468E-009	0.0131684	6
	31	11	796.875	17690.85	-9547.09	1	20102.56	-28.35406	2.486099E-009	0.013153	6
	32	11	627.7902	18723.36	-10829.86	1	21629.85	-30.0457	3.766413E-009	0.0129368	6
	33	12	505.5147	19770.24	-12205.11	1	23234.18	-31.68899	-4.168659E-009	0.0130975	6
	34	12	397.9953	21073.19	-13988.75	1	25293.56	-33.57691	3.605075E-010	0.0130993	6
	35	12	315.5048	22529.51	-16024.06	1	27646.87	-35.42224	7.046307E-010	0.0130921	6
	36	13	252.4038	24136.44	-18294.01	1	30285.95	-37.16	5.640319E-010	0.0130866	6
	37	13	198.6229	26111.82	-21092.89	1	33566.91	-38.93097	3.573621E-010	0.0130856	6
	38	13	158.3615	28223.33	-24131.12	1	37133.1	-40.53065	7.489047E-010	0.0130827	6
	39	14	125.558	30638.72	-27695.2	1	41300.79	-42.11132	6.585889E-011	0.0130845	6
	40	14	100.4464	33199.69	-31630.85	1	45855.53	-43.61376	2.379086E-010	0.0130788	6
	41	14	79.00281	36218.28	-36673.16	1	51543.04	-45.35755	4.083598E-010	0.0130778	6
	42	15	63.3446	38690.75	-42267.96	1	57302.3	-47.53	7.745053E-010	0.0130819	6
	43	15	49.86702	42252.14	-49377.66	1	64987.67	-49.44662	6.83788E-010	0.0130798	6
	44	15	39.72458	46125.9	-57707.09	1	73876.3	-51.36428	5.567651E-010	0.0130811	6
	45	16	31.6723	50278.81	-67744.79	1	84364.18	-53.41794	7.230609E-010	0.0130805	6
	46	16	24.93351	55188.02	-80849.31	1	97889.4	-55.68242	1.919783E-010	0.0130793	6
	47	16	19.86229	60783.61	-96075.8	1	113689.1	-57.67997	2.27689E-010	0.0130781	5
	48	17	15.83615	67984.13	-114959.6	1	133557.3	-59.40104	1.972927E-010	0.0130742	5
	49	17	12.40079	77546.78	-139408	1	159524.6	-60.91466	-4.148928E-010	0.0130782	5
	50	17	9.93114	88572.28	-164893	1	187175.7	-61.75753	-9.372425E-010	0.0130757	5
	51	18	7.944915	102502.4	-195905	1	221100.7	-62.38031	3.478625E-010	0.0130783	5
	52	18	6.317385	120864.3	-233735.8	1	263136.1	-62.6566	9.411089E-011	0.0130716	5
	53	19	5.008013	144495.5	-276961.7	1	312388.8	-62.44821	2.088204E-010	0.0130831	5
	54	20	3.945707	176127.1	-328447	1	372690.5	-61.79792	2.547447E-012	0.0130709	5
	55	21	3.158693	210103.6	-380310.7	1	434487.9	-61.08143	-2.267283E-011	0.0130584	5
	56	23	2.504006	253270.3	-442796.7	1	510112.5	-60.23137	1.894023E-010	0.013064	5
	57	24	1.998082	298959.3	-507743.9	1	589220.3	-59.51045	-1.097075E-010	0.0130374	5
	58	26	1.584686	356577.5	-581471.1	1	682096.8	-58.48198	1.722107E-010	0.0130193	5
	59	28	1.266892	406822.3	-670823.9	1	784543.8	-58.76521	1.59663E-010	0.0130524	5
	60	30	0.999041	473503	-777725.4	1	910528.4	-58.66566	6.857218E-011	0.0130745	5
