EXPLAIN
TAG	EISPOT
TITLE	LABEL	Potentiostatic EIS	Test &Identifier
DATE	LABEL	7/30/2020	Date
TIME	LABEL	22:59:50	Time
NOTES	NOTES	1	&Notes...
	
PSTAT	PSTAT	REF600-11020	Potentiostat
VDC	POTEN	0.00000E+000	T	DC &Voltage (V)
FREQINIT	QUANT	1.00000E+006	Initial Fre&q. (Hz)
FREQFINAL	QUANT	1.00000E+000	Final Fre&q. (Hz)
PTSPERDEC	QUANT	1.00000E+001	Points/&decade
VAC	QUANT	2.50000E+001	AC &Voltage (mV rms)
AREA	QUANT	4.00000E-005	&Area (cm^2)
CONDIT	TWOPARAM	F	5.00000E+000	0.00000E+000	Conditionin&g	Time(s)	E(V)
DELAY	TWOPARAM	F	3.00000E+000	0.00000E+000	Init. De&lay	Time(s)	Stab.(mV/s)
SPEED	SELECTOR	0	&Optimize for:
ZGUESS	QUANT	1.00000E+003	E&stimated Z (ohms)
OCVCURVE	TABLE	39
	Pt	T	Vf	Vm	Ach	Over
	#	s	V vs. Ref.	V	V	bits
	0	0.258333	-8.08541E-002	-8.08541E-002	5.32283E-004	...........
	1	0.516667	-8.08539E-002	-8.08415E-002	5.32983E-004	...........
	2	0.775	-8.08524E-002	-8.08311E-002	5.28850E-004	...........
	3	1.03333	-8.08485E-002	-8.08272E-002	5.30016E-004	...........
	4	1.29167	-8.08422E-002	-8.08208E-002	5.31317E-004	...........
	5	1.55	-8.08349E-002	-8.08137E-002	5.30050E-004	...........
	6	1.80833	-8.08278E-002	-8.08111E-002	5.32883E-004	...........
	7	2.06667	-8.08214E-002	-8.08084E-002	5.27783E-004	...........
	8	2.325	-8.08161E-002	-8.08057E-002	5.26450E-004	...........
	9	2.58333	-8.08120E-002	-8.08031E-002	5.22717E-004	...........
	10	2.84167	-8.08086E-002	-8.07988E-002	5.23383E-004	...........
	11	3.1	-8.08056E-002	-8.07961E-002	5.30650E-004	...........
	12	3.35833	-8.08027E-002	-8.07961E-002	5.27150E-004	...........
	13	3.61667	-8.08000E-002	-8.07980E-002	5.32283E-004	...........
	14	3.875	-8.07981E-002	-8.07967E-002	5.28150E-004	...........
	15	4.13333	-8.07972E-002	-8.07998E-002	5.22650E-004	...........
	16	4.39167	-8.07972E-002	-8.07965E-002	5.25283E-004	...........
	17	4.65	-8.07974E-002	-8.07939E-002	5.26683E-004	...........
	18	4.90833	-8.07973E-002	-8.07959E-002	5.23983E-004	...........
	19	5.16667	-8.07967E-002	-8.07950E-002	5.24517E-004	...........
	20	5.425	-8.07960E-002	-8.07979E-002	5.22117E-004	...........
	21	5.68333	-8.07958E-002	-8.07997E-002	5.27383E-004	...........
	22	5.94167	-8.07964E-002	-8.08010E-002	5.26483E-004	...........
	23	6.2	-8.07976E-002	-8.08030E-002	5.26450E-004	...........
	24	6.45833	-8.07992E-002	-8.08012E-002	5.31450E-004	...........
	25	6.71667	-8.08006E-002	-8.08039E-002	5.31183E-004	...........
	26	6.975	-8.08017E-002	-8.08034E-002	5.30483E-004	...........
	27	7.23333	-8.08024E-002	-8.08019E-002	5.31817E-004	...........
	28	7.49167	-8.08028E-002	-8.08029E-002	5.31050E-004	...........
	29	7.75	-8.08029E-002	-8.08024E-002	5.31617E-004	...........
	30	8.00833	-8.08028E-002	-8.08008E-002	5.27350E-004	...........
	31	8.26667	-8.08025E-002	-8.08052E-002	5.28217E-004	...........
	32	8.525	-8.08025E-002	-8.08064E-002	5.27483E-004	...........
	33	8.78333	-8.08031E-002	-8.08074E-002	5.25150E-004	...........
	34	9.04167	-8.08044E-002	-8.08098E-002	5.25850E-004	...........
	35	9.3	-8.08060E-002	-8.08108E-002	5.29216E-004	...........
	36	9.5583	-8.08076E-002	-8.08121E-002	5.31783E-004	...........
	37	9.8167	-8.08093E-002	-8.08161E-002	5.29150E-004	...........
	38	10.075	-8.08110E-002	-8.08187E-002	5.33750E-004	...........
EOC	QUANT	-0.080811	Open Circuit (V)
PSTATMODEL	IQUANT	4	Pstat Model
PSTATSECTION	LABEL	REF600-11020	Pstat Section
PSTATSERIALNO	LABEL	11020	Pstat Serial Number
CTRLMODE	IQUANT	1	Control Mode
IESTAB	IQUANT	0	I/E Stability
CASPEED	IQUANT	1	Control Amp Speed
CONVENTION	IQUANT	1	Current Convention
ICHRANGE	IQUANT	2	Ich Range
ICHRANGEMODE	TOGGLE	F	Ich Auto Range
ICHOFFSETENABLE	TOGGLE	T	Ich Offset Enable
ICHOFFSET	QUANT	0	Ich Offset (V)
ICHFILTER	IQUANT	3	Ich Filter
VCHRANGE	IQUANT	2	Vch Range
VCHRANGEMODE	TOGGLE	F	Vch Auto Range
VCHOFFSETENABLE	TOGGLE	T	Vch Offset Enable
VCHOFFSET	QUANT	0	Vch Offset (V)
VCHFILTER	IQUANT	3	Vch Filter
ACHRANGE	IQUANT	2	Ach Range
ACHOFFSETENABLE	TOGGLE	F	Ach Offset Enable
ACHOFFSET	QUANT	0	Ach Offset (V)
ACHFILTER	IQUANT	3	Ach Filter
IERANGELOWERLIMIT	IQUANT	1	I/E Range Lower Limit
IERANGEMODE	TOGGLE	F	I/E AutoRange
IERANGE	IQUANT	8	I/E Range
POSFEEDENABLE	TOGGLE	F	Positive Feedback IR Comp
POSFEEDRESISTANCE	QUANT	0	Positive Feedback Resistance (ohm)
ACHSELECT	IQUANT	0	Ach Select
CABLEID	IQUANT	14	Cable ID
DCCALDATE	LABEL	6/26/2020	DC Calibration Date
ACCALDATE	LABEL	6/26/2020	AC Calibration Date
THERMOSELECT	IQUANT	1	Thermo Select
FRAMEWORKVERSION	QUANT	6.33	Framework Version
INSTRUMENTVERSION	LABEL	3.50	Instrument Version
ZCURVE	TABLE
	Pt	Time	Freq	Zreal	Zimag	Zsig	Zmod	Zphz	Idc	Vdc	IERange
	#	s	Hz	ohm	ohm	V	ohm	°	A	V	#
	0	1	1000078	1758.886	-2095.037	1	2735.482	-49.9849	1.450179E-007	-0.0783697	8
	1	2	794390.6	2121.15	-2295.432	1	3125.426	-47.25977	-4.569109E-008	-0.0786887	8
	2	2	630984.4	2527.807	-2469.092	1	3533.585	-44.32679	1.089049E-007	-0.0788961	8
	3	2	501234.4	2969.994	-2607.104	1	3951.943	-41.27714	4.565914E-008	-0.0789798	8
	4	3	398109.4	3427.892	-2700.021	1	4363.548	-38.22617	4.32467E-008	-0.0790412	8
	5	3	316265.6	3897.775	-2761.561	1	4776.91	-35.31745	3.551633E-008	-0.0790813	8
	6	3	251203.1	4355.365	-2779.264	1	5166.576	-32.54294	4.718612E-008	-0.0790822	8
	7	4	199546.9	4798.869	-2777.921	1	5544.907	-30.06526	4.774898E-008	-0.0790841	8
	8	4	158578.1	5230.799	-2766.58	1	5917.366	-27.87445	6.468229E-008	-0.0790926	8
	9	4	125953.1	5672.163	-2703.818	1	6283.635	-25.48629	3.348457E-009	-0.0790739	7
	10	5	100078.1	6055.343	-2693.706	1	6627.46	-23.98178	1.165907E-009	-0.0791192	7
	11	5	79453.13	6415.312	-2696.809	1	6959.095	-22.80046	7.780389E-010	-0.0791231	7
	12	5	63140.62	6758.888	-2722.552	1	7286.622	-21.9401	6.788151E-010	-0.0791227	7
	13	6	50203.12	7099.663	-2775.717	1	7622.98	-21.35374	9.289909E-010	-0.0791261	7
	14	6	39890.62	7443.126	-2859.658	1	7973.567	-21.01684	9.677469E-010	-0.0791297	7
	15	6	31640.63	7797.128	-2977.855	1	8346.426	-20.9027	1.665339E-009	-0.0791245	7
	16	6	25171.88	8159.593	-3130.61	1	8739.547	-20.99043	9.79938E-010	-0.0791303	7
	17	7	20015.62	8546.248	-3320.026	1	9168.475	-21.23004	9.608695E-010	-0.0791331	7
	18	7	15890.62	8961.944	-3550.15	1	9639.5	-21.61031	1.239811E-009	-0.0791374	7
	19	7	12609.37	9466.484	-3753.127	1	10183.33	-21.62658	4.624812E-010	-0.0791438	6
	20	8	10078.13	9933.56	-4060.516	1	10731.42	-22.23314	3.879458E-010	-0.0791403	6
	21	8	8015.625	10459.7	-4410.886	1	11351.71	-22.86529	1.452505E-010	-0.0791432	6
	22	8	6328.125	11052.8	-4812.619	1	12055.11	-23.52932	4.287195E-010	-0.0791478	6
	23	9	5015.625	11689.93	-5245.491	1	12812.87	-24.16667	1.850828E-010	-0.0791492	6
	24	9	3984.375	12372.14	-5719.591	1	13630.25	-24.81091	3.47563E-010	-0.0791528	6
	25	9	3170.956	13097.59	-6239.166	1	14507.72	-25.47125	3.421003E-010	-0.0791476	6
	26	10	2527.573	13872.66	-6818.097	1	15457.59	-26.17307	-7.35738E-011	-0.0791589	6
	27	10	1976.103	14782.12	-7523.031	1	16586.35	-26.97281	-7.654688E-011	-0.0791494	6
	28	10	1577.524	15684.37	-8265.408	1	17728.97	-27.7885	4.159742E-011	-0.0791522	6
	29	11	1265.625	16647.74	-9092.515	1	18968.95	-28.6421	2.797532E-010	-0.079154	6
	30	11	998.264	17779.53	-10103.24	1	20449.62	-29.60746	-1.925795E-010	-0.0791639	6
	31	11	796.875	18983.49	-11200.58	1	22041.46	-30.54132	-8.867728E-012	-0.0791612	6
	32	12	627.7902	20398.69	-12511.76	1	23930.12	-31.52332	5.262729E-010	-0.079156	6
	33	12	505.5147	21833.21	-13848.24	1	25854.65	-32.3859	1.113145E-010	-0.0791574	6
	34	12	397.9953	23562.41	-15488.85	1	28197.37	-33.31908	3.13143E-010	-0.079127	6
	35	12	315.5048	25419.78	-17278.63	1	30736.24	-34.20519	1.589884E-010	-0.0791288	6
	36	13	252.4038	27352.96	-19210.22	1	33424.8	-35.08069	1.661399E-010	-0.079131	6
	37	13	198.6229	29586.09	-21581.45	1	36620.97	-36.10872	1.626202E-010	-0.0791289	6
	38	13	158.3615	31854.61	-24188.66	1	39997.6	-37.21107	2.796288E-010	-0.0791345	6
	39	14	125.558	34367.59	-27338.85	1	43915.19	-38.50167	2.64693E-010	-0.0791293	6
	40	14	100.4464	37010.57	-30933.14	1	48235.28	-39.88861	1.211204E-010	-0.0791309	6
	41	14	79.00281	40199.24	-35557.27	1	53668.41	-41.49359	4.807667E-011	-0.0791314	6
	42	15	63.3446	43543.86	-40619.15	1	59548.16	-43.00974	3.255559E-010	-0.0791345	6
	43	15	49.86702	47751.27	-47112.48	1	67080.32	-44.61419	3.352356E-010	-0.0791317	6
	44	15	39.72458	52466.64	-54392.54	1	75573.13	-46.03252	4.575343E-010	-0.0791324	6
	45	16	31.6723	58023.62	-62846.86	1	85536.36	-47.28513	4.309915E-010	-0.0791342	6
	46	16	24.93351	65053.21	-73208.79	1	97935.9	-48.37576	1.13066E-009	-0.0791318	6
	47	16	19.86229	72964.45	-84471.64	1	111621.1	-49.18039	1.476681E-009	-0.0791372	5
	48	17	15.83615	82657.48	-97419.9	1	127761.1	-49.68653	1.075491E-009	-0.0791449	5
	49	17	12.40079	95217.3	-113020.5	1	147783.5	-49.88662	1.893151E-009	-0.0791518	5
	50	17	9.93114	108334.6	-128367.7	1	167972.2	-49.83764	2.139475E-009	-0.0791469	5
	51	18	7.944915	123979.8	-145726.9	1	191330.4	-49.60991	-1.634161E-010	-0.0791527	5
	52	18	6.317385	142058.4	-164844	1	217610	-49.24606	3.539443E-010	-0.0791544	5
	53	19	5.008013	162522	-186029.8	1	247023.2	-48.85842	6.880598E-010	-0.0791428	5
	54	20	3.945707	185848.6	-209402.2	1	279980.3	-48.41031	6.344441E-011	-0.079164	5
	55	21	3.158693	209002.2	-234400.9	1	314047.3	-48.2784	3.382038E-010	-0.079151	5
	56	22	2.504006	235045.6	-263110.4	1	352808.1	-48.22448	-1.42706E-010	-0.0791592	5
	57	23	1.998082	261798.6	-296275.4	1	395370.2	-48.53513	-2.489764E-010	-0.0791968	5
	58	25	1.584686	290875.6	-335115.7	1	443746.7	-49.04248	-4.146195E-011	-0.0791514	5
	59	26	1.266892	322671.2	-380338.8	1	498772.8	-49.68945	7.206865E-011	-0.0791337	5
	60	29	0.999041	359195.6	-438761.2	1	567038.7	-50.69423	1.003555E-010	-0.0791273	5
