EXPLAIN
TAG	EISPOT
TITLE	LABEL	Potentiostatic EIS	Test &Identifier
DATE	LABEL	1/21/2020	Date
TIME	LABEL	16:21:03	Time
NOTES	NOTES	6	&Notes...
	
	
	
	
	
	
PSTAT	PSTAT	REF600-11020	Potentiostat
VDC	POTEN	0.00000E+000	T	DC &Voltage (V)
FREQINIT	QUANT	1.00000E+006	Initial Fre&q. (Hz)
FREQFINAL	QUANT	1.00000E+000	Final Fre&q. (Hz)
PTSPERDEC	QUANT	1.00000E+001	Points/&decade
VAC	QUANT	2.50000E+001	AC &Voltage (mV rms)
AREA	QUANT	1.00000E-001	&Area (cm^2)
CONDIT	TWOPARAM	F	5.00000E+000	0.00000E+000	Conditionin&g	Time(s)	E(V)
DELAY	TWOPARAM	F	5.00000E+000	0.00000E+000	Init. De&lay	Time(s)	Stab.(mV/s)
SPEED	SELECTOR	0	&Optimize for:
ZGUESS	QUANT	5.00000E+002	E&stimated Z (ohms)
OCVCURVE	TABLE	39
	Pt	T	Vf	Vm	Ach	Over
	#	s	V vs. Ref.	V	V	bits
	0	0.258333	6.53642E-003	6.53642E-003	6.81546E-004	...........
	1	0.516667	6.53624E-003	6.52676E-003	6.79613E-004	...........
	2	0.775	6.53507E-003	6.51585E-003	6.83679E-004	...........
	3	1.03333	6.53180E-003	6.51305E-003	6.81712E-004	...........
	4	1.29167	6.53067E-003	6.73479E-003	6.87112E-004	...........
	5	1.55	6.54987E-003	6.89216E-003	6.84212E-004	...........
	6	1.80833	6.60927E-003	6.85595E-003	6.85846E-004	...........
	7	2.06667	6.69771E-003	6.75648E-003	6.85246E-004	...........
	8	2.325	6.77046E-003	6.66114E-003	6.84046E-004	...........
	9	2.58333	6.79142E-003	6.67921E-003	6.84846E-004	...........
	10	2.84167	6.76447E-003	6.62903E-003	6.81079E-004	...........
	11	3.1	6.71805E-003	6.59876E-003	6.87079E-004	...........
	12	3.35833	6.67226E-003	6.51129E-003	6.86012E-004	...........
	13	3.61667	6.62862E-003	6.48656E-003	6.83912E-004	...........
	14	3.875	6.58380E-003	6.49312E-003	6.80379E-004	...........
	15	4.13333	6.54157E-003	6.46104E-003	6.80312E-004	...........
	16	4.39167	6.50840E-003	6.45585E-003	6.83479E-004	...........
	17	4.65	6.48504E-003	6.43623E-003	6.83912E-004	...........
	18	4.90833	6.46773E-003	6.42535E-003	6.87379E-004	...........
	19	5.16667	6.45341E-003	6.43088E-003	6.79479E-004	...........
	20	5.425	6.44163E-003	6.42140E-003	6.86579E-004	...........
	21	5.68333	6.43277E-003	6.40439E-003	6.88346E-004	...........
	22	5.94167	6.42524E-003	6.38712E-003	6.82979E-004	...........
	23	6.2	6.41560E-003	6.34611E-003	6.77079E-004	...........
	24	6.45833	6.40092E-003	6.33509E-003	6.71913E-004	...........
	25	6.71667	6.38114E-003	6.32310E-003	6.74246E-004	...........
	26	6.975	6.35981E-003	6.31431E-003	6.80812E-004	...........
	27	7.23333	6.34115E-003	6.31059E-003	6.88746E-004	...........
	28	7.49167	6.32693E-003	6.29393E-003	6.84412E-004	...........
	29	7.75	6.31613E-003	6.28970E-003	6.84779E-004	...........
	30	8.00833	6.30680E-003	6.27830E-003	6.81446E-004	...........
	31	8.26667	6.29780E-003	6.27204E-003	6.79279E-004	...........
	32	8.525	6.28895E-003	6.26220E-003	6.77812E-004	...........
	33	8.78333	6.28035E-003	6.25729E-003	6.78346E-004	...........
	34	9.04167	6.27226E-003	6.25635E-003	6.81146E-004	...........
	35	9.3	6.26519E-003	6.24700E-003	6.78346E-004	...........
	36	9.5583	6.25923E-003	6.24259E-003	6.83412E-004	...........
	37	9.8167	6.25381E-003	6.23595E-003	6.91112E-004	...........
	38	10.075	6.24836E-003	6.23308E-003	6.85212E-004	...........
EOC	QUANT	0.0062484	Open Circuit (V)
PSTATMODEL	IQUANT	4	Pstat Model
PSTATSECTION	LABEL	REF600-11020	Pstat Section
PSTATSERIALNO	LABEL	11020	Pstat Serial Number
CTRLMODE	IQUANT	1	Control Mode
IESTAB	IQUANT	0	I/E Stability
CASPEED	IQUANT	1	Control Amp Speed
CONVENTION	IQUANT	1	Current Convention
ICHRANGE	IQUANT	2	Ich Range
ICHRANGEMODE	TOGGLE	F	Ich Auto Range
ICHOFFSETENABLE	TOGGLE	T	Ich Offset Enable
ICHOFFSET	QUANT	0	Ich Offset (V)
ICHFILTER	IQUANT	3	Ich Filter
VCHRANGE	IQUANT	2	Vch Range
VCHRANGEMODE	TOGGLE	F	Vch Auto Range
VCHOFFSETENABLE	TOGGLE	T	Vch Offset Enable
VCHOFFSET	QUANT	0	Vch Offset (V)
VCHFILTER	IQUANT	3	Vch Filter
ACHRANGE	IQUANT	2	Ach Range
ACHOFFSETENABLE	TOGGLE	F	Ach Offset Enable
ACHOFFSET	QUANT	0	Ach Offset (V)
ACHFILTER	IQUANT	3	Ach Filter
IERANGELOWERLIMIT	IQUANT	1	I/E Range Lower Limit
IERANGEMODE	TOGGLE	F	I/E AutoRange
IERANGE	IQUANT	7	I/E Range
POSFEEDENABLE	TOGGLE	F	Positive Feedback IR Comp
POSFEEDRESISTANCE	QUANT	0	Positive Feedback Resistance (ohm)
ACHSELECT	IQUANT	0	Ach Select
CABLEID	IQUANT	14	Cable ID
DCCALDATE	LABEL	12/22/2019	DC Calibration Date
ACCALDATE	LABEL	12/22/2019	AC Calibration Date
THERMOSELECT	IQUANT	1	Thermo Select
FRAMEWORKVERSION	QUANT	6.33	Framework Version
INSTRUMENTVERSION	LABEL	3.50	Instrument Version
ZCURVE	TABLE
	Pt	Time	Freq	Zreal	Zimag	Zsig	Zmod	Zphz	Idc	Vdc	IERange
	#	s	Hz	ohm	ohm	V	ohm	°	A	V	#
	0	1	1000078	2091.265	-1733.695	1	2716.447	-39.65932	-1.644783E-006	0.0085018	8
	1	1	794390.6	2439.438	-1753.202	1	3004.093	-35.70446	-2.323351E-006	0.008782	8
	2	1	630984.4	2778.294	-1725.886	1	3270.719	-31.84869	-1.931436E-006	0.0084781	8
	3	2	501234.4	3104.733	-1657.358	1	3519.403	-28.09404	7.55129E-007	0.0078073	8
	4	2	398109.4	3392.202	-1539.827	1	3725.333	-24.41479	-1.132883E-006	0.0082635	8
	5	2	316265.6	3640.552	-1404.98	1	3902.255	-21.10285	-9.602395E-007	0.0082224	8
	6	3	251203.1	3851.653	-1261.404	1	4052.946	-18.13346	-2.190932E-006	0.0083429	8
	7	3	199546.9	4022.225	-1112.476	1	4173.235	-15.4605	-8.317563E-007	0.0080196	8
	8	3	158578.1	4165.773	-984.355	1	4280.493	-13.29489	7.766637E-007	0.0076547	8
	9	4	125953.1	4284.734	-839.9963	1	4366.296	-11.09182	-1.344859E-007	0.0081418	7
	10	4	100078.1	4359.683	-748.2407	1	4423.426	-9.73864	5.539433E-008	0.0077538	7
	11	4	79453.13	4430.371	-679.1457	1	4482.123	-8.715209	9.484928E-009	0.0078157	7
	12	5	63140.62	4490.289	-626.8298	1	4533.83	-7.946949	-2.927657E-008	0.0078669	7
	13	5	50203.12	4544.271	-589.14	1	4582.301	-7.386885	9.272129E-008	0.0077326	7
	14	5	39890.62	4594.063	-566.9539	1	4628.915	-7.035307	5.483019E-008	0.0077406	7
	15	6	31640.63	4641.633	-560.488	1	4675.351	-6.885263	-2.799361E-008	0.0078631	7
	16	6	25171.88	4688.272	-567.8304	1	4722.534	-6.905867	-1.338694E-008	0.0079021	7
	17	6	20015.62	4733.115	-587.3342	1	4769.417	-7.073697	-2.947037E-008	0.0078593	7
	18	6	15890.62	4785.013	-626.2404	1	4825.819	-7.456228	9.634961E-009	0.0078027	7
	19	7	12609.37	4838.595	-679.2731	1	4886.042	-7.991325	-3.942954E-008	0.0079005	7
	20	7	10078.13	4892.551	-742.9497	1	4948.639	-8.634583	2.379E-008	0.0078215	7
	21	7	8015.625	4950.59	-838.932	1	5021.17	-9.61803	-1.182889E-008	0.007895	7
	22	8	6328.125	5017.627	-953.862	1	5107.488	-10.76361	5.562249E-008	0.0077319	7
	23	8	5015.625	5090.622	-1097.353	1	5207.554	-12.16475	-1.217269E-008	0.0078999	7
	24	8	3984.375	5168.723	-1270.937	1	5322.686	-13.81439	-2.901091E-008	0.0078541	7
	25	9	3170.956	5256.873	-1482.329	1	5461.869	-15.74735	-2.748884E-008	0.0078573	7
	26	9	2527.573	5354.252	-1740.265	1	5629.968	-18.00545	5.384279E-010	0.0078735	7
	27	9	1976.103	5475.245	-2082.116	1	5857.774	-20.82071	-2.803422E-008	0.0078565	7
	28	10	1577.524	5596.453	-2460.534	1	6113.47	-23.73315	-1.316502E-009	0.0078666	7
	29	10	1265.625	5736.554	-2920.154	1	6437.029	-26.97806	-2.886584E-008	0.0078618	7
	30	10	998.264	5914.134	-3519.157	1	6881.965	-30.75441	6.575652E-008	0.0077328	7
	31	11	796.875	6107.521	-4214.752	1	7420.643	-34.60926	4.900931E-008	0.0078367	7
	32	11	627.7902	6353.151	-5115.32	1	8156.533	-38.83972	4.998161E-008	0.0078385	7
	33	11	505.5147	6616.927	-6101.423	1	9000.615	-42.67894	2.516433E-008	0.0078186	7
	34	12	397.9953	6971.152	-7438.136	1	10194.25	-46.85622	5.136442E-010	0.0078632	6
	35	12	315.5048	7388.559	-9023.063	1	11662.18	-50.68758	9.605968E-010	0.0078588	6
	36	12	252.4038	7878.186	-10869.5	1	13424.3	-54.0655	4.602935E-010	0.0078567	6
	37	12	198.6229	8519.003	-13277.68	1	15775.62	-57.31564	5.399987E-010	0.0078601	6
	38	13	158.3615	9259.022	-16039.24	1	18519.9	-60.00332	3.459438E-010	0.0078616	6
	39	13	125.558	10190.85	-19470.66	1	21976.35	-62.37266	4.349948E-010	0.0078556	6
	40	13	100.4464	11262.48	-23479.11	1	26040.58	-64.37384	2.024036E-010	0.0078523	6
	41	14	79.00281	12650.33	-28689.18	1	31354.42	-66.2052	6.87026E-010	0.0078508	6
	42	14	63.3446	14474.65	-34349.21	1	37274.43	-67.14959	8.721203E-011	0.0078493	6
	43	14	49.86702	16560.25	-42127.3	1	45265.35	-68.5402	-6.709925E-011	0.0078445	6
	44	15	39.72458	18921.08	-51044.64	1	54438.61	-69.66141	2.589347E-011	0.0078485	6
	45	15	31.6723	22010.42	-61840.3	1	65640.55	-70.40816	9.704913E-011	0.0078442	6
	46	16	24.93351	26461.36	-75673.96	1	80167.02	-70.7265	-6.795917E-011	0.0078439	6
	47	16	19.86229	31947.94	-91541.67	1	96956.4	-70.76107	-2.649235E-010	0.0078447	6
	48	16	15.83615	38762.96	-111255	1	117814.4	-70.79087	1.080689E-009	0.0078463	5
	49	16	12.40079	48778.44	-134129.4	1	142723.6	-70.01534	-1.319094E-009	0.0078456	5
	50	17	9.93114	61334.87	-160842.3	1	172140.1	-69.12638	-2.026642E-010	0.0078505	5
	51	17	7.944915	77058.19	-190887	1	205853.9	-68.01682	5.948392E-010	0.0078387	5
	52	18	6.317385	97537.7	-226270.6	1	246398	-66.68073	5.426536E-010	0.0078285	5
	53	19	5.008013	124092.5	-266792	1	294239.5	-65.05553	1.563827E-010	0.0078414	5
	54	20	3.945707	158328.1	-312296.4	1	350138.3	-63.11589	6.18012E-011	0.0078469	5
	55	21	3.158693	196094.2	-359524	1	409524.6	-61.39074	-1.365803E-010	0.0078352	5
	56	23	2.504006	242891.8	-411621.8	1	477942.4	-59.45578	1.823308E-011	0.0078365	5
	57	24	1.998082	294338.1	-466076.8	1	551237.3	-57.72666	1.987957E-010	0.0078736	5
	58	26	1.584686	352430.5	-524745.1	1	632111.3	-56.11382	6.154784E-011	0.0078325	5
	59	28	1.266892	416015.4	-587191.4	1	719626.8	-54.68306	-1.957162E-011	0.0077941	5
	60	30	0.999041	488586.6	-662428.3	1	823120.9	-53.58867	-7.187825E-011	0.0077911	5
