EXPLAIN
TAG	EISPOT
TITLE	LABEL	Potentiostatic EIS	Test &Identifier
DATE	LABEL	3/17/2020	Date
TIME	LABEL	15:30:58	Time
NOTES	NOTES	1	&Notes...
	
PSTAT	PSTAT	REF600-11020	Potentiostat
VDC	POTEN	0.00000E+000	T	DC &Voltage (V)
FREQINIT	QUANT	1.00000E+006	Initial Fre&q. (Hz)
FREQFINAL	QUANT	1.00000E+000	Final Fre&q. (Hz)
PTSPERDEC	QUANT	1.00000E+001	Points/&decade
VAC	QUANT	2.50000E+001	AC &Voltage (mV rms)
AREA	QUANT	4.00000E-004	&Area (cm^2)
CONDIT	TWOPARAM	F	5.00000E+000	0.00000E+000	Conditionin&g	Time(s)	E(V)
DELAY	TWOPARAM	T	3.00000E+000	0.00000E+000	Init. De&lay	Time(s)	Stab.(mV/s)
SPEED	SELECTOR	0	&Optimize for:
ZGUESS	QUANT	5.00000E+003	E&stimated Z (ohms)
OCVCURVE	TABLE	12
	Pt	T	Vf	Vm	Ach	Over
	#	s	V vs. Ref.	V	V	bits
	0	0.258333	-2.25598E-003	-2.25598E-003	5.97730E-004	...........
	1	0.516667	-2.25599E-003	-2.25637E-003	5.96430E-004	...........
	2	0.775	-2.25615E-003	-2.26278E-003	5.91630E-004	...........
	3	1.03333	-2.25694E-003	-2.26610E-003	5.97496E-004	...........
	4	1.29167	-2.25883E-003	-2.26854E-003	5.95963E-004	...........
	5	1.55	-2.26178E-003	-2.27379E-003	5.92530E-004	...........
	6	1.80833	-2.26540E-003	-2.28232E-003	5.94196E-004	...........
	7	2.06667	-2.26961E-003	-2.28201E-003	5.99296E-004	...........
	8	2.325	-2.27426E-003	-2.28749E-003	6.01196E-004	...........
	9	2.58333	-2.27884E-003	-2.29156E-003	5.94530E-004	...........
	10	2.84167	-2.28305E-003	-2.29403E-003	5.93663E-004	...........
	11	3.1	-2.28699E-003	-2.29928E-003	5.97830E-004	...........
EOC	QUANT	-0.002287	Open Circuit (V)
PSTATMODEL	IQUANT	4	Pstat Model
PSTATSECTION	LABEL	REF600-11020	Pstat Section
PSTATSERIALNO	LABEL	11020	Pstat Serial Number
CTRLMODE	IQUANT	1	Control Mode
IESTAB	IQUANT	0	I/E Stability
CASPEED	IQUANT	1	Control Amp Speed
CONVENTION	IQUANT	1	Current Convention
ICHRANGE	IQUANT	2	Ich Range
ICHRANGEMODE	TOGGLE	F	Ich Auto Range
ICHOFFSETENABLE	TOGGLE	T	Ich Offset Enable
ICHOFFSET	QUANT	0	Ich Offset (V)
ICHFILTER	IQUANT	3	Ich Filter
VCHRANGE	IQUANT	2	Vch Range
VCHRANGEMODE	TOGGLE	F	Vch Auto Range
VCHOFFSETENABLE	TOGGLE	T	Vch Offset Enable
VCHOFFSET	QUANT	0	Vch Offset (V)
VCHFILTER	IQUANT	3	Vch Filter
ACHRANGE	IQUANT	2	Ach Range
ACHOFFSETENABLE	TOGGLE	F	Ach Offset Enable
ACHOFFSET	QUANT	0	Ach Offset (V)
ACHFILTER	IQUANT	3	Ach Filter
IERANGELOWERLIMIT	IQUANT	1	I/E Range Lower Limit
IERANGEMODE	TOGGLE	F	I/E AutoRange
IERANGE	IQUANT	5	I/E Range
POSFEEDENABLE	TOGGLE	F	Positive Feedback IR Comp
POSFEEDRESISTANCE	QUANT	0	Positive Feedback Resistance (ohm)
ACHSELECT	IQUANT	0	Ach Select
CABLEID	IQUANT	14	Cable ID
DCCALDATE	LABEL	2/27/2020	DC Calibration Date
ACCALDATE	LABEL	2/27/2020	AC Calibration Date
THERMOSELECT	IQUANT	1	Thermo Select
FRAMEWORKVERSION	QUANT	6.33	Framework Version
INSTRUMENTVERSION	LABEL	3.50	Instrument Version
ZCURVE	TABLE
	Pt	Time	Freq	Zreal	Zimag	Zsig	Zmod	Zphz	Idc	Vdc	IERange
	#	s	Hz	ohm	ohm	V	ohm	°	A	V	#
	0	1	1000078	2065.406	-2063.148	1	2919.329	-44.96867	2.280865E-008	0.0001733	8
	1	1	794390.6	2461.02	-2187.002	1	3292.354	-41.6261	7.201441E-008	-0.0001594	8
	2	1	630984.4	2887.578	-2262.843	1	3668.592	-38.08392	4.614928E-008	-0.0003504	8
	3	2	501234.4	3324.039	-2275.22	1	4028.134	-34.39065	6.535118E-008	-0.0004496	8
	4	2	398109.4	3752.768	-2239.16	1	4370.024	-30.82321	3.906368E-008	-0.0005253	8
	5	2	316265.6	4128.617	-2168.447	1	4663.436	-27.70951	4.004516E-008	-0.0005628	8
	6	3	251203.1	4500.285	-2049.925	1	4945.175	-24.48974	4.639138E-008	-0.0005805	8
	7	3	199546.9	4826.033	-1901.365	1	5187.079	-21.5035	4.42881E-008	-0.0005793	8
	8	3	158578.1	5109.475	-1748.027	1	5400.216	-18.88658	4.256485E-008	-0.0005881	8
	9	4	125953.1	5394.892	-1511.449	1	5602.619	-15.65091	6.15448E-009	-0.0006423	7
	10	4	100078.1	5585.969	-1362.719	1	5749.787	-13.70975	2.886281E-010	-0.0006517	7
	11	4	79453.13	5750.332	-1250.499	1	5884.731	-12.26883	9.91879E-010	-0.0006498	7
	12	4	63140.62	5879.283	-1167.622	1	5994.106	-11.23275	4.308561E-010	-0.0006633	7
	13	5	50203.12	5999.669	-1090.271	1	6097.927	-10.2995	3.487633E-010	-0.0006701	7
	14	5	39890.62	6109.449	-1034.334	1	6196.387	-9.6091	-1.896185E-010	-0.0006732	7
	15	5	31640.63	6211.359	-1001.13	1	6291.522	-9.156036	5.194074E-010	-0.0006624	7
	16	6	25171.88	6303.252	-989.291	1	6380.415	-8.91977	1.014496E-009	-0.0006622	7
	17	6	20015.62	6395.374	-1000.036	1	6473.089	-8.887296	5.648927E-010	-0.000672	7
	18	6	15890.62	6486.953	-1033.44	1	6568.756	-9.051756	5.509749E-010	-0.0006737	7
	19	7	12609.37	6582.289	-1093.03	1	6672.424	-9.428291	4.503214E-010	-0.0006687	7
	20	7	10078.13	6678.893	-1173.38	1	6781.182	-9.96431	6.209822E-010	-0.0006719	7
	21	7	8015.625	6784.295	-1282.314	1	6904.418	-10.70333	1.316696E-009	-0.0006679	7
	22	8	6328.125	6902.47	-1429.96	1	7049.034	-11.7042	1.475006E-009	-0.0006744	7
	23	8	5015.625	7028.732	-1611.488	1	7211.1	-12.91312	2.469521E-009	-0.0006705	7
	24	8	3984.375	7168.251	-1831.345	1	7398.49	-14.33137	1.887084E-009	-0.0006777	7
	25	9	3170.956	7323.414	-2097.353	1	7617.827	-15.98118	8.679052E-010	-0.0006759	7
	26	9	2527.573	7493.995	-2411.888	1	7872.558	-17.8404	1.052287E-009	-0.0006834	7
	27	9	1976.103	7705.897	-2829.606	1	8208.99	-20.16324	1.864275E-009	-0.0006733	7
	28	10	1577.524	7924.529	-3285.392	1	8578.575	-22.51817	1.537837E-009	-0.0006794	7
	29	10	1265.625	8164.66	-3823.076	1	9015.408	-25.0912	2.129483E-009	-0.0006774	7
	30	10	998.264	8461.439	-4503.614	1	9585.33	-28.02421	-5.542822E-010	-0.0006341	6
	31	11	796.875	8777.197	-5300.266	1	10253.39	-31.12642	-3.927277E-010	-0.0006388	6
	32	11	627.7902	9151.963	-6319.607	1	11121.86	-34.62583	-1.68831E-010	-0.0006289	6
	33	11	505.5147	9551.21	-7444.838	1	12109.97	-37.93517	-3.216243E-010	-0.0006284	6
	34	11	397.9953	10063.08	-8944.997	1	13463.97	-41.63365	3.610955E-010	-0.0006192	6
	35	12	315.5048	10653.64	-10722.15	1	15115.04	-45.18364	2.949046E-010	-0.0006172	6
	36	12	252.4038	11332.27	-12789.64	1	17087.87	-48.45742	3.53E-010	-0.0006194	6
	37	12	198.6229	12219.41	-15484.44	1	19725.16	-51.72157	3.491037E-010	-0.0006213	6
	38	13	158.3615	13250.57	-18574.57	1	22816.5	-54.49702	4.290005E-010	-0.000627	6
	39	13	125.558	14564.81	-22395.44	1	26714.97	-56.96216	4.109643E-010	-0.0006248	6
	40	13	100.4464	16141.85	-26808.47	1	31293.03	-58.94712	5.352881E-010	-0.0006273	6
	41	14	79.00281	18293.21	-32518.53	1	37310.81	-60.64019	2.289963E-010	-0.0006301	6
	42	14	63.3446	20808.81	-38791.36	1	44020.18	-61.7896	1.317924E-010	-0.0006326	6
	43	14	49.86702	24286.08	-46857.61	1	52777.35	-62.6025	2.622188E-011	-0.0006316	6
	44	15	39.72458	28528.77	-55912.16	1	62769.89	-62.96738	1.010299E-010	-0.0006249	6
	45	15	31.6723	33916.93	-66421.66	1	74580.12	-62.94976	4.276316E-010	-0.000638	6
	46	15	24.93351	41209.86	-79276.7	1	89347.91	-62.53355	-5.37147E-010	-0.0006353	6
	47	16	19.86229	49927.35	-93130.78	1	105669.7	-61.80427	-1.53602E-009	-0.0006292	5
	48	16	15.83615	60806.89	-108695.5	1	124547.9	-60.7763	4.247527E-011	-0.0006318	5
	49	16	12.40079	75378.22	-127278.3	1	147924.5	-59.36465	-1.440632E-009	-0.0006264	5
	50	17	9.93114	90945.59	-145689.7	1	171745.7	-58.02587	-1.026398E-009	-0.0006322	5
	51	17	7.944915	109589.6	-165357.6	1	198376	-56.46587	1.223218E-009	-0.0006307	5
	52	17	6.317385	131711.8	-187407.7	1	229062.5	-54.90012	-3.602234E-010	-0.0006179	5
	53	18	5.008013	157251.2	-211156.7	1	263277.6	-53.32446	-6.267648E-010	-0.0006338	5
	54	19	3.945707	186819.4	-236180	1	301135.4	-51.65585	2.108577E-010	-0.0006237	5
	55	20	3.158693	217074.3	-261713.2	1	340022.1	-50.32646	-3.178555E-010	-0.0006375	5
	56	21	2.504006	250992.9	-289084.3	1	382841	-49.03437	1.37758E-010	-0.0006421	5
	57	22	1.998082	285804.1	-318987.9	1	428295.8	-48.14057	3.642662E-010	-0.0006097	5
	58	24	1.584686	322415.9	-351959.1	1	477312.5	-47.50843	1.437765E-010	-0.0006532	5
	59	26	1.266892	360739	-389253	1	530707.6	-47.17729	3.918315E-011	-0.0006734	5
	60	28	0.999041	402594.4	-437223.2	1	594345.3	-47.36118	-4.699886E-012	-0.0006734	5
