EXPLAIN
TAG	EISPOT
TITLE	LABEL	Potentiostatic EIS	Test &Identifier
DATE	LABEL	6/14/2020	Date
TIME	LABEL	20:45:33	Time
NOTES	NOTES	1	&Notes...
	
PSTAT	PSTAT	REF600-10037	Potentiostat
VDC	POTEN	0.00000E+000	T	DC &Voltage (V)
FREQINIT	QUANT	1.00000E+006	Initial Fre&q. (Hz)
FREQFINAL	QUANT	1.00000E+000	Final Fre&q. (Hz)
PTSPERDEC	QUANT	1.00000E+001	Points/&decade
VAC	QUANT	2.50000E+001	AC &Voltage (mV rms)
AREA	QUANT	2.50000E-001	&Area (cm^2)
CONDIT	TWOPARAM	F	5.00000E+000	0.00000E+000	Conditionin&g	Time(s)	E(V)
DELAY	TWOPARAM	F	3.00000E+000	0.00000E+000	Init. De&lay	Time(s)	Stab.(mV/s)
SPEED	SELECTOR	0	&Optimize for:
ZGUESS	QUANT	1.00000E+003	E&stimated Z (ohms)
OCVCURVE	TABLE	39
	Pt	T	Vf	Vm	Ach	Over
	#	s	V vs. Ref.	V	V	bits
	0	0.258333	-4.75407E-002	-4.75407E-002	5.40887E-004	...........
	1	0.516667	-4.75531E-002	-4.81897E-002	5.42054E-004	...........
	2	0.775	-4.76294E-002	-4.88155E-002	5.41921E-004	...........
	3	1.03333	-4.78464E-002	-4.94329E-002	5.42554E-004	...........
	4	1.29167	-4.82376E-002	-5.00466E-002	5.43587E-004	...........
	5	1.55	-4.87649E-002	-5.06378E-002	5.40621E-004	...........
	6	1.80833	-4.93605E-002	-5.12170E-002	5.35321E-004	...........
	7	2.06667	-4.99721E-002	-5.17752E-002	5.36554E-004	...........
	8	2.325	-5.05737E-002	-5.23267E-002	5.39787E-004	...........
	9	2.58333	-5.11577E-002	-5.28801E-002	5.37987E-004	...........
	10	2.84167	-5.17256E-002	-5.34109E-002	5.38321E-004	...........
	11	3.1	-5.22813E-002	-5.39308E-002	5.38254E-004	...........
	12	3.35833	-5.28263E-002	-5.44461E-002	5.38787E-004	...........
	13	3.61667	-5.33606E-002	-5.49464E-002	5.39387E-004	...........
	14	3.875	-5.38845E-002	-5.54541E-002	5.39887E-004	...........
	15	4.13333	-5.43992E-002	-5.59371E-002	5.45554E-004	...........
	16	4.39167	-5.49058E-002	-5.64178E-002	5.42354E-004	...........
	17	4.65	-5.54040E-002	-5.68846E-002	5.38787E-004	...........
	18	4.90833	-5.58930E-002	-5.73481E-002	5.36987E-004	...........
	19	5.16667	-5.63729E-002	-5.78087E-002	5.38354E-004	...........
	20	5.425	-5.68445E-002	-5.82586E-002	5.36854E-004	...........
	21	5.68333	-5.73089E-002	-5.86990E-002	5.42254E-004	...........
	22	5.94167	-5.77664E-002	-5.91275E-002	5.33854E-004	...........
	23	6.2	-5.82161E-002	-5.95542E-002	5.37587E-004	...........
	24	6.45833	-5.86573E-002	-5.99734E-002	5.34421E-004	...........
	25	6.71667	-5.90907E-002	-6.03952E-002	5.29854E-004	...........
	26	6.975	-5.95177E-002	-6.08026E-002	5.30754E-004	...........
	27	7.23333	-5.99393E-002	-6.12045E-002	5.31621E-004	...........
	28	7.49167	-6.03555E-002	-6.16003E-002	5.30487E-004	...........
	29	7.75	-6.07653E-002	-6.19904E-002	5.30987E-004	...........
	30	8.00833	-6.11686E-002	-6.23784E-002	5.35287E-004	...........
	31	8.26667	-6.15657E-002	-6.27565E-002	5.39687E-004	...........
	32	8.525	-6.19573E-002	-6.31431E-002	5.37287E-004	...........
	33	8.78333	-6.23444E-002	-6.35114E-002	5.33387E-004	...........
	34	9.04167	-6.27273E-002	-6.38779E-002	5.38021E-004	...........
	35	9.3	-6.31055E-002	-6.42324E-002	5.35987E-004	...........
	36	9.5583	-6.34777E-002	-6.45889E-002	5.37254E-004	...........
	37	9.8167	-6.38435E-002	-6.49418E-002	5.36154E-004	...........
	38	10.075	-6.42036E-002	-6.52879E-002	5.41287E-004	...........
EOC	QUANT	-0.0642036	Open Circuit (V)
PSTATMODEL	IQUANT	4	Pstat Model
PSTATSECTION	LABEL	REF600-10037	Pstat Section
PSTATSERIALNO	LABEL	10037	Pstat Serial Number
CTRLMODE	IQUANT	1	Control Mode
IESTAB	IQUANT	0	I/E Stability
CASPEED	IQUANT	1	Control Amp Speed
CONVENTION	IQUANT	1	Current Convention
ICHRANGE	IQUANT	2	Ich Range
ICHRANGEMODE	TOGGLE	F	Ich Auto Range
ICHOFFSETENABLE	TOGGLE	T	Ich Offset Enable
ICHOFFSET	QUANT	0	Ich Offset (V)
ICHFILTER	IQUANT	3	Ich Filter
VCHRANGE	IQUANT	2	Vch Range
VCHRANGEMODE	TOGGLE	F	Vch Auto Range
VCHOFFSETENABLE	TOGGLE	T	Vch Offset Enable
VCHOFFSET	QUANT	0	Vch Offset (V)
VCHFILTER	IQUANT	3	Vch Filter
ACHRANGE	IQUANT	2	Ach Range
ACHOFFSETENABLE	TOGGLE	F	Ach Offset Enable
ACHOFFSET	QUANT	0	Ach Offset (V)
ACHFILTER	IQUANT	3	Ach Filter
IERANGELOWERLIMIT	IQUANT	1	I/E Range Lower Limit
IERANGEMODE	TOGGLE	F	I/E AutoRange
IERANGE	IQUANT	8	I/E Range
POSFEEDENABLE	TOGGLE	F	Positive Feedback IR Comp
POSFEEDRESISTANCE	QUANT	0	Positive Feedback Resistance (ohm)
ACHSELECT	IQUANT	0	Ach Select
CABLEID	IQUANT	14	Cable ID
DCCALDATE	LABEL	6/8/2020	DC Calibration Date
ACCALDATE	LABEL	6/8/2020	AC Calibration Date
THERMOSELECT	IQUANT	1	Thermo Select
FRAMEWORKVERSION	QUANT	6.33	Framework Version
INSTRUMENTVERSION	LABEL	3.50	Instrument Version
ZCURVE	TABLE
	Pt	Time	Freq	Zreal	Zimag	Zsig	Zmod	Zphz	Idc	Vdc	IERange
	#	s	Hz	ohm	ohm	V	ohm	°	A	V	#
	0	1	1000078	2325.823	-1942.915	1	3030.572	-39.87426	-1.296288E-008	-0.0551183	8
	1	2	794390.6	2728.35	-1970.13	1	3365.309	-35.83288	3.968237E-007	-0.0554512	8
	2	2	630984.4	3129.672	-1939.236	1	3681.777	-31.78356	-7.186208E-008	-0.0555505	8
	3	2	501234.4	3501.185	-1843.563	1	3956.896	-27.76923	-6.046484E-008	-0.0556287	8
	4	3	398109.4	3829.791	-1704.238	1	4191.864	-23.98883	-8.052272E-008	-0.0556465	8
	5	3	316265.6	4101.956	-1541.541	1	4382.053	-20.59653	1.064197E-007	-0.0556716	8
	6	3	251203.1	4324.925	-1375.586	1	4538.416	-17.64379	1.125157E-007	-0.0556576	8
	7	4	199546.9	4504.438	-1212.609	1	4664.803	-15.06701	-2.350982E-009	-0.055647	8
	8	4	158578.1	4641.121	-1071.1	1	4763.115	-12.99547	4.692046E-007	-0.0557012	8
	9	4	125953.1	4842.276	-760.277	1	4901.597	-8.92306	2.658403E-007	-0.0560735	7
	10	5	100078.1	4910.626	-687.8744	1	4958.571	-7.974035	-3.474714E-008	-0.0555857	7
	11	5	79453.13	4970.515	-635.5344	1	5010.98	-7.286354	-6.717814E-008	-0.0555823	7
	12	5	63140.62	5025.939	-599.2211	1	5061.535	-6.799034	-3.494246E-008	-0.0555974	7
	13	6	50203.12	5077.497	-577.73	1	5110.259	-6.491337	-1.398961E-008	-0.0556191	7
	14	6	39890.62	5128.973	-569.8128	1	5160.528	-6.339385	6.023455E-008	-0.0557131	7
	15	6	31640.63	5181.08	-575.8395	1	5212.982	-6.341983	-1.618524E-008	-0.0557352	7
	16	6	25171.88	5233.677	-594.9068	1	5267.38	-6.484919	-5.487179E-008	-0.0555987	7
	17	7	20015.62	5287.896	-627.5775	1	5325.007	-6.768312	-1.364274E-008	-0.0556207	7
	18	7	15890.62	5346.809	-675.1709	1	5389.269	-7.19696	7.375976E-008	-0.0557814	7
	19	7	12609.37	5408.621	-738.127	1	5458.755	-7.771279	7.229705E-008	-0.0557383	7
	20	8	10078.13	5473.941	-816.4564	1	5534.495	-8.483315	7.474111E-008	-0.0557828	7
	21	8	8015.625	5545.255	-914.7802	1	5620.203	-9.367505	-7.342439E-008	-0.0556294	7
	22	8	6328.125	5625.196	-1040.634	1	5720.643	-10.48095	7.363627E-008	-0.055786	7
	23	9	5015.625	5712.427	-1191.075	1	5835.279	-11.77777	-3.415966E-008	-0.055606	7
	24	9	3984.375	5804.124	-1374.414	1	5964.634	-13.32222	-7.413231E-008	-0.0556336	7
	25	9	3170.956	5908.318	-1595.119	1	6119.855	-15.10843	7.634944E-008	-0.0557683	7
	26	10	2527.573	6018.222	-1860.068	1	6299.115	-17.17495	5.547658E-008	-0.0558014	7
	27	10	1976.103	6150.841	-2216.588	1	6538.05	-19.81772	-1.496801E-008	-0.055746	7
	28	10	1577.524	6285.482	-2613.153	1	6807.045	-22.57482	1.191282E-008	-0.0556486	7
	29	10	1265.625	6435.894	-3090.427	1	7139.43	-25.64967	3.783356E-008	-0.055791	7
	30	11	998.264	6619.026	-3711.635	1	7588.659	-29.28164	-5.129009E-008	-0.0556039	7
	31	11	796.875	6816.844	-4441.141	1	8135.914	-33.08405	3.371377E-008	-0.0556719	7
	32	11	627.7902	7066.586	-5387.467	1	8886.025	-37.32139	-7.21768E-008	-0.0556078	7
	33	12	505.5147	7342.363	-6425.229	1	9756.73	-41.18885	1.059914E-008	-0.0557601	6
	34	12	397.9953	7689.188	-7840.244	1	10981.49	-45.5573	1.510566E-009	-0.0556838	6
	35	12	315.5048	8102.066	-9532.98	1	12510.84	-49.63884	1.568384E-009	-0.0556862	6
	36	13	252.4038	8585.142	-11513.33	1	14361.8	-53.28921	1.462829E-009	-0.0556855	6
	37	13	198.6229	9222.908	-14110.81	1	16857.55	-56.83113	1.409505E-009	-0.0556829	6
	38	13	158.3615	9969.81	-17109.72	1	19802.52	-59.7707	1.264682E-009	-0.0556849	6
	39	13	125.558	10918.31	-20844.54	1	23530.92	-62.35459	1.405311E-009	-0.0556861	6
	40	14	100.4464	12045.08	-25196.21	1	27927.28	-64.44981	1.264489E-009	-0.0556884	6
	41	14	79.00281	13557.64	-30897.5	1	33741.15	-66.30841	1.215373E-009	-0.0556891	6
	42	14	63.3446	15281.47	-37217.77	1	40232.89	-67.67715	1.225686E-009	-0.0556867	6
	43	15	49.86702	17633.14	-45572.23	1	48864.67	-68.84718	1.152077E-009	-0.0556869	6
	44	15	39.72458	20446.44	-55228.92	1	58892.19	-69.68481	1.254817E-009	-0.0556845	6
	45	16	31.6723	23990.7	-66819.37	1	70995.64	-70.24993	9.94793E-010	-0.055684	6
	46	16	24.93351	28806	-81634.05	1	86567.34	-70.56372	1.335728E-009	-0.0556872	6
	47	16	19.86229	34506.12	-97942.4	1	103843.1	-70.59211	-3.143469E-009	-0.064324	6
	48	17	15.83615	41755.2	-117476.7	1	124676.7	-70.43307	-2.263849E-009	-0.0643272	5
	49	17	12.40079	52263.32	-143327.4	1	152558.8	-69.96597	-1.392853E-009	-0.0643227	5
	50	17	9.93114	64654.24	-171046.8	1	182858.3	-69.29383	-9.445033E-010	-0.0643188	5
	51	18	7.944915	80205.78	-203082.3	1	218347	-68.44884	-5.414874E-010	-0.0643179	5
	52	18	6.317385	100866.3	-241457.9	1	261679	-67.32782	-1.954464E-010	-0.0643169	5
	53	19	5.008013	126735.5	-285730.7	1	312576.2	-66.08037	7.385989E-011	-0.0643233	5
	54	20	3.945707	159534.9	-337236.8	1	373068.4	-64.68282	2.383116E-010	-0.0643246	5
	55	21	3.158693	196325	-391052.2	1	437567.5	-63.34138	3.603624E-010	-0.0643229	5
	56	22	2.504006	242882.7	-454072.5	1	514950.3	-61.85774	4.858454E-010	-0.0643261	5
	57	24	1.998082	294196.5	-521651.1	1	598891.8	-60.57823	5.362737E-010	-0.0643256	5
	58	26	1.584686	354776.5	-599187.8	1	696342.1	-59.37041	6.377548E-010	-0.0643303	5
	59	29	1.266892	420895.5	-683009.4	1	802281	-58.3571	6.844595E-010	-0.0643313	5
	60	32	0.999041	499695.7	-783936.4	1	929651.6	-57.48581	6.667433E-010	-0.0643302	5
