EXPLAIN
TAG	EISPOT
TITLE	LABEL	Potentiostatic EIS	Test &Identifier
DATE	LABEL	3/12/2020	Date
TIME	LABEL	14:13:26	Time
NOTES	NOTES	1	&Notes...
	
PSTAT	PSTAT	REF600-11020	Potentiostat
VDC	POTEN	0.00000E+000	T	DC &Voltage (V)
FREQINIT	QUANT	1.00000E+006	Initial Fre&q. (Hz)
FREQFINAL	QUANT	1.00000E+000	Final Fre&q. (Hz)
PTSPERDEC	QUANT	1.00000E+001	Points/&decade
VAC	QUANT	2.50000E+001	AC &Voltage (mV rms)
AREA	QUANT	2.50000E-001	&Area (cm^2)
CONDIT	TWOPARAM	F	5.00000E+000	0.00000E+000	Conditionin&g	Time(s)	E(V)
DELAY	TWOPARAM	T	5.00000E+000	0.00000E+000	Init. De&lay	Time(s)	Stab.(mV/s)
SPEED	SELECTOR	1	&Optimize for:
ZGUESS	QUANT	5.00000E+003	E&stimated Z (ohms)
OCVCURVE	TABLE	19
	Pt	T	Vf	Vm	Ach	Over
	#	s	V vs. Ref.	V	V	bits
	0	0.258333	-1.03636E-001	-1.03636E-001	5.83563E-004	...........
	1	0.516667	-1.03627E-001	-1.03167E-001	5.87030E-004	...........
	2	0.775	-1.03590E-001	-1.03668E-001	5.88030E-004	...........
	3	1.03333	-1.03540E-001	-1.03837E-001	5.94496E-004	...........
	4	1.29167	-1.03535E-001	-1.03754E-001	5.88330E-004	...........
	5	1.55	-1.03598E-001	-1.03716E-001	5.87096E-004	...........
	6	1.80833	-1.03676E-001	-1.03643E-001	5.87963E-004	...........
	7	2.06667	-1.03724E-001	-1.04066E-001	5.88497E-004	...........
	8	2.325	-1.03760E-001	-1.04036E-001	5.86796E-004	...........
	9	2.58333	-1.03826E-001	-1.04140E-001	5.87596E-004	...........
	10	2.84167	-1.03925E-001	-1.04239E-001	5.90663E-004	...........
	11	3.1	-1.04028E-001	-1.04081E-001	5.90096E-004	...........
	12	3.35833	-1.04106E-001	-1.04212E-001	5.89563E-004	...........
	13	3.61667	-1.04151E-001	-1.04316E-001	5.90196E-004	...........
	14	3.875	-1.04184E-001	-1.04381E-001	5.88730E-004	...........
	15	4.13333	-1.04231E-001	-1.04445E-001	5.89730E-004	...........
	16	4.39167	-1.04294E-001	-1.04487E-001	5.91163E-004	...........
	17	4.65	-1.04363E-001	-1.04518E-001	5.90363E-004	...........
	18	4.90833	-1.04424E-001	-1.04554E-001	5.89363E-004	...........
EOC	QUANT	-0.1044245	Open Circuit (V)
PSTATMODEL	IQUANT	4	Pstat Model
PSTATSECTION	LABEL	REF600-11020	Pstat Section
PSTATSERIALNO	LABEL	11020	Pstat Serial Number
CTRLMODE	IQUANT	1	Control Mode
IESTAB	IQUANT	0	I/E Stability
CASPEED	IQUANT	1	Control Amp Speed
CONVENTION	IQUANT	1	Current Convention
ICHRANGE	IQUANT	2	Ich Range
ICHRANGEMODE	TOGGLE	F	Ich Auto Range
ICHOFFSETENABLE	TOGGLE	T	Ich Offset Enable
ICHOFFSET	QUANT	0	Ich Offset (V)
ICHFILTER	IQUANT	3	Ich Filter
VCHRANGE	IQUANT	2	Vch Range
VCHRANGEMODE	TOGGLE	F	Vch Auto Range
VCHOFFSETENABLE	TOGGLE	T	Vch Offset Enable
VCHOFFSET	QUANT	0	Vch Offset (V)
VCHFILTER	IQUANT	3	Vch Filter
ACHRANGE	IQUANT	2	Ach Range
ACHOFFSETENABLE	TOGGLE	F	Ach Offset Enable
ACHOFFSET	QUANT	0	Ach Offset (V)
ACHFILTER	IQUANT	3	Ach Filter
IERANGELOWERLIMIT	IQUANT	1	I/E Range Lower Limit
IERANGEMODE	TOGGLE	F	I/E AutoRange
IERANGE	IQUANT	7	I/E Range
POSFEEDENABLE	TOGGLE	F	Positive Feedback IR Comp
POSFEEDRESISTANCE	QUANT	0	Positive Feedback Resistance (ohm)
ACHSELECT	IQUANT	0	Ach Select
CABLEID	IQUANT	14	Cable ID
DCCALDATE	LABEL	2/27/2020	DC Calibration Date
ACCALDATE	LABEL	2/27/2020	AC Calibration Date
THERMOSELECT	IQUANT	1	Thermo Select
FRAMEWORKVERSION	QUANT	6.33	Framework Version
INSTRUMENTVERSION	LABEL	3.50	Instrument Version
ZCURVE	TABLE
	Pt	Time	Freq	Zreal	Zimag	Zsig	Zmod	Zphz	Idc	Vdc	IERange
	#	s	Hz	ohm	ohm	V	ohm	°	A	V	#
	0	1	1000078	1473.915	-2856.923	1	3214.721	-62.71035	1.263542E-006	-0.1019438	8
	1	3	794390.6	1789.884	-3349.423	1	3797.673	-61.88059	8.747501E-007	-0.1026935	8
	2	4	630984.4	2151.957	-3939.125	1	4488.61	-61.35207	-5.860394E-007	-0.1025504	8
	3	5	501234.4	2606.159	-4564.641	1	5256.235	-60.276	2.449562E-007	-0.1027842	8
	4	7	398109.4	3135.834	-5339.583	1	6192.301	-59.5751	1.156313E-006	-0.1029195	8
	5	8	316265.6	3837.518	-6137.819	1	7238.741	-57.98534	9.76728E-007	-0.1029918	8
	6	10	251203.1	4637.102	-7046.434	1	8435.339	-56.65197	7.001611E-007	-0.1029481	8
	7	13	199546.9	5703.768	-8007.553	1	9831.27	-54.53779	6.25745E-007	-0.1029654	8
	8	14	158578.1	6900.346	-9146.841	1	11457.73	-52.96922	1.559478E-006	-0.1030022	8
	9	16	125953.1	8476.253	-10027.99	1	13130.4	-49.79352	-9.488214E-007	-0.1009015	7
	10	17	100078.1	10132.59	-11013.16	1	14965.26	-47.38459	2.038743E-008	-0.1028487	7
	11	19	79453.13	12048.59	-11912.56	1	16943.37	-44.67472	3.464999E-008	-0.1029593	7
	12	20	63140.62	14127.58	-12664.96	1	18973.39	-41.8753	1.550926E-008	-0.1028568	7
	13	21	50203.12	16294.8	-13199.98	1	20970.46	-39.01	-2.914995E-008	-0.1028524	7
	14	23	39890.62	18532.15	-13586.22	1	22978.81	-36.24575	-6.892382E-009	-0.1028229	7
	15	24	31640.63	20717.47	-13804.63	1	24895.41	-33.67663	-4.236441E-008	-0.1028445	7
	16	25	25171.88	22840.9	-13992.83	1	26786.3	-31.49253	2.102595E-008	-0.1028687	7
	17	27	20015.62	24780.8	-14071.24	1	28497.15	-29.58914	-3.280623E-008	-0.1028738	7
	18	28	15890.62	26741.77	-14291.24	1	30320.98	-28.12078	8.568156E-009	-0.1028934	7
	19	29	12609.37	28733.38	-14431.44	1	32153.91	-26.66825	2.058473E-009	-0.1027792	6
	20	31	10078.13	30503.91	-14873.97	1	33937.05	-25.99426	3.386293E-009	-0.102781	6
	21	32	8015.625	32303.03	-15541.79	1	35847.36	-25.69337	-3.456608E-009	-0.1027225	6
	22	34	6328.125	34276.25	-16475.74	1	38030.4	-25.67243	8.544607E-009	-0.1029004	6
	23	35	5015.625	36190.67	-17521.62	1	40209.1	-25.83382	-8.709658E-010	-0.1028707	6
	24	36	3984.375	38303.55	-18847.26	1	42689.35	-26.19949	1.129121E-008	-0.103038	6
	25	38	3170.956	40498.31	-20402.2	1	45347.14	-26.738	-7.187587E-010	-0.1029243	6
	26	39	2527.573	42893.32	-22238.05	1	48315.3	-27.40448	-2.694481E-009	-0.1028345	6
	27	40	1976.103	45742.05	-24594.66	1	51934.89	-28.2661	-2.497265E-009	-0.1028399	6
	28	42	1577.524	48611.66	-27026.45	1	55619.45	-29.07259	-5.848471E-009	-0.1027355	6
	29	43	1265.625	51709.93	-29802.32	1	59683.29	-29.95642	8.914815E-009	-0.1028913	6
	30	45	998.264	55394.86	-33118.29	1	64540	-30.87345	-7.71302E-009	-0.1027137	6
	31	46	796.875	59337.46	-36824.2	1	69835.2	-31.8233	-2.927188E-009	-0.1027647	6
	32	47	627.7902	63960.73	-41235.29	1	76100.76	-32.80975	-8.914459E-009	-0.1027107	6
	33	49	505.5147	68699.41	-45571.89	1	82440.32	-33.55838	-2.926183E-010	-0.1027805	6
	34	50	397.9953	74538.35	-51363.1	1	90521.45	-34.57006	6.410802E-010	-0.102829	6
	35	51	315.5048	81058.08	-57183.93	1	99198.9	-35.20177	1.689824E-011	-0.102829	5
	36	53	252.4038	87897.45	-63855.08	1	108643.6	-35.99738	-2.596836E-010	-0.1028268	5
	37	54	198.6229	96085.2	-71881.83	1	119997.3	-36.80035	-2.006621E-011	-0.1028278	5
	38	56	158.3615	104755.4	-80448.98	1	132082.3	-37.52316	8.665905E-011	-0.1028316	5
	39	57	125.558	114919.9	-89987.56	1	145960.1	-38.06258	-1.371978E-010	-0.1028285	5
	40	58	100.4464	125107.8	-100432.3	1	160432.6	-38.75631	-5.964321E-011	-0.1028345	5
	41	60	79.00281	138520.4	-111811	1	178015.7	-38.90982	1.351085E-011	-0.102841	5
	42	61	63.3446	154879.9	-120799.7	1	196418.8	-37.95272	2.666189E-010	-0.1028437	5
	43	63	49.86702	170221.1	-140961.5	1	221009.9	-39.62844	1.799728E-011	-0.1028406	5
	44	64	39.72458	188067.5	-156386.3	1	244593.7	-39.74499	2.710916E-010	-0.1028354	5
	45	66	31.6723	208519.3	-174181	1	271697.1	-39.87279	9.277121E-012	-0.1028367	5
	46	67	24.93351	231132	-194235.4	1	301909.6	-40.04253	-2.158362E-010	-0.102836	5
	47	69	19.86229	254605.2	-214800.6	1	333111.2	-40.15304	2.292741E-010	-0.1028425	5
	48	70	15.83615	282040.1	-235951.9	1	367722.6	-39.91552	1.51849E-010	-0.1028429	5
	49	71	12.40079	311238.3	-265705.5	1	409229.4	-40.48753	-2.442066E-010	-0.1028251	5
	50	73	9.93114	343729.2	-296923	1	454216.9	-40.82139	-1.311166E-010	-0.1028273	5
	51	74	7.944915	377071	-325049.8	1	497835.2	-40.7626	4.89388E-010	-0.1028247	5
	52	76	6.317385	417267.7	-366693.5	1	555496.6	-41.3089	-1.54049E-010	-0.1028318	5
	53	78	5.008013	462068.9	-411767	1	618918.2	-41.70544	-1.966936E-010	-0.1028395	5
	54	81	3.945707	515403.6	-462363.7	1	692402.3	-41.89498	5.486824E-010	-0.10284	6
	55	84	3.158693	569468.6	-514621.5	1	767547.9	-42.10371	5.610314E-010	-0.1028171	6
	56	87	2.504006	631200.3	-575590.6	1	854235.5	-42.36164	-4.405965E-011	-0.1028377	5
	57	90	1.998082	697491.6	-641971.9	1	947956.9	-42.6265	-1.502502E-010	-0.1028232	5
	58	93	1.584686	774114.3	-716707.4	1	1054951	-42.79481	9.868674E-011	-0.1027857	4
	59	97	1.266892	847765.1	-800395.8	1	1165907	-43.35373	-9.018793E-011	-0.1028063	4
	60	101	0.999041	934212.8	-903810.1	1	1299856	-44.05236	1.6004E-010	-0.1028518	4
