EXPLAIN
TAG	EISPOT
TITLE	LABEL	Potentiostatic EIS	Test &Identifier
DATE	LABEL	1/10/2020	Date
TIME	LABEL	13:39:22	Time
NOTES	NOTES	5	&Notes...
	
	
	
	
	
PSTAT	PSTAT	REF600-11020	Potentiostat
VDC	POTEN	0.00000E+000	T	DC &Voltage (V)
FREQINIT	QUANT	1.00000E+006	Initial Fre&q. (Hz)
FREQFINAL	QUANT	1.00000E+000	Final Fre&q. (Hz)
PTSPERDEC	QUANT	1.00000E+001	Points/&decade
VAC	QUANT	2.50000E+001	AC &Voltage (mV rms)
AREA	QUANT	1.00000E-001	&Area (cm^2)
CONDIT	TWOPARAM	T	5.00000E+000	0.00000E+000	Conditionin&g	Time(s)	E(V)
DELAY	TWOPARAM	T	5.00000E+000	0.00000E+000	Init. De&lay	Time(s)	Stab.(mV/s)
SPEED	SELECTOR	0	&Optimize for:
ZGUESS	QUANT	5.00000E+002	E&stimated Z (ohms)
OCVCURVE	TABLE	19
	Pt	T	Vf	Vm	Ach	Over
	#	s	V vs. Ref.	V	V	bits
	0	0.258333	7.97564E-003	7.97564E-003	6.21447E-004	...........
	1	0.516667	7.97754E-003	8.07536E-003	6.23747E-004	...........
	2	0.775	7.98992E-003	8.20533E-003	6.23813E-004	...........
	3	1.03333	8.02690E-003	8.31582E-003	6.26980E-004	...........
	4	1.29167	8.09659E-003	8.43985E-003	6.27680E-004	...........
	5	1.55	8.19400E-003	8.56209E-003	6.25880E-004	...........
	6	1.80833	8.30761E-003	8.67913E-003	6.23247E-004	...........
	7	2.06667	8.42815E-003	8.81592E-003	6.26613E-004	...........
	8	2.325	8.55085E-003	8.91418E-003	6.24647E-004	...........
	9	2.58333	8.67369E-003	9.06203E-003	6.21580E-004	...........
	10	2.84167	8.79589E-003	9.15472E-003	6.26680E-004	...........
	11	3.1	8.91721E-003	9.29125E-003	6.17680E-004	...........
	12	3.35833	9.03700E-003	9.37842E-003	6.23780E-004	...........
	13	3.61667	9.15409E-003	9.49999E-003	6.20147E-004	...........
	14	3.875	9.26744E-003	9.58887E-003	6.18647E-004	...........
	15	4.13333	9.37694E-003	9.70855E-003	6.19180E-004	...........
	16	4.39167	9.48360E-003	9.79891E-003	6.26347E-004	...........
	17	4.65	9.58857E-003	9.90796E-003	6.22947E-004	...........
	18	4.90833	9.69253E-003	1.00135E-002	6.21647E-004	...........
EOC	QUANT	0.0096925	Open Circuit (V)
PSTATMODEL	IQUANT	4	Pstat Model
PSTATSECTION	LABEL	REF600-11020	Pstat Section
PSTATSERIALNO	LABEL	11020	Pstat Serial Number
CTRLMODE	IQUANT	1	Control Mode
IESTAB	IQUANT	0	I/E Stability
CASPEED	IQUANT	1	Control Amp Speed
CONVENTION	IQUANT	1	Current Convention
ICHRANGE	IQUANT	2	Ich Range
ICHRANGEMODE	TOGGLE	F	Ich Auto Range
ICHOFFSETENABLE	TOGGLE	T	Ich Offset Enable
ICHOFFSET	QUANT	0	Ich Offset (V)
ICHFILTER	IQUANT	3	Ich Filter
VCHRANGE	IQUANT	2	Vch Range
VCHRANGEMODE	TOGGLE	F	Vch Auto Range
VCHOFFSETENABLE	TOGGLE	T	Vch Offset Enable
VCHOFFSET	QUANT	0	Vch Offset (V)
VCHFILTER	IQUANT	3	Vch Filter
ACHRANGE	IQUANT	2	Ach Range
ACHOFFSETENABLE	TOGGLE	F	Ach Offset Enable
ACHOFFSET	QUANT	0	Ach Offset (V)
ACHFILTER	IQUANT	3	Ach Filter
IERANGELOWERLIMIT	IQUANT	1	I/E Range Lower Limit
IERANGEMODE	TOGGLE	F	I/E AutoRange
IERANGE	IQUANT	7	I/E Range
POSFEEDENABLE	TOGGLE	F	Positive Feedback IR Comp
POSFEEDRESISTANCE	QUANT	0	Positive Feedback Resistance (ohm)
ACHSELECT	IQUANT	0	Ach Select
CABLEID	IQUANT	14	Cable ID
DCCALDATE	LABEL	12/22/2019	DC Calibration Date
ACCALDATE	LABEL	12/22/2019	AC Calibration Date
THERMOSELECT	IQUANT	1	Thermo Select
FRAMEWORKVERSION	QUANT	6.33	Framework Version
INSTRUMENTVERSION	LABEL	3.50	Instrument Version
ZCURVE	TABLE
	Pt	Time	Freq	Zreal	Zimag	Zsig	Zmod	Zphz	Idc	Vdc	IERange
	#	s	Hz	ohm	ohm	V	ohm	°	A	V	#
	0	1	1000078	1855.087	-2272.636	1	2933.636	-50.77624	3.894592E-006	0.0117691	8
	1	2	794390.6	2203.447	-2485.865	1	3321.852	-48.44653	-2.452263E-006	0.0119091	8
	2	2	630984.4	2560.928	-2715.341	1	3732.483	-46.67632	4.521272E-006	0.0110039	8
	3	2	501234.4	2945.329	-2958.847	1	4174.894	-45.13118	-1.134253E-006	0.0115666	8
	4	3	398109.4	3388.639	-3227.575	1	4679.756	-43.60548	-7.06203E-007	0.0116676	8
	5	3	316265.6	3842.829	-3511.321	1	5205.45	-42.41899	5.188686E-007	0.011271	8
	6	3	251203.1	4417.31	-3785.972	1	5817.75	-40.5991	3.355593E-006	0.0108763	8
	7	4	199546.9	5030.182	-4092.668	1	6484.803	-39.13257	1.162747E-006	0.0111674	8
	8	4	158578.1	5731.452	-4396.698	1	7223.607	-37.49245	2.926215E-006	0.0108462	8
	9	4	125953.1	6534.583	-4574.28	1	7976.516	-34.99245	4.276426E-007	0.0102139	7
	10	5	100078.1	7397.9	-4738.24	1	8785.206	-32.63893	5.337475E-008	0.0113309	7
	11	5	79453.13	8307.841	-4800.529	1	9595.07	-30.02066	5.487948E-008	0.0112549	7
	12	6	63140.62	9220.2	-4730.454	1	10362.88	-27.16024	2.753527E-008	0.0113187	7
	13	6	50203.12	10095.4	-4555.661	1	11075.7	-24.28781	5.616168E-008	0.0112474	7
	14	6	39890.62	10880.04	-4272.213	1	11688.76	-21.4382	-2.827639E-008	0.0113589	7
	15	6	31640.63	11576.91	-3917.215	1	12221.68	-18.69399	2.066026E-008	0.0112673	7
	16	7	25171.88	12169.69	-3556.87	1	12678.83	-16.2922	6.106671E-008	0.0112125	7
	17	7	20015.62	12642.56	-3218.268	1	13045.75	-14.28179	-2.916731E-008	0.011355	7
	18	7	15890.62	13036.32	-2852.846	1	13344.83	-12.34391	-1.945238E-008	0.011419	7
	19	8	12609.37	13370.77	-2487.176	1	13600.13	-10.53749	-7.87334E-009	0.0114134	6
	20	8	10078.13	13598.88	-2257.467	1	13784.98	-9.425371	5.304898E-009	0.0112112	6
	21	8	8015.625	13799.27	-2083.156	1	13955.62	-8.584627	-7.507228E-010	0.0112719	6
	22	9	6328.125	13949.16	-1961.822	1	14086.44	-8.005621	3.247446E-009	0.0111967	6
	23	9	5015.625	14078.82	-1910.511	1	14207.85	-7.727895	1.891337E-009	0.0113854	6
	24	9	3984.375	14192.19	-1923.579	1	14321.96	-7.718709	5.030174E-009	0.0112123	6
	25	10	3170.956	14295.51	-2014.919	1	14436.81	-8.022856	-3.872367E-009	0.0113598	6
	26	10	2527.573	14397.95	-2173.987	1	14561.15	-8.586389	3.750632E-009	0.0113393	6
	27	10	1976.103	14503.26	-2445.73	1	14708.03	-9.57191	-5.752918E-009	0.0113836	6
	28	11	1577.524	14593.51	-2779.771	1	14855.9	-10.7845	-4.987977E-009	0.0113801	6
	29	11	1265.625	14732.04	-3238.307	1	15083.75	-12.39725	2.585174E-009	0.0113549	6
	30	11	998.264	14878.98	-3856.264	1	15370.58	-14.52995	-2.389584E-009	0.0113859	6
	31	12	796.875	15044.6	-4599.712	1	15732.05	-17.00041	-7.503614E-009	0.011402	6
	32	12	627.7902	15266.52	-5586.87	1	16256.69	-20.10039	-4.831552E-009	0.0114421	6
	33	12	505.5147	15512.78	-6693.334	1	16895.18	-23.33885	2.292167E-009	0.0113519	6
	34	13	397.9953	15862.85	-8189.151	1	17851.95	-27.30492	-6.663459E-011	0.0113364	6
	35	13	315.5048	16308.57	-9990.48	1	19125.35	-31.49125	1.151559E-009	0.0113333	6
	36	13	252.4038	16853	-12092.14	1	20742.32	-35.65969	1.086554E-009	0.0113318	6
	37	14	198.6229	17631.19	-14847.91	1	23050.36	-40.10204	1.305694E-010	0.0113321	6
	38	14	158.3615	18567.68	-17992.69	1	25855.29	-44.09898	4.613679E-010	0.0113258	6
	39	14	125.558	19876.02	-21869.49	1	29552.17	-47.73397	4.537522E-010	0.0113296	6
	40	14	100.4464	21551.29	-26322.17	1	34019.33	-50.69109	4.403804E-010	0.01133	6
	41	15	79.00281	23862.68	-32112.41	1	40007.93	-53.38402	1.090468E-009	0.0113286	6
	42	15	63.3446	26213.53	-37881.05	1	46066.51	-55.31693	2.759917E-010	0.0113277	6
	43	16	49.86702	30291.28	-45723.02	1	54846.66	-56.47572	6.535081E-011	0.0113289	6
	44	16	39.72458	35157.37	-54524.39	1	64876.42	-57.18604	4.327894E-011	0.0113343	6
	45	16	31.6723	41176.92	-64213.06	1	76281.42	-57.32979	-6.672724E-011	0.0113312	6
	46	17	24.93351	48893.76	-75224.5	1	89718.03	-56.97729	-1.6369E-010	0.011333	6
	47	17	19.86229	57473.47	-86876.05	1	104166.4	-56.51309	-1.824028E-009	0.0113333	5
	48	17	15.83615	67939.49	-99542.1	1	120517.2	-55.68568	3.189012E-010	0.0113305	5
	49	17	12.40079	80468.4	-114659	1	140078	-54.93857	5.194734E-011	0.0113287	5
	50	18	9.93114	92079.2	-130430.8	1	159658.3	-54.77935	-3.95542E-010	0.0113276	5
	51	18	7.944915	104959	-147735.3	1	181224	-54.60799	-9.684232E-010	0.0113306	5
	52	19	6.317385	120096.1	-168117.5	1	206607.3	-54.45956	-7.081195E-010	0.0113415	5
	53	20	5.008013	136555.9	-192981.6	1	236409.4	-54.71636	-4.599749E-010	0.0113282	5
	54	21	3.945707	155441.6	-223056.4	1	271875.5	-55.12846	-2.89829E-010	0.011316	5
	55	22	3.158693	175162.6	-257286.8	1	311253	-55.7527	-4.34554E-011	0.0113323	5
	56	24	2.504006	199272.5	-299114.6	1	359414.8	-56.32814	-1.996777E-010	0.0113186	5
	57	25	1.998082	226164.4	-347563.9	1	414669.7	-56.94742	-2.874841E-010	0.0112894	5
	58	27	1.584686	258530.8	-404833.6	1	480342	-57.43729	-1.382641E-010	0.0113361	5
	59	29	1.266892	296817.9	-471054.1	1	556770	-57.78438	-8.368189E-011	0.0113578	5
	60	31	0.999041	343877.7	-553826.6	1	651901.7	-58.16335	-4.684195E-011	0.0113608	5
