EXPLAIN
TAG	EISPOT
TITLE	LABEL	Potentiostatic EIS	Test &Identifier
DATE	LABEL	6/6/2020	Date
TIME	LABEL	18:08:44	Time
NOTES	NOTES	1	&Notes...
	
PSTAT	PSTAT	REF600-11020	Potentiostat
VDC	POTEN	0.00000E+000	T	DC &Voltage (V)
FREQINIT	QUANT	1.00000E+006	Initial Fre&q. (Hz)
FREQFINAL	QUANT	1.00000E+000	Final Fre&q. (Hz)
PTSPERDEC	QUANT	1.00000E+001	Points/&decade
VAC	QUANT	2.50000E+001	AC &Voltage (mV rms)
AREA	QUANT	4.00000E-004	&Area (cm^2)
CONDIT	TWOPARAM	F	5.00000E+000	0.00000E+000	Conditionin&g	Time(s)	E(V)
DELAY	TWOPARAM	T	3.00000E+000	0.00000E+000	Init. De&lay	Time(s)	Stab.(mV/s)
SPEED	SELECTOR	0	&Optimize for:
ZGUESS	QUANT	1.00000E+003	E&stimated Z (ohms)
OCVCURVE	TABLE	12
	Pt	T	Vf	Vm	Ach	Over
	#	s	V vs. Ref.	V	V	bits
	0	0.258333	-4.49956E-002	-4.49956E-002	6.01196E-004	...........
	1	0.516667	-4.50173E-002	-4.61321E-002	6.04130E-004	...........
	2	0.775	-4.51051E-002	-4.48290E-002	6.16796E-004	...........
	3	1.03333	-4.52254E-002	-4.47771E-002	6.16129E-004	...........
	4	1.29167	-4.52484E-002	-4.47564E-002	6.08763E-004	...........
	5	1.55	-4.51260E-002	-4.47082E-002	6.05463E-004	...........
	6	1.80833	-4.49508E-002	-4.47796E-002	6.19329E-004	...........
	7	2.06667	-4.48211E-002	-4.47990E-002	6.10096E-004	...........
	8	2.325	-4.47646E-002	-4.48128E-002	6.00996E-004	...........
	9	2.58333	-4.47622E-002	-4.48586E-002	6.13063E-004	...........
	10	2.84167	-4.47851E-002	-4.48602E-002	6.14663E-004	...........
	11	3.1	-4.48126E-002	-4.48086E-002	6.05230E-004	...........
EOC	QUANT	-0.0448126	Open Circuit (V)
PSTATMODEL	IQUANT	4	Pstat Model
PSTATSECTION	LABEL	REF600-11020	Pstat Section
PSTATSERIALNO	LABEL	11020	Pstat Serial Number
CTRLMODE	IQUANT	1	Control Mode
IESTAB	IQUANT	0	I/E Stability
CASPEED	IQUANT	1	Control Amp Speed
CONVENTION	IQUANT	1	Current Convention
ICHRANGE	IQUANT	2	Ich Range
ICHRANGEMODE	TOGGLE	F	Ich Auto Range
ICHOFFSETENABLE	TOGGLE	T	Ich Offset Enable
ICHOFFSET	QUANT	0	Ich Offset (V)
ICHFILTER	IQUANT	3	Ich Filter
VCHRANGE	IQUANT	2	Vch Range
VCHRANGEMODE	TOGGLE	F	Vch Auto Range
VCHOFFSETENABLE	TOGGLE	T	Vch Offset Enable
VCHOFFSET	QUANT	0	Vch Offset (V)
VCHFILTER	IQUANT	3	Vch Filter
ACHRANGE	IQUANT	2	Ach Range
ACHOFFSETENABLE	TOGGLE	F	Ach Offset Enable
ACHOFFSET	QUANT	0	Ach Offset (V)
ACHFILTER	IQUANT	3	Ach Filter
IERANGELOWERLIMIT	IQUANT	1	I/E Range Lower Limit
IERANGEMODE	TOGGLE	F	I/E AutoRange
IERANGE	IQUANT	7	I/E Range
POSFEEDENABLE	TOGGLE	F	Positive Feedback IR Comp
POSFEEDRESISTANCE	QUANT	0	Positive Feedback Resistance (ohm)
ACHSELECT	IQUANT	0	Ach Select
CABLEID	IQUANT	14	Cable ID
DCCALDATE	LABEL	2/27/2020	DC Calibration Date
ACCALDATE	LABEL	2/27/2020	AC Calibration Date
THERMOSELECT	IQUANT	1	Thermo Select
FRAMEWORKVERSION	QUANT	6.33	Framework Version
INSTRUMENTVERSION	LABEL	3.50	Instrument Version
ZCURVE	TABLE
	Pt	Time	Freq	Zreal	Zimag	Zsig	Zmod	Zphz	Idc	Vdc	IERange
	#	s	Hz	ohm	ohm	V	ohm	°	A	V	#
	0	2	1000078	1971.94	-2159.579	1	2924.436	-47.60038	5.679905E-008	-0.0422568	8
	1	2	794390.6	2357.139	-2329.156	1	3313.77	-44.65787	4.58969E-008	-0.0426223	8
	2	2	630984.4	2774.485	-2463.981	1	3710.656	-41.60783	5.621399E-008	-0.0427913	8
	3	3	501234.4	3209.974	-2561.046	1	4106.445	-38.58426	3.282993E-008	-0.0428739	8
	4	3	398109.4	3658.038	-2629.215	1	4504.888	-35.70669	1.576842E-008	-0.0429302	8
	5	3	316265.6	4116.183	-2669.547	1	4906.062	-32.96539	6.081935E-008	-0.0429998	8
	6	3	251203.1	4568.555	-2666.132	1	5289.608	-30.26712	4.326992E-008	-0.0429958	8
	7	4	199546.9	5025.877	-2646.586	1	5680.128	-27.77092	5.098741E-008	-0.0430091	8
	8	4	158578.1	5463.382	-2585.954	1	6044.477	-25.32935	5.552333E-008	-0.0430179	8
	9	4	125953.1	5923.676	-2440.073	1	6406.551	-22.38768	3.938364E-009	-0.0430716	7
	10	5	100078.1	6287.125	-2338.298	1	6707.875	-20.4011	2.960525E-009	-0.0430884	7
	11	5	79453.13	6639.202	-2238.698	1	7006.48	-18.63379	2.984277E-009	-0.0430925	7
	12	5	63140.62	6954.288	-2133.096	1	7274.079	-17.0524	3.253685E-009	-0.0430953	7
	13	6	50203.12	7238.795	-2034.968	1	7519.392	-15.70172	4.451952E-009	-0.0430912	7
	14	6	39890.62	7492.077	-1949.55	1	7741.574	-14.58575	4.008172E-009	-0.0430979	7
	15	6	31640.63	7725.059	-1885.985	1	7951.947	-13.71973	3.665458E-009	-0.0431023	7
	16	7	25171.88	7938.854	-1848.358	1	8151.186	-13.10636	3.063019E-009	-0.0431087	7
	17	7	20015.62	8139.982	-1839.312	1	8345.201	-12.73274	2.802053E-009	-0.0431084	7
	18	7	15890.62	8333.851	-1863.609	1	8539.678	-12.60506	4.322107E-009	-0.0430994	7
	19	8	12609.37	8527.769	-1922.46	1	8741.778	-12.70412	4.110373E-009	-0.0431046	7
	20	8	10078.13	8744.771	-1942.162	1	8957.847	-12.52181	1.893836E-010	-0.043063	6
	21	8	8015.625	8932.363	-2090.149	1	9173.649	-13.1701	3.323733E-010	-0.0430545	6
	22	9	6328.125	9140.036	-2288.262	1	9422.123	-14.05544	1.790642E-010	-0.0430607	6
	23	9	5015.625	9357.82	-2536.959	1	9695.62	-15.16861	3.840931E-010	-0.0430601	6
	24	9	3984.375	9589.6	-2841.126	1	10001.62	-16.50307	7.327829E-011	-0.043061	6
	25	10	3170.956	9849.6	-3211.475	1	10359.93	-18.05862	1.690719E-010	-0.0430657	6
	26	10	2527.573	10130.62	-3654.921	1	10769.77	-19.83841	2.608697E-011	-0.0430632	6
	27	10	1976.103	10482.28	-4237.112	1	11306.25	-22.00939	1.893832E-010	-0.0430653	6
	28	11	1577.524	10846.97	-4877.1	1	11892.98	-24.21001	1.373484E-010	-0.0430624	6
	29	11	1265.625	11256.12	-5619.411	1	12580.85	-26.52983	5.04508E-011	-0.0430718	6
	30	11	998.264	11756.3	-6566.5	1	13465.87	-29.18561	4.005041E-010	-0.0430643	6
	31	11	796.875	12304.06	-7635.501	1	14480.71	-31.82239	3.779235E-011	-0.0430741	6
	32	12	627.7902	12961.37	-8979.95	1	15768.21	-34.71516	2.694196E-010	-0.043079	6
	33	12	505.5147	13651.25	-10432.25	1	17181.05	-37.38698	-2.034949E-010	-0.0430792	6
	34	12	397.9953	14523.34	-12342.84	1	19059.72	-40.35994	6.133875E-010	-0.0430592	6
	35	13	315.5048	15512.52	-14567.12	1	21280.02	-43.1998	6.72311E-010	-0.0430594	6
	36	13	252.4038	16618.12	-17121.65	1	23860.27	-45.85502	5.540194E-010	-0.0430624	6
	37	13	198.6229	18016.07	-20411.17	1	27224.89	-48.56653	6.222173E-010	-0.0430613	6
	38	14	158.3615	19594.2	-24146	1	31096.01	-50.94106	4.872885E-010	-0.0430635	6
	39	14	125.558	21538.49	-28724.17	1	35902.43	-53.13602	5.193116E-010	-0.0430624	6
	40	14	100.4464	23799.56	-33966.24	1	41474.39	-54.98174	5.44434E-010	-0.0430621	6
	41	15	79.00281	26789.03	-40689.11	1	48716.08	-56.63976	3.91246E-010	-0.0430632	6
	42	15	63.3446	30171.18	-48016.78	1	56709.01	-57.85694	3.936841E-010	-0.0430639	6
	43	15	49.86702	34694.32	-57363.6	1	67039.38	-58.83386	5.442516E-010	-0.0430684	6
	44	16	39.72458	40023.36	-67782.52	1	78716.84	-59.43954	6.049981E-010	-0.0430652	6
	45	16	31.6723	46541	-79846.99	1	92420.81	-59.76306	4.426801E-010	-0.043068	6
	46	16	24.93351	55034.48	-94515.41	1	109370.7	-59.78859	4.061306E-010	-0.0430678	5
	47	17	19.86229	64879.16	-110717.7	1	128326.6	-59.63023	-2.853506E-010	-0.0430666	5
	48	17	15.83615	76841.17	-129090.7	1	150229.7	-59.23679	1.274157E-009	-0.043065	5
	49	17	12.40079	92487.86	-151465.6	1	177470.6	-58.59094	5.982466E-010	-0.0430693	5
	50	18	9.93114	109647.1	-174345.4	1	205958.2	-57.83392	8.462896E-010	-0.0430685	5
	51	18	7.944915	129377.9	-199807.1	1	238036.8	-57.07639	1.231656E-009	-0.043073	5
	52	18	6.317385	153954.3	-229092.7	1	276017	-56.09821	-2.203299E-010	-0.0430519	5
	53	19	5.008013	182911.8	-261865.2	1	319421.5	-55.06585	-2.233295E-010	-0.04307	5
	54	20	3.945707	216593.5	-298257.8	1	368606.1	-54.013	3.935348E-010	-0.0430646	5
	55	21	3.158693	253145.4	-335841.5	1	420561.7	-52.99231	-1.15448E-010	-0.0430647	5
	56	22	2.504006	294953.3	-378459.7	1	479822	-52.06887	9.220773E-013	-0.0430791	5
	57	23	1.998082	340887.2	-424120.9	1	544134.8	-51.20942	2.836869E-010	-0.0430295	5
	58	25	1.584686	391093.7	-476338.3	1	616321.7	-50.61257	2.096641E-010	-0.043059	5
	59	27	1.266892	446156.6	-531549	1	693974.1	-49.99152	1.047716E-010	-0.0430988	5
	60	29	0.999041	510987.9	-599392.6	1	787642.1	-49.55209	4.614644E-011	-0.0431162	5
