EXPLAIN
TAG	EISPOT
TITLE	LABEL	Potentiostatic EIS	Test &Identifier
DATE	LABEL	6/6/2020	Date
TIME	LABEL	18:43:38	Time
NOTES	NOTES	1	&Notes...
	
PSTAT	PSTAT	REF600-11020	Potentiostat
VDC	POTEN	0.00000E+000	T	DC &Voltage (V)
FREQINIT	QUANT	1.00000E+006	Initial Fre&q. (Hz)
FREQFINAL	QUANT	1.00000E+000	Final Fre&q. (Hz)
PTSPERDEC	QUANT	1.00000E+001	Points/&decade
VAC	QUANT	2.50000E+001	AC &Voltage (mV rms)
AREA	QUANT	4.00000E-004	&Area (cm^2)
CONDIT	TWOPARAM	F	5.00000E+000	0.00000E+000	Conditionin&g	Time(s)	E(V)
DELAY	TWOPARAM	T	3.00000E+000	0.00000E+000	Init. De&lay	Time(s)	Stab.(mV/s)
SPEED	SELECTOR	0	&Optimize for:
ZGUESS	QUANT	1.00000E+003	E&stimated Z (ohms)
OCVCURVE	TABLE	12
	Pt	T	Vf	Vm	Ach	Over
	#	s	V vs. Ref.	V	V	bits
	0	0.258333	-1.24216E-001	-1.24216E-001	5.88130E-004	...........
	1	0.516667	-1.24217E-001	-1.24222E-001	5.86397E-004	...........
	2	0.775	-1.24217E-001	-1.24223E-001	5.83830E-004	...........
	3	1.03333	-1.24219E-001	-1.24227E-001	5.85963E-004	...........
	4	1.29167	-1.24221E-001	-1.24232E-001	5.86930E-004	...........
	5	1.55	-1.24224E-001	-1.24236E-001	5.83597E-004	...........
	6	1.80833	-1.24227E-001	-1.24236E-001	5.85296E-004	...........
	7	2.06667	-1.24231E-001	-1.24242E-001	5.86197E-004	...........
	8	2.325	-1.24234E-001	-1.24241E-001	5.85063E-004	...........
	9	2.58333	-1.24237E-001	-1.24246E-001	5.83030E-004	...........
	10	2.84167	-1.24240E-001	-1.24248E-001	5.86397E-004	...........
	11	3.1	-1.24243E-001	-1.24251E-001	5.82430E-004	...........
EOC	QUANT	-0.1242427	Open Circuit (V)
PSTATMODEL	IQUANT	4	Pstat Model
PSTATSECTION	LABEL	REF600-11020	Pstat Section
PSTATSERIALNO	LABEL	11020	Pstat Serial Number
CTRLMODE	IQUANT	1	Control Mode
IESTAB	IQUANT	0	I/E Stability
CASPEED	IQUANT	1	Control Amp Speed
CONVENTION	IQUANT	1	Current Convention
ICHRANGE	IQUANT	2	Ich Range
ICHRANGEMODE	TOGGLE	F	Ich Auto Range
ICHOFFSETENABLE	TOGGLE	T	Ich Offset Enable
ICHOFFSET	QUANT	0	Ich Offset (V)
ICHFILTER	IQUANT	3	Ich Filter
VCHRANGE	IQUANT	2	Vch Range
VCHRANGEMODE	TOGGLE	F	Vch Auto Range
VCHOFFSETENABLE	TOGGLE	T	Vch Offset Enable
VCHOFFSET	QUANT	0	Vch Offset (V)
VCHFILTER	IQUANT	3	Vch Filter
ACHRANGE	IQUANT	2	Ach Range
ACHOFFSETENABLE	TOGGLE	F	Ach Offset Enable
ACHOFFSET	QUANT	0	Ach Offset (V)
ACHFILTER	IQUANT	3	Ach Filter
IERANGELOWERLIMIT	IQUANT	1	I/E Range Lower Limit
IERANGEMODE	TOGGLE	F	I/E AutoRange
IERANGE	IQUANT	8	I/E Range
POSFEEDENABLE	TOGGLE	F	Positive Feedback IR Comp
POSFEEDRESISTANCE	QUANT	0	Positive Feedback Resistance (ohm)
ACHSELECT	IQUANT	0	Ach Select
CABLEID	IQUANT	14	Cable ID
DCCALDATE	LABEL	2/27/2020	DC Calibration Date
ACCALDATE	LABEL	2/27/2020	AC Calibration Date
THERMOSELECT	IQUANT	1	Thermo Select
FRAMEWORKVERSION	QUANT	6.33	Framework Version
INSTRUMENTVERSION	LABEL	3.50	Instrument Version
ZCURVE	TABLE
	Pt	Time	Freq	Zreal	Zimag	Zsig	Zmod	Zphz	Idc	Vdc	IERange
	#	s	Hz	ohm	ohm	V	ohm	°	A	V	#
	0	1	1000078	1648.883	-2357.118	1	2876.598	-55.02593	5.976679E-008	-0.1217346	8
	1	1	794390.6	1957.57	-2663.028	1	3305.117	-53.6807	5.904495E-008	-0.1221094	8
	2	2	630984.4	2303.594	-2991.129	1	3775.367	-52.39863	1.008967E-007	-0.1222827	8
	3	2	501234.4	2685.375	-3353.297	1	4296.026	-51.31168	9.057328E-008	-0.1224017	8
	4	2	398109.4	3109.563	-3761.001	1	4880.011	-50.41636	5.43648E-008	-0.1224642	8
	5	2	316265.6	3597.211	-4213.924	1	5540.495	-49.51431	3.509399E-008	-0.1225008	8
	6	3	251203.1	4153.206	-4738.977	1	6301.351	-48.76891	4.874034E-008	-0.1225332	8
	7	3	199546.9	4791.844	-5300.524	1	7145.441	-47.88541	5.410091E-008	-0.1225393	8
	8	3	158578.1	5532.077	-5912.65	1	8097.117	-46.90457	4.463976E-008	-0.1225158	8
	9	4	125953.1	6495.467	-6541.671	1	9218.707	-45.20306	2.325636E-009	-0.1225711	7
	10	4	100078.1	7491.007	-7212.596	1	10398.88	-43.91524	4.606514E-009	-0.1226045	7
	11	4	79453.13	8657.664	-7915.631	1	11730.83	-42.43642	4.829365E-009	-0.1226073	7
	12	5	63140.62	9980.69	-8568.14	1	13153.98	-40.64516	4.480417E-009	-0.1226154	7
	13	5	50203.12	11480.06	-9158.381	1	14685.63	-38.5816	3.946591E-009	-0.12262	7
	14	5	39890.62	13099.9	-9618.36	1	16251.78	-36.2873	4.493072E-009	-0.1226187	7
	15	6	31640.63	14866.11	-9970.74	1	17900.19	-33.84987	4.151929E-009	-0.1226286	7
	16	6	25171.88	16649.4	-10096.73	1	19471.69	-31.23396	4.090364E-009	-0.1226235	7
	17	6	20015.62	18468.91	-10080.85	1	21041.01	-28.62695	3.768757E-009	-0.1226296	7
	18	7	15890.62	20262.86	-9898.24	1	22551.24	-26.03514	5.003296E-009	-0.1226301	7
	19	7	12609.37	22103.54	-9345.854	1	23998.16	-22.91969	1.131339E-009	-0.1225735	6
	20	7	10078.13	23576.86	-8884.315	1	25195.22	-20.64759	9.570953E-010	-0.1225735	6
	21	8	8015.625	24945.22	-8353.249	1	26306.67	-18.51382	9.958395E-010	-0.122573	6
	22	8	6328.125	26152.83	-7760.54	1	27279.96	-16.52763	8.403523E-010	-0.1225766	6
	23	8	5015.625	27160.28	-7200.952	1	28098.65	-14.84908	8.347243E-010	-0.1225768	6
	24	9	3984.375	27991.25	-6720.634	1	28786.75	-13.50103	7.989354E-010	-0.1225745	6
	25	9	3170.956	28673.14	-6355.099	1	29368.97	-12.49698	7.554917E-010	-0.122585	6
	26	9	2527.573	29235.26	-6131.244	1	29871.27	-11.84446	7.822109E-010	-0.1225816	6
	27	9	1976.103	29755.67	-6066.322	1	30367.75	-11.52304	6.961066E-010	-0.1225845	6
	28	10	1577.524	30193.75	-6200.202	1	30823.77	-11.60422	9.114493E-010	-0.1225787	6
	29	10	1265.625	30594.94	-6514.951	1	31280.9	-12.02113	7.300185E-010	-0.1225816	6
	30	10	998.264	31026.38	-7083.873	1	31824.79	-12.86119	9.316056E-010	-0.1225822	6
	31	11	796.875	31442.54	-7855.484	1	32408.98	-14.02741	7.908069E-010	-0.1225867	6
	32	11	627.7902	31935.58	-8978.588	1	33173.73	-15.70316	8.119735E-010	-0.1225873	6
	33	11	505.5147	32432.59	-10294.35	1	34027.14	-17.60983	6.818875E-010	-0.1225854	6
	34	12	397.9953	33041.3	-12127.1	1	35196.5	-20.15458	7.625698E-010	-0.1225704	6
	35	12	315.5048	33778.93	-14364.57	1	36706.36	-23.03774	7.14058E-010	-0.1225714	6
	36	12	252.4038	34658.75	-17014.27	1	38609.77	-26.14681	6.6694E-010	-0.1225763	6
	37	13	198.6229	35807.71	-20498.4	1	41259.86	-29.78932	5.458305E-010	-0.1225752	6
	38	13	158.3615	37185.27	-24510.03	1	44536.34	-33.39019	5.794811E-010	-0.1225739	6
	39	13	125.558	38970.76	-29465.47	1	48856.26	-37.09263	5.811147E-010	-0.1225772	6
	40	14	100.4464	41173.05	-35160.25	1	54142.99	-40.49609	3.915009E-010	-0.1225772	6
	41	14	79.00281	44214.7	-42461.48	1	61301.85	-43.84122	3.276852E-010	-0.1225788	6
	42	14	63.3446	47756.69	-50408.93	1	69438.91	-46.54764	3.087418E-010	-0.1225825	6
	43	15	49.86702	52658.79	-60530.45	1	80230.19	-48.97818	5.137004E-010	-0.1225819	6
	44	15	39.72458	58616.25	-71782.4	1	92674.58	-50.76553	4.696293E-010	-0.1225805	6
	45	15	31.6723	66129.58	-84634.86	1	107406.6	-51.99765	-1.71761E-010	-0.1225755	5
	46	16	24.93351	76193.91	-100244.5	1	125914.5	-52.76223	1.724631E-010	-0.1225764	5
	47	16	19.86229	88254.13	-116965.4	1	146525.4	-52.96428	-2.495364E-011	-0.1225732	5
	48	16	15.83615	103122	-135211.2	1	170047.7	-52.66817	5.023311E-010	-0.1225773	5
	49	17	12.40079	122854.9	-156377.7	1	198865.1	-51.84578	1.566407E-009	-0.1225795	5
	50	17	9.93114	143578.2	-176692.9	1	227673.1	-50.90317	1.422288E-009	-0.1225717	5
	51	17	7.944915	168459.7	-197911.4	1	259899.2	-49.59599	-6.403209E-010	-0.1225731	5
	52	18	6.317385	196753.1	-220324.8	1	295389.3	-48.2347	3.461202E-010	-0.1225815	5
	53	18	5.008013	228387.1	-243574.6	1	333900.1	-46.84311	7.393455E-010	-0.1225688	5
	54	19	3.945707	264242	-267529.6	1	376026.5	-45.35421	2.102252E-010	-0.1225846	5
	55	20	3.158693	299050.7	-291610.9	1	417694	-44.27836	4.682063E-010	-0.1225674	5
	56	21	2.504006	338134.3	-317469	1	463811.8	-43.19458	-1.008135E-010	-0.1225743	5
	57	23	1.998082	376379.4	-346251.9	1	511421.3	-42.61264	-1.157782E-010	-0.1225854	5
	58	24	1.584686	418513.1	-377723	1	563762.3	-42.06738	1.772706E-010	-0.1225366	5
	59	26	1.266892	461445.1	-415170.6	1	620723.9	-41.97829	2.441234E-010	-0.1225379	5
	60	29	0.999041	507994.3	-461536.6	1	686348.5	-42.25661	2.514526E-010	-0.1225592	5
