EXPLAIN
TAG	EISPOT
TITLE	LABEL	Potentiostatic EIS	Test &Identifier
DATE	LABEL	1/21/2020	Date
TIME	LABEL	18:15:47	Time
NOTES	NOTES	6	&Notes...
	
	
	
	
	
	
PSTAT	PSTAT	REF600-11020	Potentiostat
VDC	POTEN	0.00000E+000	T	DC &Voltage (V)
FREQINIT	QUANT	1.00000E+006	Initial Fre&q. (Hz)
FREQFINAL	QUANT	1.00000E+000	Final Fre&q. (Hz)
PTSPERDEC	QUANT	1.00000E+001	Points/&decade
VAC	QUANT	2.50000E+001	AC &Voltage (mV rms)
AREA	QUANT	1.00000E-001	&Area (cm^2)
CONDIT	TWOPARAM	F	5.00000E+000	0.00000E+000	Conditionin&g	Time(s)	E(V)
DELAY	TWOPARAM	F	5.00000E+000	0.00000E+000	Init. De&lay	Time(s)	Stab.(mV/s)
SPEED	SELECTOR	0	&Optimize for:
ZGUESS	QUANT	5.00000E+002	E&stimated Z (ohms)
OCVCURVE	TABLE	39
	Pt	T	Vf	Vm	Ach	Over
	#	s	V vs. Ref.	V	V	bits
	0	0.258333	-3.54658E-002	-3.54658E-002	6.45413E-004	...........
	1	0.516667	-3.54838E-002	-3.64071E-002	6.43313E-004	...........
	2	0.775	-3.55617E-002	-3.55931E-002	6.45080E-004	...........
	3	1.03333	-3.56763E-002	-3.49589E-002	6.45713E-004	...........
	4	1.29167	-3.57029E-002	-3.53484E-002	6.49280E-004	...........
	5	1.55	-3.55890E-002	-3.55085E-002	6.47146E-004	...........
	6	1.80833	-3.54567E-002	-3.59982E-002	6.50613E-004	...........
	7	2.06667	-3.54489E-002	-3.59987E-002	6.53780E-004	...........
	8	2.325	-3.55783E-002	-3.58426E-002	6.49613E-004	...........
	9	2.58333	-3.57430E-002	-3.57285E-002	6.51580E-004	...........
	10	2.84167	-3.58369E-002	-3.56084E-002	6.44480E-004	...........
	11	3.1	-3.58308E-002	-3.56371E-002	6.47580E-004	...........
	12	3.35833	-3.57689E-002	-3.58319E-002	6.43013E-004	...........
	13	3.61667	-3.57165E-002	-3.57020E-002	6.47813E-004	...........
	14	3.875	-3.57025E-002	-3.56433E-002	6.45580E-004	...........
	15	4.13333	-3.57053E-002	-3.56487E-002	6.45813E-004	...........
	16	4.39167	-3.56979E-002	-3.56767E-002	6.48880E-004	...........
	17	4.65	-3.56833E-002	-3.57569E-002	6.48413E-004	...........
	18	4.90833	-3.56857E-002	-3.60516E-002	6.45280E-004	...........
	19	5.16667	-3.57286E-002	-3.59405E-002	6.48546E-004	...........
	20	5.425	-3.58064E-002	-3.58725E-002	6.48313E-004	...........
	21	5.68333	-3.58778E-002	-3.58588E-002	6.46480E-004	...........
	22	5.94167	-3.59076E-002	-3.58468E-002	6.49080E-004	...........
	23	6.2	-3.58995E-002	-3.58369E-002	6.48946E-004	...........
	24	6.45833	-3.58767E-002	-3.58338E-002	6.48046E-004	...........
	25	6.71667	-3.58562E-002	-3.58498E-002	6.48280E-004	...........
	26	6.975	-3.58444E-002	-3.58421E-002	6.45746E-004	...........
	27	7.23333	-3.58406E-002	-3.58394E-002	6.47046E-004	...........
	28	7.49167	-3.58444E-002	-3.60324E-002	6.49180E-004	...........
	29	7.75	-3.58674E-002	-3.62136E-002	6.49646E-004	...........
	30	8.00833	-3.59295E-002	-3.63151E-002	6.48280E-004	...........
	31	8.26667	-3.60262E-002	-3.59890E-002	6.42680E-004	...........
	32	8.525	-3.60992E-002	-3.54600E-002	6.43613E-004	...........
	33	8.78333	-3.60664E-002	-3.54371E-002	6.44546E-004	...........
	34	9.04167	-3.59102E-002	-3.54420E-002	6.48646E-004	...........
	35	9.3	-3.57062E-002	-3.53856E-002	6.46246E-004	...........
	36	9.5583	-3.55456E-002	-3.55771E-002	6.43280E-004	...........
	37	9.8167	-3.54722E-002	-3.57691E-002	6.41346E-004	...........
	38	10.075	-3.54897E-002	-3.57922E-002	6.43146E-004	...........
EOC	QUANT	-0.0354897	Open Circuit (V)
PSTATMODEL	IQUANT	4	Pstat Model
PSTATSECTION	LABEL	REF600-11020	Pstat Section
PSTATSERIALNO	LABEL	11020	Pstat Serial Number
CTRLMODE	IQUANT	1	Control Mode
IESTAB	IQUANT	0	I/E Stability
CASPEED	IQUANT	1	Control Amp Speed
CONVENTION	IQUANT	1	Current Convention
ICHRANGE	IQUANT	2	Ich Range
ICHRANGEMODE	TOGGLE	F	Ich Auto Range
ICHOFFSETENABLE	TOGGLE	T	Ich Offset Enable
ICHOFFSET	QUANT	0	Ich Offset (V)
ICHFILTER	IQUANT	3	Ich Filter
VCHRANGE	IQUANT	2	Vch Range
VCHRANGEMODE	TOGGLE	F	Vch Auto Range
VCHOFFSETENABLE	TOGGLE	T	Vch Offset Enable
VCHOFFSET	QUANT	0	Vch Offset (V)
VCHFILTER	IQUANT	3	Vch Filter
ACHRANGE	IQUANT	2	Ach Range
ACHOFFSETENABLE	TOGGLE	F	Ach Offset Enable
ACHOFFSET	QUANT	0	Ach Offset (V)
ACHFILTER	IQUANT	3	Ach Filter
IERANGELOWERLIMIT	IQUANT	1	I/E Range Lower Limit
IERANGEMODE	TOGGLE	F	I/E AutoRange
IERANGE	IQUANT	8	I/E Range
POSFEEDENABLE	TOGGLE	F	Positive Feedback IR Comp
POSFEEDRESISTANCE	QUANT	0	Positive Feedback Resistance (ohm)
ACHSELECT	IQUANT	0	Ach Select
CABLEID	IQUANT	14	Cable ID
DCCALDATE	LABEL	12/22/2019	DC Calibration Date
ACCALDATE	LABEL	12/22/2019	AC Calibration Date
THERMOSELECT	IQUANT	1	Thermo Select
FRAMEWORKVERSION	QUANT	6.33	Framework Version
INSTRUMENTVERSION	LABEL	3.50	Instrument Version
ZCURVE	TABLE
	Pt	Time	Freq	Zreal	Zimag	Zsig	Zmod	Zphz	Idc	Vdc	IERange
	#	s	Hz	ohm	ohm	V	ohm	°	A	V	#
	0	1	1000078	3569.713	-5656.498	1	6688.708	-57.74472	2.009726E-007	-0.0328179	8
	1	2	794390.6	4602.185	-6320.788	1	7818.725	-53.94152	-1.592515E-008	-0.0335843	8
	2	2	630984.4	5748.351	-6856.146	1	8947.081	-50.02275	7.032757E-007	-0.0334504	8
	3	2	501234.4	7083.553	-7310.831	1	10179.63	-45.90459	5.143503E-007	-0.0338785	8
	4	3	398109.4	8462.907	-7459.262	1	11281.02	-41.39317	1.784289E-006	-0.0341842	8
	5	3	316265.6	10048.72	-7540.764	1	12563.43	-36.88531	1.327575E-006	-0.0342445	8
	6	3	251203.1	11355.95	-7369.44	1	13537.59	-32.98154	-7.640661E-007	-0.0337365	8
	7	4	199546.9	12393	-7152.376	1	14308.84	-29.99055	-1.53075E-006	-0.0336432	8
	8	4	158578.1	13639.53	-6635.687	1	15168.03	-25.94311	-6.607704E-007	-0.0337003	8
	9	4	125953.1	14666.02	-6401.029	1	16002.04	-23.579	1.791016E-007	-0.0343007	7
	10	5	100078.1	15535.93	-6211.421	1	16731.62	-21.79202	-1.562672E-008	-0.0337876	7
	11	5	79453.13	16368.42	-6021.394	1	17440.82	-20.19688	3.657306E-008	-0.0340184	7
	12	5	63140.62	17163.2	-5891.978	1	18146.37	-18.9469	-3.852999E-008	-0.0337978	7
	13	6	50203.12	17943.63	-5782.661	1	18852.4	-17.86248	3.497925E-008	-0.0339567	7
	14	6	39890.62	18699.1	-5688.917	1	19545.34	-16.92158	-3.298002E-009	-0.0339718	7
	15	6	31640.63	19444.05	-5665.194	1	20252.54	-16.24394	1.085802E-007	-0.0340768	7
	16	7	25171.88	20164.67	-5669.325	1	20946.48	-15.7034	-1.023941E-008	-0.0338972	7
	17	7	20015.62	20902.32	-5708.854	1	21667.9	-15.27609	6.068338E-008	-0.0339441	7
	18	7	15890.62	21632.02	-5812.361	1	22399.28	-15.03973	-8.300083E-009	-0.0338874	7
	19	8	12609.37	22397.59	-5853.363	1	23149.81	-14.64605	-4.974541E-009	-0.0338253	6
	20	8	10078.13	23146.01	-6091.719	1	23934.21	-14.7451	1.653617E-008	-0.0342023	6
	21	8	8015.625	23897.83	-6334.667	1	24723.15	-14.84613	-1.887582E-009	-0.0339996	6
	22	9	6328.125	24714.79	-6687.467	1	25603.57	-15.14085	1.650335E-008	-0.0342118	6
	23	9	5015.625	25549.44	-7093.339	1	26515.83	-15.51635	-1.916809E-009	-0.0337968	6
	24	9	3984.375	26396.93	-7570.215	1	27460.99	-16.00204	3.538734E-009	-0.0340402	6
	25	10	3170.956	27261.78	-8128.682	1	28447.85	-16.60307	1.580389E-008	-0.0342013	6
	26	10	2527.573	28163.8	-8791.8	1	29504.16	-17.33662	-4.649495E-009	-0.0338682	6
	27	10	1976.103	29181.2	-9691.14	1	30748.34	-18.37143	-8.990518E-009	-0.0338632	6
	28	11	1577.524	30154.78	-10692.19	1	31994.28	-19.52334	6.761641E-009	-0.0339282	6
	29	11	1265.625	31130.83	-11835.41	1	33304.74	-20.81594	-1.700683E-009	-0.0340087	6
	30	11	998.264	32299.71	-13366.06	1	34956.02	-22.48043	4.639097E-009	-0.0341042	6
	31	11	796.875	33528.15	-15159.94	1	36796.21	-24.33037	-7.52721E-009	-0.0338388	6
	32	12	627.7902	34959.19	-17410.22	1	39054.59	-26.47402	-2.00758E-009	-0.0340058	6
	33	12	505.5147	36415.56	-19855.88	1	41477.09	-28.60179	1.522287E-008	-0.0341994	6
	34	12	397.9953	38287.24	-23080.77	1	44706.09	-31.08291	7.69075E-010	-0.0339286	6
	35	13	315.5048	40346.26	-26829.97	1	48452.74	-33.62362	3.083414E-010	-0.033932	6
	36	13	252.4038	42618.74	-31100.51	1	52759.82	-36.11965	5.179456E-010	-0.0339329	6
	37	13	198.6229	45421.65	-36529.26	1	58288.19	-38.80714	7.554803E-010	-0.033929	6
	38	14	158.3615	48507.78	-42625.24	1	64574.88	-41.30674	9.025118E-010	-0.0339337	6
	39	14	125.558	52143.46	-50050.65	1	72277.3	-43.82682	7.812725E-010	-0.0339346	6
	40	14	100.4464	56143.66	-58403.43	1	81012.78	-46.13018	3.917006E-010	-0.0339339	6
	41	15	79.00281	61470.33	-69177.09	1	92542.27	-48.37591	3.796386E-010	-0.0339361	6
	42	15	63.3446	66198.73	-82001.84	1	105387.7	-51.08664	4.127585E-010	-0.0339345	5
	43	15	49.86702	73374.74	-96905.4	1	121550.4	-52.86775	-6.294829E-011	-0.0339399	5
	44	16	39.72458	81756.17	-113532	1	139905.7	-54.24176	1.045152E-010	-0.033937	5
	45	16	31.6723	91129.18	-133630.3	1	161745.4	-55.70797	1.345775E-010	-0.0339384	5
	46	16	24.93351	102755.2	-159477.9	1	189715.1	-57.20542	-4.8076E-011	-0.0339397	5
	47	17	19.86229	116155.3	-188589.2	1	221490.3	-58.37037	-2.178785E-010	-0.0339445	5
	48	17	15.83615	134040.9	-224669.2	1	261616.5	-59.17909	7.033693E-010	-0.0339428	5
	49	17	12.40079	156860.5	-267805.7	1	310362.9	-59.64144	-5.307751E-011	-0.0339424	5
	50	18	9.93114	179566.8	-313119.4	1	360954.3	-60.16672	1.883899E-010	-0.0339447	5
	51	18	7.944915	209776.4	-366891.2	1	422629	-60.24048	-1.055114E-010	-0.0339406	5
	52	19	6.317385	248431.1	-430738.1	1	497245.8	-60.02552	4.647617E-011	-0.0339282	5
	53	20	5.008013	297057.3	-505246.4	1	586103.2	-59.54679	9.809995E-011	-0.0339414	5
	54	21	3.945707	356400.6	-592410.8	1	691355.1	-58.96844	1.079927E-010	-0.0339491	5
	55	22	3.158693	425369.6	-682260.9	1	804002	-58.05767	1.760399E-010	-0.0339301	5
	56	24	2.504006	511964.5	-788273.5	1	939937.6	-56.99725	1.052345E-010	-0.0339383	5
	57	25	1.998082	611282.6	-898707.8	1	1086896	-55.77727	1.975132E-010	-0.0338725	4
	58	27	1.584686	731055.6	-1026240	1	1260005	-54.53534	2.298536E-010	-0.0338621	4
	59	29	1.266892	862393.1	-1156486	1	1442630	-53.28806	1.964232E-010	-0.0338983	4
	60	31	0.999041	1025449	-1303782	1	1658733	-51.81429	1.820445E-010	-0.0339269	4
