EXPLAIN
TAG	EISPOT
TITLE	LABEL	Potentiostatic EIS	Test &Identifier
DATE	LABEL	3/3/2020	Date
TIME	LABEL	17:35:28	Time
NOTES	NOTES	1	&Notes...
	
PSTAT	PSTAT	REF600-11020	Potentiostat
VDC	POTEN	0.00000E+000	T	DC &Voltage (V)
FREQINIT	QUANT	1.00000E+006	Initial Fre&q. (Hz)
FREQFINAL	QUANT	1.00000E+000	Final Fre&q. (Hz)
PTSPERDEC	QUANT	1.00000E+001	Points/&decade
VAC	QUANT	2.50000E+001	AC &Voltage (mV rms)
AREA	QUANT	1.60000E-004	&Area (cm^2)
CONDIT	TWOPARAM	F	1.50000E+001	0.00000E+000	Conditionin&g	Time(s)	E(V)
DELAY	TWOPARAM	F	1.00000E+002	0.00000E+000	Init. De&lay	Time(s)	Stab.(mV/s)
SPEED	SELECTOR	1	&Optimize for:
ZGUESS	QUANT	1.00000E+004	E&stimated Z (ohms)
OCVCURVE	TABLE	39
	Pt	T	Vf	Vm	Ach	Over
	#	s	V vs. Ref.	V	V	bits
	0	0.258333	1.47381E-001	1.47381E-001	5.81530E-004	...........
	1	0.516667	1.46782E-001	1.16023E-001	5.80230E-004	...........
	2	0.775	1.44062E-001	1.36503E-001	5.76763E-004	...........
	3	1.03333	1.39174E-001	1.36104E-001	5.75563E-004	...........
	4	1.29167	1.35123E-001	1.45924E-001	5.81263E-004	...........
	5	1.55	1.34994E-001	1.61813E-001	5.72730E-004	...........
	6	1.80833	1.38969E-001	1.40338E-001	5.79297E-004	...........
	7	2.06667	1.44236E-001	1.47159E-001	5.80563E-004	...........
	8	2.325	1.47773E-001	1.64210E-001	5.81697E-004	...........
	9	2.58333	1.50958E-001	2.14163E-001	5.80363E-004	...........
	10	2.84167	1.58209E-001	1.63591E-001	5.78697E-004	...........
	11	3.1	1.67905E-001	1.28253E-001	5.76963E-004	...........
	12	3.35833	1.70175E-001	9.22706E-002	5.76330E-004	...........
	13	3.61667	1.58495E-001	1.15693E-001	5.75597E-004	...........
	14	3.875	1.38560E-001	1.11266E-001	5.73830E-004	...........
	15	4.13333	1.21848E-001	1.27869E-001	5.73330E-004	...........
	16	4.39167	1.14471E-001	1.16384E-001	5.79397E-004	...........
	17	4.65	1.14156E-001	1.00989E-001	5.75930E-004	...........
	18	4.90833	1.14360E-001	7.97385E-002	5.81763E-004	...........
	19	5.16667	1.10815E-001	1.26621E-001	5.84696E-004	...........
	20	5.425	1.05740E-001	9.66492E-002	5.85430E-004	...........
	21	5.68333	1.03215E-001	9.66530E-002	5.77297E-004	...........
	22	5.94167	1.02881E-001	1.09854E-001	5.78197E-004	...........
	23	6.2	1.03029E-001	1.15343E-001	5.77830E-004	...........
	24	6.45833	1.04806E-001	1.34114E-001	5.85197E-004	...........
	25	6.71667	1.09657E-001	1.21467E-001	5.79497E-004	...........
	26	6.975	1.16267E-001	1.26504E-001	5.80997E-004	...........
	27	7.23333	1.21912E-001	1.34170E-001	5.83563E-004	...........
	28	7.49167	1.25757E-001	1.37139E-001	5.76697E-004	...........
	29	7.75	1.28954E-001	1.36370E-001	5.73597E-004	...........
	30	8.00833	1.31813E-001	1.22802E-001	5.73430E-004	...........
	31	8.26667	1.32733E-001	1.11989E-001	5.75497E-004	...........
	32	8.525	1.30225E-001	1.20653E-001	5.77830E-004	...........
	33	8.78333	1.25502E-001	1.23804E-001	5.78130E-004	...........
	34	9.04167	1.21858E-001	1.29117E-001	5.81097E-004	...........
	35	9.3	1.21323E-001	1.27315E-001	5.81230E-004	...........
	36	9.5583	1.23084E-001	1.23284E-001	5.82097E-004	...........
	37	9.8167	1.24985E-001	1.25487E-001	5.82230E-004	...........
	38	10.075	1.25859E-001	1.30852E-001	5.77897E-004	...........
EOC	QUANT	0.1258586	Open Circuit (V)
PSTATMODEL	IQUANT	4	Pstat Model
PSTATSECTION	LABEL	REF600-11020	Pstat Section
PSTATSERIALNO	LABEL	11020	Pstat Serial Number
CTRLMODE	IQUANT	1	Control Mode
IESTAB	IQUANT	0	I/E Stability
CASPEED	IQUANT	1	Control Amp Speed
CONVENTION	IQUANT	1	Current Convention
ICHRANGE	IQUANT	2	Ich Range
ICHRANGEMODE	TOGGLE	F	Ich Auto Range
ICHOFFSETENABLE	TOGGLE	T	Ich Offset Enable
ICHOFFSET	QUANT	0	Ich Offset (V)
ICHFILTER	IQUANT	3	Ich Filter
VCHRANGE	IQUANT	2	Vch Range
VCHRANGEMODE	TOGGLE	F	Vch Auto Range
VCHOFFSETENABLE	TOGGLE	T	Vch Offset Enable
VCHOFFSET	QUANT	0	Vch Offset (V)
VCHFILTER	IQUANT	3	Vch Filter
ACHRANGE	IQUANT	2	Ach Range
ACHOFFSETENABLE	TOGGLE	F	Ach Offset Enable
ACHOFFSET	QUANT	0	Ach Offset (V)
ACHFILTER	IQUANT	3	Ach Filter
IERANGELOWERLIMIT	IQUANT	1	I/E Range Lower Limit
IERANGEMODE	TOGGLE	F	I/E AutoRange
IERANGE	IQUANT	7	I/E Range
POSFEEDENABLE	TOGGLE	F	Positive Feedback IR Comp
POSFEEDRESISTANCE	QUANT	0	Positive Feedback Resistance (ohm)
ACHSELECT	IQUANT	0	Ach Select
CABLEID	IQUANT	14	Cable ID
DCCALDATE	LABEL	2/27/2020	DC Calibration Date
ACCALDATE	LABEL	2/27/2020	AC Calibration Date
THERMOSELECT	IQUANT	1	Thermo Select
FRAMEWORKVERSION	QUANT	6.33	Framework Version
INSTRUMENTVERSION	LABEL	3.50	Instrument Version
ZCURVE	TABLE
	Pt	Time	Freq	Zreal	Zimag	Zsig	Zmod	Zphz	Idc	Vdc	IERange
	#	s	Hz	ohm	ohm	V	ohm	°	A	V	#
	0	2	1000078	1468.901	-7669.6	1	7808.997	-79.15786	-3.836985E-007	0.1282464	8
	1	3	794390.6	1134.394	-9227.701	1	9297.167	-82.99159	-4.001089E-007	0.1276053	8
	2	5	630984.4	1305.763	-11468.85	1	11542.95	-83.50468	1.63326E-006	0.1271247	8
	3	6	501234.4	1544.851	-14318.5	1	14401.59	-83.84206	8.18452E-007	0.127339	8
	4	9	398109.4	1890.265	-17714.47	1	17815.04	-83.90916	6.566084E-007	0.1272039	8
	5	10	316265.6	2230.311	-22134.04	1	22246.13	-84.24608	1.656903E-007	0.1272478	8
	6	12	251203.1	2998.725	-27440.36	1	27603.73	-83.76338	-1.382484E-007	0.1274081	8
	7	13	199546.9	3133.337	-33904.78	1	34049.26	-84.71996	-7.920456E-007	0.1274003	8
	8	15	158578.1	4387.321	-41680.07	1	41910.34	-83.99107	-1.921715E-006	0.127684	8
	9	17	125953.1	5413.049	-52448.79	1	52727.38	-84.10757	6.003201E-007	0.1262835	7
	10	18	100078.1	6852.007	-65184.35	1	65543.49	-83.99925	-4.591405E-008	0.1271598	7
	11	20	79453.13	9360.437	-78962.85	1	79515.72	-83.23958	-1.096558E-007	0.1272341	7
	12	22	63140.62	11048.18	-100772.1	1	101375.9	-83.74335	2.236534E-008	0.1273492	7
	13	23	50203.12	14332.51	-124749.7	1	125570.4	-83.44601	2.355717E-008	0.1273385	7
	14	25	39890.62	17906.65	-155518.2	1	156545.7	-83.43179	1.535279E-007	0.1270167	7
	15	26	31640.63	22909.68	-192568.1	1	193926.1	-83.21545	1.54393E-007	0.1270148	7
	16	28	25171.88	29074.48	-237644.3	1	239416.3	-83.02484	1.771022E-008	0.1270413	7
	17	30	20015.62	40362.55	-294683.2	1	297434.5	-82.20077	2.423265E-008	0.1273279	7
	18	31	15890.62	50954.6	-367499.1	1	371014.7	-82.10613	-1.765966E-007	0.127441	7
	19	33	12609.37	67209.28	-465622.6	1	470448.2	-81.78649	1.791644E-008	0.127371	6
	20	34	10078.13	91148.68	-554206.9	1	561652.4	-80.66035	2.755791E-008	0.1267845	6
	21	36	8015.625	124417.7	-681274.1	1	692541.8	-79.65041	-2.110953E-008	0.1277967	6
	22	37	6328.125	163849.9	-842138.8	1	857930.4	-78.98985	-1.657252E-008	0.1271663	6
	23	39	5015.625	227498.4	-1034150	1	1058877	-77.59335	-1.702634E-008	0.1271707	6
	24	41	3984.375	306599.4	-1247199	1	1284332	-76.18883	3.358478E-008	0.1269646	6
	25	43	3170.956	411285.6	-1557795	1	1611174	-75.21037	-8.023886E-009	0.1270495	6
	26	44	2527.573	592099.9	-1845460	1	1938119	-72.21162	8.271226E-009	0.1274898	6
	27	46	1976.103	890197.9	-2216172	1	2388278	-68.11552	1.388108E-009	0.1269225	6
	28	48	1577.524	1057578	-2591033	1	2798557	-67.79626	3.111243E-008	0.1269296	6
	29	49	1265.625	1449145	-3053151	1	3379608	-64.60915	-1.793939E-009	0.1277867	5
	30	51	998.264	1900146	-3595892	1	4067062	-62.14708	1.887722E-009	0.1267867	5
	31	53	796.875	2327087	-4089748	1	4705462	-60.35991	-3.08833E-009	0.1274342	5
	32	54	627.7902	3101276	-4676269	1	5611186	-56.44788	-2.005185E-009	0.1272605	5
	33	55	505.5147	3854377	-5107467	1	6398628	-52.95978	3.158476E-009	0.1268747	5
	34	57	397.9953	4896724	-5463498	1	7336737	-48.13135	-3.415922E-011	0.1272833	5
	35	58	315.5048	5915602	-6127201	1	8516862	-46.00662	-2.829756E-010	0.1272825	5
	36	60	252.4038	6971194	-6024255	1	9213532	-40.83239	4.140133E-010	0.1272838	5
	37	61	198.6229	8049224	-6422946	1	1.029778E+007	-38.58841	6.8309E-011	0.1272866	5
	38	63	158.3615	8847289	-7099584	1	1.134366E+007	-38.7456	-1.033941E-010	0.1272836	5
	39	64	125.558	1.015086E+007	-6272388	1	1.193242E+007	-31.71263	-1.091197E-010	0.1272754	4
	40	66	100.4464	1.12659E+007	-7086502	1	1.330936E+007	-32.1708	-3.07949E-011	0.1272737	4
	41	68	79.00281	9.556936E+006	-5268220	1	1.09128E+007	-28.86556	9.206446E-012	0.1272716	4
	42	69	63.3446	1457775	-7190382	1	7336668	-78.53922	-1.192831E-010	0.1272803	4
	43	71	49.86702	1.337482E+007	-3568466	1	1.384268E+007	-14.9388	1.267607E-011	0.1272817	5
	44	73	39.72458	1.729119E+007	-4374011	1	1.783584E+007	-14.19585	-5.795888E-011	0.1272791	4
	45	75	31.6723	1.373786E+007	-7889937	1	1.584234E+007	-29.86965	4.856012E-012	0.1272759	4
	46	76	24.93351	1.780771E+007	-7235469	1	1.922151E+007	-22.11245	4.574353E-011	0.127278	4
	47	78	19.86229	1.827619E+007	-8927886	1	2.034026E+007	-26.03543	1.212778E-010	0.1272801	4
	48	80	15.83615	1.311136E+007	-1217320	1	1.316775E+007	-5.304401	-4.305865E-010	0.1272758	4
	49	81	12.40079	1.820744E+007	-7908869	1	1.985097E+007	-23.47895	1.545027E-011	0.1272802	4
	50	83	9.93114	2.188634E+007	-6740728	1	2.290086E+007	-17.1182	5.139814E-011	0.1272738	4
	51	85	7.944915	1.893422E+007	-3065549	1	1.918077E+007	-9.196683	-1.380448E-010	0.1272735	4
	52	87	6.317385	2.323849E+007	-5643414	1	2.391392E+007	-13.64991	4.568496E-011	0.1272861	4
	53	89	5.008013	2.480852E+007	-4491094	1	2.521176E+007	-10.26114	4.785863E-012	0.1272705	4
	54	92	3.945707	2.48241E+007	-6328510	1	2.561808E+007	-14.30201	7.816896E-011	0.1272775	4
	55	95	3.158693	2.555337E+007	-4829447	1	2.600574E+007	-10.70235	4.111322E-011	0.1272854	4
	56	99	2.504006	3.736819E+007	-6639752	1	3.79535E+007	-10.07542	4.241316E-011	0.127277	3
	57	103	1.998082	3.823444E+007	-6505841	1	3.8784E+007	-9.65676	5.04429E-011	0.1272294	3
	58	108	1.584686	3.892686E+007	-6420495	1	3.94528E+007	-9.365891	4.699989E-011	0.1272913	3
	59	113	1.266892	3.959814E+007	-6358800	1	4.010545E+007	-9.12286	4.810007E-011	0.1272362	3
	60	117	0.999041	4.025152E+007	-6461866	1	4.076691E+007	-9.120283	5.748865E-011	0.1273179	3
