EXPLAIN
TAG	EISPOT
TITLE	LABEL	Potentiostatic EIS	Test &Identifier
DATE	LABEL	9/11/2020	Date
TIME	LABEL	20:05:01	Time
NOTES	NOTES	1	&Notes...
	
PSTAT	PSTAT	REF600-11020	Potentiostat
VDC	POTEN	0.00000E+000	T	DC &Voltage (V)
FREQINIT	QUANT	1.00000E+006	Initial Fre&q. (Hz)
FREQFINAL	QUANT	1.00000E+000	Final Fre&q. (Hz)
PTSPERDEC	QUANT	1.00000E+001	Points/&decade
VAC	QUANT	2.50000E+001	AC &Voltage (mV rms)
AREA	QUANT	4.00000E-005	&Area (cm^2)
CONDIT	TWOPARAM	F	5.00000E+000	0.00000E+000	Conditionin&g	Time(s)	E(V)
DELAY	TWOPARAM	F	3.00000E+000	0.00000E+000	Init. De&lay	Time(s)	Stab.(mV/s)
SPEED	SELECTOR	0	&Optimize for:
ZGUESS	QUANT	1.00000E+003	E&stimated Z (ohms)
OCVCURVE	TABLE	39
	Pt	T	Vf	Vm	Ach	Over
	#	s	V vs. Ref.	V	V	bits
	0	0.258333	-1.99114E-001	-1.99114E-001	5.53059E-004	...........
	1	0.516667	-1.99114E-001	-1.99109E-001	5.48625E-004	...........
	2	0.775	-1.99113E-001	-1.99105E-001	5.49859E-004	...........
	3	1.03333	-1.99112E-001	-1.99104E-001	5.48659E-004	...........
	4	1.29167	-1.99109E-001	-1.99100E-001	5.48392E-004	...........
	5	1.55	-1.99106E-001	-1.99099E-001	5.55659E-004	...........
	6	1.80833	-1.99103E-001	-1.99095E-001	5.50559E-004	...........
	7	2.06667	-1.99101E-001	-1.99093E-001	5.48859E-004	...........
	8	2.325	-1.99098E-001	-1.99094E-001	5.49292E-004	...........
	9	2.58333	-1.99096E-001	-1.99092E-001	5.51059E-004	...........
	10	2.84167	-1.99094E-001	-1.99087E-001	5.48092E-004	...........
	11	3.1	-1.99093E-001	-1.99085E-001	5.44059E-004	...........
	12	3.35833	-1.99091E-001	-1.99088E-001	5.47259E-004	...........
	13	3.61667	-1.99089E-001	-1.99087E-001	5.49125E-004	...........
	14	3.875	-1.99087E-001	-1.99086E-001	5.48159E-004	...........
	15	4.13333	-1.99087E-001	-1.99086E-001	5.47859E-004	...........
	16	4.39167	-1.99087E-001	-1.99085E-001	5.49459E-004	...........
	17	4.65	-1.99086E-001	-1.99086E-001	5.51459E-004	...........
	18	4.90833	-1.99086E-001	-1.99086E-001	5.50725E-004	...........
	19	5.16667	-1.99086E-001	-1.99085E-001	5.52592E-004	...........
	20	5.425	-1.99086E-001	-1.99085E-001	5.54859E-004	...........
	21	5.68333	-1.99086E-001	-1.99083E-001	5.56525E-004	...........
	22	5.94167	-1.99085E-001	-1.99085E-001	5.54025E-004	...........
	23	6.2	-1.99085E-001	-1.99086E-001	5.54525E-004	...........
	24	6.45833	-1.99085E-001	-1.99088E-001	5.54792E-004	...........
	25	6.71667	-1.99085E-001	-1.99088E-001	5.51092E-004	...........
	26	6.975	-1.99086E-001	-1.99102E-001	5.57159E-004	...........
	27	7.23333	-1.99089E-001	-1.99088E-001	5.57325E-004	...........
	28	7.49167	-1.99091E-001	-1.99089E-001	5.53025E-004	...........
	29	7.75	-1.99092E-001	-1.99089E-001	5.51625E-004	...........
	30	8.00833	-1.99092E-001	-1.99089E-001	5.52625E-004	...........
	31	8.26667	-1.99091E-001	-1.99089E-001	5.51992E-004	...........
	32	8.525	-1.99090E-001	-1.99089E-001	5.52659E-004	...........
	33	8.78333	-1.99089E-001	-1.99094E-001	5.51225E-004	...........
	34	9.04167	-1.99090E-001	-1.99096E-001	5.53392E-004	...........
	35	9.3	-1.99091E-001	-1.99097E-001	5.55359E-004	...........
	36	9.5583	-1.99093E-001	-1.99096E-001	5.51292E-004	...........
	37	9.8167	-1.99094E-001	-1.99097E-001	5.50125E-004	...........
	38	10.075	-1.99096E-001	-1.99097E-001	5.52492E-004	...........
EOC	QUANT	-0.1990957	Open Circuit (V)
PSTATMODEL	IQUANT	4	Pstat Model
PSTATSECTION	LABEL	REF600-11020	Pstat Section
PSTATSERIALNO	LABEL	11020	Pstat Serial Number
CTRLMODE	IQUANT	1	Control Mode
IESTAB	IQUANT	0	I/E Stability
CASPEED	IQUANT	1	Control Amp Speed
CONVENTION	IQUANT	1	Current Convention
ICHRANGE	IQUANT	2	Ich Range
ICHRANGEMODE	TOGGLE	F	Ich Auto Range
ICHOFFSETENABLE	TOGGLE	T	Ich Offset Enable
ICHOFFSET	QUANT	0	Ich Offset (V)
ICHFILTER	IQUANT	3	Ich Filter
VCHRANGE	IQUANT	2	Vch Range
VCHRANGEMODE	TOGGLE	F	Vch Auto Range
VCHOFFSETENABLE	TOGGLE	T	Vch Offset Enable
VCHOFFSET	QUANT	0	Vch Offset (V)
VCHFILTER	IQUANT	3	Vch Filter
ACHRANGE	IQUANT	2	Ach Range
ACHOFFSETENABLE	TOGGLE	F	Ach Offset Enable
ACHOFFSET	QUANT	0	Ach Offset (V)
ACHFILTER	IQUANT	3	Ach Filter
IERANGELOWERLIMIT	IQUANT	1	I/E Range Lower Limit
IERANGEMODE	TOGGLE	F	I/E AutoRange
IERANGE	IQUANT	8	I/E Range
POSFEEDENABLE	TOGGLE	F	Positive Feedback IR Comp
POSFEEDRESISTANCE	QUANT	0	Positive Feedback Resistance (ohm)
ACHSELECT	IQUANT	0	Ach Select
CABLEID	IQUANT	14	Cable ID
DCCALDATE	LABEL	9/1/2020	DC Calibration Date
ACCALDATE	LABEL	9/1/2020	AC Calibration Date
THERMOSELECT	IQUANT	1	Thermo Select
FRAMEWORKVERSION	QUANT	6.33	Framework Version
INSTRUMENTVERSION	LABEL	3.50	Instrument Version
ZCURVE	TABLE
	Pt	Time	Freq	Zreal	Zimag	Zsig	Zmod	Zphz	Idc	Vdc	IERange
	#	s	Hz	ohm	ohm	V	ohm	°	A	V	#
	0	1	1000078	1669.945	-2325.226	1	2862.759	-54.31461	6.053515E-008	-0.1967561	8
	1	1	794390.6	2013.464	-2593.464	1	3283.305	-52.17564	7.624899E-008	-0.1970957	8
	2	1	630984.4	2385.632	-2865.676	1	3728.718	-50.22313	7.111113E-008	-0.1972918	8
	3	2	501234.4	2788.085	-3135.359	1	4195.699	-48.35524	7.076729E-008	-0.1973752	8
	4	2	398109.4	3210.622	-3421.309	1	4691.849	-46.8196	4.106974E-008	-0.1974435	8
	5	2	316265.6	3642.971	-3735.878	1	5218.048	-45.72137	8.012965E-008	-0.1974763	8
	6	3	251203.1	4090.58	-4081.106	1	5778.258	-44.93357	3.893526E-008	-0.1974955	8
	7	3	199546.9	4554.043	-4505.28	1	6406.002	-44.6916	6.532817E-008	-0.1975041	8
	8	3	158578.1	5047.183	-4960.396	1	7076.693	-44.50314	8.082123E-008	-0.197491	8
	9	4	125953.1	5626.878	-5525.142	1	7885.997	-44.47732	1.961953E-009	-0.1974914	7
	10	4	100078.1	6186.173	-6208.07	1	8764.067	-45.10123	3.55177E-009	-0.19753	7
	11	4	79453.13	6783.893	-7024.759	1	9765.68	-45.99932	4.402201E-009	-0.1975291	7
	12	4	63140.62	7425.667	-7989.649	1	10907.57	-47.09528	3.098108E-009	-0.1975308	7
	13	5	50203.12	8140.317	-9148.829	1	12246.05	-48.3384	1.248798E-009	-0.197538	7
	14	5	39890.62	8916.441	-10538.42	1	13804.39	-49.76581	1.071736E-009	-0.1975378	7
	15	5	31640.63	9779.16	-12247.46	1	15672.66	-51.39387	1.759179E-009	-0.1975436	7
	16	6	25171.88	10736.12	-14311.7	1	17891.03	-53.12408	5.873329E-009	-0.1975456	7
	17	6	20015.62	11847.87	-16801.06	1	20558.4	-54.80904	6.394961E-009	-0.1975429	7
	18	6	15890.62	13189.97	-19800.54	1	23791.53	-56.33076	3.137643E-009	-0.1975432	7
	19	7	12609.37	15059.64	-23502.76	1	27913.66	-57.34986	1.709437E-009	-0.1975519	6
	20	7	10078.13	16973.44	-27777.49	1	32552.83	-58.57298	8.755792E-010	-0.197544	6
	21	7	8015.625	19409.17	-32983.59	1	38270.52	-59.52534	1.054198E-009	-0.1975444	6
	22	8	6328.125	22584.79	-39395.98	1	45410.53	-60.17536	9.719988E-010	-0.1975394	6
	23	8	5015.625	26597.38	-46816.91	1	53844.63	-60.39845	8.13853E-010	-0.1975485	6
	24	8	3984.375	31630.76	-55414.02	1	63806.09	-60.28194	1.570822E-009	-0.1975487	6
	25	9	3170.956	38094.3	-65104.48	1	75430.55	-59.667	9.407015E-010	-0.1975486	6
	26	9	2527.573	46209.33	-76005.54	1	88950.23	-58.70152	1.337833E-009	-0.1975494	6
	27	9	1976.103	57489.34	-89037.05	1	105984.1	-57.15052	1.325928E-009	-0.1975546	6
	28	10	1577.524	70443.7	-101693.3	1	123708.7	-55.28938	1.339571E-009	-0.1975551	6
	29	10	1265.625	88330.47	-113126.5	1	143526.6	-52.01688	6.754599E-010	-0.1975657	5
	30	10	998.264	107636.2	-126304.9	1	165947.2	-49.56258	6.043093E-010	-0.197567	5
	31	11	796.875	128767.6	-137921.3	1	188688.6	-46.96583	5.959719E-010	-0.1975625	5
	32	11	627.7902	153403.5	-148377.8	1	213421.2	-44.04591	6.068605E-010	-0.1975663	5
	33	11	505.5147	177405.4	-156347.6	1	236468.3	-41.38977	5.58563E-010	-0.1975677	5
	34	11	397.9953	204644.1	-162914.3	1	261572.7	-38.52281	5.426888E-010	-0.1975561	5
	35	12	315.5048	231098.7	-167463	1	285395.3	-35.92852	5.388793E-010	-0.1975593	5
	36	12	252.4038	256064.2	-171159	1	308000.5	-33.75965	4.77389E-010	-0.1975605	5
	37	12	198.6229	281901.7	-174696	1	331643.2	-31.78672	4.803772E-010	-0.1975576	5
	38	13	158.3615	305486.5	-178780.7	1	353955.6	-30.33756	4.072941E-010	-0.1975603	5
	39	13	125.558	329054.4	-184535.9	1	377266.9	-29.28399	3.748007E-010	-0.1975592	5
	40	13	100.4464	351286.8	-191740.4	1	400208.4	-28.62672	3.449257E-010	-0.1975622	5
	41	14	79.00281	375214.5	-202121.1	1	426191.1	-28.31053	4.163124E-010	-0.1975603	5
	42	14	63.3446	397833.5	-214391	1	451923.7	-28.32007	4.426261E-010	-0.1975606	5
	43	14	49.86702	424207.1	-231892.3	1	483451.9	-28.66317	3.455672E-010	-0.1975589	5
	44	15	39.72458	451245.4	-251719.6	1	516706.1	-29.15422	4.880533E-010	-0.1975558	5
	45	15	31.6723	482801.9	-276357.4	1	556301.3	-29.78697	4.916724E-010	-0.1975524	5
	46	15	24.93351	521230.3	-306426.9	1	604630.9	-30.45091	2.233051E-010	-0.1975599	5
	47	16	19.86229	563724.9	-337166.1	1	656861.3	-30.88381	3.944598E-010	-0.1975553	5
	48	16	15.83615	610952.7	-368604.6	1	713535.3	-31.10374	2.784867E-010	-0.1975567	5
	49	16	12.40079	675410.9	-406572.3	1	788340.6	-31.04638	-1.277914E-010	-0.1975566	5
	50	17	9.93114	736728.7	-437668.6	1	856926.4	-30.71329	-1.482949E-010	-0.1975651	5
	51	17	7.944915	803993.9	-463321.4	1	927940.2	-29.95376	5.079498E-010	-0.197566	5
	52	17	6.317385	883678.3	-491075	1	1010961	-29.06167	2.517259E-011	-0.1975434	4
	53	18	5.008013	966130	-516421.8	1	1095491	-28.12566	-2.06959E-010	-0.1975622	4
	54	19	3.945707	1046940	-533343.8	1	1174964	-26.9957	8.953593E-011	-0.1975554	4
	55	20	3.158693	1127189	-551774.4	1	1254994	-26.08238	-1.079499E-010	-0.1975621	4
	56	21	2.504006	1205708	-567296	1	1332501	-25.19738	1.954206E-011	-0.1975669	4
	57	22	1.998082	1286119	-585553.8	1	1413143	-24.47918	2.755076E-010	-0.1975339	4
	58	24	1.584686	1355190	-604762.5	1	1484007	-24.04913	1.135958E-010	-0.1975737	4
	59	26	1.266892	1428367	-628353.2	1	1560468	-23.74518	1.666464E-011	-0.197607	4
	60	28	0.999041	1511327	-662623.4	1	1650206	-23.67448	-7.560416E-011	-0.1976075	4
