EXPLAIN
TAG	EISPOT
TITLE	LABEL	Potentiostatic EIS	Test &Identifier
DATE	LABEL	6/1/2020	Date
TIME	LABEL	13:16:39	Time
NOTES	NOTES	1	&Notes...
	
PSTAT	PSTAT	REF600-11020	Potentiostat
VDC	POTEN	0.00000E+000	T	DC &Voltage (V)
FREQINIT	QUANT	1.00000E+006	Initial Fre&q. (Hz)
FREQFINAL	QUANT	1.00000E+000	Final Fre&q. (Hz)
PTSPERDEC	QUANT	1.00000E+001	Points/&decade
VAC	QUANT	2.50000E+001	AC &Voltage (mV rms)
AREA	QUANT	4.00000E-004	&Area (cm^2)
CONDIT	TWOPARAM	F	5.00000E+000	0.00000E+000	Conditionin&g	Time(s)	E(V)
DELAY	TWOPARAM	T	3.00000E+000	0.00000E+000	Init. De&lay	Time(s)	Stab.(mV/s)
SPEED	SELECTOR	0	&Optimize for:
ZGUESS	QUANT	1.00000E+003	E&stimated Z (ohms)
OCVCURVE	TABLE	12
	Pt	T	Vf	Vm	Ach	Over
	#	s	V vs. Ref.	V	V	bits
	0	0.258333	-1.41626E-001	-1.41626E-001	5.70597E-004	...........
	1	0.516667	-1.41628E-001	-1.41698E-001	5.73063E-004	...........
	2	0.775	-1.41636E-001	-1.41763E-001	5.71163E-004	...........
	3	1.03333	-1.41660E-001	-1.41829E-001	5.71097E-004	...........
	4	1.29167	-1.41702E-001	-1.41894E-001	5.70330E-004	...........
	5	1.55	-1.41758E-001	-1.41948E-001	5.74530E-004	...........
	6	1.80833	-1.41820E-001	-1.42004E-001	5.68563E-004	...........
	7	2.06667	-1.41883E-001	-1.42060E-001	5.71530E-004	...........
	8	2.325	-1.41942E-001	-1.42112E-001	5.68363E-004	...........
	9	2.58333	-1.41999E-001	-1.42162E-001	5.70530E-004	...........
	10	2.84167	-1.42054E-001	-1.42214E-001	5.69297E-004	...........
	11	3.1	-1.42107E-001	-1.42264E-001	5.65463E-004	...........
EOC	QUANT	-0.1421069	Open Circuit (V)
PSTATMODEL	IQUANT	4	Pstat Model
PSTATSECTION	LABEL	REF600-11020	Pstat Section
PSTATSERIALNO	LABEL	11020	Pstat Serial Number
CTRLMODE	IQUANT	1	Control Mode
IESTAB	IQUANT	0	I/E Stability
CASPEED	IQUANT	1	Control Amp Speed
CONVENTION	IQUANT	1	Current Convention
ICHRANGE	IQUANT	2	Ich Range
ICHRANGEMODE	TOGGLE	F	Ich Auto Range
ICHOFFSETENABLE	TOGGLE	T	Ich Offset Enable
ICHOFFSET	QUANT	0	Ich Offset (V)
ICHFILTER	IQUANT	3	Ich Filter
VCHRANGE	IQUANT	2	Vch Range
VCHRANGEMODE	TOGGLE	F	Vch Auto Range
VCHOFFSETENABLE	TOGGLE	T	Vch Offset Enable
VCHOFFSET	QUANT	0	Vch Offset (V)
VCHFILTER	IQUANT	3	Vch Filter
ACHRANGE	IQUANT	2	Ach Range
ACHOFFSETENABLE	TOGGLE	F	Ach Offset Enable
ACHOFFSET	QUANT	0	Ach Offset (V)
ACHFILTER	IQUANT	3	Ach Filter
IERANGELOWERLIMIT	IQUANT	1	I/E Range Lower Limit
IERANGEMODE	TOGGLE	F	I/E AutoRange
IERANGE	IQUANT	8	I/E Range
POSFEEDENABLE	TOGGLE	F	Positive Feedback IR Comp
POSFEEDRESISTANCE	QUANT	0	Positive Feedback Resistance (ohm)
ACHSELECT	IQUANT	0	Ach Select
CABLEID	IQUANT	14	Cable ID
DCCALDATE	LABEL	2/27/2020	DC Calibration Date
ACCALDATE	LABEL	2/27/2020	AC Calibration Date
THERMOSELECT	IQUANT	1	Thermo Select
FRAMEWORKVERSION	QUANT	6.33	Framework Version
INSTRUMENTVERSION	LABEL	3.50	Instrument Version
ZCURVE	TABLE
	Pt	Time	Freq	Zreal	Zimag	Zsig	Zmod	Zphz	Idc	Vdc	IERange
	#	s	Hz	ohm	ohm	V	ohm	°	A	V	#
	0	1	1000078	1727.074	-2562.582	1	3090.244	-56.02165	4.029172E-008	-0.1395565	8
	1	2	794390.6	2048.232	-2938.515	1	3581.917	-55.12236	5.384287E-008	-0.1398925	8
	2	2	630984.4	2426.803	-3360.518	1	4145.172	-54.16501	4.811649E-008	-0.140044	8
	3	2	501234.4	2883.964	-3830.07	1	4794.443	-53.021	1.237395E-008	-0.1401495	8
	4	3	398109.4	3423.036	-4346.509	1	5532.569	-51.77826	4.707295E-008	-0.1402339	8
	5	3	316265.6	4075.577	-4885.877	1	6362.557	-50.16666	4.803929E-008	-0.1402668	8
	6	3	251203.1	4843.137	-5440.502	1	7283.889	-48.32452	4.134417E-008	-0.1402842	8
	7	4	199546.9	5752.182	-5962.428	1	8284.814	-46.0282	3.361302E-008	-0.1402647	8
	8	4	158578.1	6792.159	-6475.989	1	9384.661	-43.63494	4.415832E-008	-0.1402638	8
	9	4	125953.1	8123.651	-6800.108	1	10594.11	-39.93187	-6.122872E-010	-0.1403243	7
	10	4	100078.1	9347.119	-7096.679	1	11735.91	-37.20712	2.297149E-009	-0.1403479	7
	11	5	79453.13	10673.2	-7303.307	1	12932.73	-34.38251	3.292908E-009	-0.1403547	7
	12	5	63140.62	12022.62	-7330.644	1	14081.25	-31.37223	2.574369E-009	-0.1403661	7
	13	5	50203.12	13333.74	-7219.25	1	15162.66	-28.43231	2.297147E-009	-0.1403721	7
	14	6	39890.62	14595.91	-6982.188	1	16179.97	-25.56488	2.295275E-009	-0.1403722	7
	15	6	31640.63	15763.99	-6641.968	1	17106.12	-22.84754	2.595776E-009	-0.1403764	7
	16	6	25171.88	16809.97	-6257.271	1	17936.8	-20.41706	3.099447E-009	-0.1403764	7
	17	7	20015.62	17725.91	-5822.82	1	18657.79	-18.18493	2.465762E-009	-0.1403762	7
	18	7	15890.62	18558.05	-5393.132	1	19325.82	-16.20433	3.819225E-009	-0.1403725	7
	19	7	12609.37	19417.48	-4684.811	1	19974.64	-13.56439	7.317706E-010	-0.1403297	6
	20	8	10078.13	19973.15	-4354.562	1	20442.33	-12.29921	6.080078E-010	-0.1403267	6
	21	8	8015.625	20455.39	-4067.172	1	20855.81	-11.24553	7.805279E-010	-0.1403336	6
	22	8	6328.125	20880.69	-3839.192	1	21230.7	-10.41823	7.938071E-010	-0.1403266	6
	23	9	5015.625	21250.12	-3694.017	1	21568.8	-9.86147	6.516023E-010	-0.1403295	6
	24	9	3984.375	21588.13	-3637.646	1	21892.46	-9.56461	6.194072E-010	-0.1403327	6
	25	9	3170.956	21886.31	-3671.56	1	22192.13	-9.52304	7.980219E-010	-0.1403281	6
	26	10	2527.573	22177.5	-3800.576	1	22500.8	-9.72436	8.715434E-011	-0.1403329	6
	27	10	1976.103	22501.22	-4061.036	1	22864.75	-10.23065	5.633037E-010	-0.1403272	6
	28	10	1577.524	22820.66	-4416.175	1	23244.04	-10.9523	5.290773E-010	-0.1403328	6
	29	11	1265.625	23103.61	-4880.987	1	23613.57	-11.92919	4.257834E-010	-0.1403368	6
	30	11	998.264	23425.26	-5544.126	1	24072.4	-13.31535	4.557004E-010	-0.1403391	6
	31	11	796.875	23774.67	-6351.845	1	24608.55	-14.95826	4.456228E-010	-0.1403372	6
	32	12	627.7902	24221.42	-7430.945	1	25335.67	-17.05561	3.027202E-010	-0.1403402	6
	33	12	505.5147	24654.55	-8646.588	1	26126.81	-19.32626	-2.085207E-011	-0.1403475	6
	34	12	397.9953	25230.91	-10290.09	1	27248.58	-22.18744	6.198406E-010	-0.1403185	6
	35	12	315.5048	25899.61	-12255.31	1	28652.79	-25.32282	5.584137E-010	-0.1403227	6
	36	13	252.4038	26687.89	-14544.88	1	30394.03	-28.59036	5.806076E-010	-0.1403275	6
	37	13	198.6229	27675.1	-17529.75	1	32759.78	-32.35068	5.538441E-010	-0.1403256	6
	38	13	158.3615	28846.57	-20940.13	1	35645.67	-35.97642	4.805901E-010	-0.1403299	6
	39	14	125.558	30324.43	-25139.63	1	39390	-39.6595	3.611271E-010	-0.1403255	6
	40	14	100.4464	32068.43	-29971.71	1	43894.05	-43.06436	4.053512E-010	-0.1403264	6
	41	14	79.00281	34400.84	-36201.33	1	49939.5	-46.46084	3.430615E-010	-0.1403269	6
	42	15	63.3446	37047.82	-43029.05	1	56780.63	-49.2717	3.211759E-010	-0.1403284	6
	43	15	49.86702	40617.09	-51823.4	1	65843.85	-51.91209	3.950135E-010	-0.1403311	6
	44	16	39.72458	44740.82	-61754.19	1	76258.25	-54.07673	5.780035E-010	-0.140326	6
	45	16	31.6723	49812.48	-73447.54	1	88745.84	-55.85469	6.43352E-010	-0.1403267	6
	46	16	24.93351	56422.26	-87981.99	1	104519.4	-57.32822	2.837203E-010	-0.1403247	5
	47	17	19.86229	64131.39	-104362	1	122491.9	-58.42891	1.055403E-009	-0.1403223	5
	48	17	15.83615	73730.04	-123632.3	1	143948.1	-59.1896	-3.423112E-010	-0.1403244	5
	49	17	12.40079	86682.13	-147735.7	1	171288.2	-59.59824	4.663147E-010	-0.1403174	5
	50	17	9.93114	101183.8	-173248	1	200631.6	-59.71334	1.219648E-010	-0.1403179	5
	51	18	7.944915	118924.8	-202073.6	1	234471.5	-59.52225	-7.227297E-010	-0.140324	5
	52	18	6.317385	141138.5	-236082.3	1	275054.4	-59.12751	4.158437E-010	-0.1403387	5
	53	19	5.008013	168283.9	-274935.1	1	322348.8	-58.52979	4.660716E-010	-0.140325	5
	54	20	3.945707	201077.3	-318990.3	1	377076.7	-57.77449	1.216358E-011	-0.1403375	5
	55	21	3.158693	237245.3	-365368.3	1	435636.7	-57.00305	3.60786E-010	-0.1403296	5
	56	22	2.504006	279746.9	-418691.1	1	503547.9	-56.25128	2.515871E-010	-0.1403314	5
	57	23	1.998082	327222.6	-477044.9	1	578486.4	-55.55235	6.014304E-011	-0.1403748	5
	58	25	1.584686	380419.8	-543970.1	1	663794.1	-55.03338	1.472531E-010	-0.1403437	5
	59	27	1.266892	440493.9	-616728.9	1	757884.8	-54.46396	2.162338E-010	-0.1403091	5
	60	29	0.999041	512722.5	-706917.4	1	873279.2	-54.04687	2.481544E-010	-0.1402963	5
