EXPLAIN
TAG	EISPOT
TITLE	LABEL	Potentiostatic EIS	Test &Identifier
DATE	LABEL	3/9/2020	Date
TIME	LABEL	20:45:07	Time
NOTES	NOTES	1	&Notes...
	
PSTAT	PSTAT	REF600-11020	Potentiostat
VDC	POTEN	0.00000E+000	T	DC &Voltage (V)
FREQINIT	QUANT	1.00000E+006	Initial Fre&q. (Hz)
FREQFINAL	QUANT	1.00000E+000	Final Fre&q. (Hz)
PTSPERDEC	QUANT	1.00000E+001	Points/&decade
VAC	QUANT	2.50000E+001	AC &Voltage (mV rms)
AREA	QUANT	4.00000E-005	&Area (cm^2)
CONDIT	TWOPARAM	F	5.00000E+000	0.00000E+000	Conditionin&g	Time(s)	E(V)
DELAY	TWOPARAM	T	3.00000E+000	0.00000E+000	Init. De&lay	Time(s)	Stab.(mV/s)
SPEED	SELECTOR	0	&Optimize for:
ZGUESS	QUANT	1.00000E+003	E&stimated Z (ohms)
OCVCURVE	TABLE	12
	Pt	T	Vf	Vm	Ach	Over
	#	s	V vs. Ref.	V	V	bits
	0	0.258333	5.47182E-002	5.47182E-002	5.82263E-004	...........
	1	0.516667	5.47179E-002	5.47038E-002	5.77597E-004	...........
	2	0.775	5.47163E-002	5.46933E-002	5.77830E-004	...........
	3	1.03333	5.47118E-002	5.46796E-002	5.77930E-004	...........
	4	1.29167	5.47040E-002	5.46689E-002	5.80963E-004	...........
	5	1.55	5.46935E-002	5.46547E-002	5.77963E-004	...........
	6	1.80833	5.46815E-002	5.46415E-002	5.83430E-004	...........
	7	2.06667	5.46689E-002	5.46300E-002	5.77197E-004	...........
	8	2.325	5.46561E-002	5.46168E-002	5.80263E-004	...........
	9	2.58333	5.46433E-002	5.46085E-002	5.78297E-004	...........
	10	2.84167	5.46310E-002	5.45958E-002	5.81797E-004	...........
	11	3.1	5.46193E-002	5.45840E-002	5.78597E-004	...........
EOC	QUANT	0.0546193	Open Circuit (V)
PSTATMODEL	IQUANT	4	Pstat Model
PSTATSECTION	LABEL	REF600-11020	Pstat Section
PSTATSERIALNO	LABEL	11020	Pstat Serial Number
CTRLMODE	IQUANT	1	Control Mode
IESTAB	IQUANT	0	I/E Stability
CASPEED	IQUANT	1	Control Amp Speed
CONVENTION	IQUANT	1	Current Convention
ICHRANGE	IQUANT	2	Ich Range
ICHRANGEMODE	TOGGLE	F	Ich Auto Range
ICHOFFSETENABLE	TOGGLE	T	Ich Offset Enable
ICHOFFSET	QUANT	0	Ich Offset (V)
ICHFILTER	IQUANT	3	Ich Filter
VCHRANGE	IQUANT	2	Vch Range
VCHRANGEMODE	TOGGLE	F	Vch Auto Range
VCHOFFSETENABLE	TOGGLE	T	Vch Offset Enable
VCHOFFSET	QUANT	0	Vch Offset (V)
VCHFILTER	IQUANT	3	Vch Filter
ACHRANGE	IQUANT	2	Ach Range
ACHOFFSETENABLE	TOGGLE	F	Ach Offset Enable
ACHOFFSET	QUANT	0	Ach Offset (V)
ACHFILTER	IQUANT	3	Ach Filter
IERANGELOWERLIMIT	IQUANT	1	I/E Range Lower Limit
IERANGEMODE	TOGGLE	F	I/E AutoRange
IERANGE	IQUANT	8	I/E Range
POSFEEDENABLE	TOGGLE	F	Positive Feedback IR Comp
POSFEEDRESISTANCE	QUANT	0	Positive Feedback Resistance (ohm)
ACHSELECT	IQUANT	0	Ach Select
CABLEID	IQUANT	14	Cable ID
DCCALDATE	LABEL	2/27/2020	DC Calibration Date
ACCALDATE	LABEL	2/27/2020	AC Calibration Date
THERMOSELECT	IQUANT	1	Thermo Select
FRAMEWORKVERSION	QUANT	6.33	Framework Version
INSTRUMENTVERSION	LABEL	3.50	Instrument Version
ZCURVE	TABLE
	Pt	Time	Freq	Zreal	Zimag	Zsig	Zmod	Zphz	Idc	Vdc	IERange
	#	s	Hz	ohm	ohm	V	ohm	°	A	V	#
	0	1	1000078	1369.654	-2345.013	1	2715.702	-59.71204	1.043568E-007	0.05666	8
	1	2	794390.6	1552.41	-2753.5	1	3160.971	-60.58591	1.013371E-008	0.0564258	8
	2	2	630984.4	1761.056	-3240.923	1	3688.482	-61.48118	5.572953E-008	0.0563194	8
	3	2	501234.4	1999.499	-3827.288	1	4318.116	-62.41598	2.152754E-008	0.0562202	8
	4	3	398109.4	2273.358	-4533.96	1	5071.977	-63.37051	4.276825E-008	0.0562009	8
	5	3	316265.6	2595.205	-5395.188	1	5986.914	-64.31142	4.799961E-008	0.0561638	8
	6	3	251203.1	2969.526	-6421.388	1	7074.766	-65.18215	3.57965E-008	0.0561624	8
	7	4	199546.9	3407.937	-7666.98	1	8390.27	-66.03507	5.627695E-009	0.05619	8
	8	4	158578.1	3925.219	-9173.147	1	9977.67	-66.83376	3.108915E-008	0.0561688	8
	9	4	125953.1	4738.984	-11012.59	1	11988.96	-66.71662	4.280929E-009	0.0561173	7
	10	5	100078.1	5509.746	-13192.95	1	14297.25	-67.33322	1.368434E-009	0.0561093	7
	11	5	79453.13	6472.985	-15957.37	1	17220.25	-67.92043	2.199005E-009	0.0561032	7
	12	5	63140.62	7727.697	-19242.02	1	20735.78	-68.11935	2.020078E-009	0.056099	7
	13	6	50203.12	9407.036	-23152.66	1	24990.76	-67.88786	1.387021E-009	0.0560863	7
	14	6	39890.62	11641.54	-27737.56	1	30081.52	-67.23207	1.429219E-009	0.0560927	7
	15	6	31640.63	14534.84	-33192.27	1	36235.18	-66.35146	1.621271E-009	0.0560941	7
	16	6	25171.88	18296.07	-39427.32	1	43465.61	-65.10655	3.091785E-009	0.0560978	7
	17	7	20015.62	23153.64	-46295.09	1	51762.21	-63.42892	3.112882E-009	0.0560927	7
	18	7	15890.62	29277.4	-53804.17	1	61254.02	-61.44729	3.211486E-009	0.0560934	7
	19	7	12609.37	38084.93	-61274.97	1	72146.27	-58.13734	7.95801E-010	0.0561435	6
	20	8	10078.13	46679.81	-69152.16	1	83432.77	-55.97945	5.747416E-010	0.0561334	6
	21	8	8015.625	56644.01	-77564.05	1	96045.4	-53.85984	7.501097E-010	0.0561386	6
	22	8	6328.125	68294.96	-86450.91	1	110172.4	-51.69178	6.745718E-010	0.0561374	6
	23	9	5015.625	81071.07	-95447.6	1	125230.8	-49.65615	6.025471E-010	0.0561377	6
	24	9	3984.375	95047.1	-105060.4	1	141674.4	-47.86466	7.370181E-010	0.0561376	6
	25	9	3170.956	110700.2	-115241.6	1	159797.2	-46.15149	7.057638E-010	0.0561372	6
	26	10	2527.573	128348.9	-125787.9	1	179711	-44.42265	7.270948E-010	0.0561303	6
	27	10	1976.103	150515.4	-137392.9	1	203793.3	-42.39034	6.800107E-010	0.0561371	6
	28	10	1577.524	173825.2	-145616	1	226758.1	-39.95343	6.406303E-010	0.0561284	6
	29	11	1265.625	202727	-148541.9	1	251322.4	-36.23094	2.159666E-010	0.0561343	5
	30	11	998.264	230278.5	-154363.4	1	277229.6	-33.83528	1.998251E-010	0.0561302	5
	31	11	796.875	256939.5	-156457.5	1	300826.9	-31.33838	1.774511E-010	0.0561291	5
	32	12	627.7902	284655.1	-156709.5	1	324940.6	-28.83385	1.774976E-010	0.0561321	5
	33	12	505.5147	308238.2	-154792.9	1	344922.7	-26.66516	1.766066E-010	0.0561376	5
	34	12	397.9953	332952.1	-152490.2	1	366210.8	-24.60751	1.66772E-010	0.0561442	5
	35	13	315.5048	355217	-150004.6	1	385591.1	-22.89385	1.355675E-010	0.0561395	5
	36	13	252.4038	375545.5	-148220.7	1	403737.3	-21.53822	8.37023E-011	0.0561352	5
	37	13	198.6229	396141.9	-147234.1	1	422618.4	-20.38859	1.27415E-010	0.0561429	5
	38	14	158.3615	415732.8	-147688.4	1	441186.7	-19.5575	2.344095E-011	0.0561394	5
	39	14	125.558	435009.2	-148908.1	1	459789.7	-18.8966	7.0441E-012	0.0561451	5
	40	14	100.4464	453926.7	-151330.8	1	478487.7	-18.43743	8.165722E-011	0.0561471	5
	41	14	79.00281	475564.7	-155037	1	500198.2	-18.05629	5.650761E-011	0.0561402	5
	42	15	63.3446	496634.7	-159322.4	1	521564.6	-17.78645	1.879759E-011	0.0561359	5
	43	15	49.86702	519432	-164824.5	1	544955.7	-17.6051	-1.078088E-010	0.0561374	5
	44	16	39.72458	542393.6	-170209.8	1	568473.5	-17.4225	9.528491E-011	0.0561391	5
	45	16	31.6723	568344.5	-176319.6	1	595066.4	-17.23565	2.644096E-010	0.056136	5
	46	16	24.93351	593290.8	-181621.2	1	620467.7	-17.02066	-2.690249E-010	0.0561401	5
	47	17	19.86229	617946.8	-187611.5	1	645799	-16.88853	-1.777996E-010	0.0561364	5
	48	17	15.83615	645737.5	-192418.6	1	673796.6	-16.59315	-2.991401E-010	0.0561395	5
	49	17	12.40079	671381.6	-197010.3	1	699690.1	-16.35381	-1.100891E-009	0.0561448	5
	50	17	9.93114	696268.6	-205483.6	1	725956.9	-16.44244	-1.166317E-009	0.0561358	5
	51	18	7.944915	720044.4	-210997.7	1	750322.6	-16.3324	4.063753E-010	0.0561355	5
	52	18	6.317385	745492.1	-220495.7	1	777416.8	-16.47674	-1.243837E-010	0.0561355	5
	53	19	5.008013	769325.3	-235111.4	1	804449.4	-16.99353	-5.150613E-010	0.056125	5
	54	20	3.945707	796380.9	-250226	1	834766.8	-17.44292	-1.553969E-010	0.0561362	5
	55	21	3.158693	816802.8	-273282.7	1	861307.3	-18.49901	-2.386373E-010	0.0561193	5
	56	22	2.504006	840094.1	-299592.7	1	891915.9	-19.62715	2.375987E-010	0.0561274	5
	57	23	1.998082	866713.8	-337271.1	1	930023.9	-21.2629	2.267583E-010	0.0561366	4
	58	25	1.584686	891214.8	-381977.6	1	969624	-23.20013	-1.794902E-011	0.0560948	4
	59	27	1.266892	922145.8	-437776.1	1	1020784	-25.39539	-9.983967E-011	0.0560899	4
	60	29	0.999041	952080	-513035.5	1	1081509	-28.31835	-1.352347E-010	0.0561071	4
