EXPLAIN
TAG	EISPOT
TITLE	LABEL	Potentiostatic EIS	Test &Identifier
DATE	LABEL	2/13/2020	Date
TIME	LABEL	13:56:43	Time
NOTES	NOTES	1	&Notes...
	
PSTAT	PSTAT	REF600-11020	Potentiostat
VDC	POTEN	0.00000E+000	T	DC &Voltage (V)
FREQINIT	QUANT	1.00000E+006	Initial Fre&q. (Hz)
FREQFINAL	QUANT	1.00000E+000	Final Fre&q. (Hz)
PTSPERDEC	QUANT	1.00000E+001	Points/&decade
VAC	QUANT	2.50000E+001	AC &Voltage (mV rms)
AREA	QUANT	5.00000E-004	&Area (cm^2)
CONDIT	TWOPARAM	F	1.50000E+001	0.00000E+000	Conditionin&g	Time(s)	E(V)
DELAY	TWOPARAM	F	1.00000E+002	0.00000E+000	Init. De&lay	Time(s)	Stab.(mV/s)
SPEED	SELECTOR	0	&Optimize for:
ZGUESS	QUANT	1.00000E+003	E&stimated Z (ohms)
OCVCURVE	TABLE	39
	Pt	T	Vf	Vm	Ach	Over
	#	s	V vs. Ref.	V	V	bits
	0	0.258333	3.54176E-002	3.54176E-002	5.74171E-004	...........
	1	0.516667	3.54185E-002	3.54665E-002	5.70371E-004	...........
	2	0.775	3.54211E-002	3.53480E-002	5.67938E-004	...........
	3	1.03333	3.54204E-002	3.53610E-002	5.68371E-004	...........
	4	1.29167	3.54077E-002	3.52878E-002	5.68938E-004	...........
	5	1.55	3.53808E-002	3.52614E-002	5.73204E-004	...........
	6	1.80833	3.53451E-002	3.52558E-002	5.74371E-004	...........
	7	2.06667	3.53071E-002	3.51609E-002	5.73571E-004	...........
	8	2.325	3.52705E-002	3.52123E-002	5.71771E-004	...........
	9	2.58333	3.52359E-002	3.51099E-002	5.73138E-004	...........
	10	2.84167	3.52048E-002	3.51785E-002	5.71404E-004	...........
	11	3.1	3.51778E-002	3.50522E-002	5.76771E-004	...........
	12	3.35833	3.51533E-002	3.51210E-002	5.75304E-004	...........
	13	3.61667	3.51285E-002	3.49930E-002	5.75404E-004	...........
	14	3.875	3.51024E-002	3.50808E-002	5.79537E-004	...........
	15	4.13333	3.50759E-002	3.49409E-002	5.78637E-004	...........
	16	4.39167	3.50504E-002	3.50449E-002	5.81937E-004	...........
	17	4.65	3.50263E-002	3.48844E-002	5.75071E-004	...........
	18	4.90833	3.50028E-002	3.49928E-002	5.74004E-004	...........
	19	5.16667	3.49791E-002	3.48490E-002	5.74738E-004	...........
	20	5.425	3.49556E-002	3.49552E-002	5.74471E-004	...........
	21	5.68333	3.49334E-002	3.48049E-002	5.70104E-004	...........
	22	5.94167	3.49121E-002	3.48955E-002	5.77971E-004	...........
	23	6.2	3.48893E-002	3.47211E-002	5.76771E-004	...........
	24	6.45833	3.48624E-002	3.48331E-002	5.74004E-004	...........
	25	6.71667	3.48320E-002	3.47034E-002	5.78171E-004	...........
	26	6.975	3.48024E-002	3.47729E-002	5.73771E-004	...........
	27	7.23333	3.47770E-002	3.46980E-002	5.80371E-004	...........
	28	7.49167	3.47560E-002	3.47119E-002	5.71171E-004	...........
	29	7.75	3.47379E-002	3.46980E-002	5.68804E-004	...........
	30	8.00833	3.47226E-002	3.47029E-002	5.76437E-004	...........
	31	8.26667	3.47099E-002	3.46289E-002	5.71304E-004	...........
	32	8.525	3.46970E-002	3.46755E-002	5.79004E-004	...........
	33	8.78333	3.46812E-002	3.45891E-002	5.79404E-004	...........
	34	9.04167	3.46629E-002	3.46365E-002	5.70838E-004	...........
	35	9.3	3.46443E-002	3.45825E-002	5.75638E-004	...........
	36	9.5583	3.46276E-002	3.46127E-002	5.79871E-004	...........
	37	9.8167	3.46137E-002	3.45344E-002	5.73337E-004	...........
	38	10.075	3.45996E-002	3.45514E-002	5.72404E-004	...........
EOC	QUANT	0.0345996	Open Circuit (V)
PSTATMODEL	IQUANT	4	Pstat Model
PSTATSECTION	LABEL	REF600-11020	Pstat Section
PSTATSERIALNO	LABEL	11020	Pstat Serial Number
CTRLMODE	IQUANT	1	Control Mode
IESTAB	IQUANT	0	I/E Stability
CASPEED	IQUANT	1	Control Amp Speed
CONVENTION	IQUANT	1	Current Convention
ICHRANGE	IQUANT	2	Ich Range
ICHRANGEMODE	TOGGLE	F	Ich Auto Range
ICHOFFSETENABLE	TOGGLE	T	Ich Offset Enable
ICHOFFSET	QUANT	0	Ich Offset (V)
ICHFILTER	IQUANT	3	Ich Filter
VCHRANGE	IQUANT	2	Vch Range
VCHRANGEMODE	TOGGLE	F	Vch Auto Range
VCHOFFSETENABLE	TOGGLE	T	Vch Offset Enable
VCHOFFSET	QUANT	0	Vch Offset (V)
VCHFILTER	IQUANT	3	Vch Filter
ACHRANGE	IQUANT	2	Ach Range
ACHOFFSETENABLE	TOGGLE	F	Ach Offset Enable
ACHOFFSET	QUANT	0	Ach Offset (V)
ACHFILTER	IQUANT	3	Ach Filter
IERANGELOWERLIMIT	IQUANT	1	I/E Range Lower Limit
IERANGEMODE	TOGGLE	F	I/E AutoRange
IERANGE	IQUANT	7	I/E Range
POSFEEDENABLE	TOGGLE	F	Positive Feedback IR Comp
POSFEEDRESISTANCE	QUANT	0	Positive Feedback Resistance (ohm)
ACHSELECT	IQUANT	0	Ach Select
CABLEID	IQUANT	14	Cable ID
DCCALDATE	LABEL	1/27/2020	DC Calibration Date
ACCALDATE	LABEL	1/27/2020	AC Calibration Date
THERMOSELECT	IQUANT	1	Thermo Select
FRAMEWORKVERSION	QUANT	6.33	Framework Version
INSTRUMENTVERSION	LABEL	3.50	Instrument Version
ZCURVE	TABLE
	Pt	Time	Freq	Zreal	Zimag	Zsig	Zmod	Zphz	Idc	Vdc	IERange
	#	s	Hz	ohm	ohm	V	ohm	°	A	V	#
	0	1	1000078	2150.445	-1644.355	1	2707.086	-37.40363	-6.685069E-007	0.0370066	8
	1	2	794390.6	2462.483	-1647.706	1	2962.897	-33.78743	1.413098E-006	0.0362652	8
	2	2	630984.4	2771.793	-1602.027	1	3201.457	-30.02683	7.186374E-007	0.0361173	8
	3	2	501234.4	3040.167	-1552.21	1	3413.498	-27.04737	2.59134E-006	0.0358453	8
	4	3	398109.4	3303.923	-1451.674	1	3608.776	-23.71968	1.71439E-006	0.0356911	8
	5	3	316265.6	3528.534	-1348.567	1	3777.458	-20.9163	-2.509834E-006	0.0366576	8
	6	3	251203.1	3732.881	-1246.938	1	3935.639	-18.47147	-8.976351E-007	0.0362186	8
	7	3	199546.9	3896.508	-1149.57	1	4062.547	-16.43742	1.011295E-006	0.0359114	8
	8	4	158578.1	4055.801	-1054.725	1	4190.7	-14.57708	1.384805E-006	0.0358687	8
	9	4	125953.1	4197.366	-932.9032	1	4299.79	-12.53083	7.171485E-007	0.034876	7
	10	4	100078.1	4312.391	-855.536	1	4396.437	-11.22122	-1.726012E-009	0.0360087	7
	11	5	79453.13	4407.385	-803.701	1	4480.065	-10.33452	-2.524486E-008	0.0360903	7
	12	5	63140.62	4496.601	-760.9435	1	4560.532	-9.60496	2.835307E-008	0.0360341	7
	13	5	50203.12	4579.01	-728.6497	1	4636.622	-9.041568	-2.504482E-008	0.0360822	7
	14	6	39890.62	4658.223	-707.2331	1	4711.605	-8.632982	-3.482274E-008	0.0360457	7
	15	6	31640.63	4736.04	-696.0031	1	4786.908	-8.360281	-2.841405E-008	0.0360561	7
	16	6	25171.88	4811.12	-696.326	1	4861.249	-8.235383	-3.452583E-008	0.0360421	7
	17	7	20015.62	4884.446	-705.9152	1	4935.193	-8.223623	5.22907E-008	0.0359135	7
	18	7	15890.62	4958.829	-727.7065	1	5011.939	-8.348548	-4.817074E-009	0.0360828	7
	19	7	12609.37	5033.246	-763.2304	1	5090.785	-8.622519	1.842048E-008	0.036054	7
	20	8	10078.13	5103.637	-813.7496	1	5168.104	-9.059272	4.810577E-008	0.0359204	7
	21	8	8015.625	5178.417	-874.8639	1	5251.799	-9.58925	-2.797336E-008	0.0360201	7
	22	8	6328.125	5259.743	-962.024	1	5346.998	-10.36502	7.684631E-009	0.0359682	7
	23	9	5015.625	5342.387	-1073.58	1	5449.19	-11.36255	-3.256617E-008	0.0360726	7
	24	9	3984.375	5426.711	-1210.615	1	5560.106	-12.57587	1.988941E-008	0.0360493	7
	25	9	3170.956	5513.222	-1379.483	1	5683.185	-14.04776	-3.44008E-008	0.0360325	7
	26	10	2527.573	5605.512	-1589.935	1	5826.634	-15.83534	-3.507277E-008	0.0360394	7
	27	10	1976.103	5711.983	-1874.566	1	6011.717	-18.16887	-2.995488E-008	0.0360176	7
	28	10	1577.524	5821.577	-2194.908	1	6221.606	-20.65794	-2.890542E-008	0.036022	7
	29	10	1265.625	5928.963	-2592.532	1	6470.999	-23.61811	-2.943425E-008	0.0360413	7
	30	11	998.264	6064.023	-3118.604	1	6818.949	-27.21584	1.517155E-008	0.0359991	7
	31	11	796.875	6213.326	-3736.161	1	7250.125	-31.01909	1.347956E-008	0.0359268	7
	32	11	627.7902	6406.909	-4545.78	1	7855.737	-35.35617	-4.302805E-008	0.0360674	7
	33	12	505.5147	6607.223	-5458.358	1	8570.243	-39.56079	-3.379015E-008	0.0360695	7
	34	12	397.9953	6893.25	-6678.216	1	9597.68	-44.09225	7.058879E-009	0.0360211	7
	35	12	315.5048	7236.258	-8142.839	1	10893.54	-48.37362	6.014818E-010	0.0360193	6
	36	13	252.4038	7642.298	-9862.46	1	12476.89	-52.22835	7.212233E-010	0.0360162	6
	37	13	198.6229	8192.705	-12118.15	1	14627.72	-55.9386	8.769075E-010	0.0360187	6
	38	13	158.3615	8853.882	-14721.98	1	17179.29	-58.97706	5.16314E-010	0.0360062	6
	39	14	125.558	9712.04	-17965.44	1	20422.55	-61.60455	7.113026E-010	0.0360115	6
	40	14	100.4464	10746.28	-21723.06	1	24235.79	-63.67864	1.221537E-009	0.0360088	6
	41	14	79.00281	12210.66	-26619.49	1	29286.47	-65.35854	1.125242E-009	0.0360091	6
	42	15	63.3446	13906.95	-32321.88	1	35186.75	-66.71953	2.509739E-010	0.0360064	6
	43	15	49.86702	16241.31	-39407.29	1	42622.93	-67.60149	-2.476703E-011	0.0360058	6
	44	15	39.72458	19179.23	-47367.5	1	51103.06	-67.95684	8.669449E-010	0.0360095	6
	45	16	31.6723	22871.34	-56928.8	1	61351.34	-68.11203	9.197158E-010	0.0360073	6
	46	16	24.93351	27983	-69079.18	1	74531.75	-67.94782	-1.363322E-011	0.0360031	6
	47	16	19.86229	34264.23	-82621.5	1	89444.67	-67.47556	-6.125374E-010	0.0360025	6
	48	17	15.83615	42453.05	-97788.3	1	106605.9	-66.53278	4.647543E-010	0.0360027	5
	49	17	12.40079	53420.32	-116653.8	1	128303.7	-65.39512	-2.117972E-009	0.0360069	5
	50	17	9.93114	65920.06	-136897.8	1	151942.3	-64.2879	-6.736282E-010	0.036	5
	51	18	7.944915	81172.02	-158841.2	1	178380	-62.93178	-7.53681E-010	0.0360068	5
	52	18	6.317385	98780.2	-183620.9	1	208504.5	-61.72165	-6.231303E-010	0.0360198	5
	53	19	5.008013	119985.4	-212279.3	1	243842.2	-60.52381	-2.882478E-010	0.0359903	5
	54	20	3.945707	145139.4	-244000.2	1	283904.1	-59.25442	1.865401E-010	0.0359956	5
	55	21	3.158693	170353.4	-277969	1	326017	-58.49794	2.159049E-010	0.0360147	5
	56	23	2.504006	200075.8	-318087.9	1	375779.5	-57.8303	-3.698592E-011	0.0360042	5
	57	24	1.998082	230982.7	-363223.9	1	430447	-57.54675	1.717594E-011	0.0359841	5
	58	26	1.584686	268000.4	-416700.1	1	495442.5	-57.25293	1.740339E-010	0.0360271	5
	59	28	1.266892	307569.4	-479091	1	569321.7	-57.30013	1.903128E-010	0.0360292	5
	60	30	0.999041	354507.3	-556253.6	1	659616.2	-57.49014	2.067855E-010	0.0360145	5
