EXPLAIN
TAG	EISPOT
TITLE	LABEL	Potentiostatic EIS	Test &Identifier
DATE	LABEL	2/21/2020	Date
TIME	LABEL	17:46:06	Time
NOTES	NOTES	1	&Notes...
	
PSTAT	PSTAT	REF600-11020	Potentiostat
VDC	POTEN	0.00000E+000	T	DC &Voltage (V)
FREQINIT	QUANT	1.00000E+006	Initial Fre&q. (Hz)
FREQFINAL	QUANT	1.00000E+000	Final Fre&q. (Hz)
PTSPERDEC	QUANT	1.00000E+001	Points/&decade
VAC	QUANT	2.50000E+001	AC &Voltage (mV rms)
AREA	QUANT	2.08200E-005	&Area (cm^2)
CONDIT	TWOPARAM	F	1.50000E+001	0.00000E+000	Conditionin&g	Time(s)	E(V)
DELAY	TWOPARAM	F	1.00000E+002	0.00000E+000	Init. De&lay	Time(s)	Stab.(mV/s)
SPEED	SELECTOR	1	&Optimize for:
ZGUESS	QUANT	2.00000E+003	E&stimated Z (ohms)
OCVCURVE	TABLE	39
	Pt	T	Vf	Vm	Ach	Over
	#	s	V vs. Ref.	V	V	bits
	0	0.258333	-2.43917E-002	-2.43917E-002	5.72604E-004	...........
	1	0.516667	-2.43947E-002	-2.45460E-002	5.77338E-004	...........
	2	0.775	-2.44131E-002	-2.47077E-002	5.71071E-004	...........
	3	1.03333	-2.44660E-002	-2.48589E-002	5.70771E-004	...........
	4	1.29167	-2.45641E-002	-2.50979E-002	5.72404E-004	...........
	5	1.55	-2.47044E-002	-2.53004E-002	5.74771E-004	...........
	6	1.80833	-2.48776E-002	-2.54809E-002	5.76604E-004	...........
	7	2.06667	-2.50598E-002	-2.51108E-002	5.70904E-004	...........
	8	2.325	-2.52086E-002	-2.56172E-002	5.69104E-004	...........
	9	2.58333	-2.53079E-002	-2.55740E-002	5.74171E-004	...........
	10	2.84167	-2.53889E-002	-2.56594E-002	5.68638E-004	...........
	11	3.1	-2.54788E-002	-2.57865E-002	5.70571E-004	...........
	12	3.35833	-2.55721E-002	-2.57299E-002	5.68571E-004	...........
	13	3.61667	-2.56551E-002	-2.58519E-002	5.67504E-004	...........
	14	3.875	-2.57234E-002	-2.59530E-002	5.69438E-004	...........
	15	4.13333	-2.57840E-002	-2.59056E-002	5.66538E-004	...........
	16	4.39167	-2.58435E-002	-2.60585E-002	5.70338E-004	...........
	17	4.65	-2.59022E-002	-2.60999E-002	5.69338E-004	...........
	18	4.90833	-2.59607E-002	-2.60559E-002	5.66304E-004	...........
	19	5.16667	-2.60169E-002	-2.62335E-002	5.66638E-004	...........
	20	5.425	-2.60696E-002	-2.62423E-002	5.63338E-004	...........
	21	5.68333	-2.61236E-002	-2.62601E-002	5.64671E-004	...........
	22	5.94167	-2.61777E-002	-2.62815E-002	5.65471E-004	...........
	23	6.2	-2.62247E-002	-2.63840E-002	5.63671E-004	...........
	24	6.45833	-2.62656E-002	-2.63787E-002	5.68104E-004	...........
	25	6.71667	-2.63062E-002	-2.64253E-002	5.66338E-004	...........
	26	6.975	-2.63478E-002	-2.65059E-002	5.71071E-004	...........
	27	7.23333	-2.63906E-002	-2.65246E-002	5.70371E-004	...........
	28	7.49167	-2.64348E-002	-2.65289E-002	5.72771E-004	...........
	29	7.75	-2.64762E-002	-2.65554E-002	5.60871E-004	...........
	30	8.00833	-2.65090E-002	-2.65701E-002	5.62771E-004	...........
	31	8.26667	-2.65336E-002	-2.66081E-002	5.65604E-004	...........
	32	8.525	-2.65548E-002	-2.66184E-002	5.64504E-004	...........
	33	8.78333	-2.65762E-002	-2.66520E-002	5.67071E-004	...........
	34	9.04167	-2.65988E-002	-2.66677E-002	5.68838E-004	...........
	35	9.3	-2.66221E-002	-2.66952E-002	5.67004E-004	...........
	36	9.5583	-2.66459E-002	-2.67379E-002	5.71104E-004	...........
	37	9.8167	-2.66714E-002	-2.67660E-002	5.69004E-004	...........
	38	10.075	-2.66995E-002	-2.67725E-002	5.66238E-004	...........
EOC	QUANT	-0.0266995	Open Circuit (V)
PSTATMODEL	IQUANT	4	Pstat Model
PSTATSECTION	LABEL	REF600-11020	Pstat Section
PSTATSERIALNO	LABEL	11020	Pstat Serial Number
CTRLMODE	IQUANT	1	Control Mode
IESTAB	IQUANT	0	I/E Stability
CASPEED	IQUANT	1	Control Amp Speed
CONVENTION	IQUANT	1	Current Convention
ICHRANGE	IQUANT	2	Ich Range
ICHRANGEMODE	TOGGLE	F	Ich Auto Range
ICHOFFSETENABLE	TOGGLE	T	Ich Offset Enable
ICHOFFSET	QUANT	0	Ich Offset (V)
ICHFILTER	IQUANT	3	Ich Filter
VCHRANGE	IQUANT	2	Vch Range
VCHRANGEMODE	TOGGLE	F	Vch Auto Range
VCHOFFSETENABLE	TOGGLE	T	Vch Offset Enable
VCHOFFSET	QUANT	0	Vch Offset (V)
VCHFILTER	IQUANT	3	Vch Filter
ACHRANGE	IQUANT	2	Ach Range
ACHOFFSETENABLE	TOGGLE	F	Ach Offset Enable
ACHOFFSET	QUANT	0	Ach Offset (V)
ACHFILTER	IQUANT	3	Ach Filter
IERANGELOWERLIMIT	IQUANT	1	I/E Range Lower Limit
IERANGEMODE	TOGGLE	F	I/E AutoRange
IERANGE	IQUANT	7	I/E Range
POSFEEDENABLE	TOGGLE	F	Positive Feedback IR Comp
POSFEEDRESISTANCE	QUANT	0	Positive Feedback Resistance (ohm)
ACHSELECT	IQUANT	0	Ach Select
CABLEID	IQUANT	14	Cable ID
DCCALDATE	LABEL	1/27/2020	DC Calibration Date
ACCALDATE	LABEL	1/27/2020	AC Calibration Date
THERMOSELECT	IQUANT	1	Thermo Select
FRAMEWORKVERSION	QUANT	6.33	Framework Version
INSTRUMENTVERSION	LABEL	3.50	Instrument Version
ZCURVE	TABLE
	Pt	Time	Freq	Zreal	Zimag	Zsig	Zmod	Zphz	Idc	Vdc	IERange
	#	s	Hz	ohm	ohm	V	ohm	°	A	V	#
	0	2	1000078	1317.326	-2666.739	1	2974.365	-63.71138	1.153662E-006	-0.0245649	8
	1	3	794390.6	1640.566	-3113.097	1	3518.925	-62.21129	-4.300524E-007	-0.0247757	8
	2	4	630984.4	2019.921	-3624.855	1	4149.657	-60.87162	-1.767209E-009	-0.024947	8
	3	6	501234.4	2485.745	-4198.583	1	4879.244	-59.37261	-5.955969E-007	-0.0249878	8
	4	7	398109.4	3076.567	-4837.277	1	5732.758	-57.54314	2.241949E-007	-0.0251817	8
	5	8	316265.6	3770.327	-5490.063	1	6660.042	-55.52048	-8.809905E-008	-0.0251479	8
	6	10	251203.1	4614.23	-6199.969	1	7728.566	-53.34211	1.835619E-007	-0.0252314	8
	7	11	199546.9	5631.465	-6890.123	1	8898.719	-50.74003	1.381409E-008	-0.0251757	8
	8	12	158578.1	6782.542	-7531.874	1	10135.68	-47.99659	5.320265E-007	-0.0252253	8
	9	14	125953.1	8189.534	-8108.02	1	11524.25	-44.71343	-4.181716E-008	-0.0252836	7
	10	15	100078.1	9622.56	-8580.084	1	12892.3	-41.72223	-1.319969E-008	-0.0251813	7
	11	16	79453.13	11130.3	-8895.667	1	14248.38	-38.6329	-2.328481E-008	-0.0251936	7
	12	18	63140.62	12638.55	-9108.427	1	15578.72	-35.77976	-1.383977E-008	-0.0252001	7
	13	19	50203.12	14123.73	-9220.118	1	16866.84	-33.13692	2.529696E-008	-0.0252256	7
	14	20	39890.62	15527.77	-9235.142	1	18066.53	-30.74207	4.061726E-009	-0.0252475	7
	15	22	31640.63	16878.26	-9289.547	1	19265.81	-28.82774	2.571827E-008	-0.0252302	7
	16	23	25171.88	18142.48	-9331.446	1	20401.6	-27.21868	2.347515E-008	-0.0252758	7
	17	24	20015.62	19329.75	-9442.813	1	21512.92	-26.03606	3.892324E-009	-0.0252531	7
	18	26	15890.62	20541.56	-9669.92	1	22703.81	-25.20866	1.61865E-008	-0.0252563	7
	19	27	12609.37	21767.55	-9939.54	1	23929.49	-24.54247	7.035255E-010	-0.0252009	6
	20	29	10078.13	22931.04	-10385.48	1	25173.22	-24.36578	-1.052952E-009	-0.0252352	6
	21	30	8015.625	24156.96	-10989.5	1	26539.18	-24.46177	-2.630645E-009	-0.0251853	6
	22	31	6328.125	25500.57	-11769.63	1	28085.64	-24.77539	1.028218E-010	-0.0252892	6
	23	33	5015.625	26909.27	-12701.3	1	29756.21	-25.26752	7.466525E-010	-0.0252007	6
	24	34	3984.375	28414.03	-13796.54	1	31586.41	-25.89906	-2.144014E-010	-0.0252937	6
	25	35	3170.956	30031.34	-15085.38	1	33607.29	-26.67135	6.163437E-009	-0.0252989	6
	26	37	2527.573	31797.7	-16558.23	1	35850.64	-27.50765	3.271195E-009	-0.0252294	6
	27	38	1976.103	33916.11	-18399.63	1	38585.61	-28.48001	6.198284E-009	-0.025305	6
	28	39	1577.524	36046.11	-20334.31	1	41386.06	-29.42819	-7.063754E-011	-0.0252772	6
	29	41	1265.625	38388.52	-22554.4	1	44523.93	-30.43551	-1.771947E-009	-0.0251842	6
	30	42	998.264	41174.27	-25205.55	1	48276.7	-31.47362	-2.266942E-009	-0.0252315	6
	31	43	796.875	44080.16	-28084.94	1	52266.86	-32.50257	-7.532591E-011	-0.025291	6
	32	45	627.7902	47551.73	-31546.21	1	57064.27	-33.56062	-1.560844E-010	-0.0252692	6
	33	46	505.5147	51129.67	-35128.56	1	62034.34	-34.49095	-5.453877E-010	-0.0252971	6
	34	47	397.9953	55398.41	-39578.24	1	68083.93	-35.54312	4.485415E-010	-0.0252299	6
	35	49	315.5048	60122.11	-44480.14	1	74787.37	-36.49515	7.934065E-010	-0.0252308	6
	36	50	252.4038	65238.57	-49862.92	1	82112.02	-37.39128	6.910255E-010	-0.0252326	6
	37	51	198.6229	71327.06	-56424.48	1	90946.53	-38.34636	6.983512E-010	-0.0252327	6
	38	52	158.3615	77934.57	-63290.54	1	100396.7	-39.07999	-1.355699E-010	-0.0252361	5
	39	54	125.558	85451.23	-71529.02	1	111437.5	-39.93183	-4.819173E-011	-0.0252327	5
	40	55	100.4464	93414.16	-80252.3	1	123152.9	-40.66595	4.547304E-012	-0.0252305	5
	41	56	79.00281	103330.5	-91786.57	1	138209.8	-41.6141	-2.251409E-010	-0.0252289	5
	42	58	63.3446	114326.8	-99824.7	1	151774.8	-41.12593	1.181578E-011	-0.0252334	5
	43	59	49.86702	127344.1	-118134.6	1	173701.8	-42.85147	-1.572598E-010	-0.0252373	5
	44	61	39.72458	141711.6	-130618.7	1	192726.3	-42.66744	-5.359081E-012	-0.0252344	5
	45	62	31.6723	156558.1	-146128.1	1	214158.5	-43.02648	2.943592E-010	-0.0252368	5
	46	63	24.93351	175211.7	-165296.7	1	240877.8	-43.33211	-2.951618E-010	-0.0252449	5
	47	65	19.86229	194182.8	-185634.7	1	268639.6	-43.71073	-2.57299E-010	-0.0252373	5
	48	66	15.83615	213654.5	-209542.1	1	299259.3	-44.44326	1.650018E-011	-0.0252412	5
	49	67	12.40079	243890.9	-235587.7	1	339093.4	-44.0079	3.500417E-010	-0.0252358	5
	50	69	9.93114	267330.5	-266111.4	1	377201.3	-44.86906	3.302102E-010	-0.0252324	5
	51	70	7.944915	297939.1	-300182.4	1	422938.8	-45.2149	3.484269E-010	-0.0252427	5
	52	72	6.317385	332997.3	-338913	1	475130.7	-45.50444	-1.574847E-010	-0.0252293	5
	53	74	5.008013	374383	-383550.4	1	535979.1	-45.69297	1.774534E-010	-0.0252321	5
	54	76	3.945707	422045.3	-434350.1	1	605625.4	-45.82318	-4.597205E-011	-0.0252407	5
	55	79	3.158693	472541.9	-487163.3	1	678692.9	-45.87285	8.285926E-010	-0.0252178	6
	56	83	2.504006	531050.7	-548301.7	1	763314.9	-45.91566	-1.773646E-010	-0.0252371	5
	57	85	1.998082	589893.8	-612525.3	1	850389.3	-46.07827	2.262297E-010	-0.0252627	5
	58	88	1.584686	658899.6	-689063.8	1	953393	-46.28193	3.658628E-011	-0.0252887	5
	59	92	1.266892	726678.9	-776371.8	1	1063398	-46.89359	1.669034E-010	-0.0252856	4
	60	96	0.999041	806676.1	-884137	1	1196839	-47.62305	-1.044008E-010	-0.0253194	4
