EXPLAIN
TAG	EISPOT
TITLE	LABEL	Potentiostatic EIS	Test &Identifier
DATE	LABEL	1/14/2020	Date
TIME	LABEL	14:45:25	Time
NOTES	NOTES	5	&Notes...
	
	
	
	
	
PSTAT	PSTAT	REF600-11020	Potentiostat
VDC	POTEN	0.00000E+000	T	DC &Voltage (V)
FREQINIT	QUANT	1.00000E+006	Initial Fre&q. (Hz)
FREQFINAL	QUANT	1.00000E+000	Final Fre&q. (Hz)
PTSPERDEC	QUANT	1.00000E+001	Points/&decade
VAC	QUANT	2.50000E+001	AC &Voltage (mV rms)
AREA	QUANT	1.00000E-001	&Area (cm^2)
CONDIT	TWOPARAM	T	5.00000E+000	0.00000E+000	Conditionin&g	Time(s)	E(V)
DELAY	TWOPARAM	T	5.00000E+000	0.00000E+000	Init. De&lay	Time(s)	Stab.(mV/s)
SPEED	SELECTOR	0	&Optimize for:
ZGUESS	QUANT	5.00000E+002	E&stimated Z (ohms)
OCVCURVE	TABLE	19
	Pt	T	Vf	Vm	Ach	Over
	#	s	V vs. Ref.	V	V	bits
	0	0.258333	3.82481E-003	3.82481E-003	6.46180E-004	...........
	1	0.516667	3.82143E-003	3.64793E-003	6.44846E-004	...........
	2	0.775	3.80111E-003	3.50268E-003	6.49813E-004	...........
	3	1.03333	3.74530E-003	3.37649E-003	6.46780E-004	...........
	4	1.29167	3.64960E-003	3.27111E-003	6.44913E-004	...........
	5	1.55	3.52972E-003	3.18196E-003	6.45013E-004	...........
	6	1.80833	3.40719E-003	3.11077E-003	6.49313E-004	...........
	7	2.06667	3.29622E-003	3.04145E-003	6.43680E-004	...........
	8	2.325	3.20132E-003	2.97856E-003	6.48313E-004	...........
	9	2.58333	3.12061E-003	2.92272E-003	6.46480E-004	...........
	10	2.84167	3.05021E-003	2.86665E-003	6.46613E-004	...........
	11	3.1	2.98670E-003	2.81033E-003	6.45980E-004	...........
	12	3.35833	2.92766E-003	2.76283E-003	6.48780E-004	...........
	13	3.61667	2.87177E-003	2.71893E-003	6.50646E-004	...........
	14	3.875	2.81900E-003	2.67617E-003	6.52246E-004	...........
	15	4.13333	2.76966E-003	2.63144E-003	6.46546E-004	...........
	16	4.39167	2.72352E-003	2.59986E-003	6.46080E-004	...........
	17	4.65	2.68025E-003	2.56320E-003	6.43013E-004	...........
	18	4.90833	2.64003E-003	2.53464E-003	6.44080E-004	...........
EOC	QUANT	0.00264	Open Circuit (V)
PSTATMODEL	IQUANT	4	Pstat Model
PSTATSECTION	LABEL	REF600-11020	Pstat Section
PSTATSERIALNO	LABEL	11020	Pstat Serial Number
CTRLMODE	IQUANT	1	Control Mode
IESTAB	IQUANT	0	I/E Stability
CASPEED	IQUANT	1	Control Amp Speed
CONVENTION	IQUANT	1	Current Convention
ICHRANGE	IQUANT	2	Ich Range
ICHRANGEMODE	TOGGLE	F	Ich Auto Range
ICHOFFSETENABLE	TOGGLE	T	Ich Offset Enable
ICHOFFSET	QUANT	0	Ich Offset (V)
ICHFILTER	IQUANT	3	Ich Filter
VCHRANGE	IQUANT	2	Vch Range
VCHRANGEMODE	TOGGLE	F	Vch Auto Range
VCHOFFSETENABLE	TOGGLE	T	Vch Offset Enable
VCHOFFSET	QUANT	0	Vch Offset (V)
VCHFILTER	IQUANT	3	Vch Filter
ACHRANGE	IQUANT	2	Ach Range
ACHOFFSETENABLE	TOGGLE	F	Ach Offset Enable
ACHOFFSET	QUANT	0	Ach Offset (V)
ACHFILTER	IQUANT	3	Ach Filter
IERANGELOWERLIMIT	IQUANT	1	I/E Range Lower Limit
IERANGEMODE	TOGGLE	F	I/E AutoRange
IERANGE	IQUANT	6	I/E Range
POSFEEDENABLE	TOGGLE	F	Positive Feedback IR Comp
POSFEEDRESISTANCE	QUANT	0	Positive Feedback Resistance (ohm)
ACHSELECT	IQUANT	0	Ach Select
CABLEID	IQUANT	14	Cable ID
DCCALDATE	LABEL	12/22/2019	DC Calibration Date
ACCALDATE	LABEL	12/22/2019	AC Calibration Date
THERMOSELECT	IQUANT	1	Thermo Select
FRAMEWORKVERSION	QUANT	6.33	Framework Version
INSTRUMENTVERSION	LABEL	3.50	Instrument Version
ZCURVE	TABLE
	Pt	Time	Freq	Zreal	Zimag	Zsig	Zmod	Zphz	Idc	Vdc	IERange
	#	s	Hz	ohm	ohm	V	ohm	°	A	V	#
	0	1	1000078	2234.762	-1583.234	1	2738.757	-35.31594	-3.051789E-006	0.005229	8
	1	1	794390.6	2531.729	-1580.478	1	2984.554	-31.97522	3.534356E-006	0.0040439	8
	2	2	630984.4	2816.868	-1561.905	1	3220.915	-29.00762	-1.235177E-006	0.0045532	8
	3	2	501234.4	3090.895	-1490.717	1	3431.598	-25.74769	-1.870069E-006	0.0047122	8
	4	2	398109.4	3347.744	-1412.209	1	3633.417	-22.87191	2.487791E-007	0.0042243	8
	5	3	316265.6	3596.198	-1304.334	1	3825.431	-19.93561	4.183928E-007	0.0042226	8
	6	3	251203.1	3777.667	-1190.457	1	3960.803	-17.49121	-9.465037E-007	0.0045589	8
	7	3	199546.9	3946.256	-1065.677	1	4087.616	-15.11212	-3.311984E-007	0.0043777	8
	8	4	158578.1	4089.607	-968.4	1	4202.699	-13.32199	1.771734E-006	0.0039025	8
	9	4	125953.1	4210.3	-832.2157	1	4291.76	-11.18106	-1.75851E-007	0.004571	7
	10	4	100078.1	4286.053	-747.9904	1	4350.832	-9.89941	5.769462E-008	0.0041468	7
	11	5	79453.13	4362.353	-684.9139	1	4415.793	-8.922916	4.594461E-008	0.0041486	7
	12	5	63140.62	4429.534	-636.1182	1	4474.977	-8.172279	4.665405E-008	0.0041479	7
	13	5	50203.12	4488.172	-602.0154	1	4528.368	-7.639698	-3.054395E-008	0.0042656	7
	14	6	39890.62	4544.805	-581.8369	1	4581.897	-7.29546	-7.840857E-009	0.0042168	7
	15	6	31640.63	4597.428	-576.164	1	4633.391	-7.143244	2.247736E-008	0.0041669	7
	16	6	25171.88	4650.286	-581.9329	1	4686.556	-7.132867	4.772922E-008	0.0041491	7
	17	7	20015.62	4702.749	-600.4843	1	4740.931	-7.276603	-6.507855E-009	0.0042511	7
	18	7	15890.62	4760.777	-631.9716	1	4802.54	-7.561546	5.673202E-008	0.0041361	7
	19	7	12609.37	4817.782	-677.471	1	4865.181	-8.004384	1.670779E-008	0.0042163	7
	20	7	10078.13	4876.731	-737.7849	1	4932.224	-8.602857	-3.093774E-008	0.0042611	7
	21	8	8015.625	4942.529	-815.9496	1	5009.428	-9.374265	-2.468533E-008	0.004316	7
	22	8	6328.125	5013.715	-913.6097	1	5096.275	-10.32725	-3.027678E-009	0.0042232	7
	23	8	5015.625	5087.935	-1035.997	1	5192.338	-11.50914	3.598202E-009	0.0042433	7
	24	9	3984.375	5167.885	-1186.353	1	5302.308	-12.92896	-4.006867E-008	0.0042885	7
	25	9	3170.956	5251.833	-1368.513	1	5427.207	-14.60524	-2.225843E-008	0.0042689	7
	26	9	2527.573	5340.957	-1589.469	1	5572.453	-16.57301	-2.093183E-009	0.0042169	7
	27	10	1976.103	5452.082	-1892.756	1	5771.284	-19.14507	-2.337421E-008	0.0042684	7
	28	10	1577.524	5559.29	-2233.986	1	5991.36	-21.89259	-5.956219E-009	0.0042443	7
	29	10	1265.625	5677.642	-2640.406	1	6261.579	-24.94094	-5.73005E-009	0.0042446	7
	30	11	998.264	5824.597	-3181.955	1	6637.075	-28.64761	-2.211468E-008	0.0042649	7
	31	11	796.875	5998.537	-3814.064	1	7108.412	-32.44952	-3.078534E-008	0.0042684	7
	32	11	627.7902	6218.899	-4617.783	1	7745.877	-36.59537	-3.005846E-008	0.0042691	7
	33	12	505.5147	6449.706	-5540.756	1	8502.863	-40.66492	2.317704E-008	0.0041498	7
	34	12	397.9953	6763.293	-6757.068	1	9560.34	-44.97362	7.129201E-009	0.0042211	7
	35	12	315.5048	7138.718	-8199.813	1	10871.9	-48.95732	1.047322E-009	0.004224	6
	36	13	252.4038	7573.899	-9879.13	1	12448.34	-52.5242	9.607424E-010	0.0042171	6
	37	13	198.6229	8141.761	-12072.39	1	14561.28	-56.00381	8.916039E-010	0.0042178	6
	38	13	158.3615	8792.312	-14592.84	1	17036.9	-58.93068	7.846183E-010	0.0042161	6
	39	14	125.558	9596.43	-17732.07	1	20162.29	-61.57816	8.90605E-010	0.0042183	6
	40	14	100.4464	10535.63	-21394.18	1	23847.65	-63.78192	8.203317E-010	0.0042154	6
	41	14	79.00281	11768.76	-26221.88	1	28741.79	-65.82876	9.568518E-010	0.0042115	6
	42	15	63.3446	13117.34	-31545.7	1	34164.25	-67.42148	8.357443E-010	0.0042115	6
	43	15	49.86702	15028.88	-38683.73	1	41500.58	-68.76852	6.833868E-010	0.0042111	6
	44	15	39.72458	17337.8	-46998.93	1	50094.9	-69.7511	8.005965E-010	0.0042156	6
	45	16	31.6723	20271.57	-56976.2	1	60474.99	-70.41495	9.964988E-010	0.0042135	6
	46	16	24.93351	24211.09	-69661.35	1	73748.77	-70.8349	7.143292E-010	0.0042122	6
	47	16	19.86229	29023.71	-84227.27	1	89087.65	-70.98666	1.478035E-009	0.0042164	6
	48	17	15.83615	35643.54	-101530.6	1	107605.4	-70.65576	-9.875899E-010	0.004212	5
	49	17	12.40079	43954.75	-123759.1	1	131332.9	-70.44681	-1.570166E-010	0.0042134	5
	50	17	9.93114	54060.55	-147724.9	1	157306	-69.89969	-2.726088E-010	0.0042167	5
	51	18	7.944915	67384.5	-175752.4	1	188227.5	-69.02289	-2.95117E-010	0.0042177	5
	52	18	6.317385	83163.69	-209648.4	1	225540.8	-68.36267	3.575565E-010	0.0042023	5
	53	19	5.008013	104252.6	-249578.4	1	270477.3	-67.32899	4.057761E-010	0.0042181	5
	54	20	3.945707	131815.2	-296515.9	1	324494.9	-66.03262	-1.510547E-010	0.0042086	5
	55	21	3.158693	163199.5	-346347.7	1	382871.8	-64.77012	2.570778E-010	0.0042134	5
	56	22	2.504006	203094	-405802.6	1	453787.3	-63.41318	1.715594E-010	0.0042151	5
	57	24	1.998082	250861.6	-469659.8	1	532458.3	-61.89177	1.450592E-011	0.0041705	5
	58	25	1.584686	307406.8	-541121.7	1	622343.7	-60.39945	6.392144E-011	0.0042026	5
	59	27	1.266892	373488.2	-616127.3	1	720490.3	-58.77631	1.218357E-010	0.0042362	5
	60	30	0.999041	454011.4	-704845.1	1	838411	-57.21323	1.623445E-010	0.0042497	5
