EXPLAIN
TAG	EISPOT
TITLE	LABEL	Potentiostatic EIS	Test &Identifier
DATE	LABEL	3/20/2020	Date
TIME	LABEL	15:25:37	Time
NOTES	NOTES	1	&Notes...
	
PSTAT	PSTAT	REF600-11020	Potentiostat
VDC	POTEN	0.00000E+000	T	DC &Voltage (V)
FREQINIT	QUANT	1.00000E+006	Initial Fre&q. (Hz)
FREQFINAL	QUANT	1.00000E+000	Final Fre&q. (Hz)
PTSPERDEC	QUANT	1.00000E+001	Points/&decade
VAC	QUANT	2.50000E+001	AC &Voltage (mV rms)
AREA	QUANT	4.00000E-004	&Area (cm^2)
CONDIT	TWOPARAM	F	5.00000E+000	0.00000E+000	Conditionin&g	Time(s)	E(V)
DELAY	TWOPARAM	T	3.00000E+000	0.00000E+000	Init. De&lay	Time(s)	Stab.(mV/s)
SPEED	SELECTOR	0	&Optimize for:
ZGUESS	QUANT	1.00000E+003	E&stimated Z (ohms)
OCVCURVE	TABLE	12
	Pt	T	Vf	Vm	Ach	Over
	#	s	V vs. Ref.	V	V	bits
	0	0.258333	1.79977E-001	1.79977E-001	5.89930E-004	...........
	1	0.516667	1.79978E-001	1.80038E-001	5.90030E-004	...........
	2	0.775	1.79985E-001	1.80103E-001	5.90063E-004	...........
	3	1.03333	1.80005E-001	1.80091E-001	5.86796E-004	...........
	4	1.29167	1.80035E-001	1.80102E-001	5.92063E-004	...........
	5	1.55	1.80068E-001	1.80205E-001	5.92930E-004	...........
	6	1.80833	1.80100E-001	1.80254E-001	5.94396E-004	...........
	7	2.06667	1.80137E-001	1.80181E-001	5.90196E-004	...........
	8	2.325	1.80172E-001	1.80114E-001	5.90763E-004	...........
	9	2.58333	1.80187E-001	1.80146E-001	5.92630E-004	...........
	10	2.84167	1.80180E-001	1.80198E-001	5.90030E-004	...........
	11	3.1	1.80167E-001	1.80222E-001	5.94696E-004	...........
EOC	QUANT	0.1801675	Open Circuit (V)
PSTATMODEL	IQUANT	4	Pstat Model
PSTATSECTION	LABEL	REF600-11020	Pstat Section
PSTATSERIALNO	LABEL	11020	Pstat Serial Number
CTRLMODE	IQUANT	1	Control Mode
IESTAB	IQUANT	0	I/E Stability
CASPEED	IQUANT	1	Control Amp Speed
CONVENTION	IQUANT	1	Current Convention
ICHRANGE	IQUANT	2	Ich Range
ICHRANGEMODE	TOGGLE	F	Ich Auto Range
ICHOFFSETENABLE	TOGGLE	T	Ich Offset Enable
ICHOFFSET	QUANT	0	Ich Offset (V)
ICHFILTER	IQUANT	3	Ich Filter
VCHRANGE	IQUANT	2	Vch Range
VCHRANGEMODE	TOGGLE	F	Vch Auto Range
VCHOFFSETENABLE	TOGGLE	T	Vch Offset Enable
VCHOFFSET	QUANT	0	Vch Offset (V)
VCHFILTER	IQUANT	3	Vch Filter
ACHRANGE	IQUANT	2	Ach Range
ACHOFFSETENABLE	TOGGLE	F	Ach Offset Enable
ACHOFFSET	QUANT	0	Ach Offset (V)
ACHFILTER	IQUANT	3	Ach Filter
IERANGELOWERLIMIT	IQUANT	1	I/E Range Lower Limit
IERANGEMODE	TOGGLE	F	I/E AutoRange
IERANGE	IQUANT	8	I/E Range
POSFEEDENABLE	TOGGLE	F	Positive Feedback IR Comp
POSFEEDRESISTANCE	QUANT	0	Positive Feedback Resistance (ohm)
ACHSELECT	IQUANT	0	Ach Select
CABLEID	IQUANT	14	Cable ID
DCCALDATE	LABEL	2/27/2020	DC Calibration Date
ACCALDATE	LABEL	2/27/2020	AC Calibration Date
THERMOSELECT	IQUANT	1	Thermo Select
FRAMEWORKVERSION	QUANT	6.33	Framework Version
INSTRUMENTVERSION	LABEL	3.50	Instrument Version
ZCURVE	TABLE
	Pt	Time	Freq	Zreal	Zimag	Zsig	Zmod	Zphz	Idc	Vdc	IERange
	#	s	Hz	ohm	ohm	V	ohm	°	A	V	#
	0	1	1000078	1807.396	-2511.538	1	3094.27	-54.25981	7.48022E-007	0.1826099	8
	1	1	794390.6	2237.618	-2821.242	1	3600.881	-51.58094	4.675711E-007	0.1821747	8
	2	1	630984.4	2752.862	-3103.91	1	4148.796	-48.43013	-2.728201E-007	0.182179	8
	3	2	501234.4	3347.171	-3343.26	1	4730.849	-44.96651	-2.300782E-007	0.182063	8
	4	2	398109.4	4022.312	-3511.541	1	5339.467	-41.12146	-1.340883E-008	0.1819318	8
	5	2	316265.6	4723.597	-3573.795	1	5923.207	-37.11055	-1.009456E-007	0.1819179	8
	6	3	251203.1	5432.997	-3521.304	1	6474.337	-32.9486	-1.619731E-007	0.1819461	8
	7	3	199546.9	6104.657	-3373.217	1	6974.628	-28.92348	3.060344E-007	0.1818402	8
	8	3	158578.1	6713.929	-3144.532	1	7413.833	-25.09649	-3.229414E-007	0.1819148	8
	9	4	125953.1	7283.058	-2790.229	1	7799.25	-20.96245	-2.647226E-008	0.1818679	7
	10	4	100078.1	7681.517	-2494.032	1	8076.255	-17.98756	1.109709E-008	0.1817837	7
	11	4	79453.13	8020.038	-2215.518	1	8320.429	-15.4427	-2.616952E-009	0.1817899	7
	12	5	63140.62	8288.655	-1953.66	1	8515.785	-13.26271	1.699098E-009	0.1817877	7
	13	5	50203.12	8499.43	-1721.286	1	8671.974	-11.44858	-4.249472E-010	0.1817618	7
	14	5	39890.62	8668.961	-1524.018	1	8801.904	-9.97081	-1.52082E-010	0.1817582	7
	15	6	31640.63	8809.49	-1365.43	1	8914.68	-8.810471	5.122227E-009	0.1817758	7
	16	6	25171.88	8922.714	-1243.208	1	9008.906	-7.931995	1.329851E-008	0.1817458	7
	17	6	20015.62	9021.109	-1154.521	1	9094.688	-7.293063	4.827028E-009	0.1817738	7
	18	7	15890.62	9109.073	-1099.063	1	9175.138	-6.879817	5.862943E-010	0.1817706	7
	19	7	12609.37	9218.415	-988.591	1	9271.272	-6.121059	-1.006498E-010	0.1818111	6
	20	7	10078.13	9285.685	-1011.221	1	9340.584	-6.215078	3.384745E-010	0.1818236	6
	21	8	8015.625	9351.797	-1065.233	1	9412.27	-6.498367	6.389587E-010	0.1818207	6
	22	8	6328.125	9428.277	-1154.029	1	9498.642	-6.978338	-2.588022E-010	0.1818167	6
	23	8	5015.625	9498.943	-1279.867	1	9584.78	-7.673692	-2.42542E-010	0.181813	6
	24	8	3984.375	9576.93	-1447.413	1	9685.69	-8.594378	-1.02265E-009	0.1818286	6
	25	9	3170.956	9658.3	-1664.011	1	9800.59	-9.77542	-4.144464E-010	0.1818149	6
	26	9	2527.573	9740.92	-1938.005	1	9931.83	-11.25236	1.363602E-009	0.1817992	6
	27	9	1976.103	9848.65	-2316.253	1	10117.36	-13.23458	8.927556E-010	0.1818129	6
	28	10	1577.524	9960.3	-2750.682	1	10333.14	-15.43827	3.092728E-011	0.1818103	6
	29	10	1265.625	10087.03	-3276.19	1	10605.73	-17.99341	4.456679E-010	0.1817965	6
	30	10	998.264	10249.09	-3975.431	1	10993.08	-21.20035	-5.659271E-010	0.181811	6
	31	11	796.875	10427.76	-4790.948	1	11475.69	-24.67602	4.231663E-010	0.1818071	6
	32	11	627.7902	10666.66	-5858.744	1	12169.74	-28.77813	-2.238744E-010	0.1818054	6
	33	11	505.5147	10922.5	-7042.875	1	12996.28	-32.81409	6.275491E-010	0.1818077	6
	34	12	397.9953	11276.49	-8644.927	1	14208.94	-37.47496	5.493175E-010	0.1818312	6
	35	12	315.5048	11702.05	-10554.75	1	15758.83	-42.0491	6.669915E-010	0.1818237	6
	36	12	252.4038	12208.03	-12791.36	1	17682.05	-46.33669	3.959718E-010	0.1818297	6
	37	13	198.6229	12886.3	-15724.98	1	20330.56	-50.66607	4.797857E-010	0.1818242	6
	38	13	158.3615	13688.42	-19110.56	1	23507.15	-54.38692	5.417421E-010	0.1818173	6
	39	13	125.558	14710.28	-23331.5	1	27581.72	-57.76897	5.464004E-010	0.1818194	6
	40	14	100.4464	15933.96	-28252.85	1	32436.32	-60.578	4.60055E-010	0.1818197	6
	41	14	79.00281	17583.2	-34713.32	1	38912.51	-63.1366	4.584509E-010	0.1818172	6
	42	14	63.3446	19504.91	-41912.24	1	46228.54	-65.04391	3.393141E-010	0.1818157	6
	43	15	49.86702	22141.4	-51436.53	1	55999.62	-66.71003	1.5709E-010	0.181816	6
	44	15	39.72458	25332.63	-62460.4	1	67402.11	-67.92356	4.678745E-010	0.1818152	6
	45	15	31.6723	29454.42	-75707.88	1	81235.74	-68.7413	3.557264E-010	0.1818203	6
	46	16	24.93351	35179.2	-92575.6	1	99034.4	-69.19296	4.4798E-010	0.1818175	6
	47	16	19.86229	42386.82	-111828.8	1	119592.4	-69.24164	-1.541729E-010	0.1818221	5
	48	16	15.83615	51780.44	-134580.5	1	144198.2	-68.95555	1.056337E-009	0.1818248	5
	49	16	12.40079	65097.25	-163407.1	1	175896.3	-68.27891	4.730331E-010	0.1818182	5
	50	17	9.93114	81135.53	-193642.7	1	209953.5	-67.2665	8.814469E-010	0.1818246	5
	51	17	7.944915	100932.9	-228153.2	1	249482.1	-66.13584	7.930767E-010	0.1818165	5
	52	18	6.317385	126751.4	-268362.4	1	296790	-64.71796	5.276089E-011	0.1818284	5
	53	18	5.008013	158781.6	-313363.3	1	351294.9	-63.1286	2.206713E-010	0.1818252	5
	54	19	3.945707	197920.7	-364410.6	1	414689.9	-61.49249	4.064683E-010	0.1818196	5
	55	20	3.158693	240482.1	-415750.3	1	480291.5	-59.95366	1.838316E-010	0.1818334	5
	56	21	2.504006	290935.7	-475534.6	1	557473.5	-58.54139	-5.231324E-012	0.1818208	5
	57	22	1.998082	344915.6	-538084	1	639140.9	-57.33984	1.429755E-010	0.1818419	5
	58	24	1.584686	408012.1	-612576.1	1	736018.5	-56.33403	1.995702E-010	0.1818628	5
	59	26	1.266892	473673.4	-694289.1	1	840478.3	-55.69654	8.755826E-011	0.1818325	5
	60	28	0.999041	553016.8	-792542.2	1	966411	-55.0936	-3.676268E-011	0.181806	5
