EXPLAIN
TAG	EISPOT
TITLE	LABEL	Potentiostatic EIS	Test &Identifier
DATE	LABEL	9/11/2020	Date
TIME	LABEL	19:22:39	Time
NOTES	NOTES	1	&Notes...
	
PSTAT	PSTAT	REF600-11020	Potentiostat
VDC	POTEN	0.00000E+000	T	DC &Voltage (V)
FREQINIT	QUANT	1.00000E+006	Initial Fre&q. (Hz)
FREQFINAL	QUANT	1.00000E+000	Final Fre&q. (Hz)
PTSPERDEC	QUANT	1.00000E+001	Points/&decade
VAC	QUANT	2.50000E+001	AC &Voltage (mV rms)
AREA	QUANT	4.00000E-005	&Area (cm^2)
CONDIT	TWOPARAM	F	5.00000E+000	0.00000E+000	Conditionin&g	Time(s)	E(V)
DELAY	TWOPARAM	F	3.00000E+000	0.00000E+000	Init. De&lay	Time(s)	Stab.(mV/s)
SPEED	SELECTOR	0	&Optimize for:
ZGUESS	QUANT	1.00000E+003	E&stimated Z (ohms)
OCVCURVE	TABLE	39
	Pt	T	Vf	Vm	Ach	Over
	#	s	V vs. Ref.	V	V	bits
	0	0.258333	-1.15169E-001	-1.15169E-001	5.25826E-004	...........
	1	0.516667	-1.15170E-001	-1.15198E-001	5.30392E-004	...........
	2	0.775	-1.15173E-001	-1.15216E-001	5.26759E-004	...........
	3	1.03333	-1.15181E-001	-1.15220E-001	5.25426E-004	...........
	4	1.29167	-1.15193E-001	-1.15213E-001	5.24526E-004	...........
	5	1.55	-1.15205E-001	-1.15201E-001	5.29192E-004	...........
	6	1.80833	-1.15210E-001	-1.15181E-001	5.25426E-004	...........
	7	2.06667	-1.15208E-001	-1.15163E-001	5.28759E-004	...........
	8	2.325	-1.15198E-001	-1.15144E-001	5.33459E-004	...........
	9	2.58333	-1.15183E-001	-1.15128E-001	5.27659E-004	...........
	10	2.84167	-1.15165E-001	-1.15124E-001	5.27326E-004	...........
	11	3.1	-1.15149E-001	-1.15120E-001	5.26426E-004	...........
	12	3.35833	-1.15136E-001	-1.15129E-001	5.25459E-004	...........
	13	3.61667	-1.15128E-001	-1.15142E-001	5.22093E-004	...........
	14	3.875	-1.15127E-001	-1.15162E-001	5.27292E-004	...........
	15	4.13333	-1.15133E-001	-1.15189E-001	5.27492E-004	...........
	16	4.39167	-1.15146E-001	-1.15217E-001	5.24892E-004	...........
	17	4.65	-1.15165E-001	-1.15249E-001	5.24126E-004	...........
	18	4.90833	-1.15189E-001	-1.15267E-001	5.24792E-004	...........
	19	5.16667	-1.15215E-001	-1.15289E-001	5.23126E-004	...........
	20	5.425	-1.15240E-001	-1.15303E-001	5.25659E-004	...........
	21	5.68333	-1.15264E-001	-1.15312E-001	5.25159E-004	...........
	22	5.94167	-1.15283E-001	-1.15318E-001	5.22459E-004	...........
	23	6.2	-1.15297E-001	-1.15300E-001	5.23992E-004	...........
	24	6.45833	-1.15306E-001	-1.15284E-001	5.19126E-004	...........
	25	6.71667	-1.15306E-001	-1.15273E-001	5.19059E-004	...........
	26	6.975	-1.15299E-001	-1.15261E-001	5.22992E-004	...........
	27	7.23333	-1.15288E-001	-1.15255E-001	5.23426E-004	...........
	28	7.49167	-1.15276E-001	-1.15250E-001	5.17259E-004	...........
	29	7.75	-1.15265E-001	-1.15246E-001	5.27192E-004	...........
	30	8.00833	-1.15257E-001	-1.15248E-001	5.31826E-004	...........
	31	8.26667	-1.15252E-001	-1.15253E-001	5.28826E-004	...........
	32	8.525	-1.15249E-001	-1.15256E-001	5.27692E-004	...........
	33	8.78333	-1.15250E-001	-1.15261E-001	5.26659E-004	...........
	34	9.04167	-1.15253E-001	-1.15270E-001	5.28959E-004	...........
	35	9.3	-1.15257E-001	-1.15283E-001	5.27992E-004	...........
	36	9.5583	-1.15263E-001	-1.15291E-001	5.30192E-004	...........
	37	9.8167	-1.15271E-001	-1.15300E-001	5.27359E-004	...........
	38	10.075	-1.15280E-001	-1.15311E-001	5.30826E-004	...........
EOC	QUANT	-0.1152804	Open Circuit (V)
PSTATMODEL	IQUANT	4	Pstat Model
PSTATSECTION	LABEL	REF600-11020	Pstat Section
PSTATSERIALNO	LABEL	11020	Pstat Serial Number
CTRLMODE	IQUANT	1	Control Mode
IESTAB	IQUANT	0	I/E Stability
CASPEED	IQUANT	1	Control Amp Speed
CONVENTION	IQUANT	1	Current Convention
ICHRANGE	IQUANT	2	Ich Range
ICHRANGEMODE	TOGGLE	F	Ich Auto Range
ICHOFFSETENABLE	TOGGLE	T	Ich Offset Enable
ICHOFFSET	QUANT	0	Ich Offset (V)
ICHFILTER	IQUANT	3	Ich Filter
VCHRANGE	IQUANT	2	Vch Range
VCHRANGEMODE	TOGGLE	F	Vch Auto Range
VCHOFFSETENABLE	TOGGLE	T	Vch Offset Enable
VCHOFFSET	QUANT	0	Vch Offset (V)
VCHFILTER	IQUANT	3	Vch Filter
ACHRANGE	IQUANT	2	Ach Range
ACHOFFSETENABLE	TOGGLE	F	Ach Offset Enable
ACHOFFSET	QUANT	0	Ach Offset (V)
ACHFILTER	IQUANT	3	Ach Filter
IERANGELOWERLIMIT	IQUANT	1	I/E Range Lower Limit
IERANGEMODE	TOGGLE	F	I/E AutoRange
IERANGE	IQUANT	8	I/E Range
POSFEEDENABLE	TOGGLE	F	Positive Feedback IR Comp
POSFEEDRESISTANCE	QUANT	0	Positive Feedback Resistance (ohm)
ACHSELECT	IQUANT	0	Ach Select
CABLEID	IQUANT	14	Cable ID
DCCALDATE	LABEL	9/1/2020	DC Calibration Date
ACCALDATE	LABEL	9/1/2020	AC Calibration Date
THERMOSELECT	IQUANT	1	Thermo Select
FRAMEWORKVERSION	QUANT	6.33	Framework Version
INSTRUMENTVERSION	LABEL	3.50	Instrument Version
ZCURVE	TABLE
	Pt	Time	Freq	Zreal	Zimag	Zsig	Zmod	Zphz	Idc	Vdc	IERange
	#	s	Hz	ohm	ohm	V	ohm	°	A	V	#
	0	1	1000078	2027.225	-1680.712	1	2633.331	-39.66112	4.653325E-008	-0.1131892	8
	1	1	794390.6	2344.628	-1707.719	1	2900.618	-36.06787	9.334343E-008	-0.1134574	8
	2	1	630984.4	2657.856	-1697.522	1	3153.693	-32.56559	9.756773E-009	-0.1135961	8
	3	2	501234.4	2956.059	-1659.204	1	3389.874	-29.30502	1.176865E-007	-0.1137182	8
	4	2	398109.4	3233.967	-1600.344	1	3608.274	-26.32874	7.296958E-008	-0.113738	8
	5	2	316265.6	3487.398	-1523.116	1	3805.5	-23.59323	6.026935E-008	-0.1137673	8
	6	3	251203.1	3717.018	-1439.709	1	3986.098	-21.17283	1.042307E-007	-0.1138039	8
	7	3	199546.9	3921.569	-1357.024	1	4149.725	-19.08772	5.067111E-008	-0.1137905	8
	8	3	158578.1	4101.673	-1279.214	1	4296.523	-17.32145	7.774376E-008	-0.1137729	8
	9	4	125953.1	4287.955	-1184.522	1	4448.556	-15.4425	-8.857304E-010	-0.1137742	7
	10	4	100078.1	4430.158	-1123.829	1	4570.48	-14.23435	1.827588E-009	-0.1137847	7
	11	4	79453.13	4559.474	-1089.323	1	4687.795	-13.43689	5.398902E-010	-0.1138006	7
	12	5	63140.62	4679.382	-1071.678	1	4800.532	-12.89949	-1.773702E-010	-0.1137952	7
	13	5	50203.12	4796.101	-1071.466	1	4914.328	-12.5933	1.035534E-008	-0.1138047	7
	14	5	39890.62	4910.714	-1090.766	1	5030.396	-12.5232	9.200468E-009	-0.1138012	7
	15	6	31640.63	5028.926	-1130.062	1	5154.332	-12.6647	1.327545E-009	-0.1137948	7
	16	6	25171.88	5149.648	-1187.777	1	5284.854	-12.98824	2.222959E-009	-0.1138086	7
	17	6	20015.62	5278.75	-1267.784	1	5428.856	-13.5048	1.060223E-008	-0.1138132	7
	18	6	15890.62	5418.472	-1369.258	1	5588.802	-14.18185	7.872163E-009	-0.1138069	7
	19	7	12609.37	5569.915	-1495.229	1	5767.119	-15.02663	7.751813E-009	-0.1138077	7
	20	7	10078.13	5728.526	-1640.394	1	5958.767	-15.97935	7.337717E-009	-0.1138023	7
	21	7	8015.625	5904.979	-1816.683	1	6178.115	-17.10066	5.288095E-009	-0.1138093	7
	22	8	6328.125	6106.486	-2032.282	1	6435.786	-18.40781	7.638745E-009	-0.1138126	7
	23	8	5015.625	6322.439	-2281.01	1	6721.328	-19.83843	1.455867E-009	-0.1138163	7
	24	8	3984.375	6562.915	-2576.021	1	7050.372	-21.43059	8.652631E-009	-0.1138141	7
	25	9	3170.956	6827.176	-2916.742	1	7424.131	-23.1334	8.29286E-009	-0.1138054	7
	26	9	2527.573	7121.128	-3310.339	1	7852.95	-24.93191	4.817571E-009	-0.1138107	7
	27	9	1976.103	7480.195	-3813.278	1	8396.095	-27.01172	2.106728E-009	-0.1138175	7
	28	10	1577.524	7850.57	-4353.096	1	8976.687	-29.00811	1.905758E-009	-0.1138135	7
	29	10	1265.625	8267.621	-4961.173	1	9641.93	-30.96681	-4.003649E-010	-0.1138124	6
	30	10	998.264	8759.102	-5739.166	1	10471.86	-33.23375	5.585439E-010	-0.1138194	6
	31	11	796.875	9292.102	-6612.55	1	11404.78	-35.43684	1.959621E-010	-0.1138178	6
	32	11	627.7902	9922.08	-7694.075	1	12555.74	-37.79177	4.170221E-010	-0.1138235	6
	33	11	505.5147	10579.51	-8864.081	1	13802.1	-39.95808	4.364628E-010	-0.113821	6
	34	12	397.9953	11410.06	-10386.58	1	15429.54	-42.31159	7.6183E-010	-0.1138074	6
	35	12	315.5048	12346.87	-12151.04	1	17323.19	-44.54199	8.426351E-010	-0.1138118	6
	36	12	252.4038	13400.1	-14159.25	1	19494.8	-46.57788	8.207994E-010	-0.1138125	6
	37	13	198.6229	14740.4	-16719.76	1	22289.67	-48.6001	9.180832E-010	-0.1138103	6
	38	13	158.3615	16260.91	-19587.93	1	25457.89	-50.30225	5.436913E-010	-0.1138065	6
	39	13	125.558	18131.69	-23046.67	1	29324.17	-51.80653	7.537002E-010	-0.11381	6
	40	13	100.4464	20306.89	-26942.45	1	33738.19	-52.99418	9.783582E-010	-0.1138168	6
	41	14	79.00281	23162.44	-31843.79	1	39376.71	-53.96872	7.943303E-010	-0.1138153	6
	42	14	63.3446	26378.77	-37076.77	1	45503.04	-54.56954	5.27313E-010	-0.1138132	6
	43	15	49.86702	30661.87	-43600.23	1	53302.25	-54.88319	1.611613E-010	-0.1138157	6
	44	15	39.72458	35668.61	-50668.18	1	61963.82	-54.85581	-4.980584E-011	-0.1138119	6
	45	15	31.6723	41774.21	-58543.66	1	71919.71	-54.49	1.422275E-010	-0.1138133	6
	46	16	24.93351	49638.29	-67711.93	1	83957.52	-53.75559	1.794866E-009	-0.1138158	6
	47	16	19.86229	58493.77	-77150.05	1	96817.6	-52.83126	3.22483E-009	-0.1138137	6
	48	16	15.83615	69013.51	-87240.66	1	111237.6	-51.65352	-1.238443E-009	-0.1138274	5
	49	16	12.40079	82208.7	-98236	1	128095.9	-50.07574	2.379716E-009	-0.1138303	5
	50	17	9.93114	95206.5	-108850.4	1	144612.2	-48.8253	2.043795E-009	-0.1138237	5
	51	17	7.944915	109897.7	-119537.7	1	162378.5	-47.40593	-1.392411E-009	-0.1138263	5
	52	17	6.317385	125897.5	-131531.7	1	182073.5	-46.2538	7.596627E-010	-0.1138422	5
	53	18	5.008013	143062.9	-144456.2	1	203309.1	-45.27765	1.10514E-009	-0.1138301	5
	54	19	3.945707	160979.1	-158682.9	1	226041	-44.58844	-5.049538E-011	-0.1138389	5
	55	20	3.158693	178664.5	-174349.4	1	249637.2	-44.29967	7.6118E-010	-0.1138322	5
	56	21	2.504006	197258.7	-193226.1	1	276129.1	-44.40832	4.443945E-010	-0.1138337	5
	57	22	1.998082	216672.8	-215786	1	305795.2	-44.88251	6.729987E-011	-0.1138779	5
	58	24	1.584686	237095.8	-243886.9	1	340140	-45.80892	2.690756E-010	-0.113841	5
	59	26	1.266892	260002	-276439.8	1	379499.7	-46.75513	4.118099E-010	-0.1138094	5
	60	28	0.999041	287640.6	-319212.3	1	429690.1	-47.97815	4.725225E-010	-0.1137962	5
