EXPLAIN
TAG	EISPOT
TITLE	LABEL	Potentiostatic EIS	Test &Identifier
DATE	LABEL	3/12/2020	Date
TIME	LABEL	13:02:43	Time
NOTES	NOTES	1	&Notes...
	
PSTAT	PSTAT	REF600-11020	Potentiostat
VDC	POTEN	0.00000E+000	T	DC &Voltage (V)
FREQINIT	QUANT	1.00000E+006	Initial Fre&q. (Hz)
FREQFINAL	QUANT	1.00000E+000	Final Fre&q. (Hz)
PTSPERDEC	QUANT	1.00000E+001	Points/&decade
VAC	QUANT	2.50000E+001	AC &Voltage (mV rms)
AREA	QUANT	2.50000E-001	&Area (cm^2)
CONDIT	TWOPARAM	F	5.00000E+000	0.00000E+000	Conditionin&g	Time(s)	E(V)
DELAY	TWOPARAM	T	5.00000E+000	0.00000E+000	Init. De&lay	Time(s)	Stab.(mV/s)
SPEED	SELECTOR	1	&Optimize for:
ZGUESS	QUANT	5.00000E+003	E&stimated Z (ohms)
OCVCURVE	TABLE	19
	Pt	T	Vf	Vm	Ach	Over
	#	s	V vs. Ref.	V	V	bits
	0	0.258333	7.35527E-002	7.35527E-002	5.59397E-004	...........
	1	0.516667	7.35462E-002	7.32141E-002	5.63797E-004	...........
	2	0.775	7.35063E-002	7.28837E-002	5.62997E-004	...........
	3	1.03333	7.33928E-002	7.25651E-002	5.64830E-004	...........
	4	1.29167	7.31882E-002	7.22486E-002	5.63064E-004	...........
	5	1.55	7.29133E-002	7.19442E-002	5.60664E-004	...........
	6	1.80833	7.26037E-002	7.16329E-002	5.64763E-004	...........
	7	2.06667	7.22855E-002	7.13227E-002	5.64363E-004	...........
	8	2.325	7.19690E-002	7.09828E-002	5.64797E-004	...........
	9	2.58333	7.16532E-002	7.06522E-002	5.62930E-004	...........
	10	2.84167	7.13310E-002	7.01863E-002	5.59330E-004	...........
	11	3.1	7.09902E-002	6.97441E-002	5.59630E-004	...........
	12	3.35833	7.06222E-002	6.95275E-002	5.65130E-004	...........
	13	3.61667	7.02421E-002	6.92853E-002	5.70463E-004	...........
	14	3.875	6.98884E-002	6.92027E-002	5.68363E-004	...........
	15	4.13333	6.96027E-002	6.94414E-002	5.68430E-004	...........
	16	4.39167	6.94156E-002	6.92112E-002	5.70097E-004	...........
	17	4.65	6.93172E-002	6.88735E-002	5.73563E-004	...........
	18	4.90833	6.92388E-002	6.86173E-002	5.67497E-004	...........
EOC	QUANT	0.0692388	Open Circuit (V)
PSTATMODEL	IQUANT	4	Pstat Model
PSTATSECTION	LABEL	REF600-11020	Pstat Section
PSTATSERIALNO	LABEL	11020	Pstat Serial Number
CTRLMODE	IQUANT	1	Control Mode
IESTAB	IQUANT	0	I/E Stability
CASPEED	IQUANT	1	Control Amp Speed
CONVENTION	IQUANT	1	Current Convention
ICHRANGE	IQUANT	2	Ich Range
ICHRANGEMODE	TOGGLE	F	Ich Auto Range
ICHOFFSETENABLE	TOGGLE	T	Ich Offset Enable
ICHOFFSET	QUANT	0	Ich Offset (V)
ICHFILTER	IQUANT	3	Ich Filter
VCHRANGE	IQUANT	2	Vch Range
VCHRANGEMODE	TOGGLE	F	Vch Auto Range
VCHOFFSETENABLE	TOGGLE	T	Vch Offset Enable
VCHOFFSET	QUANT	0	Vch Offset (V)
VCHFILTER	IQUANT	3	Vch Filter
ACHRANGE	IQUANT	2	Ach Range
ACHOFFSETENABLE	TOGGLE	F	Ach Offset Enable
ACHOFFSET	QUANT	0	Ach Offset (V)
ACHFILTER	IQUANT	3	Ach Filter
IERANGELOWERLIMIT	IQUANT	1	I/E Range Lower Limit
IERANGEMODE	TOGGLE	F	I/E AutoRange
IERANGE	IQUANT	7	I/E Range
POSFEEDENABLE	TOGGLE	F	Positive Feedback IR Comp
POSFEEDRESISTANCE	QUANT	0	Positive Feedback Resistance (ohm)
ACHSELECT	IQUANT	0	Ach Select
CABLEID	IQUANT	14	Cable ID
DCCALDATE	LABEL	2/27/2020	DC Calibration Date
ACCALDATE	LABEL	2/27/2020	AC Calibration Date
THERMOSELECT	IQUANT	1	Thermo Select
FRAMEWORKVERSION	QUANT	6.33	Framework Version
INSTRUMENTVERSION	LABEL	3.50	Instrument Version
ZCURVE	TABLE
	Pt	Time	Freq	Zreal	Zimag	Zsig	Zmod	Zphz	Idc	Vdc	IERange
	#	s	Hz	ohm	ohm	V	ohm	°	A	V	#
	0	1	1000078	1507.213	-1986.006	1	2493.173	-52.80453	-2.235638E-007	0.0716947	8
	1	2	794390.6	1860.41	-2211.242	1	2889.761	-49.92471	3.094979E-006	0.0706179	8
	2	4	630984.4	2300.861	-2409.573	1	3331.667	-46.32209	-1.523464E-006	0.0713493	8
	3	5	501234.4	2765.007	-2548.298	1	3760.198	-42.66443	1.33354E-007	0.0710566	8
	4	7	398109.4	3296.686	-2596.825	1	4196.623	-38.22778	1.431318E-008	0.0708628	8
	5	8	316265.6	3814.357	-2543.883	1	4584.83	-33.70024	1.544589E-007	0.0711779	8
	6	10	251203.1	4264.246	-2464.836	1	4925.364	-30.02894	2.266736E-006	0.0703911	8
	7	11	199546.9	4739.594	-2319.105	1	5276.552	-26.07272	5.09712E-006	0.0699924	8
	8	13	158578.1	5110.143	-2098.42	1	5524.213	-22.32493	-1.545246E-007	0.0709349	8
	9	14	125953.1	5481.671	-1775.635	1	5762.083	-17.94829	3.630124E-007	0.0700395	7
	10	15	100078.1	5693.985	-1577.635	1	5908.502	-15.48648	3.768806E-009	0.0707651	7
	11	17	79453.13	5882.265	-1409.447	1	6048.767	-13.47458	-5.988051E-008	0.0708867	7
	12	18	63140.62	6032.957	-1257.137	1	6162.545	-11.77075	-9.426008E-009	0.0709301	7
	13	20	50203.12	6155.107	-1130.868	1	6258.131	-10.41076	8.322974E-008	0.0706587	7
	14	21	39890.62	6252.585	-1027.679	1	6336.478	-9.333718	-1.170851E-008	0.0708773	7
	15	22	31640.63	6337.545	-952.907	1	6408.784	-8.550879	6.210075E-008	0.0706619	7
	16	24	25171.88	6410.382	-904.0112	1	6473.811	-8.027089	-4.902391E-008	0.0708256	7
	17	25	20015.62	6481.075	-881.7844	1	6540.785	-7.74782	8.45776E-008	0.070653	7
	18	26	15890.62	6546.812	-884.0495	1	6606.231	-7.690424	-9.709484E-009	0.0709173	7
	19	28	12609.37	6608.856	-906.836	1	6670.782	-7.813065	9.52559E-008	0.0707548	7
	20	29	10078.13	6670.359	-956.447	1	6738.582	-8.159886	5.641513E-009	0.0707419	7
	21	31	8015.625	6742.252	-1034.458	1	6821.149	-8.722818	1.396452E-007	0.0706084	7
	22	32	6328.125	6814.225	-1144.245	1	6909.627	-9.53218	3.352624E-008	0.0708781	7
	23	33	5015.625	6894.032	-1290.043	1	7013.693	-10.59888	2.657666E-009	0.0708716	7
	24	35	3984.375	6977.281	-1469.067	1	7130.26	-11.88996	-1.263866E-008	0.0707588	7
	25	36	3170.956	7070.433	-1698.457	1	7271.573	-13.50763	2.591991E-008	0.0706813	7
	26	37	2527.573	7174.329	-1976.826	1	7441.695	-15.4051	1.391911E-007	0.0706013	7
	27	39	1976.103	7300.42	-2354.934	1	7670.844	-17.87841	1.399408E-007	0.0706029	7
	28	40	1577.524	7436.497	-2773.313	1	7936.797	-20.45213	8.592917E-008	0.0706567	7
	29	41	1265.625	7586.677	-3279.918	1	8265.321	-23.38009	1.407459E-007	0.0706009	7
	30	43	998.264	7767.246	-3938.077	1	8708.534	-26.8855	-5.678788E-008	0.0708535	7
	31	44	796.875	7978.295	-4708.759	1	9264.211	-30.54894	-1.111421E-008	0.070867	7
	32	45	627.7902	8236.883	-5690.363	1	10011.32	-34.63824	2.765437E-010	0.0707615	6
	33	47	505.5147	8500.75	-6797.378	1	10884.26	-38.64656	7.199645E-009	0.0706592	6
	34	48	397.9953	8842.209	-8288.583	1	12119.62	-43.14898	1.23451E-009	0.0708626	6
	35	50	315.5048	9233.112	-10081.63	1	13670.76	-47.51546	1.294096E-009	0.0708661	6
	36	51	252.4038	9683.07	-12191.36	1	15568.91	-51.54142	4.740975E-010	0.0708606	6
	37	52	198.6229	10275.66	-14983.14	1	18168.21	-55.5571	1.081412E-009	0.0708617	6
	38	54	158.3615	10966.59	-18243.07	1	21285.58	-58.98835	1.223068E-009	0.0708591	6
	39	55	125.558	11863.96	-22331.55	1	25287.39	-62.01987	1.041938E-009	0.0708596	6
	40	56	100.4464	12907.44	-27163.36	1	30074.08	-64.58393	1.083348E-009	0.0708612	6
	41	58	79.00281	14455.26	-33384.13	1	36379.32	-66.58749	1.699497E-009	0.0708609	6
	42	59	63.3446	16197.11	-40045.13	1	43196.75	-67.97807	1.362572E-009	0.0708598	6
	43	61	49.86702	19154.47	-50232.55	1	53760.61	-69.12736	1.442024E-009	0.0708587	6
	44	62	39.72458	22000.34	-60837.63	1	64693.37	-70.1188	1.250202E-009	0.0708621	6
	45	63	31.6723	26143.68	-73538.95	1	78047.86	-70.4293	6.605425E-010	0.0708603	6
	46	65	24.93351	32058.48	-90052.13	1	95588.3	-70.40431	1.349406E-009	0.070861	6
	47	66	19.86229	39219.95	-108377	1	115255.3	-70.10561	2.593191E-010	0.0708663	5
	48	68	15.83615	46803.83	-129867.2	1	138043.8	-70.18095	2.335955E-009	0.0708573	5
	49	69	12.40079	62457.34	-156802	1	168783.2	-68.28162	-8.555532E-011	0.0708747	5
	50	70	9.93114	77794.52	-187752.3	1	203231.1	-67.49349	6.393545E-010	0.0708681	5
	51	72	7.944915	98139.5	-220480.9	1	241336.2	-66.00539	6.911766E-010	0.0708638	5
	52	74	6.317385	122726.7	-258154.5	1	285841.9	-64.57359	9.470186E-010	0.0708676	5
	53	76	5.008013	154445.4	-301473	1	338732	-62.87381	6.512171E-010	0.0708709	5
	54	78	3.945707	194131.5	-350061.1	1	400287.1	-60.9888	2.061087E-010	0.0708631	5
	55	81	3.158693	237819.6	-398958.3	1	464463	-59.20077	6.520769E-010	0.0708711	5
	56	84	2.504006	290706.7	-453748.3	1	538885.8	-57.35319	5.093945E-011	0.0708596	5
	57	87	1.998082	348049.2	-508461.8	1	616175.1	-55.60782	4.341709E-010	0.0708205	5
	58	90	1.584686	411557.3	-569932	1	702994.9	-54.16633	2.598093E-010	0.070866	5
	59	94	1.266892	480081.6	-633760.4	1	795066.4	-52.85561	4.214951E-010	0.0708145	5
	60	98	0.999041	553318.1	-708091.8	1	898640.6	-51.99517	3.975132E-010	0.0709002	5
