EXPLAIN
TAG	EISPOT
TITLE	LABEL	Potentiostatic EIS	Test &Identifier
DATE	LABEL	1/25/2020	Date
TIME	LABEL	13:27:16	Time
NOTES	NOTES	6	&Notes...
	
	
	
	
	
	
PSTAT	PSTAT	REF600-11020	Potentiostat
VDC	POTEN	0.00000E+000	T	DC &Voltage (V)
FREQINIT	QUANT	1.00000E+006	Initial Fre&q. (Hz)
FREQFINAL	QUANT	1.00000E+000	Final Fre&q. (Hz)
PTSPERDEC	QUANT	1.00000E+001	Points/&decade
VAC	QUANT	2.50000E+001	AC &Voltage (mV rms)
AREA	QUANT	1.00000E-001	&Area (cm^2)
CONDIT	TWOPARAM	F	5.00000E+000	0.00000E+000	Conditionin&g	Time(s)	E(V)
DELAY	TWOPARAM	F	5.00000E+000	0.00000E+000	Init. De&lay	Time(s)	Stab.(mV/s)
SPEED	SELECTOR	0	&Optimize for:
ZGUESS	QUANT	5.00000E+002	E&stimated Z (ohms)
OCVCURVE	TABLE	39
	Pt	T	Vf	Vm	Ach	Over
	#	s	V vs. Ref.	V	V	bits
	0	0.258333	2.50219E-002	2.50219E-002	6.50813E-004	...........
	1	0.516667	2.50221E-002	2.50327E-002	6.48846E-004	...........
	2	0.775	2.50235E-002	2.50468E-002	6.46380E-004	...........
	3	1.03333	2.50276E-002	2.50667E-002	6.45446E-004	...........
	4	1.29167	2.50359E-002	2.50739E-002	6.42513E-004	...........
	5	1.55	2.50471E-002	2.50619E-002	6.44346E-004	...........
	6	1.80833	2.50573E-002	2.50562E-002	6.41913E-004	...........
	7	2.06667	2.50625E-002	2.50423E-002	6.48113E-004	...........
	8	2.325	2.50601E-002	2.49852E-002	6.49580E-004	...........
	9	2.58333	2.50487E-002	2.49739E-002	6.51746E-004	...........
	10	2.84167	2.50271E-002	2.48866E-002	6.49980E-004	...........
	11	3.1	2.49957E-002	2.48920E-002	6.47213E-004	...........
	12	3.35833	2.49597E-002	2.49341E-002	6.48246E-004	...........
	13	3.61667	2.49309E-002	2.49465E-002	6.45480E-004	...........
	14	3.875	2.49195E-002	2.49487E-002	6.48480E-004	...........
	15	4.13333	2.49242E-002	2.49595E-002	6.39480E-004	...........
	16	4.39167	2.49355E-002	2.49480E-002	6.43846E-004	...........
	17	4.65	2.49455E-002	2.49556E-002	6.41346E-004	...........
	18	4.90833	2.49509E-002	2.49416E-002	6.46313E-004	...........
	19	5.16667	2.49522E-002	2.49545E-002	6.43446E-004	...........
	20	5.425	2.49510E-002	2.49346E-002	6.48780E-004	...........
	21	5.68333	2.49487E-002	2.49445E-002	6.42580E-004	...........
	22	5.94167	2.49457E-002	2.49239E-002	6.42280E-004	...........
	23	6.2	2.49418E-002	2.49363E-002	6.40646E-004	...........
	24	6.45833	2.49377E-002	2.49280E-002	6.40846E-004	...........
	25	6.71667	2.49340E-002	2.49241E-002	6.45680E-004	...........
	26	6.975	2.49312E-002	2.49259E-002	6.43113E-004	...........
	27	7.23333	2.49285E-002	2.49110E-002	6.43780E-004	...........
	28	7.49167	2.49254E-002	2.49217E-002	6.43113E-004	...........
	29	7.75	2.49219E-002	2.49062E-002	6.48613E-004	...........
	30	8.00833	2.49184E-002	2.49122E-002	6.47980E-004	...........
	31	8.26667	2.49151E-002	2.49033E-002	6.40813E-004	...........
	32	8.525	2.49118E-002	2.49002E-002	6.46280E-004	...........
	33	8.78333	2.49085E-002	2.49029E-002	6.34280E-004	...........
	34	9.04167	2.49052E-002	2.48869E-002	6.48580E-004	...........
	35	9.3	2.49017E-002	2.48937E-002	6.34646E-004	...........
	36	9.5583	2.48979E-002	2.48866E-002	6.37013E-004	...........
	37	9.8167	2.48939E-002	2.48738E-002	6.40146E-004	...........
	38	10.075	2.48898E-002	2.48857E-002	6.44413E-004	...........
EOC	QUANT	0.0248898	Open Circuit (V)
PSTATMODEL	IQUANT	4	Pstat Model
PSTATSECTION	LABEL	REF600-11020	Pstat Section
PSTATSERIALNO	LABEL	11020	Pstat Serial Number
CTRLMODE	IQUANT	1	Control Mode
IESTAB	IQUANT	0	I/E Stability
CASPEED	IQUANT	1	Control Amp Speed
CONVENTION	IQUANT	1	Current Convention
ICHRANGE	IQUANT	2	Ich Range
ICHRANGEMODE	TOGGLE	F	Ich Auto Range
ICHOFFSETENABLE	TOGGLE	T	Ich Offset Enable
ICHOFFSET	QUANT	0	Ich Offset (V)
ICHFILTER	IQUANT	3	Ich Filter
VCHRANGE	IQUANT	2	Vch Range
VCHRANGEMODE	TOGGLE	F	Vch Auto Range
VCHOFFSETENABLE	TOGGLE	T	Vch Offset Enable
VCHOFFSET	QUANT	0	Vch Offset (V)
VCHFILTER	IQUANT	3	Vch Filter
ACHRANGE	IQUANT	2	Ach Range
ACHOFFSETENABLE	TOGGLE	F	Ach Offset Enable
ACHOFFSET	QUANT	0	Ach Offset (V)
ACHFILTER	IQUANT	3	Ach Filter
IERANGELOWERLIMIT	IQUANT	1	I/E Range Lower Limit
IERANGEMODE	TOGGLE	F	I/E AutoRange
IERANGE	IQUANT	7	I/E Range
POSFEEDENABLE	TOGGLE	F	Positive Feedback IR Comp
POSFEEDRESISTANCE	QUANT	0	Positive Feedback Resistance (ohm)
ACHSELECT	IQUANT	0	Ach Select
CABLEID	IQUANT	14	Cable ID
DCCALDATE	LABEL	12/22/2019	DC Calibration Date
ACCALDATE	LABEL	12/22/2019	AC Calibration Date
THERMOSELECT	IQUANT	1	Thermo Select
FRAMEWORKVERSION	QUANT	6.33	Framework Version
INSTRUMENTVERSION	LABEL	3.50	Instrument Version
ZCURVE	TABLE
	Pt	Time	Freq	Zreal	Zimag	Zsig	Zmod	Zphz	Idc	Vdc	IERange
	#	s	Hz	ohm	ohm	V	ohm	°	A	V	#
	0	1	1000078	1928.569	-1496.278	1	2440.948	-37.80605	4.241943E-006	0.0270505	8
	1	1	794390.6	2134.281	-1543.174	1	2633.731	-35.86851	-1.54408E-006	0.0271078	8
	2	2	630984.4	2349.629	-1597.297	1	2841.147	-34.20819	9.562972E-008	0.0269485	8
	3	2	501234.4	2555.98	-1665.614	1	3050.787	-33.09043	-9.821765E-007	0.0270478	8
	4	2	398109.4	2765.688	-1749.565	1	3272.615	-32.31731	-2.369188E-007	0.0267854	8
	5	2	316265.6	2988.715	-1852.942	1	3516.506	-31.79806	1.569329E-007	0.0266169	8
	6	3	251203.1	3204.134	-1987.306	1	3770.393	-31.80851	6.33645E-007	0.0265329	8
	7	3	199546.9	3453.448	-2138.476	1	4061.943	-31.767	6.059978E-007	0.0265326	8
	8	3	158578.1	3711.016	-2341.959	1	4388.213	-32.25532	-1.171444E-007	0.0267048	8
	9	4	125953.1	4024.793	-2541.173	1	4759.887	-32.26748	3.368289E-007	0.0261901	7
	10	4	100078.1	4341.515	-2783.284	1	5157.075	-32.66336	5.511304E-008	0.0265406	7
	11	4	79453.13	4697.891	-3070.543	1	5612.344	-33.16864	-2.933127E-008	0.0266665	7
	12	5	63140.62	5100.489	-3396.001	1	6127.627	-33.65642	-5.717104E-009	0.0266779	7
	13	5	50203.12	5547.923	-3741.047	1	6691.404	-33.99237	3.423118E-008	0.0265433	7
	14	5	39890.62	6047.65	-4119.495	1	7317.398	-34.26163	4.855783E-009	0.026582	7
	15	6	31640.63	6610.64	-4537.731	1	8018.203	-34.46681	-1.659293E-008	0.0266597	7
	16	6	25171.88	7220.207	-4970.101	1	8765.46	-34.54196	3.523429E-008	0.0266094	7
	17	6	20015.62	7885.677	-5428.061	1	9573.28	-34.54136	6.121415E-009	0.0265804	7
	18	7	15890.62	8599.674	-5934.576	1	10448.62	-34.60929	-1.476017E-008	0.0266005	7
	19	7	12609.37	9399.267	-6457.239	1	11403.6	-34.48883	1.002002E-009	0.0265979	6
	20	7	10078.13	10184.08	-7063.289	1	12393.77	-34.74369	6.318621E-009	0.0264924	6
	21	8	8015.625	11040.73	-7763.92	1	13497.26	-35.11517	5.934977E-009	0.02659	6
	22	8	6328.125	11999.42	-8618.654	1	14773.87	-35.68803	-4.963101E-010	0.0266806	6
	23	8	5015.625	13040.32	-9580.69	1	16181.46	-36.30465	-4.689655E-010	0.0266827	6
	24	8	3984.375	14197.35	-10665.2	1	17757	-36.91427	-4.519482E-009	0.0266411	6
	25	9	3170.956	15492.67	-11891.97	1	19530.53	-37.50937	5.944039E-009	0.0265914	6
	26	9	2527.573	16933.39	-13219.34	1	21482.33	-37.97798	-4.368525E-009	0.0266408	6
	27	9	1976.103	18647.51	-14823.65	1	23821.64	-38.48259	9.198058E-010	0.0265783	6
	28	10	1577.524	20318.61	-16341.64	1	26074.8	-38.80867	-1.133426E-009	0.0265932	6
	29	10	1265.625	22084.58	-18207.25	1	28622.24	-39.50328	7.061057E-009	0.0265362	6
	30	10	998.264	24016.23	-20436.71	1	31534.72	-40.39626	-3.747904E-009	0.0266519	6
	31	11	796.875	25915.82	-22980.94	1	34637.46	-41.56511	8.828934E-009	0.0264638	6
	32	11	627.7902	28086.76	-26284.17	1	38467.17	-43.10113	-3.163278E-011	0.0265333	6
	33	11	505.5147	30308.89	-30007.04	1	42650.34	-44.71326	-1.242814E-009	0.0265836	6
	34	12	397.9953	33039.36	-35000.38	1	48131.34	-46.6509	1.171384E-009	0.0266064	6
	35	12	315.5048	36317.37	-40964.18	1	54745.01	-48.44095	1.24472E-009	0.0266082	6
	36	12	252.4038	40228.99	-47801.35	1	62476.72	-49.91647	8.45335E-010	0.0266046	6
	37	13	198.6229	45575.66	-56550.25	1	72629.69	-51.13354	7.73922E-010	0.0266063	6
	38	13	158.3615	52088.91	-65986.15	1	84067.98	-51.71273	5.811901E-010	0.0266056	6
	39	13	125.558	60583.59	-76989.27	1	97967.9	-51.80045	5.59452E-010	0.026605	6
	40	14	100.4464	71013.52	-88597.02	1	113544.5	-51.28664	5.291057E-010	0.0266032	5
	41	14	79.00281	84247.72	-101928.5	1	132238.8	-50.425	6.844471E-010	0.0266006	5
	42	14	63.3446	100598.3	-111354.1	1	150065.9	-47.90506	4.527858E-010	0.026599	5
	43	15	49.86702	120047.3	-125198.1	1	173453	-46.20319	6.432068E-010	0.0265955	5
	44	15	39.72458	139830.8	-137351.9	1	196005.6	-44.48761	5.315825E-010	0.0265964	5
	45	15	31.6723	162643.4	-148475.3	1	220222.1	-42.39259	5.951984E-010	0.0265949	5
	46	16	24.93351	188247.1	-155550	1	244198.2	-39.56719	9.039614E-010	0.0265927	5
	47	16	19.86229	211465	-161498.3	1	266081.1	-37.3694	2.297061E-009	0.0266033	5
	48	16	15.83615	234874.6	-170652.9	1	290324.8	-36.00104	-2.217432E-010	0.0265973	5
	49	17	12.40079	260022.3	-170658.5	1	311024	-33.27779	9.817528E-010	0.0265953	5
	50	17	9.93114	281324.5	-179219.2	1	333561.1	-32.49939	-7.211363E-010	0.0265991	5
	51	18	7.944915	300435.2	-187824	1	354315.1	-32.01252	-5.42122E-010	0.0265965	5
	52	18	6.317385	317746.3	-199967.5	1	375432.7	-32.18346	-3.981051E-010	0.0266089	5
	53	19	5.008013	335708.2	-217824.9	1	400184.5	-32.9776	-3.647557E-010	0.0265922	5
	54	20	3.945707	354056.1	-241783.4	1	428736.5	-34.329	1.784925E-010	0.0265975	5
	55	21	3.158693	372800.5	-272150.6	1	461569.2	-36.13007	1.130994E-011	0.0266136	5
	56	23	2.504006	395624.3	-312047.3	1	503877.1	-38.26448	-2.052482E-010	0.026601	5
	57	24	1.998082	420078.2	-359282.7	1	552765.5	-40.53957	-6.089166E-012	0.0266176	5
	58	26	1.584686	452426.9	-418148	1	616066.4	-42.74514	1.159466E-010	0.0266445	5
	59	28	1.266892	488619.4	-487015.5	1	689879	-44.90581	8.57559E-011	0.0266252	5
	60	30	0.999041	534716.4	-571340.2	1	782528.8	-46.89649	7.305932E-011	0.0265929	5
