EXPLAIN
TAG	EISPOT
TITLE	LABEL	Potentiostatic EIS	Test &Identifier
DATE	LABEL	9/1/2020	Date
TIME	LABEL	21:37:33	Time
NOTES	NOTES	1	&Notes...
	
PSTAT	PSTAT	REF600-11020	Potentiostat
VDC	POTEN	0.00000E+000	T	DC &Voltage (V)
FREQINIT	QUANT	1.00000E+006	Initial Fre&q. (Hz)
FREQFINAL	QUANT	1.00000E+000	Final Fre&q. (Hz)
PTSPERDEC	QUANT	1.00000E+001	Points/&decade
VAC	QUANT	2.50000E+001	AC &Voltage (mV rms)
AREA	QUANT	4.00000E-005	&Area (cm^2)
CONDIT	TWOPARAM	F	5.00000E+000	0.00000E+000	Conditionin&g	Time(s)	E(V)
DELAY	TWOPARAM	F	3.00000E+000	0.00000E+000	Init. De&lay	Time(s)	Stab.(mV/s)
SPEED	SELECTOR	0	&Optimize for:
ZGUESS	QUANT	1.00000E+003	E&stimated Z (ohms)
OCVCURVE	TABLE	39
	Pt	T	Vf	Vm	Ach	Over
	#	s	V vs. Ref.	V	V	bits
	0	0.258333	1.50533E-001	1.50533E-001	5.67125E-004	...........
	1	0.516667	1.50533E-001	1.50514E-001	5.63625E-004	...........
	2	0.775	1.50531E-001	1.50499E-001	5.68558E-004	...........
	3	1.03333	1.50524E-001	1.50484E-001	5.60792E-004	...........
	4	1.29167	1.50514E-001	1.50468E-001	5.68825E-004	...........
	5	1.55	1.50500E-001	1.50453E-001	5.62525E-004	...........
	6	1.80833	1.50485E-001	1.50434E-001	5.65925E-004	...........
	7	2.06667	1.50469E-001	1.50420E-001	5.63758E-004	...........
	8	2.325	1.50453E-001	1.50406E-001	5.66059E-004	...........
	9	2.58333	1.50437E-001	1.50393E-001	5.65358E-004	...........
	10	2.84167	1.50422E-001	1.50376E-001	5.66558E-004	...........
	11	3.1	1.50408E-001	1.50361E-001	5.67558E-004	...........
	12	3.35833	1.50393E-001	1.50349E-001	5.68425E-004	...........
	13	3.61667	1.50378E-001	1.50337E-001	5.64592E-004	...........
	14	3.875	1.50364E-001	1.50326E-001	5.60959E-004	...........
	15	4.13333	1.50351E-001	1.50317E-001	5.62392E-004	...........
	16	4.39167	1.50339E-001	1.50309E-001	5.64258E-004	...........
	17	4.65	1.50328E-001	1.50300E-001	5.67925E-004	...........
	18	4.90833	1.50318E-001	1.50289E-001	5.66025E-004	...........
	19	5.16667	1.50309E-001	1.50278E-001	5.59559E-004	...........
	20	5.425	1.50300E-001	1.50273E-001	5.62425E-004	...........
	21	5.68333	1.50290E-001	1.50263E-001	5.62892E-004	...........
	22	5.94167	1.50281E-001	1.50255E-001	5.63025E-004	...........
	23	6.2	1.50272E-001	1.50247E-001	5.68192E-004	...........
	24	6.45833	1.50264E-001	1.50241E-001	5.65058E-004	...........
	25	6.71667	1.50256E-001	1.50235E-001	5.67425E-004	...........
	26	6.975	1.50248E-001	1.50229E-001	5.65925E-004	...........
	27	7.23333	1.50242E-001	1.50222E-001	5.64392E-004	...........
	28	7.49167	1.50235E-001	1.50215E-001	5.61259E-004	...........
	29	7.75	1.50229E-001	1.50213E-001	5.61925E-004	...........
	30	8.00833	1.50223E-001	1.50209E-001	5.65258E-004	...........
	31	8.26667	1.50218E-001	1.50204E-001	5.62059E-004	...........
	32	8.525	1.50213E-001	1.50200E-001	5.66392E-004	...........
	33	8.78333	1.50209E-001	1.50196E-001	5.72325E-004	...........
	34	9.04167	1.50204E-001	1.50192E-001	5.65325E-004	...........
	35	9.3	1.50200E-001	1.50192E-001	5.68558E-004	...........
	36	9.5583	1.50197E-001	1.50190E-001	5.64792E-004	...........
	37	9.8167	1.50194E-001	1.50187E-001	5.63892E-004	...........
	38	10.075	1.50192E-001	1.50184E-001	5.69192E-004	...........
EOC	QUANT	0.1501917	Open Circuit (V)
PSTATMODEL	IQUANT	4	Pstat Model
PSTATSECTION	LABEL	REF600-11020	Pstat Section
PSTATSERIALNO	LABEL	11020	Pstat Serial Number
CTRLMODE	IQUANT	1	Control Mode
IESTAB	IQUANT	0	I/E Stability
CASPEED	IQUANT	1	Control Amp Speed
CONVENTION	IQUANT	1	Current Convention
ICHRANGE	IQUANT	2	Ich Range
ICHRANGEMODE	TOGGLE	F	Ich Auto Range
ICHOFFSETENABLE	TOGGLE	T	Ich Offset Enable
ICHOFFSET	QUANT	0	Ich Offset (V)
ICHFILTER	IQUANT	3	Ich Filter
VCHRANGE	IQUANT	2	Vch Range
VCHRANGEMODE	TOGGLE	F	Vch Auto Range
VCHOFFSETENABLE	TOGGLE	T	Vch Offset Enable
VCHOFFSET	QUANT	0	Vch Offset (V)
VCHFILTER	IQUANT	3	Vch Filter
ACHRANGE	IQUANT	2	Ach Range
ACHOFFSETENABLE	TOGGLE	F	Ach Offset Enable
ACHOFFSET	QUANT	0	Ach Offset (V)
ACHFILTER	IQUANT	3	Ach Filter
IERANGELOWERLIMIT	IQUANT	1	I/E Range Lower Limit
IERANGEMODE	TOGGLE	F	I/E AutoRange
IERANGE	IQUANT	8	I/E Range
POSFEEDENABLE	TOGGLE	F	Positive Feedback IR Comp
POSFEEDRESISTANCE	QUANT	0	Positive Feedback Resistance (ohm)
ACHSELECT	IQUANT	0	Ach Select
CABLEID	IQUANT	14	Cable ID
DCCALDATE	LABEL	9/1/2020	DC Calibration Date
ACCALDATE	LABEL	9/1/2020	AC Calibration Date
THERMOSELECT	IQUANT	1	Thermo Select
FRAMEWORKVERSION	QUANT	6.33	Framework Version
INSTRUMENTVERSION	LABEL	3.50	Instrument Version
ZCURVE	TABLE
	Pt	Time	Freq	Zreal	Zimag	Zsig	Zmod	Zphz	Idc	Vdc	IERange
	#	s	Hz	ohm	ohm	V	ohm	°	A	V	#
	0	1	1000078	1895.68	-1874.636	1	2666.057	-44.6802	8.473998E-008	0.1524919	8
	1	1	794390.6	2252.729	-1978.465	1	2998.185	-41.29131	8.690034E-008	0.1521166	8
	2	1	630984.4	2628.061	-2036.668	1	3324.864	-37.7746	7.278769E-008	0.151947	8
	3	2	501234.4	3006.242	-2049.571	1	3638.438	-34.28506	5.288089E-008	0.1518364	8
	4	2	398109.4	3373.585	-2019.216	1	3931.706	-30.90209	5.730193E-008	0.1517812	8
	5	2	316265.6	3715.845	-1955.961	1	4199.201	-27.76159	8.355743E-008	0.1517415	8
	6	3	251203.1	4029.953	-1876.369	1	4445.366	-24.96696	2.994729E-008	0.151732	8
	7	3	199546.9	4311.087	-1784.011	1	4665.637	-22.48071	6.858645E-008	0.1517207	8
	8	3	158578.1	4561.47	-1695.253	1	4866.301	-20.38739	7.869639E-008	0.1517166	8
	9	4	125953.1	4815.491	-1589.294	1	5070.978	-18.26484	3.075435E-009	0.1517158	7
	10	4	100078.1	5014.32	-1518.707	1	5239.263	-16.85019	4.334193E-009	0.1516928	7
	11	4	79453.13	5196.009	-1477.5	1	5401.992	-15.87325	4.624873E-009	0.1516868	7
	12	5	63140.62	5367.863	-1456.693	1	5562.005	-15.18287	4.454515E-009	0.1516826	7
	13	5	50203.12	5533.388	-1455.856	1	5721.704	-14.74067	3.971617E-009	0.1516816	7
	14	5	39890.62	5697.327	-1476.112	1	5885.443	-14.52529	2.427667E-009	0.1516726	7
	15	6	31640.63	5865.917	-1521.022	1	6059.909	-14.53655	4.007572E-009	0.1516747	7
	16	6	25171.88	6035.866	-1587.117	1	6241.043	-14.7323	4.61659E-009	0.1516742	7
	17	6	20015.62	6215.005	-1677.84	1	6437.502	-15.10776	4.65349E-009	0.1516676	7
	18	6	15890.62	6407.074	-1794.268	1	6653.57	-15.64463	4.713658E-009	0.1516718	7
	19	7	12609.37	6612.097	-1936.758	1	6889.91	-16.3259	4.830861E-009	0.1516691	7
	20	7	10078.13	6824.752	-2101.079	1	7140.853	-17.11159	4.916808E-009	0.1516708	7
	21	7	8015.625	7057.521	-2300.702	1	7423.062	-18.0556	4.937243E-009	0.1516682	7
	22	8	6328.125	7315.413	-2543.024	1	7744.82	-19.16876	4.016977E-009	0.151669	7
	23	8	5015.625	7588.125	-2829.83	1	8098.616	-20.45193	4.171843E-009	0.1516678	7
	24	8	3984.375	7879.156	-3163.926	1	8490.673	-21.87825	5.295922E-009	0.1516689	7
	25	9	3170.956	8190.869	-3559.24	1	8930.763	-23.48676	3.928695E-009	0.1516561	7
	26	9	2527.573	8544.492	-4009.277	1	9438.36	-25.13708	-3.21767E-010	0.1516556	6
	27	9	1976.103	8952.98	-4625.978	1	10077.48	-27.32526	-5.444404E-010	0.1516543	6
	28	10	1577.524	9373.894	-5299.922	1	10768.43	-29.48346	3.378517E-010	0.1516645	6
	29	10	1265.625	9845.43	-6077.962	1	11570.4	-31.68861	3.581701E-010	0.1516632	6
	30	10	998.264	10426.83	-7068.501	1	12596.92	-34.13393	5.021126E-010	0.1516646	6
	31	11	796.875	11062.22	-8175.727	1	13755.55	-36.46689	2.503382E-010	0.1516602	6
	32	11	627.7902	11835.9	-9546.92	1	15206.33	-38.8899	5.946511E-010	0.1516604	6
	33	11	505.5147	12631.34	-11010.48	1	16756.54	-41.078	1.202807E-009	0.1516672	6
	34	12	397.9953	13641.22	-12917.37	1	18786.73	-43.4388	6.803929E-010	0.1516793	6
	35	12	315.5048	14754.16	-15123.54	1	21128.34	-45.70833	8.163872E-010	0.1516775	6
	36	12	252.4038	15981.35	-17647.6	1	23808.43	-47.83659	7.342786E-010	0.1516741	6
	37	13	198.6229	17518.61	-20896.04	1	27268.04	-50.02454	5.602545E-010	0.1516715	6
	38	13	158.3615	19243.74	-24580.09	1	31217.02	-51.94263	4.606611E-010	0.1516689	6
	39	13	125.558	21367.85	-29085.22	1	36090.64	-53.69663	6.719202E-010	0.1516712	6
	40	13	100.4464	23844.87	-34218.82	1	41707.38	-55.12987	7.294368E-010	0.1516674	6
	41	14	79.00281	27119.36	-40753.36	1	48951.97	-56.35819	5.539287E-010	0.1516672	6
	42	14	63.3446	30818.28	-47811.88	1	56883.59	-57.19524	4.029076E-010	0.1516643	6
	43	15	49.86702	35762.5	-56729.2	1	67060.85	-57.77237	6.983366E-010	0.1516646	6
	44	15	39.72458	41542.83	-66548.23	1	78450.46	-58.02547	4.172467E-010	0.1516663	6
	45	15	31.6723	48603.46	-77782.27	1	91719.02	-58.00016	6.06372E-010	0.1516652	6
	46	16	24.93351	57733.66	-91222.85	1	107957.3	-57.67086	-5.370431E-010	0.1516589	5
	47	16	19.86229	68172.21	-105779.3	1	125844	-57.1992	-1.167968E-009	0.1516552	5
	48	16	15.83615	80897.6	-122078.3	1	146449.8	-56.46877	8.582818E-010	0.1516541	5
	49	16	12.40079	97311.1	-141388.2	1	171639.3	-55.46213	-8.964416E-011	0.1516614	5
	50	17	9.93114	114981.5	-160779	1	197662.9	-54.42945	2.006007E-010	0.1516584	5
	51	17	7.944915	135494.9	-181549.3	1	226537	-53.26508	1.426506E-009	0.1516565	5
	52	17	6.317385	160328.4	-204972.8	1	260228.8	-51.9677	-5.137224E-011	0.1516737	5
	53	18	5.008013	189275.3	-230094.5	1	297940.6	-50.55935	-1.717306E-010	0.1516616	5
	54	19	3.945707	222499.5	-257028.6	1	339955.5	-49.11856	5.105064E-010	0.1516604	5
	55	20	3.158693	257929.8	-283247.9	1	383089	-47.67853	-8.538085E-011	0.151666	5
	56	21	2.504006	297970.3	-311844.9	1	431316.1	-46.30338	-6.939539E-011	0.1516547	5
	57	22	1.998082	340617.9	-340180.4	1	481397.2	-44.96318	3.196539E-010	0.1516958	5
	58	24	1.584686	386907.8	-372679.6	1	537203.7	-43.92689	3.214445E-010	0.1516814	5
	59	26	1.266892	434617.1	-404475.6	1	593710.8	-42.94273	2.081426E-010	0.1516388	5
	60	28	0.999041	489491.3	-441731.5	1	659339.4	-42.06403	1.216001E-010	0.1516147	5
