EXPLAIN
TAG	EISPOT
TITLE	LABEL	Potentiostatic EIS	Test &Identifier
DATE	LABEL	1/14/2020	Date
TIME	LABEL	18:16:18	Time
NOTES	NOTES	5	&Notes...
	
	
	
	
	
PSTAT	PSTAT	REF600-11020	Potentiostat
VDC	POTEN	0.00000E+000	T	DC &Voltage (V)
FREQINIT	QUANT	1.00000E+006	Initial Fre&q. (Hz)
FREQFINAL	QUANT	1.00000E+000	Final Fre&q. (Hz)
PTSPERDEC	QUANT	1.00000E+001	Points/&decade
VAC	QUANT	2.50000E+001	AC &Voltage (mV rms)
AREA	QUANT	1.00000E-001	&Area (cm^2)
CONDIT	TWOPARAM	T	5.00000E+000	0.00000E+000	Conditionin&g	Time(s)	E(V)
DELAY	TWOPARAM	T	5.00000E+000	0.00000E+000	Init. De&lay	Time(s)	Stab.(mV/s)
SPEED	SELECTOR	1	&Optimize for:
ZGUESS	QUANT	5.00000E+002	E&stimated Z (ohms)
OCVCURVE	TABLE	19
	Pt	T	Vf	Vm	Ach	Over
	#	s	V vs. Ref.	V	V	bits
	0	0.258333	1.21978E-002	1.21978E-002	6.01614E-004	...........
	1	0.516667	1.22039E-002	1.25160E-002	6.03314E-004	...........
	2	0.775	1.22418E-002	1.28486E-002	6.00047E-004	...........
	3	1.03333	1.23501E-002	1.31154E-002	5.98814E-004	...........
	4	1.29167	1.25433E-002	1.33802E-002	5.97747E-004	...........
	5	1.55	1.27941E-002	1.34956E-002	6.00714E-004	...........
	6	1.80833	1.30563E-002	1.37616E-002	5.97947E-004	...........
	7	2.06667	1.32992E-002	1.39359E-002	5.97914E-004	...........
	8	2.325	1.35184E-002	1.40958E-002	5.99314E-004	...........
	9	2.58333	1.37192E-002	1.42196E-002	5.98214E-004	...........
	10	2.84167	1.38992E-002	1.42371E-002	6.01480E-004	...........
	11	3.1	1.40476E-002	1.42524E-002	5.96114E-004	...........
	12	3.35833	1.41472E-002	1.39308E-002	5.98347E-004	...........
	13	3.61667	1.41831E-002	1.42321E-002	6.02147E-004	...........
	14	3.875	1.41836E-002	1.48993E-002	5.98347E-004	...........
	15	4.13333	1.42361E-002	1.48803E-002	5.92714E-004	...........
	16	4.39167	1.44080E-002	1.55940E-002	5.95347E-004	...........
	17	4.65	1.46997E-002	1.62527E-002	6.01514E-004	...........
	18	4.90833	1.50946E-002	1.66037E-002	6.00280E-004	...........
EOC	QUANT	0.0150946	Open Circuit (V)
PSTATMODEL	IQUANT	4	Pstat Model
PSTATSECTION	LABEL	REF600-11020	Pstat Section
PSTATSERIALNO	LABEL	11020	Pstat Serial Number
CTRLMODE	IQUANT	1	Control Mode
IESTAB	IQUANT	0	I/E Stability
CASPEED	IQUANT	1	Control Amp Speed
CONVENTION	IQUANT	1	Current Convention
ICHRANGE	IQUANT	2	Ich Range
ICHRANGEMODE	TOGGLE	F	Ich Auto Range
ICHOFFSETENABLE	TOGGLE	T	Ich Offset Enable
ICHOFFSET	QUANT	0	Ich Offset (V)
ICHFILTER	IQUANT	3	Ich Filter
VCHRANGE	IQUANT	2	Vch Range
VCHRANGEMODE	TOGGLE	F	Vch Auto Range
VCHOFFSETENABLE	TOGGLE	T	Vch Offset Enable
VCHOFFSET	QUANT	0	Vch Offset (V)
VCHFILTER	IQUANT	3	Vch Filter
ACHRANGE	IQUANT	2	Ach Range
ACHOFFSETENABLE	TOGGLE	F	Ach Offset Enable
ACHOFFSET	QUANT	0	Ach Offset (V)
ACHFILTER	IQUANT	3	Ach Filter
IERANGELOWERLIMIT	IQUANT	1	I/E Range Lower Limit
IERANGEMODE	TOGGLE	F	I/E AutoRange
IERANGE	IQUANT	7	I/E Range
POSFEEDENABLE	TOGGLE	F	Positive Feedback IR Comp
POSFEEDRESISTANCE	QUANT	0	Positive Feedback Resistance (ohm)
ACHSELECT	IQUANT	0	Ach Select
CABLEID	IQUANT	14	Cable ID
DCCALDATE	LABEL	12/22/2019	DC Calibration Date
ACCALDATE	LABEL	12/22/2019	AC Calibration Date
THERMOSELECT	IQUANT	1	Thermo Select
FRAMEWORKVERSION	QUANT	6.33	Framework Version
INSTRUMENTVERSION	LABEL	3.50	Instrument Version
ZCURVE	TABLE
	Pt	Time	Freq	Zreal	Zimag	Zsig	Zmod	Zphz	Idc	Vdc	IERange
	#	s	Hz	ohm	ohm	V	ohm	°	A	V	#
	0	1	1000078	2361.734	-2310.117	1	3303.699	-44.367	2.988416E-006	0.0167336	8
	1	3	794390.6	2827.653	-2429.118	1	3727.766	-40.66449	8.42833E-007	0.0164399	8
	2	4	630984.4	3305.221	-2454.88	1	4117.15	-36.60231	-1.927876E-007	0.0166462	8
	3	5	501234.4	3795.494	-2463.6	1	4524.942	-32.98701	-3.080977E-007	0.0165403	8
	4	7	398109.4	4267.536	-2385.52	1	4889.025	-29.20486	6.368512E-008	0.0165981	8
	5	8	316265.6	4721.472	-2253.883	1	5231.853	-25.51835	-1.075999E-006	0.0168512	8
	6	10	251203.1	5076.278	-2055.357	1	5476.595	-22.04275	2.863263E-006	0.0161177	8
	7	11	199546.9	5410.507	-1868.433	1	5724.04	-19.05154	-9.680703E-007	0.0167318	8
	8	13	158578.1	5700.679	-1645.674	1	5933.463	-16.10239	-8.831231E-007	0.0167323	8
	9	14	125953.1	5888.209	-1405.541	1	6053.64	-13.42551	3.561404E-007	0.0158809	7
	10	15	100078.1	6057.501	-1231.028	1	6181.322	-11.48742	3.354606E-008	0.0164783	7
	11	17	79453.13	6185.737	-1086.494	1	6280.431	-9.9621	-8.871248E-009	0.0164943	7
	12	18	63140.62	6290.122	-964.209	1	6363.594	-8.714994	6.576172E-008	0.016464	7
	13	20	50203.12	6373.093	-865.7917	1	6431.633	-7.736334	-4.335189E-008	0.0165627	7
	14	21	39890.62	6446.548	-791.7117	1	6494.981	-7.001534	-2.332462E-008	0.0165684	7
	15	22	31640.63	6509.556	-741.2342	1	6551.622	-6.496212	-4.317452E-008	0.0165635	7
	16	24	25171.88	6567.192	-711.8202	1	6605.657	-6.186158	5.549347E-008	0.0163964	7
	17	25	20015.62	6629.29	-688.7158	1	6664.969	-5.931171	2.968021E-009	0.0165005	7
	18	27	15890.62	6676.301	-713.6479	1	6714.334	-6.101334	-2.86999E-008	0.0165431	7
	19	28	12609.37	6731.437	-748.4129	1	6772.914	-6.344189	-1.985448E-008	0.0165033	7
	20	29	10078.13	6784.362	-799.4147	1	6831.298	-6.720286	8.529565E-008	0.0163906	7
	21	31	8015.625	6841.532	-875.7503	1	6897.354	-7.294478	8.571494E-008	0.0163895	7
	22	32	6328.125	6902.446	-984.415	1	6972.29	-8.11669	5.240647E-008	0.0164202	7
	23	33	5015.625	6968.048	-1124.208	1	7058.154	-9.164988	1.411595E-008	0.0165614	7
	24	35	3984.375	7035.436	-1302.557	1	7154.999	-10.4891	5.754843E-008	0.0163887	7
	25	36	3170.956	7105.528	-1520.785	1	7266.451	-12.08066	-4.147289E-008	0.0165578	7
	26	37	2527.573	7187.929	-1795.937	1	7408.894	-14.02841	-3.831946E-009	0.0164679	7
	27	39	1976.103	7289.527	-2164.015	1	7603.957	-16.53438	-1.315229E-008	0.0165363	7
	28	40	1577.524	7405.965	-2585.885	1	7844.433	-19.24728	-2.146048E-008	0.0164978	7
	29	41	1265.625	7517.58	-3097.757	1	8130.813	-22.39501	8.804289E-008	0.0163897	7
	30	43	998.264	7675.729	-3771.824	1	8552.396	-26.16932	-6.94731E-009	0.0164782	7
	31	44	796.875	7854.354	-4555.004	1	9079.589	-30.11089	-2.898228E-008	0.0165308	7
	32	45	627.7902	8084.509	-5572.744	1	9819.1	-34.57893	1.131148E-008	0.016312	6
	33	47	505.5147	8337.822	-6703.133	1	10698.19	-38.79729	-1.524406E-009	0.0164349	6
	34	48	397.9953	8672.796	-8224.215	1	11952.2	-43.47927	1.010229E-009	0.0165138	6
	35	50	315.5048	9070.172	-10039.48	1	13529.94	-47.90375	2.026038E-009	0.0165083	6
	36	51	252.4038	9536.52	-12165.85	1	15458.11	-51.90797	4.036486E-010	0.016508	6
	37	52	198.6229	10146.9	-14965.03	1	18080.7	-55.86114	1.099444E-009	0.0165098	6
	38	54	158.3615	10858.74	-18213.25	1	21204.59	-59.19661	6.776827E-010	0.0165153	6
	39	55	125.558	11764.77	-22282.34	1	25197.47	-62.16656	9.892339E-010	0.0165143	6
	40	56	100.4464	12864.05	-27064.39	1	29966.07	-64.57766	1.123057E-009	0.0165089	6
	41	58	79.00281	14353.75	-33337.26	1	36296.05	-66.70513	1.208969E-009	0.0165086	6
	42	59	63.3446	16275.46	-40475.46	1	43625.15	-68.0946	1.685546E-009	0.0164981	6
	43	60	49.86702	18512.98	-49951.32	1	53271.61	-69.66426	7.126972E-010	0.0165016	6
	44	62	39.72458	21706.12	-60685.75	1	64450.88	-70.31885	9.910548E-010	0.0165114	6
	45	63	31.6723	25811.3	-73783.22	1	78167.69	-70.71883	1.054665E-009	0.0165067	6
	46	65	24.93351	31636.37	-90321.13	1	95701.4	-70.6964	4.897034E-010	0.016505	6
	47	66	19.86229	39061.78	-108972.7	1	115762.2	-70.27954	-1.364278E-010	0.0165054	5
	48	67	15.83615	48567.3	-131120.6	1	139826.3	-69.67529	1.398E-009	0.0165039	5
	49	69	12.40079	62441.28	-158184.3	1	170062.3	-68.45899	7.325052E-011	0.0165055	5
	50	70	9.93114	78215.34	-187168.3	1	202853.6	-67.32054	5.465898E-010	0.0165019	5
	51	72	7.944915	97854.7	-219614.6	1	240429.1	-65.98346	-2.446754E-010	0.01651	5
	52	73	6.317385	122588.1	-256617.8	1	284395	-64.46587	-2.258953E-010	0.0165064	5
	53	75	5.008013	152409.5	-298536.3	1	335190.4	-62.95467	-2.563205E-010	0.0164943	5
	54	78	3.945707	188652.9	-346017.3	1	394103.9	-61.40024	3.883303E-010	0.0165037	5
	55	81	3.158693	226400.1	-395250.8	1	455499.9	-60.19587	-2.260152E-010	0.0164971	5
	56	84	2.504006	273864.7	-453410.2	1	529700.6	-58.86757	-8.488317E-011	0.0165056	5
	57	87	1.998082	319375.6	-516216.9	1	607026.1	-58.25555	1.095748E-010	0.0165469	5
	58	90	1.584686	372060.2	-590807.6	1	698199.4	-57.79939	3.819892E-011	0.0165014	5
	59	93	1.266892	434689	-676269.6	1	803924.8	-57.26812	-7.386714E-011	0.0165458	5
	60	98	0.999041	504357.7	-777345	1	926629.4	-57.02365	-5.062771E-011	0.0164646	5
