EXPLAIN
TAG	EISPOT
TITLE	LABEL	Potentiostatic EIS	Test &Identifier
DATE	LABEL	1/18/2020	Date
TIME	LABEL	21:57:24	Time
NOTES	NOTES	6	&Notes...
	
	
	
	
	
	
PSTAT	PSTAT	REF600-11020	Potentiostat
VDC	POTEN	0.00000E+000	T	DC &Voltage (V)
FREQINIT	QUANT	1.00000E+006	Initial Fre&q. (Hz)
FREQFINAL	QUANT	1.00000E+000	Final Fre&q. (Hz)
PTSPERDEC	QUANT	1.00000E+001	Points/&decade
VAC	QUANT	2.50000E+001	AC &Voltage (mV rms)
AREA	QUANT	1.00000E-001	&Area (cm^2)
CONDIT	TWOPARAM	F	5.00000E+000	0.00000E+000	Conditionin&g	Time(s)	E(V)
DELAY	TWOPARAM	F	5.00000E+000	0.00000E+000	Init. De&lay	Time(s)	Stab.(mV/s)
SPEED	SELECTOR	0	&Optimize for:
ZGUESS	QUANT	5.00000E+002	E&stimated Z (ohms)
OCVCURVE	TABLE	39
	Pt	T	Vf	Vm	Ach	Over
	#	s	V vs. Ref.	V	V	bits
	0	0.258333	-1.64292E-002	-1.64292E-002	6.53313E-004	...........
	1	0.516667	-1.64256E-002	-1.62440E-002	6.52480E-004	...........
	2	0.775	-1.64122E-002	-1.65047E-002	6.51980E-004	...........
	3	1.03333	-1.64026E-002	-1.67838E-002	6.55213E-004	...........
	4	1.29167	-1.64433E-002	-1.71476E-002	6.50280E-004	...........
	5	1.55	-1.65807E-002	-1.76051E-002	6.52446E-004	...........
	6	1.80833	-1.68134E-002	-1.72816E-002	6.52180E-004	...........
	7	2.06667	-1.70642E-002	-1.70171E-002	6.51780E-004	...........
	8	2.325	-1.72127E-002	-1.66666E-002	6.46646E-004	...........
	9	2.58333	-1.71836E-002	-1.62789E-002	6.47580E-004	...........
	10	2.84167	-1.69952E-002	-1.62873E-002	6.46713E-004	...........
	11	3.1	-1.67328E-002	-1.61873E-002	6.45246E-004	...........
	12	3.35833	-1.64908E-002	-1.61453E-002	6.46780E-004	...........
	13	3.61667	-1.63133E-002	-1.58211E-002	6.51713E-004	...........
	14	3.875	-1.61835E-002	-1.59925E-002	6.50646E-004	...........
	15	4.13333	-1.60751E-002	-1.58128E-002	6.50080E-004	...........
	16	4.39167	-1.59937E-002	-1.62853E-002	6.54180E-004	...........
	17	4.65	-1.59657E-002	-1.60150E-002	6.47446E-004	...........
	18	4.90833	-1.59882E-002	-1.58061E-002	6.48146E-004	...........
	19	5.16667	-1.60064E-002	-1.57752E-002	6.50180E-004	...........
	20	5.425	-1.59655E-002	-1.54222E-002	6.50446E-004	...........
	21	5.68333	-1.58551E-002	-1.52767E-002	6.50146E-004	...........
	22	5.94167	-1.56939E-002	-1.52207E-002	6.55479E-004	...........
	23	6.2	-1.55165E-002	-1.51670E-002	6.53380E-004	...........
	24	6.45833	-1.53619E-002	-1.50913E-002	6.53080E-004	...........
	25	6.71667	-1.52467E-002	-1.50084E-002	6.54013E-004	...........
	26	6.975	-1.51603E-002	-1.49077E-002	6.59713E-004	...........
	27	7.23333	-1.50854E-002	-1.49239E-002	6.54346E-004	...........
	28	7.49167	-1.50196E-002	-1.50397E-002	6.54413E-004	...........
	29	7.75	-1.49762E-002	-1.49063E-002	6.57946E-004	...........
	30	8.00833	-1.49614E-002	-1.50639E-002	6.49980E-004	...........
	31	8.26667	-1.49611E-002	-1.46997E-002	6.54913E-004	...........
	32	8.525	-1.49458E-002	-1.46673E-002	6.46680E-004	...........
	33	8.78333	-1.48905E-002	-1.46215E-002	6.54746E-004	...........
	34	9.04167	-1.48019E-002	-1.45789E-002	6.53980E-004	...........
	35	9.3	-1.47111E-002	-1.45382E-002	6.52480E-004	...........
	36	9.5583	-1.46382E-002	-1.44968E-002	6.44580E-004	...........
	37	9.8167	-1.45835E-002	-1.44580E-002	6.45846E-004	...........
	38	10.075	-1.45394E-002	-1.44230E-002	6.50480E-004	...........
EOC	QUANT	-0.0145394	Open Circuit (V)
PSTATMODEL	IQUANT	4	Pstat Model
PSTATSECTION	LABEL	REF600-11020	Pstat Section
PSTATSERIALNO	LABEL	11020	Pstat Serial Number
CTRLMODE	IQUANT	1	Control Mode
IESTAB	IQUANT	0	I/E Stability
CASPEED	IQUANT	1	Control Amp Speed
CONVENTION	IQUANT	1	Current Convention
ICHRANGE	IQUANT	2	Ich Range
ICHRANGEMODE	TOGGLE	F	Ich Auto Range
ICHOFFSETENABLE	TOGGLE	T	Ich Offset Enable
ICHOFFSET	QUANT	0	Ich Offset (V)
ICHFILTER	IQUANT	3	Ich Filter
VCHRANGE	IQUANT	2	Vch Range
VCHRANGEMODE	TOGGLE	F	Vch Auto Range
VCHOFFSETENABLE	TOGGLE	T	Vch Offset Enable
VCHOFFSET	QUANT	0	Vch Offset (V)
VCHFILTER	IQUANT	3	Vch Filter
ACHRANGE	IQUANT	2	Ach Range
ACHOFFSETENABLE	TOGGLE	F	Ach Offset Enable
ACHOFFSET	QUANT	0	Ach Offset (V)
ACHFILTER	IQUANT	3	Ach Filter
IERANGELOWERLIMIT	IQUANT	1	I/E Range Lower Limit
IERANGEMODE	TOGGLE	F	I/E AutoRange
IERANGE	IQUANT	7	I/E Range
POSFEEDENABLE	TOGGLE	F	Positive Feedback IR Comp
POSFEEDRESISTANCE	QUANT	0	Positive Feedback Resistance (ohm)
ACHSELECT	IQUANT	0	Ach Select
CABLEID	IQUANT	14	Cable ID
DCCALDATE	LABEL	12/22/2019	DC Calibration Date
ACCALDATE	LABEL	12/22/2019	AC Calibration Date
THERMOSELECT	IQUANT	1	Thermo Select
FRAMEWORKVERSION	QUANT	6.33	Framework Version
INSTRUMENTVERSION	LABEL	3.50	Instrument Version
ZCURVE	TABLE
	Pt	Time	Freq	Zreal	Zimag	Zsig	Zmod	Zphz	Idc	Vdc	IERange
	#	s	Hz	ohm	ohm	V	ohm	°	A	V	#
	0	1	1000078	2358.388	-2081.737	1	3145.731	-41.43468	-5.050972E-006	-0.012068	8
	1	1	794390.6	2773.454	-2130.13	1	3497.07	-37.52579	1.687868E-007	-0.0123824	8
	2	1	630984.4	3194.256	-2131.443	1	3840.094	-33.71414	-6.559526E-007	-0.0126702	8
	3	2	501234.4	3589.989	-2066.215	1	4142.133	-29.92254	-5.217349E-007	-0.0127587	8
	4	2	398109.4	3952.659	-1940.589	1	4403.34	-26.14909	-1.100857E-006	-0.0125377	8
	5	2	316265.6	4272.027	-1816.069	1	4642.017	-23.03069	2.122145E-006	-0.0134054	8
	6	3	251203.1	4588.05	-1650.111	1	4875.764	-19.78133	-1.268222E-006	-0.0127466	8
	7	3	199546.9	4804.95	-1464.398	1	5023.147	-16.94957	1.005624E-007	-0.0129811	8
	8	3	158578.1	4994.452	-1325.548	1	5167.361	-14.86386	-1.026041E-007	-0.0129102	8
	9	3	125953.1	5178.287	-1115.422	1	5297.058	-12.15599	-9.405557E-007	-0.0108519	7
	10	4	100078.1	5269.479	-994.29	1	5362.464	-10.68542	3.346609E-009	-0.0129336	7
	11	4	79453.13	5375.296	-892.5729	1	5448.899	-9.427993	3.131451E-008	-0.0130044	7
	12	4	63140.62	5457.784	-817.086	1	5518.608	-8.514527	7.219662E-008	-0.0130916	7
	13	5	50203.12	5528.632	-760.0887	1	5580.637	-7.828078	-3.303334E-008	-0.0128517	7
	14	5	39890.62	5591.43	-721.2134	1	5637.751	-7.349744	-2.972506E-008	-0.0129715	7
	15	5	31640.63	5652.374	-703.1956	1	5695.947	-7.091567	-2.6559E-008	-0.0129792	7
	16	6	25171.88	5710.734	-704.2437	1	5753.994	-7.030181	1.118195E-009	-0.0128893	7
	17	6	20015.62	5768.43	-723.567	1	5813.633	-7.149595	-1.747341E-008	-0.0129324	7
	18	6	15890.62	5828.607	-759.6714	1	5877.904	-7.425786	-1.950805E-008	-0.0129131	7
	19	7	12609.37	5891.392	-816.5084	1	5947.704	-7.890556	-4.649455E-008	-0.0129091	7
	20	7	10078.13	5956.297	-891.8466	1	6022.696	-8.515732	4.05161E-008	-0.0130955	7
	21	7	8015.625	6023.636	-993.862	1	6105.076	-9.369032	9.715344E-009	-0.0130324	7
	22	8	6328.125	6100.67	-1125.719	1	6203.662	-10.45484	-2.594906E-008	-0.0129771	7
	23	8	5015.625	6182.479	-1292.111	1	6316.059	-11.80465	5.945166E-008	-0.0129941	7
	24	8	3984.375	6264.439	-1494.628	1	6440.272	-13.41928	-2.575996E-008	-0.012981	7
	25	9	3170.956	6359.382	-1745.836	1	6594.671	-15.35117	-3.463492E-008	-0.0129552	7
	26	9	2527.573	6460.912	-2055.7	1	6780.065	-17.64977	-1.569003E-009	-0.0128862	7
	27	9	1976.103	6586.633	-2472.438	1	7035.388	-20.57473	-4.628823E-008	-0.0129165	7
	28	9	1577.524	6716.727	-2940.68	1	7332.259	-23.6445	-3.229163E-008	-0.012971	7
	29	10	1265.625	6873.172	-3507.681	1	7716.497	-27.03722	4.41266E-008	-0.0131111	7
	30	10	998.264	7066.567	-4256.466	1	8249.478	-31.06218	-4.546297E-008	-0.0129199	7
	31	10	796.875	7293.099	-5118.667	1	8910.109	-35.06312	8.101683E-009	-0.0130646	7
	32	11	627.7902	7580.854	-6241.17	1	9819.45	-39.46397	-7.389337E-009	-0.012897	6
	33	11	505.5147	7893.116	-7480.198	1	10874.5	-43.46144	1.826959E-009	-0.012931	6
	34	11	397.9953	8319.425	-9139.706	1	12359.09	-47.68995	1.016148E-009	-0.0129785	6
	35	12	315.5048	8825.308	-11109.97	1	14188.64	-51.53781	3.144204E-010	-0.0129751	6
	36	12	252.4038	9418.597	-13407.86	1	16385.38	-54.91318	1.903367E-010	-0.0129793	6
	37	12	198.6229	10200.2	-16416.33	1	19327.19	-58.14547	7.728405E-010	-0.0129782	6
	38	13	158.3615	11121.34	-19889.33	1	22787.49	-60.78777	8.062706E-010	-0.0129822	6
	39	13	125.558	12296.82	-24215.24	1	27158.61	-63.07794	4.473229E-010	-0.0129788	6
	40	13	100.4464	13747.55	-29262.87	1	32331.26	-64.8361	1.957058E-010	-0.0129822	6
	41	14	79.00281	15769.98	-35914.08	1	39223.89	-66.29357	2.223875E-010	-0.0129837	6
	42	14	63.3446	17798.35	-43240.06	1	46759.86	-67.62709	5.93223E-010	-0.0129838	6
	43	14	49.86702	21264.86	-52760.74	1	56884.89	-68.04843	3.786749E-010	-0.012989	6
	44	15	39.72458	25641.53	-63700.05	1	68667.2	-68.07347	3.394098E-010	-0.0129796	6
	45	15	31.6723	31232.33	-76451.02	1	82584.6	-67.77864	-1.036287E-010	-0.0129838	6
	46	15	24.93351	38518.41	-92019.97	1	99756.4	-67.28642	8.017745E-010	-0.0129842	6
	47	16	19.86229	47438.32	-109209.4	1	119067.6	-66.52087	9.065391E-010	-0.0129818	5
	48	16	15.83615	59114.13	-128628.5	1	141561.9	-65.31779	4.89959E-010	-0.0129866	5
	49	16	12.40079	74109.4	-154099.5	1	170993.8	-64.31621	4.570674E-010	-0.0129904	5
	50	17	9.93114	89869.63	-178085.8	1	199477.1	-63.22256	7.198315E-010	-0.0129895	5
	51	17	7.944915	109524.9	-205597.4	1	232950.6	-61.95508	1.059295E-009	-0.0129913	5
	52	18	6.317385	133930.5	-237586.7	1	272735.8	-60.58951	6.269882E-010	-0.0130037	5
	53	18	5.008013	163004.4	-273741.2	1	318598	-59.22751	2.957723E-010	-0.0129903	5
	54	20	3.945707	196679.6	-314307.7	1	370772.4	-57.96352	5.077437E-011	-0.0129831	5
	55	21	3.158693	233121.5	-356136	1	425650.7	-56.79182	-1.337567E-010	-0.0130035	5
	56	23	2.504006	275716.2	-404008.3	1	489123.9	-55.68835	1.388408E-010	-0.0130056	5
	57	24	1.998082	320180.3	-456663	1	557724.4	-54.96454	1.674392E-010	-0.012976	5
	58	25	1.584686	370373.4	-515750.6	1	634960.7	-54.31693	1.451224E-011	-0.0130176	5
	59	27	1.266892	424401.3	-583767.4	1	721734.6	-53.98269	7.940554E-012	-0.0130383	5
	60	30	0.999041	486467.1	-667972.6	1	826339.9	-53.93512	-2.793345E-011	-0.0130341	5
