EXPLAIN
TAG	EISPOT
TITLE	LABEL	Potentiostatic EIS	Test &Identifier
DATE	LABEL	2/28/2020	Date
TIME	LABEL	16:37:06	Time
NOTES	NOTES	1	&Notes...
	
PSTAT	PSTAT	REF600-11020	Potentiostat
VDC	POTEN	0.00000E+000	T	DC &Voltage (V)
FREQINIT	QUANT	1.00000E+006	Initial Fre&q. (Hz)
FREQFINAL	QUANT	1.00000E+000	Final Fre&q. (Hz)
PTSPERDEC	QUANT	1.00000E+001	Points/&decade
VAC	QUANT	2.50000E+001	AC &Voltage (mV rms)
AREA	QUANT	1.60000E-004	&Area (cm^2)
CONDIT	TWOPARAM	F	1.50000E+001	0.00000E+000	Conditionin&g	Time(s)	E(V)
DELAY	TWOPARAM	F	1.00000E+002	0.00000E+000	Init. De&lay	Time(s)	Stab.(mV/s)
SPEED	SELECTOR	1	&Optimize for:
ZGUESS	QUANT	1.00000E+003	E&stimated Z (ohms)
OCVCURVE	TABLE	39
	Pt	T	Vf	Vm	Ach	Over
	#	s	V vs. Ref.	V	V	bits
	0	0.258333	-9.63095E-002	-9.63095E-002	5.80963E-004	...........
	1	0.516667	-9.63203E-002	-9.68768E-002	5.83197E-004	...........
	2	0.775	-9.63631E-002	-9.61716E-002	5.79697E-004	...........
	3	1.03333	-9.64150E-002	-9.60038E-002	5.83497E-004	...........
	4	1.29167	-9.63980E-002	-9.58679E-002	5.81997E-004	...........
	5	1.55	-9.62844E-002	-9.61841E-002	5.85496E-004	...........
	6	1.80833	-9.61452E-002	-9.58947E-002	5.83630E-004	...........
	7	2.06667	-9.60544E-002	-9.61399E-002	5.87096E-004	...........
	8	2.325	-9.60468E-002	-9.73020E-002	5.83330E-004	...........
	9	2.58333	-9.61658E-002	-9.67941E-002	5.82263E-004	...........
	10	2.84167	-9.64062E-002	-9.67290E-002	5.80330E-004	...........
	11	3.1	-9.66491E-002	-9.68979E-002	5.79730E-004	...........
	12	3.35833	-9.67833E-002	-9.64456E-002	5.82897E-004	...........
	13	3.61667	-9.67928E-002	-9.63497E-002	5.80463E-004	...........
	14	3.875	-9.67076E-002	-9.63966E-002	5.81397E-004	...........
	15	4.13333	-9.65914E-002	-9.70159E-002	5.80230E-004	...........
	16	4.39167	-9.65457E-002	-9.71072E-002	5.79697E-004	...........
	17	4.65	-9.66328E-002	-9.71739E-002	5.82530E-004	...........
	18	4.90833	-9.67956E-002	-9.63410E-002	5.82830E-004	...........
	19	5.16667	-9.68883E-002	-9.62434E-002	5.80497E-004	...........
	20	5.425	-9.68161E-002	-9.64194E-002	5.83597E-004	...........
	21	5.68333	-9.66334E-002	-9.62651E-002	5.86030E-004	...........
	22	5.94167	-9.64592E-002	-9.61959E-002	5.84430E-004	...........
	23	6.2	-9.63440E-002	-9.61624E-002	5.81930E-004	...........
	24	6.45833	-9.62680E-002	-9.60177E-002	5.85130E-004	...........
	25	6.71667	-9.62047E-002	-9.61259E-002	5.83530E-004	...........
	26	6.975	-9.61508E-002	-9.61691E-002	5.82097E-004	...........
	27	7.23333	-9.61215E-002	-9.61891E-002	5.82030E-004	...........
	28	7.49167	-9.61245E-002	-9.62115E-002	5.79597E-004	...........
	29	7.75	-9.61489E-002	-9.62292E-002	5.81430E-004	...........
	30	8.00833	-9.61786E-002	-9.62484E-002	5.79397E-004	...........
	31	8.26667	-9.62050E-002	-9.62531E-002	5.76930E-004	...........
	32	8.525	-9.62261E-002	-9.62796E-002	5.80163E-004	...........
	33	8.78333	-9.62432E-002	-9.62818E-002	5.83997E-004	...........
	34	9.04167	-9.62576E-002	-9.62782E-002	5.83363E-004	...........
	35	9.3	-9.62692E-002	-9.62902E-002	5.85496E-004	...........
	36	9.5583	-9.62773E-002	-9.62898E-002	5.84730E-004	...........
	37	9.8167	-9.62830E-002	-9.63033E-002	5.84230E-004	...........
	38	10.075	-9.62882E-002	-9.63156E-002	5.83397E-004	...........
EOC	QUANT	-0.0962882	Open Circuit (V)
PSTATMODEL	IQUANT	4	Pstat Model
PSTATSECTION	LABEL	REF600-11020	Pstat Section
PSTATSERIALNO	LABEL	11020	Pstat Serial Number
CTRLMODE	IQUANT	1	Control Mode
IESTAB	IQUANT	0	I/E Stability
CASPEED	IQUANT	1	Control Amp Speed
CONVENTION	IQUANT	1	Current Convention
ICHRANGE	IQUANT	2	Ich Range
ICHRANGEMODE	TOGGLE	F	Ich Auto Range
ICHOFFSETENABLE	TOGGLE	T	Ich Offset Enable
ICHOFFSET	QUANT	0	Ich Offset (V)
ICHFILTER	IQUANT	3	Ich Filter
VCHRANGE	IQUANT	2	Vch Range
VCHRANGEMODE	TOGGLE	F	Vch Auto Range
VCHOFFSETENABLE	TOGGLE	T	Vch Offset Enable
VCHOFFSET	QUANT	0	Vch Offset (V)
VCHFILTER	IQUANT	3	Vch Filter
ACHRANGE	IQUANT	2	Ach Range
ACHOFFSETENABLE	TOGGLE	F	Ach Offset Enable
ACHOFFSET	QUANT	0	Ach Offset (V)
ACHFILTER	IQUANT	3	Ach Filter
IERANGELOWERLIMIT	IQUANT	1	I/E Range Lower Limit
IERANGEMODE	TOGGLE	F	I/E AutoRange
IERANGE	IQUANT	8	I/E Range
POSFEEDENABLE	TOGGLE	F	Positive Feedback IR Comp
POSFEEDRESISTANCE	QUANT	0	Positive Feedback Resistance (ohm)
ACHSELECT	IQUANT	0	Ach Select
CABLEID	IQUANT	14	Cable ID
DCCALDATE	LABEL	2/27/2020	DC Calibration Date
ACCALDATE	LABEL	2/27/2020	AC Calibration Date
THERMOSELECT	IQUANT	1	Thermo Select
FRAMEWORKVERSION	QUANT	6.33	Framework Version
INSTRUMENTVERSION	LABEL	3.50	Instrument Version
ZCURVE	TABLE
	Pt	Time	Freq	Zreal	Zimag	Zsig	Zmod	Zphz	Idc	Vdc	IERange
	#	s	Hz	ohm	ohm	V	ohm	°	A	V	#
	0	1	1000078	2235.79	-1907.159	1	2938.709	-40.46462	1.534997E-006	-0.0939389	8
	1	3	794390.6	2635.722	-1911.715	1	3256.022	-35.95374	2.024663E-006	-0.094843	8
	2	4	630984.4	3020.248	-1868.862	1	3551.696	-31.7483	-2.664068E-006	-0.0939289	8
	3	5	501234.4	3356.671	-1770.421	1	3794.948	-27.80867	-2.327968E-006	-0.0938426	8
	4	7	398109.4	3669.204	-1663.213	1	4028.565	-24.38431	-6.933349E-008	-0.0945697	8
	5	8	316265.6	3924.227	-1494.202	1	4199.071	-20.84501	-2.011185E-006	-0.0942845	8
	6	10	251203.1	4157.247	-1349.713	1	4370.861	-17.9868	2.020066E-006	-0.0951079	8
	7	11	199546.9	4333.846	-1194.692	1	4495.499	-15.4117	-5.208541E-007	-0.0946047	8
	8	12	158578.1	4449.492	-1081.452	1	4579.03	-13.66089	-6.948342E-007	-0.0945529	8
	9	14	125953.1	4589.312	-917.1077	1	4680.05	-11.30087	4.43518E-007	-0.0956374	7
	10	15	100078.1	4659.837	-836.0447	1	4734.242	-10.17151	-3.742128E-008	-0.0947205	7
	11	16	79453.13	4740.753	-781.7559	1	4804.777	-9.363874	-4.157033E-008	-0.0947053	7
	12	18	63140.62	4808.984	-752.0277	1	4867.43	-8.887916	-4.154687E-008	-0.0947082	7
	13	19	50203.12	4874.963	-737.2759	1	4930.4	-8.60008	-2.411831E-009	-0.0947363	7
	14	20	39890.62	4937.327	-743.2175	1	4992.952	-8.560481	-4.132494E-008	-0.0947117	7
	15	22	31640.63	5000.794	-765.4485	1	5059.037	-8.702456	-3.563509E-008	-0.0947343	7
	16	23	25171.88	5066.787	-808.5375	1	5130.893	-9.066586	-3.572883E-008	-0.0947366	7
	17	25	20015.62	5137.413	-871.9073	1	5210.876	-9.6323	1.495467E-008	-0.0946982	7
	18	26	15890.62	5216.048	-958.364	1	5303.359	-10.41105	-4.038569E-008	-0.0947112	7
	19	27	12609.37	5304.875	-1069.531	1	5411.617	-11.39876	3.948522E-009	-0.0947979	7
	20	29	10078.13	5397.576	-1202.252	1	5529.85	-12.55703	-3.031708E-008	-0.0946728	7
	21	30	8015.625	5507.516	-1365.018	1	5674.152	-13.92005	-2.723075E-008	-0.094727	7
	22	31	6328.125	5631.43	-1569.889	1	5846.158	-15.57702	-4.488158E-008	-0.0946954	7
	23	33	5015.625	5774.531	-1809.88	1	6051.518	-17.40228	-2.849295E-009	-0.0946809	7
	24	34	3984.375	5936.351	-2096.461	1	6295.667	-19.45101	1.738169E-008	-0.0947029	7
	25	36	3170.956	6124.502	-2433.454	1	6590.237	-21.66946	-2.92434E-008	-0.0946712	7
	26	37	2527.573	6337.334	-2828.012	1	6939.701	-24.04864	-3.05284E-008	-0.0946728	7
	27	38	1976.103	6608.275	-3327.04	1	7398.547	-26.72368	-4.658649E-009	-0.0947935	7
	28	40	1577.524	6899.123	-3888.058	1	7919.274	-29.4038	-2.702295E-008	-0.0947255	7
	29	41	1265.625	7228.335	-4517.716	1	8524.001	-32.00542	1.738859E-008	-0.0946996	7
	30	42	998.264	7643.498	-5316.145	1	9310.449	-34.81908	-3.018391E-008	-0.0946694	7
	31	44	796.875	8109.444	-6203.503	1	10210.12	-37.415	4.606673E-010	-0.0948217	6
	32	45	627.7902	8681.146	-7316.015	1	11352.81	-40.12244	2.788575E-011	-0.0947621	6
	33	46	505.5147	9292.45	-8509.131	1	12599.8	-42.48045	1.087145E-009	-0.0948187	6
	34	48	397.9953	10060.52	-10043.84	1	14215.94	-44.95247	1.075589E-009	-0.0946899	6
	35	49	315.5048	10941.01	-11806.62	1	16096.65	-47.17921	2.863134E-010	-0.094693	6
	36	51	252.4038	11918.53	-13795.2	1	18230.71	-49.17421	-7.888656E-011	-0.0946968	6
	37	52	198.6229	13130.75	-16315.42	1	20943.01	-51.17268	4.120035E-010	-0.0946971	6
	38	53	158.3615	14452.71	-19136.91	1	23981.29	-52.93892	3.830182E-010	-0.0947026	6
	39	55	125.558	16003.11	-22557.78	1	27657.79	-54.64706	9.874102E-012	-0.0947012	6
	40	56	100.4464	17726.54	-26460.87	1	31849.77	-56.18126	-4.833678E-010	-0.0947045	6
	41	57	79.00281	19832.06	-31566.72	1	37279.6	-57.86055	-5.864748E-010	-0.0947014	6
	42	59	63.3446	21931.19	-37216.24	1	43197.52	-59.48955	6.648246E-009	-0.0947014	6
	43	60	49.86702	24984.63	-44296.06	1	50856.39	-60.57538	-3.37495E-010	-0.0946986	6
	44	62	39.72458	28285.41	-52859.14	1	59951.26	-61.84835	-3.444343E-009	-0.0947015	6
	45	63	31.6723	32371.91	-62891.85	1	70734.19	-62.76406	1.058046E-010	-0.0947017	6
	46	64	24.93351	37598.59	-75778.76	1	84593.58	-63.61111	4.433218E-010	-0.0947008	6
	47	66	19.86229	44096.92	-90417.66	1	100597.7	-64.00139	3.137162E-011	-0.094703	6
	48	67	15.83615	52032.27	-107535.8	1	119462.5	-64.17951	-8.250189E-010	-0.0947038	5
	49	69	12.40079	63705.21	-128825	1	143715.8	-63.68716	6.775763E-011	-0.0947023	5
	50	70	9.93114	76939.19	-152024.9	1	170385.5	-63.15622	3.890973E-010	-0.0947018	5
	51	72	7.944915	93542.02	-177607.7	1	200735.1	-62.22522	-8.071078E-010	-0.0947049	5
	52	73	6.317385	114295.5	-206930.9	1	236397.7	-61.08653	3.703227E-010	-0.094711	5
	53	75	5.008013	140436.6	-239667.7	1	277782.4	-59.63124	2.906133E-010	-0.0946933	5
	54	78	3.945707	171458.6	-275953.5	1	324882.1	-58.14602	-2.159381E-010	-0.0947058	5
	55	81	3.158693	205695.5	-312561.2	1	374172.6	-56.65122	2.174735E-010	-0.0946845	5
	56	84	2.504006	244554.4	-353023.5	1	429456	-55.28801	-2.926571E-010	-0.0946941	5
	57	87	1.998082	284714.2	-394718.1	1	486687.3	-54.1967	8.054475E-011	-0.0947379	5
	58	90	1.584686	328510.2	-444619.3	1	552815.8	-53.54089	-2.567606E-010	-0.094727	5
	59	93	1.266892	373497	-496828.8	1	621561.6	-53.06555	1.350821E-010	-0.0947454	5
	60	98	0.999041	420605	-563144.4	1	702879.9	-53.24444	-6.37219E-012	-0.094668	5
