EXPLAIN
TAG	EISPOT
TITLE	LABEL	Potentiostatic EIS	Test &Identifier
DATE	LABEL	6/6/2020	Date
TIME	LABEL	13:41:17	Time
NOTES	NOTES	1	&Notes...
	
PSTAT	PSTAT	REF600-11020	Potentiostat
VDC	POTEN	0.00000E+000	T	DC &Voltage (V)
FREQINIT	QUANT	1.00000E+006	Initial Fre&q. (Hz)
FREQFINAL	QUANT	1.00000E+000	Final Fre&q. (Hz)
PTSPERDEC	QUANT	1.00000E+001	Points/&decade
VAC	QUANT	2.50000E+001	AC &Voltage (mV rms)
AREA	QUANT	2.50000E-001	&Area (cm^2)
CONDIT	TWOPARAM	F	5.00000E+000	0.00000E+000	Conditionin&g	Time(s)	E(V)
DELAY	TWOPARAM	T	3.00000E+000	0.00000E+000	Init. De&lay	Time(s)	Stab.(mV/s)
SPEED	SELECTOR	0	&Optimize for:
ZGUESS	QUANT	1.00000E+003	E&stimated Z (ohms)
OCVCURVE	TABLE	12
	Pt	T	Vf	Vm	Ach	Over
	#	s	V vs. Ref.	V	V	bits
	0	0.258333	-4.43839E-002	-4.43839E-002	5.63264E-004	...........
	1	0.516667	-4.43837E-002	-4.43732E-002	5.72597E-004	...........
	2	0.775	-4.43824E-002	-4.43616E-002	5.68030E-004	...........
	3	1.03333	-4.43787E-002	-4.43521E-002	5.66263E-004	...........
	4	1.29167	-4.43721E-002	-4.43467E-002	5.70830E-004	...........
	5	1.55	-4.43638E-002	-4.43406E-002	5.69297E-004	...........
	6	1.80833	-4.43553E-002	-4.43337E-002	5.67530E-004	...........
	7	2.06667	-4.43477E-002	-4.43297E-002	5.66630E-004	...........
	8	2.325	-4.43411E-002	-4.43242E-002	5.61864E-004	...........
	9	2.58333	-4.43352E-002	-4.43217E-002	5.65330E-004	...........
	10	2.84167	-4.43301E-002	-4.43184E-002	5.72130E-004	...........
	11	3.1	-4.43257E-002	-4.43157E-002	5.74030E-004	...........
EOC	QUANT	-0.0443257	Open Circuit (V)
PSTATMODEL	IQUANT	4	Pstat Model
PSTATSECTION	LABEL	REF600-11020	Pstat Section
PSTATSERIALNO	LABEL	11020	Pstat Serial Number
CTRLMODE	IQUANT	1	Control Mode
IESTAB	IQUANT	0	I/E Stability
CASPEED	IQUANT	1	Control Amp Speed
CONVENTION	IQUANT	1	Current Convention
ICHRANGE	IQUANT	2	Ich Range
ICHRANGEMODE	TOGGLE	F	Ich Auto Range
ICHOFFSETENABLE	TOGGLE	T	Ich Offset Enable
ICHOFFSET	QUANT	0	Ich Offset (V)
ICHFILTER	IQUANT	3	Ich Filter
VCHRANGE	IQUANT	2	Vch Range
VCHRANGEMODE	TOGGLE	F	Vch Auto Range
VCHOFFSETENABLE	TOGGLE	T	Vch Offset Enable
VCHOFFSET	QUANT	0	Vch Offset (V)
VCHFILTER	IQUANT	3	Vch Filter
ACHRANGE	IQUANT	2	Ach Range
ACHOFFSETENABLE	TOGGLE	F	Ach Offset Enable
ACHOFFSET	QUANT	0	Ach Offset (V)
ACHFILTER	IQUANT	3	Ach Filter
IERANGELOWERLIMIT	IQUANT	1	I/E Range Lower Limit
IERANGEMODE	TOGGLE	F	I/E AutoRange
IERANGE	IQUANT	7	I/E Range
POSFEEDENABLE	TOGGLE	F	Positive Feedback IR Comp
POSFEEDRESISTANCE	QUANT	0	Positive Feedback Resistance (ohm)
ACHSELECT	IQUANT	0	Ach Select
CABLEID	IQUANT	14	Cable ID
DCCALDATE	LABEL	2/27/2020	DC Calibration Date
ACCALDATE	LABEL	2/27/2020	AC Calibration Date
THERMOSELECT	IQUANT	1	Thermo Select
FRAMEWORKVERSION	QUANT	6.33	Framework Version
INSTRUMENTVERSION	LABEL	3.50	Instrument Version
ZCURVE	TABLE
	Pt	Time	Freq	Zreal	Zimag	Zsig	Zmod	Zphz	Idc	Vdc	IERange
	#	s	Hz	ohm	ohm	V	ohm	°	A	V	#
	0	1	1000078	2026.99	-1701.916	1	2646.735	-40.01774	2.684561E-010	-0.0417514	8
	1	2	794390.6	2359.204	-1746.708	1	2935.444	-36.51551	1.111005E-007	-0.0421485	8
	2	2	630984.4	2690.238	-1748.333	1	3208.434	-33.01904	3.603087E-008	-0.0423407	8
	3	2	501234.4	3009.59	-1707.167	1	3460.065	-29.56374	6.443711E-008	-0.0424499	8
	4	3	398109.4	3299.974	-1635.441	1	3683.001	-26.36265	7.534601E-008	-0.0425169	8
	5	3	316265.6	3565.497	-1544.553	1	3885.667	-23.42199	9.793436E-008	-0.0425737	8
	6	3	251203.1	3794.262	-1450.486	1	4062.06	-20.92105	7.26226E-008	-0.0425638	8
	7	4	199546.9	3996.228	-1353.986	1	4219.374	-18.71721	5.862382E-008	-0.0425626	8
	8	4	158578.1	4172.852	-1268.516	1	4361.402	-16.90889	3.461678E-008	-0.0425591	8
	9	4	125953.1	4364.412	-1124.951	1	4507.062	-14.45369	1.381295E-009	-0.0426237	7
	10	5	100078.1	4482.775	-1074.388	1	4609.727	-13.47787	3.073287E-009	-0.0426411	7
	11	5	79453.13	4604.855	-1048.501	1	4722.716	-12.82725	3.77804E-009	-0.0426415	7
	12	5	63140.62	4720.31	-1037.723	1	4833.032	-12.39879	3.476457E-009	-0.0426432	7
	13	6	50203.12	4831.815	-1042.655	1	4943.032	-12.17711	3.403032E-009	-0.042645	7
	14	6	39890.62	4942.846	-1066.053	1	5056.5	-12.1709	3.403055E-009	-0.0426428	7
	15	6	31640.63	5056.137	-1109.012	1	5176.333	-12.37133	3.304625E-009	-0.0426492	7
	16	6	25171.88	5173.277	-1172.107	1	5304.397	-12.76595	4.451674E-009	-0.0426501	7
	17	7	20015.62	5297.905	-1255.892	1	5444.729	-13.33606	3.920385E-009	-0.0426538	7
	18	7	15890.62	5432.728	-1363.523	1	5601.226	-14.08925	3.679738E-009	-0.0426519	7
	19	7	12609.37	5580.444	-1497.666	1	5777.92	-15.0229	3.878187E-009	-0.0426604	7
	20	8	10078.13	5737.24	-1652.061	1	5970.363	-16.06397	4.454836E-009	-0.0426508	7
	21	8	8015.625	5913.897	-1839.969	1	6193.518	-17.2823	4.137072E-009	-0.0426524	7
	22	8	6328.125	6117.593	-2069.098	1	6458.027	-18.68661	4.561509E-009	-0.0426522	7
	23	9	5015.625	6342.251	-2333.496	1	6757.911	-20.20002	5.121124E-009	-0.0426539	7
	24	9	3984.375	6592.152	-2638.133	1	7100.438	-21.81094	5.149413E-009	-0.0426539	7
	25	9	3170.956	6872.16	-2991.322	1	7494.971	-23.52259	6.257679E-009	-0.0426468	7
	26	10	2527.573	7186.086	-3398.399	1	7949.148	-25.31011	4.617603E-009	-0.0426607	7
	27	10	1976.103	7574.29	-3909.979	1	8523.954	-27.30356	4.040822E-009	-0.0426589	7
	28	10	1577.524	7980.054	-4452.621	1	9138.222	-29.16015	4.853902E-009	-0.0426538	7
	29	11	1265.625	8440.248	-5046.71	1	9833.98	-30.87663	8.359335E-011	-0.042604	6
	30	11	998.264	8991.047	-5802.038	1	10700.59	-32.83467	2.425782E-011	-0.042607	6
	31	11	796.875	9584.54	-6629.821	1	11654.09	-34.67241	1.276556E-010	-0.0426072	6
	32	12	627.7902	10289.94	-7634.104	1	12812.58	-36.57172	3.230753E-010	-0.042603	6
	33	12	505.5147	10999.54	-8688.608	1	14017.2	-38.30544	-6.273607E-012	-0.0426114	6
	34	12	397.9953	11873.67	-10038.78	1	15548.67	-40.21338	6.586979E-010	-0.04259	6
	35	13	315.5048	12812.59	-11577.07	1	17268.21	-42.10001	6.086992E-010	-0.0425909	6
	36	13	252.4038	13804.93	-13319.17	1	19182.71	-43.97401	5.688542E-010	-0.0425912	6
	37	13	198.6229	14978.27	-15548.36	1	21589.35	-46.06989	5.120133E-010	-0.0425928	6
	38	14	158.3615	16209.56	-18084.89	1	24286.07	-48.13001	5.919693E-010	-0.0425916	6
	39	14	125.558	17625.86	-21224.55	1	27588.99	-50.29218	7.436508E-010	-0.0425918	6
	40	14	100.4464	19183.17	-24881.12	1	31417.58	-52.36802	7.527283E-010	-0.0425925	6
	41	15	79.00281	21152.48	-29673.46	1	36440.93	-54.51714	3.149428E-010	-0.0425944	6
	42	15	63.3446	23332.25	-35020.46	1	42081.19	-56.32661	3.640082E-010	-0.0426011	6
	43	15	49.86702	26243.27	-42018.76	1	49540.74	-58.01271	4.071331E-010	-0.0426024	6
	44	16	39.72458	29727.69	-50011.95	1	58180.16	-59.27226	6.702458E-010	-0.0425963	6
	45	16	31.6723	34125.32	-59449.96	1	68548.05	-60.14342	5.180763E-010	-0.0426055	6
	46	16	24.93351	40066.16	-71170.63	1	81673.47	-60.62226	7.264513E-010	-0.0426086	6
	47	17	19.86229	47222.3	-84157.48	1	96500.9	-60.70242	-2.345603E-010	-0.0426107	6
	48	17	15.83615	56243.76	-98789.9	1	113678.6	-60.34598	1.500968E-009	-0.0426021	5
	49	17	12.40079	68213.05	-116668.9	1	135146.8	-59.68637	8.871116E-010	-0.0426012	5
	50	17	9.93114	81501.3	-134718.1	1	157453	-58.82705	7.514031E-010	-0.0426052	5
	51	18	7.944915	96884	-154422.5	1	182298.7	-57.896	1.700767E-009	-0.0426078	5
	52	18	6.317385	115689.6	-177016.3	1	211468.4	-56.83324	-3.079326E-010	-0.0425841	5
	53	19	5.008013	137404.7	-202231.4	1	244494.6	-55.80614	-3.488117E-010	-0.0426042	5
	54	20	3.945707	162137.4	-230424.7	1	281751.8	-54.86802	4.284652E-010	-0.0425985	5
	55	21	3.158693	188350.4	-260193.9	1	321211.3	-54.0998	-2.029854E-010	-0.0426021	5
	56	22	2.504006	217949.5	-294780.5	1	366602.7	-53.52219	1.296602E-011	-0.0426116	5
	57	23	1.998082	250212.6	-333358.9	1	416814.8	-53.10883	3.260005E-010	-0.0425689	5
	58	25	1.584686	285456.7	-378314.8	1	473927.9	-52.96369	1.798258E-010	-0.0426054	5
	59	27	1.266892	324772.2	-428083.9	1	537338.6	-52.81369	6.341967E-011	-0.0426401	5
	60	29	0.999041	371061.9	-490819.1	1	615296.9	-52.91052	1.460473E-011	-0.0426497	5
