EXPLAIN
TAG	EISPOT
TITLE	LABEL	Potentiostatic EIS	Test &Identifier
DATE	LABEL	3/3/2020	Date
TIME	LABEL	16:28:50	Time
NOTES	NOTES	1	&Notes...
	
PSTAT	PSTAT	REF600-11020	Potentiostat
VDC	POTEN	0.00000E+000	T	DC &Voltage (V)
FREQINIT	QUANT	1.00000E+006	Initial Fre&q. (Hz)
FREQFINAL	QUANT	1.00000E+000	Final Fre&q. (Hz)
PTSPERDEC	QUANT	1.00000E+001	Points/&decade
VAC	QUANT	2.50000E+001	AC &Voltage (mV rms)
AREA	QUANT	1.60000E-004	&Area (cm^2)
CONDIT	TWOPARAM	F	1.50000E+001	0.00000E+000	Conditionin&g	Time(s)	E(V)
DELAY	TWOPARAM	F	1.00000E+002	0.00000E+000	Init. De&lay	Time(s)	Stab.(mV/s)
SPEED	SELECTOR	1	&Optimize for:
ZGUESS	QUANT	1.00000E+004	E&stimated Z (ohms)
OCVCURVE	TABLE	39
	Pt	T	Vf	Vm	Ach	Over
	#	s	V vs. Ref.	V	V	bits
	0	0.258333	1.01899E-001	1.01899E-001	5.53797E-004	...........
	1	0.516667	1.01897E-001	1.01792E-001	5.52130E-004	...........
	2	0.775	1.01884E-001	1.01648E-001	5.50697E-004	...........
	3	1.03333	1.01828E-001	1.00723E-001	5.47797E-004	...........
	4	1.29167	1.01673E-001	1.00619E-001	5.44530E-004	...........
	5	1.55	1.01417E-001	1.01782E-001	5.52230E-004	...........
	6	1.80833	1.01210E-001	1.01934E-001	5.51030E-004	...........
	7	2.06667	1.01204E-001	1.00902E-001	5.52264E-004	...........
	8	2.325	1.01325E-001	1.01429E-001	5.46130E-004	...........
	9	2.58333	1.01396E-001	1.01295E-001	5.47630E-004	...........
	10	2.84167	1.01393E-001	1.02004E-001	5.50197E-004	...........
	11	3.1	1.01435E-001	1.02609E-001	5.51764E-004	...........
	12	3.35833	1.01611E-001	1.01871E-001	5.50264E-004	...........
	13	3.61667	1.01852E-001	1.01716E-001	5.47564E-004	...........
	14	3.875	1.01985E-001	1.01169E-001	5.46597E-004	...........
	15	4.13333	1.01915E-001	1.01325E-001	5.46997E-004	...........
	16	4.39167	1.01703E-001	1.01117E-001	5.51564E-004	...........
	17	4.65	1.01465E-001	1.00807E-001	5.51297E-004	...........
	18	4.90833	1.01266E-001	1.01157E-001	5.48130E-004	...........
	19	5.16667	1.01127E-001	1.01240E-001	5.48464E-004	...........
	20	5.425	1.01067E-001	1.00908E-001	5.52097E-004	...........
	21	5.68333	1.01149E-001	1.05542E-001	5.45397E-004	...........
	22	5.94167	1.01531E-001	1.02149E-001	5.45864E-004	...........
	23	6.2	1.02197E-001	1.03444E-001	5.50664E-004	...........
	24	6.45833	1.02808E-001	1.03030E-001	5.47330E-004	...........
	25	6.71667	1.03137E-001	1.04244E-001	5.50830E-004	...........
	26	6.975	1.03294E-001	1.02949E-001	5.49464E-004	...........
	27	7.23333	1.03386E-001	1.02589E-001	5.52897E-004	...........
	28	7.49167	1.03344E-001	1.02365E-001	5.51997E-004	...........
	29	7.75	1.03125E-001	1.02693E-001	5.53597E-004	...........
	30	8.00833	1.02844E-001	1.02257E-001	5.53997E-004	...........
	31	8.26667	1.02618E-001	1.02062E-001	5.51830E-004	...........
	32	8.525	1.02449E-001	1.01963E-001	5.49397E-004	...........
	33	8.78333	1.02293E-001	1.01929E-001	5.51997E-004	...........
	34	9.04167	1.02145E-001	1.01941E-001	5.52597E-004	...........
	35	9.3	1.02029E-001	1.01748E-001	5.44364E-004	...........
	36	9.5583	1.01946E-001	1.01805E-001	5.43930E-004	...........
	37	9.8167	1.01881E-001	1.01716E-001	5.44397E-004	...........
	38	10.075	1.01850E-001	1.03017E-001	5.48230E-004	...........
EOC	QUANT	0.1018499	Open Circuit (V)
PSTATMODEL	IQUANT	4	Pstat Model
PSTATSECTION	LABEL	REF600-11020	Pstat Section
PSTATSERIALNO	LABEL	11020	Pstat Serial Number
CTRLMODE	IQUANT	1	Control Mode
IESTAB	IQUANT	0	I/E Stability
CASPEED	IQUANT	1	Control Amp Speed
CONVENTION	IQUANT	1	Current Convention
ICHRANGE	IQUANT	2	Ich Range
ICHRANGEMODE	TOGGLE	F	Ich Auto Range
ICHOFFSETENABLE	TOGGLE	T	Ich Offset Enable
ICHOFFSET	QUANT	0	Ich Offset (V)
ICHFILTER	IQUANT	3	Ich Filter
VCHRANGE	IQUANT	2	Vch Range
VCHRANGEMODE	TOGGLE	F	Vch Auto Range
VCHOFFSETENABLE	TOGGLE	T	Vch Offset Enable
VCHOFFSET	QUANT	0	Vch Offset (V)
VCHFILTER	IQUANT	3	Vch Filter
ACHRANGE	IQUANT	2	Ach Range
ACHOFFSETENABLE	TOGGLE	F	Ach Offset Enable
ACHOFFSET	QUANT	0	Ach Offset (V)
ACHFILTER	IQUANT	3	Ach Filter
IERANGELOWERLIMIT	IQUANT	1	I/E Range Lower Limit
IERANGEMODE	TOGGLE	F	I/E AutoRange
IERANGE	IQUANT	7	I/E Range
POSFEEDENABLE	TOGGLE	F	Positive Feedback IR Comp
POSFEEDRESISTANCE	QUANT	0	Positive Feedback Resistance (ohm)
ACHSELECT	IQUANT	0	Ach Select
CABLEID	IQUANT	14	Cable ID
DCCALDATE	LABEL	2/27/2020	DC Calibration Date
ACCALDATE	LABEL	2/27/2020	AC Calibration Date
THERMOSELECT	IQUANT	1	Thermo Select
FRAMEWORKVERSION	QUANT	6.33	Framework Version
INSTRUMENTVERSION	LABEL	3.50	Instrument Version
ZCURVE	TABLE
	Pt	Time	Freq	Zreal	Zimag	Zsig	Zmod	Zphz	Idc	Vdc	IERange
	#	s	Hz	ohm	ohm	V	ohm	°	A	V	#
	0	2	1000078	1805.738	-2264.49	1	2896.309	-51.43061	-6.321981E-007	0.1040425	8
	1	3	794390.6	2169.961	-2513.454	1	3320.569	-49.19471	8.281565E-007	0.1035614	8
	2	5	630984.4	2589.783	-2778.706	1	3798.445	-47.01546	-9.13945E-007	0.1036865	8
	3	6	501234.4	3086.635	-3006.446	1	4308.832	-44.24599	2.992427E-006	0.1028736	8
	4	7	398109.4	3625.549	-3222.25	1	4850.515	-41.62947	1.291224E-006	0.1031625	8
	5	9	316265.6	4227.15	-3373.929	1	5408.53	-38.59536	-1.62857E-006	0.1038751	8
	6	10	251203.1	4887.38	-3486.931	1	6003.763	-35.50618	3.467457E-006	0.1029265	8
	7	12	199546.9	5591.412	-3437.464	1	6563.539	-31.58219	1.465004E-006	0.1031525	8
	8	13	158578.1	6240.579	-3354.555	1	7085.045	-28.25977	-1.148117E-006	0.103584	8
	9	15	125953.1	6859.512	-3064.448	1	7512.906	-24.07243	-3.200827E-008	0.1033406	7
	10	17	100078.1	7343.424	-2808.604	1	7862.196	-20.93011	-4.31928E-008	0.1033938	7
	11	18	79453.13	7777.102	-2547.999	1	8183.863	-18.14026	6.600411E-008	0.1032873	7
	12	19	63140.62	8125.418	-2294.299	1	8443.117	-15.7676	4.083803E-008	0.1033265	7
	13	21	50203.12	8400.748	-2052.216	1	8647.783	-13.7279	-6.125558E-008	0.1033701	7
	14	22	39890.62	8627	-1844.762	1	8822.033	-12.07011	-6.192973E-008	0.1033736	7
	15	24	31640.63	8828.836	-1671.904	1	8985.744	-10.72304	2.681081E-008	0.1033389	7
	16	25	25171.88	8979.872	-1534.564	1	9110.049	-9.69756	-3.706502E-008	0.1032927	7
	17	27	20015.62	9121.237	-1432.13	1	9232.982	-8.923187	2.157001E-008	0.1032574	7
	18	29	15890.62	9245.725	-1363.257	1	9345.688	-8.387671	-1.039425E-008	0.1032353	7
	19	30	12609.37	9388.351	-1272.622	1	9474.212	-7.719581	-5.482816E-009	0.1033867	6
	20	32	10078.13	9496.493	-1279.999	1	9582.37	-7.676431	1.118953E-008	0.1032388	6
	21	33	8015.625	9595.52	-1324.29	1	9686.47	-7.857829	-1.322996E-009	0.1032917	6
	22	35	6328.125	9702.99	-1405.776	1	9804.29	-8.243697	-4.531612E-009	0.1032831	6
	23	36	5015.625	9809.1	-1521.07	1	9926.33	-8.814494	1.340349E-008	0.1030847	6
	24	38	3984.375	9918.22	-1685.688	1	10060.45	-9.64575	7.727215E-009	0.1031353	6
	25	39	3170.956	10035.78	-1893.664	1	10212.87	-10.68558	7.240554E-010	0.1034561	6
	26	41	2527.573	10153.84	-2160.391	1	10381.13	-12.01147	-1.753368E-009	0.103295	6
	27	43	1976.103	10300.86	-2528.311	1	10606.61	-13.79043	-1.230705E-008	0.1034946	6
	28	44	1577.524	10438.8	-2955.66	1	10849.17	-15.80903	-2.044104E-009	0.1032544	6
	29	46	1265.625	10597.17	-3473.917	1	11152.04	-18.14995	-7.67413E-009	0.1035027	6
	30	47	998.264	10792.26	-4164.669	1	11567.94	-21.10131	1.119547E-008	0.1032319	6
	31	48	796.875	11011.27	-4976.468	1	12083.6	-24.32026	-5.804195E-009	0.1033847	6
	32	50	627.7902	11279.2	-6029.987	1	12789.88	-28.12947	-1.135427E-008	0.1034332	6
	33	51	505.5147	11572.7	-7207.794	1	13633.77	-31.91578	-3.609081E-009	0.1034631	6
	34	53	397.9953	11971.72	-8796.44	1	14855.96	-36.30727	5.45835E-010	0.1033633	6
	35	54	315.5048	12452.53	-10691.9	1	16412.87	-40.64982	7.890305E-010	0.1033619	6
	36	55	252.4038	13025.66	-12909.98	1	18339.45	-44.74444	3.469511E-010	0.1033568	6
	37	57	198.6229	13804.21	-15811.21	1	20989.3	-48.87693	5.276429E-010	0.1033627	6
	38	58	158.3615	14728.72	-19147.88	1	24157.33	-52.4322	7.049311E-010	0.103355	6
	39	59	125.558	15940.51	-23288.6	1	28221.61	-55.60925	2.366383E-010	0.103366	6
	40	61	100.4464	17406.36	-28052.32	1	33013.84	-58.18055	3.046741E-010	0.1033785	6
	41	62	79.00281	19408.27	-34237.67	1	39356.05	-60.45245	4.844968E-010	0.1033716	6
	42	64	63.3446	21700.85	-40873.92	1	46277.47	-62.0352	1.399159E-010	0.1033643	6
	43	65	49.86702	25116	-50050.67	1	55998.95	-63.35198	3.754787E-010	0.103365	6
	44	66	39.72458	28809.74	-59855.02	1	66427.59	-64.29731	2.342483E-010	0.1033652	6
	45	68	31.6723	33729	-71653.55	1	79195.18	-64.79254	-4.345407E-011	0.1033772	6
	46	69	24.93351	39887.48	-86135.96	1	94923.2	-65.15229	1.634426E-010	0.1033544	6
	47	70	19.86229	47252.53	-102407.6	1	112783.5	-65.23064	6.674598E-010	0.1033675	5
	48	72	15.83615	56085.13	-121340.8	1	133675.5	-65.19307	1.414218E-010	0.1033604	5
	49	73	12.40079	68624.73	-145257.2	1	160651.8	-64.71227	-3.326998E-010	0.1033648	5
	50	75	9.93114	81492.2	-170892	1	189327.9	-64.50523	1.502615E-010	0.1033652	5
	51	76	7.944915	97680.4	-200501.2	1	223029.6	-64.02554	4.383451E-010	0.103375	5
	52	78	6.317385	117251.4	-235857.7	1	263394.7	-63.56675	-1.450539E-010	0.1033716	5
	53	80	5.008013	141873.2	-277717.6	1	311857.5	-62.93959	3.108375E-011	0.1033552	5
	54	82	3.945707	172497.7	-326766.3	1	369502	-62.17073	3.785302E-010	0.1033616	5
	55	85	3.158693	208091.2	-379709.3	1	432990.9	-61.27604	7.372079E-012	0.1033554	5
	56	88	2.504006	252727.5	-441248.9	1	508499.6	-60.19787	3.019925E-010	0.1033526	5
	57	91	1.998082	304462.7	-507671.4	1	591969.4	-59.04788	-1.064472E-010	0.1033942	5
	58	94	1.584686	367698.7	-583903	1	690032.6	-57.80033	1.964758E-010	0.1033957	5
	59	98	1.266892	438982.1	-661639.7	1	794022.9	-56.43668	-9.362273E-011	0.1033989	5
	60	102	0.999041	523982.7	-752730.1	1	917148	-55.15785	2.552242E-010	0.1033444	5
