EXPLAIN
TAG	EISPOT
TITLE	LABEL	Potentiostatic EIS	Test &Identifier
DATE	LABEL	6/6/2020	Date
TIME	LABEL	18:47:44	Time
NOTES	NOTES	1	&Notes...
	
PSTAT	PSTAT	REF600-11020	Potentiostat
VDC	POTEN	0.00000E+000	T	DC &Voltage (V)
FREQINIT	QUANT	1.00000E+006	Initial Fre&q. (Hz)
FREQFINAL	QUANT	1.00000E+000	Final Fre&q. (Hz)
PTSPERDEC	QUANT	1.00000E+001	Points/&decade
VAC	QUANT	2.50000E+001	AC &Voltage (mV rms)
AREA	QUANT	4.00000E-004	&Area (cm^2)
CONDIT	TWOPARAM	F	5.00000E+000	0.00000E+000	Conditionin&g	Time(s)	E(V)
DELAY	TWOPARAM	T	3.00000E+000	0.00000E+000	Init. De&lay	Time(s)	Stab.(mV/s)
SPEED	SELECTOR	0	&Optimize for:
ZGUESS	QUANT	1.00000E+003	E&stimated Z (ohms)
OCVCURVE	TABLE	12
	Pt	T	Vf	Vm	Ach	Over
	#	s	V vs. Ref.	V	V	bits
	0	0.258333	5.13138E-002	5.13138E-002	5.75330E-004	...........
	1	0.516667	5.13135E-002	5.12993E-002	5.74130E-004	...........
	2	0.775	5.13114E-002	5.12644E-002	5.67330E-004	...........
	3	1.03333	5.13049E-002	5.12694E-002	5.71763E-004	...........
	4	1.29167	5.12937E-002	5.12709E-002	5.69863E-004	...........
	5	1.55	5.12824E-002	5.12908E-002	5.71030E-004	...........
	6	1.80833	5.12769E-002	5.13107E-002	5.69563E-004	...........
	7	2.06667	5.12809E-002	5.13618E-002	5.67164E-004	...........
	8	2.325	5.12956E-002	5.13834E-002	5.67130E-004	...........
	9	2.58333	5.13203E-002	5.14404E-002	5.69363E-004	...........
	10	2.84167	5.13530E-002	5.14881E-002	5.70663E-004	...........
	11	3.1	5.13919E-002	5.15207E-002	5.66730E-004	...........
EOC	QUANT	0.0513919	Open Circuit (V)
PSTATMODEL	IQUANT	4	Pstat Model
PSTATSECTION	LABEL	REF600-11020	Pstat Section
PSTATSERIALNO	LABEL	11020	Pstat Serial Number
CTRLMODE	IQUANT	1	Control Mode
IESTAB	IQUANT	0	I/E Stability
CASPEED	IQUANT	1	Control Amp Speed
CONVENTION	IQUANT	1	Current Convention
ICHRANGE	IQUANT	2	Ich Range
ICHRANGEMODE	TOGGLE	F	Ich Auto Range
ICHOFFSETENABLE	TOGGLE	T	Ich Offset Enable
ICHOFFSET	QUANT	0	Ich Offset (V)
ICHFILTER	IQUANT	3	Ich Filter
VCHRANGE	IQUANT	2	Vch Range
VCHRANGEMODE	TOGGLE	F	Vch Auto Range
VCHOFFSETENABLE	TOGGLE	T	Vch Offset Enable
VCHOFFSET	QUANT	0	Vch Offset (V)
VCHFILTER	IQUANT	3	Vch Filter
ACHRANGE	IQUANT	2	Ach Range
ACHOFFSETENABLE	TOGGLE	F	Ach Offset Enable
ACHOFFSET	QUANT	0	Ach Offset (V)
ACHFILTER	IQUANT	3	Ach Filter
IERANGELOWERLIMIT	IQUANT	1	I/E Range Lower Limit
IERANGEMODE	TOGGLE	F	I/E AutoRange
IERANGE	IQUANT	7	I/E Range
POSFEEDENABLE	TOGGLE	F	Positive Feedback IR Comp
POSFEEDRESISTANCE	QUANT	0	Positive Feedback Resistance (ohm)
ACHSELECT	IQUANT	0	Ach Select
CABLEID	IQUANT	14	Cable ID
DCCALDATE	LABEL	2/27/2020	DC Calibration Date
ACCALDATE	LABEL	2/27/2020	AC Calibration Date
THERMOSELECT	IQUANT	1	Thermo Select
FRAMEWORKVERSION	QUANT	6.33	Framework Version
INSTRUMENTVERSION	LABEL	3.50	Instrument Version
ZCURVE	TABLE
	Pt	Time	Freq	Zreal	Zimag	Zsig	Zmod	Zphz	Idc	Vdc	IERange
	#	s	Hz	ohm	ohm	V	ohm	°	A	V	#
	0	1	1000078	1519.465	-2227.987	1	2696.794	-55.7064	2.024978E-008	0.0541448	8
	1	1	794390.6	1812.991	-2529.528	1	3112.145	-54.36965	5.291347E-008	0.053718	8
	2	2	630984.4	2145.919	-2857.631	1	3573.656	-53.09553	4.219674E-008	0.0535197	8
	3	2	501234.4	2520.162	-3211.6	1	4082.351	-51.87851	2.35335E-008	0.0533922	8
	4	2	398109.4	2944.825	-3607.1	1	4656.519	-50.7719	6.046909E-008	0.0533181	8
	5	3	316265.6	3427.072	-4041.24	1	5298.721	-49.70122	6.045718E-008	0.0532855	8
	6	3	251203.1	3997.912	-4521.031	1	6035.149	-48.51392	3.50267E-008	0.0532747	8
	7	3	199546.9	4663.97	-5046.466	1	6871.64	-47.25572	3.512052E-008	0.0532624	8
	8	4	158578.1	5469.504	-5601.451	1	7828.904	-45.68283	3.399431E-008	0.0532419	8
	9	4	125953.1	6497.206	-6100.85	1	8912.578	-43.19797	1.098584E-009	0.0531868	7
	10	4	100078.1	7563.899	-6587.703	1	10030.47	-41.05391	2.250109E-009	0.0531645	7
	11	5	79453.13	8796.098	-7000.758	1	11241.97	-38.51606	3.426992E-009	0.0531693	7
	12	5	63140.62	10133.1	-7280.191	1	12477.21	-35.6956	3.806412E-009	0.0531671	7
	13	5	50203.12	11536.76	-7390.044	1	13700.72	-32.64219	2.337933E-009	0.0531576	7
	14	6	39890.62	12943.1	-7291.134	1	14855.45	-29.39352	2.243549E-009	0.0531536	7
	15	6	31640.63	14307.72	-7031.271	1	15942.07	-26.17098	2.476072E-009	0.0531524	7
	16	6	25171.88	15542.46	-6614.594	1	16891.45	-23.05374	2.939574E-009	0.0531564	7
	17	7	20015.62	16642.07	-6091.79	1	17721.98	-20.10503	3.452774E-009	0.0531604	7
	18	7	15890.62	17572.91	-5509.784	1	18416.43	-17.40821	3.549349E-009	0.0531567	7
	19	7	12609.37	18411.72	-4748.867	1	19014.29	-14.46287	2.295248E-010	0.0532031	6
	20	8	10078.13	18945.26	-4225.152	1	19410.69	-12.5723	1.040352E-010	0.0532069	6
	21	8	8015.625	19402.5	-3774.956	1	19766.31	-11.00994	3.340306E-011	0.0532066	6
	22	8	6328.125	19750.26	-3400.465	1	20040.85	-9.76902	3.323479E-010	0.0532071	6
	23	9	5015.625	20055.9	-3141.894	1	20300.51	-8.90341	8.950197E-011	0.0532044	6
	24	9	3984.375	20217.04	-2969.877	1	20434.01	-8.35696	1.482608E-010	0.0532029	6
	25	9	3170.956	20400.54	-2916.899	1	20608.02	-8.137082	7.715846E-011	0.0532083	6
	26	9	2527.573	20592.73	-2979.282	1	20807.13	-8.232227	-7.395735E-011	0.0532004	6
	27	10	1976.103	20725.71	-3156.807	1	20964.74	-8.660363	6.496617E-011	0.0532008	6
	28	10	1577.524	20855.57	-3453.787	1	21139.62	-9.403127	-1.152143E-010	0.0531993	6
	29	10	1265.625	21020.95	-3869.539	1	21374.13	-10.43025	6.089837E-011	0.0531952	6
	30	11	998.264	21221.38	-4477.578	1	21688.6	-11.9143	3.397218E-010	0.0532037	6
	31	11	796.875	21446.83	-5227.021	1	22074.6	-13.6971	-1.520557E-011	0.0532058	6
	32	11	627.7902	21751.54	-6237.07	1	22628.09	-15.9998	1.46637E-010	0.0532065	6
	33	12	505.5147	22032	-7381.832	1	23235.76	-18.52345	-1.064662E-010	0.0532021	6
	34	12	397.9953	22505.13	-8943.946	1	24217.25	-21.67377	4.625179E-010	0.0532141	6
	35	12	315.5048	22955.61	-10815.98	1	25376.08	-25.22837	3.468149E-010	0.0532128	6
	36	13	252.4038	23670.04	-13010.2	1	27009.93	-28.79531	2.778351E-010	0.0532118	6
	37	13	198.6229	24486.81	-15877.29	1	29183.77	-32.95944	3.524522E-010	0.0532133	6
	38	13	158.3615	25562.29	-19161.91	1	31946.98	-36.85583	1.526521E-010	0.0532108	6
	39	14	125.558	26941.43	-23221.13	1	35567.7	-40.75843	3.126849E-010	0.0532112	6
	40	14	100.4464	28585.2	-27899.11	1	39943.38	-44.30408	1.615766E-010	0.0532115	6
	41	14	79.00281	30879.02	-33919.68	1	45870.02	-47.68662	4.592268E-010	0.0532079	6
	42	15	63.3446	33525.07	-40526.14	1	52595.61	-50.40089	4.461977E-010	0.053203	6
	43	15	49.86702	37281.27	-48998.61	1	61569.13	-52.73381	-6.012406E-011	0.0532052	6
	44	15	39.72458	41951.82	-58461.2	1	71956.02	-54.33673	4.695507E-010	0.0532099	6
	45	16	31.6723	47844.11	-69395.31	1	84289.79	-55.41595	3.502341E-010	0.0532074	6
	46	16	24.93351	55884.72	-82621.77	1	99747	-55.92589	7.155752E-010	0.0532015	6
	47	16	19.86229	65475.8	-96684.1	1	116768.5	-55.8936	1.821995E-009	0.053209	5
	48	17	15.83615	77481.42	-112286.8	1	136424.7	-55.39309	-1.017539E-010	0.053206	5
	49	17	12.40079	93541.42	-130233.8	1	160346	-54.3119	1.774228E-009	0.0532044	5
	50	17	9.93114	110180	-147137.2	1	183817.8	-53.17321	1.814724E-009	0.0532054	5
	51	18	7.944915	129298.6	-165643	1	210132.7	-52.02491	-2.078128E-012	0.0532051	5
	52	18	6.317385	150828.8	-185114	1	238781.3	-50.82724	-3.82255E-010	0.0532097	5
	53	19	5.008013	174195.3	-205907.6	1	269707.2	-49.7692	7.87737E-011	0.0532075	5
	54	20	3.945707	199529	-230008	1	304492.2	-49.05877	2.637498E-010	0.0532017	5
	55	21	3.158693	223684.7	-255019.4	1	339219.3	-48.74508	-1.28987E-010	0.0532173	5
	56	22	2.504006	250514.9	-286387	1	380493.4	-48.82244	-3.324073E-010	0.0532107	5
	57	23	1.998082	277016.5	-321893.9	1	424680.8	-49.28526	-2.153376E-010	0.053225	5
	58	25	1.584686	307827.2	-367617.9	1	479479.4	-50.05866	-1.244632E-010	0.0532433	5
	59	26	1.266892	339289.5	-420844.4	1	540580.6	-51.12385	-1.052608E-010	0.0532136	5
	60	29	0.999041	378203.7	-488120	1	617494.3	-52.23087	-2.083179E-010	0.0531892	5
