EXPLAIN
TAG	EISPOT
TITLE	LABEL	Potentiostatic EIS	Test &Identifier
DATE	LABEL	3/12/2020	Date
TIME	LABEL	12:58:36	Time
NOTES	NOTES	1	&Notes...
	
PSTAT	PSTAT	REF600-11020	Potentiostat
VDC	POTEN	0.00000E+000	T	DC &Voltage (V)
FREQINIT	QUANT	1.00000E+006	Initial Fre&q. (Hz)
FREQFINAL	QUANT	1.00000E+000	Final Fre&q. (Hz)
PTSPERDEC	QUANT	1.00000E+001	Points/&decade
VAC	QUANT	2.50000E+001	AC &Voltage (mV rms)
AREA	QUANT	2.50000E-001	&Area (cm^2)
CONDIT	TWOPARAM	F	5.00000E+000	0.00000E+000	Conditionin&g	Time(s)	E(V)
DELAY	TWOPARAM	T	5.00000E+000	0.00000E+000	Init. De&lay	Time(s)	Stab.(mV/s)
SPEED	SELECTOR	1	&Optimize for:
ZGUESS	QUANT	5.00000E+003	E&stimated Z (ohms)
OCVCURVE	TABLE	19
	Pt	T	Vf	Vm	Ach	Over
	#	s	V vs. Ref.	V	V	bits
	0	0.258333	4.89198E-002	4.89198E-002	5.41531E-004	...........
	1	0.516667	4.89150E-002	4.86702E-002	5.46397E-004	...........
	2	0.775	4.88855E-002	4.84229E-002	5.41731E-004	...........
	3	1.03333	4.88015E-002	4.81911E-002	5.37264E-004	...........
	4	1.29167	4.86502E-002	4.79563E-002	5.39931E-004	...........
	5	1.55	4.84469E-002	4.77278E-002	5.35997E-004	...........
	6	1.80833	4.82181E-002	4.75032E-002	5.43131E-004	...........
	7	2.06667	4.79840E-002	4.73295E-002	5.34931E-004	...........
	8	2.325	4.77561E-002	4.70853E-002	5.39831E-004	...........
	9	2.58333	4.75380E-002	4.69291E-002	5.45264E-004	...........
	10	2.84167	4.73289E-002	4.67148E-002	5.44930E-004	...........
	11	3.1	4.71262E-002	4.64916E-002	5.35164E-004	...........
	12	3.35833	4.69261E-002	4.63253E-002	5.42297E-004	...........
	13	3.61667	4.67256E-002	4.60929E-002	5.49264E-004	...........
	14	3.875	4.65248E-002	4.59310E-002	5.45030E-004	...........
	15	4.13333	4.63248E-002	4.56903E-002	5.45264E-004	...........
	16	4.39167	4.61277E-002	4.56504E-002	5.40531E-004	...........
	17	4.65	4.59401E-002	4.54075E-002	5.44630E-004	...........
	18	4.90833	4.57692E-002	4.53950E-002	5.38431E-004	...........
EOC	QUANT	0.0457692	Open Circuit (V)
PSTATMODEL	IQUANT	4	Pstat Model
PSTATSECTION	LABEL	REF600-11020	Pstat Section
PSTATSERIALNO	LABEL	11020	Pstat Serial Number
CTRLMODE	IQUANT	1	Control Mode
IESTAB	IQUANT	0	I/E Stability
CASPEED	IQUANT	1	Control Amp Speed
CONVENTION	IQUANT	1	Current Convention
ICHRANGE	IQUANT	2	Ich Range
ICHRANGEMODE	TOGGLE	F	Ich Auto Range
ICHOFFSETENABLE	TOGGLE	T	Ich Offset Enable
ICHOFFSET	QUANT	0	Ich Offset (V)
ICHFILTER	IQUANT	3	Ich Filter
VCHRANGE	IQUANT	2	Vch Range
VCHRANGEMODE	TOGGLE	F	Vch Auto Range
VCHOFFSETENABLE	TOGGLE	T	Vch Offset Enable
VCHOFFSET	QUANT	0	Vch Offset (V)
VCHFILTER	IQUANT	3	Vch Filter
ACHRANGE	IQUANT	2	Ach Range
ACHOFFSETENABLE	TOGGLE	F	Ach Offset Enable
ACHOFFSET	QUANT	0	Ach Offset (V)
ACHFILTER	IQUANT	3	Ach Filter
IERANGELOWERLIMIT	IQUANT	1	I/E Range Lower Limit
IERANGEMODE	TOGGLE	F	I/E AutoRange
IERANGE	IQUANT	7	I/E Range
POSFEEDENABLE	TOGGLE	F	Positive Feedback IR Comp
POSFEEDRESISTANCE	QUANT	0	Positive Feedback Resistance (ohm)
ACHSELECT	IQUANT	0	Ach Select
CABLEID	IQUANT	14	Cable ID
DCCALDATE	LABEL	2/27/2020	DC Calibration Date
ACCALDATE	LABEL	2/27/2020	AC Calibration Date
THERMOSELECT	IQUANT	1	Thermo Select
FRAMEWORKVERSION	QUANT	6.33	Framework Version
INSTRUMENTVERSION	LABEL	3.50	Instrument Version
ZCURVE	TABLE
	Pt	Time	Freq	Zreal	Zimag	Zsig	Zmod	Zphz	Idc	Vdc	IERange
	#	s	Hz	ohm	ohm	V	ohm	°	A	V	#
	0	1	1000078	1586.714	-1756.915	1	2367.364	-47.91403	-3.718802E-006	0.0489488	8
	1	2	794390.6	1931.272	-1891.691	1	2703.388	-44.40682	3.819591E-007	0.048183	8
	2	4	630984.4	2313.316	-1949.109	1	3024.972	-40.11618	-1.061369E-006	0.0477328	8
	3	5	501234.4	2701.357	-1985.49	1	3352.537	-36.31579	3.884323E-007	0.0477845	8
	4	7	398109.4	3097.771	-1942.742	1	3656.56	-32.09356	-5.170186E-007	0.0475775	8
	5	8	316265.6	3461.929	-1863.667	1	3931.693	-28.295	2.200925E-007	0.0476631	8
	6	9	251203.1	3782.042	-1713.84	1	4152.238	-24.37775	-4.070286E-006	0.0483712	8
	7	11	199546.9	4027.23	-1565.553	1	4320.826	-21.24319	1.000845E-007	0.0474135	8
	8	13	158578.1	4266.069	-1400.361	1	4490.029	-18.17272	-7.390015E-007	0.0476792	8
	9	14	125953.1	4510.98	-1142.544	1	4653.423	-14.21302	-2.248959E-007	0.0475487	7
	10	15	100078.1	4634.254	-1014.255	1	4743.946	-12.34513	5.665852E-009	0.0472623	7
	11	17	79453.13	4742.072	-906.6732	1	4827.971	-10.82418	6.054672E-008	0.0471747	7
	12	18	63140.62	4827.563	-820.2975	1	4896.759	-9.64357	-5.624104E-008	0.0473687	7
	13	19	50203.12	4902.396	-753.034	1	4959.895	-8.73268	-1.211644E-009	0.0473693	7
	14	21	39890.62	4964.651	-704.3487	1	5014.366	-8.074821	5.979668E-008	0.0471666	7
	15	22	31640.63	5024	-673.7202	1	5068.972	-7.637819	-8.887683E-009	0.0474152	7
	16	24	25171.88	5077.68	-662.2854	1	5120.689	-7.431178	-4.149055E-008	0.0474149	7
	17	25	20015.62	5130.608	-666.4034	1	5173.706	-7.40059	1.119783E-010	0.047365	7
	18	26	15890.62	5183.943	-689.8517	1	5229.643	-7.580083	1.341287E-007	0.0471108	7
	19	28	12609.37	5239.439	-729.3365	1	5289.958	-7.924721	-5.957425E-008	0.0473809	7
	20	29	10078.13	5298.27	-788.6066	1	5356.638	-8.465882	5.509636E-009	0.0472415	7
	21	30	8015.625	5358.895	-870.6071	1	5429.153	-9.227664	-5.761142E-008	0.0473752	7
	22	32	6328.125	5427.963	-976.758	1	5515.147	-10.20116	7.272406E-009	0.0472345	7
	23	33	5015.625	5499.535	-1111.979	1	5610.828	-11.43082	-4.155299E-008	0.0473379	7
	24	34	3984.375	5583.333	-1276.281	1	5727.347	-12.87588	8.766776E-008	0.047249	7
	25	36	3170.956	5674.26	-1478.905	1	5863.82	-14.60823	1.354789E-007	0.0471046	7
	26	37	2527.573	5767.182	-1725.171	1	6019.685	-16.65381	5.43778E-009	0.0473095	7
	27	38	1976.103	5885.323	-2053.457	1	6233.275	-19.23447	-9.008294E-009	0.0473648	7
	28	40	1577.524	6008.623	-2424.423	1	6479.304	-21.97361	-4.21039E-008	0.0473588	7
	29	41	1265.625	6145.92	-2865.697	1	6781.191	-24.99852	-1.007971E-008	0.047363	7
	30	42	998.264	6312.019	-3448.411	1	7192.574	-28.64886	-6.387593E-009	0.0474101	7
	31	44	796.875	6498.598	-4122.044	1	7695.65	-32.38685	6.038126E-009	0.0472371	7
	32	45	627.7902	6734.223	-5005.586	1	8390.808	-36.62363	1.362136E-007	0.0471077	7
	33	46	505.5147	6986.632	-5980.98	1	9197.019	-40.56553	-3.959341E-008	0.0473416	7
	34	48	397.9953	7336.498	-7286.131	1	10339.82	-44.80265	6.900212E-010	0.0473697	6
	35	49	315.5048	7743.832	-8850.127	1	11759.75	-48.81418	1.615582E-009	0.0473668	6
	36	51	252.4038	8233.265	-10678.89	1	13484.26	-52.36832	2.252506E-010	0.0473649	6
	37	52	198.6229	8889.951	-13068.37	1	15805.49	-55.77393	1.327344E-009	0.0473599	6
	38	53	158.3615	9674.65	-15804.93	1	18530.91	-58.528	5.761108E-010	0.0473552	6
	39	55	125.558	10688.05	-19206.3	1	21979.91	-60.90465	1.483818E-009	0.0473555	6
	40	56	100.4464	11934.56	-23142.81	1	26038.88	-62.72022	-9.48526E-013	0.0473586	6
	41	57	79.00281	13544.09	-28146.65	1	31235.82	-64.30326	1.639854E-009	0.047356	6
	42	59	63.3446	15171.74	-33997.95	1	37229.59	-65.95096	1.207869E-009	0.047355	6
	43	60	49.86702	18266.63	-40745.99	1	44653.17	-65.85307	-2.796681E-010	0.0473533	6
	44	61	39.72458	21400.89	-49300.38	1	53745.01	-66.53473	3.297702E-010	0.0473603	6
	45	63	31.6723	25300.46	-58957.38	1	64156.73	-66.77431	3.443926E-010	0.0473638	6
	46	64	24.93351	30776.57	-71334.25	1	77690.23	-66.66262	1.233704E-009	0.0473666	6
	47	66	19.86229	37310.55	-85048.17	1	92872.32	-66.31299	1.73362E-009	0.0473692	6
	48	67	15.83615	46772.39	-100763.5	1	111089.8	-65.10022	-6.200891E-010	0.0473649	5
	49	68	12.40079	57225.5	-120187.6	1	133115.8	-64.53925	9.570121E-010	0.0473683	5
	50	70	9.93114	70771.95	-140767.8	1	157557.1	-63.30873	8.089057E-010	0.0473682	5
	51	71	7.944915	86917.1	-162144.7	1	183971.4	-61.80662	-6.498102E-010	0.0473676	5
	52	73	6.317385	107334	-188202.8	1	216658.5	-60.30344	1.95925E-010	0.0473568	5
	53	75	5.008013	131566.5	-215689.2	1	252649.1	-58.61758	7.542625E-011	0.0473631	5
	54	77	3.945707	159875.3	-245900.6	1	293303.9	-56.96959	6.15817E-010	0.0473686	5
	55	80	3.158693	189140.8	-276613.2	1	335095.7	-55.63671	1.059011E-010	0.0473517	5
	56	83	2.504006	222449.5	-311248.9	1	382569.8	-54.44661	8.127484E-010	0.0473697	5
	57	86	1.998082	257188	-348257.1	1	432930.3	-53.55412	5.635876E-010	0.0473928	5
	58	89	1.584686	293658.3	-390884.8	1	488903	-53.08373	4.741632E-010	0.0473388	5
	59	93	1.266892	331819.8	-441283.3	1	552119	-53.05893	5.112029E-010	0.0473927	5
	60	97	0.999041	375159.2	-503339.9	1	627770.3	-53.30138	1.735285E-010	0.0473189	5
