EXPLAIN
TAG	EISPOT
TITLE	LABEL	Potentiostatic EIS	Test &Identifier
DATE	LABEL	2/21/2020	Date
TIME	LABEL	17:57:02	Time
NOTES	NOTES	1	&Notes...
	
PSTAT	PSTAT	REF600-11020	Potentiostat
VDC	POTEN	0.00000E+000	T	DC &Voltage (V)
FREQINIT	QUANT	1.00000E+006	Initial Fre&q. (Hz)
FREQFINAL	QUANT	1.00000E+000	Final Fre&q. (Hz)
PTSPERDEC	QUANT	1.00000E+001	Points/&decade
VAC	QUANT	2.50000E+001	AC &Voltage (mV rms)
AREA	QUANT	2.08200E-005	&Area (cm^2)
CONDIT	TWOPARAM	F	1.50000E+001	0.00000E+000	Conditionin&g	Time(s)	E(V)
DELAY	TWOPARAM	F	1.00000E+002	0.00000E+000	Init. De&lay	Time(s)	Stab.(mV/s)
SPEED	SELECTOR	1	&Optimize for:
ZGUESS	QUANT	2.00000E+003	E&stimated Z (ohms)
OCVCURVE	TABLE	39
	Pt	T	Vf	Vm	Ach	Over
	#	s	V vs. Ref.	V	V	bits
	0	0.258333	2.17530E-002	2.17530E-002	5.69638E-004	...........
	1	0.516667	2.17553E-002	2.18767E-002	5.72538E-004	...........
	2	0.775	2.17665E-002	2.18165E-002	5.70804E-004	...........
	3	1.03333	2.17866E-002	2.17540E-002	5.70904E-004	...........
	4	1.29167	2.18025E-002	2.18056E-002	5.71704E-004	...........
	5	1.55	2.18074E-002	2.19448E-002	5.68438E-004	...........
	6	1.80833	2.18151E-002	2.18526E-002	5.71538E-004	...........
	7	2.06667	2.18349E-002	2.18445E-002	5.69871E-004	...........
	8	2.325	2.18574E-002	2.19999E-002	5.68171E-004	...........
	9	2.58333	2.18799E-002	2.20375E-002	5.71804E-004	...........
	10	2.84167	2.19110E-002	2.19008E-002	5.69938E-004	...........
	11	3.1	2.19409E-002	2.18169E-002	5.75004E-004	...........
	12	3.35833	2.19434E-002	2.18096E-002	5.73138E-004	...........
	13	3.61667	2.19122E-002	2.18211E-002	5.79371E-004	...........
	14	3.875	2.18687E-002	2.18088E-002	5.78037E-004	...........
	15	4.13333	2.18359E-002	2.18388E-002	5.72804E-004	...........
	16	4.39167	2.18192E-002	2.17381E-002	5.70138E-004	...........
	17	4.65	2.18070E-002	2.16468E-002	5.71371E-004	...........
	18	4.90833	2.17826E-002	2.16725E-002	5.72538E-004	...........
	19	5.16667	2.17462E-002	2.18136E-002	5.75904E-004	...........
	20	5.425	2.17181E-002	2.16164E-002	5.73038E-004	...........
	21	5.68333	2.17060E-002	2.16396E-002	5.69838E-004	...........
	22	5.94167	2.16936E-002	2.15885E-002	5.73004E-004	...........
	23	6.2	2.16715E-002	2.17325E-002	5.73971E-004	...........
	24	6.45833	2.16544E-002	2.16977E-002	5.71138E-004	...........
	25	6.71667	2.16558E-002	2.16458E-002	5.70904E-004	...........
	26	6.975	2.16656E-002	2.15694E-002	5.69371E-004	...........
	27	7.23333	2.16639E-002	2.16598E-002	5.74004E-004	...........
	28	7.49167	2.16513E-002	2.17492E-002	5.72704E-004	...........
	29	7.75	2.16457E-002	2.15484E-002	5.69438E-004	...........
	30	8.00833	2.16473E-002	2.15667E-002	5.72138E-004	...........
	31	8.26667	2.16377E-002	2.15652E-002	5.74371E-004	...........
	32	8.525	2.16131E-002	2.15849E-002	5.75338E-004	...........
	33	8.78333	2.15899E-002	2.16078E-002	5.75704E-004	...........
	34	9.04167	2.15828E-002	2.17157E-002	5.73704E-004	...........
	35	9.3	2.15940E-002	2.15240E-002	5.72338E-004	...........
	36	9.5583	2.16102E-002	2.16169E-002	5.76437E-004	...........
	37	9.8167	2.16138E-002	2.15508E-002	5.70904E-004	...........
	38	10.075	2.16031E-002	2.15686E-002	5.71671E-004	...........
EOC	QUANT	0.0216031	Open Circuit (V)
PSTATMODEL	IQUANT	4	Pstat Model
PSTATSECTION	LABEL	REF600-11020	Pstat Section
PSTATSERIALNO	LABEL	11020	Pstat Serial Number
CTRLMODE	IQUANT	1	Control Mode
IESTAB	IQUANT	0	I/E Stability
CASPEED	IQUANT	1	Control Amp Speed
CONVENTION	IQUANT	1	Current Convention
ICHRANGE	IQUANT	2	Ich Range
ICHRANGEMODE	TOGGLE	F	Ich Auto Range
ICHOFFSETENABLE	TOGGLE	T	Ich Offset Enable
ICHOFFSET	QUANT	0	Ich Offset (V)
ICHFILTER	IQUANT	3	Ich Filter
VCHRANGE	IQUANT	2	Vch Range
VCHRANGEMODE	TOGGLE	F	Vch Auto Range
VCHOFFSETENABLE	TOGGLE	T	Vch Offset Enable
VCHOFFSET	QUANT	0	Vch Offset (V)
VCHFILTER	IQUANT	3	Vch Filter
ACHRANGE	IQUANT	2	Ach Range
ACHOFFSETENABLE	TOGGLE	F	Ach Offset Enable
ACHOFFSET	QUANT	0	Ach Offset (V)
ACHFILTER	IQUANT	3	Ach Filter
IERANGELOWERLIMIT	IQUANT	1	I/E Range Lower Limit
IERANGEMODE	TOGGLE	F	I/E AutoRange
IERANGE	IQUANT	7	I/E Range
POSFEEDENABLE	TOGGLE	F	Positive Feedback IR Comp
POSFEEDRESISTANCE	QUANT	0	Positive Feedback Resistance (ohm)
ACHSELECT	IQUANT	0	Ach Select
CABLEID	IQUANT	14	Cable ID
DCCALDATE	LABEL	1/27/2020	DC Calibration Date
ACCALDATE	LABEL	1/27/2020	AC Calibration Date
THERMOSELECT	IQUANT	1	Thermo Select
FRAMEWORKVERSION	QUANT	6.33	Framework Version
INSTRUMENTVERSION	LABEL	3.50	Instrument Version
ZCURVE	TABLE
	Pt	Time	Freq	Zreal	Zimag	Zsig	Zmod	Zphz	Idc	Vdc	IERange
	#	s	Hz	ohm	ohm	V	ohm	°	A	V	#
	0	1	1000078	1553.825	-2321.293	1	2793.344	-56.20248	1.142632E-006	0.0234426	8
	1	2	794390.6	1902.203	-2584.058	1	3208.697	-53.6421	-2.526356E-007	0.0233537	8
	2	4	630984.4	2283.045	-2876.914	1	3672.728	-51.56539	2.225948E-007	0.0232944	8
	3	5	501234.4	2727.391	-3167.338	1	4179.795	-49.2683	2.192664E-006	0.0227206	8
	4	6	398109.4	3216.656	-3465.735	1	4728.445	-47.13465	6.189539E-008	0.0230439	8
	5	8	316265.6	3759.95	-3759.911	1	5317.345	-44.9997	1.022277E-006	0.0228797	8
	6	9	251203.1	4367.67	-4071.201	1	5970.864	-42.98795	6.856865E-008	0.0230261	8
	7	10	199546.9	5078.804	-4341.658	1	6681.635	-40.52576	3.257577E-007	0.0229759	8
	8	12	158578.1	5843.335	-4580.805	1	7424.847	-38.0942	4.262099E-007	0.0230138	8
	9	13	125953.1	6730.293	-4740.984	1	8232.483	-35.16181	-2.392285E-007	0.0235928	7
	10	15	100078.1	7616.092	-4814.708	1	9010.342	-32.30008	1.916112E-008	0.0230304	7
	11	16	79453.13	8510.732	-4786.283	1	9764.28	-29.35262	-2.271208E-008	0.0230526	7
	12	17	63140.62	9382.655	-4664.553	1	10478.18	-26.4341	5.125971E-008	0.0229373	7
	13	19	50203.12	10188.3	-4445.717	1	11116.02	-23.5743	5.094631E-008	0.0229383	7
	14	20	39890.62	10908.83	-4158.611	1	11674.62	-20.8676	-2.075119E-008	0.0230445	7
	15	22	31640.63	11551.76	-3836.557	1	12172.2	-18.3723	8.429973E-010	0.0229885	7
	16	23	25171.88	12100.79	-3510.916	1	12599.82	-16.17953	1.962853E-008	0.0229869	7
	17	25	20015.62	12552.5	-3198.375	1	12953.56	-14.29479	-1.15651E-008	0.0230427	7
	18	27	15890.62	12924.85	-2913.749	1	13249.21	-12.70425	2.05417E-008	0.022986	7
	19	28	12609.37	13254.13	-2633.164	1	13513.16	-11.2365	5.20479E-009	0.0229565	6
	20	30	10078.13	13503.23	-2454.514	1	13724.5	-10.3023	-3.849943E-009	0.0230726	6
	21	31	8015.625	13713.76	-2336.595	1	13911.4	-9.66938	-1.967912E-009	0.0230095	6
	22	33	6328.125	13906.32	-2278.569	1	14091.75	-9.305303	-7.296271E-010	0.0230067	6
	23	34	5015.625	14070.43	-2283.018	1	14254.45	-9.21629	2.602715E-010	0.0229549	6
	24	36	3984.375	14219.81	-2380.305	1	14417.66	-9.50284	6.02347E-010	0.0230503	6
	25	38	3170.956	14373.05	-2551.665	1	14597.79	-10.0669	9.501147E-010	0.0229672	6
	26	39	2527.573	14518.48	-2797.712	1	14785.58	-10.90721	6.619751E-009	0.0229061	6
	27	41	1976.103	14688.56	-3188.382	1	15030.62	-12.24695	-1.030123E-009	0.0230036	6
	28	42	1577.524	14858.29	-3656.397	1	15301.57	-13.82491	6.226655E-009	0.0229151	6
	29	44	1265.625	15049.33	-4240.513	1	15635.36	-15.73646	2.178083E-009	0.0230328	6
	30	45	998.264	15275.65	-5029.675	1	16082.39	-18.22469	1.843827E-009	0.0230373	6
	31	47	796.875	15544.05	-5972.014	1	16651.8	-21.01675	-1.553159E-009	0.0230148	6
	32	48	627.7902	15859.42	-7200.878	1	17417.63	-24.42016	1.238722E-009	0.0229643	6
	33	49	505.5147	16230.91	-8575.173	1	18356.9	-27.84856	-4.577932E-009	0.0230694	6
	34	51	397.9953	16707.34	-10420.25	1	19690.52	-31.9515	9.042125E-010	0.0230222	6
	35	52	315.5048	17278.1	-12620.83	1	21396.69	-36.14636	5.696019E-010	0.0230187	6
	36	54	252.4038	17966.91	-15189.94	1	23527.52	-40.21251	1.240042E-009	0.0230134	6
	37	55	198.6229	18864.9	-18536.84	1	26448.04	-44.49746	7.673249E-010	0.0230193	6
	38	56	158.3615	19917.13	-22412.6	1	29983.61	-48.37386	1.155908E-009	0.0230134	6
	39	58	125.558	21245.24	-27202.93	1	34516.08	-52.01049	9.267839E-010	0.0230175	6
	40	59	100.4464	22884.75	-32772.92	1	39972.19	-55.07408	1.745313E-010	0.0230187	6
	41	60	79.00281	25009.83	-40173.2	1	47322.05	-58.09567	5.644981E-010	0.0230206	6
	42	62	63.3446	27966.14	-48253.87	1	55772.23	-59.90502	2.362804E-010	0.0230148	6
	43	63	49.86702	30358.24	-59126.13	1	66464.44	-62.82182	1.2543E-009	0.023013	6
	44	64	39.72458	34780.95	-71024.95	1	79083.87	-63.90899	7.212457E-010	0.0230209	6
	45	66	31.6723	39964.55	-85936.29	1	94774.53	-65.05928	1.129526E-009	0.0230137	6
	46	67	24.93351	47388.49	-104270.3	1	114533.7	-65.55929	5.559788E-011	0.0230139	5
	47	69	19.86229	56768.11	-125194.4	1	137463.7	-65.60857	1.572049E-010	0.0230119	5
	48	70	15.83615	68917	-149798	1	164890.9	-65.29444	8.4977E-010	0.0230107	5
	49	71	12.40079	84701.9	-180374.7	1	199272.3	-64.84579	7.264312E-010	0.0230076	5
	50	73	9.93114	104652.4	-212111	1	236523.1	-63.73896	3.511591E-010	0.0230017	5
	51	74	7.944915	130031	-246414.3	1	278618.1	-62.17973	-2.398464E-010	0.0230015	5
	52	76	6.317385	161383.5	-287200.7	1	329437.2	-60.66754	2.041243E-010	0.0229988	5
	53	78	5.008013	200048.9	-330768.1	1	386558	-58.83441	1.770146E-010	0.0230177	5
	54	81	3.945707	246793.4	-377783.6	1	451251	-56.84475	-4.075844E-011	0.0230118	5
	55	83	3.158693	297312.8	-423734.2	1	517634.6	-54.9446	1.459203E-010	0.0230073	5
	56	87	2.504006	355510.2	-473568.8	1	592161.3	-53.10428	9.587378E-011	0.0230223	5
	57	89	1.998082	416911.8	-524713.1	1	670178.6	-51.53103	4.943463E-010	0.0229921	5
	58	92	1.584686	487114.7	-581092	1	758253.7	-50.02775	7.617072E-011	0.0229652	5
	59	96	1.266892	556422.6	-639171.8	1	847435.3	-48.95923	3.709441E-010	0.0229836	5
	60	100	0.999041	636824.6	-710074.1	1	953809	-48.1129	-1.414954E-010	0.0230307	5
