EXPLAIN
TAG	EISPOT
TITLE	LABEL	Potentiostatic EIS	Test &Identifier
DATE	LABEL	1/18/2020	Date
TIME	LABEL	22:23:03	Time
NOTES	NOTES	6	&Notes...
	
	
	
	
	
	
PSTAT	PSTAT	REF600-11020	Potentiostat
VDC	POTEN	0.00000E+000	T	DC &Voltage (V)
FREQINIT	QUANT	1.00000E+006	Initial Fre&q. (Hz)
FREQFINAL	QUANT	1.00000E+000	Final Fre&q. (Hz)
PTSPERDEC	QUANT	1.00000E+001	Points/&decade
VAC	QUANT	2.50000E+001	AC &Voltage (mV rms)
AREA	QUANT	1.00000E-001	&Area (cm^2)
CONDIT	TWOPARAM	F	5.00000E+000	0.00000E+000	Conditionin&g	Time(s)	E(V)
DELAY	TWOPARAM	F	5.00000E+000	0.00000E+000	Init. De&lay	Time(s)	Stab.(mV/s)
SPEED	SELECTOR	1	&Optimize for:
ZGUESS	QUANT	5.00000E+002	E&stimated Z (ohms)
OCVCURVE	TABLE	39
	Pt	T	Vf	Vm	Ach	Over
	#	s	V vs. Ref.	V	V	bits
	0	0.258333	1.71309E-002	1.71309E-002	6.59346E-004	...........
	1	0.516667	1.71322E-002	1.72039E-002	6.56413E-004	...........
	2	0.775	1.71525E-002	1.78842E-002	6.60513E-004	...........
	3	1.03333	1.72567E-002	1.89612E-002	6.59579E-004	...........
	4	1.29167	1.75284E-002	1.86794E-002	6.56913E-004	...........
	5	1.55	1.79429E-002	1.86614E-002	6.55346E-004	...........
	6	1.80833	1.84641E-002	2.52015E-002	6.60479E-004	...........
	7	2.06667	1.93345E-002	2.39963E-002	6.55646E-004	...........
	8	2.325	2.07221E-002	2.25255E-002	6.54746E-004	...........
	9	2.58333	2.21316E-002	2.20767E-002	6.53513E-004	...........
	10	2.84167	2.28893E-002	2.26454E-002	6.49613E-004	...........
	11	3.1	2.29667E-002	2.32446E-002	6.53246E-004	...........
	12	3.35833	2.28188E-002	2.25583E-002	6.47580E-004	...........
	13	3.61667	2.27423E-002	2.23402E-002	6.53746E-004	...........
	14	3.875	2.27068E-002	2.23876E-002	6.60346E-004	...........
	15	4.13333	2.27049E-002	2.66105E-002	6.50913E-004	...........
	16	4.39167	2.29756E-002	2.46144E-002	6.52246E-004	...........
	17	4.65	2.36166E-002	2.41149E-002	6.55213E-004	...........
	18	4.90833	2.42538E-002	2.37293E-002	6.49380E-004	...........
	19	5.16667	2.44788E-002	2.34529E-002	6.50513E-004	...........
	20	5.425	2.42936E-002	2.32763E-002	6.46746E-004	...........
	21	5.68333	2.39370E-002	2.31024E-002	6.57446E-004	...........
	22	5.94167	2.35741E-002	2.19200E-002	6.55313E-004	...........
	23	6.2	2.32056E-002	2.18166E-002	6.47380E-004	...........
	24	6.45833	2.27818E-002	2.17093E-002	6.54280E-004	...........
	25	6.71667	2.23394E-002	2.13024E-002	6.50146E-004	...........
	26	6.975	2.19553E-002	2.11912E-002	6.51313E-004	...........
	27	7.23333	2.16531E-002	2.11390E-002	6.53546E-004	...........
	28	7.49167	2.14234E-002	2.10737E-002	6.55546E-004	...........
	29	7.75	2.12612E-002	2.10670E-002	6.53046E-004	...........
	30	8.00833	2.11598E-002	2.11234E-002	6.55046E-004	...........
	31	8.26667	2.11109E-002	2.12592E-002	6.57279E-004	...........
	32	8.525	2.11100E-002	2.12470E-002	6.52046E-004	...........
	33	8.78333	2.11446E-002	2.12087E-002	6.54446E-004	...........
	34	9.04167	2.11883E-002	2.12743E-002	6.60379E-004	...........
	35	9.3	2.12206E-002	2.12448E-002	6.54879E-004	...........
	36	9.5583	2.12401E-002	2.13192E-002	6.60179E-004	...........
	37	9.8167	2.12552E-002	2.12854E-002	6.55946E-004	...........
	38	10.075	2.12701E-002	2.12786E-002	6.53380E-004	...........
EOC	QUANT	0.0212701	Open Circuit (V)
PSTATMODEL	IQUANT	4	Pstat Model
PSTATSECTION	LABEL	REF600-11020	Pstat Section
PSTATSERIALNO	LABEL	11020	Pstat Serial Number
CTRLMODE	IQUANT	1	Control Mode
IESTAB	IQUANT	0	I/E Stability
CASPEED	IQUANT	1	Control Amp Speed
CONVENTION	IQUANT	1	Current Convention
ICHRANGE	IQUANT	2	Ich Range
ICHRANGEMODE	TOGGLE	F	Ich Auto Range
ICHOFFSETENABLE	TOGGLE	T	Ich Offset Enable
ICHOFFSET	QUANT	0	Ich Offset (V)
ICHFILTER	IQUANT	3	Ich Filter
VCHRANGE	IQUANT	2	Vch Range
VCHRANGEMODE	TOGGLE	F	Vch Auto Range
VCHOFFSETENABLE	TOGGLE	T	Vch Offset Enable
VCHOFFSET	QUANT	0	Vch Offset (V)
VCHFILTER	IQUANT	3	Vch Filter
ACHRANGE	IQUANT	2	Ach Range
ACHOFFSETENABLE	TOGGLE	F	Ach Offset Enable
ACHOFFSET	QUANT	0	Ach Offset (V)
ACHFILTER	IQUANT	3	Ach Filter
IERANGELOWERLIMIT	IQUANT	1	I/E Range Lower Limit
IERANGEMODE	TOGGLE	F	I/E AutoRange
IERANGE	IQUANT	7	I/E Range
POSFEEDENABLE	TOGGLE	F	Positive Feedback IR Comp
POSFEEDRESISTANCE	QUANT	0	Positive Feedback Resistance (ohm)
ACHSELECT	IQUANT	0	Ach Select
CABLEID	IQUANT	14	Cable ID
DCCALDATE	LABEL	12/22/2019	DC Calibration Date
ACCALDATE	LABEL	12/22/2019	AC Calibration Date
THERMOSELECT	IQUANT	1	Thermo Select
FRAMEWORKVERSION	QUANT	6.33	Framework Version
INSTRUMENTVERSION	LABEL	3.50	Instrument Version
ZCURVE	TABLE
	Pt	Time	Freq	Zreal	Zimag	Zsig	Zmod	Zphz	Idc	Vdc	IERange
	#	s	Hz	ohm	ohm	V	ohm	°	A	V	#
	0	1	1000078	2066.869	-1550.084	1	2583.545	-36.8687	-1.498565E-006	0.023846	8
	1	3	794390.6	2298.459	-1604.384	1	2803.027	-34.91603	-3.337659E-006	0.0240455	8
	2	4	630984.4	2513.152	-1661.579	1	3012.769	-33.47083	-7.643891E-008	0.023231	8
	3	5	501234.4	2725.59	-1716.389	1	3220.998	-32.1999	3.887938E-006	0.0222582	8
	4	7	398109.4	2951.667	-1796.683	1	3455.49	-31.32892	4.31813E-006	0.0221155	8
	5	8	316265.6	3156.258	-1902.477	1	3685.292	-31.08004	3.326099E-006	0.0222266	8
	6	9	251203.1	3405.153	-2026.84	1	3962.72	-30.76226	-1.039605E-006	0.0231125	8
	7	11	199546.9	3639.488	-2195.512	1	4250.428	-31.10037	-2.776738E-006	0.0234236	8
	8	12	158578.1	3899.994	-2386.614	1	4572.294	-31.46468	3.478317E-006	0.0222354	8
	9	13	125953.1	4214.858	-2565.019	1	4934	-31.32327	4.994189E-008	0.0227544	7
	10	15	100078.1	4516.298	-2826.472	1	5327.841	-32.03991	-1.797842E-009	0.0227936	7
	11	16	79453.13	4883.507	-3132.256	1	5801.695	-32.6759	2.062709E-008	0.022756	7
	12	17	63140.62	5286.999	-3470.138	1	6324.098	-33.27902	-1.901423E-008	0.0228292	7
	13	19	50203.12	5737.888	-3839.314	1	6903.89	-33.78712	-4.795081E-008	0.0229083	7
	14	20	39890.62	6252.714	-4241.307	1	7555.469	-34.14962	7.568513E-008	0.0226802	7
	15	21	31640.63	6824.186	-4677.904	1	8273.591	-34.43021	2.418341E-008	0.0227513	7
	16	23	25171.88	7456.109	-5151.558	1	9062.677	-34.64128	6.77881E-008	0.0228015	7
	17	24	20015.62	8139.307	-5650.847	1	9908.6	-34.77095	6.825708E-008	0.0227991	7
	18	25	15890.62	8890.588	-6184.432	1	10830.04	-34.82308	-1.304182E-008	0.0228146	7
	19	27	12609.37	9744.57	-6728.305	1	11841.73	-34.62382	-3.526074E-009	0.0229161	6
	20	28	10078.13	10572.22	-7365.065	1	12884.72	-34.86274	-8.169788E-010	0.0228833	6
	21	29	8015.625	11480.69	-8092.106	1	14045.94	-35.17789	-5.334117E-009	0.022905	6
	22	31	6328.125	12491.35	-8962.363	1	15373.93	-35.65889	-3.582954E-009	0.0228878	6
	23	32	5015.625	13577.46	-9947.71	1	16831.64	-36.22888	8.703607E-009	0.0228489	6
	24	33	3984.375	14794.09	-11069.89	1	18477.22	-36.80621	1.881644E-009	0.0227734	6
	25	35	3170.956	16135.65	-12327.42	1	20305.77	-37.37935	5.103614E-009	0.0228455	6
	26	36	2527.573	17638.26	-13706.78	1	22337.95	-37.85096	1.461906E-009	0.0228295	6
	27	38	1976.103	19469.01	-15345.07	1	24789.38	-38.24444	-1.096076E-009	0.0228366	6
	28	39	1577.524	21320.71	-17003.81	1	27270.91	-38.57325	-9.846528E-010	0.0228333	6
	29	40	1265.625	23147.79	-18810.99	1	29827.4	-39.09895	1.277663E-009	0.0228203	6
	30	42	998.264	25269.3	-21024.33	1	32871.87	-39.76082	5.495456E-009	0.0228393	6
	31	43	796.875	27355.35	-23510.6	1	36070.25	-40.67747	5.775755E-010	0.0229254	6
	32	44	627.7902	29654.71	-26706.14	1	39907.64	-42.00525	6.048479E-009	0.0228284	6
	33	46	505.5147	31989.24	-30243.17	1	44022.28	-43.39287	1.842422E-009	0.0227712	6
	34	47	397.9953	34859.41	-35055.52	1	49437.51	-45.16071	3.270266E-009	0.0228187	6
	35	48	315.5048	38212.22	-40791.05	1	55893.5	-46.86958	3.300297E-009	0.0228208	6
	36	50	252.4038	42140.87	-47361.2	1	63395.08	-48.33807	3.420663E-009	0.0228216	6
	37	51	198.6229	47435.97	-55645.6	1	73120.48	-49.55354	3.268731E-009	0.0228198	6
	38	52	158.3615	53817.48	-64928.96	1	84333.22	-50.34578	2.490731E-009	0.0228181	6
	39	54	125.558	62174.93	-75470.46	1	97783	-50.51723	2.854901E-009	0.0228224	6
	40	55	100.4464	72255.28	-86723.73	1	112879.7	-50.20008	2.043905E-009	0.0228131	5
	41	57	79.00281	85417.35	-99351.3	1	131022.2	-49.31269	1.896875E-009	0.0228135	5
	42	59	63.3446	99679.6	-113474.1	1	151037.7	-48.70282	1.80593E-009	0.0228098	5
	43	60	49.86702	119287.2	-123893.6	1	171985.6	-46.08518	1.55662E-009	0.0228148	5
	44	62	39.72458	139452.2	-134863.8	1	193997.8	-44.04174	2.222329E-009	0.0228179	5
	45	63	31.6723	162628.8	-144434.8	1	217507.6	-41.60909	2.219489E-009	0.0228184	5
	46	65	24.93351	186850	-153032.4	1	241519.8	-39.3179	1.617972E-009	0.0228157	5
	47	66	19.86229	209452	-158149.5	1	262452.6	-37.05511	2.720553E-009	0.0228109	5
	48	68	15.83615	236685.6	-165541	1	288832	-34.96943	6.673135E-010	0.0228133	5
	49	69	12.40079	257194.5	-173541.4	1	310267.1	-34.00941	1.472135E-009	0.0228165	5
	50	70	9.93114	278232.6	-176587.6	1	329539.9	-32.40232	1.094269E-009	0.0228159	5
	51	72	7.944915	297589.5	-184288.7	1	350031.2	-31.76875	1.697951E-009	0.0228125	5
	52	74	6.317385	315738.2	-196680.3	1	371986.3	-31.91969	9.808707E-010	0.0228212	5
	53	76	5.008013	333466.3	-214019	1	396237.2	-32.69239	6.410948E-010	0.0228109	5
	54	78	3.945707	351592.6	-238108.7	1	424632.9	-34.107	7.60286E-010	0.0228161	5
	55	81	3.158693	370977.5	-267100	1	457128.8	-35.7535	4.225376E-010	0.0228219	5
	56	85	2.504006	393673.8	-305498.7	1	498305.7	-37.81217	3.613518E-010	0.0228114	5
	57	89	1.998082	419249.1	-351759.3	1	547269.9	-39.9974	1.24167E-010	0.0228251	5
	58	93	1.584686	451425.7	-408098	1	608546.8	-42.11422	3.15189E-010	0.0228703	5
	59	99	1.266892	487321.4	-473838.2	1	679709.3	-44.1963	7.129845E-011	0.0228218	5
	60	105	0.999041	536687.1	-555570.8	1	772458.4	-45.99047	4.472038E-010	0.0228447	5
