EXPLAIN
TAG	EISPOT
TITLE	LABEL	Potentiostatic EIS	Test &Identifier
DATE	LABEL	6/1/2020	Date
TIME	LABEL	13:05:59	Time
NOTES	NOTES	1	&Notes...
	
PSTAT	PSTAT	REF600-11020	Potentiostat
VDC	POTEN	0.00000E+000	T	DC &Voltage (V)
FREQINIT	QUANT	1.00000E+006	Initial Fre&q. (Hz)
FREQFINAL	QUANT	1.00000E+000	Final Fre&q. (Hz)
PTSPERDEC	QUANT	1.00000E+001	Points/&decade
VAC	QUANT	2.50000E+001	AC &Voltage (mV rms)
AREA	QUANT	4.00000E-004	&Area (cm^2)
CONDIT	TWOPARAM	F	5.00000E+000	0.00000E+000	Conditionin&g	Time(s)	E(V)
DELAY	TWOPARAM	T	3.00000E+000	0.00000E+000	Init. De&lay	Time(s)	Stab.(mV/s)
SPEED	SELECTOR	0	&Optimize for:
ZGUESS	QUANT	1.00000E+003	E&stimated Z (ohms)
OCVCURVE	TABLE	12
	Pt	T	Vf	Vm	Ach	Over
	#	s	V vs. Ref.	V	V	bits
	0	0.258333	2.86870E-002	2.86870E-002	5.91196E-004	...........
	1	0.516667	2.86868E-002	2.86764E-002	5.86996E-004	...........
	2	0.775	2.86856E-002	2.86672E-002	5.85663E-004	...........
	3	1.03333	2.86821E-002	2.86563E-002	5.85230E-004	...........
	4	1.29167	2.86759E-002	2.86450E-002	5.91496E-004	...........
	5	1.55	2.86671E-002	2.86306E-002	5.88497E-004	...........
	6	1.80833	2.86566E-002	2.86174E-002	5.87530E-004	...........
	7	2.06667	2.86447E-002	2.86055E-002	5.91396E-004	...........
	8	2.325	2.86320E-002	2.85906E-002	5.90330E-004	...........
	9	2.58333	2.86189E-002	2.85798E-002	5.87096E-004	...........
	10	2.84167	2.86059E-002	2.85680E-002	5.86130E-004	...........
	11	3.1	2.85931E-002	2.85559E-002	5.89130E-004	...........
EOC	QUANT	0.0285931	Open Circuit (V)
PSTATMODEL	IQUANT	4	Pstat Model
PSTATSECTION	LABEL	REF600-11020	Pstat Section
PSTATSERIALNO	LABEL	11020	Pstat Serial Number
CTRLMODE	IQUANT	1	Control Mode
IESTAB	IQUANT	0	I/E Stability
CASPEED	IQUANT	1	Control Amp Speed
CONVENTION	IQUANT	1	Current Convention
ICHRANGE	IQUANT	2	Ich Range
ICHRANGEMODE	TOGGLE	F	Ich Auto Range
ICHOFFSETENABLE	TOGGLE	T	Ich Offset Enable
ICHOFFSET	QUANT	0	Ich Offset (V)
ICHFILTER	IQUANT	3	Ich Filter
VCHRANGE	IQUANT	2	Vch Range
VCHRANGEMODE	TOGGLE	F	Vch Auto Range
VCHOFFSETENABLE	TOGGLE	T	Vch Offset Enable
VCHOFFSET	QUANT	0	Vch Offset (V)
VCHFILTER	IQUANT	3	Vch Filter
ACHRANGE	IQUANT	2	Ach Range
ACHOFFSETENABLE	TOGGLE	F	Ach Offset Enable
ACHOFFSET	QUANT	0	Ach Offset (V)
ACHFILTER	IQUANT	3	Ach Filter
IERANGELOWERLIMIT	IQUANT	1	I/E Range Lower Limit
IERANGEMODE	TOGGLE	F	I/E AutoRange
IERANGE	IQUANT	7	I/E Range
POSFEEDENABLE	TOGGLE	F	Positive Feedback IR Comp
POSFEEDRESISTANCE	QUANT	0	Positive Feedback Resistance (ohm)
ACHSELECT	IQUANT	0	Ach Select
CABLEID	IQUANT	14	Cable ID
DCCALDATE	LABEL	2/27/2020	DC Calibration Date
ACCALDATE	LABEL	2/27/2020	AC Calibration Date
THERMOSELECT	IQUANT	1	Thermo Select
FRAMEWORKVERSION	QUANT	6.33	Framework Version
INSTRUMENTVERSION	LABEL	3.50	Instrument Version
ZCURVE	TABLE
	Pt	Time	Freq	Zreal	Zimag	Zsig	Zmod	Zphz	Idc	Vdc	IERange
	#	s	Hz	ohm	ohm	V	ohm	°	A	V	#
	0	1	1000078	1752.63	-2293.049	1	2886.137	-52.60849	3.124967E-008	0.0309539	8
	1	1	794390.6	2075.414	-2584.003	1	3314.274	-51.22935	4.518545E-008	0.0306006	8
	2	1	630984.4	2451.995	-2896.957	1	3795.344	-49.7553	6.85684E-008	0.0304142	8
	3	2	501234.4	2897.598	-3228.935	1	4338.444	-48.09566	2.411075E-008	0.0303186	8
	4	2	398109.4	3422.287	-3571.772	1	4946.676	-46.2244	5.015451E-008	0.0302322	8
	5	2	316265.6	4030.916	-3909.117	1	5615.112	-44.12116	2.689009E-008	0.0301905	8
	6	3	251203.1	4750.673	-4193.07	1	6336.46	-41.43248	4.35376E-008	0.0301851	8
	7	3	199546.9	5546.168	-4415.133	1	7088.962	-38.52221	6.286531E-008	0.0301928	8
	8	3	158578.1	6404.611	-4527.873	1	7843.512	-35.25919	2.091124E-008	0.0302058	8
	9	4	125953.1	7365.57	-4451.768	1	8606.385	-31.14887	1.536945E-009	0.0301476	7
	10	4	100078.1	8177.94	-4314.526	1	9246.288	-27.81528	2.293084E-009	0.0301089	7
	11	4	79453.13	8958.402	-4106.788	1	9854.88	-24.62808	3.699995E-009	0.0301117	7
	12	5	63140.62	9633.06	-3818.543	1	10362.29	-21.62337	3.235705E-009	0.0300999	7
	13	5	50203.12	10211.22	-3505.926	1	10796.32	-18.94943	2.958044E-009	0.030095	7
	14	5	39890.62	10699.21	-3196.855	1	11166.6	-16.63581	4.188658E-009	0.0300992	7
	15	6	31640.63	11105.11	-2904.583	1	11478.68	-14.65757	3.549188E-009	0.0300886	7
	16	6	25171.88	11435.34	-2652.719	1	11738.99	-13.06022	3.848775E-009	0.030097	7
	17	6	20015.62	11721.49	-2445.638	1	11973.91	-11.78544	3.153039E-009	0.0300896	7
	18	7	15890.62	11983.45	-2286.554	1	12199.65	-10.80272	3.95941E-009	0.0300931	7
	19	7	12609.37	12259.96	-2040.561	1	12428.62	-9.449744	3.484572E-010	0.0301391	6
	20	7	10078.13	12448.04	-1992.981	1	12606.57	-9.09609	3.165696E-010	0.0301421	6
	21	8	8015.625	12632	-1986.744	1	12787.29	-8.938181	2.248499E-010	0.0301455	6
	22	8	6328.125	12815.09	-2024.516	1	12974.02	-8.977343	5.211372E-010	0.0301457	6
	23	8	5015.625	13004.51	-2109.417	1	13174.48	-9.213505	2.325021E-010	0.0301397	6
	24	8	3984.375	13191.05	-2241.484	1	13380.13	-9.64385	2.14854E-010	0.0301421	6
	25	9	3170.956	13384.39	-2426.914	1	13602.64	-10.27744	3.364251E-010	0.0301443	6
	26	9	2527.573	13583.08	-2668.103	1	13842.65	-11.11303	3.618981E-010	0.0301377	6
	27	9	1976.103	13815.74	-3008.28	1	14139.46	-12.28401	1.065498E-010	0.0301375	6
	28	10	1577.524	14042.13	-3400.69	1	14448.05	-13.61365	1.731123E-010	0.0301364	6
	29	10	1265.625	14282.23	-3876.693	1	14799.02	-15.18616	1.168654E-010	0.0301367	6
	30	10	998.264	14569.43	-4507.735	1	15250.84	-17.1919	5.14476E-012	0.0301288	6
	31	11	796.875	14874.71	-5246.33	1	15772.79	-19.42781	2.859488E-010	0.0301306	6
	32	11	627.7902	15241.52	-6208.946	1	16457.67	-22.16454	-1.500083E-011	0.0301285	6
	33	11	505.5147	15616.96	-7277.823	1	17229.52	-24.98648	1.209181E-010	0.0301332	6
	34	12	397.9953	16104.8	-8718.826	1	18313.45	-28.43026	5.991461E-010	0.0301506	6
	35	12	315.5048	16673.56	-10431	1	19667.57	-32.03015	5.833857E-010	0.0301499	6
	36	12	252.4038	17332.58	-12427.84	1	21327.67	-35.64136	5.086954E-010	0.0301418	6
	37	13	198.6229	18198	-15030.39	1	23602.54	-39.55453	4.418936E-010	0.0301465	6
	38	13	158.3615	19211.16	-18005.48	1	26329.95	-43.14447	4.957642E-010	0.0301431	6
	39	13	125.558	20502.52	-21665.06	1	29828.31	-46.57922	5.731421E-010	0.0301466	6
	40	14	100.4464	22044.34	-25861.47	1	33981.88	-49.5557	5.870801E-010	0.0301448	6
	41	14	79.00281	24099.2	-31245.64	1	39459.62	-52.35765	5.11321E-010	0.0301418	6
	42	14	63.3446	26427.23	-37120.09	1	45566.43	-54.55146	5.002767E-010	0.0301404	6
	43	15	49.86702	29503.58	-44653.05	1	53519.68	-56.54609	2.44609E-010	0.0301373	6
	44	15	39.72458	33058.62	-53135.9	1	62580.32	-58.1121	4.645521E-010	0.0301452	6
	45	15	31.6723	37323.73	-63104.48	1	73316	-59.39742	6.434637E-010	0.0301447	6
	46	16	24.93351	42818.11	-75603.5	1	86886.59	-60.47491	1.515895E-012	0.0301452	6
	47	16	19.86229	49170.33	-89703.73	1	102296	-61.27103	1.125917E-010	0.0301442	6
	48	16	15.83615	56848.01	-106244.9	1	120497.6	-61.85028	-8.574805E-010	0.0301472	5
	49	17	12.40079	67087.42	-127366	1	143954.2	-62.2229	-6.838339E-010	0.0301478	5
	50	17	9.93114	78567.63	-149778.2	1	169134.2	-62.3203	-8.318979E-010	0.0301451	5
	51	17	7.944915	92444.38	-176075.5	1	198868.2	-62.29932	-3.877799E-010	0.0301523	5
	52	18	6.317385	110054.7	-207097.7	1	234524	-62.01318	1.415587E-010	0.0301403	5
	53	18	5.008013	131948.7	-243392.6	1	276858.1	-61.53687	-3.069805E-012	0.0301438	5
	54	19	3.945707	158933.7	-286269.8	1	327429.9	-60.96148	-1.751373E-010	0.0301448	5
	55	20	3.158693	189219.8	-331161.9	1	381408.3	-60.25715	4.748738E-011	0.030133	5
	56	21	2.504006	226582.7	-384870.7	1	446615.2	-59.51364	2.399843E-010	0.0301393	5
	57	23	1.998082	269068.2	-442637.1	1	518001.2	-58.70561	5.744192E-011	0.0301074	5
	58	24	1.584686	320851.1	-512103.7	1	604314.2	-57.9314	9.032922E-013	0.0300911	5
	59	26	1.266892	378111	-586193.8	1	697560.8	-57.17688	4.243929E-011	0.0301189	5
	60	29	0.999041	450994.2	-673657.3	1	810684.9	-56.19883	5.867162E-011	0.0301447	5
