EXPLAIN
TAG	EISPOT
TITLE	LABEL	Potentiostatic EIS	Test &Identifier
DATE	LABEL	2/21/2020	Date
TIME	LABEL	17:23:49	Time
NOTES	NOTES	1	&Notes...
	
PSTAT	PSTAT	REF600-11020	Potentiostat
VDC	POTEN	0.00000E+000	T	DC &Voltage (V)
FREQINIT	QUANT	1.00000E+006	Initial Fre&q. (Hz)
FREQFINAL	QUANT	1.00000E+000	Final Fre&q. (Hz)
PTSPERDEC	QUANT	1.00000E+001	Points/&decade
VAC	QUANT	2.50000E+001	AC &Voltage (mV rms)
AREA	QUANT	2.08200E-005	&Area (cm^2)
CONDIT	TWOPARAM	F	1.50000E+001	0.00000E+000	Conditionin&g	Time(s)	E(V)
DELAY	TWOPARAM	F	1.00000E+002	0.00000E+000	Init. De&lay	Time(s)	Stab.(mV/s)
SPEED	SELECTOR	1	&Optimize for:
ZGUESS	QUANT	2.00000E+003	E&stimated Z (ohms)
OCVCURVE	TABLE	39
	Pt	T	Vf	Vm	Ach	Over
	#	s	V vs. Ref.	V	V	bits
	0	0.258333	6.05204E-002	6.05204E-002	5.79371E-004	...........
	1	0.516667	6.05268E-002	6.08563E-002	5.73171E-004	...........
	2	0.775	6.05637E-002	6.10449E-002	5.75171E-004	...........
	3	1.03333	6.06594E-002	6.11947E-002	5.74004E-004	...........
	4	1.29167	6.08114E-002	6.13159E-002	5.75271E-004	...........
	5	1.55	6.09865E-002	6.14472E-002	5.76637E-004	...........
	6	1.80833	6.11564E-002	6.17319E-002	5.78437E-004	...........
	7	2.06667	6.13202E-002	6.18266E-002	5.77904E-004	...........
	8	2.325	6.14788E-002	6.15300E-002	5.79504E-004	...........
	9	2.58333	6.15936E-002	6.12162E-002	5.77237E-004	...........
	10	2.84167	6.16005E-002	6.08829E-002	5.85104E-004	...........
	11	3.1	6.14660E-002	6.03638E-002	5.71538E-004	...........
	12	3.35833	6.12228E-002	6.10087E-002	5.77338E-004	...........
	13	3.61667	6.09767E-002	6.09577E-002	5.74071E-004	...........
	14	3.875	6.08448E-002	6.10979E-002	5.78837E-004	...........
	15	4.13333	6.08581E-002	6.13935E-002	5.75471E-004	...........
	16	4.39167	6.09751E-002	6.17174E-002	5.75704E-004	...........
	17	4.65	6.11765E-002	6.27760E-002	5.78404E-004	...........
	18	4.90833	6.14842E-002	6.25299E-002	5.81871E-004	...........
	19	5.16667	6.18907E-002	6.34672E-002	5.79771E-004	...........
	20	5.425	6.23338E-002	6.32454E-002	5.75804E-004	...........
	21	5.68333	6.27370E-002	6.31587E-002	5.81171E-004	...........
	22	5.94167	6.30258E-002	6.30252E-002	5.80637E-004	...........
	23	6.2	6.31524E-002	6.27711E-002	5.81337E-004	...........
	24	6.45833	6.31319E-002	6.28306E-002	5.77837E-004	...........
	25	6.71667	6.30289E-002	6.27434E-002	5.78237E-004	...........
	26	6.975	6.29047E-002	6.22648E-002	5.77804E-004	...........
	27	7.23333	6.27740E-002	6.24440E-002	5.76637E-004	...........
	28	7.49167	6.26390E-002	6.26685E-002	5.78437E-004	...........
	29	7.75	6.25418E-002	6.25962E-002	5.73771E-004	...........
	30	8.00833	6.25182E-002	6.25856E-002	5.75438E-004	...........
	31	8.26667	6.25437E-002	6.25694E-002	5.75171E-004	...........
	32	8.525	6.25715E-002	6.25643E-002	5.73337E-004	...........
	33	8.78333	6.25813E-002	6.25564E-002	5.75104E-004	...........
	34	9.04167	6.25772E-002	6.25538E-002	5.78504E-004	...........
	35	9.3	6.25685E-002	6.25504E-002	5.78304E-004	...........
	36	9.5583	6.25605E-002	6.25487E-002	5.80004E-004	...........
	37	9.8167	6.25549E-002	6.25470E-002	5.77137E-004	...........
	38	10.075	6.25514E-002	6.25484E-002	5.82771E-004	...........
EOC	QUANT	0.0625514	Open Circuit (V)
PSTATMODEL	IQUANT	4	Pstat Model
PSTATSECTION	LABEL	REF600-11020	Pstat Section
PSTATSERIALNO	LABEL	11020	Pstat Serial Number
CTRLMODE	IQUANT	1	Control Mode
IESTAB	IQUANT	0	I/E Stability
CASPEED	IQUANT	1	Control Amp Speed
CONVENTION	IQUANT	1	Current Convention
ICHRANGE	IQUANT	2	Ich Range
ICHRANGEMODE	TOGGLE	F	Ich Auto Range
ICHOFFSETENABLE	TOGGLE	T	Ich Offset Enable
ICHOFFSET	QUANT	0	Ich Offset (V)
ICHFILTER	IQUANT	3	Ich Filter
VCHRANGE	IQUANT	2	Vch Range
VCHRANGEMODE	TOGGLE	F	Vch Auto Range
VCHOFFSETENABLE	TOGGLE	T	Vch Offset Enable
VCHOFFSET	QUANT	0	Vch Offset (V)
VCHFILTER	IQUANT	3	Vch Filter
ACHRANGE	IQUANT	2	Ach Range
ACHOFFSETENABLE	TOGGLE	F	Ach Offset Enable
ACHOFFSET	QUANT	0	Ach Offset (V)
ACHFILTER	IQUANT	3	Ach Filter
IERANGELOWERLIMIT	IQUANT	1	I/E Range Lower Limit
IERANGEMODE	TOGGLE	F	I/E AutoRange
IERANGE	IQUANT	7	I/E Range
POSFEEDENABLE	TOGGLE	F	Positive Feedback IR Comp
POSFEEDRESISTANCE	QUANT	0	Positive Feedback Resistance (ohm)
ACHSELECT	IQUANT	0	Ach Select
CABLEID	IQUANT	14	Cable ID
DCCALDATE	LABEL	1/27/2020	DC Calibration Date
ACCALDATE	LABEL	1/27/2020	AC Calibration Date
THERMOSELECT	IQUANT	1	Thermo Select
FRAMEWORKVERSION	QUANT	6.33	Framework Version
INSTRUMENTVERSION	LABEL	3.50	Instrument Version
ZCURVE	TABLE
	Pt	Time	Freq	Zreal	Zimag	Zsig	Zmod	Zphz	Idc	Vdc	IERange
	#	s	Hz	ohm	ohm	V	ohm	°	A	V	#
	0	1	1000078	1676.672	-1553.124	1	2285.481	-42.80937	-8.79546E-007	0.0651006	8
	1	3	794390.6	1969.73	-1607.752	1	2542.578	-39.22235	2.440383E-006	0.0640151	8
	2	4	630984.4	2271.681	-1625.42	1	2793.3	-35.58425	-1.278692E-006	0.0643895	8
	3	5	501234.4	2561.624	-1612.077	1	3026.667	-32.18296	5.696319E-007	0.0641253	8
	4	7	398109.4	2840.235	-1568.318	1	3244.465	-28.90655	1.770963E-007	0.0640244	8
	5	8	316265.6	3095.855	-1501.555	1	3440.783	-25.87437	-5.044671E-007	0.0641927	8
	6	9	251203.1	3323.561	-1443.114	1	3623.346	-23.47083	-8.36955E-007	0.0642543	8
	7	11	199546.9	3533.782	-1370.957	1	3790.401	-21.20413	3.826545E-007	0.0640081	8
	8	12	158578.1	3724.58	-1303.166	1	3945.977	-19.28405	2.089549E-007	0.0639718	8
	9	14	125953.1	3908.218	-1226.226	1	4096.07	-17.41955	-4.043156E-007	0.0648613	7
	10	15	100078.1	4067.663	-1174.785	1	4233.911	-16.10929	-4.320125E-009	0.0640375	7
	11	16	79453.13	4211.62	-1140.825	1	4363.396	-15.15632	2.330754E-009	0.0639692	7
	12	18	63140.62	4350.084	-1119.836	1	4491.911	-14.43612	2.040353E-008	0.0639897	7
	13	19	50203.12	4483.754	-1111.713	1	4619.52	-13.92523	-1.239468E-008	0.0640012	7
	14	20	39890.62	4617.576	-1116.195	1	4750.568	-13.58929	2.021602E-008	0.0639797	7
	15	22	31640.63	4753.261	-1134.671	1	4886.815	-13.42606	-6.22508E-009	0.0640021	7
	16	23	25171.88	4889.892	-1164.389	1	5026.613	-13.39393	1.267125E-008	0.0639632	7
	17	24	20015.62	5031.322	-1207.889	1	5174.283	-13.49974	-7.589334E-009	0.0639918	7
	18	26	15890.62	5178.638	-1262.947	1	5330.416	-13.70555	1.809073E-008	0.0639541	7
	19	27	12609.37	5331.971	-1332.404	1	5495.927	-14.03028	-5.660943E-009	0.0639968	7
	20	29	10078.13	5487.113	-1411.829	1	5665.833	-14.42917	-1.161643E-008	0.0639923	7
	21	30	8015.625	5649.23	-1508.862	1	5847.261	-14.95415	4.013591E-008	0.0639341	7
	22	31	6328.125	5819.834	-1629.946	1	6043.773	-15.64583	2.433689E-008	0.0639167	7
	23	33	5015.625	5992.555	-1776.085	1	6250.215	-16.50887	1.433124E-008	0.0639621	7
	24	34	3984.375	6169.579	-1952.245	1	6471.086	-17.55898	-1.085578E-008	0.0639872	7
	25	35	3170.956	6351.794	-2167.278	1	6711.362	-18.84001	2.198808E-008	0.0639754	7
	26	37	2527.573	6537.645	-2428.187	1	6974.015	-20.37581	-4.849645E-009	0.0639977	7
	27	38	1976.103	6745.803	-2775.839	1	7294.596	-22.36674	1.750979E-008	0.0639511	7
	28	40	1577.524	6945.701	-3171.541	1	7635.538	-24.54236	-1.042432E-008	0.0639922	7
	29	41	1265.625	7149.774	-3646.548	1	8025.994	-27.02262	1.732478E-008	0.0639453	7
	30	42	998.264	7377.89	-4282.199	1	8530.562	-30.1313	-6.907843E-009	0.0639738	7
	31	44	796.875	7617.92	-5036.131	1	9132.104	-33.46829	-1.201391E-008	0.063984	7
	32	45	627.7902	7894.754	-6019.249	1	9927.66	-37.32322	4.367688E-009	0.0638861	6
	33	46	505.5147	8174.454	-7126.639	1	10844.85	-41.08252	4.083109E-009	0.0639332	6
	34	48	397.9953	8527.545	-8640.318	1	12139.77	-45.37636	1.157892E-009	0.0639908	6
	35	49	315.5048	8925.274	-10465.64	1	13754.64	-49.54189	1.203746E-009	0.0639853	6
	36	50	252.4038	9376.047	-12627.53	1	15727.83	-53.4058	1.433622E-009	0.0639859	6
	37	52	198.6229	9959.76	-15496.8	1	18421.39	-57.27123	1.018724E-009	0.0639845	6
	38	53	158.3615	10635.96	-18849.54	1	21643.22	-60.56589	7.132157E-010	0.063984	6
	39	55	125.558	11491.65	-23078.53	1	25781.32	-63.5296	1.325098E-009	0.0639841	6
	40	56	100.4464	12534.39	-28064.84	1	30736.72	-65.93339	1.479609E-009	0.0639833	6
	41	57	79.00281	13895.95	-34673.09	1	37353.98	-68.16055	9.702799E-010	0.0639855	6
	42	59	63.3446	15459.87	-41914.39	1	44674.64	-69.75381	1.082012E-009	0.0639833	6
	43	60	49.86702	18082	-51951.89	1	55008.71	-70.8094	6.823527E-010	0.0639799	6
	44	62	39.72458	20828.29	-63339.03	1	66675.71	-71.79716	1.200778E-009	0.0639875	6
	45	63	31.6723	24421.36	-77031.9	1	80810.37	-72.40987	1.129479E-009	0.0639847	6
	46	64	24.93351	29630.64	-94785.48	1	99308.9	-72.64037	1.077287E-009	0.0639831	6
	47	66	19.86229	35998.72	-114998	1	120500.8	-72.61791	3.940083E-010	0.0639893	5
	48	67	15.83615	44215.59	-139838.4	1	146662.2	-72.45353	-3.917618E-010	0.0639828	5
	49	69	12.40079	55511.46	-170846.1	1	179638.3	-71.99994	1.123988E-010	0.0639865	5
	50	70	9.93114	70902.1	-204324.9	1	216277.1	-70.86288	6.486949E-010	0.0639803	5
	51	72	7.944915	89359.91	-244499.1	1	260317.1	-69.92357	-3.62765E-011	0.0639888	5
	52	73	6.317385	113817.3	-290927.3	1	312398.9	-68.63344	4.533687E-010	0.0639771	5
	53	75	5.008013	145912.7	-345484.5	1	375033.4	-67.1036	2.27823E-010	0.0639974	5
	54	78	3.945707	187556.2	-408914.3	1	449875.8	-65.36057	-6.182456E-011	0.0639826	5
	55	80	3.158693	235661.8	-473781	1	529154.9	-63.55395	2.600397E-010	0.0640054	5
	56	84	2.504006	296289.8	-548279.1	1	623215.6	-61.61322	-8.238529E-011	0.0639786	5
	57	87	1.998082	364967.9	-625447.3	1	724144.9	-59.73512	-9.739198E-011	0.0639798	5
	58	90	1.584686	448434.5	-708968.4	1	838886	-57.68595	1.324729E-010	0.0640389	5
	59	93	1.266892	534566.8	-795890.1	1	958751	-56.11236	-8.36078E-011	0.0639989	5
	60	98	0.999041	636904.5	-896927.5	1	1100057	-54.6216	2.202916E-010	0.063938	4
