EXPLAIN
TAG	EISPOT
TITLE	LABEL	Potentiostatic EIS	Test &Identifier
DATE	LABEL	1/18/2020	Date
TIME	LABEL	22:45:31	Time
NOTES	NOTES	6	&Notes...
	
	
	
	
	
	
PSTAT	PSTAT	REF600-11020	Potentiostat
VDC	POTEN	0.00000E+000	T	DC &Voltage (V)
FREQINIT	QUANT	1.00000E+006	Initial Fre&q. (Hz)
FREQFINAL	QUANT	1.00000E+000	Final Fre&q. (Hz)
PTSPERDEC	QUANT	1.00000E+001	Points/&decade
VAC	QUANT	2.50000E+001	AC &Voltage (mV rms)
AREA	QUANT	1.00000E-001	&Area (cm^2)
CONDIT	TWOPARAM	F	5.00000E+000	0.00000E+000	Conditionin&g	Time(s)	E(V)
DELAY	TWOPARAM	F	5.00000E+000	0.00000E+000	Init. De&lay	Time(s)	Stab.(mV/s)
SPEED	SELECTOR	0	&Optimize for:
ZGUESS	QUANT	5.00000E+002	E&stimated Z (ohms)
OCVCURVE	TABLE	39
	Pt	T	Vf	Vm	Ach	Over
	#	s	V vs. Ref.	V	V	bits
	0	0.258333	2.96797E-002	2.96797E-002	6.61046E-004	...........
	1	0.516667	2.96832E-002	2.98645E-002	6.64513E-004	...........
	2	0.775	2.97015E-002	2.98602E-002	6.64246E-004	...........
	3	1.03333	2.97426E-002	2.99037E-002	6.58379E-004	...........
	4	1.29167	2.98001E-002	3.00484E-002	6.59546E-004	...........
	5	1.55	2.98649E-002	3.00861E-002	6.58646E-004	...........
	6	1.80833	2.99358E-002	3.01691E-002	6.66913E-004	...........
	7	2.06667	3.00102E-002	3.01874E-002	6.57646E-004	...........
	8	2.325	3.00788E-002	3.01612E-002	6.57913E-004	...........
	9	2.58333	3.01310E-002	3.01933E-002	6.57980E-004	...........
	10	2.84167	3.01621E-002	3.01750E-002	6.57980E-004	...........
	11	3.1	3.01760E-002	3.01614E-002	6.60979E-004	...........
	12	3.35833	3.01798E-002	3.02153E-002	6.59579E-004	...........
	13	3.61667	3.01835E-002	3.03270E-002	6.61979E-004	...........
	14	3.875	3.01997E-002	3.02784E-002	6.54413E-004	...........
	15	4.13333	3.02305E-002	3.03146E-002	6.58079E-004	...........
	16	4.39167	3.02645E-002	3.03404E-002	6.59246E-004	...........
	17	4.65	3.02927E-002	3.03605E-002	6.61313E-004	...........
	18	4.90833	3.03154E-002	3.03559E-002	6.56313E-004	...........
	19	5.16667	3.03326E-002	3.02846E-002	6.62213E-004	...........
	20	5.425	3.03388E-002	3.02922E-002	6.61413E-004	...........
	21	5.68333	3.03308E-002	3.02921E-002	6.62146E-004	...........
	22	5.94167	3.03153E-002	3.03086E-002	6.57980E-004	...........
	23	6.2	3.03033E-002	3.03058E-002	6.52713E-004	...........
	24	6.45833	3.02996E-002	3.03222E-002	6.55279E-004	...........
	25	6.71667	3.03032E-002	3.03495E-002	6.56280E-004	...........
	26	6.975	3.03135E-002	3.04173E-002	6.57713E-004	...........
	27	7.23333	3.03316E-002	3.03687E-002	6.54413E-004	...........
	28	7.49167	3.03541E-002	3.03906E-002	6.57846E-004	...........
	29	7.75	3.03729E-002	3.04044E-002	6.58979E-004	...........
	30	8.00833	3.03842E-002	3.03773E-002	6.59079E-004	...........
	31	8.26667	3.03886E-002	3.03444E-002	6.62979E-004	...........
	32	8.525	3.03879E-002	3.04847E-002	6.56280E-004	...........
	33	8.78333	3.03903E-002	3.04548E-002	6.58413E-004	...........
	34	9.04167	3.04049E-002	3.04514E-002	6.54779E-004	...........
	35	9.3	3.04279E-002	3.05037E-002	6.58113E-004	...........
	36	9.5583	3.04488E-002	3.04334E-002	6.63746E-004	...........
	37	9.8167	3.04579E-002	3.02605E-002	6.59079E-004	...........
	38	10.075	3.04428E-002	3.03364E-002	6.60346E-004	...........
EOC	QUANT	0.0304428	Open Circuit (V)
PSTATMODEL	IQUANT	4	Pstat Model
PSTATSECTION	LABEL	REF600-11020	Pstat Section
PSTATSERIALNO	LABEL	11020	Pstat Serial Number
CTRLMODE	IQUANT	1	Control Mode
IESTAB	IQUANT	0	I/E Stability
CASPEED	IQUANT	1	Control Amp Speed
CONVENTION	IQUANT	1	Current Convention
ICHRANGE	IQUANT	2	Ich Range
ICHRANGEMODE	TOGGLE	F	Ich Auto Range
ICHOFFSETENABLE	TOGGLE	T	Ich Offset Enable
ICHOFFSET	QUANT	0	Ich Offset (V)
ICHFILTER	IQUANT	3	Ich Filter
VCHRANGE	IQUANT	2	Vch Range
VCHRANGEMODE	TOGGLE	F	Vch Auto Range
VCHOFFSETENABLE	TOGGLE	T	Vch Offset Enable
VCHOFFSET	QUANT	0	Vch Offset (V)
VCHFILTER	IQUANT	3	Vch Filter
ACHRANGE	IQUANT	2	Ach Range
ACHOFFSETENABLE	TOGGLE	F	Ach Offset Enable
ACHOFFSET	QUANT	0	Ach Offset (V)
ACHFILTER	IQUANT	3	Ach Filter
IERANGELOWERLIMIT	IQUANT	1	I/E Range Lower Limit
IERANGEMODE	TOGGLE	F	I/E AutoRange
IERANGE	IQUANT	8	I/E Range
POSFEEDENABLE	TOGGLE	F	Positive Feedback IR Comp
POSFEEDRESISTANCE	QUANT	0	Positive Feedback Resistance (ohm)
ACHSELECT	IQUANT	0	Ach Select
CABLEID	IQUANT	14	Cable ID
DCCALDATE	LABEL	12/22/2019	DC Calibration Date
ACCALDATE	LABEL	12/22/2019	AC Calibration Date
THERMOSELECT	IQUANT	1	Thermo Select
FRAMEWORKVERSION	QUANT	6.33	Framework Version
INSTRUMENTVERSION	LABEL	3.50	Instrument Version
ZCURVE	TABLE
	Pt	Time	Freq	Zreal	Zimag	Zsig	Zmod	Zphz	Idc	Vdc	IERange
	#	s	Hz	ohm	ohm	V	ohm	°	A	V	#
	0	1	1000078	1974.655	-1199.366	1	2310.355	-31.27367	-2.041715E-006	0.0331502	8
	1	2	794390.6	2173.628	-1190.134	1	2478.12	-28.70217	-2.663514E-006	0.0331387	8
	2	2	630984.4	2366.245	-1172.564	1	2640.837	-26.36016	-3.050215E-006	0.0331071	8
	3	2	501234.4	2553.466	-1126.945	1	2791.092	-23.81376	1.647789E-006	0.0318804	8
	4	2	398109.4	2728.292	-1098.839	1	2941.262	-21.93747	3.201852E-006	0.0315098	8
	5	3	316265.6	2889.741	-1051.328	1	3075.044	-19.99209	-1.273168E-006	0.0322663	8
	6	3	251203.1	3050.352	-1008.562	1	3212.762	-18.29584	-6.019512E-007	0.0323309	8
	7	3	199546.9	3178.162	-963.999	1	3321.146	-16.87358	1.087769E-006	0.0318146	8
	8	4	158578.1	3325.71	-919.6544	1	3450.523	-15.45765	3.088991E-006	0.0315057	8
	9	4	125953.1	3462.032	-862.3947	1	3567.827	-13.98774	-1.050409E-006	0.0341594	7
	10	4	100078.1	3569.594	-822.8501	1	3663.207	-12.98086	9.837795E-010	0.0320778	7
	11	5	79453.13	3680.132	-802.7209	1	3766.66	-12.30479	2.329146E-008	0.032028	7
	12	5	63140.62	3786.54	-785.2824	1	3867.112	-11.71636	2.024555E-009	0.0320673	7
	13	5	50203.12	3889.833	-770.4185	1	3965.393	-11.20299	-7.589287E-009	0.0320743	7
	14	6	39890.62	3991.184	-758.8015	1	4062.675	-10.76457	1.538544E-009	0.0320637	7
	15	6	31640.63	4090.797	-751.5884	1	4159.267	-10.41066	-1.90725E-009	0.0320044	7
	16	6	25171.88	4188.319	-749.5137	1	4254.854	-10.14588	5.054677E-008	0.0320317	7
	17	7	20015.62	4282.737	-751.0414	1	4348.091	-9.94653	-6.579751E-009	0.0320773	7
	18	7	15890.62	4375.298	-759.2832	1	4440.691	-9.84498	5.09359E-008	0.0320279	7
	19	7	12609.37	4464.826	-775.0249	1	4531.593	-9.84754	-6.789162E-009	0.0320697	7
	20	8	10078.13	4550.009	-800.2539	1	4619.848	-9.97514	-4.351915E-008	0.0321101	7
	21	8	8015.625	4635.178	-835.6484	1	4709.903	-10.21973	-8.004928E-009	0.0320744	7
	22	8	6328.125	4721.756	-888.7646	1	4804.673	-10.65992	6.009182E-008	0.0319348	7
	23	8	5015.625	4808.521	-958.506	1	4903.123	-11.27329	-1.181015E-008	0.0321394	7
	24	9	3984.375	4895.112	-1048.373	1	5006.117	-12.08827	-7.834602E-009	0.0320654	7
	25	9	3170.956	4981.269	-1161.681	1	5114.934	-13.12731	-4.31316E-008	0.0321057	7
	26	9	2527.573	5070.026	-1302.981	1	5234.781	-14.41293	-1.253837E-008	0.0321365	7
	27	10	1976.103	5166.819	-1497.651	1	5379.496	-16.16473	5.877918E-008	0.031932	7
	28	10	1577.524	5251.495	-1720.53	1	5526.158	-18.14017	-1.769705E-009	0.0319908	7
	29	10	1265.625	5351.687	-1999.726	1	5713.095	-20.48885	-1.799847E-008	0.0320339	7
	30	11	998.264	5458.082	-2373.023	1	5951.63	-23.49807	-3.861933E-008	0.0321167	7
	31	11	796.875	5569.623	-2816.453	1	6241.243	-26.82486	3.269145E-008	0.0319319	7
	32	11	627.7902	5705.771	-3409.132	1	6646.653	-30.85783	-4.232211E-008	0.0320976	7
	33	12	505.5147	5854.963	-4072.972	1	7132.3	-34.82419	-1.490177E-008	0.0320302	7
	34	12	397.9953	6050.456	-4983.874	1	7838.814	-39.47892	6.242605E-009	0.0320388	7
	35	12	315.5048	6292.859	-6081.344	1	8751.161	-44.02073	5.891249E-009	0.0320406	7
	36	13	252.4038	6588.908	-7374.442	1	9889.19	-48.21988	1.00568E-009	0.0320392	6
	37	13	198.6229	6999.392	-9079.777	1	11464.46	-52.3722	6.857159E-010	0.0320399	6
	38	13	158.3615	7501.75	-11051.62	1	13357.19	-55.83165	4.823469E-010	0.0320388	6
	39	14	125.558	8176.397	-13508.9	1	15790.63	-58.81516	6.199057E-010	0.0320382	6
	40	14	100.4464	9028.838	-16359.66	1	18685.78	-61.10585	9.013731E-010	0.032038	6
	41	14	79.00281	10223.37	-20078.21	1	22531.13	-63.01583	1.180577E-009	0.0320339	6
	42	15	63.3446	11639.61	-24057.84	1	26725.64	-64.18147	4.375633E-010	0.0320368	6
	43	15	49.86702	13709.38	-29304.82	1	32353.05	-64.92886	9.467774E-012	0.0320321	6
	44	15	39.72458	16235.65	-35252.22	1	38811.28	-65.27124	3.767046E-010	0.0320374	6
	45	16	31.6723	19446.8	-42101.41	1	46375.71	-65.20761	1.164646E-010	0.0320358	6
	46	16	24.93351	23816.48	-50403.73	1	55747.29	-64.7086	1.50116E-009	0.0320381	6
	47	16	19.86229	28924.82	-59412.66	1	66079.57	-64.04105	2.714125E-009	0.0320451	6
	48	17	15.83615	35070.59	-69823.07	1	78135.83	-63.33063	-6.242624E-010	0.0320328	6
	49	17	12.40079	43376.73	-82199.29	1	92942.26	-62.1793	1.180001E-009	0.0320345	6
	50	17	9.93114	52627.25	-94913.99	1	108527.8	-60.99281	-8.69423E-010	0.0320406	5
	51	18	7.944915	63227.7	-108809.5	1	125846.1	-59.83972	-1.111364E-009	0.0320383	5
	52	18	6.317385	75427.76	-124976.8	1	145974.5	-58.8876	7.129579E-010	0.0320231	5
	53	19	5.008013	89786.8	-142986.5	1	168839.6	-57.87369	2.895438E-010	0.0320327	5
	54	20	3.945707	105652.2	-163974.2	1	195063.9	-57.20543	-5.406111E-010	0.0320333	5
	55	21	3.158693	121673.7	-185267.2	1	221649.3	-56.7052	1.650443E-010	0.0320233	5
	56	22	2.504006	139308.8	-211899.1	1	253590.6	-56.67788	2.915911E-010	0.032031	5
	57	23	1.998082	157303.1	-241886.4	1	288536.4	-56.96333	-9.451086E-011	0.0319933	5
	58	25	1.584686	176530.3	-280302.2	1	331258.7	-57.79786	-7.451081E-011	0.0319873	5
	59	27	1.266892	196360	-324741.3	1	379492	-58.84007	9.005341E-011	0.0320202	5
	60	29	0.999041	222487	-382247.7	1	442282.5	-59.79848	2.85529E-011	0.0320453	5
