EXPLAIN
TAG	EISPOT
TITLE	LABEL	Potentiostatic EIS	Test &Identifier
DATE	LABEL	6/19/2020	Date
TIME	LABEL	17:11:55	Time
NOTES	NOTES	1	&Notes...
	
PSTAT	PSTAT	REF600-10037	Potentiostat
VDC	POTEN	0.00000E+000	T	DC &Voltage (V)
FREQINIT	QUANT	1.00000E+006	Initial Fre&q. (Hz)
FREQFINAL	QUANT	1.00000E+000	Final Fre&q. (Hz)
PTSPERDEC	QUANT	1.00000E+001	Points/&decade
VAC	QUANT	1.00000E+002	AC &Voltage (mV rms)
AREA	QUANT	2.50000E-001	&Area (cm^2)
CONDIT	TWOPARAM	F	5.00000E+000	0.00000E+000	Conditionin&g	Time(s)	E(V)
DELAY	TWOPARAM	F	5.00000E+000	0.00000E+000	Init. De&lay	Time(s)	Stab.(mV/s)
SPEED	SELECTOR	0	&Optimize for:
ZGUESS	QUANT	1.00000E+003	E&stimated Z (ohms)
OCVCURVE	TABLE	39
	Pt	T	Vf	Vm	Ach	Over
	#	s	V vs. Ref.	V	V	bits
	0	0.258333	6.65565E-002	6.65565E-002	5.25621E-004	...........
	1	0.516667	6.65567E-002	6.65650E-002	5.28287E-004	...........
	2	0.775	6.65578E-002	6.65787E-002	5.26587E-004	...........
	3	1.03333	6.65614E-002	6.65978E-002	5.30187E-004	...........
	4	1.29167	6.65689E-002	6.66090E-002	5.29587E-004	...........
	5	1.55	6.65800E-002	6.66180E-002	5.28387E-004	...........
	6	1.80833	6.65930E-002	6.66275E-002	5.21254E-004	...........
	7	2.06667	6.66056E-002	6.66394E-002	5.28121E-004	...........
	8	2.325	6.66170E-002	6.66452E-002	5.26421E-004	...........
	9	2.58333	6.66273E-002	6.66571E-002	5.28187E-004	...........
	10	2.84167	6.66370E-002	6.66714E-002	5.27987E-004	...........
	11	3.1	6.66470E-002	6.66826E-002	5.31087E-004	...........
	12	3.35833	6.66579E-002	6.66945E-002	5.34054E-004	...........
	13	3.61667	6.66694E-002	6.67016E-002	5.29521E-004	...........
	14	3.875	6.66809E-002	6.67122E-002	5.33154E-004	...........
	15	4.13333	6.66917E-002	6.67224E-002	5.30287E-004	...........
	16	4.39167	6.67019E-002	6.67332E-002	5.30787E-004	...........
	17	4.65	6.67119E-002	6.67478E-002	5.32487E-004	...........
	18	4.90833	6.67226E-002	6.67644E-002	5.33954E-004	...........
	19	5.16667	6.67345E-002	6.67780E-002	5.33287E-004	...........
	20	5.425	6.67477E-002	6.67844E-002	5.27554E-004	...........
	21	5.68333	6.67611E-002	6.67955E-002	5.33687E-004	...........
	22	5.94167	6.67734E-002	6.68016E-002	5.26921E-004	...........
	23	6.2	6.67841E-002	6.68102E-002	5.27654E-004	...........
	24	6.45833	6.67934E-002	6.68233E-002	5.28387E-004	...........
	25	6.71667	6.68023E-002	6.68356E-002	5.24554E-004	...........
	26	6.975	6.68120E-002	6.68486E-002	5.26387E-004	...........
	27	7.23333	6.68228E-002	6.68566E-002	5.20887E-004	...........
	28	7.49167	6.68343E-002	6.68659E-002	5.22154E-004	...........
	29	7.75	6.68454E-002	6.68763E-002	5.24721E-004	...........
	30	8.00833	6.68558E-002	6.68836E-002	5.24854E-004	...........
	31	8.26667	6.68654E-002	6.68894E-002	5.24821E-004	...........
	32	8.525	6.68742E-002	6.68997E-002	5.24121E-004	...........
	33	8.78333	6.68825E-002	6.69118E-002	5.26121E-004	...........
	34	9.04167	6.68911E-002	6.69278E-002	5.23188E-004	...........
	35	9.3	6.69010E-002	6.69379E-002	5.27454E-004	...........
	36	9.5583	6.69123E-002	6.69449E-002	5.30621E-004	...........
	37	9.8167	6.69239E-002	6.69506E-002	5.27754E-004	...........
	38	10.075	6.69344E-002	6.69593E-002	5.23554E-004	...........
EOC	QUANT	0.0669344	Open Circuit (V)
PSTATMODEL	IQUANT	4	Pstat Model
PSTATSECTION	LABEL	REF600-10037	Pstat Section
PSTATSERIALNO	LABEL	10037	Pstat Serial Number
CTRLMODE	IQUANT	1	Control Mode
IESTAB	IQUANT	0	I/E Stability
CASPEED	IQUANT	1	Control Amp Speed
CONVENTION	IQUANT	1	Current Convention
ICHRANGE	IQUANT	2	Ich Range
ICHRANGEMODE	TOGGLE	F	Ich Auto Range
ICHOFFSETENABLE	TOGGLE	T	Ich Offset Enable
ICHOFFSET	QUANT	0	Ich Offset (V)
ICHFILTER	IQUANT	3	Ich Filter
VCHRANGE	IQUANT	2	Vch Range
VCHRANGEMODE	TOGGLE	F	Vch Auto Range
VCHOFFSETENABLE	TOGGLE	T	Vch Offset Enable
VCHOFFSET	QUANT	0	Vch Offset (V)
VCHFILTER	IQUANT	3	Vch Filter
ACHRANGE	IQUANT	2	Ach Range
ACHOFFSETENABLE	TOGGLE	F	Ach Offset Enable
ACHOFFSET	QUANT	0	Ach Offset (V)
ACHFILTER	IQUANT	3	Ach Filter
IERANGELOWERLIMIT	IQUANT	1	I/E Range Lower Limit
IERANGEMODE	TOGGLE	F	I/E AutoRange
IERANGE	IQUANT	8	I/E Range
POSFEEDENABLE	TOGGLE	F	Positive Feedback IR Comp
POSFEEDRESISTANCE	QUANT	0	Positive Feedback Resistance (ohm)
ACHSELECT	IQUANT	0	Ach Select
CABLEID	IQUANT	14	Cable ID
DCCALDATE	LABEL	6/8/2020	DC Calibration Date
ACCALDATE	LABEL	6/8/2020	AC Calibration Date
THERMOSELECT	IQUANT	1	Thermo Select
FRAMEWORKVERSION	QUANT	6.33	Framework Version
INSTRUMENTVERSION	LABEL	3.50	Instrument Version
ZCURVE	TABLE
	Pt	Time	Freq	Zreal	Zimag	Zsig	Zmod	Zphz	Idc	Vdc	IERange
	#	s	Hz	ohm	ohm	V	ohm	°	A	V	#
	0	2	1000078	1726.845	-2041.23	1	2673.689	-49.76936	9.097988E-008	0.0760106	8
	1	3	794390.6	2045.779	-2259.531	1	3048.063	-47.84231	9.241451E-008	0.0757329	8
	2	3	630984.4	2400.204	-2472.905	1	3446.192	-45.85471	5.504308E-008	0.0755091	8
	3	3	501234.4	2793.316	-2678.307	1	3869.876	-43.79587	3.732886E-008	0.075425	8
	4	4	398109.4	3224.306	-2879.333	1	4322.813	-41.76514	6.11191E-008	0.0753621	8
	5	4	316265.6	3689.754	-3080.048	1	4806.348	-39.85368	8.28756E-008	0.0753609	8
	6	4	251203.1	4203.33	-3257.515	1	5317.837	-37.77512	6.847345E-008	0.0753906	8
	7	5	199546.9	4753.808	-3430.092	1	5862.1	-35.81219	6.748945E-008	0.0754202	8
	8	5	158578.1	5353.776	-3544.921	1	6421.011	-33.50993	8.827996E-008	0.0754633	8
	9	5	125953.1	6109.961	-3552.504	1	7067.666	-30.17493	-1.275801E-008	0.0754528	7
	10	6	100078.1	6762.171	-3538.163	1	7631.877	-27.61986	1.212632E-009	0.075426	7
	11	6	79453.13	7406.292	-3518.071	1	8199.39	-25.40824	3.019116E-009	0.0754057	7
	12	6	63140.62	7982.511	-3392.642	1	8673.552	-23.02595	1.562081E-008	0.0754048	7
	13	7	50203.12	8541.022	-3246.239	1	9137.129	-20.8106	-2.875494E-009	0.0753764	7
	14	7	39890.62	9032.054	-3064.774	1	9537.86	-18.7432	8.288541E-009	0.075379	7
	15	7	31640.63	9476.609	-2885.526	1	9906.18	-16.93493	9.024571E-009	0.0753803	7
	16	8	25171.88	9891.81	-2741.678	1	10264.73	-15.49159	1.937596E-008	0.0753596	7
	17	8	20015.62	10187.06	-2566.008	1	10505.26	-14.13806	1.059354E-008	0.0753766	7
	18	8	15890.62	10468.76	-2440.734	1	10749.51	-13.12376	1.490974E-008	0.0753799	7
	19	9	12609.37	10743.23	-2368.851	1	11001.29	-12.43458	1.180153E-008	0.0753842	7
	20	9	10078.13	10980.33	-2331.499	1	11225.12	-11.98781	-2.656712E-009	0.0753727	7
	21	9	8015.625	11208.56	-2336.926	1	11449.58	-11.77715	1.515351E-008	0.0753774	7
	22	9	6328.125	11445.07	-2392.684	1	11692.5	-11.80808	1.59302E-008	0.0753721	7
	23	10	5015.625	11673.37	-2492.393	1	11936.48	-12.05231	1.286574E-008	0.0753711	7
	24	10	3984.375	11921.65	-2650.881	1	12212.82	-12.53625	-2.611407E-009	0.0753672	7
	25	10	3170.956	12239.52	-2870.465	1	12571.61	-13.19872	1.24938E-008	0.0753638	7
	26	11	2527.573	12429.76	-3109.143	1	12812.71	-14.04363	1.313758E-008	0.0753775	7
	27	11	1976.103	12743.4	-3466.198	1	13206.39	-15.2163	-4.538232E-009	0.0753711	7
	28	11	1577.524	13051.92	-3856.258	1	13609.67	-16.46006	-7.798975E-010	0.0753701	7
	29	12	1265.625	13361.48	-4293.185	1	14034.26	-17.81277	1.48925E-008	0.0753728	7
	30	12	998.264	13730.47	-4875.375	1	14570.35	-19.54878	1.617741E-008	0.0753789	7
	31	12	796.875	14105.44	-5540.484	1	15154.55	-21.44443	-4.822684E-009	0.0753616	7
	32	13	627.7902	14505.28	-6370.026	1	15842.36	-23.70879	5.500595E-009	0.0753667	7
	33	13	505.5147	14914.82	-7336.885	1	16621.72	-26.19345	1.052627E-008	0.0753787	7
	34	13	397.9953	15447.69	-8576.141	1	17668.65	-29.03786	7.030414E-009	0.0753734	7
	35	14	315.5048	15881.76	-10094.18	1	18818.14	-32.43935	3.632565E-009	0.0753857	7
	36	14	252.4038	16445.01	-11864.99	1	20278.46	-35.81025	4.655757E-009	0.0753815	7
	37	14	198.6229	17181.49	-14187.28	1	22281.89	-39.54753	4.890186E-009	0.0753855	7
	38	15	158.3615	18051.9	-16862.58	1	24702.58	-43.04904	5.225879E-009	0.0753844	7
	39	15	125.558	19178.36	-20179.41	1	27839.14	-46.45699	5.341631E-009	0.0753885	7
	40	15	100.4464	20531.31	-24009.18	1	31590.75	-49.46478	5.312632E-009	0.0753869	7
	41	16	79.00281	22348.48	-28963.35	1	36583.2	-52.34577	6.471903E-009	0.0753881	7
	42	16	63.3446	24429.09	-34403.33	1	42194.43	-54.62223	4.836015E-011	0.0753826	6
	43	16	49.86702	27167.46	-41291.07	1	49426.95	-56.65709	-2.379197E-010	0.0753693	6
	44	17	39.72458	30436.77	-49468.14	1	58081.79	-58.39684	-1.170904E-009	0.0753864	6
	45	17	31.6723	34376.89	-58944.23	1	68236.3	-59.74881	-6.50744E-010	0.0753839	6
	46	17	24.93351	39503.21	-70854.66	1	81122.66	-60.85926	6.943447E-010	0.0753756	6
	47	18	19.86229	46003.11	-84618.27	1	96314.8	-61.46908	-8.960932E-009	0.0668074	6
	48	18	15.83615	53717.13	-100450.5	1	113911.5	-61.8638	-6.739538E-009	0.0668042	6
	49	18	12.40079	64180.65	-120354.8	1	136398.1	-61.93069	-5.612054E-009	0.0668106	6
	50	19	9.93114	76157.92	-141128.4	1	160366	-61.64712	-4.317363E-009	0.0668083	6
	51	19	7.944915	90920.04	-164699.6	1	188128.7	-61.09974	-3.766206E-009	0.0668092	6
	52	19	6.317385	109107.7	-191527	1	220424.8	-60.33101	-2.167217E-009	0.0668086	6
	53	20	5.008013	130809.3	-221878	1	257567.3	-59.47831	-1.552876E-009	0.0668079	6
	54	21	3.945707	156480.4	-256641.7	1	300584.6	-58.62838	-9.575075E-010	0.0668072	6
	55	23	3.158693	183423.9	-292900.1	1	345593.4	-57.94381	-6.990549E-010	0.0668103	6
	56	24	2.504006	215072.3	-335723.2	1	398705.7	-57.3554	-4.175827E-010	0.0668046	6
	57	26	1.998082	247712.2	-382422.5	1	455640.5	-57.06706	-7.089127E-010	0.066809	5
	58	28	1.584686	284940.9	-439369.5	1	523676.3	-57.03569	-4.672788E-010	0.0668065	5
	59	30	1.266892	324255.5	-503847.7	1	599169.6	-57.23634	-3.372934E-010	0.0668065	5
	60	33	0.999041	370345.7	-585354.6	1	692673.1	-57.67904	-3.611688E-010	0.0668099	5
