EXPLAIN
TAG	EISPOT
TITLE	LABEL	Potentiostatic EIS	Test &Identifier
DATE	LABEL	2/6/2020	Date
TIME	LABEL	17:27:24	Time
NOTES	NOTES	6	&Notes...
	
	
	
	
	
	
PSTAT	PSTAT	REF600-11020	Potentiostat
VDC	POTEN	0.00000E+000	T	DC &Voltage (V)
FREQINIT	QUANT	1.00000E+006	Initial Fre&q. (Hz)
FREQFINAL	QUANT	1.00000E+000	Final Fre&q. (Hz)
PTSPERDEC	QUANT	1.00000E+001	Points/&decade
VAC	QUANT	2.50000E+001	AC &Voltage (mV rms)
AREA	QUANT	1.60000E-004	&Area (cm^2)
CONDIT	TWOPARAM	F	5.00000E+000	0.00000E+000	Conditionin&g	Time(s)	E(V)
DELAY	TWOPARAM	F	5.00000E+000	0.00000E+000	Init. De&lay	Time(s)	Stab.(mV/s)
SPEED	SELECTOR	0	&Optimize for:
ZGUESS	QUANT	1.00000E+003	E&stimated Z (ohms)
OCVCURVE	TABLE	39
	Pt	T	Vf	Vm	Ach	Over
	#	s	V vs. Ref.	V	V	bits
	0	0.258333	3.62684E-003	3.62684E-003	5.81971E-004	...........
	1	0.516667	3.62821E-003	3.69868E-003	5.80704E-004	...........
	2	0.775	3.63683E-003	3.77675E-003	5.76804E-004	...........
	3	1.03333	3.66176E-003	3.84710E-003	5.78837E-004	...........
	4	1.29167	3.70701E-003	3.90459E-003	5.68904E-004	...........
	5	1.55	3.76714E-003	3.96600E-003	5.73104E-004	...........
	6	1.80833	3.83222E-003	3.99491E-003	5.71971E-004	...........
	7	2.06667	3.89385E-003	4.04048E-003	5.75771E-004	...........
	8	2.325	3.94451E-003	3.90567E-003	5.76304E-004	...........
	9	2.58333	3.97818E-003	4.16834E-003	5.77671E-004	...........
	10	2.84167	4.00337E-003	4.16793E-003	5.86271E-004	...........
	11	3.1	4.04049E-003	4.21009E-003	5.83271E-004	...........
	12	3.35833	4.09380E-003	4.20927E-003	5.82071E-004	...........
	13	3.61667	4.14757E-003	4.26028E-003	5.73138E-004	...........
	14	3.875	4.18994E-003	4.26205E-003	5.76204E-004	...........
	15	4.13333	4.22130E-003	4.29483E-003	5.72938E-004	...........
	16	4.39167	4.24673E-003	4.33436E-003	5.81604E-004	...........
	17	4.65	4.27142E-003	4.36818E-003	5.83537E-004	...........
	18	4.90833	4.29888E-003	4.38603E-003	5.75471E-004	...........
	19	5.16667	4.32828E-003	4.39091E-003	5.76038E-004	...........
	20	5.425	4.35552E-003	4.41971E-003	5.80571E-004	...........
	21	5.68333	4.37814E-003	4.43258E-003	5.84371E-004	...........
	22	5.94167	4.39725E-003	4.45026E-003	5.85037E-004	...........
	23	6.2	4.41468E-003	4.45593E-003	5.78837E-004	...........
	24	6.45833	4.43073E-003	4.47461E-003	5.74504E-004	...........
	25	6.71667	4.44535E-003	4.49044E-003	5.78804E-004	...........
	26	6.975	4.45932E-003	4.50219E-003	5.82171E-004	...........
	27	7.23333	4.47331E-003	4.51218E-003	5.75071E-004	...........
	28	7.49167	4.48698E-003	4.52167E-003	5.69604E-004	...........
	29	7.75	4.49953E-003	4.53104E-003	5.77237E-004	...........
	30	8.00833	4.51072E-003	4.54092E-003	5.72938E-004	...........
	31	8.26667	4.52090E-003	4.54967E-003	5.72771E-004	...........
	32	8.525	4.53051E-003	4.55848E-003	5.77471E-004	...........
	33	8.78333	4.53972E-003	4.56318E-003	5.75904E-004	...........
	34	9.04167	4.54833E-003	4.56877E-003	5.77504E-004	...........
	35	9.3	4.55594E-003	4.57331E-003	5.79837E-004	...........
	36	9.5583	4.56243E-003	4.57872E-003	5.83371E-004	...........
	37	9.8167	4.56809E-003	4.58502E-003	5.79504E-004	...........
	38	10.075	4.57337E-003	4.58758E-003	5.78737E-004	...........
EOC	QUANT	0.0045734	Open Circuit (V)
PSTATMODEL	IQUANT	4	Pstat Model
PSTATSECTION	LABEL	REF600-11020	Pstat Section
PSTATSERIALNO	LABEL	11020	Pstat Serial Number
CTRLMODE	IQUANT	1	Control Mode
IESTAB	IQUANT	0	I/E Stability
CASPEED	IQUANT	1	Control Amp Speed
CONVENTION	IQUANT	1	Current Convention
ICHRANGE	IQUANT	2	Ich Range
ICHRANGEMODE	TOGGLE	F	Ich Auto Range
ICHOFFSETENABLE	TOGGLE	T	Ich Offset Enable
ICHOFFSET	QUANT	0	Ich Offset (V)
ICHFILTER	IQUANT	3	Ich Filter
VCHRANGE	IQUANT	2	Vch Range
VCHRANGEMODE	TOGGLE	F	Vch Auto Range
VCHOFFSETENABLE	TOGGLE	T	Vch Offset Enable
VCHOFFSET	QUANT	0	Vch Offset (V)
VCHFILTER	IQUANT	3	Vch Filter
ACHRANGE	IQUANT	2	Ach Range
ACHOFFSETENABLE	TOGGLE	F	Ach Offset Enable
ACHOFFSET	QUANT	0	Ach Offset (V)
ACHFILTER	IQUANT	3	Ach Filter
IERANGELOWERLIMIT	IQUANT	1	I/E Range Lower Limit
IERANGEMODE	TOGGLE	F	I/E AutoRange
IERANGE	IQUANT	6	I/E Range
POSFEEDENABLE	TOGGLE	F	Positive Feedback IR Comp
POSFEEDRESISTANCE	QUANT	0	Positive Feedback Resistance (ohm)
ACHSELECT	IQUANT	0	Ach Select
CABLEID	IQUANT	14	Cable ID
DCCALDATE	LABEL	1/27/2020	DC Calibration Date
ACCALDATE	LABEL	1/27/2020	AC Calibration Date
THERMOSELECT	IQUANT	1	Thermo Select
FRAMEWORKVERSION	QUANT	6.33	Framework Version
INSTRUMENTVERSION	LABEL	3.50	Instrument Version
ZCURVE	TABLE
	Pt	Time	Freq	Zreal	Zimag	Zsig	Zmod	Zphz	Idc	Vdc	IERange
	#	s	Hz	ohm	ohm	V	ohm	°	A	V	#
	0	1	1000078	1842.168	-1100.354	1	2145.778	-30.85048	-2.275053E-006	0.0070586	8
	1	2	794390.6	2016.889	-1104.413	1	2299.471	-28.70433	4.76387E-006	0.0057574	8
	2	2	630984.4	2191.975	-1112.819	1	2458.276	-26.91593	-1.099677E-006	0.0064375	8
	3	2	501234.4	2341.338	-1120.921	1	2595.828	-25.58287	-2.541756E-006	0.0067107	8
	4	3	398109.4	2500.767	-1136.073	1	2746.725	-24.43182	-2.346385E-006	0.0066282	8
	5	3	316265.6	2662.047	-1154.21	1	2901.499	-23.44059	-6.836863E-007	0.0062854	8
	6	3	251203.1	2827.228	-1179.536	1	3063.417	-22.64618	-3.229088E-006	0.0068054	8
	7	4	199546.9	3006.056	-1201.489	1	3237.275	-21.78606	-2.31832E-006	0.0065572	8
	8	4	158578.1	3169.941	-1226.875	1	3399.081	-21.15812	-1.051599E-006	0.006244	8
	9	4	125953.1	3402.453	-1226.085	1	3616.625	-19.8168	7.960274E-007	0.0045297	7
	10	5	100078.1	3606.927	-1246.063	1	3816.097	-19.05818	6.63473E-008	0.0059347	7
	11	5	79453.13	3815.651	-1260.42	1	4018.438	-18.27989	5.957294E-008	0.0059286	7
	12	5	63140.62	4028.528	-1258.013	1	4220.383	-17.34234	-2.012696E-008	0.0061271	7
	13	6	50203.12	4238.868	-1235.731	1	4415.317	-16.25266	-3.859134E-009	0.0060687	7
	14	6	39890.62	4440.932	-1198.47	1	4599.805	-15.10258	1.293533E-008	0.005986	7
	15	6	31640.63	4631.672	-1147.539	1	4771.711	-13.91534	-3.489462E-008	0.0060637	7
	16	7	25171.88	4802.204	-1091.051	1	4924.587	-12.80019	-1.074602E-008	0.0060726	7
	17	7	20015.62	4953.513	-1031.026	1	5059.674	-11.75769	-3.494773E-008	0.0060631	7
	18	7	15890.62	5088.208	-976.599	1	5181.082	-10.86487	-1.938312E-008	0.0060396	7
	19	8	12609.37	5207.042	-930.1974	1	5289.476	-10.1286	-9.037961E-009	0.006128	7
	20	8	10078.13	5305.216	-897.3101	1	5380.565	-9.6	-3.551189E-008	0.0060635	7
	21	8	8015.625	5390.203	-877.6639	1	5461.188	-9.24807	-4.133144E-008	0.0060968	7
	22	8	6328.125	5470.2	-878.7095	1	5540.327	-9.125788	1.411832E-008	0.0059774	7
	23	9	5015.625	5544.219	-904.8743	1	5617.576	-9.269539	-3.246553E-009	0.0060535	7
	24	9	3984.375	5610.982	-955.585	1	5691.771	-9.66509	-3.41742E-008	0.0060564	7
	25	9	3170.956	5675.123	-1034.695	1	5768.675	-10.33275	-3.387884E-008	0.0060596	7
	26	10	2527.573	5739.125	-1148.089	1	5852.834	-11.31247	-2.746479E-009	0.0060523	7
	27	10	1976.103	5813.506	-1314.96	1	5960.367	-12.74529	5.905725E-008	0.0059037	7
	28	10	1577.524	5883.031	-1513.488	1	6074.595	-14.42725	-3.533817E-008	0.0060702	7
	29	11	1265.625	5965.125	-1762.843	1	6220.155	-16.46372	-1.942225E-008	0.0060264	7
	30	11	998.264	6064.815	-2095.662	1	6416.68	-19.06229	5.95236E-008	0.0059023	7
	31	11	796.875	6173.768	-2488.227	1	6656.327	-21.95102	-3.514285E-008	0.0060634	7
	32	12	627.7902	6317.472	-3004.369	1	6995.476	-25.43413	2.23621E-008	0.0060004	7
	33	12	505.5147	6465.303	-3583.042	1	7391.775	-28.99503	-7.0909E-009	0.0060579	7
	34	12	397.9953	6673.118	-4357.736	1	7969.967	-33.14568	6.405473E-009	0.0060358	7
	35	13	315.5048	6922.014	-5285.417	1	8709.185	-37.36414	7.23738E-009	0.0060292	7
	36	13	252.4038	7219.23	-6370.501	1	9628.11	-41.42631	6.593924E-009	0.006032	7
	37	13	198.6229	7627.034	-7788.555	1	10901.07	-45.60031	1.083579E-009	0.0060241	6
	38	14	158.3615	8119.266	-9417.415	1	12434.23	-49.23359	1.506462E-010	0.0060232	6
	39	14	125.558	8760.04	-11432.12	1	14402.49	-52.53831	5.638951E-010	0.0060238	6
	40	14	100.4464	9544.14	-13742.88	1	16731.92	-55.22083	9.875724E-010	0.0060208	6
	41	15	79.00281	10648.52	-16731.38	1	19832.55	-57.52569	1.159109E-009	0.0060178	6
	42	15	63.3446	11848.12	-20105.76	1	23337.09	-59.48959	-1.78167E-011	0.0060183	6
	43	15	49.86702	13610.04	-24258.56	1	27815.66	-60.7058	4.924842E-010	0.0060146	6
	44	16	39.72458	15826	-28927.85	1	32973.98	-61.31758	9.673528E-010	0.0060209	6
	45	16	31.6723	18586.49	-34353	1	39058.75	-61.58465	1.74817E-009	0.0060167	6
	46	16	24.93351	22126.03	-40958.29	1	46552.57	-61.62169	-7.094633E-010	0.0060188	6
	47	17	19.86229	26328.21	-48156.03	1	54883.31	-61.33337	-1.626148E-009	0.0060168	6
	48	17	15.83615	31706.68	-56535.37	1	64819.45	-60.71503	3.03773E-009	0.0060249	6
	49	17	12.40079	38082.07	-66044.28	1	76237.07	-60.03164	-2.062621E-010	0.0060193	6
	50	17	9.93114	45035.39	-75870.23	1	88229.69	-59.30729	8.647199E-010	0.0060187	6
	51	18	7.944915	53221.24	-86310.16	1	101399.9	-58.34087	8.164386E-010	0.0060081	5
	52	18	6.317385	61840.95	-99706.2	1	117327	-58.19151	-1.748795E-010	0.0060271	5
	53	19	5.008013	71790.01	-114565.9	1	135200.4	-57.92767	1.105875E-010	0.0060211	5
	54	20	3.945707	82812.21	-132317.6	1	156095.5	-57.95923	-1.472424E-010	0.0060069	5
	55	21	3.158693	93972.16	-152084.3	1	178774.7	-58.28828	2.928344E-010	0.0060162	5
	56	23	2.504006	106431.5	-176379	1	206002.9	-58.89217	1.396425E-010	0.0060186	5
	57	24	1.998082	119716.3	-205091.6	1	237475.4	-59.727	-8.852913E-011	0.0059731	5
	58	25	1.584686	134210.4	-240293.9	1	275233.7	-60.81551	1.139831E-010	0.0060085	5
	59	27	1.266892	150918.1	-281897.1	1	319753.4	-61.83692	1.731373E-010	0.0060433	5
	60	30	0.999041	170643.1	-336726.2	1	377496.5	-63.12542	2.13878E-010	0.0060521	5
