EXPLAIN
TAG	EISPOT
TITLE	LABEL	Potentiostatic EIS	Test &Identifier
DATE	LABEL	1/14/2020	Date
TIME	LABEL	15:55:15	Time
NOTES	NOTES	5	&Notes...
	
	
	
	
	
PSTAT	PSTAT	REF600-11020	Potentiostat
VDC	POTEN	0.00000E+000	T	DC &Voltage (V)
FREQINIT	QUANT	1.00000E+006	Initial Fre&q. (Hz)
FREQFINAL	QUANT	1.00000E+000	Final Fre&q. (Hz)
PTSPERDEC	QUANT	1.00000E+001	Points/&decade
VAC	QUANT	2.50000E+001	AC &Voltage (mV rms)
AREA	QUANT	1.00000E-001	&Area (cm^2)
CONDIT	TWOPARAM	T	5.00000E+000	0.00000E+000	Conditionin&g	Time(s)	E(V)
DELAY	TWOPARAM	T	5.00000E+000	0.00000E+000	Init. De&lay	Time(s)	Stab.(mV/s)
SPEED	SELECTOR	0	&Optimize for:
ZGUESS	QUANT	5.00000E+002	E&stimated Z (ohms)
OCVCURVE	TABLE	19
	Pt	T	Vf	Vm	Ach	Over
	#	s	V vs. Ref.	V	V	bits
	0	0.258333	7.15833E-003	7.15833E-003	6.48380E-004	...........
	1	0.516667	7.15798E-003	7.13997E-003	6.55413E-004	...........
	2	0.775	7.15667E-003	7.16664E-003	6.50946E-004	...........
	3	1.03333	7.15536E-003	7.17153E-003	6.52246E-004	...........
	4	1.29167	7.15737E-003	7.21053E-003	6.48046E-004	...........
	5	1.55	7.16627E-003	7.24459E-003	6.50113E-004	...........
	6	1.80833	7.18416E-003	7.28805E-003	6.54346E-004	...........
	7	2.06667	7.21114E-003	7.32906E-003	6.48446E-004	...........
	8	2.325	7.24525E-003	7.36157E-003	6.50946E-004	...........
	9	2.58333	7.28347E-003	7.41671E-003	6.52680E-004	...........
	10	2.84167	7.32359E-003	7.44421E-003	6.51313E-004	...........
	11	3.1	7.36483E-003	7.50891E-003	6.53980E-004	...........
	12	3.35833	7.40750E-003	7.54823E-003	6.53179E-004	...........
	13	3.61667	7.45315E-003	7.64548E-003	6.51980E-004	...........
	14	3.875	7.50390E-003	7.66487E-003	6.54379E-004	...........
	15	4.13333	7.55933E-003	7.72783E-003	6.51613E-004	...........
	16	4.39167	7.61476E-003	7.73447E-003	6.54479E-004	...........
	17	4.65	7.66541E-003	7.82440E-003	6.50080E-004	...........
	18	4.90833	7.71109E-003	7.82245E-003	6.50780E-004	...........
EOC	QUANT	0.0077111	Open Circuit (V)
PSTATMODEL	IQUANT	4	Pstat Model
PSTATSECTION	LABEL	REF600-11020	Pstat Section
PSTATSERIALNO	LABEL	11020	Pstat Serial Number
CTRLMODE	IQUANT	1	Control Mode
IESTAB	IQUANT	0	I/E Stability
CASPEED	IQUANT	1	Control Amp Speed
CONVENTION	IQUANT	1	Current Convention
ICHRANGE	IQUANT	2	Ich Range
ICHRANGEMODE	TOGGLE	F	Ich Auto Range
ICHOFFSETENABLE	TOGGLE	T	Ich Offset Enable
ICHOFFSET	QUANT	0	Ich Offset (V)
ICHFILTER	IQUANT	3	Ich Filter
VCHRANGE	IQUANT	2	Vch Range
VCHRANGEMODE	TOGGLE	F	Vch Auto Range
VCHOFFSETENABLE	TOGGLE	T	Vch Offset Enable
VCHOFFSET	QUANT	0	Vch Offset (V)
VCHFILTER	IQUANT	3	Vch Filter
ACHRANGE	IQUANT	2	Ach Range
ACHOFFSETENABLE	TOGGLE	F	Ach Offset Enable
ACHOFFSET	QUANT	0	Ach Offset (V)
ACHFILTER	IQUANT	3	Ach Filter
IERANGELOWERLIMIT	IQUANT	1	I/E Range Lower Limit
IERANGEMODE	TOGGLE	F	I/E AutoRange
IERANGE	IQUANT	7	I/E Range
POSFEEDENABLE	TOGGLE	F	Positive Feedback IR Comp
POSFEEDRESISTANCE	QUANT	0	Positive Feedback Resistance (ohm)
ACHSELECT	IQUANT	0	Ach Select
CABLEID	IQUANT	14	Cable ID
DCCALDATE	LABEL	12/22/2019	DC Calibration Date
ACCALDATE	LABEL	12/22/2019	AC Calibration Date
THERMOSELECT	IQUANT	1	Thermo Select
FRAMEWORKVERSION	QUANT	6.33	Framework Version
INSTRUMENTVERSION	LABEL	3.50	Instrument Version
ZCURVE	TABLE
	Pt	Time	Freq	Zreal	Zimag	Zsig	Zmod	Zphz	Idc	Vdc	IERange
	#	s	Hz	ohm	ohm	V	ohm	°	A	V	#
	0	1	1000078	2421.469	-2079.302	1	3191.709	-40.6525	1.145171E-006	0.0099663	8
	1	1	794390.6	2842.288	-2043.809	1	3500.822	-35.71884	-1.647007E-006	0.0099304	8
	2	1	630984.4	3245.635	-1995.226	1	3809.865	-31.58076	2.24589E-006	0.0092188	8
	3	2	501234.4	3624.464	-1883.171	1	4084.491	-27.45513	1.295807E-006	0.0090677	8
	4	2	398109.4	3933.309	-1732.255	1	4297.863	-23.76901	-3.123629E-006	0.0100861	8
	5	2	316265.6	4207.271	-1584.955	1	4495.911	-20.6423	3.744892E-006	0.0087916	8
	6	3	251203.1	4448.277	-1425.412	1	4671.078	-17.76761	-8.589459E-007	0.0095921	8
	7	3	199546.9	4637.002	-1244.969	1	4801.223	-15.02868	-9.121951E-007	0.0094985	8
	8	3	158578.1	4754.653	-1086.271	1	4877.162	-12.86919	6.13902E-008	0.0094454	8
	9	4	125953.1	4899.646	-937.7296	1	4988.574	-10.83466	4.929635E-007	0.0086723	7
	10	4	100078.1	4980.116	-832.4458	1	5049.21	-9.489482	9.289476E-008	0.0091939	7
	11	4	79453.13	5055.178	-756.5453	1	5111.476	-8.511573	-4.278624E-008	0.0093864	7
	12	5	63140.62	5121.489	-698.0416	1	5168.84	-7.761396	-1.329003E-008	0.0094153	7
	13	5	50203.12	5179.449	-659.2857	1	5221.24	-7.254099	9.304009E-008	0.0091823	7
	14	5	39890.62	5233.688	-638.8237	1	5272.531	-6.959095	2.407599E-008	0.0092898	7
	15	6	31640.63	5285.513	-635.6165	1	5323.594	-6.857252	3.503218E-008	0.0092167	7
	16	6	25171.88	5339.342	-646.7245	1	5378.366	-6.906273	-3.341798E-009	0.0093436	7
	17	6	20015.62	5392.462	-675.0528	1	5434.551	-7.135426	6.065599E-008	0.0091929	7
	18	6	15890.62	5451.34	-721.752	1	5498.913	-7.542038	-2.354298E-008	0.0093399	7
	19	7	12609.37	5513.598	-784.1039	1	5569.073	-8.093917	-2.575736E-008	0.0093315	7
	20	7	10078.13	5572.476	-862.5489	1	5638.836	-8.798836	-4.343944E-008	0.0093714	7
	21	7	8015.625	5646.896	-973.142	1	5730.134	-9.77787	-1.655141E-008	0.0093053	7
	22	8	6328.125	5721.726	-1110.15	1	5828.428	-10.9803	-4.314254E-008	0.0093695	7
	23	8	5015.625	5803.192	-1277.506	1	5942.143	-12.41498	5.686172E-008	0.0092098	7
	24	8	3984.375	5886.168	-1480.558	1	6069.517	-14.11881	-2.621455E-008	0.0093219	7
	25	9	3170.956	5983.792	-1730.909	1	6229.11	-16.13337	-3.688819E-009	0.0093383	7
	26	9	2527.573	6086.149	-2037.538	1	6418.16	-18.50966	-6.462951E-009	0.0093307	7
	27	9	1976.103	6213.905	-2449.854	1	6679.401	-21.51701	-3.651946E-009	0.0093347	7
	28	10	1577.524	6343.941	-2915.163	1	6981.673	-24.6797	2.544294E-008	0.0092834	7
	29	10	1265.625	6497.248	-3480.104	1	7370.574	-28.17472	8.116269E-010	0.0093233	7
	30	10	998.264	6691.68	-4212.084	1	7906.974	-32.1884	-1.186536E-008	0.0094043	7
	31	11	796.875	6915.127	-5063.345	1	8570.673	-36.21207	6.069151E-008	0.009183	7
	32	11	627.7902	7198.935	-6174.348	1	9484.052	-40.61887	-1.153771E-008	0.0093994	7
	33	11	505.5147	7507.849	-7391.918	1	10536.04	-44.55421	9.780305E-009	0.0091889	6
	34	12	397.9953	7927.269	-9032.265	1	12017.63	-48.72783	7.053376E-010	0.0093158	6
	35	12	315.5048	8420.409	-10976.75	1	13834.46	-52.50771	6.288357E-010	0.0093155	6
	36	12	252.4038	8994.923	-13247.86	1	16012.95	-55.82461	5.237794E-010	0.0093172	6
	37	12	198.6229	9748.42	-16220.02	1	18924.08	-58.99364	7.329917E-010	0.009317	6
	38	13	158.3615	10627.57	-19655.91	1	22345.03	-61.60076	8.120763E-010	0.0093183	6
	39	13	125.558	11751.32	-23953.17	1	26680.48	-63.86764	7.161078E-010	0.0093191	6
	40	13	100.4464	13102.83	-28985.81	1	31809.77	-65.675	4.794467E-010	0.0093155	6
	41	14	79.00281	15016.4	-35588.65	1	38626.99	-67.123	3.500076E-010	0.0093147	6
	42	14	63.3446	17073.38	-42836.75	1	46113.85	-68.26933	3.553783E-010	0.0093109	6
	43	14	49.86702	20338.15	-52450.38	1	56255.51	-68.80571	4.263363E-010	0.0093109	6
	44	15	39.72458	24411.67	-63518.22	1	68047.73	-68.97696	6.06046E-010	0.0093142	6
	45	15	31.6723	29626.72	-76476.53	1	82014.65	-68.82381	5.101108E-010	0.0093124	6
	46	16	24.93351	36964.88	-92625.38	1	99728.9	-68.24407	6.111555E-010	0.0093131	6
	47	16	19.86229	46015.77	-110400	1	119606.1	-67.37316	-3.353807E-010	0.0093122	5
	48	16	15.83615	57615.98	-130878.9	1	142999.6	-66.23977	1.330694E-009	0.0093063	5
	49	16	12.40079	72804.64	-155649.4	1	171835	-64.93227	4.450355E-010	0.0093061	5
	50	17	9.93114	90330.96	-180566.6	1	201900.9	-63.42285	7.774713E-010	0.0093032	5
	51	17	7.944915	111198.5	-206994.6	1	234972.1	-61.75508	3.98536E-010	0.0093003	5
	52	17	6.317385	135605.7	-240133.8	1	275777.4	-60.5462	-1.617242E-010	0.009321	5
	53	18	5.008013	165316	-275241.1	1	321071.7	-59.01003	1.043071E-010	0.0093177	5
	54	19	3.945707	199797.9	-315643.8	1	373564.2	-57.66679	-2.828236E-010	0.0093025	5
	55	20	3.158693	236343.7	-356006.7	1	427316.1	-56.42084	3.36685E-011	0.0092933	5
	56	22	2.504006	278726	-403773.3	1	490633.3	-55.38256	1.679217E-010	0.0093018	5
	57	23	1.998082	324149.6	-454324.1	1	558106.9	-54.49304	-9.129667E-011	0.0092594	5
	58	25	1.584686	374260.1	-515462	1	637002.1	-54.01783	-1.061522E-010	0.0092605	5
	59	27	1.266892	426432.8	-580975.9	1	720678.8	-53.72156	-4.437879E-011	0.0092955	5
	60	29	0.999041	488797.2	-662298.9	1	823141.8	-53.57152	-4.258513E-012	0.0093235	5
