EXPLAIN
TAG	EISPOT
TITLE	LABEL	Potentiostatic EIS	Test &Identifier
DATE	LABEL	3/9/2020	Date
TIME	LABEL	20:47:16	Time
NOTES	NOTES	1	&Notes...
	
PSTAT	PSTAT	REF600-11020	Potentiostat
VDC	POTEN	0.00000E+000	T	DC &Voltage (V)
FREQINIT	QUANT	1.00000E+006	Initial Fre&q. (Hz)
FREQFINAL	QUANT	1.00000E+000	Final Fre&q. (Hz)
PTSPERDEC	QUANT	1.00000E+001	Points/&decade
VAC	QUANT	2.50000E+001	AC &Voltage (mV rms)
AREA	QUANT	4.00000E-005	&Area (cm^2)
CONDIT	TWOPARAM	F	5.00000E+000	0.00000E+000	Conditionin&g	Time(s)	E(V)
DELAY	TWOPARAM	T	3.00000E+000	0.00000E+000	Init. De&lay	Time(s)	Stab.(mV/s)
SPEED	SELECTOR	0	&Optimize for:
ZGUESS	QUANT	1.00000E+003	E&stimated Z (ohms)
OCVCURVE	TABLE	12
	Pt	T	Vf	Vm	Ach	Over
	#	s	V vs. Ref.	V	V	bits
	0	0.258333	4.70838E-002	4.70838E-002	6.41996E-004	...........
	1	0.516667	4.70841E-002	4.71009E-002	6.43962E-004	...........
	2	0.775	4.70860E-002	4.71118E-002	6.45062E-004	...........
	3	1.03333	4.70911E-002	4.71246E-002	6.47662E-004	...........
	4	1.29167	4.70997E-002	4.71310E-002	6.46629E-004	...........
	5	1.55	4.71102E-002	4.71414E-002	6.41796E-004	...........
	6	1.80833	4.71208E-002	4.71475E-002	6.43062E-004	...........
	7	2.06667	4.71305E-002	4.71529E-002	6.38162E-004	...........
	8	2.325	4.71390E-002	4.71613E-002	6.46329E-004	...........
	9	2.58333	4.71465E-002	4.71672E-002	6.47029E-004	...........
	10	2.84167	4.71535E-002	4.71750E-002	6.44162E-004	...........
	11	3.1	4.71603E-002	4.71812E-002	6.42262E-004	...........
EOC	QUANT	0.0471603	Open Circuit (V)
PSTATMODEL	IQUANT	4	Pstat Model
PSTATSECTION	LABEL	REF600-11020	Pstat Section
PSTATSERIALNO	LABEL	11020	Pstat Serial Number
CTRLMODE	IQUANT	1	Control Mode
IESTAB	IQUANT	0	I/E Stability
CASPEED	IQUANT	1	Control Amp Speed
CONVENTION	IQUANT	1	Current Convention
ICHRANGE	IQUANT	2	Ich Range
ICHRANGEMODE	TOGGLE	F	Ich Auto Range
ICHOFFSETENABLE	TOGGLE	T	Ich Offset Enable
ICHOFFSET	QUANT	0	Ich Offset (V)
ICHFILTER	IQUANT	3	Ich Filter
VCHRANGE	IQUANT	2	Vch Range
VCHRANGEMODE	TOGGLE	F	Vch Auto Range
VCHOFFSETENABLE	TOGGLE	T	Vch Offset Enable
VCHOFFSET	QUANT	0	Vch Offset (V)
VCHFILTER	IQUANT	3	Vch Filter
ACHRANGE	IQUANT	2	Ach Range
ACHOFFSETENABLE	TOGGLE	F	Ach Offset Enable
ACHOFFSET	QUANT	0	Ach Offset (V)
ACHFILTER	IQUANT	3	Ach Filter
IERANGELOWERLIMIT	IQUANT	1	I/E Range Lower Limit
IERANGEMODE	TOGGLE	F	I/E AutoRange
IERANGE	IQUANT	7	I/E Range
POSFEEDENABLE	TOGGLE	F	Positive Feedback IR Comp
POSFEEDRESISTANCE	QUANT	0	Positive Feedback Resistance (ohm)
ACHSELECT	IQUANT	0	Ach Select
CABLEID	IQUANT	14	Cable ID
DCCALDATE	LABEL	2/27/2020	DC Calibration Date
ACCALDATE	LABEL	2/27/2020	AC Calibration Date
THERMOSELECT	IQUANT	1	Thermo Select
FRAMEWORKVERSION	QUANT	6.33	Framework Version
INSTRUMENTVERSION	LABEL	3.50	Instrument Version
ZCURVE	TABLE
	Pt	Time	Freq	Zreal	Zimag	Zsig	Zmod	Zphz	Idc	Vdc	IERange
	#	s	Hz	ohm	ohm	V	ohm	°	A	V	#
	0	1	1000078	2014.514	-1539.723	1	2535.55	-37.39123	7.744575E-008	0.0496223	8
	1	1	794390.6	2329.61	-1524.838	1	2784.28	-33.2066	-2.120797E-008	0.0492963	8
	2	1	630984.4	2628.253	-1461.996	1	3007.515	-29.0855	6.295213E-008	0.0491082	8
	3	2	501234.4	2892.178	-1359.891	1	3195.935	-25.18273	3.226222E-008	0.0490057	8
	4	2	398109.4	3114.718	-1234.036	1	3350.271	-21.61323	2.849335E-008	0.0489413	8
	5	2	316265.6	3292.998	-1104.949	1	3473.434	-18.54893	4.025764E-008	0.0489192	8
	6	3	251203.1	3434.669	-981.119	1	3572.051	-15.94208	3.404431E-008	0.048908	8
	7	3	199546.9	3549.422	-870.3809	1	3654.581	-13.77806	9.535024E-010	0.048893	8
	8	3	158578.1	3635.951	-780.5142	1	3718.782	-12.11558	3.561434E-008	0.0489077	8
	9	4	125953.1	3740.565	-635.4406	1	3794.155	-9.64126	3.965097E-010	0.0488487	7
	10	4	100078.1	3784.114	-590.0073	1	3829.834	-8.862028	1.476115E-009	0.0488388	7
	11	4	79453.13	3834.772	-570.535	1	3876.981	-8.462357	6.135017E-010	0.0488262	7
	12	5	63140.62	3884.614	-564.371	1	3925.397	-8.266305	6.338672E-010	0.0488243	7
	13	5	50203.12	3933.921	-571.4639	1	3975.211	-8.2653	1.659E-009	0.0488331	7
	14	5	39890.62	3985.106	-592.5694	1	4028.921	-8.457684	1.624619E-009	0.0488251	7
	15	6	31640.63	4040.532	-628.1573	1	4089.069	-8.836693	8.307233E-010	0.0488197	7
	16	6	25171.88	4098.751	-677.2974	1	4154.334	-9.38304	3.822286E-010	0.0488237	7
	17	6	20015.62	4163.839	-741.6437	1	4229.372	-10.09935	1.582431E-009	0.048825	7
	18	7	15890.62	4236.063	-822.457	1	4315.167	-10.98761	1.693405E-009	0.0488236	7
	19	7	12609.37	4316.97	-921.4468	1	4414.215	-12.04884	1.674628E-009	0.0488241	7
	20	7	10078.13	4404.32	-1035.712	1	4524.459	-13.23314	1.073014E-009	0.0488081	7
	21	7	8015.625	4504.853	-1175.651	1	4655.733	-14.6265	2.295058E-009	0.0488213	7
	22	8	6328.125	4620.746	-1345.237	1	4812.583	-16.23185	1.651233E-009	0.0488196	7
	23	8	5015.625	4749.602	-1544.975	1	4994.563	-18.01894	2.887352E-009	0.0488212	7
	24	8	3984.375	4892.66	-1776.469	1	5205.187	-19.95538	1.776267E-009	0.0488177	7
	25	9	3170.956	5053.696	-2049.927	1	5453.626	-22.07891	1.960737E-009	0.0488131	7
	26	9	2527.573	5233.283	-2369.68	1	5744.792	-24.36147	2.173272E-009	0.0488101	7
	27	9	1976.103	5454.475	-2781.346	1	6122.678	-27.01794	2.748363E-009	0.0488151	7
	28	10	1577.524	5683.954	-3230.983	1	6538.087	-29.6156	3.972381E-009	0.0488124	7
	29	10	1265.625	5936.406	-3747.92	1	7020.529	-32.26606	3.826118E-009	0.0488087	7
	30	10	998.264	6244.676	-4412.271	1	7646.183	-35.24369	2.528378E-009	0.0488084	7
	31	11	796.875	6578.467	-5167.743	1	8365.512	-38.15156	2.043514E-009	0.048808	7
	32	11	627.7902	6983.581	-6130.169	1	9292.437	-41.27658	3.516166E-009	0.0488076	7
	33	11	505.5147	7407.031	-7170.07	1	10308.93	-44.0687	-4.632015E-010	0.0488673	6
	34	12	397.9953	7936.712	-8557.39	1	11671.35	-47.15504	5.550905E-010	0.0488803	6
	35	12	315.5048	8531.388	-10187.86	1	13288.23	-50.05695	6.107441E-010	0.0488753	6
	36	12	252.4038	9193.229	-12077.28	1	15178.14	-52.72159	5.186434E-010	0.0488692	6
	37	13	198.6229	10025	-14539.02	1	17660.23	-55.41283	5.094659E-010	0.048866	6
	38	13	158.3615	10957.71	-17369.95	1	20537.44	-57.75452	5.011019E-010	0.0488741	6
	39	13	125.558	12107.34	-20894.74	1	24149.08	-59.91008	6.118402E-010	0.0488698	6
	40	14	100.4464	13458.86	-25001.56	1	28394	-61.7055	5.263616E-010	0.0488622	6
	41	14	79.00281	15277.15	-30367.27	1	33993.57	-63.29397	4.055837E-010	0.0488652	6
	42	14	63.3446	17397.23	-36325.37	1	40276.5	-64.40895	8.960128E-011	0.0488689	6
	43	15	49.86702	20329.91	-44068.21	1	48531.56	-65.23479	2.231997E-011	0.0488611	6
	44	15	39.72458	23929.2	-52857.85	1	58022.05	-65.64333	3.385595E-010	0.0488618	6
	45	15	31.6723	28513.23	-63185.07	1	69320.68	-65.71199	6.613985E-010	0.0488646	6
	46	16	24.93351	34727.12	-75973.88	1	83534.45	-65.4352	-4.453839E-010	0.048864	6
	47	16	19.86229	42313.99	-90138.41	1	99576.1	-64.85307	-5.420996E-010	0.0488641	6
	48	16	15.83615	51810.77	-106216.8	1	118179.4	-63.99765	-2.24331E-010	0.0488693	5
	49	16	12.40079	64967.4	-126123	1	141872.4	-62.74649	-1.930754E-009	0.0488766	5
	50	17	9.93114	79488.41	-145786	1	166048.1	-61.39901	-1.776856E-009	0.0488691	5
	51	17	7.944915	96900.2	-167819.4	1	193786	-59.99754	-1.63178E-010	0.048875	5
	52	18	6.317385	117963.9	-191843.3	1	225209.5	-58.41275	9.853343E-011	0.0488636	5
	53	18	5.008013	142371.6	-217738	1	260152.8	-56.82067	-2.842521E-010	0.0488592	5
	54	19	3.945707	170125.3	-246690.1	1	299664.2	-55.40862	-3.02663E-010	0.0488661	5
	55	20	3.158693	197329.4	-275530.5	1	338904.1	-54.39053	-9.458829E-011	0.04885	5
	56	21	2.504006	227609.7	-309972.5	1	384563.6	-53.71054	2.537999E-010	0.0488542	5
	57	22	1.998082	256986.3	-347993.9	1	432598.8	-53.5549	4.104386E-011	0.0488425	5
	58	24	1.584686	290014.7	-395723	1	490617.2	-53.76332	-7.644423E-011	0.0488174	5
	59	26	1.266892	322112.2	-451932.4	1	554976.8	-54.52085	-2.523439E-011	0.0488319	5
	60	29	0.999041	359152.8	-523602.1	1	634940.9	-55.55273	2.932959E-012	0.0488558	5
