EXPLAIN
TAG	EISPOT
TITLE	LABEL	Potentiostatic EIS	Test &Identifier
DATE	LABEL	6/1/2020	Date
TIME	LABEL	13:54:56	Time
NOTES	NOTES	1	&Notes...
	
PSTAT	PSTAT	REF600-11020	Potentiostat
VDC	POTEN	0.00000E+000	T	DC &Voltage (V)
FREQINIT	QUANT	1.00000E+006	Initial Fre&q. (Hz)
FREQFINAL	QUANT	1.00000E+000	Final Fre&q. (Hz)
PTSPERDEC	QUANT	1.00000E+001	Points/&decade
VAC	QUANT	2.50000E+001	AC &Voltage (mV rms)
AREA	QUANT	4.00000E-004	&Area (cm^2)
CONDIT	TWOPARAM	F	5.00000E+000	0.00000E+000	Conditionin&g	Time(s)	E(V)
DELAY	TWOPARAM	T	3.00000E+000	0.00000E+000	Init. De&lay	Time(s)	Stab.(mV/s)
SPEED	SELECTOR	0	&Optimize for:
ZGUESS	QUANT	1.00000E+003	E&stimated Z (ohms)
OCVCURVE	TABLE	12
	Pt	T	Vf	Vm	Ach	Over
	#	s	V vs. Ref.	V	V	bits
	0	0.258333	-1.37889E-002	-1.37889E-002	5.75263E-004	...........
	1	0.516667	-1.37881E-002	-1.37467E-002	5.73530E-004	...........
	2	0.775	-1.37831E-002	-1.37051E-002	5.77897E-004	...........
	3	1.03333	-1.37690E-002	-1.36679E-002	5.77730E-004	...........
	4	1.29167	-1.37438E-002	-1.36351E-002	5.76963E-004	...........
	5	1.55	-1.37107E-002	-1.36047E-002	5.76730E-004	...........
	6	1.80833	-1.36751E-002	-1.35709E-002	5.76063E-004	...........
	7	2.06667	-1.36401E-002	-1.35402E-002	5.76397E-004	...........
	8	2.325	-1.36066E-002	-1.35115E-002	5.76297E-004	...........
	9	2.58333	-1.35747E-002	-1.34871E-002	5.74830E-004	...........
	10	2.84167	-1.35443E-002	-1.34577E-002	5.77030E-004	...........
	11	3.1	-1.35156E-002	-1.34356E-002	5.75530E-004	...........
EOC	QUANT	-0.0135156	Open Circuit (V)
PSTATMODEL	IQUANT	4	Pstat Model
PSTATSECTION	LABEL	REF600-11020	Pstat Section
PSTATSERIALNO	LABEL	11020	Pstat Serial Number
CTRLMODE	IQUANT	1	Control Mode
IESTAB	IQUANT	0	I/E Stability
CASPEED	IQUANT	1	Control Amp Speed
CONVENTION	IQUANT	1	Current Convention
ICHRANGE	IQUANT	2	Ich Range
ICHRANGEMODE	TOGGLE	F	Ich Auto Range
ICHOFFSETENABLE	TOGGLE	T	Ich Offset Enable
ICHOFFSET	QUANT	0	Ich Offset (V)
ICHFILTER	IQUANT	3	Ich Filter
VCHRANGE	IQUANT	2	Vch Range
VCHRANGEMODE	TOGGLE	F	Vch Auto Range
VCHOFFSETENABLE	TOGGLE	T	Vch Offset Enable
VCHOFFSET	QUANT	0	Vch Offset (V)
VCHFILTER	IQUANT	3	Vch Filter
ACHRANGE	IQUANT	2	Ach Range
ACHOFFSETENABLE	TOGGLE	F	Ach Offset Enable
ACHOFFSET	QUANT	0	Ach Offset (V)
ACHFILTER	IQUANT	3	Ach Filter
IERANGELOWERLIMIT	IQUANT	1	I/E Range Lower Limit
IERANGEMODE	TOGGLE	F	I/E AutoRange
IERANGE	IQUANT	7	I/E Range
POSFEEDENABLE	TOGGLE	F	Positive Feedback IR Comp
POSFEEDRESISTANCE	QUANT	0	Positive Feedback Resistance (ohm)
ACHSELECT	IQUANT	0	Ach Select
CABLEID	IQUANT	14	Cable ID
DCCALDATE	LABEL	2/27/2020	DC Calibration Date
ACCALDATE	LABEL	2/27/2020	AC Calibration Date
THERMOSELECT	IQUANT	1	Thermo Select
FRAMEWORKVERSION	QUANT	6.33	Framework Version
INSTRUMENTVERSION	LABEL	3.50	Instrument Version
ZCURVE	TABLE
	Pt	Time	Freq	Zreal	Zimag	Zsig	Zmod	Zphz	Idc	Vdc	IERange
	#	s	Hz	ohm	ohm	V	ohm	°	A	V	#
	0	1	1000078	1881.812	-1286.067	1	2279.294	-34.34946	-5.721923E-009	-0.0110797	8
	1	2	794390.6	2093.485	-1290.638	1	2459.355	-31.65392	3.997872E-008	-0.0114358	8
	2	2	630984.4	2292.474	-1285.274	1	2628.187	-29.27714	7.285755E-008	-0.01162	8
	3	2	501234.4	2476.559	-1278.541	1	2787.115	-27.30536	3.861119E-008	-0.0117219	8
	4	3	398109.4	2645.468	-1282.905	1	2940.127	-25.87081	3.964943E-008	-0.0117967	8
	5	3	316265.6	2807.564	-1298.81	1	3093.432	-24.82578	3.930683E-008	-0.0118327	8
	6	3	251203.1	2966.018	-1329.239	1	3250.252	-24.13982	3.886691E-008	-0.011829	8
	7	4	199546.9	3132.98	-1383.206	1	3424.737	-23.82139	5.821413E-008	-0.0118437	8
	8	4	158578.1	3307.567	-1453.45	1	3612.827	-23.72221	8.919568E-008	-0.0118779	8
	9	4	125953.1	3542.668	-1496.985	1	3845.967	-22.90691	2.02411E-009	-0.0118899	7
	10	5	100078.1	3744.323	-1596.449	1	4070.455	-23.09171	3.066997E-009	-0.0119146	7
	11	5	79453.13	3983.181	-1713.158	1	4335.97	-23.27244	1.208921E-009	-0.0119211	7
	12	5	63140.62	4247.252	-1825.842	1	4623.079	-23.26228	2.076252E-009	-0.0119271	7
	13	6	50203.12	4532.918	-1928.441	1	4926.077	-23.04637	1.970027E-009	-0.0119254	7
	14	6	39890.62	4836.805	-2021.609	1	5242.288	-22.68315	2.621698E-009	-0.0119313	7
	15	6	31640.63	5152.835	-2103.623	1	5565.693	-22.20753	2.402986E-009	-0.0119295	7
	16	7	25171.88	5468.2	-2175.663	1	5885.127	-21.6964	1.812276E-009	-0.0119267	7
	17	7	20015.62	5784.905	-2246.066	1	6205.638	-21.21937	2.3358E-009	-0.01193	7
	18	7	15890.62	6102.408	-2320.425	1	6528.687	-20.81918	4.292575E-009	-0.0119259	7
	19	7	12609.37	6419.109	-2405.885	1	6855.162	-20.54602	3.177564E-009	-0.0119289	7
	20	8	10078.13	6724.207	-2504.337	1	7175.42	-20.42715	2.48795E-009	-0.0119378	7
	21	8	8015.625	7045.167	-2629.809	1	7519.992	-20.46952	2.970046E-009	-0.011937	7
	22	8	6328.125	7394.299	-2787.063	1	7902.112	-20.65246	2.526236E-009	-0.0119358	7
	23	9	5015.625	7756.774	-2966.077	1	8304.526	-20.92612	2.69783E-009	-0.011945	7
	24	9	3984.375	8145.608	-3171.089	1	8741.095	-21.27099	3.800641E-009	-0.01194	7
	25	9	3170.956	8563.729	-3353.287	1	9196.847	-21.38375	5.461605E-010	-0.0118852	6
	26	10	2527.573	8968.939	-3593.956	1	9662.21	-21.83653	5.503669E-010	-0.0118821	6
	27	10	1976.103	9410.563	-3890.635	1	10183.11	-22.4618	5.133307E-010	-0.0118899	6
	28	10	1577.524	9803.68	-4215	1	10671.38	-23.26483	-1.980164E-010	-0.011894	6
	29	11	1265.625	10179.01	-4609.246	1	11173.96	-24.3619	-3.559975E-010	-0.0118957	6
	30	11	998.264	10582.37	-5149.922	1	11768.95	-25.94992	2.552319E-012	-0.0118894	6
	31	11	796.875	10971.47	-5807.818	1	12413.86	-27.89479	5.44928E-012	-0.0118902	6
	32	12	627.7902	11398.26	-6686.415	1	13214.71	-30.39661	2.435465E-010	-0.0118856	6
	33	12	505.5147	11824.95	-7684.094	1	14102.3	-33.01663	-4.549577E-011	-0.0118943	6
	34	12	397.9953	12360.07	-9050.414	1	15319.32	-36.2127	2.135007E-010	-0.0118741	6
	35	13	315.5048	12948.98	-10688.8	1	16790.67	-39.53815	1.684881E-010	-0.0118759	6
	36	13	252.4038	13600.64	-12616.41	1	18551.31	-42.85002	7.386285E-011	-0.0118783	6
	37	13	198.6229	14417.07	-15155.04	1	20917.16	-46.42952	1.644534E-011	-0.0118805	6
	38	14	158.3615	15338.64	-18098.88	1	23724.32	-49.71902	7.583169E-011	-0.0118806	6
	39	14	125.558	16490.81	-21786.07	1	27323.61	-52.87637	2.420241E-010	-0.0118805	6
	40	14	100.4464	17857.19	-26091.21	1	31616.93	-55.61172	3.107084E-010	-0.0118832	6
	41	15	79.00281	19726.67	-31729.45	1	37361.74	-58.13018	-2.832985E-011	-0.0118857	6
	42	15	63.3446	21907.11	-37988.64	1	43852.69	-60.02902	8.053356E-011	-0.0118867	6
	43	15	49.86702	24938.05	-46140.15	1	52448.26	-61.60945	2.035972E-011	-0.0118913	6
	44	16	39.72458	28667.05	-55403.94	1	62381.05	-62.64209	1.406831E-010	-0.0118881	6
	45	16	31.6723	33436.02	-66304.68	1	74258.19	-63.23917	1.95906E-010	-0.0118889	6
	46	16	24.93351	39959.7	-79848.44	1	89289.14	-63.41459	-1.993533E-010	-0.0118896	6
	47	17	19.86229	47875.52	-94787.28	1	106191.8	-63.2024	-1.524692E-009	-0.0118926	5
	48	17	15.83615	57905.75	-111818.2	1	125922.1	-62.62234	8.239087E-010	-0.0118855	5
	49	17	12.40079	71630.22	-132624.8	1	150732.3	-61.62666	-3.187668E-010	-0.0118866	5
	50	17	9.93114	86958.4	-153811.6	1	176691.1	-60.51806	2.249381E-010	-0.0118882	5
	51	18	7.944915	105197.2	-176823.8	1	205750.1	-59.25046	1.21678E-009	-0.0118885	5
	52	18	6.317385	127896.5	-203116.9	1	240029.2	-57.80263	-4.514543E-010	-0.0118651	5
	53	19	5.008013	154763.3	-231809	1	278724.1	-56.27163	-4.191008E-010	-0.0118824	5
	54	20	3.945707	185887.5	-263022.2	1	322078.9	-54.74974	3.170116E-010	-0.0118887	5
	55	21	3.158693	219419.3	-294561.2	1	367302.5	-53.31749	-2.723408E-010	-0.0118802	5
	56	22	2.504006	257299.8	-330044.1	1	418488.1	-52.0603	-2.258231E-010	-0.0118854	5
	57	23	1.998082	298254.4	-366866.7	1	472807.4	-50.88966	1.244407E-010	-0.0118475	5
	58	25	1.584686	342667.6	-409792.2	1	534182.3	-50.09768	9.195982E-011	-0.0118662	5
	59	27	1.266892	389425.4	-454429.1	1	598463	-49.4049	2.635347E-011	-0.0119069	5
	60	29	0.999041	443747.8	-508685	1	675035.2	-48.90041	-3.79028E-011	-0.0119272	5
