EXPLAIN
TAG	EISPOT
TITLE	LABEL	Potentiostatic EIS	Test &Identifier
DATE	LABEL	3/9/2020	Date
TIME	LABEL	20:33:41	Time
NOTES	NOTES	1	&Notes...
	
PSTAT	PSTAT	REF600-11020	Potentiostat
VDC	POTEN	0.00000E+000	T	DC &Voltage (V)
FREQINIT	QUANT	1.00000E+006	Initial Fre&q. (Hz)
FREQFINAL	QUANT	1.00000E+000	Final Fre&q. (Hz)
PTSPERDEC	QUANT	1.00000E+001	Points/&decade
VAC	QUANT	2.50000E+001	AC &Voltage (mV rms)
AREA	QUANT	4.00000E-005	&Area (cm^2)
CONDIT	TWOPARAM	F	5.00000E+000	0.00000E+000	Conditionin&g	Time(s)	E(V)
DELAY	TWOPARAM	T	5.00000E+000	0.00000E+000	Init. De&lay	Time(s)	Stab.(mV/s)
SPEED	SELECTOR	0	&Optimize for:
ZGUESS	QUANT	1.00000E+003	E&stimated Z (ohms)
OCVCURVE	TABLE	19
	Pt	T	Vf	Vm	Ach	Over
	#	s	V vs. Ref.	V	V	bits
	0	0.258333	3.66039E-002	3.66039E-002	5.81997E-004	...........
	1	0.516667	3.66044E-002	3.66285E-002	5.81530E-004	...........
	2	0.775	3.66073E-002	3.66520E-002	5.83730E-004	...........
	3	1.03333	3.66155E-002	3.66749E-002	5.81330E-004	...........
	4	1.29167	3.66302E-002	3.66987E-002	5.86163E-004	...........
	5	1.55	3.66501E-002	3.67206E-002	5.82730E-004	...........
	6	1.80833	3.66725E-002	3.67425E-002	5.85697E-004	...........
	7	2.06667	3.66956E-002	3.67639E-002	5.84930E-004	...........
	8	2.325	3.67183E-002	3.67871E-002	5.85697E-004	...........
	9	2.58333	3.67407E-002	3.68101E-002	5.83397E-004	...........
	10	2.84167	3.67630E-002	3.68301E-002	5.83463E-004	...........
	11	3.1	3.67851E-002	3.68506E-002	5.85130E-004	...........
	12	3.35833	3.68070E-002	3.68715E-002	5.81897E-004	...........
	13	3.61667	3.68283E-002	3.68945E-002	5.80863E-004	...........
	14	3.875	3.68495E-002	3.69146E-002	5.80197E-004	...........
	15	4.13333	3.68706E-002	3.69369E-002	5.81863E-004	...........
	16	4.39167	3.68920E-002	3.69602E-002	5.80397E-004	...........
	17	4.65	3.69136E-002	3.69781E-002	5.78997E-004	...........
	18	4.90833	3.69352E-002	3.69987E-002	5.81097E-004	...........
EOC	QUANT	0.0369352	Open Circuit (V)
PSTATMODEL	IQUANT	4	Pstat Model
PSTATSECTION	LABEL	REF600-11020	Pstat Section
PSTATSERIALNO	LABEL	11020	Pstat Serial Number
CTRLMODE	IQUANT	1	Control Mode
IESTAB	IQUANT	0	I/E Stability
CASPEED	IQUANT	1	Control Amp Speed
CONVENTION	IQUANT	1	Current Convention
ICHRANGE	IQUANT	2	Ich Range
ICHRANGEMODE	TOGGLE	F	Ich Auto Range
ICHOFFSETENABLE	TOGGLE	T	Ich Offset Enable
ICHOFFSET	QUANT	0	Ich Offset (V)
ICHFILTER	IQUANT	3	Ich Filter
VCHRANGE	IQUANT	2	Vch Range
VCHRANGEMODE	TOGGLE	F	Vch Auto Range
VCHOFFSETENABLE	TOGGLE	T	Vch Offset Enable
VCHOFFSET	QUANT	0	Vch Offset (V)
VCHFILTER	IQUANT	3	Vch Filter
ACHRANGE	IQUANT	2	Ach Range
ACHOFFSETENABLE	TOGGLE	F	Ach Offset Enable
ACHOFFSET	QUANT	0	Ach Offset (V)
ACHFILTER	IQUANT	3	Ach Filter
IERANGELOWERLIMIT	IQUANT	1	I/E Range Lower Limit
IERANGEMODE	TOGGLE	F	I/E AutoRange
IERANGE	IQUANT	7	I/E Range
POSFEEDENABLE	TOGGLE	F	Positive Feedback IR Comp
POSFEEDRESISTANCE	QUANT	0	Positive Feedback Resistance (ohm)
ACHSELECT	IQUANT	0	Ach Select
CABLEID	IQUANT	14	Cable ID
DCCALDATE	LABEL	2/27/2020	DC Calibration Date
ACCALDATE	LABEL	2/27/2020	AC Calibration Date
THERMOSELECT	IQUANT	1	Thermo Select
FRAMEWORKVERSION	QUANT	6.33	Framework Version
INSTRUMENTVERSION	LABEL	3.50	Instrument Version
ZCURVE	TABLE
	Pt	Time	Freq	Zreal	Zimag	Zsig	Zmod	Zphz	Idc	Vdc	IERange
	#	s	Hz	ohm	ohm	V	ohm	°	A	V	#
	0	1	1000078	2012.627	-1873.417	1	2749.611	-42.94836	7.904052E-009	0.0394415	8
	1	1	794390.6	2381.948	-1949.22	1	3077.846	-39.2945	1.298861E-007	0.0390297	8
	2	1	630984.4	2774.437	-1976.245	1	3406.324	-35.46245	7.360295E-009	0.0388528	8
	3	2	501234.4	3151.82	-1935.478	1	3698.654	-31.55336	5.761444E-008	0.0387638	8
	4	2	398109.4	3507.306	-1853.894	1	3967.13	-27.86006	5.450571E-008	0.0387107	8
	5	2	316265.6	3823.311	-1739.303	1	4200.343	-24.46176	4.586126E-008	0.0386856	8
	6	3	251203.1	4102.217	-1598.37	1	4402.61	-21.28767	2.05236E-008	0.0387021	8
	7	3	199546.9	4323.454	-1452.533	1	4560.933	-18.5706	5.453173E-008	0.038709	8
	8	3	158578.1	4529.986	-1319.673	1	4718.295	-16.24187	4.271787E-008	0.0386176	8
	9	4	125953.1	4736.174	-1108.964	1	4864.272	-13.17826	-1.501364E-009	0.0385747	7
	10	4	100078.1	4847.306	-1007.875	1	4950.979	-11.74586	1.644996E-009	0.0385733	7
	11	4	79453.13	4956.293	-931.8953	1	5043.141	-10.64858	1.853978E-010	0.0385552	7
	12	5	63140.62	5051.977	-870.9332	1	5126.499	-9.78134	2.541925E-010	0.0385459	7
	13	5	50203.12	5139.402	-822.2474	1	5204.762	-9.089658	-6.443741E-010	0.0385472	7
	14	5	39890.62	5215.862	-805.7709	1	5277.734	-8.781899	2.673288E-009	0.0385519	7
	15	6	31640.63	5290.715	-799.7493	1	5350.819	-8.595805	1.495356E-010	0.038547	7
	16	6	25171.88	5364.719	-812.3223	1	5425.872	-8.610282	1.121567E-009	0.0385527	7
	17	6	20015.62	5440.286	-841.2565	1	5504.946	-8.790288	5.933729E-010	0.0385455	7
	18	6	15890.62	5516.919	-891.9851	1	5588.563	-9.184203	2.292408E-010	0.03855	7
	19	7	12609.37	5599.584	-962.398	1	5681.686	-9.75212	1.887304E-009	0.0385412	7
	20	7	10078.13	5685.158	-1055.063	1	5782.23	-10.51346	2.135768E-009	0.038537	7
	21	7	8015.625	5779.186	-1174.513	1	5897.328	-11.48785	1.677877E-009	0.0385365	7
	22	8	6328.125	5885.012	-1326.129	1	6032.577	-12.69892	2.435282E-009	0.0385423	7
	23	8	5015.625	6002.738	-1510.286	1	6189.817	-14.12247	2.503255E-009	0.038542	7
	24	8	3984.375	6132.847	-1729.613	1	6372.078	-15.74975	3.067871E-009	0.0385394	7
	25	9	3170.956	6277.946	-1992.613	1	6586.585	-17.60938	3.984404E-009	0.0385513	7
	26	9	2527.573	6439.173	-2304.214	1	6839.031	-19.6894	1.774265E-009	0.0385398	7
	27	9	1976.103	6636.454	-2712.291	1	7169.312	-22.22963	2.542339E-009	0.038544	7
	28	10	1577.524	6840.586	-3162.243	1	7536.139	-24.81	2.828469E-009	0.038545	7
	29	10	1265.625	7063.456	-3686.486	1	7967.596	-27.56049	3.332437E-009	0.0385449	7
	30	10	998.264	7333.324	-4367.409	1	8535.333	-30.77619	2.889682E-009	0.0385444	7
	31	11	796.875	7621.733	-5149.27	1	9198.142	-34.0431	1.850533E-009	0.0385373	7
	32	11	627.7902	7980.352	-6146.871	1	10073.23	-37.60528	-5.931827E-010	0.0385846	6
	33	11	505.5147	8344.38	-7254.527	1	11056.98	-41.0034	-6.557265E-010	0.0385873	6
	34	12	397.9953	8812.289	-8743.408	1	12413.85	-44.7752	4.109603E-010	0.0385993	6
	35	12	315.5048	9349.018	-10510.73	1	14066.97	-48.34774	4.075693E-010	0.0385989	6
	36	12	252.4038	9960.82	-12572.98	1	16040.5	-51.61232	3.924535E-010	0.0385942	6
	37	13	198.6229	10753.96	-15272.92	1	18679.12	-54.84988	3.336673E-010	0.0385964	6
	38	13	158.3615	11668.71	-18385.62	1	21775.89	-57.59813	3.740804E-010	0.0385927	6
	39	13	125.558	12823.38	-22259.71	1	25689.18	-60.05461	3.331661E-010	0.0386001	6
	40	14	100.4464	14205.28	-26775.21	1	30310.1	-62.05234	2.785594E-010	0.0385933	6
	41	14	79.00281	16085.42	-32674.43	1	36419.21	-63.78926	2.058182E-010	0.0385874	6
	42	14	63.3446	18296.15	-39236.43	1	43292.56	-65.00012	-1.635268E-011	0.0385918	6
	43	15	49.86702	21390.48	-47787.41	1	52356.37	-65.88588	5.508965E-010	0.0385846	6
	44	15	39.72458	25232.91	-57561.39	1	62849.13	-66.32903	2.864066E-010	0.0385921	6
	45	15	31.6723	30224.77	-69077.91	1	75400.89	-66.36841	2.255897E-011	0.0385919	6
	46	16	24.93351	37202.16	-83396.91	1	91318.37	-65.95904	7.911469E-010	0.038588	6
	47	16	19.86229	45899.1	-99093.8	1	109207.6	-65.14697	5.228091E-010	0.0385966	5
	48	16	15.83615	57047.28	-117017.3	1	130182.3	-64.01023	1.447211E-009	0.0385949	5
	49	16	12.40079	72461.48	-138547.7	1	156352.5	-62.39009	1.581303E-009	0.0385909	5
	50	17	9.93114	89872.95	-159489.5	1	183068.4	-60.59857	1.963167E-009	0.0385941	5
	51	17	7.944915	110536.2	-182532.8	1	213392.8	-58.80221	7.151679E-010	0.0385881	5
	52	18	6.317385	135747.8	-206937.6	1	247488.6	-56.73576	-2.639478E-010	0.0386043	5
	53	18	5.008013	164798.1	-232217.6	1	284751.5	-54.63778	2.461758E-010	0.038598	5
	54	19	3.945707	197645.1	-259555.6	1	326240.2	-52.71163	4.812087E-010	0.0385919	5
	55	20	3.158693	230340.4	-285143.3	1	366556.1	-51.06853	1.394273E-011	0.038604	5
	56	21	2.504006	266191.3	-314695.7	1	412178.6	-49.77315	-3.207527E-010	0.0385945	5
	57	22	1.998082	300540.5	-345065.6	1	457596.8	-48.94523	1.839401E-011	0.0386159	5
	58	24	1.584686	337481.7	-382912.8	1	510407.7	-48.60853	1.252151E-010	0.038637	5
	59	26	1.266892	371274.1	-426456.1	1	565428.4	-48.95706	4.528581E-011	0.0386065	5
	60	28	0.999041	407731.7	-482255.4	1	631518.3	-49.78654	6.642489E-012	0.0385716	5
