EXPLAIN
TAG	EISPOT
TITLE	LABEL	Potentiostatic EIS	Test &Identifier
DATE	LABEL	6/6/2020	Date
TIME	LABEL	13:42:04	Time
NOTES	NOTES	1	&Notes...
	
PSTAT	PSTAT	REF600-11020	Potentiostat
VDC	POTEN	0.00000E+000	T	DC &Voltage (V)
FREQINIT	QUANT	1.00000E+006	Initial Fre&q. (Hz)
FREQFINAL	QUANT	1.00000E+000	Final Fre&q. (Hz)
PTSPERDEC	QUANT	1.00000E+001	Points/&decade
VAC	QUANT	2.50000E+001	AC &Voltage (mV rms)
AREA	QUANT	2.50000E-001	&Area (cm^2)
CONDIT	TWOPARAM	F	5.00000E+000	0.00000E+000	Conditionin&g	Time(s)	E(V)
DELAY	TWOPARAM	T	3.00000E+000	0.00000E+000	Init. De&lay	Time(s)	Stab.(mV/s)
SPEED	SELECTOR	0	&Optimize for:
ZGUESS	QUANT	1.00000E+003	E&stimated Z (ohms)
OCVCURVE	TABLE	12
	Pt	T	Vf	Vm	Ach	Over
	#	s	V vs. Ref.	V	V	bits
	0	0.258333	7.04839E-002	7.04839E-002	5.76963E-004	...........
	1	0.516667	7.04840E-002	7.04893E-002	5.82097E-004	...........
	2	0.775	7.04847E-002	7.04950E-002	5.81497E-004	...........
	3	1.03333	7.04865E-002	7.05014E-002	5.79230E-004	...........
	4	1.29167	7.04900E-002	7.05077E-002	5.83163E-004	...........
	5	1.55	7.04950E-002	7.05164E-002	5.81697E-004	...........
	6	1.80833	7.05012E-002	7.05265E-002	5.78263E-004	...........
	7	2.06667	7.05084E-002	7.05331E-002	5.72930E-004	...........
	8	2.325	7.05163E-002	7.05417E-002	5.75797E-004	...........
	9	2.58333	7.05245E-002	7.05494E-002	5.80597E-004	...........
	10	2.84167	7.05328E-002	7.05575E-002	5.74863E-004	...........
	11	3.1	7.05408E-002	7.05646E-002	5.74530E-004	...........
EOC	QUANT	0.0705408	Open Circuit (V)
PSTATMODEL	IQUANT	4	Pstat Model
PSTATSECTION	LABEL	REF600-11020	Pstat Section
PSTATSERIALNO	LABEL	11020	Pstat Serial Number
CTRLMODE	IQUANT	1	Control Mode
IESTAB	IQUANT	0	I/E Stability
CASPEED	IQUANT	1	Control Amp Speed
CONVENTION	IQUANT	1	Current Convention
ICHRANGE	IQUANT	2	Ich Range
ICHRANGEMODE	TOGGLE	F	Ich Auto Range
ICHOFFSETENABLE	TOGGLE	T	Ich Offset Enable
ICHOFFSET	QUANT	0	Ich Offset (V)
ICHFILTER	IQUANT	3	Ich Filter
VCHRANGE	IQUANT	2	Vch Range
VCHRANGEMODE	TOGGLE	F	Vch Auto Range
VCHOFFSETENABLE	TOGGLE	T	Vch Offset Enable
VCHOFFSET	QUANT	0	Vch Offset (V)
VCHFILTER	IQUANT	3	Vch Filter
ACHRANGE	IQUANT	2	Ach Range
ACHOFFSETENABLE	TOGGLE	F	Ach Offset Enable
ACHOFFSET	QUANT	0	Ach Offset (V)
ACHFILTER	IQUANT	3	Ach Filter
IERANGELOWERLIMIT	IQUANT	1	I/E Range Lower Limit
IERANGEMODE	TOGGLE	F	I/E AutoRange
IERANGE	IQUANT	8	I/E Range
POSFEEDENABLE	TOGGLE	F	Positive Feedback IR Comp
POSFEEDRESISTANCE	QUANT	0	Positive Feedback Resistance (ohm)
ACHSELECT	IQUANT	0	Ach Select
CABLEID	IQUANT	14	Cable ID
DCCALDATE	LABEL	2/27/2020	DC Calibration Date
ACCALDATE	LABEL	2/27/2020	AC Calibration Date
THERMOSELECT	IQUANT	1	Thermo Select
FRAMEWORKVERSION	QUANT	6.33	Framework Version
INSTRUMENTVERSION	LABEL	3.50	Instrument Version
ZCURVE	TABLE
	Pt	Time	Freq	Zreal	Zimag	Zsig	Zmod	Zphz	Idc	Vdc	IERange
	#	s	Hz	ohm	ohm	V	ohm	°	A	V	#
	0	1	1000078	1760.562	-1875.448	1	2572.33	-46.80976	5.152171E-008	0.0729709	8
	1	1	794390.6	2067.616	-2065.787	1	2922.758	-44.97465	6.483066E-008	0.0726062	8
	2	2	630984.4	2427.367	-2243.769	1	3305.542	-42.74916	6.559443E-008	0.0724408	8
	3	2	501234.4	2836.15	-2399.495	1	3715.013	-40.23254	4.639061E-009	0.0723477	8
	4	2	398109.4	3292.13	-2517.563	1	4144.423	-37.40592	8.309269E-008	0.072254	8
	5	3	316265.6	3786.476	-2576.538	1	4579.951	-34.23364	4.017018E-008	0.0722437	8
	6	3	251203.1	4289.252	-2562.827	1	4996.575	-30.85831	1.023344E-007	0.0721898	8
	7	3	199546.9	4775	-2480.951	1	5381.054	-27.45507	4.907535E-008	0.0722089	8
	8	4	158578.1	5223.776	-2345.226	1	5726.074	-24.1778	5.588702E-008	0.072209	8
	9	4	125953.1	5670.114	-2071.933	1	6036.812	-20.07296	3.220509E-009	0.0721499	7
	10	4	100078.1	5962.928	-1877.939	1	6251.653	-17.48108	3.918623E-009	0.0721336	7
	11	5	79453.13	6225.032	-1697.851	1	6452.419	-15.2561	4.572621E-009	0.0721277	7
	12	5	63140.62	6433.923	-1525.499	1	6612.3	-13.33866	2.90424E-009	0.072119	7
	13	5	50203.12	6603.591	-1377.341	1	6745.701	-11.78154	3.30947E-009	0.072124	7
	14	5	39890.62	6746.144	-1255.474	1	6861.973	-10.54228	3.592792E-009	0.0721226	7
	15	6	31640.63	6869.843	-1160.021	1	6967.093	-9.58438	3.454509E-009	0.0721225	7
	16	6	25171.88	6978.152	-1091.006	1	7062.925	-8.886026	3.091016E-009	0.0721129	7
	17	6	20015.62	7076.441	-1049.22	1	7153.802	-8.433768	3.01645E-009	0.072114	7
	18	7	15890.62	7171.25	-1032.513	1	7245.199	-8.193113	4.360714E-009	0.0721174	7
	19	7	12609.37	7263.129	-1040.645	1	7337.301	-8.153717	4.041447E-009	0.072117	7
	20	7	10078.13	7353.485	-1072.532	1	7431.29	-8.298283	4.185055E-009	0.0721155	7
	21	8	8015.625	7443.505	-1128.629	1	7528.584	-8.621857	3.524204E-009	0.0721101	7
	22	8	6328.125	7543.687	-1216.318	1	7641.115	-9.159345	4.063176E-009	0.0721054	7
	23	8	5015.625	7647.926	-1335.206	1	7763.604	-9.90312	4.361492E-009	0.0721088	7
	24	9	3984.375	7754.355	-1485.23	1	7895.311	-10.84283	3.963154E-009	0.0721038	7
	25	9	3170.956	7868.951	-1675.53	1	8045.358	-12.02043	3.571541E-009	0.0721048	7
	26	9	2527.573	7990.586	-1913.452	1	8216.493	-13.46666	5.115965E-009	0.0721138	7
	27	10	1976.103	8136.585	-2234.983	1	8437.96	-15.35937	2.850362E-009	0.0720997	7
	28	10	1577.524	8281.336	-2599.615	1	8679.776	-17.42772	4.054424E-009	0.0721069	7
	29	10	1265.625	8444.922	-3037.702	1	8974.649	-19.78404	3.897203E-009	0.0721027	7
	30	11	998.264	8644.334	-3604.401	1	9365.693	-22.63452	-8.478984E-010	0.0721511	6
	31	11	796.875	8864.619	-4282.167	1	9844.72	-25.78346	-4.299158E-010	0.072156	6
	32	11	627.7902	9139.979	-5163.464	1	10497.65	-29.46348	-9.119923E-011	0.0721617	6
	33	12	505.5147	9440.941	-6135.14	1	11259.28	-33.01759	-1.019097E-010	0.0721671	6
	34	12	397.9953	9854.06	-7440.698	1	12347.73	-37.05608	5.84425E-010	0.0721748	6
	35	12	315.5048	10352.36	-8979.511	1	13704.12	-40.93797	6.164964E-010	0.0721712	6
	36	13	252.4038	10950.69	-10756.41	1	15349.85	-44.48722	5.223602E-010	0.0721719	6
	37	13	198.6229	11753.57	-13046	1	17559.74	-47.98327	5.965928E-010	0.0721749	6
	38	13	158.3615	12706.59	-15633.12	1	20145.77	-50.89581	3.901467E-010	0.0721721	6
	39	13	125.558	13915.12	-18779.35	1	23372.94	-53.46229	4.284805E-010	0.0721727	6
	40	14	100.4464	15343.49	-22356.76	1	27115.45	-55.53811	3.415198E-010	0.0721756	6
	41	14	79.00281	17224.52	-26914.78	1	31954.49	-57.38217	5.173186E-010	0.0721728	6
	42	14	63.3446	19329.76	-31870.18	1	37273.95	-58.76254	4.690274E-010	0.0721755	6
	43	15	49.86702	22096.08	-38216.18	1	44144.23	-59.96408	1.664808E-010	0.0721707	6
	44	15	39.72458	25292.31	-45346.39	1	51922.98	-60.84906	4.383848E-010	0.0721766	6
	45	16	31.6723	29147.66	-53712.04	1	61111.12	-61.51285	5.388342E-010	0.0721686	6
	46	16	24.93351	34114.83	-64134.76	1	72643.58	-61.99041	1.890707E-010	0.0721756	6
	47	16	19.86229	39900.21	-75815.04	1	85673.49	-62.2429	9.316024E-010	0.0721754	6
	48	16	15.83615	46953.34	-89398.14	1	100978.4	-62.29082	-4.378671E-010	0.0721747	6
	49	17	12.40079	56245.28	-106473	1	120416	-62.15435	-1.073322E-009	0.0721791	5
	50	17	9.93114	66597.74	-124340	1	141052.1	-61.82606	-1.095542E-009	0.0721732	5
	51	17	7.944915	78799.5	-145018.2	1	165044.3	-61.48138	-8.687353E-010	0.0721823	5
	52	18	6.317385	94133.59	-169115.1	1	193548.5	-60.89861	1.851317E-010	0.0721691	5
	53	19	5.008013	112716.2	-197121.1	1	227071.9	-60.23856	1.832848E-011	0.0721701	5
	54	20	3.945707	134920	-230008.3	1	266659.3	-59.60464	-3.511025E-010	0.0721708	5
	55	20	3.158693	159540.6	-264412.9	1	308816.2	-58.89419	6.220905E-011	0.0721588	5
	56	21	2.504006	189079.8	-305680.5	1	359432.5	-58.26097	2.25708E-010	0.0721665	5
	57	23	1.998082	222758	-350564.3	1	415351	-57.56702	-7.196296E-011	0.0721303	5
	58	24	1.584686	262484.3	-404561.3	1	482252.8	-57.024	-1.035254E-010	0.0721275	5
	59	26	1.266892	306958.9	-461969.2	1	554652.4	-56.39765	-3.370573E-011	0.0721644	5
	60	29	0.999041	363061.4	-530618.9	1	642938.6	-55.61918	1.253935E-011	0.072189	5
