EXPLAIN
TAG	EISPOT
TITLE	LABEL	Potentiostatic EIS	Test &Identifier
DATE	LABEL	1/7/2020	Date
TIME	LABEL	16:17:14	Time
NOTES	NOTES	5	&Notes...
	
	
	
	
	
PSTAT	PSTAT	REF600-11020	Potentiostat
VDC	POTEN	0.00000E+000	T	DC &Voltage (V)
FREQINIT	QUANT	1.00000E+006	Initial Fre&q. (Hz)
FREQFINAL	QUANT	1.00000E+000	Final Fre&q. (Hz)
PTSPERDEC	QUANT	1.00000E+001	Points/&decade
VAC	QUANT	2.50000E+001	AC &Voltage (mV rms)
AREA	QUANT	1.00000E-001	&Area (cm^2)
CONDIT	TWOPARAM	T	5.00000E+000	0.00000E+000	Conditionin&g	Time(s)	E(V)
DELAY	TWOPARAM	T	5.00000E+000	0.00000E+000	Init. De&lay	Time(s)	Stab.(mV/s)
SPEED	SELECTOR	0	&Optimize for:
ZGUESS	QUANT	1.00000E+003	E&stimated Z (ohms)
OCVCURVE	TABLE	19
	Pt	T	Vf	Vm	Ach	Over
	#	s	V vs. Ref.	V	V	bits
	0	0.258333	4.22315E-003	4.22315E-003	6.39280E-004	...........
	1	0.516667	4.21835E-003	3.97169E-003	6.46280E-004	...........
	2	0.775	4.19049E-003	3.81911E-003	6.48280E-004	...........
	3	1.03333	4.11771E-003	3.70321E-003	6.43680E-004	...........
	4	1.29167	3.99984E-003	3.55356E-003	6.45846E-004	...........
	5	1.55	3.85956E-003	3.48685E-003	6.46813E-004	...........
	6	1.80833	3.72071E-003	3.36759E-003	6.43613E-004	...........
	7	2.06667	3.59524E-003	3.27112E-003	6.40913E-004	...........
	8	2.325	3.48374E-003	3.20126E-003	6.41513E-004	...........
	9	2.58333	3.38270E-003	3.10981E-003	6.46246E-004	...........
	10	2.84167	3.29037E-003	3.06455E-003	6.45513E-004	...........
	11	3.1	3.20746E-003	3.02812E-003	6.47680E-004	...........
	12	3.35833	3.13579E-003	2.95531E-003	6.43713E-004	...........
	13	3.61667	3.07430E-003	2.89764E-003	6.47813E-004	...........
	14	3.875	3.01784E-003	2.85065E-003	6.47746E-004	...........
	15	4.13333	2.96241E-003	2.80119E-003	6.52013E-004	...........
	16	4.39167	2.90822E-003	2.76489E-003	6.49580E-004	...........
	17	4.65	2.85590E-003	2.65382E-003	6.43146E-004	...........
	18	4.90833	2.80265E-003	2.63453E-003	6.44213E-004	...........
EOC	QUANT	0.0028027	Open Circuit (V)
PSTATMODEL	IQUANT	4	Pstat Model
PSTATSECTION	LABEL	REF600-11020	Pstat Section
PSTATSERIALNO	LABEL	11020	Pstat Serial Number
CTRLMODE	IQUANT	1	Control Mode
IESTAB	IQUANT	0	I/E Stability
CASPEED	IQUANT	1	Control Amp Speed
CONVENTION	IQUANT	1	Current Convention
ICHRANGE	IQUANT	2	Ich Range
ICHRANGEMODE	TOGGLE	F	Ich Auto Range
ICHOFFSETENABLE	TOGGLE	T	Ich Offset Enable
ICHOFFSET	QUANT	0	Ich Offset (V)
ICHFILTER	IQUANT	3	Ich Filter
VCHRANGE	IQUANT	2	Vch Range
VCHRANGEMODE	TOGGLE	F	Vch Auto Range
VCHOFFSETENABLE	TOGGLE	T	Vch Offset Enable
VCHOFFSET	QUANT	0	Vch Offset (V)
VCHFILTER	IQUANT	3	Vch Filter
ACHRANGE	IQUANT	2	Ach Range
ACHOFFSETENABLE	TOGGLE	F	Ach Offset Enable
ACHOFFSET	QUANT	0	Ach Offset (V)
ACHFILTER	IQUANT	3	Ach Filter
IERANGELOWERLIMIT	IQUANT	1	I/E Range Lower Limit
IERANGEMODE	TOGGLE	F	I/E AutoRange
IERANGE	IQUANT	6	I/E Range
POSFEEDENABLE	TOGGLE	F	Positive Feedback IR Comp
POSFEEDRESISTANCE	QUANT	0	Positive Feedback Resistance (ohm)
ACHSELECT	IQUANT	0	Ach Select
CABLEID	IQUANT	14	Cable ID
DCCALDATE	LABEL	12/22/2019	DC Calibration Date
ACCALDATE	LABEL	12/22/2019	AC Calibration Date
THERMOSELECT	IQUANT	1	Thermo Select
FRAMEWORKVERSION	QUANT	6.33	Framework Version
INSTRUMENTVERSION	LABEL	3.50	Instrument Version
ZCURVE	TABLE
	Pt	Time	Freq	Zreal	Zimag	Zsig	Zmod	Zphz	Idc	Vdc	IERange
	#	s	Hz	ohm	ohm	V	ohm	°	A	V	#
	0	1	1000078	2146.493	-1700.289	1	2738.324	-38.38359	-5.148154E-006	0.0056442	8
	1	2	794390.6	2482.626	-1709.794	1	3014.436	-34.55533	-1.965605E-006	0.0052746	8
	2	2	630984.4	2812.709	-1673.031	1	3272.669	-30.74466	4.243383E-006	0.0035861	8
	3	2	501234.4	3107.692	-1573.592	1	3483.38	-26.85555	7.113228E-006	0.0029108	8
	4	3	398109.4	3395.095	-1517.206	1	3718.681	-24.07899	4.692375E-006	0.0031555	8
	5	3	316265.6	3628.357	-1402.954	1	3890.148	-21.13968	-1.41778E-006	0.0047998	8
	6	3	251203.1	3859.714	-1276.865	1	4065.437	-18.30517	3.279913E-006	0.0035514	8
	7	4	199546.9	4021.179	-1159.181	1	4184.923	-16.08063	-1.76038E-006	0.0046695	8
	8	4	158578.1	4177.446	-1020.415	1	4300.268	-13.72671	1.225619E-006	0.0041226	8
	9	4	125953.1	4319.687	-846.7542	1	4401.896	-11.09062	-3.198642E-008	0.0040092	7
	10	5	100078.1	4409.876	-750.8844	1	4473.348	-9.66327	-2.913909E-010	0.0042779	7
	11	5	79453.13	4486.875	-677.3619	1	4537.716	-8.584843	-7.68065E-008	0.0044183	7
	12	5	63140.62	4550.818	-620.0004	1	4592.858	-7.758173	6.011371E-008	0.0042409	7
	13	5	50203.12	4608.952	-575.8637	1	4644.788	-7.121892	-5.650061E-008	0.004423	7
	14	6	39890.62	4657.645	-547.6447	1	4689.73	-6.706032	-2.85737E-009	0.0042664	7
	15	6	31640.63	4704.349	-532.892	1	4734.435	-6.462714	-3.219886E-008	0.0042815	7
	16	6	25171.88	4749.082	-531.2531	1	4778.704	-6.38282	1.161651E-007	0.0041131	7
	17	7	20015.62	4793.268	-544.6253	1	4824.11	-6.482316	-3.432728E-008	0.0042759	7
	18	7	15890.62	4839.411	-568.4224	1	4872.679	-6.699092	6.126077E-008	0.0041104	7
	19	7	12609.37	4889.449	-610.4927	1	4927.415	-7.117073	1.362926E-008	0.0044383	7
	20	8	10078.13	4944.42	-663.7231	1	4988.769	-7.645498	2.115528E-008	0.0041882	7
	21	8	8015.625	4990.165	-736.221	1	5044.181	-8.392557	-7.773475E-008	0.0044062	7
	22	8	6328.125	5048.61	-830.0743	1	5116.394	-9.33683	2.066756E-009	0.0043542	7
	23	9	5015.625	5111.326	-949.0535	1	5198.688	-10.5187	-7.663146E-008	0.0044068	7
	24	9	3984.375	5177.51	-1094.089	1	5291.846	-11.93195	-4.121571E-008	0.0044157	7
	25	9	3170.956	5248.255	-1272.844	1	5400.399	-13.63256	1.170949E-007	0.00411	7
	26	10	2527.573	5327.18	-1490.6	1	5531.793	-15.63217	-5.668969E-008	0.0044187	7
	27	10	1976.103	5421.29	-1787.389	1	5708.34	-18.24729	1.507479E-008	0.0044384	7
	28	10	1577.524	5521.633	-2117.352	1	5913.68	-20.98006	-8.953478E-008	0.004447	7
	29	11	1265.625	5636.132	-2518.117	1	6173.078	-24.07419	1.070099E-007	0.0040899	7
	30	11	998.264	5782.626	-3042.165	1	6534.029	-27.74828	1.996256E-009	0.0043532	7
	31	11	796.875	5949.365	-3647.591	1	6978.529	-31.51271	6.265163E-008	0.0041053	7
	32	12	627.7902	6154.369	-4432.741	1	7584.553	-35.76367	-1.572873E-008	0.0043458	7
	33	12	505.5147	6379.011	-5296.44	1	8291.204	-39.70257	-1.753664E-008	0.0043475	7
	34	12	397.9953	6666.216	-6445.767	1	9272.883	-44.03679	6.604645E-009	0.004302	7
	35	12	315.5048	6999.649	-7815.876	1	10492.04	-48.15339	5.228872E-010	0.0043111	6
	36	13	252.4038	7370.512	-9423.197	1	11963.32	-51.96866	3.389969E-010	0.004308	6
	37	13	198.6229	7839.085	-11543.33	1	13953.48	-55.81954	6.071859E-010	0.0043057	6
	38	13	158.3615	8370.124	-14015.3	1	16324.45	-59.15379	7.74579E-010	0.0043023	6
	39	14	125.558	9029.467	-17126.72	1	19361.19	-62.20112	8.737631E-010	0.0043044	6
	40	14	100.4464	9828.83	-20800.47	1	23005.77	-64.70791	1.195604E-009	0.0043041	6
	41	14	79.00281	10892.18	-25700.96	1	27913.77	-67.03255	9.505997E-010	0.0043043	6
	42	15	63.3446	12075.87	-30993.15	1	33262.62	-68.7126	6.810351E-010	0.0043058	6
	43	15	49.86702	13959.31	-38302.18	1	40766.64	-69.97562	9.838134E-010	0.004303	6
	44	16	39.72458	16230.7	-46848	1	49579.94	-70.89113	4.620729E-010	0.0043083	6
	45	16	31.6723	19169.96	-57184.27	1	60311.93	-71.46723	4.109334E-010	0.0043032	6
	46	16	24.93351	23469.84	-70063.91	1	73890.36	-71.48031	4.35762E-010	0.0043063	6
	47	16	19.86229	28757.15	-84807.2	1	89550.18	-71.26879	-4.666671E-010	0.0043043	6
	48	17	15.83615	35129.48	-102444.4	1	108300.2	-71.07251	-5.052384E-011	0.0043006	5
	49	17	12.40079	45897.9	-124675.4	1	132855.5	-69.78936	8.178108E-010	0.0042994	5
	50	17	9.93114	57515.43	-148146.8	1	158919.8	-68.78215	5.165808E-010	0.0042969	5
	51	18	7.944915	72231.85	-174832.1	1	189165.8	-67.55204	-4.687479E-010	0.0043068	5
	52	18	6.317385	91698.09	-205745.2	1	225254.6	-65.97806	-2.809831E-010	0.0043153	5
	53	19	5.008013	115854	-241189.4	1	267571.4	-64.34296	1.503317E-010	0.0043078	5
	54	20	3.945707	145876.8	-280951.8	1	316565.9	-62.5606	8.391791E-011	0.0042944	5
	55	22	3.158693	179132	-322596.3	1	368994.1	-60.95736	2.806026E-010	0.0042898	5
	56	23	2.504006	218929.8	-369237.3	1	429262.7	-59.33526	2.733125E-010	0.0042996	5
	57	25	1.998082	262976.5	-418260.7	1	494063.4	-57.84085	1.658185E-011	0.004249	5
	58	26	1.584686	311561.2	-474858.2	1	567944.3	-56.73056	9.119876E-011	0.0042611	5
	59	28	1.266892	364063.9	-534265.2	1	646515.1	-55.72834	1.837648E-010	0.0043004	5
	60	31	0.999041	429030	-608209.5	1	744302	-54.80092	1.234748E-010	0.0043241	5
