EXPLAIN
TAG	EISPOT
TITLE	LABEL	Potentiostatic EIS	Test &Identifier
DATE	LABEL	7/30/2020	Date
TIME	LABEL	22:44:44	Time
NOTES	NOTES	1	&Notes...
	
PSTAT	PSTAT	REF600-11020	Potentiostat
VDC	POTEN	0.00000E+000	T	DC &Voltage (V)
FREQINIT	QUANT	1.00000E+006	Initial Fre&q. (Hz)
FREQFINAL	QUANT	1.00000E+000	Final Fre&q. (Hz)
PTSPERDEC	QUANT	1.00000E+001	Points/&decade
VAC	QUANT	2.50000E+001	AC &Voltage (mV rms)
AREA	QUANT	4.00000E-005	&Area (cm^2)
CONDIT	TWOPARAM	F	5.00000E+000	0.00000E+000	Conditionin&g	Time(s)	E(V)
DELAY	TWOPARAM	F	3.00000E+000	0.00000E+000	Init. De&lay	Time(s)	Stab.(mV/s)
SPEED	SELECTOR	0	&Optimize for:
ZGUESS	QUANT	1.00000E+003	E&stimated Z (ohms)
OCVCURVE	TABLE	39
	Pt	T	Vf	Vm	Ach	Over
	#	s	V vs. Ref.	V	V	bits
	0	0.258333	-6.34220E-002	-6.34220E-002	5.18450E-004	...........
	1	0.516667	-6.34221E-002	-6.34238E-002	5.17450E-004	...........
	2	0.775	-6.34223E-002	-6.34268E-002	5.15983E-004	...........
	3	1.03333	-6.34231E-002	-6.34302E-002	5.17650E-004	...........
	4	1.29167	-6.34246E-002	-6.34307E-002	5.18450E-004	...........
	5	1.55	-6.34268E-002	-6.34420E-002	5.14583E-004	...........
	6	1.80833	-6.34303E-002	-6.34619E-002	5.12550E-004	...........
	7	2.06667	-6.34364E-002	-6.34766E-002	5.13850E-004	...........
	8	2.325	-6.34460E-002	-6.34763E-002	5.13417E-004	...........
	9	2.58333	-6.34586E-002	-6.35355E-002	5.19183E-004	...........
	10	2.84167	-6.34740E-002	-6.35186E-002	5.19150E-004	...........
	11	3.1	-6.34914E-002	-6.35134E-002	5.16450E-004	...........
	12	3.35833	-6.35062E-002	-6.35100E-002	5.20950E-004	...........
	13	3.61667	-6.35139E-002	-6.35077E-002	5.19083E-004	...........
	14	3.875	-6.35147E-002	-6.35055E-002	5.13517E-004	...........
	15	4.13333	-6.35123E-002	-6.35056E-002	5.11117E-004	...........
	16	4.39167	-6.35092E-002	-6.35009E-002	5.16317E-004	...........
	17	4.65	-6.35065E-002	-6.34998E-002	5.16817E-004	...........
	18	4.90833	-6.35042E-002	-6.34995E-002	5.17050E-004	...........
	19	5.16667	-6.35022E-002	-6.34990E-002	5.16017E-004	...........
	20	5.425	-6.35006E-002	-6.34954E-002	5.14650E-004	...........
	21	5.68333	-6.34992E-002	-6.34926E-002	5.17183E-004	...........
	22	5.94167	-6.34976E-002	-6.34898E-002	5.19883E-004	...........
	23	6.2	-6.34954E-002	-6.34849E-002	5.12783E-004	...........
	24	6.45833	-6.34937E-002	-6.35348E-002	5.12050E-004	...........
	25	6.71667	-6.34953E-002	-6.35119E-002	5.15850E-004	...........
	26	6.975	-6.35014E-002	-6.35068E-002	5.11683E-004	...........
	27	7.23333	-6.35081E-002	-6.35017E-002	5.17483E-004	...........
	28	7.49167	-6.35104E-002	-6.34942E-002	5.12250E-004	...........
	29	7.75	-6.35078E-002	-6.34907E-002	5.18950E-004	...........
	30	8.00833	-6.35025E-002	-6.34879E-002	5.08617E-004	...........
	31	8.26667	-6.34969E-002	-6.34842E-002	5.14783E-004	...........
	32	8.525	-6.34937E-002	-6.35670E-002	5.17183E-004	...........
	33	8.78333	-6.34975E-002	-6.35274E-002	5.17183E-004	...........
	34	9.04167	-6.35093E-002	-6.35207E-002	5.08250E-004	...........
	35	9.3	-6.35215E-002	-6.35181E-002	5.13283E-004	...........
	36	9.5583	-6.35268E-002	-6.35165E-002	5.17217E-004	...........
	37	9.8167	-6.35253E-002	-6.35144E-002	5.13217E-004	...........
	38	10.075	-6.35217E-002	-6.35339E-002	5.17683E-004	...........
EOC	QUANT	-0.0635217	Open Circuit (V)
PSTATMODEL	IQUANT	4	Pstat Model
PSTATSECTION	LABEL	REF600-11020	Pstat Section
PSTATSERIALNO	LABEL	11020	Pstat Serial Number
CTRLMODE	IQUANT	1	Control Mode
IESTAB	IQUANT	0	I/E Stability
CASPEED	IQUANT	1	Control Amp Speed
CONVENTION	IQUANT	1	Current Convention
ICHRANGE	IQUANT	2	Ich Range
ICHRANGEMODE	TOGGLE	F	Ich Auto Range
ICHOFFSETENABLE	TOGGLE	T	Ich Offset Enable
ICHOFFSET	QUANT	0	Ich Offset (V)
ICHFILTER	IQUANT	3	Ich Filter
VCHRANGE	IQUANT	2	Vch Range
VCHRANGEMODE	TOGGLE	F	Vch Auto Range
VCHOFFSETENABLE	TOGGLE	T	Vch Offset Enable
VCHOFFSET	QUANT	0	Vch Offset (V)
VCHFILTER	IQUANT	3	Vch Filter
ACHRANGE	IQUANT	2	Ach Range
ACHOFFSETENABLE	TOGGLE	F	Ach Offset Enable
ACHOFFSET	QUANT	0	Ach Offset (V)
ACHFILTER	IQUANT	3	Ach Filter
IERANGELOWERLIMIT	IQUANT	1	I/E Range Lower Limit
IERANGEMODE	TOGGLE	F	I/E AutoRange
IERANGE	IQUANT	8	I/E Range
POSFEEDENABLE	TOGGLE	F	Positive Feedback IR Comp
POSFEEDRESISTANCE	QUANT	0	Positive Feedback Resistance (ohm)
ACHSELECT	IQUANT	0	Ach Select
CABLEID	IQUANT	14	Cable ID
DCCALDATE	LABEL	6/26/2020	DC Calibration Date
ACCALDATE	LABEL	6/26/2020	AC Calibration Date
THERMOSELECT	IQUANT	1	Thermo Select
FRAMEWORKVERSION	QUANT	6.33	Framework Version
INSTRUMENTVERSION	LABEL	3.50	Instrument Version
ZCURVE	TABLE
	Pt	Time	Freq	Zreal	Zimag	Zsig	Zmod	Zphz	Idc	Vdc	IERange
	#	s	Hz	ohm	ohm	V	ohm	°	A	V	#
	0	1	1000078	1633.128	-1563.594	1	2260.958	-43.75392	7.671601E-008	-0.061153	8
	1	1	794390.6	1865.922	-1688.129	1	2516.236	-42.13613	1.046394E-007	-0.0615434	8
	2	2	630984.4	2115.036	-1816.237	1	2787.847	-40.65355	4.484774E-008	-0.0616923	8
	3	2	501234.4	2382.409	-1948.837	1	3077.96	-39.28356	4.558227E-008	-0.0617758	8
	4	2	398109.4	2669.092	-2092.652	1	3391.644	-38.09756	6.265441E-008	-0.0618559	8
	5	2	316265.6	2981.152	-2236.319	1	3726.713	-36.8755	2.066166E-008	-0.0618569	8
	6	3	251203.1	3327.351	-2389.185	1	4096.275	-35.68001	2.34312E-008	-0.0618767	8
	7	3	199546.9	3713.139	-2534.648	1	4495.758	-34.31807	-1.586924E-008	-0.0618611	8
	8	3	158578.1	4136.224	-2676.092	1	4926.44	-32.90242	7.324681E-008	-0.0619018	8
	9	4	125953.1	4615.86	-2764.021	1	5380.146	-30.91357	-1.643841E-009	-0.0618995	7
	10	4	100078.1	5100.289	-2859.308	1	5847.101	-29.27572	3.268432E-009	-0.0619132	7
	11	4	79453.13	5595.63	-2912.494	1	6308.225	-27.49673	2.921506E-009	-0.061925	7
	12	5	63140.62	6090.052	-2921.261	1	6754.443	-25.62599	7.897571E-010	-0.0619319	7
	13	5	50203.12	6576.036	-2894.981	1	7185.065	-23.76063	8.481761E-010	-0.0619357	7
	14	5	39890.62	7048.57	-2838.032	1	7598.471	-21.93166	7.042798E-010	-0.0619356	7
	15	5	31640.63	7503.309	-2762.227	1	7995.595	-20.21041	2.577191E-009	-0.0619319	7
	16	6	25171.88	7912.531	-2661.275	1	8348.085	-18.58968	1.184197E-009	-0.0619411	7
	17	6	20015.62	8301.2	-2561.824	1	8687.512	-17.15069	1.950698E-009	-0.0619371	7
	18	6	15890.62	8648.287	-2459.214	1	8991.141	-15.87355	5.233175E-010	-0.0619429	7
	19	7	12609.37	9006.773	-2316.397	1	9299.874	-14.42298	2.623179E-010	-0.0619516	6
	20	7	10078.13	9278.241	-2255.601	1	9548.48	-13.66391	-1.246045E-010	-0.061953	6
	21	7	8015.625	9530.71	-2223.827	1	9786.71	-13.134	1.333839E-010	-0.0619533	6
	22	8	6328.125	9764.8	-2229.914	1	10016.18	-12.86363	1.471389E-010	-0.0619515	6
	23	8	5015.625	9982.71	-2283.052	1	10240.45	-12.88204	-1.430593E-010	-0.0619507	6
	24	8	3984.375	10192.86	-2389.642	1	10469.23	-13.19429	-6.664166E-011	-0.0619481	6
	25	8	3170.956	10408.83	-2553.4	1	10717.44	-13.78311	-1.819707E-010	-0.0619527	6
	26	9	2527.573	10634.05	-2777.454	1	10990.78	-14.63779	-2.115067E-010	-0.0619571	6
	27	9	1976.103	10899.98	-3098.363	1	11331.79	-15.86801	-5.02017E-010	-0.0619596	6
	28	9	1577.524	11165.88	-3468.55	1	11692.2	-17.2568	1.475894E-011	-0.0619531	6
	29	10	1265.625	11456.39	-3911.032	1	12105.58	-18.8491	-1.824527E-010	-0.0619577	6
	30	10	998.264	11812.42	-4485.314	1	12635.32	-20.79235	-1.310967E-010	-0.0619633	6
	31	10	796.875	12186.33	-5137.966	1	13225.18	-22.86113	-4.109435E-010	-0.0619634	6
	32	11	627.7902	12638.84	-5967.848	1	13976.96	-25.2759	-1.652252E-011	-0.0619555	6
	33	11	505.5147	13110.45	-6858.479	1	14796.03	-27.61545	-4.431555E-010	-0.0619678	6
	34	11	397.9953	13675.16	-8031.484	1	15859.22	-30.4259	2.372219E-010	-0.0619309	6
	35	11	315.5048	14299	-9398.019	1	17110.94	-33.31491	1.573874E-010	-0.0619336	6
	36	12	252.4038	14967.01	-10974.54	1	18559.41	-36.25069	1.096527E-010	-0.0619376	6
	37	12	198.6229	15774.1	-13028.56	1	20458.88	-39.55487	-3.528117E-011	-0.0619361	6
	38	12	158.3615	16648.29	-15401.08	1	22679.48	-42.77146	1.206588E-010	-0.0619386	6
	39	13	125.558	17702.62	-18371.42	1	25512.58	-46.06212	-5.427713E-011	-0.0619384	6
	40	13	100.4464	18918.45	-21853.32	1	28904.59	-49.11723	4.285395E-010	-0.06194	6
	41	13	79.00281	20558.22	-26431.89	1	33485.6	-52.12491	1.608672E-010	-0.0619377	6
	42	14	63.3446	22472.86	-31532.01	1	38720.76	-54.52253	1.209485E-011	-0.0619368	6
	43	14	49.86702	25146.95	-38167.71	1	45707.15	-56.62095	4.534719E-010	-0.0619399	6
	44	14	39.72458	28453.81	-45678.2	1	53815.59	-58.08044	4.671368E-010	-0.0619374	6
	45	15	31.6723	32720.75	-54437.78	1	63514.72	-58.99132	6.475159E-010	-0.0619363	6
	46	15	24.93351	38485.53	-65137.72	1	75657.51	-59.424	1.361568E-009	-0.0619412	6
	47	15	19.86229	45504.98	-76858.09	1	89318.91	-59.37171	-9.413361E-010	-0.0619373	6
	48	15	15.83615	54135.66	-89754.45	1	104816.7	-58.9036	-3.10888E-010	-0.0619487	5
	49	16	12.40079	65623.28	-105389.9	1	124150.9	-58.09065	-6.123575E-010	-0.0619445	5
	50	16	9.93114	77876.7	-120941.5	1	143845.9	-57.22169	-9.424361E-010	-0.0619562	5
	51	16	7.944915	92425.96	-138069.7	1	166149.9	-56.20104	7.03054E-010	-0.0619566	5
	52	17	6.317385	109694.3	-157111.7	1	191616.6	-55.07751	-4.09687E-011	-0.0619459	5
	53	18	5.008013	129377.8	-178091.6	1	220125.5	-54.00282	5.192091E-010	-0.0619401	5
	54	18	3.945707	151956.1	-201239.9	1	252167	-52.94357	-2.948303E-011	-0.0619553	5
	55	19	3.158693	174956.9	-225276.5	1	285235.7	-52.16594	3.42355E-010	-0.0619513	5
	56	20	2.504006	199930.9	-252978	1	322444.1	-51.68035	2.452421E-010	-0.0619511	5
	57	22	1.998082	225834.3	-283388.8	1	362367.7	-51.44844	-5.660518E-011	-0.0619983	5
	58	23	1.584686	252873.9	-321290.4	1	408867.6	-51.79523	-3.430936E-011	-0.0619993	5
	59	25	1.266892	279872.9	-364186.6	1	459304.6	-52.45817	3.958884E-011	-0.0619673	5
	60	28	0.999041	310892.7	-419664.9	1	522276.7	-53.46852	5.666901E-011	-0.0619439	5
