EXPLAIN
TAG	EISPOT
TITLE	LABEL	Potentiostatic EIS	Test &Identifier
DATE	LABEL	2/21/2020	Date
TIME	LABEL	18:24:56	Time
NOTES	NOTES	1	&Notes...
	
PSTAT	PSTAT	REF600-11020	Potentiostat
VDC	POTEN	0.00000E+000	T	DC &Voltage (V)
FREQINIT	QUANT	1.00000E+006	Initial Fre&q. (Hz)
FREQFINAL	QUANT	1.00000E+000	Final Fre&q. (Hz)
PTSPERDEC	QUANT	1.00000E+001	Points/&decade
VAC	QUANT	2.50000E+001	AC &Voltage (mV rms)
AREA	QUANT	2.08200E-005	&Area (cm^2)
CONDIT	TWOPARAM	F	1.50000E+001	0.00000E+000	Conditionin&g	Time(s)	E(V)
DELAY	TWOPARAM	F	1.00000E+002	0.00000E+000	Init. De&lay	Time(s)	Stab.(mV/s)
SPEED	SELECTOR	0	&Optimize for:
ZGUESS	QUANT	2.00000E+003	E&stimated Z (ohms)
OCVCURVE	TABLE	39
	Pt	T	Vf	Vm	Ach	Over
	#	s	V vs. Ref.	V	V	bits
	0	0.258333	-8.70117E-004	-8.70117E-004	5.66504E-004	...........
	1	0.516667	-8.68898E-004	-8.06284E-004	5.65704E-004	...........
	2	0.775	-8.63665E-004	-8.63822E-004	5.69238E-004	...........
	3	1.03333	-8.54293E-004	-8.11049E-004	5.66571E-004	...........
	4	1.29167	-8.44232E-004	-8.22920E-004	5.71904E-004	...........
	5	1.55	-8.34032E-004	-7.46420E-004	5.66804E-004	...........
	6	1.80833	-8.20392E-004	-7.94300E-004	5.68704E-004	...........
	7	2.06667	-8.04074E-004	-7.98083E-004	5.69371E-004	...........
	8	2.325	-7.93277E-004	-8.59693E-004	5.66938E-004	...........
	9	2.58333	-7.95817E-004	-8.39041E-004	5.69204E-004	...........
	10	2.84167	-8.11718E-004	-9.29226E-004	5.67938E-004	...........
	11	3.1	-8.36861E-004	-9.34098E-004	5.65538E-004	...........
	12	3.35833	-8.68336E-004	-9.80417E-004	5.71338E-004	...........
	13	3.61667	-9.01859E-004	-9.31292E-004	5.70304E-004	...........
	14	3.875	-9.30056E-004	-9.85083E-004	5.67638E-004	...........
	15	4.13333	-9.47964E-004	-9.35428E-004	5.73271E-004	...........
	16	4.39167	-9.56824E-004	-9.96977E-004	5.69404E-004	...........
	17	4.65	-9.60891E-004	-9.31908E-004	5.68904E-004	...........
	18	4.90833	-9.62981E-004	-9.92609E-004	5.67771E-004	...........
	19	5.16667	-9.63722E-004	-9.29580E-004	5.63571E-004	...........
	20	5.425	-9.62841E-004	-9.67792E-004	5.71404E-004	...........
	21	5.68333	-9.59883E-004	-9.26228E-004	5.69638E-004	...........
	22	5.94167	-9.55128E-004	-9.55764E-004	5.69638E-004	...........
	23	6.2	-9.49987E-004	-9.32703E-004	5.70638E-004	...........
	24	6.45833	-9.45955E-004	-9.49461E-004	5.68071E-004	...........
	25	6.71667	-9.44210E-004	-9.69427E-004	5.73038E-004	...........
	26	6.975	-9.45925E-004	-9.54733E-004	5.68771E-004	...........
	27	7.23333	-9.50369E-004	-9.47119E-004	5.74138E-004	...........
	28	7.49167	-9.53261E-004	-9.13304E-004	5.69638E-004	...........
	29	7.75	-9.50901E-004	-9.63169E-004	5.65838E-004	...........
	30	8.00833	-9.45130E-004	-9.16526E-004	5.67371E-004	...........
	31	8.26667	-9.41025E-004	-9.89733E-004	5.69104E-004	...........
	32	8.525	-9.41790E-004	-9.35176E-004	5.65138E-004	...........
	33	8.78333	-9.46980E-004	-9.85225E-004	5.68504E-004	...........
	34	9.04167	-9.53696E-004	-9.51458E-004	5.68938E-004	...........
	35	9.3	-9.59755E-004	-9.94898E-004	5.71604E-004	...........
	36	9.5583	-9.65068E-004	-9.60373E-004	5.69638E-004	...........
	37	9.8167	-9.70021E-004	-1.00139E-003	5.66538E-004	...........
	38	10.075	-9.75197E-004	-9.99464E-004	5.72371E-004	...........
EOC	QUANT	-0.0009752	Open Circuit (V)
PSTATMODEL	IQUANT	4	Pstat Model
PSTATSECTION	LABEL	REF600-11020	Pstat Section
PSTATSERIALNO	LABEL	11020	Pstat Serial Number
CTRLMODE	IQUANT	1	Control Mode
IESTAB	IQUANT	0	I/E Stability
CASPEED	IQUANT	1	Control Amp Speed
CONVENTION	IQUANT	1	Current Convention
ICHRANGE	IQUANT	2	Ich Range
ICHRANGEMODE	TOGGLE	F	Ich Auto Range
ICHOFFSETENABLE	TOGGLE	T	Ich Offset Enable
ICHOFFSET	QUANT	0	Ich Offset (V)
ICHFILTER	IQUANT	3	Ich Filter
VCHRANGE	IQUANT	2	Vch Range
VCHRANGEMODE	TOGGLE	F	Vch Auto Range
VCHOFFSETENABLE	TOGGLE	T	Vch Offset Enable
VCHOFFSET	QUANT	0	Vch Offset (V)
VCHFILTER	IQUANT	3	Vch Filter
ACHRANGE	IQUANT	2	Ach Range
ACHOFFSETENABLE	TOGGLE	F	Ach Offset Enable
ACHOFFSET	QUANT	0	Ach Offset (V)
ACHFILTER	IQUANT	3	Ach Filter
IERANGELOWERLIMIT	IQUANT	1	I/E Range Lower Limit
IERANGEMODE	TOGGLE	F	I/E AutoRange
IERANGE	IQUANT	5	I/E Range
POSFEEDENABLE	TOGGLE	F	Positive Feedback IR Comp
POSFEEDRESISTANCE	QUANT	0	Positive Feedback Resistance (ohm)
ACHSELECT	IQUANT	0	Ach Select
CABLEID	IQUANT	14	Cable ID
DCCALDATE	LABEL	1/27/2020	DC Calibration Date
ACCALDATE	LABEL	1/27/2020	AC Calibration Date
THERMOSELECT	IQUANT	1	Thermo Select
FRAMEWORKVERSION	QUANT	6.33	Framework Version
INSTRUMENTVERSION	LABEL	3.50	Instrument Version
ZCURVE	TABLE
	Pt	Time	Freq	Zreal	Zimag	Zsig	Zmod	Zphz	Idc	Vdc	IERange
	#	s	Hz	ohm	ohm	V	ohm	°	A	V	#
	0	1	1000078	1615.822	-1698.094	1	2344.015	-46.42215	-1.671548E-006	0.0011968	8
	1	2	794390.6	1899.04	-1801.744	1	2617.753	-43.494	1.730914E-006	0.0006261	8
	2	2	630984.4	2185.301	-1893.399	1	2891.453	-40.90647	-1.557378E-006	0.000939	8
	3	2	501234.4	2469.051	-1976.623	1	3162.792	-38.67936	1.981978E-006	0.0002807	8
	4	2	398109.4	2750.869	-2053.049	1	3432.534	-36.73499	1.272294E-007	0.0005544	8
	5	3	316265.6	3032.263	-2143.458	1	3713.358	-35.25588	1.180482E-008	0.0005308	8
	6	3	251203.1	3316.44	-2241.49	1	4002.881	-34.05366	3.71371E-007	0.0004609	8
	7	3	199546.9	3607.276	-2380.796	1	4322.11	-33.42475	-9.738127E-007	0.0007521	8
	8	4	158578.1	3902.054	-2531.077	1	4651.062	-32.96955	2.634375E-007	0.0004806	8
	9	4	125953.1	4241.012	-2702.098	1	5028.669	-32.50265	-7.41632E-009	0.0005311	7
	10	4	100078.1	4584.326	-2921.563	1	5436.136	-32.50912	1.314472E-008	0.0004981	7
	11	5	79453.13	4954.47	-3176.398	1	5885.259	-32.66465	-3.852871E-009	0.000538	7
	12	5	63140.62	5361.584	-3464.02	1	6383.261	-32.86575	-5.174944E-009	0.0005264	7
	13	5	50203.12	5803.392	-3782.484	1	6927.231	-33.09515	-2.171179E-008	0.0005395	7
	14	6	39890.62	6298.251	-4145.251	1	7539.965	-33.35127	8.489049E-009	0.0005319	7
	15	6	31640.63	6855.925	-4534.818	1	8219.993	-33.48245	2.401444E-008	0.0004482	7
	16	6	25171.88	7455.605	-4969.65	1	8960.104	-33.68606	1.503618E-008	0.0004774	7
	17	6	20015.62	8118.275	-5424.903	1	9764.01	-33.75217	2.529487E-009	0.0004699	7
	18	7	15890.62	8828.736	-5932.239	1	10636.64	-33.8981	3.579312E-009	0.0004707	7
	19	7	12609.37	9619.49	-6467.899	1	11591.74	-33.91587	2.501365E-010	0.000483	6
	20	7	10078.13	10413.89	-7054.629	1	12578.43	-34.11469	4.144714E-009	0.0004258	6
	21	8	8015.625	11272.5	-7741.236	1	13674.65	-34.47881	-3.858613E-009	0.0005514	6
	22	8	6328.125	12219.57	-8552.693	1	14915.31	-34.98885	1.719439E-009	0.0005247	6
	23	8	5015.625	13236.56	-9494.201	1	16289.46	-35.65078	5.500597E-010	0.00052	6
	24	9	3984.375	14341.75	-10542.13	1	17799.51	-36.31833	-3.317605E-010	0.0005329	6
	25	9	3170.956	15572.08	-11760.32	1	19513.96	-37.06076	5.435846E-009	0.0003953	6
	26	9	2527.573	16928.81	-13117.61	1	21416.27	-37.771	8.199438E-010	0.0004455	6
	27	10	1976.103	18568.72	-14763.41	1	23722.47	-38.48713	1.489566E-009	0.0004632	6
	28	10	1577.524	20187.76	-16477.02	1	26058.36	-39.22094	4.053482E-009	0.0004676	6
	29	10	1265.625	21877.05	-18327.46	1	28539.47	-39.95452	-3.136341E-009	0.0005421	6
	30	11	998.264	23792.97	-20664.36	1	31513.83	-40.97454	-3.27054E-009	0.0005362	6
	31	11	796.875	25650.37	-23200.75	1	34586.36	-42.12934	1.14983E-009	0.0004572	6
	32	11	627.7902	27537.48	-26581.52	1	38273.88	-43.98803	6.822195E-010	0.0004582	6
	33	12	505.5147	29451.91	-30375.59	1	42309.48	-45.88453	-1.323923E-009	0.000497	6
	34	12	397.9953	31644.47	-35510.27	1	47564.19	-48.29463	1.013774E-009	0.0005008	6
	35	12	315.5048	33981.61	-41784.8	1	53858.33	-50.88017	1.146865E-009	0.0005003	6
	36	13	252.4038	36546.17	-49280.09	1	61352.66	-53.43932	1.506284E-009	0.0004976	6
	37	13	198.6229	39825.98	-59114.63	1	71278.66	-56.03154	9.393967E-010	0.0004989	6
	38	13	158.3615	43680.3	-70746.42	1	83144.6	-58.30796	5.736062E-010	0.0004949	6
	39	13	125.558	48604.94	-85459.07	1	98314.3	-60.3709	7.365316E-010	0.0004953	6
	40	14	100.4464	54813.2	-101765.9	1	115588.9	-61.69219	-6.916138E-011	0.0004899	5
	41	14	79.00281	64354.21	-124543.3	1	140187.4	-62.67362	-1.016728E-010	0.0004934	5
	42	14	63.3446	69438.91	-148584.8	1	164009.7	-64.95165	5.834938E-010	0.0004969	5
	43	15	49.86702	86229.34	-179409.7	1	199056.2	-64.32976	2.198642E-010	0.0004907	5
	44	15	39.72458	108956.7	-215269.5	1	241272.7	-63.15416	5.40385E-011	0.000495	5
	45	16	31.6723	137252.4	-255035.9	1	289623.1	-61.71224	-2.787622E-010	0.0004938	5
	46	16	24.93351	171974.4	-298846.8	1	344796.5	-60.0813	5.438091E-010	0.0004925	5
	47	16	19.86229	215969	-345239.3	1	407225.8	-57.97141	6.823452E-010	0.0004959	5
	48	16	15.83615	274485.8	-400776.5	1	485761.5	-55.59335	-2.311651E-010	0.0004941	5
	49	17	12.40079	356942.4	-447784.3	1	572641.8	-51.4406	4.399663E-010	0.0004973	5
	50	17	9.93114	424325	-474582.7	1	636616.4	-48.20006	-3.984975E-011	0.0004994	5
	51	18	7.944915	504315.3	-505302.3	1	713907.8	-45.05602	1.528377E-009	0.0004893	6
	52	19	6.317385	592635.6	-511403.1	1	782783.5	-40.7919	1.396894E-009	0.0004808	6
	53	20	5.008013	685039.4	-533979.7	1	868569.7	-37.93597	6.196697E-010	0.0004826	6
	54	21	3.945707	764366.2	-534740.4	1	932846.7	-34.97612	7.288956E-010	0.0004873	6
	55	23	3.158693	838666	-547115.3	1	1001347	-33.11897	4.291781E-011	0.0004705	5
	56	25	2.504006	907624.9	-557562.9	1	1065204	-31.56281	3.116403E-010	0.0004228	4
	57	26	1.998082	966366	-580167.8	1	1127146	-30.97893	1.434191E-010	0.0004072	4
	58	28	1.584686	1033306	-615186.1	1	1202571	-30.76775	-5.35459E-011	0.0003758	4
	59	30	1.266892	1094177	-662486.6	1	1279106	-31.19346	-5.50163E-011	0.0003969	4
	60	32	0.999041	1164698	-726520.9	1	1372718	-31.9553	-8.850727E-011	0.0004224	4
