EXPLAIN
TAG	EISPOT
TITLE	LABEL	Potentiostatic EIS	Test &Identifier
DATE	LABEL	1/10/2020	Date
TIME	LABEL	13:51:38	Time
NOTES	NOTES	5	&Notes...
	
	
	
	
	
PSTAT	PSTAT	REF600-11020	Potentiostat
VDC	POTEN	0.00000E+000	T	DC &Voltage (V)
FREQINIT	QUANT	1.00000E+006	Initial Fre&q. (Hz)
FREQFINAL	QUANT	1.00000E+000	Final Fre&q. (Hz)
PTSPERDEC	QUANT	1.00000E+001	Points/&decade
VAC	QUANT	2.50000E+001	AC &Voltage (mV rms)
AREA	QUANT	1.00000E-001	&Area (cm^2)
CONDIT	TWOPARAM	T	5.00000E+000	0.00000E+000	Conditionin&g	Time(s)	E(V)
DELAY	TWOPARAM	T	5.00000E+000	0.00000E+000	Init. De&lay	Time(s)	Stab.(mV/s)
SPEED	SELECTOR	0	&Optimize for:
ZGUESS	QUANT	5.00000E+002	E&stimated Z (ohms)
OCVCURVE	TABLE	19
	Pt	T	Vf	Vm	Ach	Over
	#	s	V vs. Ref.	V	V	bits
	0	0.258333	6.66777E-003	6.66777E-003	6.54479E-004	...........
	1	0.516667	6.66706E-003	6.63091E-003	6.51546E-004	...........
	2	0.775	6.66301E-003	6.61022E-003	6.51513E-004	...........
	3	1.03333	6.65290E-003	6.61376E-003	6.53246E-004	...........
	4	1.29167	6.63855E-003	6.61920E-003	6.53380E-004	...........
	5	1.55	6.62621E-003	6.63614E-003	6.47280E-004	...........
	6	1.80833	6.62124E-003	6.65116E-003	6.55913E-004	...........
	7	2.06667	6.62443E-003	6.64050E-003	6.54313E-004	...........
	8	2.325	6.63246E-003	6.66913E-003	6.55113E-004	...........
	9	2.58333	6.64526E-003	6.85158E-003	6.52180E-004	...........
	10	2.84167	6.67162E-003	6.79757E-003	6.63346E-004	...........
	11	3.1	6.71415E-003	6.76259E-003	6.54913E-004	...........
	12	3.35833	6.75548E-003	6.76889E-003	6.59046E-004	...........
	13	3.61667	6.78335E-003	7.09146E-003	6.61046E-004	...........
	14	3.875	6.82084E-003	7.22930E-003	6.56280E-004	...........
	15	4.13333	6.90063E-003	7.20673E-003	6.58846E-004	...........
	16	4.39167	7.01385E-003	7.19122E-003	6.50746E-004	...........
	17	4.65	7.11346E-003	7.07432E-003	6.58046E-004	...........
	18	4.90833	7.16045E-003	7.00574E-003	6.54346E-004	...........
EOC	QUANT	0.0071604	Open Circuit (V)
PSTATMODEL	IQUANT	4	Pstat Model
PSTATSECTION	LABEL	REF600-11020	Pstat Section
PSTATSERIALNO	LABEL	11020	Pstat Serial Number
CTRLMODE	IQUANT	1	Control Mode
IESTAB	IQUANT	0	I/E Stability
CASPEED	IQUANT	1	Control Amp Speed
CONVENTION	IQUANT	1	Current Convention
ICHRANGE	IQUANT	2	Ich Range
ICHRANGEMODE	TOGGLE	F	Ich Auto Range
ICHOFFSETENABLE	TOGGLE	T	Ich Offset Enable
ICHOFFSET	QUANT	0	Ich Offset (V)
ICHFILTER	IQUANT	3	Ich Filter
VCHRANGE	IQUANT	2	Vch Range
VCHRANGEMODE	TOGGLE	F	Vch Auto Range
VCHOFFSETENABLE	TOGGLE	T	Vch Offset Enable
VCHOFFSET	QUANT	0	Vch Offset (V)
VCHFILTER	IQUANT	3	Vch Filter
ACHRANGE	IQUANT	2	Ach Range
ACHOFFSETENABLE	TOGGLE	F	Ach Offset Enable
ACHOFFSET	QUANT	0	Ach Offset (V)
ACHFILTER	IQUANT	3	Ach Filter
IERANGELOWERLIMIT	IQUANT	1	I/E Range Lower Limit
IERANGEMODE	TOGGLE	F	I/E AutoRange
IERANGE	IQUANT	7	I/E Range
POSFEEDENABLE	TOGGLE	F	Positive Feedback IR Comp
POSFEEDRESISTANCE	QUANT	0	Positive Feedback Resistance (ohm)
ACHSELECT	IQUANT	0	Ach Select
CABLEID	IQUANT	14	Cable ID
DCCALDATE	LABEL	12/22/2019	DC Calibration Date
ACCALDATE	LABEL	12/22/2019	AC Calibration Date
THERMOSELECT	IQUANT	1	Thermo Select
FRAMEWORKVERSION	QUANT	6.33	Framework Version
INSTRUMENTVERSION	LABEL	3.50	Instrument Version
ZCURVE	TABLE
	Pt	Time	Freq	Zreal	Zimag	Zsig	Zmod	Zphz	Idc	Vdc	IERange
	#	s	Hz	ohm	ohm	V	ohm	°	A	V	#
	0	1	1000078	1783.12	-1662.609	1	2437.988	-42.99696	3.164024E-006	0.0090403	8
	1	1	794390.6	2066.199	-1761.678	1	2715.269	-40.4515	3.311614E-006	0.0085167	8
	2	2	630984.4	2364.051	-1848.177	1	3000.749	-38.01772	-3.376643E-006	0.0095815	8
	3	2	501234.4	2681.335	-1910.768	1	3292.506	-35.47436	7.12479E-007	0.0089132	8
	4	2	398109.4	3021.248	-1955.715	1	3598.994	-32.9158	8.800071E-007	0.0086983	8
	5	3	316265.6	3350.796	-1955.557	1	3879.695	-30.26825	1.593868E-007	0.0088276	8
	6	3	251203.1	3718.231	-1951.962	1	4199.452	-27.69815	-1.00267E-006	0.0090978	8
	7	3	199546.9	4024.541	-1922.421	1	4460.116	-25.53262	1.082211E-006	0.0086816	8
	8	4	158578.1	4318.971	-1851.194	1	4698.982	-23.2009	-8.134624E-007	0.0089493	8
	9	4	125953.1	4668.959	-1761.457	1	4990.181	-20.66997	-2.746277E-007	0.0092524	7
	10	4	100078.1	4929.531	-1672.463	1	5205.517	-18.74076	8.659858E-008	0.0087133	7
	11	5	79453.13	5176.554	-1584.199	1	5413.539	-17.01586	-1.166324E-008	0.0088253	7
	12	5	63140.62	5402.355	-1493.937	1	5605.112	-15.45795	4.016568E-008	0.0088257	7
	13	5	50203.12	5599.275	-1409.391	1	5773.93	-14.12839	-1.000835E-008	0.0088618	7
	14	5	39890.62	5776.441	-1331.526	1	5927.92	-12.9805	-9.158208E-009	0.0088562	7
	15	6	31640.63	5935.754	-1267.793	1	6069.636	-12.05641	-2.61594E-008	0.0088444	7
	16	6	25171.88	6081.258	-1223.395	1	6203.095	-11.37463	4.332477E-008	0.008821	7
	17	6	20015.62	6217.798	-1194.409	1	6331.479	-10.87379	-3.485072E-008	0.0088973	7
	18	7	15890.62	6348.156	-1188.202	1	6458.398	-10.60154	5.485932E-008	0.0087282	7
	19	7	12609.37	6475.584	-1200.895	1	6585.996	-10.50613	-1.42051E-008	0.0088264	7
	20	7	10078.13	6600.59	-1234.604	1	6715.06	-10.59444	7.212985E-010	0.0087808	7
	21	8	8015.625	6732.842	-1292.172	1	6855.718	-10.86414	4.178971E-008	0.0088229	7
	22	8	6328.125	6879.152	-1373.742	1	7014.977	-11.29321	4.292004E-008	0.0088207	7
	23	8	5015.625	7032.174	-1475.531	1	7185.309	-11.85021	-4.548958E-009	0.0088452	7
	24	9	3984.375	7196.179	-1602.844	1	7372.524	-12.55683	5.373634E-008	0.00871	7
	25	9	3170.956	7376.601	-1749.385	1	7581.199	-13.34141	-9.710736E-009	0.0089034	7
	26	9	2527.573	7562.614	-1917.395	1	7801.893	-14.22676	-1.217294E-008	0.0088084	7
	27	10	1976.103	7780.324	-2132.074	1	8067.167	-15.32478	2.112315E-008	0.0088044	7
	28	10	1577.524	7989.963	-2362.084	1	8331.804	-16.46933	-3.082955E-008	0.0088451	7
	29	10	1265.625	8197.477	-2622.708	1	8606.813	-17.7416	-1.422791E-008	0.0088866	7
	30	11	998.264	8428.061	-2967.428	1	8935.202	-19.39661	-3.440906E-008	0.0088954	7
	31	11	796.875	8641.805	-3364.206	1	9273.547	-21.27068	-3.247604E-009	0.008823	6
	32	11	627.7902	8873.407	-3900.805	1	9692.97	-23.73059	2.580856E-009	0.0088495	6
	33	12	505.5147	9093.101	-4505.234	1	10147.99	-26.35641	3.312772E-009	0.0086938	6
	34	12	397.9953	9351.096	-5345.58	1	10771.17	-29.75456	9.268851E-010	0.0088248	6
	35	12	315.5048	9626.37	-6367.62	1	11541.82	-33.4837	5.533513E-010	0.0088205	6
	36	13	252.4038	9922.53	-7584.6	1	12489.3	-37.39363	3.094907E-010	0.0088189	6
	37	13	198.6229	10285.3	-9215.047	1	13809.58	-41.85854	5.308175E-010	0.008817	6
	38	13	158.3615	10692.39	-11122.73	1	15428.62	-46.13011	-7.823187E-011	0.0088144	6
	39	14	125.558	11189.71	-13544.41	1	17568.74	-50.43819	5.573985E-010	0.0088137	6
	40	14	100.4464	11756.25	-16416.34	1	20191.72	-54.39238	-1.670696E-010	0.0088138	6
	41	14	79.00281	12566.92	-20202.41	1	23792.12	-58.11629	-1.417317E-010	0.0088137	6
	42	15	63.3446	13495.95	-24725.2	1	28168.71	-61.37262	1.190475E-009	0.0088088	6
	43	15	49.86702	14713.74	-30402.05	1	33775.42	-64.17432	-3.179181E-010	0.0088129	6
	44	15	39.72458	16353.41	-36912.77	1	40373.09	-66.10529	6.492007E-010	0.0088071	6
	45	16	31.6723	18343.81	-44854.81	1	48460.8	-67.75742	3.941792E-010	0.0088113	6
	46	16	24.93351	21010.2	-55242.15	1	59102.66	-69.17673	4.8103E-010	0.0088117	6
	47	16	19.86229	24314.15	-67203.76	1	71466.94	-70.11001	1.327704E-009	0.0088156	6
	48	16	15.83615	27910.81	-81227.12	1	85888.63	-71.03654	1.197921E-009	0.0088118	6
	49	17	12.40079	33806.86	-99763	1	105335.4	-71.27993	1.228315E-009	0.0088167	6
	50	17	9.93114	41105.87	-120035.4	1	126878.6	-71.09634	5.867608E-010	0.0088082	5
	51	18	7.944915	49771.64	-144408.3	1	152744.7	-70.98302	-1.672209E-010	0.0088145	5
	52	18	6.317385	60648.63	-174180.2	1	184437	-70.80215	-2.826359E-010	0.0088168	5
	53	19	5.008013	75217.16	-210021.3	1	223084.2	-70.29549	-1.133036E-010	0.0088127	5
	54	20	3.945707	93757.62	-253339.5	1	270132.2	-69.69115	-1.709358E-010	0.0088046	5
	55	22	3.158693	116162	-300876.7	1	322521.9	-68.88951	1.226918E-010	0.0088094	5
	56	23	2.504006	145211.7	-358345.8	1	386649.9	-67.94083	2.648051E-011	0.008814	5
	57	24	1.998082	179800.3	-422893.1	1	459528.8	-66.96638	-9.890773E-011	0.0087723	5
	58	26	1.584686	223214.3	-498087.1	1	545816.3	-65.86079	1.821656E-011	0.0088128	5
	59	28	1.266892	276236.8	-581986.9	1	644217	-64.6089	6.003992E-011	0.0088349	5
	60	30	0.999041	344072.4	-683792.6	1	765479	-63.28926	4.903457E-011	0.0088489	5
