EXPLAIN
TAG	EISPOT
TITLE	LABEL	Potentiostatic EIS	Test &Identifier
DATE	LABEL	1/28/2020	Date
TIME	LABEL	11:31:48	Time
NOTES	NOTES	6	&Notes...
	
	
	
	
	
	
PSTAT	PSTAT	REF600-11020	Potentiostat
VDC	POTEN	0.00000E+000	T	DC &Voltage (V)
FREQINIT	QUANT	1.00000E+006	Initial Fre&q. (Hz)
FREQFINAL	QUANT	1.00000E+000	Final Fre&q. (Hz)
PTSPERDEC	QUANT	1.00000E+001	Points/&decade
VAC	QUANT	2.50000E+001	AC &Voltage (mV rms)
AREA	QUANT	1.60000E-004	&Area (cm^2)
CONDIT	TWOPARAM	F	5.00000E+000	0.00000E+000	Conditionin&g	Time(s)	E(V)
DELAY	TWOPARAM	F	5.00000E+000	0.00000E+000	Init. De&lay	Time(s)	Stab.(mV/s)
SPEED	SELECTOR	0	&Optimize for:
ZGUESS	QUANT	1.00000E+003	E&stimated Z (ohms)
OCVCURVE	TABLE	39
	Pt	T	Vf	Vm	Ach	Over
	#	s	V vs. Ref.	V	V	bits
	0	0.258333	9.85237E-002	9.85237E-002	5.82371E-004	...........
	1	0.516667	9.85285E-002	9.87771E-002	5.84037E-004	...........
	2	0.775	9.85585E-002	9.90276E-002	5.82471E-004	...........
	3	1.03333	9.86448E-002	9.93237E-002	5.78537E-004	...........
	4	1.29167	9.87969E-002	9.91690E-002	5.84537E-004	...........
	5	1.55	9.89732E-002	9.91780E-002	5.78571E-004	...........
	6	1.80833	9.91070E-002	9.90633E-002	5.84437E-004	...........
	7	2.06667	9.91600E-002	9.89365E-002	5.82671E-004	...........
	8	2.325	9.91357E-002	9.87793E-002	5.77904E-004	...........
	9	2.58333	9.90581E-002	9.88557E-002	5.80604E-004	...........
	10	2.84167	9.89813E-002	9.97644E-002	5.82904E-004	...........
	11	3.1	9.90097E-002	1.00341E-001	5.79537E-004	...........
	12	3.35833	9.92382E-002	1.00687E-001	5.83837E-004	...........
	13	3.61667	9.96286E-002	9.99030E-002	5.83804E-004	...........
	14	3.875	9.99876E-002	9.96317E-002	5.82771E-004	...........
	15	4.13333	1.00126E-001	9.95797E-002	5.83404E-004	...........
	16	4.39167	1.00019E-001	9.88608E-002	5.81137E-004	...........
	17	4.65	9.97589E-002	9.88344E-002	5.80904E-004	...........
	18	4.90833	9.94419E-002	9.88541E-002	5.81171E-004	...........
	19	5.16667	9.91580E-002	9.90375E-002	5.85137E-004	...........
	20	5.425	9.89828E-002	9.90086E-002	5.84237E-004	...........
	21	5.68333	9.89282E-002	9.89806E-002	5.80771E-004	...........
	22	5.94167	9.89437E-002	9.90135E-002	5.83571E-004	...........
	23	6.2	9.89753E-002	9.90946E-002	5.82537E-004	...........
	24	6.45833	9.90023E-002	9.89977E-002	5.78104E-004	...........
	25	6.71667	9.90220E-002	9.90094E-002	5.83004E-004	...........
	26	6.975	9.90292E-002	9.89824E-002	5.81637E-004	...........
	27	7.23333	9.90238E-002	9.90567E-002	5.84104E-004	...........
	28	7.49167	9.90155E-002	9.89648E-002	5.79404E-004	...........
	29	7.75	9.90132E-002	9.91556E-002	5.82204E-004	...........
	30	8.00833	9.90226E-002	9.90817E-002	5.81737E-004	...........
	31	8.26667	9.90427E-002	9.89809E-002	5.82837E-004	...........
	32	8.525	9.90552E-002	9.88920E-002	5.81071E-004	...........
	33	8.78333	9.90385E-002	9.89021E-002	5.82337E-004	...........
	34	9.04167	9.89949E-002	9.88766E-002	5.80671E-004	...........
	35	9.3	9.89469E-002	9.89271E-002	5.82237E-004	...........
	36	9.5583	9.89135E-002	9.88471E-002	5.83871E-004	...........
	37	9.8167	9.88962E-002	9.88837E-002	5.86504E-004	...........
	38	10.075	9.88875E-002	9.89139E-002	5.83371E-004	...........
EOC	QUANT	0.0988875	Open Circuit (V)
PSTATMODEL	IQUANT	4	Pstat Model
PSTATSECTION	LABEL	REF600-11020	Pstat Section
PSTATSERIALNO	LABEL	11020	Pstat Serial Number
CTRLMODE	IQUANT	1	Control Mode
IESTAB	IQUANT	0	I/E Stability
CASPEED	IQUANT	1	Control Amp Speed
CONVENTION	IQUANT	1	Current Convention
ICHRANGE	IQUANT	2	Ich Range
ICHRANGEMODE	TOGGLE	F	Ich Auto Range
ICHOFFSETENABLE	TOGGLE	T	Ich Offset Enable
ICHOFFSET	QUANT	0	Ich Offset (V)
ICHFILTER	IQUANT	3	Ich Filter
VCHRANGE	IQUANT	2	Vch Range
VCHRANGEMODE	TOGGLE	F	Vch Auto Range
VCHOFFSETENABLE	TOGGLE	T	Vch Offset Enable
VCHOFFSET	QUANT	0	Vch Offset (V)
VCHFILTER	IQUANT	3	Vch Filter
ACHRANGE	IQUANT	2	Ach Range
ACHOFFSETENABLE	TOGGLE	F	Ach Offset Enable
ACHOFFSET	QUANT	0	Ach Offset (V)
ACHFILTER	IQUANT	3	Ach Filter
IERANGELOWERLIMIT	IQUANT	1	I/E Range Lower Limit
IERANGEMODE	TOGGLE	F	I/E AutoRange
IERANGE	IQUANT	8	I/E Range
POSFEEDENABLE	TOGGLE	F	Positive Feedback IR Comp
POSFEEDRESISTANCE	QUANT	0	Positive Feedback Resistance (ohm)
ACHSELECT	IQUANT	0	Ach Select
CABLEID	IQUANT	14	Cable ID
DCCALDATE	LABEL	1/27/2020	DC Calibration Date
ACCALDATE	LABEL	1/27/2020	AC Calibration Date
THERMOSELECT	IQUANT	1	Thermo Select
FRAMEWORKVERSION	QUANT	6.33	Framework Version
INSTRUMENTVERSION	LABEL	3.50	Instrument Version
ZCURVE	TABLE
	Pt	Time	Freq	Zreal	Zimag	Zsig	Zmod	Zphz	Idc	Vdc	IERange
	#	s	Hz	ohm	ohm	V	ohm	°	A	V	#
	0	1	1000078	2449.544	-1789.474	1	3033.56	-36.14938	-1.07204E-006	0.1018755	8
	1	1	794390.6	2816.37	-1722.297	1	3301.249	-31.44708	2.005848E-006	0.1006236	8
	2	2	630984.4	3123.047	-1599.002	1	3508.594	-27.11248	-1.846033E-006	0.1009535	8
	3	2	501234.4	3412.348	-1453.094	1	3708.854	-23.06595	-4.604785E-006	0.1017704	8
	4	2	398109.4	3632.144	-1290.715	1	3854.661	-19.56313	4.62692E-006	0.0998757	8
	5	3	316265.6	3806.102	-1127.477	1	3969.586	-16.50081	-3.580961E-006	0.1012807	8
	6	3	251203.1	3938.646	-991.745	1	4061.587	-14.13319	6.914107E-007	0.1003861	8
	7	3	199546.9	4022.49	-858.0455	1	4112.987	-12.04141	-3.232256E-006	0.1012496	8
	8	4	158578.1	4086.509	-762.7595	1	4157.085	-10.57277	1.899959E-006	0.1001146	8
	9	4	125953.1	4192.322	-627.6563	1	4239.046	-8.514833	2.59164E-008	0.1005056	7
	10	4	100078.1	4244.952	-573.8525	1	4283.564	-7.698839	-4.390207E-008	0.1005981	7
	11	5	79453.13	4287.729	-541.9302	1	4321.84	-7.203474	-5.406282E-008	0.1006559	7
	12	5	63140.62	4329.583	-525.3495	1	4361.339	-6.91842	-5.472078E-008	0.1006533	7
	13	5	50203.12	4371.099	-522.0105	1	4402.159	-6.81019	2.695913E-008	0.1005254	7
	14	6	39890.62	4412.42	-533.4171	1	4444.546	-6.893032	2.066671E-009	0.100479	7
	15	6	31640.63	4458.756	-558.8292	1	4493.64	-7.1438	-4.017345E-008	0.1005688	7
	16	6	25171.88	4506.223	-597.1749	1	4545.621	-7.54898	-1.724846E-008	0.1005246	7
	17	7	20015.62	4555.893	-651.6944	1	4602.268	-8.140609	-3.991875E-008	0.1005658	7
	18	7	15890.62	4613.496	-719.9188	1	4669.328	-8.869264	-2.106773E-008	0.1005397	7
	19	7	12609.37	4674.905	-811.8799	1	4744.88	-9.85216	-2.067079E-008	0.1006735	7
	20	8	10078.13	4746.464	-921.2198	1	4835.036	-10.98372	-5.395189E-008	0.1006057	7
	21	8	8015.625	4816.845	-1050.283	1	4930.019	-12.30047	-7.372119E-009	0.1005816	7
	22	8	6328.125	4905.14	-1216.081	1	5053.637	-13.92401	3.466856E-009	0.1004661	7
	23	8	5015.625	4999.27	-1417.077	1	5196.23	-15.82575	4.835423E-008	0.1003926	7
	24	9	3984.375	5110.76	-1657.143	1	5372.708	-17.96507	-2.808899E-008	0.1006346	7
	25	9	3170.956	5233.702	-1942.311	1	5582.491	-20.3607	1.290006E-009	0.1005515	7
	26	9	2527.573	5374.183	-2281.563	1	5838.439	-23.00323	-2.757487E-008	0.1006394	7
	27	10	1976.103	5551.193	-2730.859	1	6186.545	-26.19446	-8.811388E-009	0.1005756	7
	28	10	1577.524	5735.931	-3238.099	1	6586.82	-29.44599	-1.563597E-008	0.1005764	7
	29	10	1265.625	5949.059	-3800.328	1	7059.306	-32.57092	4.829338E-008	0.1003875	7
	30	11	998.264	6217.006	-4551.899	1	7705.255	-36.21043	-1.909908E-008	0.100667	7
	31	11	796.875	6508.569	-5411.987	1	8464.696	-39.7441	-2.081542E-008	0.1006688	7
	32	11	627.7902	6873.523	-6501.604	1	9461.298	-43.4072	-2.059495E-008	0.1005291	7
	33	12	505.5147	7261.516	-7700.649	1	10584.4	-46.68113	-4.833646E-009	0.1005198	6
	34	12	397.9953	7748.188	-9298.258	1	12103.39	-50.19574	3.730675E-010	0.1005383	6
	35	12	315.5048	8304.98	-11189.11	1	13934.45	-53.41581	5.644398E-010	0.1005379	6
	36	13	252.4038	8931.21	-13394.99	1	16099.45	-56.30633	1.789651E-010	0.1005408	6
	37	13	198.6229	9729.28	-16280.02	1	18965.71	-59.13658	1.087287E-009	0.1005342	6
	38	13	158.3615	10629.65	-19609.9	1	22305.55	-61.53987	1.280475E-009	0.1005322	6
	39	14	125.558	11748.76	-23756.65	1	26503.06	-63.68548	5.218739E-010	0.1005362	6
	40	14	100.4464	13051.31	-28560.19	1	31400.97	-65.44076	1.760223E-009	0.1005249	6
	41	14	79.00281	14830.35	-34910.94	1	37930.37	-66.98396	1.238803E-009	0.1005301	6
	42	15	63.3446	16231.96	-42152.36	1	45169.66	-68.93939	2.219026E-010	0.1005326	6
	43	15	49.86702	18838.85	-51275.57	1	54626.8	-69.82647	4.647471E-010	0.1005257	6
	44	15	39.72458	22153.67	-62179.69	1	66008.32	-70.3898	6.102711E-010	0.100531	6
	45	16	31.6723	26029.98	-74934.39	1	79326.69	-70.84429	1.272021E-009	0.1005302	6
	46	16	24.93351	30716.44	-91860.85	1	96860.3	-71.51109	4.514879E-010	0.1005296	6
	47	16	19.86229	36630.61	-111392.2	1	117260.5	-71.79688	-7.461508E-010	0.1005286	5
	48	17	15.83615	44140.27	-134094	1	141172.1	-71.7798	1.241558E-010	0.1005282	5
	49	17	12.40079	55105.96	-164069.2	1	173076.2	-71.43433	9.300332E-010	0.100525	5
	50	17	9.93114	69079.66	-197131.9	1	208885.1	-70.68834	3.710026E-010	0.1005248	5
	51	18	7.944915	86287.62	-235975.3	1	251256.6	-69.91436	-1.235771E-010	0.1005358	5
	52	19	6.317385	108109.6	-282081.1	1	302088.4	-69.03031	-2.443306E-010	0.1005449	5
	53	19	5.008013	137246.4	-336088	1	363031.3	-67.78664	-2.63097E-011	0.1005308	5
	54	20	3.945707	175591.7	-398835.8	1	435777.9	-66.238	7.808981E-011	0.1005154	5
	55	22	3.158693	219176.5	-465755.1	1	514748.6	-64.79911	2.457832E-010	0.1005325	5
	56	23	2.504006	274650.1	-541213.1	1	606913.7	-63.09352	3.564724E-011	0.1005312	5
	57	25	1.998082	336926.4	-623138.2	1	708393	-61.60022	1.023667E-011	0.1004966	5
	58	26	1.584686	412410.4	-712938.8	1	823628.6	-59.95211	1.071003E-010	0.1005439	5
	59	28	1.266892	496472	-810842.5	1	950763	-58.52122	1.492677E-010	0.1005602	5
	60	31	0.999041	594903.9	-927786.1	1	1102133	-57.33168	1.085168E-010	0.1004984	4
