EXPLAIN
TAG	EISPOT
TITLE	LABEL	Potentiostatic EIS	Test &Identifier
DATE	LABEL	2/18/2020	Date
TIME	LABEL	17:30:24	Time
NOTES	NOTES	1	&Notes...
	
PSTAT	PSTAT	REF600-11020	Potentiostat
VDC	POTEN	0.00000E+000	T	DC &Voltage (V)
FREQINIT	QUANT	1.00000E+006	Initial Fre&q. (Hz)
FREQFINAL	QUANT	1.00000E+000	Final Fre&q. (Hz)
PTSPERDEC	QUANT	1.00000E+001	Points/&decade
VAC	QUANT	2.50000E+001	AC &Voltage (mV rms)
AREA	QUANT	1.60000E-004	&Area (cm^2)
CONDIT	TWOPARAM	F	1.50000E+001	0.00000E+000	Conditionin&g	Time(s)	E(V)
DELAY	TWOPARAM	F	1.00000E+002	0.00000E+000	Init. De&lay	Time(s)	Stab.(mV/s)
SPEED	SELECTOR	1	&Optimize for:
ZGUESS	QUANT	1.00000E+003	E&stimated Z (ohms)
OCVCURVE	TABLE	39
	Pt	T	Vf	Vm	Ach	Over
	#	s	V vs. Ref.	V	V	bits
	0	0.258333	2.88872E-002	2.88872E-002	5.71438E-004	...........
	1	0.516667	2.89222E-002	3.07201E-002	5.70971E-004	...........
	2	0.775	2.91283E-002	3.19934E-002	5.67738E-004	...........
	3	1.03333	2.96709E-002	3.26333E-002	5.67138E-004	...........
	4	1.29167	3.05466E-002	3.37952E-002	5.70971E-004	...........
	5	1.55	3.15640E-002	3.36647E-002	5.66771E-004	...........
	6	1.80833	3.24893E-002	3.34677E-002	5.67904E-004	...........
	7	2.06667	3.31281E-002	3.27259E-002	5.69704E-004	...........
	8	2.325	3.33831E-002	3.29260E-002	5.65138E-004	...........
	9	2.58333	3.33268E-002	3.30652E-002	5.70538E-004	...........
	10	2.84167	3.31539E-002	3.27898E-002	5.67604E-004	...........
	11	3.1	3.30053E-002	3.24610E-002	5.70104E-004	...........
	12	3.35833	3.28839E-002	3.24917E-002	5.68638E-004	...........
	13	3.61667	3.27557E-002	3.26310E-002	5.70138E-004	...........
	14	3.875	3.26468E-002	3.28141E-002	5.66804E-004	...........
	15	4.13333	3.26083E-002	3.27959E-002	5.66471E-004	...........
	16	4.39167	3.26437E-002	3.27696E-002	5.71371E-004	...........
	17	4.65	3.27111E-002	3.29759E-002	5.73438E-004	...........
	18	4.90833	3.27795E-002	3.30128E-002	5.69404E-004	...........
	19	5.16667	3.28468E-002	3.29403E-002	5.70238E-004	...........
	20	5.425	3.29029E-002	3.26930E-002	5.69838E-004	...........
	21	5.68333	3.29137E-002	3.25777E-002	5.75304E-004	...........
	22	5.94167	3.28569E-002	3.25001E-002	5.73838E-004	...........
	23	6.2	3.27524E-002	3.25640E-002	5.71838E-004	...........
	24	6.45833	3.26491E-002	3.26213E-002	5.71938E-004	...........
	25	6.71667	3.25885E-002	3.26761E-002	5.75871E-004	...........
	26	6.975	3.25797E-002	3.26309E-002	5.70071E-004	...........
	27	7.23333	3.26006E-002	3.25937E-002	5.71371E-004	...........
	28	7.49167	3.26194E-002	3.25623E-002	5.70004E-004	...........
	29	7.75	3.26172E-002	3.24753E-002	5.68671E-004	...........
	30	8.00833	3.25886E-002	3.22841E-002	5.69138E-004	...........
	31	8.26667	3.25243E-002	3.19226E-002	5.70538E-004	...........
	32	8.525	3.24013E-002	3.15416E-002	5.72238E-004	...........
	33	8.78333	3.21825E-002	3.03693E-002	5.68904E-004	...........
	34	9.04167	3.18270E-002	3.03896E-002	5.63104E-004	...........
	35	9.3	3.13841E-002	3.18216E-002	5.66438E-004	...........
	36	9.5583	3.10886E-002	3.29443E-002	5.69638E-004	...........
	37	9.8167	3.12274E-002	3.45621E-002	5.67738E-004	...........
	38	10.075	3.18513E-002	3.31930E-002	5.72204E-004	...........
EOC	QUANT	0.0318513	Open Circuit (V)
PSTATMODEL	IQUANT	4	Pstat Model
PSTATSECTION	LABEL	REF600-11020	Pstat Section
PSTATSERIALNO	LABEL	11020	Pstat Serial Number
CTRLMODE	IQUANT	1	Control Mode
IESTAB	IQUANT	0	I/E Stability
CASPEED	IQUANT	1	Control Amp Speed
CONVENTION	IQUANT	1	Current Convention
ICHRANGE	IQUANT	2	Ich Range
ICHRANGEMODE	TOGGLE	F	Ich Auto Range
ICHOFFSETENABLE	TOGGLE	T	Ich Offset Enable
ICHOFFSET	QUANT	0	Ich Offset (V)
ICHFILTER	IQUANT	3	Ich Filter
VCHRANGE	IQUANT	2	Vch Range
VCHRANGEMODE	TOGGLE	F	Vch Auto Range
VCHOFFSETENABLE	TOGGLE	T	Vch Offset Enable
VCHOFFSET	QUANT	0	Vch Offset (V)
VCHFILTER	IQUANT	3	Vch Filter
ACHRANGE	IQUANT	2	Ach Range
ACHOFFSETENABLE	TOGGLE	F	Ach Offset Enable
ACHOFFSET	QUANT	0	Ach Offset (V)
ACHFILTER	IQUANT	3	Ach Filter
IERANGELOWERLIMIT	IQUANT	1	I/E Range Lower Limit
IERANGEMODE	TOGGLE	F	I/E AutoRange
IERANGE	IQUANT	7	I/E Range
POSFEEDENABLE	TOGGLE	F	Positive Feedback IR Comp
POSFEEDRESISTANCE	QUANT	0	Positive Feedback Resistance (ohm)
ACHSELECT	IQUANT	0	Ach Select
CABLEID	IQUANT	14	Cable ID
DCCALDATE	LABEL	1/27/2020	DC Calibration Date
ACCALDATE	LABEL	1/27/2020	AC Calibration Date
THERMOSELECT	IQUANT	1	Thermo Select
FRAMEWORKVERSION	QUANT	6.33	Framework Version
INSTRUMENTVERSION	LABEL	3.50	Instrument Version
ZCURVE	TABLE
	Pt	Time	Freq	Zreal	Zimag	Zsig	Zmod	Zphz	Idc	Vdc	IERange
	#	s	Hz	ohm	ohm	V	ohm	°	A	V	#
	0	2	1000078	1500.353	-6239.37	1	6417.226	-76.47906	1.461586E-006	0.0337265	8
	1	3	794390.6	2028.753	-7634.519	1	7899.476	-75.11847	1.089458E-006	0.0333095	8
	2	4	630984.4	2649.879	-9261.893	1	9633.51	-74.03388	-3.903973E-007	0.0336127	8
	3	6	501234.4	3627.404	-11312.8	1	11880.13	-72.22176	-7.846514E-007	0.0335273	8
	4	8	398109.4	4983.592	-13624.94	1	14507.77	-69.90901	-2.321814E-007	0.033404	8
	5	10	316265.6	6710.104	-16186.26	1	17522	-67.48328	-8.551864E-007	0.0334447	8
	6	11	251203.1	9197.426	-18876.72	1	20998.17	-64.02297	-6.352208E-007	0.03337	8
	7	13	199546.9	12157.31	-21986.49	1	25123.81	-61.05984	5.502371E-007	0.0332187	8
	8	14	158578.1	16118.25	-24821.81	1	29595.95	-57.00199	-4.630649E-007	0.0333909	8
	9	16	125953.1	20831.39	-27139.55	1	34212.61	-52.49139	-7.947927E-007	0.0350243	7
	10	18	100078.1	25804.68	-29150.23	1	38930.93	-48.48376	5.589013E-009	0.0332319	7
	11	19	79453.13	31536.01	-30623.49	1	43958.14	-44.15894	2.230436E-008	0.0332214	7
	12	20	63140.62	37306.62	-31270.51	1	48678.83	-39.96983	-2.958303E-008	0.0332698	7
	13	22	50203.12	43108.98	-31219.55	1	53226.36	-35.91208	-3.049142E-008	0.0332755	7
	14	23	39890.62	48599.98	-30488	1	57371.39	-32.10109	-3.088929E-008	0.0332735	7
	15	25	31640.63	53844.08	-29429.71	1	61361.98	-28.65981	1.90908E-008	0.0331564	7
	16	26	25171.88	58505.89	-28231.55	1	64961.22	-25.75926	-3.052252E-008	0.033278	7
	17	28	20015.62	62995	-26635.65	1	68394.64	-22.91969	2.218856E-008	0.0332099	7
	18	29	15890.62	66528.44	-25147.66	1	71122.7	-20.70652	4.1211E-008	0.0331552	7
	19	31	12609.37	70148.63	-23639.94	1	74024.84	-18.6237	8.062782E-010	0.0331681	6
	20	32	10078.13	73042.86	-22319.48	1	76376.82	-16.99142	-5.791404E-009	0.0332511	6
	21	34	8015.625	75871.22	-21428.81	1	78839.3	-15.77162	-2.999236E-009	0.0332266	6
	22	35	6328.125	78650.7	-20625.8	1	81310.25	-14.69467	-3.277787E-009	0.0332291	6
	23	36	5015.625	81184.08	-20048.61	1	83622.97	-13.87179	-3.387942E-009	0.0332228	6
	24	38	3984.375	83630.7	-19530.68	1	85880.97	-13.14497	-1.690476E-009	0.0332264	6
	25	39	3170.956	86069.36	-19444.62	1	88238.47	-12.73044	-2.109539E-009	0.033301	6
	26	41	2527.573	88385.23	-19477.29	1	90505.88	-12.42754	2.380386E-009	0.0332871	6
	27	42	1976.103	90916.28	-19620.28	1	93009.27	-12.17801	-8.335831E-009	0.0333187	6
	28	44	1577.524	93185.46	-20123.42	1	95333.5	-12.18591	2.739455E-010	0.0331808	6
	29	45	1265.625	95546.6	-19915.73	1	97600.1	-11.77415	1.047987E-009	0.0331069	5
	30	47	998.264	97866	-20946.79	1	100082.6	-12.08104	1.933084E-010	0.0330333	5
	31	48	796.875	100082.4	-22275.73	1	102531.4	-12.54801	6.163657E-011	0.0331796	5
	32	49	627.7902	102477.4	-24133.83	1	105280.9	-13.25191	2.238889E-009	0.0330361	5
	33	51	505.5147	104693.3	-26288.54	1	107943.4	-14.09557	7.761932E-010	0.0331174	5
	34	52	397.9953	107252.2	-29281.8	1	111177.6	-15.27063	-2.132834E-010	0.0332386	5
	35	54	315.5048	109921.4	-32900.16	1	114739.5	-16.66276	2.962939E-010	0.0332348	5
	36	55	252.4038	112717	-37018.81	1	118640.3	-18.18135	4.173705E-010	0.0332321	5
	37	56	198.6229	116043.6	-42686.33	1	123645.6	-20.19591	-8.95646E-011	0.0332331	5
	38	58	158.3615	119563.6	-48941.32	1	129192.5	-22.2609	1.32074E-010	0.0332362	5
	39	59	125.558	123506	-56994.25	1	136022.3	-24.77188	2.23156E-011	0.0332366	5
	40	60	100.4464	128209.4	-65965.93	1	144184.4	-27.2266	4.60614E-010	0.0332299	5
	41	62	79.00281	133105	-78826.24	1	154694.9	-30.63448	3.642044E-010	0.0332288	5
	42	63	63.3446	139122.6	-88408.83	1	164837	-32.4349	3.852674E-010	0.0332301	5
	43	65	49.86702	148102.6	-110537.6	1	184805.1	-36.73613	3.704552E-010	0.0332329	5
	44	66	39.72458	155927.7	-128681.8	1	202169.3	-39.53168	5.25721E-011	0.033235	5
	45	68	31.6723	166099.2	-151334.4	1	224702.1	-42.33692	4.426241E-010	0.0332322	5
	46	69	24.93351	178781.5	-181865.4	1	255025.2	-45.48993	9.997852E-011	0.0332319	5
	47	71	19.86229	194154.8	-215429.6	1	290010.4	-47.97341	8.363735E-010	0.0332367	5
	48	72	15.83615	208336.3	-255008.2	1	329292	-50.75191	-7.470831E-010	0.0332307	5
	49	73	12.40079	237690	-308847.9	1	389722.4	-52.41804	7.055231E-010	0.033237	5
	50	75	9.93114	267642.2	-359301.3	1	448028.8	-53.31771	1.94567E-010	0.0332321	5
	51	76	7.944915	301780.9	-423901.8	1	520350.3	-54.55247	4.565137E-010	0.0332263	5
	52	78	6.317385	347470.4	-494843.1	1	604653.1	-54.92412	-1.299343E-011	0.0332335	5
	53	80	5.008013	405727.8	-580276.6	1	708050.9	-55.03886	1.134935E-009	0.0332421	6
	54	83	3.945707	476892.9	-680938.4	1	831326.6	-54.99466	1.066342E-009	0.0332307	6
	55	86	3.158693	558022	-781457.5	1	960242	-54.47018	1.131094E-010	0.0332275	5
	56	89	2.504006	660685.4	-900135.6	1	1116579	-53.72192	-2.264096E-012	0.0331905	4
	57	92	1.998082	776366.3	-1024815	1	1285687	-52.85361	2.059171E-010	0.0331379	4
	58	95	1.584686	919299.6	-1159121	1	1479417	-51.58206	-7.026685E-011	0.0331817	4
	59	99	1.266892	1078861	-1296516	1	1686681	-50.23537	2.07373E-011	0.0331434	4
	60	103	0.999041	1269544	-1450025	1	1927256	-48.79681	8.251461E-011	0.0332184	4
