EXPLAIN
TAG	EISPOT
TITLE	LABEL	Potentiostatic EIS	Test &Identifier
DATE	LABEL	3/9/2020	Date
TIME	LABEL	21:07:07	Time
NOTES	NOTES	1	&Notes...
	
PSTAT	PSTAT	REF600-11020	Potentiostat
VDC	POTEN	0.00000E+000	T	DC &Voltage (V)
FREQINIT	QUANT	1.00000E+006	Initial Fre&q. (Hz)
FREQFINAL	QUANT	1.00000E+000	Final Fre&q. (Hz)
PTSPERDEC	QUANT	1.00000E+001	Points/&decade
VAC	QUANT	2.50000E+001	AC &Voltage (mV rms)
AREA	QUANT	4.00000E-005	&Area (cm^2)
CONDIT	TWOPARAM	F	5.00000E+000	0.00000E+000	Conditionin&g	Time(s)	E(V)
DELAY	TWOPARAM	T	3.00000E+000	0.00000E+000	Init. De&lay	Time(s)	Stab.(mV/s)
SPEED	SELECTOR	0	&Optimize for:
ZGUESS	QUANT	1.00000E+003	E&stimated Z (ohms)
OCVCURVE	TABLE	12
	Pt	T	Vf	Vm	Ach	Over
	#	s	V vs. Ref.	V	V	bits
	0	0.258333	-2.15497E-003	-2.15497E-003	5.70930E-004	...........
	1	0.516667	-2.15498E-003	-2.15522E-003	5.76763E-004	...........
	2	0.775	-2.15505E-003	-2.15787E-003	5.78863E-004	...........
	3	1.03333	-2.15543E-003	-2.16114E-003	5.77997E-004	...........
	4	1.29167	-2.15641E-003	-2.16119E-003	5.74430E-004	...........
	5	1.55	-2.15797E-003	-2.16318E-003	5.70397E-004	...........
	6	1.80833	-2.15975E-003	-2.16526E-003	5.70330E-004	...........
	7	2.06667	-2.16150E-003	-2.16704E-003	5.72330E-004	...........
	8	2.325	-2.16330E-003	-2.17125E-003	5.72563E-004	...........
	9	2.58333	-2.16531E-003	-2.17202E-003	5.73697E-004	...........
	10	2.84167	-2.16758E-003	-2.17504E-003	5.70230E-004	...........
	11	3.1	-2.16988E-003	-2.17210E-003	5.69797E-004	...........
EOC	QUANT	-0.0021699	Open Circuit (V)
PSTATMODEL	IQUANT	4	Pstat Model
PSTATSECTION	LABEL	REF600-11020	Pstat Section
PSTATSERIALNO	LABEL	11020	Pstat Serial Number
CTRLMODE	IQUANT	1	Control Mode
IESTAB	IQUANT	0	I/E Stability
CASPEED	IQUANT	1	Control Amp Speed
CONVENTION	IQUANT	1	Current Convention
ICHRANGE	IQUANT	2	Ich Range
ICHRANGEMODE	TOGGLE	F	Ich Auto Range
ICHOFFSETENABLE	TOGGLE	T	Ich Offset Enable
ICHOFFSET	QUANT	0	Ich Offset (V)
ICHFILTER	IQUANT	3	Ich Filter
VCHRANGE	IQUANT	2	Vch Range
VCHRANGEMODE	TOGGLE	F	Vch Auto Range
VCHOFFSETENABLE	TOGGLE	T	Vch Offset Enable
VCHOFFSET	QUANT	0	Vch Offset (V)
VCHFILTER	IQUANT	3	Vch Filter
ACHRANGE	IQUANT	2	Ach Range
ACHOFFSETENABLE	TOGGLE	F	Ach Offset Enable
ACHOFFSET	QUANT	0	Ach Offset (V)
ACHFILTER	IQUANT	3	Ach Filter
IERANGELOWERLIMIT	IQUANT	1	I/E Range Lower Limit
IERANGEMODE	TOGGLE	F	I/E AutoRange
IERANGE	IQUANT	6	I/E Range
POSFEEDENABLE	TOGGLE	F	Positive Feedback IR Comp
POSFEEDRESISTANCE	QUANT	0	Positive Feedback Resistance (ohm)
ACHSELECT	IQUANT	0	Ach Select
CABLEID	IQUANT	14	Cable ID
DCCALDATE	LABEL	2/27/2020	DC Calibration Date
ACCALDATE	LABEL	2/27/2020	AC Calibration Date
THERMOSELECT	IQUANT	1	Thermo Select
FRAMEWORKVERSION	QUANT	6.33	Framework Version
INSTRUMENTVERSION	LABEL	3.50	Instrument Version
ZCURVE	TABLE
	Pt	Time	Freq	Zreal	Zimag	Zsig	Zmod	Zphz	Idc	Vdc	IERange
	#	s	Hz	ohm	ohm	V	ohm	°	A	V	#
	0	1	1000078	1482.565	-636.3267	1	1613.354	-23.22933	5.854893E-009	-0.0001116	8
	1	2	794390.6	1581.187	-604.3181	1	1692.736	-20.91649	1.221217E-007	-0.0004048	8
	2	2	630984.4	1667.373	-570.7809	1	1762.363	-18.89728	3.164977E-009	-0.0004738	8
	3	2	501234.4	1743.452	-541.6411	1	1825.651	-17.25854	5.647376E-008	-0.0005724	8
	4	3	398109.4	1811.683	-515.2273	1	1883.522	-15.8753	1.956059E-008	-0.0005941	8
	5	3	316265.6	1874.739	-496.5158	1	1939.374	-14.83395	2.213864E-008	-0.0005976	8
	6	3	251203.1	1933.776	-485.1889	1	1993.714	-14.08489	4.834401E-008	-0.0006048	8
	7	4	199546.9	1992.11	-478.0125	1	2048.658	-13.49318	5.414532E-008	-0.000601	8
	8	4	158578.1	2051.727	-479.0688	1	2106.915	-13.14283	5.197762E-008	-0.0006154	8
	9	4	125953.1	2129.176	-445.6442	1	2175.313	-11.82156	7.842119E-010	-0.0006506	7
	10	5	100078.1	2182.454	-455.2438	1	2229.428	-11.78253	3.459479E-009	-0.000679	7
	11	5	79453.13	2241.234	-477.8288	1	2291.604	-12.03521	3.103163E-009	-0.0006861	7
	12	5	63140.62	2302.741	-503.4483	1	2357.133	-12.33252	3.621971E-009	-0.0006861	7
	13	6	50203.12	2367.07	-531.5721	1	2426.023	-12.65691	7.543834E-010	-0.0006909	7
	14	6	39890.62	2434.592	-563.642	1	2498.986	-13.03512	4.230142E-010	-0.0006942	7
	15	6	31640.63	2504.752	-600.3438	1	2575.694	-13.4785	1.216801E-009	-0.000694	7
	16	6	25171.88	2576.225	-643.1224	1	2655.285	-14.0167	1.341788E-009	-0.0006918	7
	17	7	20015.62	2650.105	-693.4977	1	2739.342	-14.66471	3.399906E-010	-0.0006977	7
	18	7	15890.62	2726.751	-753.9472	1	2829.064	-15.45613	2.243375E-010	-0.0006993	7
	19	7	12609.37	2806.677	-827.474	1	2926.115	-16.42675	6.165962E-010	-0.000698	7
	20	8	10078.13	2887.756	-914.2767	1	3029.032	-17.56803	6.353906E-010	-0.0006928	7
	21	8	8015.625	2975.173	-1022.387	1	3145.939	-18.96474	1.471415E-009	-0.0006952	7
	22	8	6328.125	3073.885	-1160.276	1	3285.576	-20.67964	1.988684E-009	-0.0006896	7
	23	9	5015.625	3181.713	-1323.005	1	3445.815	-22.57829	1.660512E-009	-0.0007039	7
	24	9	3984.375	3302.751	-1518.576	1	3635.14	-24.69255	2.309057E-009	-0.0006995	7
	25	9	3170.956	3439.997	-1748.124	1	3858.694	-26.93858	2.471575E-009	-0.000705	7
	26	10	2527.573	3595.84	-2016.008	1	4122.42	-29.27718	2.241901E-009	-0.000701	7
	27	10	1976.103	3787.635	-2359.975	1	4462.696	-31.92594	2.112199E-009	-0.000699	7
	28	10	1577.524	3980.993	-2726.181	1	4824.974	-34.40331	1.418397E-009	-0.0007086	7
	29	11	1265.625	4186.217	-3150.938	1	5239.544	-36.96854	2.259177E-009	-0.0007057	7
	30	11	998.264	4421.227	-3695.968	1	5762.588	-39.89427	9.415148E-010	-0.0007074	7
	31	11	796.875	4659.173	-4327.663	1	6358.975	-42.88741	2.618638E-009	-0.0007052	7
	32	12	627.7902	4926.852	-5144.336	1	7123.065	-46.23709	3.80406E-009	-0.0007089	7
	33	12	505.5147	5198.43	-6059.708	1	7983.968	-49.37476	8.314757E-010	-0.0007102	7
	34	12	397.9953	5536.423	-7315.316	1	9174.193	-52.88061	3.283589E-009	-0.0006951	7
	35	13	315.5048	5926.074	-8821.292	1	10627.02	-56.10711	3.22625E-010	-0.0006418	6
	36	13	252.4038	6368.314	-10602.12	1	12367.71	-59.00826	2.389559E-010	-0.0006485	6
	37	13	198.6229	6947.93	-12953.03	1	14698.8	-61.79116	2.631376E-010	-0.0006455	6
	38	14	158.3615	7625	-15680.33	1	17435.98	-64.06736	3.347768E-010	-0.0006466	6
	39	14	125.558	8491.51	-19093.81	1	20896.88	-66.02406	3.663118E-010	-0.0006452	6
	40	14	100.4464	9533.46	-23084.77	1	24975.86	-67.56054	2.131283E-010	-0.0006516	6
	41	15	79.00281	10955.75	-28318.08	1	30363.5	-68.84944	2.803096E-010	-0.0006509	6
	42	15	63.3446	12623.16	-34159.78	1	36417.51	-69.71907	2.574399E-010	-0.0006576	6
	43	15	49.86702	14940.17	-41817.14	1	44405.88	-70.33952	1.328842E-010	-0.0006516	6
	44	16	39.72458	17783.05	-50596.89	1	53630.98	-70.63519	4.334967E-010	-0.0006525	6
	45	16	31.6723	21440.08	-61072.73	1	64726.77	-70.65596	4.397184E-010	-0.0006579	6
	46	16	24.93351	26393.14	-74222.99	1	78775.95	-70.42499	-2.855511E-010	-0.0006555	6
	47	17	19.86229	32459.23	-89070.2	1	94800.33	-69.9771	-7.582993E-010	-0.0006562	6
	48	17	15.83615	40113.4	-106336.1	1	113650.6	-69.33192	5.082751E-010	-0.0006512	5
	49	17	12.40079	50647.12	-128205	1	137846.5	-68.4436	-7.597725E-010	-0.0006494	5
	50	17	9.93114	62282.96	-151094.6	1	163428.1	-67.59797	-6.008737E-010	-0.000656	5
	51	18	7.944915	76723.16	-177347.3	1	193231.7	-66.60595	6.608532E-010	-0.0006512	5
	52	18	6.317385	94273.22	-208578.3	1	228893.8	-65.67799	-1.747362E-010	-0.0006401	5
	53	19	5.008013	115521.8	-244784.2	1	270674.3	-64.73581	-3.263277E-010	-0.0006569	5
	54	20	3.945707	141525.1	-286895.6	1	319903.8	-63.74295	1.767514E-011	-0.0006448	5
	55	21	3.158693	169325	-332544.8	1	373171.5	-63.01574	-2.183372E-010	-0.000664	5
	56	22	2.504006	203065.9	-386328.2	1	436446.1	-62.27222	5.681353E-011	-0.0006675	5
	57	23	1.998082	239545.9	-447091.3	1	507220.7	-61.81815	1.093763E-010	-0.0006324	5
	58	25	1.584686	283623.2	-518185.3	1	590726.8	-61.30639	-1.253208E-011	-0.0006832	5
	59	27	1.266892	332671.7	-600315.9	1	686330.6	-61.00648	-2.748778E-011	-0.000705	5
	60	29	0.999041	390919.3	-702344.8	1	803807.3	-60.90005	-3.386394E-011	-0.0006996	5
