EXPLAIN
TAG	EISPOT
TITLE	LABEL	Potentiostatic EIS	Test &Identifier
DATE	LABEL	1/14/2020	Date
TIME	LABEL	17:38:42	Time
NOTES	NOTES	5	&Notes...
	
	
	
	
	
PSTAT	PSTAT	REF600-11020	Potentiostat
VDC	POTEN	0.00000E+000	T	DC &Voltage (V)
FREQINIT	QUANT	1.00000E+006	Initial Fre&q. (Hz)
FREQFINAL	QUANT	1.00000E+000	Final Fre&q. (Hz)
PTSPERDEC	QUANT	1.00000E+001	Points/&decade
VAC	QUANT	2.50000E+001	AC &Voltage (mV rms)
AREA	QUANT	1.00000E-001	&Area (cm^2)
CONDIT	TWOPARAM	T	5.00000E+000	0.00000E+000	Conditionin&g	Time(s)	E(V)
DELAY	TWOPARAM	T	5.00000E+000	0.00000E+000	Init. De&lay	Time(s)	Stab.(mV/s)
SPEED	SELECTOR	0	&Optimize for:
ZGUESS	QUANT	5.00000E+002	E&stimated Z (ohms)
OCVCURVE	TABLE	19
	Pt	T	Vf	Vm	Ach	Over
	#	s	V vs. Ref.	V	V	bits
	0	0.258333	4.20984E-003	4.20984E-003	6.49346E-004	...........
	1	0.516667	4.20693E-003	4.05750E-003	6.46913E-004	...........
	2	0.775	4.18915E-003	3.91761E-003	6.52680E-004	...........
	3	1.03333	4.13976E-003	3.81693E-003	6.40046E-004	...........
	4	1.29167	4.05445E-003	3.70394E-003	6.44513E-004	...........
	5	1.55	3.94631E-003	3.60907E-003	6.43513E-004	...........
	6	1.80833	3.83292E-003	3.54348E-003	6.50080E-004	...........
	7	2.06667	3.72648E-003	3.47041E-003	6.49713E-004	...........
	8	2.325	3.63299E-003	3.42557E-003	6.51646E-004	...........
	9	2.58333	3.55350E-003	3.36283E-003	6.48913E-004	...........
	10	2.84167	3.48619E-003	3.33846E-003	6.50480E-004	...........
	11	3.1	3.42918E-003	3.30845E-003	6.50113E-004	...........
	12	3.35833	3.38174E-003	3.27309E-003	6.51513E-004	...........
	13	3.61667	3.34266E-003	3.25422E-003	6.53280E-004	...........
	14	3.875	3.30934E-003	3.21008E-003	6.48480E-004	...........
	15	4.13333	3.27906E-003	3.20388E-003	6.46113E-004	...........
	16	4.39167	3.25065E-003	3.17591E-003	6.52813E-004	...........
	17	4.65	3.22454E-003	3.15526E-003	6.44780E-004	...........
	18	4.90833	3.20080E-003	3.13297E-003	6.52680E-004	...........
EOC	QUANT	0.0032008	Open Circuit (V)
PSTATMODEL	IQUANT	4	Pstat Model
PSTATSECTION	LABEL	REF600-11020	Pstat Section
PSTATSERIALNO	LABEL	11020	Pstat Serial Number
CTRLMODE	IQUANT	1	Control Mode
IESTAB	IQUANT	0	I/E Stability
CASPEED	IQUANT	1	Control Amp Speed
CONVENTION	IQUANT	1	Current Convention
ICHRANGE	IQUANT	2	Ich Range
ICHRANGEMODE	TOGGLE	F	Ich Auto Range
ICHOFFSETENABLE	TOGGLE	T	Ich Offset Enable
ICHOFFSET	QUANT	0	Ich Offset (V)
ICHFILTER	IQUANT	3	Ich Filter
VCHRANGE	IQUANT	2	Vch Range
VCHRANGEMODE	TOGGLE	F	Vch Auto Range
VCHOFFSETENABLE	TOGGLE	T	Vch Offset Enable
VCHOFFSET	QUANT	0	Vch Offset (V)
VCHFILTER	IQUANT	3	Vch Filter
ACHRANGE	IQUANT	2	Ach Range
ACHOFFSETENABLE	TOGGLE	F	Ach Offset Enable
ACHOFFSET	QUANT	0	Ach Offset (V)
ACHFILTER	IQUANT	3	Ach Filter
IERANGELOWERLIMIT	IQUANT	1	I/E Range Lower Limit
IERANGEMODE	TOGGLE	F	I/E AutoRange
IERANGE	IQUANT	7	I/E Range
POSFEEDENABLE	TOGGLE	F	Positive Feedback IR Comp
POSFEEDRESISTANCE	QUANT	0	Positive Feedback Resistance (ohm)
ACHSELECT	IQUANT	0	Ach Select
CABLEID	IQUANT	14	Cable ID
DCCALDATE	LABEL	12/22/2019	DC Calibration Date
ACCALDATE	LABEL	12/22/2019	AC Calibration Date
THERMOSELECT	IQUANT	1	Thermo Select
FRAMEWORKVERSION	QUANT	6.33	Framework Version
INSTRUMENTVERSION	LABEL	3.50	Instrument Version
ZCURVE	TABLE
	Pt	Time	Freq	Zreal	Zimag	Zsig	Zmod	Zphz	Idc	Vdc	IERange
	#	s	Hz	ohm	ohm	V	ohm	°	A	V	#
	0	1	1000078	2339.736	-1966.386	1	3056.312	-40.04472	1.735314E-006	0.0048773	8
	1	1	794390.6	2734.517	-1961.388	1	3365.208	-35.65075	-3.197527E-006	0.0057538	8
	2	1	630984.4	3132.54	-1895.281	1	3661.27	-31.1752	3.866998E-007	0.0051434	8
	3	2	501234.4	3463.018	-1778.254	1	3892.901	-27.18042	-1.306228E-006	0.0051632	8
	4	2	398109.4	3781.078	-1627.994	1	4116.663	-23.29494	-2.077967E-006	0.0053697	8
	5	2	316265.6	4020.517	-1474.799	1	4282.474	-20.14396	-5.819745E-007	0.0049975	8
	6	2	251203.1	4227.707	-1308.046	1	4425.437	-17.19198	2.622234E-007	0.0048027	8
	7	3	199546.9	4395.671	-1164.301	1	4547.254	-14.83551	2.044853E-007	0.0048094	8
	8	3	158578.1	4514.606	-1016.796	1	4627.693	-12.69258	-1.863025E-006	0.0052518	8
	9	3	125953.1	4646.251	-881.0054	1	4729.04	-10.73675	4.15378E-007	0.0043782	7
	10	4	100078.1	4717.34	-774.6553	1	4780.522	-9.325562	-2.672979E-009	0.0049261	7
	11	4	79453.13	4790.53	-702.3701	1	4841.746	-8.34107	1.435436E-008	0.004787	7
	12	4	63140.62	4852.841	-645.8463	1	4895.629	-7.580731	-2.207718E-008	0.0048475	7
	13	5	50203.12	4906.849	-605.5121	1	4944.068	-7.034816	-3.989054E-008	0.0048918	7
	14	5	39890.62	4955.07	-580.6499	1	4988.975	-6.683609	5.567875E-008	0.0047226	7
	15	5	31640.63	5000.75	-571.5415	1	5033.305	-6.52011	-1.571379E-008	0.0048319	7
	16	6	25171.88	5043.647	-580.2379	1	5076.914	-6.562645	5.524742E-008	0.0047445	7
	17	6	20015.62	5083.401	-606.7687	1	5119.486	-6.806776	1.529513E-008	0.004771	7
	18	6	15890.62	5129.84	-648.1335	1	5170.623	-7.200923	1.581079E-008	0.0047765	7
	19	7	12609.37	5176.502	-711.942	1	5225.23	-7.830956	-4.632603E-009	0.0048667	7
	20	7	10078.13	5222.59	-792.9363	1	5282.442	-8.633181	4.743421E-010	0.0048584	7
	21	7	8015.625	5269.422	-905.097	1	5346.589	-9.74625	5.630851E-008	0.0047373	7
	22	7	6328.125	5331.229	-1046.383	1	5432.948	-11.10452	5.605068E-008	0.0047379	7
	23	8	5015.625	5394.947	-1223.773	1	5532.004	-12.78051	3.436803E-008	0.004735	7
	24	8	3984.375	5473.183	-1439.407	1	5659.295	-14.73471	-2.86679E-010	0.004846	7
	25	8	3170.956	5548.205	-1713.977	1	5806.917	-17.16721	-3.501192E-009	0.0049036	7
	26	9	2527.573	5640.984	-2041.466	1	5999.023	-19.89513	5.754462E-008	0.004706	7
	27	9	1976.103	5760.333	-2481.117	1	6271.952	-23.30274	-2.215383E-008	0.0048292	7
	28	9	1577.524	5855.688	-2954.16	1	6558.669	-26.77068	-4.438528E-010	0.0048408	7
	29	10	1265.625	6037.703	-3567.938	1	7013.133	-30.58067	-2.305758E-008	0.0049154	7
	30	10	998.264	6231.462	-4349.029	1	7599.024	-34.91175	-5.2714E-009	0.0048556	7
	31	10	796.875	6452.624	-5245.867	1	8315.977	-39.11049	-2.536412E-008	0.004836	7
	32	11	627.7902	6733.722	-6417.057	1	9301.7	-43.62061	-2.244952E-009	0.0049022	7
	33	11	505.5147	7052.933	-7705.238	1	10445.79	-47.5308	-1.502696E-009	0.0047873	6
	34	11	397.9953	7478.708	-9442.383	1	12045.32	-51.61951	1.091847E-009	0.0048316	6
	35	12	315.5048	7995.667	-11509.74	1	14014.45	-55.2128	8.573056E-010	0.0048311	6
	36	12	252.4038	8612.771	-13923.98	1	16372.45	-58.26086	7.636516E-010	0.0048269	6
	37	12	198.6229	9453.66	-17081.69	1	19523.21	-61.03819	9.09576E-010	0.0048275	6
	38	13	158.3615	10458.37	-20710.74	1	23201.56	-63.20744	6.225421E-010	0.0048257	6
	39	13	125.558	11772.86	-25215.24	1	27828.2	-64.97238	7.951095E-010	0.0048228	6
	40	13	100.4464	13365.59	-30430.82	1	33236.64	-66.28832	1.142928E-009	0.004824	6
	41	14	79.00281	15609.84	-37219.35	1	40360.21	-67.24677	1.061298E-009	0.0048201	6
	42	14	63.3446	18031.91	-44747.16	1	48243.73	-68.05189	6.357284E-010	0.0048215	6
	43	14	49.86702	21657.95	-54314.72	1	58473.54	-68.2604	9.529655E-010	0.0048171	6
	44	15	39.72458	26243.17	-65161.23	1	70247.34	-68.06328	1.342858E-009	0.0048222	6
	45	15	31.6723	31847.65	-77897.28	1	84156.16	-67.76321	6.198558E-010	0.0048197	6
	46	15	24.93351	39559.11	-93713.16	1	101720.6	-67.11395	1.19698E-009	0.0048208	6
	47	16	19.86229	48791.58	-111080.6	1	121324	-66.28676	8.518217E-011	0.0048144	5
	48	16	15.83615	60839.99	-130467.3	1	143955.7	-64.99925	1.6868E-009	0.0048156	5
	49	16	12.40079	75687.91	-156112.6	1	173492.9	-64.13454	8.310913E-010	0.0048167	5
	50	16	9.93114	92484.01	-180096.3	1	202454.9	-62.81836	1.063458E-009	0.0048285	5
	51	17	7.944915	113715.4	-208154.4	1	237190.8	-61.35208	-3.608049E-010	0.0048212	5
	52	17	6.317385	137893.7	-240206.7	1	276972.8	-60.14148	3.589872E-010	0.0048091	5
	53	18	5.008013	167544.9	-276084.6	1	322945.8	-58.74808	3.78714E-010	0.0048263	5
	54	19	3.945707	203492.6	-316169	1	375994.8	-57.23388	1.249292E-010	0.0048303	5
	55	20	3.158693	241177.1	-357866.5	1	431549.4	-56.02277	-7.872358E-011	0.0048118	5
	56	22	2.504006	286405.5	-404379.6	1	495531	-54.69162	1.736641E-010	0.0048122	5
	57	23	1.998082	333919.5	-454548.9	1	564018.6	-53.69835	2.618413E-010	0.0048428	5
	58	25	1.584686	387811.9	-509614.3	1	640394.3	-52.72919	9.158959E-011	0.0047987	5
	59	27	1.266892	445393	-570915.9	1	724099.4	-52.04086	4.427762E-011	0.0047814	5
	60	29	0.999041	510834.2	-646251.1	1	823767	-51.67512	-8.458399E-012	0.0047866	5
