EXPLAIN
TAG	EISPOT
TITLE	LABEL	Potentiostatic EIS	Test &Identifier
DATE	LABEL	3/9/2020	Date
TIME	LABEL	21:11:15	Time
NOTES	NOTES	1	&Notes...
	
PSTAT	PSTAT	REF600-11020	Potentiostat
VDC	POTEN	0.00000E+000	T	DC &Voltage (V)
FREQINIT	QUANT	1.00000E+006	Initial Fre&q. (Hz)
FREQFINAL	QUANT	1.00000E+000	Final Fre&q. (Hz)
PTSPERDEC	QUANT	1.00000E+001	Points/&decade
VAC	QUANT	2.50000E+001	AC &Voltage (mV rms)
AREA	QUANT	4.00000E-005	&Area (cm^2)
CONDIT	TWOPARAM	F	5.00000E+000	0.00000E+000	Conditionin&g	Time(s)	E(V)
DELAY	TWOPARAM	T	3.00000E+000	0.00000E+000	Init. De&lay	Time(s)	Stab.(mV/s)
SPEED	SELECTOR	0	&Optimize for:
ZGUESS	QUANT	1.00000E+003	E&stimated Z (ohms)
OCVCURVE	TABLE	12
	Pt	T	Vf	Vm	Ach	Over
	#	s	V vs. Ref.	V	V	bits
	0	0.258333	4.89252E-002	4.89252E-002	5.54964E-004	...........
	1	0.516667	4.89246E-002	4.88907E-002	5.50164E-004	...........
	2	0.775	4.89205E-002	4.88566E-002	5.55364E-004	...........
	3	1.03333	4.89088E-002	4.88205E-002	5.58564E-004	...........
	4	1.29167	4.88875E-002	4.87874E-002	5.57830E-004	...........
	5	1.55	4.88585E-002	4.87556E-002	5.62130E-004	...........
	6	1.80833	4.88256E-002	4.87256E-002	5.61364E-004	...........
	7	2.06667	4.87920E-002	4.86941E-002	5.57064E-004	...........
	8	2.325	4.87594E-002	4.86620E-002	5.54564E-004	...........
	9	2.58333	4.87276E-002	4.86326E-002	5.51564E-004	...........
	10	2.84167	4.86964E-002	4.86050E-002	5.57264E-004	...........
	11	3.1	4.86657E-002	4.85717E-002	5.56130E-004	...........
EOC	QUANT	0.0486657	Open Circuit (V)
PSTATMODEL	IQUANT	4	Pstat Model
PSTATSECTION	LABEL	REF600-11020	Pstat Section
PSTATSERIALNO	LABEL	11020	Pstat Serial Number
CTRLMODE	IQUANT	1	Control Mode
IESTAB	IQUANT	0	I/E Stability
CASPEED	IQUANT	1	Control Amp Speed
CONVENTION	IQUANT	1	Current Convention
ICHRANGE	IQUANT	2	Ich Range
ICHRANGEMODE	TOGGLE	F	Ich Auto Range
ICHOFFSETENABLE	TOGGLE	T	Ich Offset Enable
ICHOFFSET	QUANT	0	Ich Offset (V)
ICHFILTER	IQUANT	3	Ich Filter
VCHRANGE	IQUANT	2	Vch Range
VCHRANGEMODE	TOGGLE	F	Vch Auto Range
VCHOFFSETENABLE	TOGGLE	T	Vch Offset Enable
VCHOFFSET	QUANT	0	Vch Offset (V)
VCHFILTER	IQUANT	3	Vch Filter
ACHRANGE	IQUANT	2	Ach Range
ACHOFFSETENABLE	TOGGLE	F	Ach Offset Enable
ACHOFFSET	QUANT	0	Ach Offset (V)
ACHFILTER	IQUANT	3	Ach Filter
IERANGELOWERLIMIT	IQUANT	1	I/E Range Lower Limit
IERANGEMODE	TOGGLE	F	I/E AutoRange
IERANGE	IQUANT	7	I/E Range
POSFEEDENABLE	TOGGLE	F	Positive Feedback IR Comp
POSFEEDRESISTANCE	QUANT	0	Positive Feedback Resistance (ohm)
ACHSELECT	IQUANT	0	Ach Select
CABLEID	IQUANT	14	Cable ID
DCCALDATE	LABEL	2/27/2020	DC Calibration Date
ACCALDATE	LABEL	2/27/2020	AC Calibration Date
THERMOSELECT	IQUANT	1	Thermo Select
FRAMEWORKVERSION	QUANT	6.33	Framework Version
INSTRUMENTVERSION	LABEL	3.50	Instrument Version
ZCURVE	TABLE
	Pt	Time	Freq	Zreal	Zimag	Zsig	Zmod	Zphz	Idc	Vdc	IERange
	#	s	Hz	ohm	ohm	V	ohm	°	A	V	#
	0	1	1000078	1745.864	-2110.324	1	2738.888	-50.39917	1.2389E-008	0.0511102	8
	1	1	794390.6	2069.083	-2331.86	1	3117.479	-48.41702	4.978567E-008	0.050732	8
	2	1	630984.4	2431.197	-2550.378	1	3523.513	-46.3705	4.719179E-008	0.0505863	8
	3	2	501234.4	2827.621	-2767.427	1	3956.525	-44.38361	4.772721E-008	0.0504927	8
	4	2	398109.4	3264.68	-2984.739	1	4423.438	-42.43516	8.740979E-008	0.0504076	8
	5	2	316265.6	3735.707	-3203.49	1	4921.164	-40.61416	7.679995E-009	0.0504112	8
	6	3	251203.1	4257.689	-3409.843	1	5454.809	-38.69009	5.098949E-008	0.0504222	8
	7	3	199546.9	4840.01	-3593.274	1	6028.043	-36.59058	3.715281E-008	0.0503954	8
	8	3	158578.1	5466.535	-3743.464	1	6625.445	-34.40321	3.634158E-008	0.0504044	8
	9	4	125953.1	6243.226	-3762.834	1	7289.499	-31.07765	1.328635E-009	0.0503665	7
	10	4	100078.1	6904.486	-3802.505	1	7882.32	-28.84288	1.761605E-009	0.0503404	7
	11	4	79453.13	7599.135	-3789.231	1	8491.474	-26.50267	2.104636E-009	0.0503345	7
	12	5	63140.62	8272.201	-3695.082	1	9059.964	-24.06968	2.156499E-009	0.0503327	7
	13	5	50203.12	8908.167	-3535.54	1	9584.13	-21.64751	2.942543E-009	0.0503346	7
	14	5	39890.62	9485.344	-3321.236	1	10049.99	-19.2974	1.78068E-009	0.0503288	7
	15	6	31640.63	9996.43	-3092.882	1	10463.96	-17.192	3.427771E-009	0.05033	7
	16	6	25171.88	10422.08	-2854.742	1	10805.98	-15.31834	2.500156E-009	0.0503297	7
	17	6	20015.62	10789.88	-2632.47	1	11106.37	-13.71093	1.848649E-009	0.0503254	7
	18	6	15890.62	11103.51	-2431.774	1	11366.68	-12.35328	1.977731E-009	0.0503225	7
	19	7	12609.37	11470.14	-2059.236	1	11653.52	-10.17789	3.289157E-010	0.0503756	6
	20	7	10078.13	11664.85	-1971.255	1	11830.24	-9.59185	1.496875E-010	0.0503691	6
	21	7	8015.625	11836.4	-1936.116	1	11993.7	-9.289777	1.403046E-010	0.0503759	6
	22	8	6328.125	11997.23	-1937.865	1	12152.73	-9.175508	2.043833E-010	0.0503763	6
	23	8	5015.625	12144.74	-1993.843	1	12307.32	-9.323274	-1.555091E-010	0.0503712	6
	24	8	3984.375	12278.1	-2110.82	1	12458.22	-9.75479	1.192137E-010	0.0503634	6
	25	9	3170.956	12409.28	-2297.162	1	12620.11	-10.48767	5.139028E-012	0.0503679	6
	26	9	2527.573	12543.41	-2560.074	1	12801.99	-11.53548	-1.158266E-010	0.0503649	6
	27	9	1976.103	12692.87	-2946.925	1	13030.48	-13.07088	2.506419E-010	0.0503724	6
	28	10	1577.524	12852.01	-3409.97	1	13296.69	-14.85967	1.481509E-011	0.0503681	6
	29	10	1265.625	13022.73	-3981.164	1	13617.68	-16.99885	5.762113E-012	0.0503682	6
	30	10	998.264	13239.08	-4752.898	1	14066.38	-19.74841	-5.944496E-011	0.0503664	6
	31	11	796.875	13478.83	-5660.719	1	14619.25	-22.781	-1.344232E-010	0.0503574	6
	32	11	627.7902	13789.78	-6855.153	1	15399.71	-26.43282	-2.454374E-011	0.0503619	6
	33	11	505.5147	14127.54	-8178	1	16323.82	-30.06524	-3.467897E-010	0.0503673	6
	34	12	397.9953	14582.85	-9961.76	1	17660.58	-34.33757	3.234176E-010	0.0503763	6
	35	12	315.5048	15130.8	-12085.62	1	19365.01	-38.61587	3.285112E-010	0.0503718	6
	36	12	252.4038	15782.66	-14563.15	1	21475.05	-42.6987	2.780025E-010	0.0503676	6
	37	13	198.6229	16665.67	-17799.28	1	24383.58	-46.88386	3.756808E-010	0.0503683	6
	38	13	158.3615	17703.14	-21519.26	1	27865.39	-50.55707	1.986393E-010	0.050362	6
	39	13	125.558	19039.07	-26133.29	1	32333.18	-53.92527	2.012189E-010	0.0503633	6
	40	13	100.4464	20641.57	-31488.54	1	37651.07	-56.7541	2.910578E-010	0.0503599	6
	41	14	79.00281	22827.47	-38465.41	1	44728.98	-59.31279	3.008755E-010	0.0503619	6
	42	14	63.3446	25371.86	-46208.05	1	52715.42	-61.22975	3.089922E-010	0.0503641	6
	43	15	49.86702	28916.9	-56321.44	1	63311.07	-62.82285	-1.011782E-011	0.0503616	6
	44	15	39.72458	33266.83	-67840.8	1	75558.29	-63.87823	2.602283E-010	0.0503635	6
	45	15	31.6723	38906.64	-81517.23	1	90325.99	-64.48573	3.99883E-010	0.0503596	6
	46	16	24.93351	46715.78	-98536.5	1	109049.5	-64.63454	-4.569639E-010	0.0503656	5
	47	16	19.86229	56413.8	-117551.1	1	130387	-64.36325	-7.083364E-010	0.0503673	5
	48	16	15.83615	68836.17	-139341.8	1	155417.3	-63.71018	1.223959E-010	0.0503703	5
	49	16	12.40079	86283.49	-166006.5	1	187090.9	-62.53641	-7.847736E-010	0.0503727	5
	50	17	9.93114	105977.7	-192969.6	1	220155.7	-61.22468	-3.895764E-010	0.0503639	5
	51	17	7.944915	130272.5	-221707	1	257147.6	-59.56199	1.13709E-009	0.0503675	5
	52	18	6.317385	160344.6	-254304.4	1	300634.6	-57.76765	-2.859566E-010	0.0503862	5
	53	18	5.008013	195991.9	-288812.5	1	349035.1	-55.83868	-4.434247E-010	0.0503683	5
	54	19	3.945707	237526.1	-324367.5	1	402036	-53.78563	2.353397E-010	0.0503733	5
	55	20	3.158693	280797.1	-359983.3	1	456546.8	-52.04477	-2.437121E-010	0.0503645	5
	56	21	2.504006	328796.1	-397431.1	1	515808.4	-50.39893	3.20612E-011	0.0503584	5
	57	22	1.998082	378648.5	-437340.4	1	578481.9	-49.11405	3.060387E-010	0.0503996	5
	58	24	1.584686	430567.2	-481253.8	1	645750.2	-48.1817	1.562244E-010	0.0503585	5
	59	26	1.266892	484840.3	-529041.3	1	717603.5	-47.49627	6.004839E-011	0.050327	5
	60	28	0.999041	544590.8	-589584.9	1	802614.1	-47.2718	-1.227716E-011	0.0503193	5
