EXPLAIN
TAG	EISPOT
TITLE	LABEL	Potentiostatic EIS	Test &Identifier
DATE	LABEL	7/5/2020	Date
TIME	LABEL	17:11:12	Time
NOTES	NOTES	1	&Notes...
	
PSTAT	PSTAT	REF600-11020	Potentiostat
VDC	POTEN	0.00000E+000	T	DC &Voltage (V)
FREQINIT	QUANT	1.00000E+006	Initial Fre&q. (Hz)
FREQFINAL	QUANT	1.00000E+000	Final Fre&q. (Hz)
PTSPERDEC	QUANT	1.00000E+001	Points/&decade
VAC	QUANT	2.50000E+001	AC &Voltage (mV rms)
AREA	QUANT	4.00000E-004	&Area (cm^2)
CONDIT	TWOPARAM	F	5.00000E+000	0.00000E+000	Conditionin&g	Time(s)	E(V)
DELAY	TWOPARAM	F	3.00000E+000	0.00000E+000	Init. De&lay	Time(s)	Stab.(mV/s)
SPEED	SELECTOR	0	&Optimize for:
ZGUESS	QUANT	1.00000E+003	E&stimated Z (ohms)
OCVCURVE	TABLE	39
	Pt	T	Vf	Vm	Ach	Over
	#	s	V vs. Ref.	V	V	bits
	0	0.258333	8.31071E-002	8.31071E-002	5.02317E-004	...........
	1	0.516667	8.31039E-002	8.29389E-002	5.05150E-004	...........
	2	0.775	8.30026E-002	7.85088E-002	4.99584E-004	...........
	3	1.03333	8.25350E-002	7.89768E-002	5.10317E-004	...........
	4	1.29167	8.14911E-002	7.54722E-002	5.02150E-004	...........
	5	1.55	8.00217E-002	7.77541E-002	4.98184E-004	...........
	6	1.80833	7.84846E-002	7.19940E-002	5.02450E-004	...........
	7	2.06667	7.70547E-002	7.48768E-002	4.97650E-004	...........
	8	2.325	7.57563E-002	7.34357E-002	4.98584E-004	...........
	9	2.58333	7.47581E-002	7.51256E-002	5.03750E-004	...........
	10	2.84167	7.41869E-002	7.07382E-002	5.05784E-004	...........
	11	3.1	7.38243E-002	7.39608E-002	5.01150E-004	...........
	12	3.35833	7.33722E-002	6.92822E-002	5.06317E-004	...........
	13	3.61667	7.27609E-002	7.24876E-002	5.04650E-004	...........
	14	3.875	7.20727E-002	6.86086E-002	5.05284E-004	...........
	15	4.13333	7.14227E-002	7.21875E-002	5.06950E-004	...........
	16	4.39167	7.09136E-002	6.85396E-002	5.04850E-004	...........
	17	4.65	7.05648E-002	7.09399E-002	4.99184E-004	...........
	18	4.90833	7.02828E-002	6.76252E-002	4.98750E-004	...........
	19	5.16667	6.99740E-002	7.09811E-002	5.00217E-004	...........
	20	5.425	6.96887E-002	6.88417E-002	4.98117E-004	...........
	21	5.68333	6.95402E-002	6.98009E-002	5.04350E-004	...........
	22	5.94167	6.94813E-002	6.76701E-002	5.06517E-004	...........
	23	6.2	6.93515E-002	6.97264E-002	4.99684E-004	...........
	24	6.45833	6.91584E-002	6.96267E-002	5.02550E-004	...........
	25	6.71667	6.90756E-002	6.88997E-002	5.00950E-004	...........
	26	6.975	6.91159E-002	6.81223E-002	4.99617E-004	...........
	27	7.23333	6.90932E-002	6.90455E-002	4.99450E-004	...........
	28	7.49167	6.89703E-002	6.99311E-002	4.99517E-004	...........
	29	7.75	6.89140E-002	6.81649E-002	5.01317E-004	...........
	30	8.00833	6.89408E-002	6.79688E-002	5.01984E-004	...........
	31	8.26667	6.88503E-002	6.76688E-002	5.02650E-004	...........
	32	8.525	6.85844E-002	6.92466E-002	5.02184E-004	...........
	33	8.78333	6.83165E-002	6.64578E-002	5.05450E-004	...........
	34	9.04167	6.81213E-002	6.78197E-002	5.03284E-004	...........
	35	9.3	6.78762E-002	6.56457E-002	5.04350E-004	...........
	36	9.5583	6.75304E-002	6.84545E-002	5.03284E-004	...........
	37	9.8167	6.71947E-002	6.47353E-002	5.06717E-004	...........
	38	10.075	6.69381E-002	6.78400E-002	5.08250E-004	...........
EOC	QUANT	0.0669381	Open Circuit (V)
PSTATMODEL	IQUANT	4	Pstat Model
PSTATSECTION	LABEL	REF600-11020	Pstat Section
PSTATSERIALNO	LABEL	11020	Pstat Serial Number
CTRLMODE	IQUANT	1	Control Mode
IESTAB	IQUANT	0	I/E Stability
CASPEED	IQUANT	1	Control Amp Speed
CONVENTION	IQUANT	1	Current Convention
ICHRANGE	IQUANT	2	Ich Range
ICHRANGEMODE	TOGGLE	F	Ich Auto Range
ICHOFFSETENABLE	TOGGLE	T	Ich Offset Enable
ICHOFFSET	QUANT	0	Ich Offset (V)
ICHFILTER	IQUANT	3	Ich Filter
VCHRANGE	IQUANT	2	Vch Range
VCHRANGEMODE	TOGGLE	F	Vch Auto Range
VCHOFFSETENABLE	TOGGLE	T	Vch Offset Enable
VCHOFFSET	QUANT	0	Vch Offset (V)
VCHFILTER	IQUANT	3	Vch Filter
ACHRANGE	IQUANT	2	Ach Range
ACHOFFSETENABLE	TOGGLE	F	Ach Offset Enable
ACHOFFSET	QUANT	0	Ach Offset (V)
ACHFILTER	IQUANT	3	Ach Filter
IERANGELOWERLIMIT	IQUANT	1	I/E Range Lower Limit
IERANGEMODE	TOGGLE	F	I/E AutoRange
IERANGE	IQUANT	8	I/E Range
POSFEEDENABLE	TOGGLE	F	Positive Feedback IR Comp
POSFEEDRESISTANCE	QUANT	0	Positive Feedback Resistance (ohm)
ACHSELECT	IQUANT	0	Ach Select
CABLEID	IQUANT	14	Cable ID
DCCALDATE	LABEL	6/26/2020	DC Calibration Date
ACCALDATE	LABEL	6/26/2020	AC Calibration Date
THERMOSELECT	IQUANT	1	Thermo Select
FRAMEWORKVERSION	QUANT	6.33	Framework Version
INSTRUMENTVERSION	LABEL	3.50	Instrument Version
ZCURVE	TABLE
	Pt	Time	Freq	Zreal	Zimag	Zsig	Zmod	Zphz	Idc	Vdc	IERange
	#	s	Hz	ohm	ohm	V	ohm	°	A	V	#
	0	1	1000078	553.5138	-7080.163	1	7101.767	-85.52982	-4.72408E-006	0.0704884	8
	1	2	794390.6	685.8557	-8778.026	1	8804.779	-85.53237	-4.208918E-007	0.0687428	8
	2	2	630984.4	805.0858	-10993.34	1	11022.78	-85.81149	-5.267502E-007	0.0685573	8
	3	2	501234.4	1065.472	-13766.3	1	13807.48	-85.5743	2.332397E-007	0.068483	8
	4	3	398109.4	769.339	-16748.27	1	16765.93	-87.36994	4.842745E-006	0.0680074	8
	5	4	316265.6	1536.457	-21150.34	1	21206.07	-85.84507	7.686086E-006	0.06747	8
	6	5	251203.1	2010.754	-26416.56	1	26492.97	-85.6472	-6.885458E-006	0.0696166	8
	7	5	199546.9	1928.814	-33532.4	1	33587.83	-86.70792	-4.810693E-006	0.0690504	8
	8	6	158578.1	2780.942	-40999.73	1	41093.94	-86.11967	-2.952506E-006	0.0686488	8
	9	7	125953.1	3823.931	-51673.73	1	51815.03	-85.76775	-6.635369E-007	0.0738699	7
	10	7	100078.1	4099.495	-64513.39	1	64643.51	-86.36404	1.774101E-006	0.065985	7
	11	7	79453.13	4681.589	-81914.63	1	82048.3	-86.72899	1.77962E-006	0.0659724	7
	12	8	63140.62	6357.458	-100647.7	1	100848.3	-86.38569	1.861968E-006	0.066485	7
	13	8	50203.12	7443.973	-125798.4	1	126018.4	-86.61354	-1.889185E-006	0.0711586	7
	14	8	39890.62	9073.024	-155722.1	1	155986.2	-86.66547	-2.21065E-007	0.0668605	7
	15	9	31640.63	10661.79	-193153.3	1	193447.3	-86.84056	1.775078E-006	0.0659721	7
	16	9	25171.88	13221.78	-249070.9	1	249421.6	-86.96134	1.557649E-006	0.0679239	7
	17	10	20015.62	18492.98	-308736.4	1	309289.7	-86.57214	1.777441E-006	0.0659645	7
	18	10	15890.62	23047.09	-382611.9	1	383305.4	-86.55289	1.780101E-006	0.0659637	7
	19	10	12609.37	26142.6	-477293.3	1	478008.7	-86.86489	-4.370762E-007	0.0731143	6
	20	11	10078.13	20172.67	-588725.5	1	589071	-88.03753	-3.875932E-007	0.0711207	6
	21	11	8015.625	39025	-729451.4	1	730494.6	-86.93764	-3.081866E-008	0.0730576	6
	22	11	6328.125	60503.89	-909092.6	1	911103.8	-86.19234	-4.380354E-007	0.0731272	6
	23	12	5015.625	65002.33	-1146570	1	1148411	-86.75521	-1.798558E-007	0.0668506	6
	24	12	3984.375	58053.18	-1501398	1	1502520	-87.7857	3.883807E-007	0.0648822	6
	25	13	3170.956	103235.1	-1931703	1	1934459	-86.94088	2.842706E-007	0.0626351	6
	26	13	2527.573	101290.8	-2305690	1	2307914	-87.48457	-3.111122E-008	0.0730545	6
	27	14	1976.103	328377.2	-2786041	1	2805326	-83.27784	9.744439E-008	0.0714956	6
	28	14	1577.524	282150.5	-3515394	1	3526699	-85.41119	-2.831147E-007	0.0750458	6
	29	15	1265.625	310991.9	-4373635	1	4384678	-85.93277	3.597847E-008	0.0666863	5
	30	15	998.264	264405.3	-5476792	1	5483170	-87.23605	-6.039605E-012	0.0644404	5
	31	16	796.875	628743	-6879268	1	6907941	-84.77785	1.711766E-008	0.0704921	5
	32	16	627.7902	712034	-8736945	1	8765911	-85.34087	-3.875082E-010	0.0644414	5
	33	16	505.5147	861001.1	-1.037097E+007	1	1.040665E+007	-85.25417	3.704755E-008	0.0631508	5
	34	17	397.9953	1167886	-1.345321E+007	1	1.35038E+007	-85.03854	-1.428254E-010	0.0686639	5
	35	17	315.5048	680055.9	-1.658664E+007	1	1.660057E+007	-87.65218	-2.271792E-010	0.0686809	5
	36	18	252.4038	1721557	-1.933075E+007	1	1.940726E+007	-84.91078	-9.940992E-011	0.0686544	5
	37	18	198.6229	2256411	-2.481799E+007	1	2.492036E+007	-84.80505	-1.000252E-010	0.0686741	5
	38	19	158.3615	4807453	-3.050172E+007	1	3.087826E+007	-81.04315	2.544094E-010	0.0686475	5
	39	19	125.558	8098004	-3.820845E+007	1	3.905718E+007	-78.03365	3.707721E-011	0.0686509	4
	40	19	100.4464	4.771533E+007	-6.345565E+007	1	7.939378E+007	-53.05875	-2.031356E-010	0.068648	4
	41	20	79.00281	1.969675E+007	-2.741768E+007	1	3.375931E+007	-54.3067	-1.508122E-010	0.0686453	5
	42	20	63.3446	-4627610	-1.334637E+007	1	1.412588E+007	-109.1231	1.079176E-010	0.0686443	4
	43	21	49.86702	6.379712E+007	-5.257708E+007	1	8.267056E+007	-39.49294	-3.870326E-011	0.0686444	4
	44	22	39.72458	3.911943E+008	-6.839323E+008	1	7.879063E+008	-60.23138	-1.607089E-011	0.0686459	5
	45	22	31.6723	-8.61772E+007	2674071	1	8.621868E+007	178.2227	2.893057E-010	0.0686493	5
	46	23	24.93351	1.447029E+007	-1.388477E+008	1	1.395997E+008	-84.05029	4.418409E-011	0.0686646	5
	47	24	19.86229	-4.827675E+007	-2.120918E+008	1	2.175168E+008	-102.8233	2.644572E-011	0.0686464	4
	48	24	15.83615	-3.50216E+007	2.319176E+007	1	4.200441E+007	146.487	-4.319743E-010	0.0686496	4
	49	25	12.40079	1.810963E+007	-5.068252E+007	1	5.382078E+007	-70.33743	2.730776E-010	0.0686503	4
	50	26	9.93114	3.04343E+007	-1.362987E+008	1	1.396552E+008	-77.41283	-6.964978E-011	0.0686364	4
	51	26	7.944915	1.961066E+008	2.314963E+007	1	1.974682E+008	6.732389	-7.682078E-011	0.0686491	4
	52	27	6.317385	3.09238E+008	-4.286467E+008	1	5.28551E+008	-54.19223	4.59779E-013	0.0686445	4
	53	29	5.008013	2.595333E+008	-4.286462E+008	1	5.01094E+008	-58.80627	9.172015E-012	0.0686673	4
	54	31	3.945707	2.291205E+008	-4.689553E+008	1	5.219341E+008	-63.96095	2.250843E-011	0.0686371	4
	55	33	3.158693	5.385447E+008	-4.375381E+008	1	6.938804E+008	-39.09197	6.396666E-012	0.0686534	4
	56	35	2.504006	6.290269E+008	-4.780766E+008	1	7.900836E+008	-37.23577	3.149446E-012	0.0686485	3
	57	38	1.998082	6.792536E+008	-4.312547E+008	1	8.045907E+008	-32.41126	3.508997E-012	0.0686751	3
	58	41	1.584686	7.708325E+008	-4.697069E+008	1	9.026668E+008	-31.35605	3.61307E-012	0.0686018	3
	59	45	1.266892	8.440478E+008	-4.7298E+008	1	9.675364E+008	-29.26501	2.949879E-012	0.0686064	2
	60	48	0.999041	8.962641E+008	-5.002942E+008	1	1.026442E+009	-29.17023	3.136954E-012	0.0686317	2
