EXPLAIN
TAG	EISPOT
TITLE	LABEL	Potentiostatic EIS	Test &Identifier
DATE	LABEL	6/14/2020	Date
TIME	LABEL	20:56:49	Time
NOTES	NOTES	1	&Notes...
	
PSTAT	PSTAT	REF600-10037	Potentiostat
VDC	POTEN	0.00000E+000	T	DC &Voltage (V)
FREQINIT	QUANT	1.00000E+006	Initial Fre&q. (Hz)
FREQFINAL	QUANT	1.00000E+000	Final Fre&q. (Hz)
PTSPERDEC	QUANT	1.00000E+001	Points/&decade
VAC	QUANT	2.50000E+001	AC &Voltage (mV rms)
AREA	QUANT	2.50000E-001	&Area (cm^2)
CONDIT	TWOPARAM	F	5.00000E+000	0.00000E+000	Conditionin&g	Time(s)	E(V)
DELAY	TWOPARAM	F	3.00000E+000	0.00000E+000	Init. De&lay	Time(s)	Stab.(mV/s)
SPEED	SELECTOR	0	&Optimize for:
ZGUESS	QUANT	1.00000E+003	E&stimated Z (ohms)
OCVCURVE	TABLE	39
	Pt	T	Vf	Vm	Ach	Over
	#	s	V vs. Ref.	V	V	bits
	0	0.258333	-9.71994E-002	-9.71994E-002	5.51454E-004	...........
	1	0.516667	-9.71996E-002	-9.72072E-002	5.50787E-004	...........
	2	0.775	-9.72006E-002	-9.72171E-002	5.54287E-004	...........
	3	1.03333	-9.72034E-002	-9.72238E-002	5.58320E-004	...........
	4	1.29167	-9.72085E-002	-9.72331E-002	5.55787E-004	...........
	5	1.55	-9.72157E-002	-9.72444E-002	5.51787E-004	...........
	6	1.80833	-9.72241E-002	-9.72559E-002	5.54587E-004	...........
	7	2.06667	-9.72335E-002	-9.72668E-002	5.56987E-004	...........
	8	2.325	-9.72439E-002	-9.72761E-002	5.54820E-004	...........
	9	2.58333	-9.72545E-002	-9.72839E-002	5.52887E-004	...........
	10	2.84167	-9.72648E-002	-9.72892E-002	5.50987E-004	...........
	11	3.1	-9.72741E-002	-9.72969E-002	5.48587E-004	...........
	12	3.35833	-9.72821E-002	-9.73028E-002	5.50187E-004	...........
	13	3.61667	-9.72894E-002	-9.73128E-002	5.51887E-004	...........
	14	3.875	-9.72964E-002	-9.73182E-002	5.46587E-004	...........
	15	4.13333	-9.73036E-002	-9.73253E-002	5.53054E-004	...........
	16	4.39167	-9.73109E-002	-9.73366E-002	5.56354E-004	...........
	17	4.65	-9.73185E-002	-9.73519E-002	5.57987E-004	...........
	18	4.90833	-9.73272E-002	-9.73551E-002	5.55554E-004	...........
	19	5.16667	-9.73368E-002	-9.73588E-002	5.51954E-004	...........
	20	5.425	-9.73459E-002	-9.73681E-002	5.55554E-004	...........
	21	5.68333	-9.73538E-002	-9.73799E-002	5.53520E-004	...........
	22	5.94167	-9.73611E-002	-9.73846E-002	5.51654E-004	...........
	23	6.2	-9.73688E-002	-9.73917E-002	5.55220E-004	...........
	24	6.45833	-9.73766E-002	-9.73978E-002	5.49020E-004	...........
	25	6.71667	-9.73840E-002	-9.74045E-002	5.49754E-004	...........
	26	6.975	-9.73910E-002	-9.74157E-002	5.51087E-004	...........
	27	7.23333	-9.73982E-002	-9.74266E-002	5.52287E-004	...........
	28	7.49167	-9.74062E-002	-9.74340E-002	5.48487E-004	...........
	29	7.75	-9.74150E-002	-9.74392E-002	5.51487E-004	...........
	30	8.00833	-9.74238E-002	-9.74457E-002	5.49654E-004	...........
	31	8.26667	-9.74319E-002	-9.74547E-002	5.53320E-004	...........
	32	8.525	-9.74392E-002	-9.74582E-002	5.54520E-004	...........
	33	8.78333	-9.74459E-002	-9.74629E-002	5.55120E-004	...........
	34	9.04167	-9.74522E-002	-9.74712E-002	5.48554E-004	...........
	35	9.3	-9.74581E-002	-9.74779E-002	5.55087E-004	...........
	36	9.5583	-9.74642E-002	-9.74873E-002	5.51687E-004	...........
	37	9.8167	-9.74709E-002	-9.74970E-002	5.52887E-004	...........
	38	10.075	-9.74785E-002	-9.75043E-002	5.56687E-004	...........
EOC	QUANT	-0.0974785	Open Circuit (V)
PSTATMODEL	IQUANT	4	Pstat Model
PSTATSECTION	LABEL	REF600-10037	Pstat Section
PSTATSERIALNO	LABEL	10037	Pstat Serial Number
CTRLMODE	IQUANT	1	Control Mode
IESTAB	IQUANT	0	I/E Stability
CASPEED	IQUANT	1	Control Amp Speed
CONVENTION	IQUANT	1	Current Convention
ICHRANGE	IQUANT	2	Ich Range
ICHRANGEMODE	TOGGLE	F	Ich Auto Range
ICHOFFSETENABLE	TOGGLE	T	Ich Offset Enable
ICHOFFSET	QUANT	0	Ich Offset (V)
ICHFILTER	IQUANT	3	Ich Filter
VCHRANGE	IQUANT	2	Vch Range
VCHRANGEMODE	TOGGLE	F	Vch Auto Range
VCHOFFSETENABLE	TOGGLE	T	Vch Offset Enable
VCHOFFSET	QUANT	0	Vch Offset (V)
VCHFILTER	IQUANT	3	Vch Filter
ACHRANGE	IQUANT	2	Ach Range
ACHOFFSETENABLE	TOGGLE	F	Ach Offset Enable
ACHOFFSET	QUANT	0	Ach Offset (V)
ACHFILTER	IQUANT	3	Ach Filter
IERANGELOWERLIMIT	IQUANT	1	I/E Range Lower Limit
IERANGEMODE	TOGGLE	F	I/E AutoRange
IERANGE	IQUANT	8	I/E Range
POSFEEDENABLE	TOGGLE	F	Positive Feedback IR Comp
POSFEEDRESISTANCE	QUANT	0	Positive Feedback Resistance (ohm)
ACHSELECT	IQUANT	0	Ach Select
CABLEID	IQUANT	14	Cable ID
DCCALDATE	LABEL	6/8/2020	DC Calibration Date
ACCALDATE	LABEL	6/8/2020	AC Calibration Date
THERMOSELECT	IQUANT	1	Thermo Select
FRAMEWORKVERSION	QUANT	6.33	Framework Version
INSTRUMENTVERSION	LABEL	3.50	Instrument Version
ZCURVE	TABLE
	Pt	Time	Freq	Zreal	Zimag	Zsig	Zmod	Zphz	Idc	Vdc	IERange
	#	s	Hz	ohm	ohm	V	ohm	°	A	V	#
	0	1	1000078	2134.183	-1934.062	1	2880.162	-42.18384	5.002027E-007	-0.0884176	8
	1	2	794390.6	2427.775	-2053.354	1	3179.678	-40.22374	-3.200223E-008	-0.0885933	8
	2	2	630984.4	2719.329	-2166.942	1	3477.124	-38.55017	-9.777058E-008	-0.0887288	8
	3	2	501234.4	3007.79	-2292.539	1	3781.869	-37.31467	-1.528143E-007	-0.0888204	8
	4	3	398109.4	3296.653	-2438.875	1	4100.735	-36.49416	3.41055E-007	-0.0888855	8
	5	3	316265.6	3588.477	-2631.352	1	4449.852	-36.25179	-9.620518E-008	-0.0888743	8
	6	3	251203.1	3894.145	-2858.08	1	4830.423	-36.27654	5.423553E-007	-0.0889529	8
	7	4	199546.9	4250.762	-3155.477	1	5293.96	-36.58769	-2.199665E-007	-0.0888934	8
	8	4	158578.1	4647.952	-3485.808	1	5809.846	-36.86867	5.421641E-007	-0.0889444	8
	9	4	125953.1	5318.768	-3713.011	1	6486.582	-34.91874	1.012372E-007	-0.0888333	7
	10	5	100078.1	5869.667	-4153.521	1	7190.6	-35.28417	-8.651526E-008	-0.0888227	7
	11	5	79453.13	6519.722	-4599.765	1	7979.011	-35.20356	8.406828E-008	-0.0889664	7
	12	5	63140.62	7291.146	-5031.302	1	8858.602	-34.60786	7.380003E-008	-0.0889359	7
	13	5	50203.12	8180.555	-5422.213	1	9814.37	-33.53711	-8.552903E-008	-0.0888068	7
	14	6	39890.62	9167.924	-5742.625	1	10817.97	-32.0623	8.768668E-009	-0.0890014	7
	15	6	31640.63	10230.83	-5935.624	1	11828	-30.12104	1.650064E-008	-0.0888654	7
	16	6	25171.88	11319.91	-6019.094	1	12820.68	-28.00076	4.121105E-008	-0.0888956	7
	17	7	20015.62	12414.02	-5984.203	1	13781.1	-25.73648	-8.611428E-008	-0.0888119	7
	18	7	15890.62	13461.03	-5847.647	1	14676.32	-23.48075	8.506281E-008	-0.0890229	7
	19	7	12609.37	14758.1	-5133.48	1	15625.43	-19.17979	2.342298E-009	-0.0888366	6
	20	8	10078.13	15509.09	-4910.087	1	16267.78	-17.56749	-1.023554E-008	-0.0887187	6
	21	8	8015.625	16206.43	-4671.113	1	16866.17	-16.07835	1.283848E-008	-0.0890711	6
	22	8	6328.125	16818.74	-4443.554	1	17395.84	-14.79952	-1.32636E-008	-0.0887199	6
	23	9	5015.625	17344.53	-4262.125	1	17860.52	-13.80592	-1.321812E-008	-0.0887185	6
	24	9	3984.375	17791.73	-4164.904	1	18272.71	-13.17525	-1.015805E-008	-0.0887198	6
	25	9	3170.956	18201.92	-4150.986	1	18669.24	-12.84672	-8.698794E-009	-0.0889146	6
	26	10	2527.573	18570.39	-4223.846	1	19044.69	-12.81396	1.010406E-008	-0.0890983	6
	27	10	1976.103	18978.64	-4433.205	1	19489.54	-13.14792	9.961695E-009	-0.089103	6
	28	10	1577.524	19341.53	-4732.122	1	19912	-13.74798	1.193851E-008	-0.0890019	6
	29	11	1265.625	19723.83	-5144.548	1	20383.71	-14.6187	-6.027214E-009	-0.0887529	6
	30	11	998.264	20156.86	-5723.878	1	20953.8	-15.85278	-8.348017E-009	-0.0889183	6
	31	11	796.875	20621.04	-6426.617	1	21599.28	-17.30982	2.56528E-009	-0.0888377	6
	32	12	627.7902	21172.23	-7351.949	1	22412.38	-19.14929	1.20808E-008	-0.0890015	6
	33	12	505.5147	21720.36	-8387.804	1	23283.67	-21.11519	6.625483E-009	-0.0888975	6
	34	12	397.9953	22401.57	-9762.21	1	24436.26	-23.54673	8.927504E-010	-0.0889047	6
	35	12	315.5048	23162.98	-11396.57	1	25814.83	-26.19796	7.990633E-010	-0.088908	6
	36	13	252.4038	24008.01	-13285	1	27438.58	-28.95825	7.672722E-010	-0.0889103	6
	37	13	198.6229	25065.75	-15736.05	1	29595.86	-32.12024	7.870012E-010	-0.0889097	6
	38	13	158.3615	26224.53	-18529.96	1	32110.52	-35.24461	7.825104E-010	-0.0889065	6
	39	14	125.558	27643.66	-21976.7	1	35314.97	-38.4847	7.076695E-010	-0.0889071	6
	40	14	100.4464	29255.47	-25969.56	1	39119.06	-41.59489	4.71751E-010	-0.0889068	6
	41	14	79.00281	31372.52	-31143.03	1	44205.46	-44.78967	6.710305E-010	-0.0889121	6
	42	15	63.3446	33846.37	-36903.93	1	50074.71	-47.47457	5.79347E-010	-0.0889109	6
	43	15	49.86702	37103.76	-44344.6	1	57819.82	-50.0803	7.51236E-010	-0.088914	6
	44	15	39.72458	41076.32	-52709.71	1	66824.98	-52.07096	8.873841E-010	-0.0889094	6
	45	16	31.6723	46157.25	-62493.73	1	77691.43	-53.55079	8.668204E-010	-0.0889102	6
	46	16	24.93351	52979.15	-74480.24	1	91400.75	-54.57507	6.587021E-010	-0.0889164	6
	47	16	19.86229	60331.18	-87206.92	1	106042	-55.32388	-6.896758E-009	-0.0975412	5
	48	17	15.83615	70482.66	-101622.9	1	123673	-55.25595	-4.551434E-009	-0.0975434	5
	49	17	12.40079	83647.88	-118683.4	1	145198.9	-54.82389	-3.11771E-009	-0.097546	5
	50	17	9.93114	98120.2	-135610.8	1	167385.3	-54.11267	-2.520929E-009	-0.0975433	5
	51	18	7.944915	114859	-153932.4	1	192061.9	-53.27096	-2.156016E-009	-0.0975436	5
	52	18	6.317385	133610.4	-173823.8	1	219240.6	-52.45218	-1.236445E-009	-0.0975419	5
	53	19	5.008013	154822.1	-196088.7	1	249841.2	-51.7071	-9.17063E-010	-0.0975428	5
	54	20	3.945707	178464	-221442.1	1	284404.7	-51.13406	-6.367359E-010	-0.0975417	5
	55	21	3.158693	202318.7	-248166.5	1	320186.6	-50.81122	-5.244593E-010	-0.0975433	5
	56	23	2.504006	229625.8	-280055.3	1	362158.8	-50.65063	-4.007159E-010	-0.0975505	5
	57	24	1.998082	257389.1	-315945	1	407517.3	-50.83153	-3.111935E-010	-0.0975503	5
	58	26	1.584686	288000.2	-359085.6	1	460311.4	-51.26907	-1.923903E-010	-0.0975448	5
	59	29	1.266892	319552.7	-408284.3	1	518468.9	-51.95071	-1.245383E-010	-0.0975445	5
	60	32	0.999041	355476.2	-471001.6	1	590089.6	-52.95727	-1.169574E-010	-0.0975452	5
