EXPLAIN
TAG	EISPOT
TITLE	LABEL	Potentiostatic EIS	Test &Identifier
DATE	LABEL	2/6/2020	Date
TIME	LABEL	18:08:50	Time
NOTES	NOTES	6	&Notes...
	
	
	
	
	
	
PSTAT	PSTAT	REF600-11020	Potentiostat
VDC	POTEN	0.00000E+000	T	DC &Voltage (V)
FREQINIT	QUANT	1.00000E+006	Initial Fre&q. (Hz)
FREQFINAL	QUANT	1.00000E+000	Final Fre&q. (Hz)
PTSPERDEC	QUANT	1.00000E+001	Points/&decade
VAC	QUANT	2.50000E+001	AC &Voltage (mV rms)
AREA	QUANT	1.60000E-004	&Area (cm^2)
CONDIT	TWOPARAM	F	5.00000E+000	0.00000E+000	Conditionin&g	Time(s)	E(V)
DELAY	TWOPARAM	F	5.00000E+000	0.00000E+000	Init. De&lay	Time(s)	Stab.(mV/s)
SPEED	SELECTOR	0	&Optimize for:
ZGUESS	QUANT	1.00000E+003	E&stimated Z (ohms)
OCVCURVE	TABLE	39
	Pt	T	Vf	Vm	Ach	Over
	#	s	V vs. Ref.	V	V	bits
	0	0.258333	-1.77086E-003	-1.77086E-003	5.71304E-004	...........
	1	0.516667	-1.76918E-003	-1.68322E-003	5.68404E-004	...........
	2	0.775	-1.76005E-003	-1.66047E-003	5.70538E-004	...........
	3	1.03333	-1.73775E-003	-1.62251E-003	5.70204E-004	...........
	4	1.29167	-1.70400E-003	-1.58967E-003	5.67104E-004	...........
	5	1.55	-1.66577E-003	-1.55380E-003	5.67371E-004	...........
	6	1.80833	-1.62829E-003	-1.53450E-003	5.63538E-004	...........
	7	2.06667	-1.59385E-003	-1.51379E-003	5.65638E-004	...........
	8	2.325	-1.56426E-003	-1.52304E-003	5.64638E-004	...........
	9	2.58333	-1.54191E-003	-1.52627E-003	5.66338E-004	...........
	10	2.84167	-1.52744E-003	-1.46204E-003	5.60704E-004	...........
	11	3.1	-1.51525E-003	-1.41920E-003	5.63938E-004	...........
	12	3.35833	-1.49669E-003	-1.42150E-003	5.68704E-004	...........
	13	3.61667	-1.47095E-003	-1.42564E-003	5.62438E-004	...........
	14	3.875	-1.44608E-003	-1.39756E-003	5.60104E-004	...........
	15	4.13333	-1.42835E-003	-1.42050E-003	5.64004E-004	...........
	16	4.39167	-1.41816E-003	-1.41876E-003	5.62738E-004	...........
	17	4.65	-1.41414E-003	-1.41613E-003	5.64071E-004	...........
	18	4.90833	-1.41429E-003	-1.42040E-003	5.64604E-004	...........
	19	5.16667	-1.41602E-003	-1.42028E-003	5.62004E-004	...........
	20	5.425	-1.41968E-003	-1.52161E-003	5.65738E-004	...........
	21	5.68333	-1.42811E-003	-1.36931E-003	5.61038E-004	...........
	22	5.94167	-1.43687E-003	-1.40754E-003	5.70904E-004	...........
	23	6.2	-1.43597E-003	-1.42578E-003	5.66671E-004	...........
	24	6.45833	-1.42673E-003	-1.42989E-003	5.67371E-004	...........
	25	6.71667	-1.42084E-003	-1.46908E-003	5.65138E-004	...........
	26	6.975	-1.42473E-003	-1.45032E-003	5.63671E-004	...........
	27	7.23333	-1.43540E-003	-1.45423E-003	5.66238E-004	...........
	28	7.49167	-1.44681E-003	-1.49904E-003	5.65138E-004	...........
	29	7.75	-1.45785E-003	-1.51979E-003	5.62638E-004	...........
	30	8.00833	-1.46961E-003	-1.39308E-003	5.65604E-004	...........
	31	8.26667	-1.47581E-003	-1.46647E-003	5.66438E-004	...........
	32	8.525	-1.47107E-003	-1.48377E-003	5.63571E-004	...........
	33	8.78333	-1.46405E-003	-1.50419E-003	5.65871E-004	...........
	34	9.04167	-1.46696E-003	-1.53576E-003	5.60371E-004	...........
	35	9.3	-1.48142E-003	-1.53106E-003	5.65804E-004	...........
	36	9.5583	-1.50097E-003	-1.54153E-003	5.68404E-004	...........
	37	9.8167	-1.51951E-003	-1.59032E-003	5.70871E-004	...........
	38	10.075	-1.53740E-003	-1.63717E-003	5.67638E-004	...........
EOC	QUANT	-0.0015374	Open Circuit (V)
PSTATMODEL	IQUANT	4	Pstat Model
PSTATSECTION	LABEL	REF600-11020	Pstat Section
PSTATSERIALNO	LABEL	11020	Pstat Serial Number
CTRLMODE	IQUANT	1	Control Mode
IESTAB	IQUANT	0	I/E Stability
CASPEED	IQUANT	1	Control Amp Speed
CONVENTION	IQUANT	1	Current Convention
ICHRANGE	IQUANT	2	Ich Range
ICHRANGEMODE	TOGGLE	F	Ich Auto Range
ICHOFFSETENABLE	TOGGLE	T	Ich Offset Enable
ICHOFFSET	QUANT	0	Ich Offset (V)
ICHFILTER	IQUANT	3	Ich Filter
VCHRANGE	IQUANT	2	Vch Range
VCHRANGEMODE	TOGGLE	F	Vch Auto Range
VCHOFFSETENABLE	TOGGLE	T	Vch Offset Enable
VCHOFFSET	QUANT	0	Vch Offset (V)
VCHFILTER	IQUANT	3	Vch Filter
ACHRANGE	IQUANT	2	Ach Range
ACHOFFSETENABLE	TOGGLE	F	Ach Offset Enable
ACHOFFSET	QUANT	0	Ach Offset (V)
ACHFILTER	IQUANT	3	Ach Filter
IERANGELOWERLIMIT	IQUANT	1	I/E Range Lower Limit
IERANGEMODE	TOGGLE	F	I/E AutoRange
IERANGE	IQUANT	6	I/E Range
POSFEEDENABLE	TOGGLE	F	Positive Feedback IR Comp
POSFEEDRESISTANCE	QUANT	0	Positive Feedback Resistance (ohm)
ACHSELECT	IQUANT	0	Ach Select
CABLEID	IQUANT	14	Cable ID
DCCALDATE	LABEL	1/27/2020	DC Calibration Date
ACCALDATE	LABEL	1/27/2020	AC Calibration Date
THERMOSELECT	IQUANT	1	Thermo Select
FRAMEWORKVERSION	QUANT	6.33	Framework Version
INSTRUMENTVERSION	LABEL	3.50	Instrument Version
ZCURVE	TABLE
	Pt	Time	Freq	Zreal	Zimag	Zsig	Zmod	Zphz	Idc	Vdc	IERange
	#	s	Hz	ohm	ohm	V	ohm	°	A	V	#
	0	1	1000078	2329.105	-2391.547	1	3338.298	-45.75783	2.577554E-006	0.0002762	8
	1	1	794390.6	2761.286	-2534.803	1	3748.323	-42.55128	9.13378E-007	-4.221884E-005	8
	2	1	630984.4	3209.938	-2630.193	1	4149.894	-39.33087	-4.371741E-006	0.0011926	8
	3	2	501234.4	3689.721	-2672.625	1	4555.981	-35.91744	-2.333739E-007	0.0003797	8
	4	2	398109.4	4136.203	-2693.103	1	4935.684	-33.06836	-3.158536E-007	0.0001589	8
	5	2	316265.6	4575.916	-2663.954	1	5294.871	-30.20661	1.155557E-006	-0.0001198	8
	6	3	251203.1	4974.109	-2627.561	1	5625.464	-27.84515	1.804841E-006	-0.000262	8
	7	3	199546.9	5343.519	-2570.171	1	5929.5	-25.68702	-3.519553E-006	0.0008332	8
	8	3	158578.1	5694.836	-2562.915	1	6244.973	-24.22974	-2.805013E-006	0.0006054	8
	9	4	125953.1	6041.824	-2498.646	1	6538.109	-22.46795	-6.570672E-007	0.0018266	7
	10	4	100078.1	6361.22	-2526.917	1	6844.737	-21.66484	6.833564E-008	-8.093104E-005	7
	11	4	79453.13	6652.539	-2594.838	1	7140.69	-21.30838	1.130063E-007	-0.0001333	7
	12	5	63140.62	6947.382	-2704.844	1	7455.354	-21.2726	-1.510432E-008	6.584021E-005	7
	13	5	50203.12	7248.846	-2854.965	1	7790.802	-21.49705	3.230729E-008	-1.305704E-005	7
	14	5	39890.62	7568.693	-3050.993	1	8160.495	-21.9547	2.02602E-008	-5.447838E-005	7
	15	6	31640.63	7914.276	-3306.56	1	8577.244	-22.67502	-1.546939E-008	6.554318E-005	7
	16	6	25171.88	8282.107	-3608.427	1	9034.05	-23.54225	-5.674455E-009	0.0001216	7
	17	6	20015.62	8684.693	-3969.846	1	9549.01	-24.56554	-1.595475E-008	6.788709E-005	7
	18	7	15890.62	9130.525	-4395.642	1	10133.52	-25.70722	-3.725125E-008	4.420767E-005	7
	19	7	12609.37	9687.28	-4823.486	1	10821.71	-26.46962	-4.922407E-009	0.0001522	6
	20	7	10078.13	10209.01	-5399.673	1	11549.04	-27.87493	-4.752526E-009	8.748449E-005	6
	21	7	8015.625	10820.99	-6078.738	1	12411.48	-29.32529	-5.097563E-009	0.0001479	6
	22	8	6328.125	11529.85	-6884.614	1	13428.9	-30.84195	2.510472E-009	5.954726E-005	6
	23	8	5015.625	12316.44	-7795.132	1	14575.97	-32.32991	3.537481E-009	7.878142E-005	6
	24	8	3984.375	13197.66	-8822.714	1	15875.09	-33.76297	3.527479E-009	7.884404E-005	6
	25	9	3170.956	14193.2	-9990.17	1	17356.57	-35.14058	-3.83176E-010	4.368495E-006	6
	26	9	2527.573	15318.78	-11318.04	1	19046.34	-36.45825	-6.801959E-009	7.746898E-005	6
	27	9	1976.103	16711.6	-12959.2	1	21147.54	-37.7922	-8.355767E-010	-8.245832E-005	6
	28	10	1577.524	18131.98	-14649.02	1	23310.13	-38.93512	1.326356E-008	-0.0001452	6
	29	10	1265.625	19743.27	-16579.15	1	25781.1	-40.02141	-1.813203E-009	-3.384178E-005	6
	30	10	998.264	21679.12	-18875.91	1	28745.16	-41.04595	2.52169E-009	-7.505292E-005	6
	31	11	796.875	23770.88	-21416.39	1	31995.57	-42.01729	1.588795E-009	5.01568E-005	6
	32	11	627.7902	26336.84	-24446.61	1	35934.19	-42.86835	2.356393E-009	5.575231E-005	6
	33	11	505.5147	28912.71	-27567.26	1	39948.7	-43.63538	-8.413607E-010	-8.597385E-005	6
	34	12	397.9953	32150.24	-31524.77	1	45027.2	-44.43721	8.529907E-010	2.547148E-005	6
	35	12	315.5048	35756.48	-35926.84	1	50687.9	-45.13617	2.379983E-010	2.023296E-005	6
	36	12	252.4038	39681.71	-40768.19	1	56891.86	-45.77374	6.759069E-010	1.661956E-005	6
	37	13	198.6229	44527.6	-46661.61	1	64498.16	-46.34059	6.75713E-010	1.828948E-005	6
	38	13	158.3615	49797.03	-53097.88	1	72795.12	-46.83741	9.93838E-010	1.505997E-005	6
	39	13	125.558	55971.97	-60592.89	1	82488.55	-47.27016	8.684056E-010	1.456023E-005	6
	40	14	100.4464	62584.77	-68643.79	1	92891.46	-47.64355	2.423363E-010	1.239262E-005	6
	41	14	79.00281	71125.59	-78205.28	1	105711.5	-47.71432	4.595452E-010	9.840901E-006	5
	42	14	63.3446	83841.37	-89854.13	1	122894.8	-46.9826	-2.363816E-010	8.911391E-006	5
	43	15	49.86702	94143.31	-101854.9	1	138698.9	-47.25315	-5.128012E-011	7.184837E-006	5
	44	15	39.72458	105454.8	-113278.7	1	154766.8	-47.04853	-2.188462E-011	1.555375E-005	5
	45	15	31.6723	120139.1	-126397.8	1	174384.1	-46.45422	9.326631E-010	9.768499E-006	5
	46	16	24.93351	136157.6	-143249.6	1	197634.4	-46.45398	-5.601109E-010	8.5832E-006	5
	47	16	19.86229	153717.1	-160612.3	1	222317.9	-46.25666	-1.346561E-009	9.33327E-006	5
	48	16	15.83615	178310.2	-178167.5	1	252067.8	-44.97707	1.889459E-009	9.19642E-006	5
	49	17	12.40079	199157.1	-199843.3	1	282136.3	-45.09853	-5.138465E-010	1.816122E-005	5
	50	17	9.93114	219786.9	-222873.9	1	313016	-45.39956	9.112598E-010	1.423538E-005	5
	51	17	7.944915	246187.8	-248014.9	1	349456.5	-45.21182	2.012493E-010	1.283303E-005	5
	52	18	6.317385	277119	-278569.4	1	392932.4	-45.14956	-4.7414E-011	1.351844E-005	5
	53	19	5.008013	311153.7	-311186.3	1	440060.8	-45.003	2.330445E-010	2.0366E-005	5
	54	20	3.945707	350410.8	-349609.1	1	494989.2	-44.93438	-8.421743E-011	4.398965E-006	5
	55	21	3.158693	388462.8	-388215.4	1	549194.4	-44.98175	7.695141E-011	-9.48776E-006	5
	56	23	2.504006	431403.3	-434896.6	1	612571.5	-45.23104	2.218177E-010	-9.311675E-007	5
	57	24	1.998082	474294	-485825.8	1	678956.1	-45.68814	3.632534E-011	-2.76793E-005	5
	58	26	1.584686	522115.3	-550798.2	1	758935.4	-46.53136	-1.034363E-011	-4.195807E-005	5
	59	28	1.266892	568402.1	-625336.3	1	845060	-47.7306	3.661191E-011	-1.451625E-005	5
	60	30	0.999041	624241.8	-721217.8	1	953852	-49.12255	4.343538E-011	1.734731E-005	5
