EXPLAIN
TAG	EISPOT
TITLE	LABEL	Potentiostatic EIS	Test &Identifier
DATE	LABEL	1/18/2020	Date
TIME	LABEL	22:29:40	Time
NOTES	NOTES	6	&Notes...
	
	
	
	
	
	
PSTAT	PSTAT	REF600-11020	Potentiostat
VDC	POTEN	0.00000E+000	T	DC &Voltage (V)
FREQINIT	QUANT	1.00000E+006	Initial Fre&q. (Hz)
FREQFINAL	QUANT	1.00000E+000	Final Fre&q. (Hz)
PTSPERDEC	QUANT	1.00000E+001	Points/&decade
VAC	QUANT	2.50000E+001	AC &Voltage (mV rms)
AREA	QUANT	1.00000E-001	&Area (cm^2)
CONDIT	TWOPARAM	F	5.00000E+000	0.00000E+000	Conditionin&g	Time(s)	E(V)
DELAY	TWOPARAM	F	5.00000E+000	0.00000E+000	Init. De&lay	Time(s)	Stab.(mV/s)
SPEED	SELECTOR	0	&Optimize for:
ZGUESS	QUANT	5.00000E+002	E&stimated Z (ohms)
OCVCURVE	TABLE	39
	Pt	T	Vf	Vm	Ach	Over
	#	s	V vs. Ref.	V	V	bits
	0	0.258333	-3.10710E-002	-3.10710E-002	6.54313E-004	...........
	1	0.516667	-3.10627E-002	-3.06385E-002	6.54746E-004	...........
	2	0.775	-3.10131E-002	-3.02847E-002	6.53813E-004	...........
	3	1.03333	-3.08814E-002	-3.02187E-002	6.49813E-004	...........
	4	1.29167	-3.06838E-002	-3.05937E-002	6.54213E-004	...........
	5	1.55	-3.05059E-002	-3.02999E-002	6.56680E-004	...........
	6	1.80833	-3.04064E-002	-3.01522E-002	6.51213E-004	...........
	7	2.06667	-3.03529E-002	-3.00760E-002	6.47046E-004	...........
	8	2.325	-3.02889E-002	-3.00764E-002	6.47746E-004	...........
	9	2.58333	-3.02079E-002	-3.00627E-002	6.46746E-004	...........
	10	2.84167	-3.01336E-002	-2.99265E-002	6.51813E-004	...........
	11	3.1	-3.00734E-002	-2.98753E-002	6.49480E-004	...........
	12	3.35833	-3.00150E-002	-2.97888E-002	6.49546E-004	...........
	13	3.61667	-2.99500E-002	-2.97792E-002	6.48913E-004	...........
	14	3.875	-2.98842E-002	-2.97701E-002	6.53246E-004	...........
	15	4.13333	-2.98301E-002	-2.97806E-002	6.51846E-004	...........
	16	4.39167	-2.97945E-002	-2.97205E-002	6.49313E-004	...........
	17	4.65	-2.97730E-002	-2.97277E-002	6.44380E-004	...........
	18	4.90833	-2.97567E-002	-2.97193E-002	6.46713E-004	...........
	19	5.16667	-2.97403E-002	-2.96348E-002	6.48646E-004	...........
	20	5.425	-2.97203E-002	-2.96348E-002	6.46213E-004	...........
	21	5.68333	-2.96946E-002	-2.96282E-002	6.45046E-004	...........
	22	5.94167	-2.96668E-002	-2.96113E-002	6.44780E-004	...........
	23	6.2	-2.96430E-002	-2.95704E-002	6.43980E-004	...........
	24	6.45833	-2.96238E-002	-2.96077E-002	6.49046E-004	...........
	25	6.71667	-2.96076E-002	-2.95496E-002	6.49246E-004	...........
	26	6.975	-2.95941E-002	-2.95673E-002	6.51380E-004	...........
	27	7.23333	-2.95815E-002	-2.95224E-002	6.55646E-004	...........
	28	7.49167	-2.95679E-002	-2.95286E-002	6.53113E-004	...........
	29	7.75	-2.95530E-002	-2.95065E-002	6.52980E-004	...........
	30	8.00833	-2.95382E-002	-2.95146E-002	6.51746E-004	...........
	31	8.26667	-2.95251E-002	-2.94693E-002	6.46380E-004	...........
	32	8.525	-2.95124E-002	-2.94549E-002	6.48480E-004	...........
	33	8.78333	-2.94974E-002	-2.94564E-002	6.49580E-004	...........
	34	9.04167	-2.94812E-002	-2.94626E-002	6.55179E-004	...........
	35	9.3	-2.94674E-002	-2.94173E-002	6.52180E-004	...........
	36	9.5583	-2.94570E-002	-2.94530E-002	6.55246E-004	...........
	37	9.8167	-2.94480E-002	-2.93937E-002	6.50113E-004	...........
	38	10.075	-2.94377E-002	-2.93754E-002	6.54879E-004	...........
EOC	QUANT	-0.0294377	Open Circuit (V)
PSTATMODEL	IQUANT	4	Pstat Model
PSTATSECTION	LABEL	REF600-11020	Pstat Section
PSTATSERIALNO	LABEL	11020	Pstat Serial Number
CTRLMODE	IQUANT	1	Control Mode
IESTAB	IQUANT	0	I/E Stability
CASPEED	IQUANT	1	Control Amp Speed
CONVENTION	IQUANT	1	Current Convention
ICHRANGE	IQUANT	2	Ich Range
ICHRANGEMODE	TOGGLE	F	Ich Auto Range
ICHOFFSETENABLE	TOGGLE	T	Ich Offset Enable
ICHOFFSET	QUANT	0	Ich Offset (V)
ICHFILTER	IQUANT	3	Ich Filter
VCHRANGE	IQUANT	2	Vch Range
VCHRANGEMODE	TOGGLE	F	Vch Auto Range
VCHOFFSETENABLE	TOGGLE	T	Vch Offset Enable
VCHOFFSET	QUANT	0	Vch Offset (V)
VCHFILTER	IQUANT	3	Vch Filter
ACHRANGE	IQUANT	2	Ach Range
ACHOFFSETENABLE	TOGGLE	F	Ach Offset Enable
ACHOFFSET	QUANT	0	Ach Offset (V)
ACHFILTER	IQUANT	3	Ach Filter
IERANGELOWERLIMIT	IQUANT	1	I/E Range Lower Limit
IERANGEMODE	TOGGLE	F	I/E AutoRange
IERANGE	IQUANT	8	I/E Range
POSFEEDENABLE	TOGGLE	F	Positive Feedback IR Comp
POSFEEDRESISTANCE	QUANT	0	Positive Feedback Resistance (ohm)
ACHSELECT	IQUANT	0	Ach Select
CABLEID	IQUANT	14	Cable ID
DCCALDATE	LABEL	12/22/2019	DC Calibration Date
ACCALDATE	LABEL	12/22/2019	AC Calibration Date
THERMOSELECT	IQUANT	1	Thermo Select
FRAMEWORKVERSION	QUANT	6.33	Framework Version
INSTRUMENTVERSION	LABEL	3.50	Instrument Version
ZCURVE	TABLE
	Pt	Time	Freq	Zreal	Zimag	Zsig	Zmod	Zphz	Idc	Vdc	IERange
	#	s	Hz	ohm	ohm	V	ohm	°	A	V	#
	0	1	1000078	2148.348	-1609.594	1	2684.435	-36.84145	1.46845E-006	-0.0277032	8
	1	1	794390.6	2447.463	-1614.065	1	2931.771	-33.40425	-1.655175E-006	-0.0272133	8
	2	2	630984.4	2755.23	-1566.8	1	3169.567	-29.62533	-1.328939E-006	-0.0274354	8
	3	2	501234.4	3027.12	-1489.927	1	3373.921	-26.20609	5.022538E-007	-0.0278462	8
	4	2	398109.4	3260.294	-1399.664	1	3548.038	-23.23415	-3.421785E-006	-0.027073	8
	5	3	316265.6	3470.194	-1311.297	1	3709.683	-20.70029	1.068571E-006	-0.0280794	8
	6	3	251203.1	3662.148	-1209.521	1	3856.717	-18.27716	-1.238123E-006	-0.0275872	8
	7	3	199546.9	3826.92	-1109.725	1	3984.571	-16.17104	3.305592E-007	-0.0280045	8
	8	4	158578.1	3960.075	-1030.601	1	4091.984	-14.58752	1.519716E-006	-0.0282817	8
	9	4	125953.1	4093.509	-935.8902	1	4199.132	-12.87807	5.322057E-007	-0.0293611	7
	10	4	100078.1	4196.819	-880.7839	1	4288.248	-11.85261	-1.060529E-008	-0.0278731	7
	11	4	79453.13	4297.312	-848.2117	1	4380.223	-11.16563	-1.210261E-009	-0.0279571	7
	12	5	63140.62	4392.89	-826.3972	1	4469.946	-10.65405	1.092141E-007	-0.0280674	7
	13	5	50203.12	4483.281	-814.799	1	4556.721	-10.3006	-3.84966E-008	-0.0278813	7
	14	5	39890.62	4573.248	-816.8091	1	4645.619	-10.12659	-3.834345E-008	-0.0278848	7
	15	6	31640.63	4665.33	-831.4625	1	4738.843	-10.10525	1.715319E-008	-0.0279905	7
	16	6	25171.88	4758.414	-859.0547	1	4835.336	-10.2336	-1.686394E-008	-0.0279275	7
	17	6	20015.62	4854.396	-898.4506	1	4936.839	-10.48564	3.681367E-008	-0.0280355	7
	18	7	15890.62	4956.354	-949.436	1	5046.471	-10.84417	3.815604E-008	-0.0280357	7
	19	7	12609.37	5064.226	-1014.984	1	5164.938	-11.3332	1.096314E-007	-0.0280762	7
	20	7	10078.13	5171.89	-1093.092	1	5286.142	-11.93397	2.650136E-008	-0.0279511	7
	21	8	8015.625	5287.598	-1186.368	1	5419.055	-12.64592	-5.834328E-009	-0.0278898	7
	22	8	6328.125	5411.86	-1304.879	1	5566.95	-13.55611	6.718968E-008	-0.0280401	7
	23	8	5015.625	5538.295	-1447.717	1	5724.387	-14.64939	-1.83782E-008	-0.0279274	7
	24	9	3984.375	5668.298	-1620.188	1	5895.304	-15.9517	1.085844E-007	-0.0280788	7
	25	9	3170.956	5800.102	-1830.515	1	6082.102	-17.51572	2.793611E-008	-0.027953	7
	26	9	2527.573	5940.936	-2089.087	1	6297.539	-19.37385	-2.813605E-008	-0.027821	7
	27	10	1976.103	6100.95	-2433.749	1	6568.465	-21.74771	-3.644314E-008	-0.0278874	7
	28	10	1577.524	6264.815	-2829.617	1	6874.201	-24.30717	-5.000467E-008	-0.0278542	7
	29	10	1265.625	6435.65	-3300.76	1	7232.745	-27.15269	6.695954E-008	-0.0280464	7
	30	10	998.264	6645.962	-3926.051	1	7718.982	-30.57214	3.756657E-008	-0.0280445	7
	31	11	796.875	6874.948	-4655.981	1	8303.196	-34.10738	6.759027E-008	-0.0280746	7
	32	11	627.7902	7155.577	-5610.758	1	9093.013	-38.10034	-2.846745E-008	-0.0278316	7
	33	11	505.5147	7461.18	-6652.415	1	9996.19	-41.72031	-9.00473E-009	-0.027863	6
	34	12	397.9953	7852.588	-8060.455	1	11253.18	-45.74839	5.382969E-010	-0.0279208	6
	35	12	315.5048	8307.445	-9734.86	1	12797.7	-49.52352	9.218387E-010	-0.0279196	6
	36	12	252.4038	8827.257	-11687.91	1	14646.76	-52.93818	5.937106E-010	-0.0279227	6
	37	13	198.6229	9494.984	-14248.86	1	17122.64	-56.32179	4.413591E-010	-0.0279249	6
	38	13	158.3615	10256.62	-17208.54	1	20033.27	-59.20425	1.720393E-010	-0.0279263	6
	39	13	125.558	11196.84	-20903.89	1	23713.75	-61.82496	3.978368E-010	-0.027925	6
	40	14	100.4464	12323.5	-25220.42	1	28070.24	-63.9584	4.535467E-010	-0.0279327	6
	41	14	79.00281	13813.21	-30934.52	1	33878.45	-65.93777	6.839019E-010	-0.0279237	6
	42	14	63.3446	15282.23	-37331.79	1	40338.67	-67.73766	7.190338E-011	-0.027928	6
	43	15	49.86702	17666.16	-45723.34	1	49017.52	-68.87492	1.399638E-010	-0.027933	6
	44	15	39.72458	20678.96	-55504.24	1	59231.24	-69.56635	6.046785E-010	-0.0279225	6
	45	15	31.6723	24470.4	-67265.33	1	71578.1	-70.00916	9.770681E-010	-0.0279276	6
	46	16	24.93351	29453.04	-82039.15	1	87165.95	-70.25125	4.555138E-010	-0.02793	6
	47	16	19.86229	35708.53	-98960.6	1	105206	-70.15874	6.23954E-010	-0.0279315	5
	48	16	15.83615	44357.75	-119035.4	1	127031.6	-69.56242	-1.259166E-009	-0.0279345	5
	49	17	12.40079	56228.38	-144656.9	1	155200.7	-68.75881	-1.107679E-009	-0.0279275	5
	50	17	9.93114	69265.86	-171879.8	1	185311.7	-68.05105	-8.120815E-010	-0.0279329	5
	51	17	7.944915	86618.72	-202755.3	1	220482.5	-66.86743	-1.497818E-010	-0.0279313	5
	52	18	6.317385	109046	-239308.4	1	262982	-65.50259	-3.083821E-011	-0.0279323	5
	53	19	5.008013	137412.7	-280559.7	1	312403.5	-63.90528	2.48795E-010	-0.0279255	5
	54	20	3.945707	172927.8	-326358.7	1	369342.6	-62.08221	-9.828989E-011	-0.0279349	5
	55	21	3.158693	212910.3	-373910.7	1	430279	-60.34217	6.070645E-011	-0.027952	5
	56	23	2.504006	260564.4	-427596.3	1	500731.9	-58.64313	1.979398E-010	-0.0279464	5
	57	24	1.998082	312467.8	-481801	1	574254.6	-57.03493	1.16454E-011	-0.0279761	5
	58	25	1.584686	371753.8	-544821.6	1	659569.1	-55.69271	-8.201398E-012	-0.0279859	5
	59	27	1.266892	430943.4	-610576.3	1	747339.1	-54.78564	-2.034458E-010	-0.0279554	5
	60	30	0.999041	513491.3	-686996.8	1	857693.4	-53.22396	-2.41175E-010	-0.0279272	5
