EXPLAIN
TAG	EISPOT
TITLE	LABEL	Potentiostatic EIS	Test &Identifier
DATE	LABEL	7/30/2020	Date
TIME	LABEL	22:49:57	Time
NOTES	NOTES	1	&Notes...
	
PSTAT	PSTAT	REF600-11020	Potentiostat
VDC	POTEN	0.00000E+000	T	DC &Voltage (V)
FREQINIT	QUANT	1.00000E+006	Initial Fre&q. (Hz)
FREQFINAL	QUANT	1.00000E+000	Final Fre&q. (Hz)
PTSPERDEC	QUANT	1.00000E+001	Points/&decade
VAC	QUANT	2.50000E+001	AC &Voltage (mV rms)
AREA	QUANT	4.00000E-005	&Area (cm^2)
CONDIT	TWOPARAM	F	5.00000E+000	0.00000E+000	Conditionin&g	Time(s)	E(V)
DELAY	TWOPARAM	F	3.00000E+000	0.00000E+000	Init. De&lay	Time(s)	Stab.(mV/s)
SPEED	SELECTOR	0	&Optimize for:
ZGUESS	QUANT	1.00000E+003	E&stimated Z (ohms)
OCVCURVE	TABLE	39
	Pt	T	Vf	Vm	Ach	Over
	#	s	V vs. Ref.	V	V	bits
	0	0.258333	-9.95370E-002	-9.95370E-002	4.45118E-004	...........
	1	0.516667	-9.95368E-002	-9.95287E-002	4.45018E-004	...........
	2	0.775	-9.95358E-002	-9.95209E-002	4.45151E-004	...........
	3	1.03333	-9.95331E-002	-9.95150E-002	4.45018E-004	...........
	4	1.29167	-9.95284E-002	-9.95094E-002	4.50818E-004	...........
	5	1.55	-9.95225E-002	-9.95076E-002	4.50551E-004	...........
	6	1.80833	-9.95165E-002	-9.94971E-002	4.48318E-004	...........
	7	2.06667	-9.95107E-002	-9.94877E-002	4.45051E-004	...........
	8	2.325	-9.95044E-002	-9.94784E-002	4.44418E-004	...........
	9	2.58333	-9.94971E-002	-9.94725E-002	4.43151E-004	...........
	10	2.84167	-9.94888E-002	-9.94626E-002	4.47584E-004	...........
	11	3.1	-9.94805E-002	-9.94596E-002	4.50684E-004	...........
	12	3.35833	-9.94726E-002	-9.94513E-002	4.45818E-004	...........
	13	3.61667	-9.94654E-002	-9.94447E-002	4.45618E-004	...........
	14	3.875	-9.94586E-002	-9.94357E-002	4.42618E-004	...........
	15	4.13333	-9.94517E-002	-9.94281E-002	4.38785E-004	...........
	16	4.39167	-9.94444E-002	-9.94199E-002	4.44451E-004	...........
	17	4.65	-9.94367E-002	-9.94134E-002	4.39251E-004	...........
	18	4.90833	-9.94288E-002	-9.94036E-002	4.42685E-004	...........
	19	5.16667	-9.94210E-002	-9.93984E-002	4.40818E-004	...........
	20	5.425	-9.94132E-002	-9.93901E-002	4.43451E-004	...........
	21	5.68333	-9.94056E-002	-9.93841E-002	4.40751E-004	...........
	22	5.94167	-9.93983E-002	-9.93770E-002	4.44751E-004	...........
	23	6.2	-9.93912E-002	-9.93688E-002	4.37951E-004	...........
	24	6.45833	-9.93842E-002	-9.93627E-002	4.44751E-004	...........
	25	6.71667	-9.93771E-002	-9.93541E-002	4.45151E-004	...........
	26	6.975	-9.93700E-002	-9.93503E-002	4.47951E-004	...........
	27	7.23333	-9.93630E-002	-9.93476E-002	4.45051E-004	...........
	28	7.49167	-9.93566E-002	-9.93297E-002	4.40151E-004	...........
	29	7.75	-9.93498E-002	-9.93110E-002	4.42285E-004	...........
	30	8.00833	-9.93410E-002	-9.93040E-002	4.48884E-004	...........
	31	8.26667	-9.93296E-002	-9.92959E-002	4.48584E-004	...........
	32	8.525	-9.93174E-002	-9.92861E-002	4.44284E-004	...........
	33	8.78333	-9.93063E-002	-9.92832E-002	4.43385E-004	...........
	34	9.04167	-9.92969E-002	-9.92764E-002	4.42718E-004	...........
	35	9.3	-9.92892E-002	-9.92705E-002	4.40551E-004	...........
	36	9.5583	-9.92826E-002	-9.92620E-002	4.44951E-004	...........
	37	9.8167	-9.92764E-002	-9.92569E-002	4.43151E-004	...........
	38	10.075	-9.92701E-002	-9.92515E-002	4.44851E-004	...........
EOC	QUANT	-0.0992701	Open Circuit (V)
PSTATMODEL	IQUANT	4	Pstat Model
PSTATSECTION	LABEL	REF600-11020	Pstat Section
PSTATSERIALNO	LABEL	11020	Pstat Serial Number
CTRLMODE	IQUANT	1	Control Mode
IESTAB	IQUANT	0	I/E Stability
CASPEED	IQUANT	1	Control Amp Speed
CONVENTION	IQUANT	1	Current Convention
ICHRANGE	IQUANT	2	Ich Range
ICHRANGEMODE	TOGGLE	F	Ich Auto Range
ICHOFFSETENABLE	TOGGLE	T	Ich Offset Enable
ICHOFFSET	QUANT	0	Ich Offset (V)
ICHFILTER	IQUANT	3	Ich Filter
VCHRANGE	IQUANT	2	Vch Range
VCHRANGEMODE	TOGGLE	F	Vch Auto Range
VCHOFFSETENABLE	TOGGLE	T	Vch Offset Enable
VCHOFFSET	QUANT	0	Vch Offset (V)
VCHFILTER	IQUANT	3	Vch Filter
ACHRANGE	IQUANT	2	Ach Range
ACHOFFSETENABLE	TOGGLE	F	Ach Offset Enable
ACHOFFSET	QUANT	0	Ach Offset (V)
ACHFILTER	IQUANT	3	Ach Filter
IERANGELOWERLIMIT	IQUANT	1	I/E Range Lower Limit
IERANGEMODE	TOGGLE	F	I/E AutoRange
IERANGE	IQUANT	8	I/E Range
POSFEEDENABLE	TOGGLE	F	Positive Feedback IR Comp
POSFEEDRESISTANCE	QUANT	0	Positive Feedback Resistance (ohm)
ACHSELECT	IQUANT	0	Ach Select
CABLEID	IQUANT	14	Cable ID
DCCALDATE	LABEL	6/26/2020	DC Calibration Date
ACCALDATE	LABEL	6/26/2020	AC Calibration Date
THERMOSELECT	IQUANT	1	Thermo Select
FRAMEWORKVERSION	QUANT	6.33	Framework Version
INSTRUMENTVERSION	LABEL	3.50	Instrument Version
ZCURVE	TABLE
	Pt	Time	Freq	Zreal	Zimag	Zsig	Zmod	Zphz	Idc	Vdc	IERange
	#	s	Hz	ohm	ohm	V	ohm	°	A	V	#
	0	1	1000078	1539.84	-1561.503	1	2193.034	-45.40021	5.917443E-008	-0.0969484	8
	1	1	794390.6	1749.455	-1686.873	1	2430.253	-43.95665	-4.45669E-008	-0.0972279	8
	2	2	630984.4	1959.268	-1826.052	1	2678.282	-42.98442	1.059689E-007	-0.0973911	8
	3	2	501234.4	2170.407	-1984.996	1	2941.237	-42.4452	3.990532E-008	-0.0974885	8
	4	2	398109.4	2378.178	-2180.099	1	3226.23	-42.5118	3.261359E-008	-0.0975557	8
	5	3	316265.6	2600.291	-2412.153	1	3546.829	-42.85046	1.037009E-007	-0.0976063	8
	6	3	251203.1	2818.208	-2705.417	1	3906.607	-43.8302	5.17278E-008	-0.0975962	8
	7	3	199546.9	3066.088	-3060.379	1	4332.068	-44.94662	7.683823E-008	-0.0976012	8
	8	4	158578.1	3322.419	-3490.14	1	4818.667	-46.41031	5.012388E-008	-0.0975959	8
	9	4	125953.1	3654.175	-3999.881	1	5417.752	-47.58608	-4.817927E-009	-0.0975765	7
	10	4	100078.1	3985.128	-4645.82	1	6120.857	-49.3774	3.904451E-009	-0.0976226	7
	11	5	79453.13	4345.173	-5416.754	1	6944.189	-51.26436	3.865487E-009	-0.0976231	7
	12	5	63140.62	4753.774	-6334.801	1	7920.105	-53.11463	2.343858E-009	-0.097633	7
	13	5	50203.12	5213.355	-7453.333	1	9095.671	-55.02851	2.726742E-009	-0.0976345	7
	14	6	39890.62	5729.979	-8803.376	1	10503.91	-56.94053	3.125077E-009	-0.0976334	7
	15	6	31640.63	6334.994	-10456.42	1	12225.75	-58.79055	3.268683E-009	-0.0976338	7
	16	6	25171.88	7032.657	-12438.82	1	14289.25	-60.51707	2.700328E-009	-0.0976389	7
	17	6	20015.62	7847.022	-14862.15	1	16806.53	-62.16653	2.864565E-009	-0.0976387	7
	18	7	15890.62	8825.317	-17847.86	1	19910.61	-63.68877	2.97099E-009	-0.0976345	7
	19	7	12609.37	10214.21	-21443.43	1	23751.86	-64.53	1.177692E-009	-0.0976527	6
	20	7	10078.13	11679.13	-25681.16	1	28212.13	-65.54518	1.35055E-009	-0.097645	6
	21	8	8015.625	13580.84	-30872.93	1	33727.98	-66.25555	1.219283E-009	-0.0976512	6
	22	8	6328.125	16069.89	-37319.09	1	40631.96	-66.70291	1.245687E-009	-0.0976528	6
	23	8	5015.625	19221.01	-44892.03	1	48833.81	-66.82128	1.245525E-009	-0.0976528	6
	24	9	3984.375	23140.07	-53859.93	1	58620.44	-66.74998	1.222076E-009	-0.0976485	6
	25	9	3170.956	28258.63	-64174.41	1	70120.65	-66.23414	1.19645E-009	-0.0976506	6
	26	9	2527.573	34634.64	-76276.89	1	83771.85	-65.57888	1.089521E-009	-0.0976555	6
	27	10	1976.103	43683.44	-91299.62	1	101212	-64.43063	1.122481E-009	-0.0976581	6
	28	10	1577.524	54094.34	-107270.3	1	120137.9	-63.23908	1.062642E-009	-0.0976544	6
	29	10	1265.625	68715.63	-123648.3	1	141459.3	-60.93756	6.24177E-010	-0.0976648	5
	30	11	998.264	86011.77	-143919.5	1	167662.9	-59.13585	5.296551E-010	-0.0976594	5
	31	11	796.875	106384.1	-164392.3	1	195812.1	-57.09164	5.632357E-010	-0.0976702	5
	32	11	627.7902	132559.1	-186872.4	1	229114	-54.64978	5.557482E-010	-0.0976645	5
	33	12	505.5147	160411.4	-207079.2	1	261942	-52.23728	5.592485E-010	-0.0976669	5
	34	12	397.9953	195880.4	-229125.6	1	301442.7	-49.47273	4.550021E-010	-0.0976352	5
	35	12	315.5048	234626.3	-249219	1	342285.8	-46.7275	4.419305E-010	-0.0976391	5
	36	12	252.4038	275469.9	-266697.5	1	383420.5	-44.07302	4.173555E-010	-0.0976477	5
	37	13	198.6229	322898	-283218.2	1	429506.3	-41.25443	4.357155E-010	-0.0976425	5
	38	13	158.3615	371012.9	-296702.8	1	475061.2	-38.64967	3.926141E-010	-0.0976443	5
	39	13	125.558	423161.3	-306952.7	1	522767.1	-35.95638	3.650683E-010	-0.0976362	5
	40	14	100.4464	475182.7	-312085.8	1	568503.4	-33.29571	4.525048E-010	-0.0976434	5
	41	14	79.00281	532814.5	-313730.1	1	618318.6	-30.49029	3.356401E-010	-0.0976411	5
	42	14	63.3446	585720.5	-311213.9	1	663266.6	-27.98328	3.821434E-010	-0.0976479	5
	43	15	49.86702	638986.3	-300951.5	1	706311.1	-25.21962	4.3987E-010	-0.0976512	5
	44	15	39.72458	687142.6	-289866.9	1	745780	-22.87215	4.56474E-010	-0.0976469	5
	45	16	31.6723	729107.6	-275861.7	1	779549.6	-20.7244	4.36088E-010	-0.0976501	5
	46	16	24.93351	769417.6	-262468.6	1	812953.4	-18.83586	6.233244E-010	-0.0976489	5
	47	16	19.86229	798464.4	-249164.3	1	836437.8	-17.33076	9.621277E-010	-0.0976414	5
	48	16	15.83615	831241	-240277.4	1	865271.5	-16.12239	5.999815E-010	-0.0976454	5
	49	17	12.40079	854640.9	-233836.5	1	886053.4	-15.30207	7.571566E-010	-0.0976429	5
	50	17	9.93114	884552.7	-233870.9	1	914947.6	-14.80981	9.573609E-011	-0.097644	5
	51	17	7.944915	911501.3	-239302.3	1	942390.6	-14.71026	-1.325395E-010	-0.0976434	4
	52	18	6.317385	935480.1	-246010.6	1	967287	-14.73392	2.215855E-010	-0.0976534	4
	53	19	5.008013	961964	-260437.8	1	996596	-15.14884	-1.15022E-010	-0.0976604	4
	54	19	3.945707	992047	-278256	1	1030331	-15.66811	-1.043558E-010	-0.0976589	4
	55	20	3.158693	1019036	-301812.3	1	1062791	-16.49793	-1.234815E-010	-0.0976765	4
	56	21	2.504006	1049256	-328444	1	1099461	-17.38146	1.899643E-010	-0.0976768	4
	57	23	1.998082	1083796	-364157.2	1	1143339	-18.57243	1.915565E-010	-0.0976868	4
	58	24	1.584686	1134751	-406086.6	1	1205225	-19.69046	-7.616677E-011	-0.0977156	4
	59	26	1.266892	1180586	-452629.4	1	1264380	-20.97651	-1.406555E-010	-0.0977026	4
	60	29	0.999041	1235045	-510048.2	1	1336220	-22.43962	-1.613086E-010	-0.097682	4
