EXPLAIN
TAG	EISPOT
TITLE	LABEL	Potentiostatic EIS	Test &Identifier
DATE	LABEL	6/6/2020	Date
TIME	LABEL	13:59:34	Time
NOTES	NOTES	1	&Notes...
	
PSTAT	PSTAT	REF600-11020	Potentiostat
VDC	POTEN	0.00000E+000	T	DC &Voltage (V)
FREQINIT	QUANT	1.00000E+006	Initial Fre&q. (Hz)
FREQFINAL	QUANT	1.00000E+000	Final Fre&q. (Hz)
PTSPERDEC	QUANT	1.00000E+001	Points/&decade
VAC	QUANT	2.50000E+001	AC &Voltage (mV rms)
AREA	QUANT	2.50000E-001	&Area (cm^2)
CONDIT	TWOPARAM	F	5.00000E+000	0.00000E+000	Conditionin&g	Time(s)	E(V)
DELAY	TWOPARAM	T	3.00000E+000	0.00000E+000	Init. De&lay	Time(s)	Stab.(mV/s)
SPEED	SELECTOR	0	&Optimize for:
ZGUESS	QUANT	1.00000E+003	E&stimated Z (ohms)
OCVCURVE	TABLE	12
	Pt	T	Vf	Vm	Ach	Over
	#	s	V vs. Ref.	V	V	bits
	0	0.258333	1.51706E-001	1.51706E-001	5.80397E-004	...........
	1	0.516667	1.51707E-001	1.51719E-001	5.78030E-004	...........
	2	0.775	1.51708E-001	1.51728E-001	5.76130E-004	...........
	3	1.03333	1.51712E-001	1.51737E-001	5.75530E-004	...........
	4	1.29167	1.51718E-001	1.51744E-001	5.66397E-004	...........
	5	1.55	1.51726E-001	1.51752E-001	5.72163E-004	...........
	6	1.80833	1.51735E-001	1.51762E-001	5.75097E-004	...........
	7	2.06667	1.51744E-001	1.51767E-001	5.80397E-004	...........
	8	2.325	1.51752E-001	1.51774E-001	5.76730E-004	...........
	9	2.58333	1.51760E-001	1.51783E-001	5.76063E-004	...........
	10	2.84167	1.51767E-001	1.51788E-001	5.78263E-004	...........
	11	3.1	1.51774E-001	1.51795E-001	5.79497E-004	...........
EOC	QUANT	0.1517742	Open Circuit (V)
PSTATMODEL	IQUANT	4	Pstat Model
PSTATSECTION	LABEL	REF600-11020	Pstat Section
PSTATSERIALNO	LABEL	11020	Pstat Serial Number
CTRLMODE	IQUANT	1	Control Mode
IESTAB	IQUANT	0	I/E Stability
CASPEED	IQUANT	1	Control Amp Speed
CONVENTION	IQUANT	1	Current Convention
ICHRANGE	IQUANT	2	Ich Range
ICHRANGEMODE	TOGGLE	F	Ich Auto Range
ICHOFFSETENABLE	TOGGLE	T	Ich Offset Enable
ICHOFFSET	QUANT	0	Ich Offset (V)
ICHFILTER	IQUANT	3	Ich Filter
VCHRANGE	IQUANT	2	Vch Range
VCHRANGEMODE	TOGGLE	F	Vch Auto Range
VCHOFFSETENABLE	TOGGLE	T	Vch Offset Enable
VCHOFFSET	QUANT	0	Vch Offset (V)
VCHFILTER	IQUANT	3	Vch Filter
ACHRANGE	IQUANT	2	Ach Range
ACHOFFSETENABLE	TOGGLE	F	Ach Offset Enable
ACHOFFSET	QUANT	0	Ach Offset (V)
ACHFILTER	IQUANT	3	Ach Filter
IERANGELOWERLIMIT	IQUANT	1	I/E Range Lower Limit
IERANGEMODE	TOGGLE	F	I/E AutoRange
IERANGE	IQUANT	8	I/E Range
POSFEEDENABLE	TOGGLE	F	Positive Feedback IR Comp
POSFEEDRESISTANCE	QUANT	0	Positive Feedback Resistance (ohm)
ACHSELECT	IQUANT	0	Ach Select
CABLEID	IQUANT	14	Cable ID
DCCALDATE	LABEL	2/27/2020	DC Calibration Date
ACCALDATE	LABEL	2/27/2020	AC Calibration Date
THERMOSELECT	IQUANT	1	Thermo Select
FRAMEWORKVERSION	QUANT	6.33	Framework Version
INSTRUMENTVERSION	LABEL	3.50	Instrument Version
ZCURVE	TABLE
	Pt	Time	Freq	Zreal	Zimag	Zsig	Zmod	Zphz	Idc	Vdc	IERange
	#	s	Hz	ohm	ohm	V	ohm	°	A	V	#
	0	1	1000078	1954.846	-1570.195	1	2507.376	-38.77254	4.658871E-008	0.1541746	8
	1	2	794390.6	2284.194	-1558.295	1	2765.108	-34.30211	8.760077E-008	0.1538181	8
	2	2	630984.4	2593.809	-1493.865	1	2993.238	-29.93913	7.354322E-008	0.1536413	8
	3	2	501234.4	2868.376	-1388.819	1	3186.91	-25.83549	3.237536E-008	0.1535229	8
	4	3	398109.4	3101.269	-1258.129	1	3346.753	-22.0815	3.447254E-008	0.1534617	8
	5	3	316265.6	3286.178	-1116.314	1	3470.608	-18.76262	6.375335E-008	0.153423	8
	6	3	251203.1	3433.343	-983.214	1	3571.352	-15.98024	4.62292E-008	0.1534123	8
	7	4	199546.9	3544.218	-859.517	1	3646.951	-13.63177	6.239797E-008	0.1534058	8
	8	4	158578.1	3634.463	-757.7193	1	3712.608	-11.77644	6.088388E-008	0.1534086	8
	9	4	125953.1	3730.394	-616.6572	1	3781.019	-9.386463	1.500106E-009	0.1533741	7
	10	5	100078.1	3771.813	-554.9638	1	3812.421	-8.370131	1.180777E-009	0.1533336	7
	11	5	79453.13	3818.805	-518.6176	1	3853.86	-7.733809	1.969956E-009	0.153331	7
	12	5	63140.62	3861.893	-495.1651	1	3893.508	-7.306499	1.923035E-009	0.1533234	7
	13	6	50203.12	3903.274	-484.0969	1	3933.179	-7.069909	2.734078E-009	0.1533307	7
	14	6	39890.62	3943.577	-485.3173	1	3973.328	-7.015842	2.595041E-009	0.153329	7
	15	6	31640.63	3985.547	-499.1552	1	4016.683	-7.13863	2.693512E-009	0.1533207	7
	16	7	25171.88	4027.927	-525.5748	1	4062.072	-7.434108	1.396455E-009	0.1533201	7
	17	7	20015.62	4073.97	-564.6432	1	4112.913	-7.890799	2.002786E-009	0.1533172	7
	18	7	15890.62	4123.668	-618.1896	1	4169.748	-8.525865	1.190168E-009	0.1533218	7
	19	8	12609.37	4178.554	-687.0013	1	4234.652	-9.336545	2.891987E-009	0.1533257	7
	20	8	10078.13	4236.553	-769.7241	1	4305.91	-10.29754	2.73104E-009	0.1533268	7
	21	8	8015.625	4301.808	-872.9004	1	4389.477	-11.47042	2.98106E-009	0.1533222	7
	22	9	6328.125	4376.243	-1003.437	1	4489.809	-12.91422	1.998132E-009	0.1533108	7
	23	9	5015.625	4458.278	-1160.786	1	4606.915	-14.59389	4.946984E-009	0.1533142	7
	24	9	3984.375	4548.316	-1348.392	1	4743.979	-16.51296	4.32033E-009	0.1533159	7
	25	9	3170.956	4648.887	-1573.03	1	4907.807	-18.69413	4.689154E-009	0.1533106	7
	26	10	2527.573	4761.072	-1843.112	1	5105.376	-21.16248	2.910799E-009	0.1533159	7
	27	10	1976.103	4899.954	-2197.808	1	5370.28	-24.15797	1.620054E-009	0.1533059	7
	28	10	1577.524	5044.475	-2596.292	1	5673.399	-27.234	3.420321E-009	0.1533187	7
	29	11	1265.625	5208.699	-3062.028	1	6042.066	-30.44991	3.500015E-009	0.1533168	7
	30	11	998.264	5408.573	-3672.023	1	6537.309	-34.17362	4.539574E-009	0.1533107	7
	31	11	796.875	5632.857	-4370.226	1	7129.373	-37.80593	2.857058E-009	0.1533054	7
	32	12	627.7902	5906.644	-5277.847	1	7921.118	-41.78219	3.70978E-009	0.1533142	7
	33	12	505.5147	6203.092	-6266.291	1	8817.299	-45.29039	3.208057E-009	0.1533155	7
	34	12	397.9953	6595.328	-7604.144	1	10065.85	-49.06381	7.290771E-010	0.1533863	6
	35	13	315.5048	7049.447	-9188.781	1	11581.38	-52.50531	6.598336E-010	0.1533853	6
	36	13	252.4038	7577.215	-11034.94	1	13385.96	-55.52429	5.719766E-010	0.1533823	6
	37	13	198.6229	8272.218	-13443	1	15784.29	-58.39372	6.823383E-010	0.1533815	6
	38	14	158.3615	9082.935	-16207.35	1	18578.97	-60.73283	6.287917E-010	0.153381	6
	39	14	125.558	10111.08	-19629.4	1	22080.47	-62.74705	7.120197E-010	0.1533763	6
	40	14	100.4464	11334.11	-23586.83	1	26168.69	-64.33446	5.511287E-010	0.1533771	6
	41	15	79.00281	12968.9	-28713.88	1	31506.81	-65.69322	4.561136E-010	0.1533754	6
	42	15	63.3446	14826.89	-34377.46	1	37438.57	-66.66962	3.015042E-010	0.1533734	6
	43	15	49.86702	17313.09	-41731.86	1	45180.65	-67.46815	2.407108E-010	0.1533685	6
	44	16	39.72458	20227.21	-50113.85	1	54042	-68.01975	6.167206E-010	0.1533718	6
	45	16	31.6723	23796.1	-60082.59	1	64623.3	-68.39364	4.691862E-010	0.1533712	6
	46	16	24.93351	28490.46	-72694.61	1	78078.25	-68.5988	7.155436E-010	0.1533773	6
	47	17	19.86229	33973.21	-86964.97	1	93365.33	-68.6617	1.333139E-009	0.1533838	6
	48	17	15.83615	40726.29	-103891.1	1	111588.5	-68.59435	-1.002647E-010	0.1533724	5
	49	17	12.40079	49934.7	-125619.9	1	135180.8	-68.32188	9.257071E-010	0.1533767	5
	50	18	9.93114	60189.65	-148962.5	1	160663.1	-67.99838	9.467622E-010	0.153383	5
	51	18	7.944915	72876.68	-176788	1	191219.8	-67.59726	-1.026596E-011	0.1533753	5
	52	18	6.317385	89083.48	-210090.5	1	228197	-67.02187	2.051996E-010	0.1533806	5
	53	19	5.008013	109736.9	-249519.4	1	272584.2	-66.26044	4.01772E-010	0.1533867	5
	54	20	3.945707	136516.6	-296780	1	326672.9	-65.29792	3.154211E-010	0.1533735	5
	55	21	3.158693	167099.5	-346923.7	1	385069.2	-64.28172	2.413064E-010	0.1533933	5
	56	22	2.504006	206901.6	-406597.8	1	456212.8	-63.03025	-2.634066E-011	0.153379	5
	57	23	1.998082	252495.1	-470320.3	1	533811.8	-61.77053	6.943289E-011	0.1533852	5
	58	25	1.584686	310536.4	-544237.3	1	626599.6	-60.29135	1.567552E-010	0.1534186	5
	59	27	1.266892	374118.6	-623497.4	1	727127.1	-59.03488	1.423034E-010	0.1534049	5
	60	29	0.999041	452788.6	-714724.8	1	846078.6	-57.64515	1.361053E-010	0.1533769	5
