EXPLAIN
TAG	EISPOT
TITLE	LABEL	Potentiostatic EIS	Test &Identifier
DATE	LABEL	6/26/2020	Date
TIME	LABEL	13:51:52	Time
NOTES	NOTES	1	&Notes...
	
PSTAT	PSTAT	REF600-11020	Potentiostat
VDC	POTEN	0.00000E+000	T	DC &Voltage (V)
FREQINIT	QUANT	1.00000E+006	Initial Fre&q. (Hz)
FREQFINAL	QUANT	1.00000E+000	Final Fre&q. (Hz)
PTSPERDEC	QUANT	1.00000E+001	Points/&decade
VAC	QUANT	2.50000E+001	AC &Voltage (mV rms)
AREA	QUANT	4.00000E-004	&Area (cm^2)
CONDIT	TWOPARAM	F	5.00000E+000	0.00000E+000	Conditionin&g	Time(s)	E(V)
DELAY	TWOPARAM	F	3.00000E+000	0.00000E+000	Init. De&lay	Time(s)	Stab.(mV/s)
SPEED	SELECTOR	0	&Optimize for:
ZGUESS	QUANT	1.00000E+003	E&stimated Z (ohms)
OCVCURVE	TABLE	39
	Pt	T	Vf	Vm	Ach	Over
	#	s	V vs. Ref.	V	V	bits
	0	0.258333	1.06131E-001	1.06131E-001	5.67149E-004	...........
	1	0.516667	1.06131E-001	1.06137E-001	5.67816E-004	...........
	2	0.775	1.06132E-001	1.06136E-001	5.68849E-004	...........
	3	1.03333	1.06133E-001	1.06132E-001	5.65883E-004	...........
	4	1.29167	1.06134E-001	1.06128E-001	5.66949E-004	...........
	5	1.55	1.06134E-001	1.06121E-001	5.69883E-004	...........
	6	1.80833	1.06131E-001	1.06115E-001	5.72749E-004	...........
	7	2.06667	1.06127E-001	1.06108E-001	5.72883E-004	...........
	8	2.325	1.06122E-001	1.06099E-001	5.69649E-004	...........
	9	2.58333	1.06115E-001	1.06096E-001	5.70649E-004	...........
	10	2.84167	1.06108E-001	1.06091E-001	5.75349E-004	...........
	11	3.1	1.06102E-001	1.06082E-001	5.71916E-004	...........
	12	3.35833	1.06096E-001	1.06074E-001	5.69249E-004	...........
	13	3.61667	1.06089E-001	1.06067E-001	5.75749E-004	...........
	14	3.875	1.06082E-001	1.06043E-001	5.74882E-004	...........
	15	4.13333	1.06073E-001	1.06049E-001	5.69449E-004	...........
	16	4.39167	1.06063E-001	1.06039E-001	5.71716E-004	...........
	17	4.65	1.06054E-001	1.06039E-001	5.69349E-004	...........
	18	4.90833	1.06047E-001	1.06034E-001	5.72849E-004	...........
	19	5.16667	1.06042E-001	1.06030E-001	5.67683E-004	...........
	20	5.425	1.06038E-001	1.06022E-001	5.67283E-004	...........
	21	5.68333	1.06034E-001	1.06015E-001	5.69316E-004	...........
	22	5.94167	1.06029E-001	1.06006E-001	5.71149E-004	...........
	23	6.2	1.06022E-001	1.06003E-001	5.60983E-004	...........
	24	6.45833	1.06016E-001	1.05996E-001	5.63883E-004	...........
	25	6.71667	1.06009E-001	1.05990E-001	5.65316E-004	...........
	26	6.975	1.06003E-001	1.05983E-001	5.67716E-004	...........
	27	7.23333	1.05996E-001	1.05979E-001	5.62383E-004	...........
	28	7.49167	1.05990E-001	1.05969E-001	5.59949E-004	...........
	29	7.75	1.05984E-001	1.05968E-001	5.63716E-004	...........
	30	8.00833	1.05978E-001	1.05958E-001	5.66383E-004	...........
	31	8.26667	1.05972E-001	1.05952E-001	5.66249E-004	...........
	32	8.525	1.05966E-001	1.05945E-001	5.64283E-004	...........
	33	8.78333	1.05959E-001	1.05936E-001	5.64616E-004	...........
	34	9.04167	1.05952E-001	1.05932E-001	5.65349E-004	...........
	35	9.3	1.05945E-001	1.05925E-001	5.68749E-004	...........
	36	9.5583	1.05938E-001	1.05919E-001	5.66816E-004	...........
	37	9.8167	1.05932E-001	1.05912E-001	5.69616E-004	...........
	38	10.075	1.05925E-001	1.05905E-001	5.62349E-004	...........
EOC	QUANT	0.1059253	Open Circuit (V)
PSTATMODEL	IQUANT	4	Pstat Model
PSTATSECTION	LABEL	REF600-11020	Pstat Section
PSTATSERIALNO	LABEL	11020	Pstat Serial Number
CTRLMODE	IQUANT	1	Control Mode
IESTAB	IQUANT	0	I/E Stability
CASPEED	IQUANT	1	Control Amp Speed
CONVENTION	IQUANT	1	Current Convention
ICHRANGE	IQUANT	2	Ich Range
ICHRANGEMODE	TOGGLE	F	Ich Auto Range
ICHOFFSETENABLE	TOGGLE	T	Ich Offset Enable
ICHOFFSET	QUANT	0	Ich Offset (V)
ICHFILTER	IQUANT	3	Ich Filter
VCHRANGE	IQUANT	2	Vch Range
VCHRANGEMODE	TOGGLE	F	Vch Auto Range
VCHOFFSETENABLE	TOGGLE	T	Vch Offset Enable
VCHOFFSET	QUANT	0	Vch Offset (V)
VCHFILTER	IQUANT	3	Vch Filter
ACHRANGE	IQUANT	2	Ach Range
ACHOFFSETENABLE	TOGGLE	F	Ach Offset Enable
ACHOFFSET	QUANT	0	Ach Offset (V)
ACHFILTER	IQUANT	3	Ach Filter
IERANGELOWERLIMIT	IQUANT	1	I/E Range Lower Limit
IERANGEMODE	TOGGLE	F	I/E AutoRange
IERANGE	IQUANT	8	I/E Range
POSFEEDENABLE	TOGGLE	F	Positive Feedback IR Comp
POSFEEDRESISTANCE	QUANT	0	Positive Feedback Resistance (ohm)
ACHSELECT	IQUANT	0	Ach Select
CABLEID	IQUANT	14	Cable ID
DCCALDATE	LABEL	6/26/2020	DC Calibration Date
ACCALDATE	LABEL	6/26/2020	AC Calibration Date
THERMOSELECT	IQUANT	1	Thermo Select
FRAMEWORKVERSION	QUANT	6.33	Framework Version
INSTRUMENTVERSION	LABEL	3.50	Instrument Version
ZCURVE	TABLE
	Pt	Time	Freq	Zreal	Zimag	Zsig	Zmod	Zphz	Idc	Vdc	IERange
	#	s	Hz	ohm	ohm	V	ohm	°	A	V	#
	0	1	1000078	1811.383	-1740.921	1	2512.353	-43.86365	7.697881E-008	0.1084617	8
	1	2	794390.6	2178.146	-1796.046	1	2823.137	-39.50816	-2.433973E-008	0.1081282	8
	2	2	630984.4	2550.79	-1780.66	1	3110.832	-34.91819	8.252363E-008	0.1079574	8
	3	2	501234.4	2901.841	-1707.416	1	3366.89	-30.47216	6.847753E-008	0.1078406	8
	4	3	398109.4	3213.473	-1587.084	1	3584.027	-26.28404	2.659035E-008	0.1077565	8
	5	3	316265.6	3476.135	-1438.247	1	3761.924	-22.47727	6.679851E-008	0.1077605	8
	6	3	251203.1	3690.039	-1280.498	1	3905.9	-19.13753	8.227141E-008	0.1077478	8
	7	4	199546.9	3859.624	-1131.28	1	4022.001	-16.33619	2.528962E-008	0.1077274	8
	8	4	158578.1	3987.458	-995.02	1	4109.73	-14.0113	6.190602E-008	0.1077252	8
	9	4	125953.1	4122.822	-826.5031	1	4204.851	-11.33584	-2.697501E-008	0.1077315	7
	10	4	100078.1	4205.927	-734.049	1	4269.502	-9.89996	-1.146327E-008	0.1077039	7
	11	5	79453.13	4267.9	-666.4719	1	4319.625	-8.875582	1.00256E-008	0.1076721	7
	12	5	63140.62	4321.726	-617.3701	1	4365.6	-8.129851	3.685671E-009	0.1076853	7
	13	5	50203.12	4370.979	-585.6265	1	4410.036	-7.631079	9.242658E-009	0.1076794	7
	14	6	39890.62	4418.143	-569.6801	1	4454.719	-7.34724	6.573589E-009	0.1076669	7
	15	6	31640.63	4464.771	-569.6807	1	4500.968	-7.271342	1.398812E-010	0.1076844	7
	16	6	25171.88	4511.344	-584.4437	1	4549.043	-7.381546	-7.612744E-009	0.1076781	7
	17	7	20015.62	4560.424	-613.9261	1	4601.563	-7.667087	9.278611E-009	0.1076762	7
	18	7	15890.62	4612.554	-658.5298	1	4659.326	-8.125154	4.90302E-009	0.1076781	7
	19	7	12609.37	4669.663	-721.7015	1	4725.104	-8.785614	1.363389E-008	0.1076553	7
	20	8	10078.13	4727.479	-798.4048	1	4794.424	-9.586	-1.047875E-008	0.1076816	7
	21	8	8015.625	4792.842	-897.7491	1	4876.196	-10.60916	-2.444838E-009	0.1076767	7
	22	8	6328.125	4865.717	-1025.728	1	4972.657	-11.90407	-8.311276E-009	0.1076725	7
	23	9	5015.625	4945.023	-1181.226	1	5084.146	-13.43459	1.468874E-008	0.107656	7
	24	9	3984.375	5031.032	-1368.914	1	5213.943	-15.22134	1.094761E-008	0.1076728	7
	25	9	3170.956	5124.82	-1596.83	1	5367.834	-17.30638	1.235346E-009	0.1076768	7
	26	10	2527.573	5229.62	-1875.228	1	5555.664	-19.72673	2.733962E-009	0.1076583	7
	27	10	1976.103	5358.087	-2243.927	1	5808.985	-22.72357	-2.041663E-009	0.1076652	7
	28	10	1577.524	5492.141	-2657.498	1	6101.304	-25.82108	-6.20003E-009	0.1076859	7
	29	11	1265.625	5640.258	-3149.197	1	6459.873	-29.17649	-1.065509E-008	0.1076783	7
	30	11	998.264	5829.592	-3796.056	1	6956.593	-33.07097	-5.709836E-009	0.1076841	7
	31	11	796.875	6038.1	-4547.112	1	7558.762	-36.9823	1.031701E-008	0.107669	7
	32	11	627.7902	6301.124	-5523.82	1	8379.544	-41.23912	-1.781515E-009	0.1076623	7
	33	12	505.5147	6584.574	-6598.444	1	9321.807	-45.06028	1.426909E-008	0.1076519	7
	34	12	397.9953	6968.635	-8038.759	1	10638.77	-49.07866	6.47411E-010	0.1076874	6
	35	12	315.5048	7418.803	-9757.57	1	12257.6	-52.75382	7.190515E-010	0.107682	6
	36	13	252.4038	7948.115	-11761.85	1	14195.55	-55.95099	6.700701E-010	0.1076809	6
	37	13	198.6229	8649.888	-14380.35	1	16781.38	-58.97277	5.970135E-010	0.1076801	6
	38	13	158.3615	9474.362	-17389.66	1	19803.13	-61.41724	5.151196E-010	0.107676	6
	39	14	125.558	10520.93	-21118.82	1	23594.38	-63.51852	5.786034E-010	0.1076796	6
	40	14	100.4464	11766.13	-25438.88	1	28028.17	-65.17825	5.756593E-010	0.1076763	6
	41	14	79.00281	13430.13	-31057.79	1	33837.18	-66.6152	4.491831E-010	0.107677	6
	42	15	63.3446	15322.08	-37288.84	1	40314.06	-67.66212	3.699498E-010	0.1076708	6
	43	15	49.86702	17851.5	-45408.55	1	48791.52	-68.53869	2.886096E-010	0.107668	6
	44	15	39.72458	20824.14	-54712.11	1	58541.09	-69.16252	4.866702E-010	0.1076712	6
	45	16	31.6723	24478.12	-65838.3	1	70241.45	-69.6053	3.686877E-010	0.1076732	6
	46	16	24.93351	29266.65	-79979.52	1	85166.07	-69.90108	2.698953E-010	0.1076686	6
	47	16	19.86229	34953.21	-96236.9	1	102387.9	-70.039	-1.438931E-010	0.1076684	6
	48	17	15.83615	42089.8	-115385.1	1	122822.2	-69.95921	7.3751E-010	0.1076567	5
	49	17	12.40079	51911.64	-140286.2	1	149582.9	-69.69346	4.329405E-010	0.1076566	5
	50	17	9.93114	63319.46	-167125	1	178718	-69.24956	7.147735E-010	0.107656	5
	51	18	7.944915	77372.05	-198772	1	213299.6	-68.73151	5.907677E-010	0.107651	5
	52	18	6.317385	95799.3	-236809.1	1	255452.7	-67.97459	4.073817E-011	0.1076692	5
	53	19	5.008013	119307.4	-281709.4	1	305932.1	-67.04674	1.408062E-010	0.1076663	5
	54	20	3.945707	149326.7	-335060.3	1	366829.5	-65.97884	3.438103E-010	0.1076526	5
	55	21	3.158693	184259.5	-391718.2	1	432891.2	-64.80827	1.351325E-010	0.107664	5
	56	22	2.504006	228881.1	-459087.5	1	512979.5	-63.50115	-3.591554E-011	0.1076367	5
	57	23	1.998082	280660.1	-530479.5	1	600148.8	-62.11808	1.279516E-010	0.1076577	5
	58	24	1.584686	344817.9	-614150.9	1	704329.9	-60.68776	1.957962E-010	0.1076873	5
	59	26	1.266892	415046.3	-702386.7	1	815849.6	-59.4208	1.688913E-010	0.1076591	5
	60	29	0.999041	502046.4	-804296.8	1	948126.5	-58.02737	1.503811E-010	0.1076367	5
