EXPLAIN
TAG	EISPOT
TITLE	LABEL	Potentiostatic EIS	Test &Identifier
DATE	LABEL	3/17/2020	Date
TIME	LABEL	16:00:15	Time
NOTES	NOTES	1	&Notes...
	
PSTAT	PSTAT	REF600-11020	Potentiostat
VDC	POTEN	0.00000E+000	T	DC &Voltage (V)
FREQINIT	QUANT	1.00000E+006	Initial Fre&q. (Hz)
FREQFINAL	QUANT	1.00000E+000	Final Fre&q. (Hz)
PTSPERDEC	QUANT	1.00000E+001	Points/&decade
VAC	QUANT	2.50000E+001	AC &Voltage (mV rms)
AREA	QUANT	4.00000E-004	&Area (cm^2)
CONDIT	TWOPARAM	F	5.00000E+000	0.00000E+000	Conditionin&g	Time(s)	E(V)
DELAY	TWOPARAM	T	3.00000E+000	0.00000E+000	Init. De&lay	Time(s)	Stab.(mV/s)
SPEED	SELECTOR	0	&Optimize for:
ZGUESS	QUANT	5.00000E+003	E&stimated Z (ohms)
OCVCURVE	TABLE	12
	Pt	T	Vf	Vm	Ach	Over
	#	s	V vs. Ref.	V	V	bits
	0	0.258333	-1.03164E-001	-1.03164E-001	5.70163E-004	...........
	1	0.516667	-1.03164E-001	-1.03165E-001	5.77230E-004	...........
	2	0.775	-1.03164E-001	-1.03168E-001	5.78997E-004	...........
	3	1.03333	-1.03165E-001	-1.03172E-001	5.74097E-004	...........
	4	1.29167	-1.03166E-001	-1.03176E-001	5.76297E-004	...........
	5	1.55	-1.03168E-001	-1.03178E-001	5.74030E-004	...........
	6	1.80833	-1.03172E-001	-1.03183E-001	5.69197E-004	...........
	7	2.06667	-1.03175E-001	-1.03187E-001	5.75063E-004	...........
	8	2.325	-1.03179E-001	-1.03190E-001	5.76430E-004	...........
	9	2.58333	-1.03182E-001	-1.03192E-001	5.71163E-004	...........
	10	2.84167	-1.03186E-001	-1.03193E-001	5.79097E-004	...........
	11	3.1	-1.03189E-001	-1.03200E-001	5.71297E-004	...........
EOC	QUANT	-0.1031891	Open Circuit (V)
PSTATMODEL	IQUANT	4	Pstat Model
PSTATSECTION	LABEL	REF600-11020	Pstat Section
PSTATSERIALNO	LABEL	11020	Pstat Serial Number
CTRLMODE	IQUANT	1	Control Mode
IESTAB	IQUANT	0	I/E Stability
CASPEED	IQUANT	1	Control Amp Speed
CONVENTION	IQUANT	1	Current Convention
ICHRANGE	IQUANT	2	Ich Range
ICHRANGEMODE	TOGGLE	F	Ich Auto Range
ICHOFFSETENABLE	TOGGLE	T	Ich Offset Enable
ICHOFFSET	QUANT	0	Ich Offset (V)
ICHFILTER	IQUANT	3	Ich Filter
VCHRANGE	IQUANT	2	Vch Range
VCHRANGEMODE	TOGGLE	F	Vch Auto Range
VCHOFFSETENABLE	TOGGLE	T	Vch Offset Enable
VCHOFFSET	QUANT	0	Vch Offset (V)
VCHFILTER	IQUANT	3	Vch Filter
ACHRANGE	IQUANT	2	Ach Range
ACHOFFSETENABLE	TOGGLE	F	Ach Offset Enable
ACHOFFSET	QUANT	0	Ach Offset (V)
ACHFILTER	IQUANT	3	Ach Filter
IERANGELOWERLIMIT	IQUANT	1	I/E Range Lower Limit
IERANGEMODE	TOGGLE	F	I/E AutoRange
IERANGE	IQUANT	7	I/E Range
POSFEEDENABLE	TOGGLE	F	Positive Feedback IR Comp
POSFEEDRESISTANCE	QUANT	0	Positive Feedback Resistance (ohm)
ACHSELECT	IQUANT	0	Ach Select
CABLEID	IQUANT	14	Cable ID
DCCALDATE	LABEL	2/27/2020	DC Calibration Date
ACCALDATE	LABEL	2/27/2020	AC Calibration Date
THERMOSELECT	IQUANT	1	Thermo Select
FRAMEWORKVERSION	QUANT	6.33	Framework Version
INSTRUMENTVERSION	LABEL	3.50	Instrument Version
ZCURVE	TABLE
	Pt	Time	Freq	Zreal	Zimag	Zsig	Zmod	Zphz	Idc	Vdc	IERange
	#	s	Hz	ohm	ohm	V	ohm	°	A	V	#
	0	1	1000078	1808.117	-2291.027	1	2918.577	-51.71891	-4.75823E-009	-0.100848	8
	1	1	794390.6	2181.337	-2539.402	1	3347.655	-49.33754	4.076806E-008	-0.1011871	8
	2	1	630984.4	2604.114	-2772.775	1	3803.905	-46.79665	1.770014E-008	-0.1013347	8
	3	2	501234.4	3079.26	-2990.104	1	4292.151	-44.15841	3.813442E-008	-0.1014241	8
	4	2	398109.4	3593.347	-3173.733	1	4794.239	-41.45174	4.24585E-008	-0.101472	8
	5	2	316265.6	4145.85	-3333.325	1	5319.692	-38.7998	4.141109E-008	-0.1014989	8
	6	3	251203.1	4739.411	-3447.274	1	5860.521	-36.03077	3.767867E-008	-0.1015334	8
	7	3	199546.9	5344.41	-3528.636	1	6404.217	-33.43471	1.681644E-008	-0.1015307	8
	8	3	158578.1	5965.207	-3539.361	1	6936.193	-30.6821	4.64651E-008	-0.1015395	8
	9	4	125953.1	6639.597	-3440.04	1	7477.842	-27.38912	-5.615348E-010	-0.1015945	7
	10	4	100078.1	7208.461	-3358.537	1	7952.464	-24.98156	1.141361E-009	-0.1016006	7
	11	4	79453.13	7776.851	-3247.577	1	8427.702	-22.66519	1.678474E-009	-0.1016086	7
	12	4	63140.62	8295.923	-3095.341	1	8854.573	-20.46135	1.33279E-009	-0.1016151	7
	13	5	50203.12	8759.239	-2921.19	1	9233.506	-18.44345	1.028382E-009	-0.1016114	7
	14	5	39890.62	9173.623	-2738.827	1	9573.74	-16.62324	1.335766E-009	-0.1016154	7
	15	5	31640.63	9546.04	-2568.349	1	9885.51	-15.05875	2.673306E-009	-0.1016076	7
	16	6	25171.88	9861.88	-2411.462	1	10152.43	-13.74055	1.348745E-009	-0.1016192	7
	17	6	20015.62	10138.94	-2282.698	1	10392.72	-12.68811	1.839766E-009	-0.1016165	7
	18	6	15890.62	10387.89	-2188.657	1	10615.96	-11.89781	1.856321E-009	-0.1016187	7
	19	7	12609.37	10660.63	-2031.694	1	10852.5	-10.78999	1.95621E-010	-0.1015687	6
	20	7	10078.13	10851.16	-2036.771	1	11040.65	-10.63077	9.920717E-011	-0.1015736	6
	21	7	8015.625	11031.17	-2097.646	1	11228.84	-10.7666	1.459437E-010	-0.1015665	6
	22	8	6328.125	11217.45	-2198.869	1	11430.94	-11.09062	1.259321E-010	-0.1015706	6
	23	8	5015.625	11403.96	-2349.834	1	11643.54	-11.64308	1.534367E-010	-0.101573	6
	24	8	3984.375	11588.83	-2572.116	1	11870.83	-12.51383	1.560119E-011	-0.1015749	6
	25	9	3170.956	11786.26	-2863.77	1	12129.18	-13.65681	9.858483E-011	-0.1015751	6
	26	9	2527.573	11998.31	-3236.766	1	12427.23	-15.09721	1.120158E-010	-0.1015802	6
	27	9	1976.103	12255.51	-3748.093	1	12815.84	-17.00516	-1.09091E-010	-0.1015795	6
	28	10	1577.524	12520.8	-4334.051	1	13249.7	-19.09319	-2.592697E-010	-0.1015822	6
	29	10	1265.625	12811.24	-5035.525	1	13765.33	-21.45757	-1.361411E-010	-0.1015824	6
	30	10	998.264	13176.63	-5950.13	1	14457.79	-24.30235	-2.952308E-010	-0.1015744	6
	31	11	796.875	13586.42	-7007.057	1	15286.91	-27.28196	-1.669223E-010	-0.1015813	6
	32	11	627.7902	14094.03	-8370.725	1	16392.4	-30.70692	1.494943E-012	-0.1015746	6
	33	11	505.5147	14644.59	-9860.07	1	17654.6	-33.95201	-2.731969E-010	-0.1015759	6
	34	11	397.9953	15373.86	-11838.95	1	19404.02	-37.59879	3.119651E-010	-0.1015679	6
	35	12	315.5048	16234.33	-14168.47	1	21547.6	-41.11275	3.51487E-010	-0.101569	6
	36	12	252.4038	17241.93	-16856.66	1	24112.88	-44.35265	1.483074E-010	-0.1015725	6
	37	12	198.6229	18584.66	-20322.93	1	27539.26	-47.55809	2.250952E-010	-0.1015721	6
	38	13	158.3615	20167.87	-24248.22	1	31539.16	-50.24883	2.816854E-010	-0.1015748	6
	39	13	125.558	22196.63	-29031.62	1	36544.84	-52.59964	2.149314E-010	-0.1015707	6
	40	13	100.4464	24635.01	-34455.56	1	42356.46	-54.43601	2.810086E-010	-0.1015703	6
	41	14	79.00281	27924.09	-41316.96	1	49868.29	-55.94718	3.170201E-010	-0.1015741	6
	42	14	63.3446	31701.28	-48681.68	1	58093.69	-56.92802	2.777321E-010	-0.1015751	6
	43	14	49.86702	36765.68	-57911.61	1	68596.43	-57.59023	-5.855967E-011	-0.1015801	6
	44	15	39.72458	42694.88	-68005.54	1	80296.99	-57.87879	4.885431E-011	-0.1015744	6
	45	15	31.6723	49879.62	-79483.56	1	93838.23	-57.88982	-1.820042E-012	-0.1015764	6
	46	15	24.93351	59071.46	-93188.46	1	110333.7	-57.6297	-4.24713E-010	-0.1015691	5
	47	16	19.86229	69502.2	-107974.5	1	128409.7	-57.23098	-1.252341E-009	-0.1015813	5
	48	16	15.83615	81955.14	-124612.2	1	149147.1	-56.66782	5.759279E-010	-0.1015744	5
	49	16	12.40079	97903.3	-144441.2	1	174494.4	-55.8703	-3.923114E-010	-0.101575	5
	50	17	9.93114	114832	-164643.6	1	200733.4	-55.10583	1.793109E-010	-0.1015846	5
	51	17	7.944915	133983.4	-186599.7	1	229719.4	-54.32067	1.192529E-009	-0.1015859	5
	52	17	6.317385	157084.2	-211930.4	1	263799.1	-53.45391	-3.566403E-010	-0.1015656	5
	53	18	5.008013	183623	-240170.1	1	302322.8	-52.60014	-3.123866E-010	-0.1015758	5
	54	19	3.945707	213552.8	-271756.6	1	345624.7	-51.83889	3.328718E-010	-0.1015774	5
	55	20	3.158693	245294.9	-304831.3	1	391269.3	-51.17669	-1.736873E-010	-0.1015763	5
	56	21	2.504006	280882.8	-343495.7	1	443716.6	-50.72649	-9.879546E-011	-0.1015855	5
	57	22	1.998082	319603	-385699.2	1	500909.1	-50.35374	2.052324E-010	-0.1015441	5
	58	24	1.584686	361929.8	-436305.8	1	566882.6	-50.32319	1.587299E-010	-0.1015683	5
	59	26	1.266892	408438.6	-491057.8	1	638717.3	-50.24792	5.700898E-011	-0.1016085	5
	60	28	0.999041	464528.4	-559226.4	1	726994.4	-50.28486	1.115952E-011	-0.1016331	5
