EXPLAIN
TAG	EISPOT
TITLE	LABEL	Potentiostatic EIS	Test &Identifier
DATE	LABEL	1/7/2020	Date
TIME	LABEL	17:59:05	Time
NOTES	NOTES	5	&Notes...
	
	
	
	
	
PSTAT	PSTAT	REF600-11020	Potentiostat
VDC	POTEN	0.00000E+000	T	DC &Voltage (V)
FREQINIT	QUANT	1.00000E+006	Initial Fre&q. (Hz)
FREQFINAL	QUANT	1.00000E+000	Final Fre&q. (Hz)
PTSPERDEC	QUANT	1.00000E+001	Points/&decade
VAC	QUANT	2.50000E+001	AC &Voltage (mV rms)
AREA	QUANT	1.00000E-001	&Area (cm^2)
CONDIT	TWOPARAM	T	5.00000E+000	0.00000E+000	Conditionin&g	Time(s)	E(V)
DELAY	TWOPARAM	T	5.00000E+000	0.00000E+000	Init. De&lay	Time(s)	Stab.(mV/s)
SPEED	SELECTOR	0	&Optimize for:
ZGUESS	QUANT	1.00000E+003	E&stimated Z (ohms)
OCVCURVE	TABLE	19
	Pt	T	Vf	Vm	Ach	Over
	#	s	V vs. Ref.	V	V	bits
	0	0.258333	2.79679E-003	2.79679E-003	6.44146E-004	...........
	1	0.516667	2.77731E-003	1.77707E-003	6.48546E-004	...........
	2	0.775	2.67287E-003	1.60495E-003	6.46880E-004	...........
	3	1.03333	2.43306E-003	1.71266E-003	6.46080E-004	...........
	4	1.29167	2.11460E-003	1.30104E-003	6.43646E-004	...........
	5	1.55	1.81708E-003	1.05806E-003	6.41846E-004	...........
	6	1.80833	1.56635E-003	8.99778E-004	6.43813E-004	...........
	7	2.06667	1.34020E-003	8.46601E-004	6.47646E-004	...........
	8	2.325	1.13629E-003	6.54077E-004	6.44713E-004	...........
	9	2.58333	9.61882E-004	4.66396E-004	6.43613E-004	...........
	10	2.84167	8.07107E-004	3.63718E-004	6.49946E-004	...........
	11	3.1	6.56418E-004	1.63432E-004	6.45846E-004	...........
	12	3.35833	5.04061E-004	4.46961E-005	6.43946E-004	...........
	13	3.61667	3.51759E-004	-6.11609E-005	6.44380E-004	...........
	14	3.875	2.05022E-004	-1.86816E-004	6.50046E-004	...........
	15	4.13333	6.88502E-005	-3.11382E-004	6.34980E-004	...........
	16	4.39167	-5.80971E-005	-4.43217E-004	6.45646E-004	...........
	17	4.65	-1.80557E-004	-5.17290E-004	6.43813E-004	...........
	18	4.90833	-2.99282E-004	-6.24145E-004	6.42946E-004	...........
EOC	QUANT	-0.0002993	Open Circuit (V)
PSTATMODEL	IQUANT	4	Pstat Model
PSTATSECTION	LABEL	REF600-11020	Pstat Section
PSTATSERIALNO	LABEL	11020	Pstat Serial Number
CTRLMODE	IQUANT	1	Control Mode
IESTAB	IQUANT	0	I/E Stability
CASPEED	IQUANT	1	Control Amp Speed
CONVENTION	IQUANT	1	Current Convention
ICHRANGE	IQUANT	2	Ich Range
ICHRANGEMODE	TOGGLE	F	Ich Auto Range
ICHOFFSETENABLE	TOGGLE	T	Ich Offset Enable
ICHOFFSET	QUANT	0	Ich Offset (V)
ICHFILTER	IQUANT	3	Ich Filter
VCHRANGE	IQUANT	2	Vch Range
VCHRANGEMODE	TOGGLE	F	Vch Auto Range
VCHOFFSETENABLE	TOGGLE	T	Vch Offset Enable
VCHOFFSET	QUANT	0	Vch Offset (V)
VCHFILTER	IQUANT	3	Vch Filter
ACHRANGE	IQUANT	2	Ach Range
ACHOFFSETENABLE	TOGGLE	F	Ach Offset Enable
ACHOFFSET	QUANT	0	Ach Offset (V)
ACHFILTER	IQUANT	3	Ach Filter
IERANGELOWERLIMIT	IQUANT	1	I/E Range Lower Limit
IERANGEMODE	TOGGLE	F	I/E AutoRange
IERANGE	IQUANT	5	I/E Range
POSFEEDENABLE	TOGGLE	F	Positive Feedback IR Comp
POSFEEDRESISTANCE	QUANT	0	Positive Feedback Resistance (ohm)
ACHSELECT	IQUANT	0	Ach Select
CABLEID	IQUANT	14	Cable ID
DCCALDATE	LABEL	12/22/2019	DC Calibration Date
ACCALDATE	LABEL	12/22/2019	AC Calibration Date
THERMOSELECT	IQUANT	1	Thermo Select
FRAMEWORKVERSION	QUANT	6.33	Framework Version
INSTRUMENTVERSION	LABEL	3.50	Instrument Version
ZCURVE	TABLE
	Pt	Time	Freq	Zreal	Zimag	Zsig	Zmod	Zphz	Idc	Vdc	IERange
	#	s	Hz	ohm	ohm	V	ohm	°	A	V	#
	0	1	1000078	2106.244	-1788.955	1	2763.444	-40.34317	5.176487E-007	0.0011055	8
	1	1	794390.6	2399.231	-1847.152	1	3027.917	-37.59244	-1.203831E-006	0.0017685	8
	2	2	630984.4	2684.171	-1902.026	1	3289.753	-35.3217	3.493539E-006	0.000948	8
	3	2	501234.4	2918.2	-1967.642	1	3519.589	-33.99043	4.522044E-006	0.0003757	8
	4	2	398109.4	3181.421	-2046.69	1	3782.906	-32.75422	3.460368E-006	0.0002517	8
	5	3	316265.6	3426.309	-2158.034	1	4049.284	-32.20446	-2.945511E-006	0.001989	8
	6	3	251203.1	3721.095	-2318.788	1	4384.441	-31.92896	-2.783364E-006	0.0020073	8
	7	3	199546.9	3990.153	-2543.619	1	4731.947	-32.51645	-6.129888E-007	0.0013506	8
	8	4	158578.1	4362.918	-2720.876	1	5141.811	-31.94918	-6.248556E-006	0.0025815	8
	9	4	125953.1	4882.815	-2883.894	1	5670.867	-30.567	1.10567E-007	0.0005715	7
	10	4	100078.1	5395.726	-3118.222	1	6231.947	-30.02387	-3.495235E-008	0.001396	7
	11	5	79453.13	5992.832	-3309.494	1	6845.932	-28.90933	-3.50853E-008	0.0013876	7
	12	5	63140.62	6648.53	-3408.292	1	7471.239	-27.14142	-1.027645E-007	0.0014103	7
	13	5	50203.12	7337.884	-3399.844	1	8087.242	-24.85959	1.453887E-007	0.000999	7
	14	5	39890.62	7998.795	-3275.724	1	8643.559	-22.27044	-8.459502E-008	0.0013233	7
	15	6	31640.63	8603.281	-3057.844	1	9130.545	-19.56662	4.328257E-008	0.0011071	7
	16	6	25171.88	9106.287	-2788.861	1	9523.77	-17.02756	-4.463348E-008	0.0012624	7
	17	6	20015.62	9500.68	-2495.321	1	9822.91	-14.71616	8.135854E-008	0.0010015	7
	18	7	15890.62	9821.22	-2222.175	1	10069.48	-12.74922	-8.439172E-008	0.0013232	7
	19	7	12609.37	10143.28	-1811.031	1	10303.68	-10.1232	-8.407173E-009	0.0012762	6
	20	7	10078.13	10293.25	-1649.25	1	10424.54	-9.102925	8.476553E-009	0.0012785	6
	21	8	8015.625	10426.68	-1527.984	1	10538.05	-8.337101	-9.520592E-009	0.0014017	6
	22	8	6328.125	10539.41	-1465.47	1	10640.8	-7.916032	-1.574153E-008	0.0014815	6
	23	8	5015.625	10636.6	-1451.387	1	10735.17	-7.770144	-1.549338E-008	0.0014796	6
	24	9	3984.375	10713.96	-1489.164	1	10816.96	-7.913003	-6.565995E-009	0.0015241	6
	25	9	3170.956	10801.94	-1581.698	1	10917.13	-8.330462	-1.921213E-008	0.0014411	6
	26	9	2527.573	10880.7	-1728.926	1	11017.2	-9.028728	-7.133092E-009	0.0013793	6
	27	10	1976.103	10965.03	-1965.121	1	11139.73	-10.16052	-2.181218E-009	0.0011581	6
	28	10	1577.524	11078.16	-2262.426	1	11306.82	-11.54246	-7.001828E-009	0.0015255	6
	29	10	1265.625	11145.63	-2626.463	1	11450.92	-13.25981	4.793419E-009	0.0013688	6
	30	11	998.264	11260.25	-3136.448	1	11688.91	-15.56473	3.124456E-008	0.0007249	6
	31	11	796.875	11395.17	-3744.939	1	11994.76	-18.19274	-1.096515E-008	0.0015146	6
	32	11	627.7902	11558.58	-4556.522	1	12424.28	-21.51492	-1.925282E-008	0.0014324	6
	33	12	505.5147	11734.43	-5471.414	1	12947.33	-24.99822	1.454309E-008	0.0009209	6
	34	12	397.9953	11969.78	-6709.67	1	13722.07	-29.27285	8.812265E-010	0.0012673	6
	35	12	315.5048	12255.94	-8206.91	1	14749.96	-33.80735	2.995743E-010	0.0012604	6
	36	12	252.4038	12601.93	-9974.53	1	16071.71	-38.3619	6.743788E-010	0.0012569	6
	37	13	198.6229	13068.47	-12313.84	1	17955.94	-43.29707	1.207458E-009	0.0012589	6
	38	13	158.3615	13625.72	-15030.9	1	20287.63	-47.80725	1.121042E-009	0.0012538	6
	39	13	125.558	14372.11	-18446.37	1	23384.32	-52.0768	1.168592E-009	0.00126	6
	40	14	100.4464	15272	-22456.51	1	27157.48	-55.78156	1.470391E-010	0.0012578	6
	41	14	79.00281	16545.41	-27682.26	1	32249.93	-59.13366	6.992668E-010	0.001257	6
	42	14	63.3446	18362.96	-33784.72	1	38452.64	-61.47466	1.176102E-009	0.0012537	6
	43	15	49.86702	20469.97	-41501.76	1	46275.43	-63.74604	6.744014E-010	0.0012468	6
	44	15	39.72458	23160.73	-50261.2	1	55340.83	-65.2594	1.516512E-009	0.0012555	6
	45	15	31.6723	26905.44	-60769.8	1	66459.55	-66.11893	1.689665E-009	0.0012542	6
	46	16	24.93351	31682.54	-74028.02	1	80522.87	-66.83002	3.45093E-010	0.0012565	6
	47	16	19.86229	37722.6	-89068.2	1	96727.1	-67.04613	-2.111674E-010	0.0012506	6
	48	16	15.83615	46527.74	-107462.4	1	117102.5	-66.58894	2.432925E-009	0.0012555	5
	49	17	12.40079	56609.32	-127969.5	1	139931.4	-66.13705	-8.781642E-010	0.0012591	5
	50	17	9.93114	69218.88	-152407	1	167389.2	-65.57381	6.752597E-010	0.0012594	5
	51	18	7.944915	85432.63	-179243.8	1	198562.5	-64.51622	1.325726E-009	0.0012517	5
	52	18	6.317385	105562.1	-210360.7	1	235361.4	-63.35183	1.315093E-009	0.0012406	5
	53	19	5.008013	131302.6	-245839.3	1	278706.5	-61.89335	8.762658E-010	0.0012545	5
	54	20	3.945707	163325.9	-285221.4	1	328674	-60.20332	4.029538E-010	0.0012546	5
	55	21	3.158693	198846.8	-325287.7	1	381250.7	-58.56275	2.482639E-010	0.0012338	5
	56	23	2.504006	242219.9	-369898.3	1	442148.4	-56.78208	6.070224E-010	0.0012418	5
	57	24	1.998082	287948.4	-415082.7	1	505181.2	-55.25044	6.073684E-010	0.0012475	5
	58	26	1.584686	341908.1	-463657.4	1	576089.7	-53.59437	4.877949E-010	0.0012019	5
	59	28	1.266892	394335.5	-520706.2	1	653173.3	-52.86303	5.123517E-010	0.0011999	5
	60	30	0.999041	455218.3	-581880.7	1	738788.8	-51.96313	3.601299E-010	0.0012177	5
