EXPLAIN
TAG	EISPOT
TITLE	LABEL	Potentiostatic EIS	Test &Identifier
DATE	LABEL	3/17/2020	Date
TIME	LABEL	16:19:09	Time
NOTES	NOTES	1	&Notes...
	
PSTAT	PSTAT	REF600-11020	Potentiostat
VDC	POTEN	0.00000E+000	T	DC &Voltage (V)
FREQINIT	QUANT	1.00000E+006	Initial Fre&q. (Hz)
FREQFINAL	QUANT	1.00000E+000	Final Fre&q. (Hz)
PTSPERDEC	QUANT	1.00000E+001	Points/&decade
VAC	QUANT	2.50000E+001	AC &Voltage (mV rms)
AREA	QUANT	4.00000E-004	&Area (cm^2)
CONDIT	TWOPARAM	F	5.00000E+000	0.00000E+000	Conditionin&g	Time(s)	E(V)
DELAY	TWOPARAM	T	3.00000E+000	0.00000E+000	Init. De&lay	Time(s)	Stab.(mV/s)
SPEED	SELECTOR	0	&Optimize for:
ZGUESS	QUANT	5.00000E+003	E&stimated Z (ohms)
OCVCURVE	TABLE	12
	Pt	T	Vf	Vm	Ach	Over
	#	s	V vs. Ref.	V	V	bits
	0	0.258333	4.75591E-002	4.75591E-002	5.80263E-004	...........
	1	0.516667	4.75591E-002	4.75630E-002	5.84063E-004	...........
	2	0.775	4.75596E-002	4.75642E-002	5.79363E-004	...........
	3	1.03333	4.75606E-002	4.75645E-002	5.81463E-004	...........
	4	1.29167	4.75620E-002	4.75673E-002	5.81063E-004	...........
	5	1.55	4.75636E-002	4.75692E-002	5.85263E-004	...........
	6	1.80833	4.75652E-002	4.75700E-002	5.84030E-004	...........
	7	2.06667	4.75669E-002	4.75722E-002	5.83497E-004	...........
	8	2.325	4.75686E-002	4.75714E-002	5.83530E-004	...........
	9	2.58333	4.75700E-002	4.75732E-002	5.85530E-004	...........
	10	2.84167	4.75712E-002	4.75770E-002	5.85896E-004	...........
	11	3.1	4.75724E-002	4.75756E-002	5.81230E-004	...........
EOC	QUANT	0.0475724	Open Circuit (V)
PSTATMODEL	IQUANT	4	Pstat Model
PSTATSECTION	LABEL	REF600-11020	Pstat Section
PSTATSERIALNO	LABEL	11020	Pstat Serial Number
CTRLMODE	IQUANT	1	Control Mode
IESTAB	IQUANT	0	I/E Stability
CASPEED	IQUANT	1	Control Amp Speed
CONVENTION	IQUANT	1	Current Convention
ICHRANGE	IQUANT	2	Ich Range
ICHRANGEMODE	TOGGLE	F	Ich Auto Range
ICHOFFSETENABLE	TOGGLE	T	Ich Offset Enable
ICHOFFSET	QUANT	0	Ich Offset (V)
ICHFILTER	IQUANT	3	Ich Filter
VCHRANGE	IQUANT	2	Vch Range
VCHRANGEMODE	TOGGLE	F	Vch Auto Range
VCHOFFSETENABLE	TOGGLE	T	Vch Offset Enable
VCHOFFSET	QUANT	0	Vch Offset (V)
VCHFILTER	IQUANT	3	Vch Filter
ACHRANGE	IQUANT	2	Ach Range
ACHOFFSETENABLE	TOGGLE	F	Ach Offset Enable
ACHOFFSET	QUANT	0	Ach Offset (V)
ACHFILTER	IQUANT	3	Ach Filter
IERANGELOWERLIMIT	IQUANT	1	I/E Range Lower Limit
IERANGEMODE	TOGGLE	F	I/E AutoRange
IERANGE	IQUANT	7	I/E Range
POSFEEDENABLE	TOGGLE	F	Positive Feedback IR Comp
POSFEEDRESISTANCE	QUANT	0	Positive Feedback Resistance (ohm)
ACHSELECT	IQUANT	0	Ach Select
CABLEID	IQUANT	14	Cable ID
DCCALDATE	LABEL	2/27/2020	DC Calibration Date
ACCALDATE	LABEL	2/27/2020	AC Calibration Date
THERMOSELECT	IQUANT	1	Thermo Select
FRAMEWORKVERSION	QUANT	6.33	Framework Version
INSTRUMENTVERSION	LABEL	3.50	Instrument Version
ZCURVE	TABLE
	Pt	Time	Freq	Zreal	Zimag	Zsig	Zmod	Zphz	Idc	Vdc	IERange
	#	s	Hz	ohm	ohm	V	ohm	°	A	V	#
	0	1	1000078	1799.361	-1467.97	1	2322.205	-39.20855	-1.526662E-008	0.0498568	8
	1	1	794390.6	2080.828	-1499.446	1	2564.797	-35.77654	5.916179E-008	0.0494947	8
	2	1	630984.4	2360	-1492.977	1	2792.593	-32.31816	8.777701E-009	0.0493509	8
	3	2	501234.4	2629.198	-1455.606	1	3005.24	-28.97029	8.060663E-008	0.0492342	8
	4	2	398109.4	2876.056	-1398.236	1	3197.931	-25.92737	3.807256E-008	0.0492091	8
	5	2	316265.6	3100.01	-1319.533	1	3369.159	-23.05724	3.281576E-008	0.0491971	8
	6	3	251203.1	3300.901	-1240.813	1	3526.41	-20.60131	3.731928E-008	0.0491734	8
	7	3	199546.9	3472.249	-1160.604	1	3661.081	-18.48228	1.810609E-008	0.0491682	8
	8	3	158578.1	3624.475	-1085.122	1	3783.425	-16.66704	4.63966E-008	0.0491833	8
	9	4	125953.1	3780.022	-982.714	1	3905.675	-14.57291	-8.470057E-010	0.0491084	7
	10	4	100078.1	3888.047	-931.5482	1	3998.086	-13.47367	1.510525E-009	0.049112	7
	11	4	79453.13	3999.617	-903.0008	1	4100.286	-12.72247	1.646466E-009	0.0491047	7
	12	5	63140.62	4109.393	-881.8367	1	4202.945	-12.11145	1.016691E-009	0.0490999	7
	13	5	50203.12	4209.556	-872.4452	1	4299.014	-11.70898	-2.787823E-010	0.0490958	7
	14	5	39890.62	4308.053	-878.2235	1	4396.657	-11.52222	1.690241E-009	0.0490938	7
	15	6	31640.63	4410.404	-898.9415	1	4501.084	-11.52039	9.588819E-010	0.0490885	7
	16	6	25171.88	4515.587	-930.9144	1	4610.545	-11.64866	2.316912E-009	0.0491	7
	17	6	20015.62	4625.37	-973.285	1	4726.661	-11.883	8.3235E-010	0.049085	7
	18	6	15890.62	4743.252	-1028.12	1	4853.398	-12.22992	1.855939E-009	0.0490943	7
	19	7	12609.37	4867.033	-1094.069	1	4988.486	-12.66903	9.558269E-010	0.0490837	7
	20	7	10078.13	4993.975	-1169.792	1	5129.152	-13.18331	2.446692E-009	0.0490974	7
	21	7	8015.625	5125.999	-1258.419	1	5278.208	-13.79318	1.562214E-009	0.0490873	7
	22	8	6328.125	5270.125	-1369.49	1	5445.155	-14.56666	4.162612E-009	0.0490919	7
	23	8	5015.625	5413.197	-1499.998	1	5617.179	-15.48806	2.476453E-009	0.0490879	7
	24	8	3984.375	5557.484	-1656.413	1	5799.081	-16.59674	1.86699E-009	0.0490886	7
	25	9	3170.956	5703.151	-1846.147	1	5994.513	-17.93711	1.579433E-009	0.049082	7
	26	9	2527.573	5851.004	-2079.366	1	6209.51	-19.56451	2.014299E-009	0.0490783	7
	27	9	1976.103	6020.301	-2399.234	1	6480.768	-21.72846	1.770829E-009	0.0490771	7
	28	10	1577.524	6184.27	-2763.461	1	6773.618	-24.07763	1.92507E-009	0.049076	7
	29	10	1265.625	6358.598	-3205.696	1	7120.973	-26.75502	3.364492E-009	0.0490805	7
	30	10	998.264	6565.854	-3785.347	1	7578.871	-29.96432	1.547148E-009	0.0490762	7
	31	11	796.875	6790.58	-4475.418	1	8132.733	-33.38739	2.500608E-009	0.0490773	7
	32	11	627.7902	7065.489	-5362.818	1	8870.229	-37.19908	2.13959E-009	0.0490725	7
	33	11	505.5147	7353.343	-6352.043	1	9717	-40.82146	-6.760399E-010	0.0491261	6
	34	12	397.9953	7723.014	-7684.296	1	10894.65	-44.85602	3.821581E-010	0.0491399	6
	35	12	315.5048	8148.461	-9271.029	1	12342.99	-48.68723	3.601124E-010	0.0491439	6
	36	12	252.4038	8632.769	-11127.31	1	14083.38	-52.19504	3.408864E-010	0.0491357	6
	37	13	198.6229	9253.048	-13563.42	1	16419.05	-55.69796	3.361989E-010	0.0491399	6
	38	13	158.3615	9955.27	-16382.39	1	19170.03	-58.71373	3.245147E-010	0.0491327	6
	39	13	125.558	10823.96	-19911.28	1	22663.12	-61.47108	3.90104E-010	0.0491343	6
	40	14	100.4464	11843.25	-24049.65	1	26807.62	-63.78205	2.671707E-010	0.0491338	6
	41	14	79.00281	13199.15	-29502.34	1	32320.36	-65.89657	3.428157E-010	0.0491296	6
	42	14	63.3446	14759.61	-35629.97	1	38566.05	-67.49837	2.95878E-010	0.0491314	6
	43	15	49.86702	16901.03	-43733.13	1	46885.3	-68.87057	1.426503E-010	0.0491289	6
	44	15	39.72458	19517.54	-53124.24	1	56596.11	-69.82696	3.477407E-010	0.0491261	6
	45	15	31.6723	22869.83	-64433.58	1	68371.89	-70.45837	1.5977E-010	0.0491255	6
	46	16	24.93351	27508.04	-78901.26	1	83558.97	-70.77946	3.339411E-011	0.0491325	6
	47	16	19.86229	33219.34	-95476.6	1	101090.6	-70.8156	-7.14388E-010	0.0491254	6
	48	16	15.83615	40700.69	-114997.9	1	121988	-70.50983	6.242143E-010	0.0491345	5
	49	16	12.40079	51353.2	-140215.8	1	149323.9	-69.88505	-9.901919E-011	0.0491396	5
	50	17	9.93114	63929.89	-167199.9	1	179005.2	-69.07535	2.902142E-010	0.0491333	5
	51	17	7.944915	79955.48	-198245.3	1	213761.7	-68.035	8.7508E-010	0.0491303	5
	52	18	6.317385	101267.7	-235288	1	256155.4	-66.71301	-2.179856E-010	0.0491542	5
	53	18	5.008013	128693.7	-277744	1	306110.7	-65.13918	-1.817655E-010	0.0491386	5
	54	19	3.945707	163403.1	-325841	1	364517.4	-63.3671	3.151937E-010	0.0491331	5
	55	20	3.158693	203683.3	-375094.3	1	426828.6	-61.4972	-1.229258E-010	0.0491389	5
	56	21	2.504006	252468.5	-430373.6	1	498960.7	-59.60299	-1.395211E-010	0.0491263	5
	57	22	1.998082	307920.8	-486595.1	1	575838.6	-57.67408	1.464608E-010	0.0491668	5
	58	24	1.584686	370210.2	-549625	1	662678.8	-56.03703	1.453619E-010	0.0491545	5
	59	26	1.266892	436967.7	-612735.4	1	752585.8	-54.50572	7.936682E-011	0.0491138	5
	60	28	0.999041	515202	-686658.9	1	858448.4	-53.11901	3.151797E-011	0.0490922	5
