EXPLAIN
TAG	EISPOT
TITLE	LABEL	Potentiostatic EIS	Test &Identifier
DATE	LABEL	1/7/2020	Date
TIME	LABEL	16:59:57	Time
NOTES	NOTES	5	&Notes...
	
	
	
	
	
PSTAT	PSTAT	REF600-11020	Potentiostat
VDC	POTEN	0.00000E+000	T	DC &Voltage (V)
FREQINIT	QUANT	1.00000E+006	Initial Fre&q. (Hz)
FREQFINAL	QUANT	1.00000E+000	Final Fre&q. (Hz)
PTSPERDEC	QUANT	1.00000E+001	Points/&decade
VAC	QUANT	2.50000E+001	AC &Voltage (mV rms)
AREA	QUANT	1.00000E-001	&Area (cm^2)
CONDIT	TWOPARAM	T	5.00000E+000	0.00000E+000	Conditionin&g	Time(s)	E(V)
DELAY	TWOPARAM	T	5.00000E+000	0.00000E+000	Init. De&lay	Time(s)	Stab.(mV/s)
SPEED	SELECTOR	0	&Optimize for:
ZGUESS	QUANT	1.00000E+003	E&stimated Z (ohms)
OCVCURVE	TABLE	19
	Pt	T	Vf	Vm	Ach	Over
	#	s	V vs. Ref.	V	V	bits
	0	0.258333	3.08265E-003	3.08265E-003	6.52746E-004	...........
	1	0.516667	3.07960E-003	2.92294E-003	6.53546E-004	...........
	2	0.775	3.06008E-003	2.73046E-003	6.49880E-004	...........
	3	1.03333	2.99949E-003	2.40125E-003	6.47613E-004	...........
	4	1.29167	2.87707E-003	2.24682E-003	6.42613E-004	...........
	5	1.55	2.69728E-003	2.10455E-003	6.41680E-004	...........
	6	1.80833	2.49023E-003	1.84699E-003	6.43580E-004	...........
	7	2.06667	2.28443E-003	1.74574E-003	6.46080E-004	...........
	8	2.325	2.09152E-003	1.61410E-003	6.45046E-004	...........
	9	2.58333	1.91738E-003	1.52162E-003	6.45813E-004	...........
	10	2.84167	1.76810E-003	1.47354E-003	6.39746E-004	...........
	11	3.1	1.64533E-003	1.33674E-003	6.43280E-004	...........
	12	3.35833	1.54186E-003	1.20927E-003	6.44146E-004	...........
	13	3.61667	1.44250E-003	1.06794E-003	6.47213E-004	...........
	14	3.875	1.33423E-003	9.56725E-004	6.45380E-004	...........
	15	4.13333	1.21454E-003	8.09380E-004	6.47813E-004	...........
	16	4.39167	1.08820E-003	7.16005E-004	6.46646E-004	...........
	17	4.65	9.61398E-004	6.05257E-004	6.49713E-004	...........
	18	4.90833	8.39205E-004	4.92484E-004	6.48446E-004	...........
EOC	QUANT	0.0008392	Open Circuit (V)
PSTATMODEL	IQUANT	4	Pstat Model
PSTATSECTION	LABEL	REF600-11020	Pstat Section
PSTATSERIALNO	LABEL	11020	Pstat Serial Number
CTRLMODE	IQUANT	1	Control Mode
IESTAB	IQUANT	0	I/E Stability
CASPEED	IQUANT	1	Control Amp Speed
CONVENTION	IQUANT	1	Current Convention
ICHRANGE	IQUANT	2	Ich Range
ICHRANGEMODE	TOGGLE	F	Ich Auto Range
ICHOFFSETENABLE	TOGGLE	T	Ich Offset Enable
ICHOFFSET	QUANT	0	Ich Offset (V)
ICHFILTER	IQUANT	3	Ich Filter
VCHRANGE	IQUANT	2	Vch Range
VCHRANGEMODE	TOGGLE	F	Vch Auto Range
VCHOFFSETENABLE	TOGGLE	T	Vch Offset Enable
VCHOFFSET	QUANT	0	Vch Offset (V)
VCHFILTER	IQUANT	3	Vch Filter
ACHRANGE	IQUANT	2	Ach Range
ACHOFFSETENABLE	TOGGLE	F	Ach Offset Enable
ACHOFFSET	QUANT	0	Ach Offset (V)
ACHFILTER	IQUANT	3	Ach Filter
IERANGELOWERLIMIT	IQUANT	1	I/E Range Lower Limit
IERANGEMODE	TOGGLE	F	I/E AutoRange
IERANGE	IQUANT	6	I/E Range
POSFEEDENABLE	TOGGLE	F	Positive Feedback IR Comp
POSFEEDRESISTANCE	QUANT	0	Positive Feedback Resistance (ohm)
ACHSELECT	IQUANT	0	Ach Select
CABLEID	IQUANT	14	Cable ID
DCCALDATE	LABEL	12/22/2019	DC Calibration Date
ACCALDATE	LABEL	12/22/2019	AC Calibration Date
THERMOSELECT	IQUANT	1	Thermo Select
FRAMEWORKVERSION	QUANT	6.33	Framework Version
INSTRUMENTVERSION	LABEL	3.50	Instrument Version
ZCURVE	TABLE
	Pt	Time	Freq	Zreal	Zimag	Zsig	Zmod	Zphz	Idc	Vdc	IERange
	#	s	Hz	ohm	ohm	V	ohm	°	A	V	#
	0	1	1000078	2233.775	-2007.795	1	3003.496	-41.95032	4.805547E-006	0.0019936	8
	1	2	794390.6	2654.67	-2075.83	1	3369.917	-38.02378	-5.43402E-006	0.0036194	8
	2	2	630984.4	3078.064	-2020.181	1	3681.794	-33.27751	9.394165E-007	0.0029802	8
	3	2	501234.4	3452.367	-1937.73	1	3958.994	-29.30445	-1.020826E-006	0.0022835	8
	4	3	398109.4	3831.137	-1797.913	1	4232.033	-25.14018	1.007182E-007	0.0024491	8
	5	3	316265.6	4085.98	-1660.182	1	4410.379	-22.11249	-7.451335E-007	0.0027198	8
	6	3	251203.1	4338.911	-1481.559	1	4584.884	-18.85292	-4.117774E-006	0.0032614	8
	7	4	199546.9	4515.83	-1292.636	1	4697.193	-15.97354	1.468649E-007	0.0024052	8
	8	4	158578.1	4718.586	-1183.671	1	4864.785	-14.08223	-7.9909E-007	0.0022089	8
	9	4	125953.1	4886.895	-962.55	1	4980.788	-11.14266	8.761319E-007	0.0005022	7
	10	4	100078.1	4953.763	-821.1162	1	5021.354	-9.411551	-1.419015E-008	0.0022941	7
	11	5	79453.13	5031.19	-738.3223	1	5085.076	-8.348512	1.055465E-007	0.0021034	7
	12	5	63140.62	5095.178	-669.9178	1	5139.03	-7.490327	1.684219E-008	0.00246	7
	13	5	50203.12	5149.976	-620.3225	1	5187.201	-6.868276	1.796738E-007	0.0020723	7
	14	6	39890.62	5199.377	-587.5826	1	5232.473	-6.447652	-7.309036E-008	0.0023971	7
	15	6	31640.63	5245.748	-574.0512	1	5277.064	-6.245125	1.787596E-007	0.0020622	7
	16	6	25171.88	5289.287	-575.8964	1	5320.546	-6.213874	-2.915781E-008	0.002277	7
	17	7	20015.62	5329.911	-591.8104	1	5362.667	-6.335924	1.056481E-007	0.0020996	7
	18	7	15890.62	5376.448	-626.7762	1	5412.859	-6.649419	-4.861046E-008	0.0024355	7
	19	7	12609.37	5417.148	-679.1405	1	5459.553	-7.145813	5.290441E-010	0.0023673	7
	20	8	10078.13	5470.003	-749.5096	1	5521.114	-7.802184	-2.118198E-009	0.0023216	7
	21	8	8015.625	5516.917	-847.7371	1	5581.669	-8.735821	1.604055E-008	0.0024536	7
	22	8	6328.125	5574.104	-974.307	1	5658.614	-9.91467	1.558577E-008	0.002453	7
	23	9	5015.625	5634.71	-1135.644	1	5748.012	-11.39499	-1.608757E-009	0.0023163	7
	24	9	3984.375	5697.167	-1332.651	1	5850.955	-13.16561	1.310984E-007	0.0022227	7
	25	9	3170.956	5773.66	-1578.244	1	5985.483	-15.28846	5.688673E-008	0.0021254	7
	26	10	2527.573	5855.673	-1877.156	1	6149.197	-17.77431	-2.652679E-008	0.0022591	7
	27	10	1976.103	5957.431	-2281	1	6379.181	-20.951	1.32039E-007	0.0022171	7
	28	10	1577.524	6062.054	-2723.354	1	6645.687	-24.19181	-2.69512E-008	0.0022605	7
	29	10	1265.625	6205.529	-3285.749	1	7021.733	-27.90065	-1.035993E-007	0.0024712	7
	30	11	998.264	6375.479	-4007.697	1	7530.496	-32.15392	-2.630152E-008	0.0022578	7
	31	11	796.875	6570.749	-4846.253	1	8164.613	-36.41061	5.901253E-008	0.002121	7
	32	11	627.7902	6826.413	-5938.621	1	9048.046	-41.02156	1.329813E-007	0.0022193	7
	33	12	505.5147	7117.842	-7138.86	1	10081.02	-45.08447	-7.250449E-009	0.0023194	6
	34	12	397.9953	7502.388	-8753.862	1	11528.92	-49.40219	8.654323E-010	0.0023112	6
	35	12	315.5048	7966.468	-10676.15	1	13320.84	-53.26997	7.232191E-010	0.0023093	6
	36	13	252.4038	8513.616	-12921.17	1	15473.79	-56.61954	4.485838E-010	0.0023089	6
	37	13	198.6229	9243.601	-15861.26	1	18358.21	-59.76729	8.673829E-010	0.002313	6
	38	13	158.3615	10105.96	-19254.37	1	21745.38	-62.30655	1.122607E-009	0.0023032	6
	39	14	125.558	11208.65	-23491.35	1	26028.39	-64.49236	7.154098E-010	0.0023062	6
	40	14	100.4464	12544.86	-28468.04	1	31109.53	-66.21861	1.220613E-009	0.0023074	6
	41	14	79.00281	14366.49	-34938.93	1	37777.31	-67.6481	1.289189E-009	0.0023058	6
	42	15	63.3446	17037.47	-42108.83	1	45424.98	-67.97147	5.057082E-010	0.0023027	6
	43	15	49.86702	20151.24	-51656.29	1	55447.67	-68.68913	2.309995E-010	0.0023004	6
	44	15	39.72458	24006.42	-62388.53	1	66847.86	-68.95383	4.536816E-010	0.0023068	6
	45	16	31.6723	29247.91	-74974.09	1	80477.05	-68.6889	8.208186E-010	0.0023013	6
	46	16	24.93351	36706.78	-90761.83	1	97903.5	-67.98013	1.274522E-009	0.0022981	6
	47	16	19.86229	45698.78	-108021.1	1	117290	-67.06901	1.822981E-009	0.0023038	5
	48	17	15.83615	58743.73	-127199	1	140108.6	-65.21132	-2.016773E-009	0.0022985	5
	49	17	12.40079	72161.99	-151537.3	1	167842	-64.53624	8.617727E-011	0.0023046	5
	50	17	9.93114	90100	-174944.2	1	196782.8	-62.75057	1.003611E-009	0.0023041	5
	51	18	7.944915	110511.2	-201693.4	1	229984.7	-61.28092	1.45995E-009	0.0023017	5
	52	18	6.317385	134391.4	-231630.6	1	267794.3	-59.87782	3.494327E-010	0.0022982	5
	53	19	5.008013	163305.5	-265476.8	1	311683.5	-58.40265	4.819076E-010	0.0023093	5
	54	20	3.945707	197387.5	-302800	1	361454.9	-56.90071	1.761664E-010	0.0023008	5
	55	22	3.158693	233679.8	-341064.6	1	413438.4	-55.58308	2.468858E-010	0.002281	5
	56	23	2.504006	276516.8	-385821.7	1	474678.7	-54.37099	5.402101E-010	0.0022903	5
	57	25	1.998082	320354.6	-432223.4	1	538000.2	-53.45496	3.090141E-010	0.0022818	5
	58	26	1.584686	370983.4	-486086.9	1	611481.1	-52.64899	2.741799E-010	0.0022442	5
	59	28	1.266892	422484.8	-546294.4	1	690601.9	-52.2829	2.268958E-010	0.0022644	5
	60	35	0.999041	481861.7	-617808.8	1	783503.9	-52.04745	2.152847E-010	0.0023235	5
