EXPLAIN
TAG	EISPOT
TITLE	LABEL	Potentiostatic EIS	Test &Identifier
DATE	LABEL	3/9/2020	Date
TIME	LABEL	20:54:37	Time
NOTES	NOTES	1	&Notes...
	
PSTAT	PSTAT	REF600-11020	Potentiostat
VDC	POTEN	0.00000E+000	T	DC &Voltage (V)
FREQINIT	QUANT	1.00000E+006	Initial Fre&q. (Hz)
FREQFINAL	QUANT	1.00000E+000	Final Fre&q. (Hz)
PTSPERDEC	QUANT	1.00000E+001	Points/&decade
VAC	QUANT	2.50000E+001	AC &Voltage (mV rms)
AREA	QUANT	4.00000E-005	&Area (cm^2)
CONDIT	TWOPARAM	F	5.00000E+000	0.00000E+000	Conditionin&g	Time(s)	E(V)
DELAY	TWOPARAM	T	3.00000E+000	0.00000E+000	Init. De&lay	Time(s)	Stab.(mV/s)
SPEED	SELECTOR	0	&Optimize for:
ZGUESS	QUANT	1.00000E+003	E&stimated Z (ohms)
OCVCURVE	TABLE	12
	Pt	T	Vf	Vm	Ach	Over
	#	s	V vs. Ref.	V	V	bits
	0	0.258333	6.24634E-002	6.24634E-002	5.58730E-004	...........
	1	0.516667	6.24628E-002	6.24341E-002	5.55564E-004	...........
	2	0.775	6.24594E-002	6.24068E-002	5.61064E-004	...........
	3	1.03333	6.24497E-002	6.23791E-002	5.60464E-004	...........
	4	1.29167	6.24323E-002	6.23536E-002	5.58330E-004	...........
	5	1.55	6.24090E-002	6.23276E-002	5.55364E-004	...........
	6	1.80833	6.23830E-002	6.23039E-002	5.54997E-004	...........
	7	2.06667	6.23566E-002	6.22807E-002	5.58097E-004	...........
	8	2.325	6.23310E-002	6.22578E-002	5.61064E-004	...........
	9	2.58333	6.23064E-002	6.22339E-002	5.59030E-004	...........
	10	2.84167	6.22826E-002	6.22134E-002	5.58697E-004	...........
	11	3.1	6.22595E-002	6.21891E-002	5.56330E-004	...........
EOC	QUANT	0.0622595	Open Circuit (V)
PSTATMODEL	IQUANT	4	Pstat Model
PSTATSECTION	LABEL	REF600-11020	Pstat Section
PSTATSERIALNO	LABEL	11020	Pstat Serial Number
CTRLMODE	IQUANT	1	Control Mode
IESTAB	IQUANT	0	I/E Stability
CASPEED	IQUANT	1	Control Amp Speed
CONVENTION	IQUANT	1	Current Convention
ICHRANGE	IQUANT	2	Ich Range
ICHRANGEMODE	TOGGLE	F	Ich Auto Range
ICHOFFSETENABLE	TOGGLE	T	Ich Offset Enable
ICHOFFSET	QUANT	0	Ich Offset (V)
ICHFILTER	IQUANT	3	Ich Filter
VCHRANGE	IQUANT	2	Vch Range
VCHRANGEMODE	TOGGLE	F	Vch Auto Range
VCHOFFSETENABLE	TOGGLE	T	Vch Offset Enable
VCHOFFSET	QUANT	0	Vch Offset (V)
VCHFILTER	IQUANT	3	Vch Filter
ACHRANGE	IQUANT	2	Ach Range
ACHOFFSETENABLE	TOGGLE	F	Ach Offset Enable
ACHOFFSET	QUANT	0	Ach Offset (V)
ACHFILTER	IQUANT	3	Ach Filter
IERANGELOWERLIMIT	IQUANT	1	I/E Range Lower Limit
IERANGEMODE	TOGGLE	F	I/E AutoRange
IERANGE	IQUANT	8	I/E Range
POSFEEDENABLE	TOGGLE	F	Positive Feedback IR Comp
POSFEEDRESISTANCE	QUANT	0	Positive Feedback Resistance (ohm)
ACHSELECT	IQUANT	0	Ach Select
CABLEID	IQUANT	14	Cable ID
DCCALDATE	LABEL	2/27/2020	DC Calibration Date
ACCALDATE	LABEL	2/27/2020	AC Calibration Date
THERMOSELECT	IQUANT	1	Thermo Select
FRAMEWORKVERSION	QUANT	6.33	Framework Version
INSTRUMENTVERSION	LABEL	3.50	Instrument Version
ZCURVE	TABLE
	Pt	Time	Freq	Zreal	Zimag	Zsig	Zmod	Zphz	Idc	Vdc	IERange
	#	s	Hz	ohm	ohm	V	ohm	°	A	V	#
	0	1	1000078	1933.651	-1618.785	1	2521.8	-39.93489	6.867016E-008	0.0644712	8
	1	1	794390.6	2219.501	-1668.737	1	2776.845	-36.93776	1.21496E-008	0.064152	8
	2	1	630984.4	2502.018	-1693.759	1	3021.41	-34.09632	5.720326E-008	0.0640618	8
	3	2	501234.4	2773.01	-1704.933	1	3255.209	-31.5845	4.313261E-008	0.0639564	8
	4	2	398109.4	3029.843	-1707.189	1	3477.707	-29.39944	4.351294E-008	0.0639134	8
	5	2	316265.6	3277.006	-1706.767	1	3694.837	-27.5119	3.611414E-008	0.0638998	8
	6	3	251203.1	3505.878	-1717.914	1	3904.153	-26.1053	3.493793E-008	0.0638875	8
	7	3	199546.9	3736.269	-1743.64	1	4123.104	-25.0175	4.527572E-008	0.0638813	8
	8	3	158578.1	3964.847	-1785.944	1	4348.518	-24.24893	4.569206E-008	0.063886	8
	9	4	125953.1	4247.346	-1772.372	1	4602.309	-22.65025	7.294528E-009	0.063828	7
	10	4	100078.1	4465.322	-1850.213	1	4833.466	-22.50675	2.188825E-009	0.0638276	7
	11	4	79453.13	4708.783	-1955.558	1	5098.71	-22.55312	1.427771E-009	0.0638202	7
	12	5	63140.62	4968.938	-2073.882	1	5384.359	-22.65416	1.037131E-009	0.0638159	7
	13	5	50203.12	5245.907	-2204.575	1	5690.315	-22.79442	2.181096E-009	0.0638161	7
	14	5	39890.62	5537.728	-2349.726	1	6015.617	-22.99211	2.096701E-009	0.0638149	7
	15	6	31640.63	5847.102	-2508.117	1	6362.331	-23.21694	9.344636E-010	0.0638022	7
	16	6	25171.88	6171.637	-2687.794	1	6731.519	-23.53348	3.276025E-009	0.063816	7
	17	6	20015.62	6510.166	-2886.933	1	7121.562	-23.91489	2.341385E-009	0.0638053	7
	18	6	15890.62	6868.445	-3121.17	1	7544.352	-24.43808	2.656572E-009	0.0638073	7
	19	7	12609.37	7248.168	-3392.639	1	8002.871	-25.08281	3.057721E-009	0.0638085	7
	20	7	10078.13	7636.168	-3697.227	1	8484.136	-25.83501	2.495455E-009	0.0638072	7
	21	7	8015.625	8065.414	-4066.088	1	9032.385	-26.75445	2.187279E-009	0.0638048	7
	22	8	6328.125	8608.583	-4443.676	1	9687.83	-27.30239	1.809466E-010	0.0638518	6
	23	8	5015.625	9141.274	-4970.384	1	10405.17	-28.53425	4.131623E-010	0.0638511	6
	24	8	3984.375	9736.52	-5563.59	1	11213.98	-29.74428	2.317236E-010	0.0638566	6
	25	9	3170.956	10409.2	-6222.763	1	12127.42	-30.87156	2.773596E-010	0.0638554	6
	26	9	2527.573	11158.22	-6943.506	1	13142.22	-31.89307	8.857801E-011	0.0638505	6
	27	9	1976.103	12055.75	-7814.425	1	14366.85	-32.95094	4.209686E-010	0.0638594	6
	28	10	1577.524	12953.27	-8693.735	1	15600.27	-33.86798	6.84188E-011	0.0638532	6
	29	10	1265.625	13883.25	-9664.4	1	16915.83	-34.84253	3.421922E-010	0.0638493	6
	30	10	998.264	14948.59	-10876.8	1	18486.89	-36.04015	1.015061E-010	0.0638462	6
	31	11	796.875	16024.01	-12243.71	1	20166.25	-37.38291	2.212394E-010	0.0638471	6
	32	11	627.7902	17265.17	-13984.91	1	22218.55	-39.00772	4.320937E-010	0.0638567	6
	33	11	505.5147	18500.35	-15886.32	1	24385.2	-40.6528	3.540568E-010	0.0638539	6
	34	12	397.9953	20108.15	-18413.58	1	27265.32	-42.48118	3.826666E-010	0.0638638	6
	35	12	315.5048	21953.98	-21353.54	1	30625.98	-44.20567	3.469803E-010	0.0638639	6
	36	12	252.4038	24088.47	-24673.68	1	34482.53	-45.6876	4.083168E-010	0.0638626	6
	37	13	198.6229	26875.05	-28804.63	1	39395.11	-46.98479	3.540086E-010	0.0638627	6
	38	13	158.3615	30070.7	-33275.21	1	44849.59	-47.89598	4.571457E-010	0.0638606	6
	39	13	125.558	33996.72	-38439.46	1	51316.36	-48.50974	5.790279E-010	0.0638616	6
	40	14	100.4464	38465.09	-43954.83	1	58408.82	-48.81067	2.421481E-010	0.0638592	6
	41	14	79.00281	44105.59	-50525.03	1	67067.73	-48.88082	2.873183E-010	0.0638614	6
	42	14	63.3446	50149.49	-57215.98	1	76083.11	-48.76562	2.751747E-010	0.0638586	6
	43	15	49.86702	57667.7	-65134.67	1	86994.76	-48.47957	5.049076E-010	0.0638576	6
	44	15	39.72458	65758.96	-73339.26	1	98503.2	-48.1193	2.452268E-010	0.0638651	6
	45	15	31.6723	74861.45	-82209.04	1	111187.1	-47.67828	-2.812522E-010	0.0638662	5
	46	16	24.93351	85384.16	-92531.37	1	125906.8	-47.30044	-2.287393E-010	0.0638639	5
	47	16	19.86229	96374.7	-103609.5	1	141502.7	-47.07189	-1.794316E-009	0.0638653	5
	48	16	15.83615	108790.7	-115692.6	1	158808.7	-46.76104	1.532916E-009	0.0638601	5
	49	16	12.40079	122961.1	-130496.3	1	179300.6	-46.70288	1.110505E-009	0.063854	5
	50	17	9.93114	137003.7	-145443.6	1	199809.5	-46.71156	1.497017E-009	0.0638658	5
	51	17	7.944915	152120.1	-163654.5	1	223435.3	-47.09194	7.967638E-010	0.063854	5
	52	18	6.317385	169507	-184623.8	1	250636.3	-47.44431	-2.070031E-010	0.0638731	5
	53	18	5.008013	188875.3	-209222.8	1	281865.4	-47.92595	1.24609E-010	0.0638678	5
	54	19	3.945707	210448.6	-239288.7	1	318665.5	-48.66915	4.253681E-010	0.0638627	5
	55	20	3.158693	232442.6	-271455.2	1	357375.8	-49.42711	4.80955E-011	0.0638782	5
	56	21	2.504006	257534.6	-311911.2	1	404490.6	-50.45466	-9.561854E-011	0.0638641	5
	57	22	1.998082	283960	-357475.9	1	456532.9	-51.53822	1.927281E-010	0.0638982	5
	58	24	1.584686	313828.5	-415818.8	1	520954.5	-52.95726	1.854702E-010	0.06391	5
	59	26	1.266892	345107.5	-482153.9	1	592934.8	-54.40635	1.032038E-010	0.0638764	5
	60	28	0.999041	383994.3	-566934.9	1	684738.5	-55.88958	7.212682E-011	0.0638505	5
