EXPLAIN
TAG	EISPOT
TITLE	LABEL	Potentiostatic EIS	Test &Identifier
DATE	LABEL	6/14/2020	Date
TIME	LABEL	20:32:46	Time
NOTES	NOTES	1	&Notes...
	
PSTAT	PSTAT	REF600-10037	Potentiostat
VDC	POTEN	0.00000E+000	T	DC &Voltage (V)
FREQINIT	QUANT	1.00000E+006	Initial Fre&q. (Hz)
FREQFINAL	QUANT	1.00000E+000	Final Fre&q. (Hz)
PTSPERDEC	QUANT	1.00000E+001	Points/&decade
VAC	QUANT	2.50000E+001	AC &Voltage (mV rms)
AREA	QUANT	2.50000E-001	&Area (cm^2)
CONDIT	TWOPARAM	F	5.00000E+000	0.00000E+000	Conditionin&g	Time(s)	E(V)
DELAY	TWOPARAM	F	3.00000E+000	0.00000E+000	Init. De&lay	Time(s)	Stab.(mV/s)
SPEED	SELECTOR	0	&Optimize for:
ZGUESS	QUANT	1.00000E+003	E&stimated Z (ohms)
OCVCURVE	TABLE	39
	Pt	T	Vf	Vm	Ach	Over
	#	s	V vs. Ref.	V	V	bits
	0	0.258333	-1.12908E-001	-1.12908E-001	6.06986E-004	...........
	1	0.516667	-1.12908E-001	-1.12908E-001	6.07586E-004	...........
	2	0.775	-1.12908E-001	-1.12911E-001	6.07953E-004	...........
	3	1.03333	-1.12909E-001	-1.12906E-001	6.07286E-004	...........
	4	1.29167	-1.12909E-001	-1.12901E-001	6.09453E-004	...........
	5	1.55	-1.12908E-001	-1.12898E-001	6.06820E-004	...........
	6	1.80833	-1.12906E-001	-1.12896E-001	6.08820E-004	...........
	7	2.06667	-1.12902E-001	-1.12890E-001	6.05686E-004	...........
	8	2.325	-1.12899E-001	-1.12894E-001	6.06720E-004	...........
	9	2.58333	-1.12896E-001	-1.12890E-001	6.06320E-004	...........
	10	2.84167	-1.12894E-001	-1.12881E-001	6.06453E-004	...........
	11	3.1	-1.12891E-001	-1.12884E-001	6.07020E-004	...........
	12	3.35833	-1.12888E-001	-1.12879E-001	6.06520E-004	...........
	13	3.61667	-1.12885E-001	-1.12877E-001	6.05253E-004	...........
	14	3.875	-1.12882E-001	-1.12877E-001	6.07320E-004	...........
	15	4.13333	-1.12880E-001	-1.12879E-001	6.07820E-004	...........
	16	4.39167	-1.12878E-001	-1.12865E-001	6.08586E-004	...........
	17	4.65	-1.12876E-001	-1.12864E-001	6.05820E-004	...........
	18	4.90833	-1.12873E-001	-1.12861E-001	6.05253E-004	...........
	19	5.16667	-1.12869E-001	-1.12856E-001	6.05786E-004	...........
	20	5.425	-1.12865E-001	-1.12854E-001	6.06053E-004	...........
	21	5.68333	-1.12861E-001	-1.12853E-001	6.03686E-004	...........
	22	5.94167	-1.12858E-001	-1.12850E-001	6.04986E-004	...........
	23	6.2	-1.12855E-001	-1.12847E-001	6.05420E-004	...........
	24	6.45833	-1.12852E-001	-1.12844E-001	6.05186E-004	...........
	25	6.71667	-1.12850E-001	-1.12838E-001	6.06820E-004	...........
	26	6.975	-1.12847E-001	-1.12834E-001	6.04920E-004	...........
	27	7.23333	-1.12843E-001	-1.12834E-001	6.04786E-004	...........
	28	7.49167	-1.12840E-001	-1.12829E-001	6.04786E-004	...........
	29	7.75	-1.12836E-001	-1.12828E-001	6.05986E-004	...........
	30	8.00833	-1.12833E-001	-1.12824E-001	6.06720E-004	...........
	31	8.26667	-1.12830E-001	-1.12823E-001	6.07920E-004	...........
	32	8.525	-1.12827E-001	-1.12821E-001	6.05086E-004	...........
	33	8.78333	-1.12825E-001	-1.12819E-001	6.05020E-004	...........
	34	9.04167	-1.12823E-001	-1.12816E-001	6.07153E-004	...........
	35	9.3	-1.12821E-001	-1.12814E-001	6.05153E-004	...........
	36	9.5583	-1.12819E-001	-1.12813E-001	6.05986E-004	...........
	37	9.8167	-1.12817E-001	-1.12811E-001	6.05120E-004	...........
	38	10.075	-1.12815E-001	-1.12808E-001	6.06353E-004	...........
EOC	QUANT	-0.1128148	Open Circuit (V)
PSTATMODEL	IQUANT	4	Pstat Model
PSTATSECTION	LABEL	REF600-10037	Pstat Section
PSTATSERIALNO	LABEL	10037	Pstat Serial Number
CTRLMODE	IQUANT	1	Control Mode
IESTAB	IQUANT	0	I/E Stability
CASPEED	IQUANT	1	Control Amp Speed
CONVENTION	IQUANT	1	Current Convention
ICHRANGE	IQUANT	2	Ich Range
ICHRANGEMODE	TOGGLE	F	Ich Auto Range
ICHOFFSETENABLE	TOGGLE	T	Ich Offset Enable
ICHOFFSET	QUANT	0	Ich Offset (V)
ICHFILTER	IQUANT	3	Ich Filter
VCHRANGE	IQUANT	2	Vch Range
VCHRANGEMODE	TOGGLE	F	Vch Auto Range
VCHOFFSETENABLE	TOGGLE	T	Vch Offset Enable
VCHOFFSET	QUANT	0	Vch Offset (V)
VCHFILTER	IQUANT	3	Vch Filter
ACHRANGE	IQUANT	2	Ach Range
ACHOFFSETENABLE	TOGGLE	F	Ach Offset Enable
ACHOFFSET	QUANT	0	Ach Offset (V)
ACHFILTER	IQUANT	3	Ach Filter
IERANGELOWERLIMIT	IQUANT	1	I/E Range Lower Limit
IERANGEMODE	TOGGLE	F	I/E AutoRange
IERANGE	IQUANT	8	I/E Range
POSFEEDENABLE	TOGGLE	F	Positive Feedback IR Comp
POSFEEDRESISTANCE	QUANT	0	Positive Feedback Resistance (ohm)
ACHSELECT	IQUANT	0	Ach Select
CABLEID	IQUANT	14	Cable ID
DCCALDATE	LABEL	6/8/2020	DC Calibration Date
ACCALDATE	LABEL	6/8/2020	AC Calibration Date
THERMOSELECT	IQUANT	1	Thermo Select
FRAMEWORKVERSION	QUANT	6.33	Framework Version
INSTRUMENTVERSION	LABEL	3.50	Instrument Version
ZCURVE	TABLE
	Pt	Time	Freq	Zreal	Zimag	Zsig	Zmod	Zphz	Idc	Vdc	IERange
	#	s	Hz	ohm	ohm	V	ohm	°	A	V	#
	0	1	1000078	1768.854	-2949.667	1	3439.386	-59.04975	9.212692E-008	-0.1036145	8
	1	2	794390.6	2088.996	-3450.129	1	4033.273	-58.80578	5.426813E-007	-0.1039397	8
	2	2	630984.4	2463.059	-4024.623	1	4718.501	-58.53348	1.00496E-007	-0.1039981	8
	3	2	501234.4	2914.324	-4677.559	1	5511.156	-58.07528	5.628115E-008	-0.1040673	8
	4	2	398109.4	3446.259	-5411.462	1	6415.655	-57.50921	1.373978E-007	-0.1041359	8
	5	3	316265.6	4074.688	-6256.129	1	7466.072	-56.92335	1.255382E-007	-0.1041465	8
	6	3	251203.1	4820.335	-7192.604	1	8658.476	-56.17082	9.344947E-008	-0.1041316	8
	7	3	199546.9	5707.813	-8260.661	1	10040.8	-55.35696	4.430932E-009	-0.1041843	8
	8	4	158578.1	6773.901	-9406.291	1	11591.55	-54.24061	-4.497414E-009	-0.1041022	8
	9	4	125953.1	8492.762	-10456.9	1	13471.22	-50.91759	9.240922E-009	-0.1039363	7
	10	4	100078.1	9843.5	-11891.31	1	15436.9	-50.38242	4.590857E-008	-0.1042809	7
	11	5	79453.13	11469.91	-13389.81	1	17630.82	-49.41616	7.368141E-008	-0.1041835	7
	12	5	63140.62	13355.24	-15025.25	1	20102.75	-48.3676	-3.585695E-008	-0.1040764	7
	13	5	50203.12	15482.46	-16726.57	1	22792.21	-47.21201	9.059028E-008	-0.1042338	7
	14	6	39890.62	17948.75	-18540.49	1	25805.18	-45.92907	-1.449122E-008	-0.1040974	7
	15	6	31640.63	20749.67	-20458.36	1	29139.2	-44.59497	4.819873E-008	-0.1043021	7
	16	6	25171.88	23909.61	-22266.27	1	32671.95	-42.96177	4.167206E-008	-0.1041429	7
	17	7	20015.62	27374.73	-24129.31	1	36491.08	-41.39439	9.605947E-008	-0.1042877	7
	18	7	15890.62	31298.58	-25984.1	1	40678.92	-39.69948	-7.803284E-008	-0.1041271	7
	19	7	12609.37	36860.89	-26414.81	1	45348.29	-35.62569	1.399061E-008	-0.104383	6
	20	7	10078.13	40916.71	-27891.04	1	49518.55	-34.28046	1.581085E-008	-0.1043651	6
	21	8	8015.625	45260.73	-29216.24	1	53871.35	-32.84263	-1.425723E-009	-0.1042987	6
	22	8	6328.125	49832.25	-30490.32	1	58420.14	-31.46077	4.761787E-009	-0.1040967	6
	23	8	5015.625	54517.93	-31525.39	1	62976.62	-30.03896	1.439832E-008	-0.1043887	6
	24	9	3984.375	59008.41	-32692.55	1	67459.59	-28.98786	-1.073783E-008	-0.1041573	6
	25	9	3170.956	63432.72	-33859.46	1	71903.91	-28.09265	-1.072677E-008	-0.1041557	6
	26	9	2527.573	67776.32	-35238.7	1	76389.76	-27.47111	-1.082923E-008	-0.1041579	6
	27	10	1976.103	72478.01	-37015.98	1	81383.31	-27.05432	1.437104E-008	-0.1043932	6
	28	10	1577.524	76748.71	-39125.15	1	86146.05	-27.01169	-1.622273E-008	-0.1039607	6
	29	10	1265.625	80926.19	-41767.96	1	91069.26	-27.29935	-1.405547E-008	-0.1039479	6
	30	11	998.264	87785.55	-42286.04	1	97439.3	-25.71998	-3.285486E-010	-0.104275	5
	31	11	796.875	92205.14	-46868.87	1	103433.5	-26.94472	1.544914E-010	-0.1040577	5
	32	11	627.7902	97408.4	-52649.79	1	110726.7	-28.39147	1.112859E-009	-0.1041925	5
	33	11	505.5147	102662.1	-58731.91	1	118274.9	-29.77341	9.900394E-010	-0.1043918	5
	34	12	397.9953	109302.4	-66909.57	1	128155.8	-31.47292	1.765282E-010	-0.1041678	5
	35	12	315.5048	116753.8	-75962.73	1	139290.3	-33.04896	1.405374E-010	-0.1041654	5
	36	12	252.4038	124832.1	-85780.13	1	151463.8	-34.49545	1.316309E-010	-0.1041677	5
	37	13	198.6229	134665.2	-97600.8	1	166314.9	-35.93332	8.975441E-011	-0.1041717	5
	38	13	158.3615	144818.5	-110345	1	182067	-37.30572	5.886001E-011	-0.1041697	5
	39	13	125.558	155841.1	-125176.1	1	199888.7	-38.77245	1.003273E-010	-0.1041654	5
	40	14	100.4464	166814.4	-141753.3	1	218908.7	-40.35677	-1.379921E-011	-0.1041642	5
	41	14	79.00281	179349.5	-163906.6	1	242964.3	-42.42403	4.285146E-011	-0.1041649	5
	42	14	63.3446	189646.8	-188565.8	1	267437.7	-44.83624	7.22848E-011	-0.1041664	5
	43	15	49.86702	204098.2	-220681.8	1	300593.7	-47.23572	7.756672E-011	-0.1041664	5
	44	15	39.72458	220049.5	-259548.4	1	340275.2	-49.70816	9.028781E-012	-0.1041631	5
	45	15	31.6723	237804.9	-306946.6	1	388287.8	-52.2335	5.249879E-011	-0.1041613	5
	46	16	24.93351	261037.9	-367367.6	1	450665.9	-54.6038	8.709894E-011	-0.1041655	5
	47	16	19.86229	288005.4	-435604	1	522204.9	-56.52878	-1.14443E-009	-0.1128039	5
	48	16	15.83615	319683	-516031.6	1	607030.4	-58.22168	-9.17156E-010	-0.1128113	5
	49	17	12.40079	363285.4	-623419.9	1	721546.1	-59.76937	-7.995694E-010	-0.1128076	5
	50	17	9.93114	413373.2	-741332.3	1	848793.8	-60.85559	-7.714135E-010	-0.1128097	5
	51	17	7.944915	472083.7	-880741.5	1	999284	-61.80838	-6.312184E-010	-0.1128074	5
	52	18	6.317385	552412.8	-1053452	1	1189505	-62.32823	-5.524801E-010	-0.1128045	4
	53	19	5.008013	653442.9	-1259064	1	1418530	-62.57108	-4.57528E-010	-0.1128028	4
	54	20	3.945707	787014.3	-1516030	1	1708139	-62.56489	-3.729846E-010	-0.1128084	4
	55	21	3.158693	956277	-1786271	1	2026137	-61.83773	-3.084543E-010	-0.112812	4
	56	23	2.504006	1185743	-2119011	1	2428208	-60.76976	-2.535319E-010	-0.112811	4
	57	25	1.998082	1481991	-2466649	1	2877613	-59.00208	-2.37289E-010	-0.1128118	4
	58	27	1.584686	1872118	-2848926	1	3408989	-56.68984	-1.71953E-010	-0.1128105	4
	59	30	1.266892	2348804	-3202484	1	3971496	-53.74249	-1.399682E-010	-0.1128127	4
	60	33	0.999041	2948460	-3538854	1	4606181	-50.20002	-1.099873E-010	-0.1128135	4
