EXPLAIN
TAG	EISPOT
TITLE	LABEL	Potentiostatic EIS	Test &Identifier
DATE	LABEL	3/9/2020	Date
TIME	LABEL	21:10:28	Time
NOTES	NOTES	1	&Notes...
	
PSTAT	PSTAT	REF600-11020	Potentiostat
VDC	POTEN	0.00000E+000	T	DC &Voltage (V)
FREQINIT	QUANT	1.00000E+006	Initial Fre&q. (Hz)
FREQFINAL	QUANT	1.00000E+000	Final Fre&q. (Hz)
PTSPERDEC	QUANT	1.00000E+001	Points/&decade
VAC	QUANT	2.50000E+001	AC &Voltage (mV rms)
AREA	QUANT	4.00000E-005	&Area (cm^2)
CONDIT	TWOPARAM	F	5.00000E+000	0.00000E+000	Conditionin&g	Time(s)	E(V)
DELAY	TWOPARAM	T	3.00000E+000	0.00000E+000	Init. De&lay	Time(s)	Stab.(mV/s)
SPEED	SELECTOR	0	&Optimize for:
ZGUESS	QUANT	1.00000E+003	E&stimated Z (ohms)
OCVCURVE	TABLE	12
	Pt	T	Vf	Vm	Ach	Over
	#	s	V vs. Ref.	V	V	bits
	0	0.258333	2.66461E-002	2.66461E-002	5.74563E-004	...........
	1	0.516667	2.66449E-002	2.65872E-002	5.76430E-004	...........
	2	0.775	2.66381E-002	2.65344E-002	5.79330E-004	...........
	3	1.03333	2.66189E-002	2.64856E-002	5.77230E-004	...........
	4	1.29167	2.65852E-002	2.64365E-002	5.71330E-004	...........
	5	1.55	2.65408E-002	2.63885E-002	5.76030E-004	...........
	6	1.80833	2.64918E-002	2.63428E-002	5.76330E-004	...........
	7	2.06667	2.64423E-002	2.62977E-002	5.71230E-004	...........
	8	2.325	2.63939E-002	2.62523E-002	5.70730E-004	...........
	9	2.58333	2.63471E-002	2.62107E-002	5.69830E-004	...........
	10	2.84167	2.63016E-002	2.61674E-002	5.75230E-004	...........
	11	3.1	2.62572E-002	2.61251E-002	5.72030E-004	...........
EOC	QUANT	0.0262572	Open Circuit (V)
PSTATMODEL	IQUANT	4	Pstat Model
PSTATSECTION	LABEL	REF600-11020	Pstat Section
PSTATSERIALNO	LABEL	11020	Pstat Serial Number
CTRLMODE	IQUANT	1	Control Mode
IESTAB	IQUANT	0	I/E Stability
CASPEED	IQUANT	1	Control Amp Speed
CONVENTION	IQUANT	1	Current Convention
ICHRANGE	IQUANT	2	Ich Range
ICHRANGEMODE	TOGGLE	F	Ich Auto Range
ICHOFFSETENABLE	TOGGLE	T	Ich Offset Enable
ICHOFFSET	QUANT	0	Ich Offset (V)
ICHFILTER	IQUANT	3	Ich Filter
VCHRANGE	IQUANT	2	Vch Range
VCHRANGEMODE	TOGGLE	F	Vch Auto Range
VCHOFFSETENABLE	TOGGLE	T	Vch Offset Enable
VCHOFFSET	QUANT	0	Vch Offset (V)
VCHFILTER	IQUANT	3	Vch Filter
ACHRANGE	IQUANT	2	Ach Range
ACHOFFSETENABLE	TOGGLE	F	Ach Offset Enable
ACHOFFSET	QUANT	0	Ach Offset (V)
ACHFILTER	IQUANT	3	Ach Filter
IERANGELOWERLIMIT	IQUANT	1	I/E Range Lower Limit
IERANGEMODE	TOGGLE	F	I/E AutoRange
IERANGE	IQUANT	7	I/E Range
POSFEEDENABLE	TOGGLE	F	Positive Feedback IR Comp
POSFEEDRESISTANCE	QUANT	0	Positive Feedback Resistance (ohm)
ACHSELECT	IQUANT	0	Ach Select
CABLEID	IQUANT	14	Cable ID
DCCALDATE	LABEL	2/27/2020	DC Calibration Date
ACCALDATE	LABEL	2/27/2020	AC Calibration Date
THERMOSELECT	IQUANT	1	Thermo Select
FRAMEWORKVERSION	QUANT	6.33	Framework Version
INSTRUMENTVERSION	LABEL	3.50	Instrument Version
ZCURVE	TABLE
	Pt	Time	Freq	Zreal	Zimag	Zsig	Zmod	Zphz	Idc	Vdc	IERange
	#	s	Hz	ohm	ohm	V	ohm	°	A	V	#
	0	1	1000078	2022.665	-1516.679	1	2528.139	-36.86409	5.087923E-008	0.0284658	8
	1	1	794390.6	2300.646	-1532.89	1	2764.547	-33.675	5.807567E-008	0.0281937	8
	2	2	630984.4	2576.109	-1520.224	1	2991.223	-30.54587	3.604536E-008	0.0280321	8
	3	2	501234.4	2837.054	-1483.029	1	3201.289	-27.59766	9.086593E-008	0.027926	8
	4	2	398109.4	3082.955	-1429.867	1	3398.401	-24.88176	4.825272E-008	0.0279072	8
	5	3	316265.6	3311.374	-1367.919	1	3582.792	-22.44537	3.684423E-008	0.0278823	8
	6	3	251203.1	3519.527	-1292.735	1	3749.431	-20.16847	3.536204E-008	0.0278652	8
	7	3	199546.9	3713.479	-1215.848	1	3907.456	-18.12921	4.622186E-008	0.0278776	8
	8	4	158578.1	3884.395	-1138.655	1	4047.846	-16.33775	5.36109E-008	0.0278781	8
	9	4	125953.1	4082.284	-989.371	1	4200.464	-13.62337	1.688588E-009	0.0278196	7
	10	4	100078.1	4201.449	-927.7908	1	4302.67	-12.45257	8.651364E-010	0.0278146	7
	11	5	79453.13	4321.986	-880.4424	1	4410.753	-11.51431	1.909015E-009	0.027811	7
	12	5	63140.62	4432.139	-838.4781	1	4510.754	-10.71269	7.010647E-010	0.0278012	7
	13	5	50203.12	4532.613	-803.1276	1	4603.216	-10.04787	8.542069E-010	0.0278025	7
	14	6	39890.62	4627.204	-777.0665	1	4691.999	-9.53298	1.784053E-009	0.0277997	7
	15	6	31640.63	4716.876	-760.5252	1	4777.794	-9.159254	1.565262E-009	0.0278015	7
	16	6	25171.88	4801.527	-754.4838	1	4860.443	-8.930102	2.987354E-009	0.0278057	7
	17	6	20015.62	4882.896	-759.6365	1	4941.631	-8.842673	1.498085E-009	0.0277959	7
	18	7	15890.62	4963.282	-776.686	1	5023.685	-8.89388	1.962227E-009	0.0277907	7
	19	7	12609.37	5044.32	-808.004	1	5108.624	-9.100385	3.182735E-009	0.0278001	7
	20	7	10078.13	5121.801	-851.9661	1	5192.176	-9.444173	2.002889E-009	0.0278025	7
	21	8	8015.625	5201.938	-914.2744	1	5281.672	-9.9683	1.741929E-009	0.0277916	7
	22	8	6328.125	5285.849	-999.173	1	5379.456	-10.7042	7.293109E-010	0.0277832	7
	23	8	5015.625	5373.229	-1108.087	1	5486.296	-11.6524	3.260934E-009	0.0277946	7
	24	9	3984.375	5462.193	-1243.271	1	5601.899	-12.82285	3.460933E-009	0.0277851	7
	25	9	3170.956	5555.101	-1411.021	1	5731.502	-14.25199	2.965567E-009	0.0277924	7
	26	9	2527.573	5652.814	-1618.298	1	5879.897	-15.97546	2.081069E-009	0.0277796	7
	27	10	1976.103	5766.392	-1900.063	1	6071.368	-18.23738	2.062327E-009	0.027781	7
	28	10	1577.524	5877.5	-2220.368	1	6282.917	-20.69527	3.737638E-009	0.027786	7
	29	10	1265.625	5997.244	-2604.608	1	6538.419	-23.47535	3.273845E-009	0.027782	7
	30	11	998.264	6143.891	-3120.424	1	6890.895	-26.92558	3.342712E-009	0.0277864	7
	31	11	796.875	6299.677	-3723.851	1	7317.991	-30.58809	2.212141E-009	0.0277817	7
	32	11	627.7902	6496.604	-4518.373	1	7913.379	-34.81852	2.617255E-009	0.0277828	7
	33	12	505.5147	6709.475	-5409.021	1	8618.27	-38.87494	3.894554E-009	0.0277894	7
	34	12	397.9953	6994.016	-6604.517	1	9619.56	-43.35934	3.961968E-009	0.0277986	7
	35	12	315.5048	7342.406	-8035.014	1	10884.5	-47.57889	6.171915E-010	0.0278457	6
	36	13	252.4038	7752.491	-9715.51	1	12429.5	-51.4119	5.251161E-010	0.0278419	6
	37	13	198.6229	8303.793	-11920.36	1	14527.49	-55.13871	5.24896E-010	0.0278473	6
	38	13	158.3615	8960.439	-14463.56	1	17014.23	-58.22104	4.575574E-010	0.0278469	6
	39	14	125.558	9810.14	-17627.22	1	20173.2	-60.90258	7.057671E-010	0.0278446	6
	40	14	100.4464	10842.41	-21305.61	1	23905.79	-63.02848	7.268077E-010	0.0278399	6
	41	14	79.00281	12253.87	-26102.24	1	28835.47	-64.85197	3.881316E-010	0.0278432	6
	42	15	63.3446	13907.69	-31431.96	1	34371.39	-66.13206	2.865035E-010	0.027845	6
	43	15	49.86702	16197.59	-38386.96	1	41664.38	-67.12241	6.200599E-010	0.0278396	6
	44	15	39.72458	19013.61	-46344.52	1	50093.23	-67.69329	5.628168E-010	0.0278462	6
	45	16	31.6723	22636.88	-55798.77	1	60215.71	-67.91821	3.678339E-010	0.0278416	6
	46	16	24.93351	27626.03	-67615.48	1	73041.43	-67.77628	1.067557E-009	0.0278407	6
	47	16	19.86229	33756.34	-80819.41	1	87585.77	-67.33087	1.997754E-009	0.0278507	6
	48	16	15.83615	41609.13	-96153.2	1	104770.1	-66.60004	-6.243448E-010	0.0278489	5
	49	17	12.40079	52475.95	-114928.1	1	126341.6	-65.45865	9.681065E-010	0.0278486	5
	50	17	9.93114	64524.59	-134322.9	1	149017	-64.3418	6.923782E-010	0.0278533	5
	51	17	7.944915	79323.83	-155967.1	1	174980	-63.04241	-9.286749E-010	0.0278478	5
	52	18	6.317385	97133.5	-180682.7	1	205136.9	-61.73791	5.059136E-010	0.027834	5
	53	19	5.008013	118171.3	-208603.2	1	239749.4	-60.46895	6.986141E-010	0.0278478	5
	54	20	3.945707	143022.5	-240262.5	1	279609.5	-59.23567	4.170367E-011	0.0278316	5
	55	20	3.158693	169140.1	-273799.8	1	321830.2	-58.29426	4.683627E-010	0.027848	5
	56	21	2.504006	199628.5	-312814.7	1	371085.6	-57.45526	1.768393E-010	0.0278526	5
	57	23	1.998082	232791.3	-356631.4	1	425884.7	-56.86549	-3.977066E-011	0.027808	5
	58	24	1.584686	270094	-406654.6	1	488179	-56.40847	1.128085E-010	0.0278493	5
	59	26	1.266892	312008	-462769.6	1	558126.1	-56.01141	1.884754E-010	0.0278807	5
	60	29	0.999041	360840	-532699	1	643407.9	-55.88705	2.353669E-010	0.0278824	5
