EXPLAIN
TAG	EISPOT
TITLE	LABEL	Potentiostatic EIS	Test &Identifier
DATE	LABEL	9/1/2020	Date
TIME	LABEL	22:00:45	Time
NOTES	NOTES	1	&Notes...
	
PSTAT	PSTAT	REF600-11020	Potentiostat
VDC	POTEN	0.00000E+000	T	DC &Voltage (V)
FREQINIT	QUANT	1.00000E+006	Initial Fre&q. (Hz)
FREQFINAL	QUANT	1.00000E+000	Final Fre&q. (Hz)
PTSPERDEC	QUANT	1.00000E+001	Points/&decade
VAC	QUANT	2.50000E+001	AC &Voltage (mV rms)
AREA	QUANT	4.00000E-005	&Area (cm^2)
CONDIT	TWOPARAM	F	5.00000E+000	0.00000E+000	Conditionin&g	Time(s)	E(V)
DELAY	TWOPARAM	F	3.00000E+000	0.00000E+000	Init. De&lay	Time(s)	Stab.(mV/s)
SPEED	SELECTOR	0	&Optimize for:
ZGUESS	QUANT	1.00000E+003	E&stimated Z (ohms)
OCVCURVE	TABLE	39
	Pt	T	Vf	Vm	Ach	Over
	#	s	V vs. Ref.	V	V	bits
	0	0.258333	2.50597E-001	2.50597E-001	5.77425E-004	...........
	1	0.516667	2.50597E-001	2.50577E-001	5.76158E-004	...........
	2	0.775	2.50595E-001	2.50559E-001	5.75492E-004	...........
	3	1.03333	2.50588E-001	2.50535E-001	5.76358E-004	...........
	4	1.29167	2.50575E-001	2.50511E-001	5.74558E-004	...........
	5	1.55	2.50558E-001	2.50491E-001	5.75092E-004	...........
	6	1.80833	2.50537E-001	2.50467E-001	5.78758E-004	...........
	7	2.06667	2.50515E-001	2.50452E-001	5.79258E-004	...........
	8	2.325	2.50493E-001	2.50436E-001	5.77058E-004	...........
	9	2.58333	2.50473E-001	2.50419E-001	5.77925E-004	...........
	10	2.84167	2.50454E-001	2.50403E-001	5.76725E-004	...........
	11	3.1	2.50437E-001	2.50389E-001	5.79858E-004	...........
	12	3.35833	2.50420E-001	2.50365E-001	5.76758E-004	...........
	13	3.61667	2.50404E-001	2.50353E-001	5.77258E-004	...........
	14	3.875	2.50387E-001	2.50336E-001	5.76758E-004	...........
	15	4.13333	2.50370E-001	2.50323E-001	5.76125E-004	...........
	16	4.39167	2.50354E-001	2.50314E-001	5.77558E-004	...........
	17	4.65	2.50339E-001	2.50301E-001	5.79925E-004	...........
	18	4.90833	2.50326E-001	2.50292E-001	5.77858E-004	...........
	19	5.16667	2.50314E-001	2.50280E-001	5.74092E-004	...........
	20	5.425	2.50303E-001	2.50272E-001	5.76192E-004	...........
	21	5.68333	2.50292E-001	2.50267E-001	5.78492E-004	...........
	22	5.94167	2.50283E-001	2.50258E-001	5.74692E-004	...........
	23	6.2	2.50274E-001	2.50251E-001	5.76025E-004	...........
	24	6.45833	2.50266E-001	2.50245E-001	5.76692E-004	...........
	25	6.71667	2.50259E-001	2.50243E-001	5.77525E-004	...........
	26	6.975	2.50252E-001	2.50235E-001	5.74225E-004	...........
	27	7.23333	2.50247E-001	2.50232E-001	5.73725E-004	...........
	28	7.49167	2.50242E-001	2.50228E-001	5.77058E-004	...........
	29	7.75	2.50237E-001	2.50225E-001	5.79925E-004	...........
	30	8.00833	2.50233E-001	2.50219E-001	5.78325E-004	...........
	31	8.26667	2.50229E-001	2.50213E-001	5.75058E-004	...........
	32	8.525	2.50224E-001	2.50214E-001	5.76392E-004	...........
	33	8.78333	2.50220E-001	2.50208E-001	5.74758E-004	...........
	34	9.04167	2.50216E-001	2.50206E-001	5.77025E-004	...........
	35	9.3	2.50213E-001	2.50205E-001	5.72358E-004	...........
	36	9.5583	2.50210E-001	2.50200E-001	5.75358E-004	...........
	37	9.8167	2.50207E-001	2.50197E-001	5.76225E-004	...........
	38	10.075	2.50204E-001	2.50192E-001	5.76892E-004	...........
EOC	QUANT	0.250204	Open Circuit (V)
PSTATMODEL	IQUANT	4	Pstat Model
PSTATSECTION	LABEL	REF600-11020	Pstat Section
PSTATSERIALNO	LABEL	11020	Pstat Serial Number
CTRLMODE	IQUANT	1	Control Mode
IESTAB	IQUANT	0	I/E Stability
CASPEED	IQUANT	1	Control Amp Speed
CONVENTION	IQUANT	1	Current Convention
ICHRANGE	IQUANT	2	Ich Range
ICHRANGEMODE	TOGGLE	F	Ich Auto Range
ICHOFFSETENABLE	TOGGLE	T	Ich Offset Enable
ICHOFFSET	QUANT	0	Ich Offset (V)
ICHFILTER	IQUANT	3	Ich Filter
VCHRANGE	IQUANT	2	Vch Range
VCHRANGEMODE	TOGGLE	F	Vch Auto Range
VCHOFFSETENABLE	TOGGLE	T	Vch Offset Enable
VCHOFFSET	QUANT	0	Vch Offset (V)
VCHFILTER	IQUANT	3	Vch Filter
ACHRANGE	IQUANT	2	Ach Range
ACHOFFSETENABLE	TOGGLE	F	Ach Offset Enable
ACHOFFSET	QUANT	0	Ach Offset (V)
ACHFILTER	IQUANT	3	Ach Filter
IERANGELOWERLIMIT	IQUANT	1	I/E Range Lower Limit
IERANGEMODE	TOGGLE	F	I/E AutoRange
IERANGE	IQUANT	8	I/E Range
POSFEEDENABLE	TOGGLE	F	Positive Feedback IR Comp
POSFEEDRESISTANCE	QUANT	0	Positive Feedback Resistance (ohm)
ACHSELECT	IQUANT	0	Ach Select
CABLEID	IQUANT	14	Cable ID
DCCALDATE	LABEL	9/1/2020	DC Calibration Date
ACCALDATE	LABEL	9/1/2020	AC Calibration Date
THERMOSELECT	IQUANT	1	Thermo Select
FRAMEWORKVERSION	QUANT	6.33	Framework Version
INSTRUMENTVERSION	LABEL	3.50	Instrument Version
ZCURVE	TABLE
	Pt	Time	Freq	Zreal	Zimag	Zsig	Zmod	Zphz	Idc	Vdc	IERange
	#	s	Hz	ohm	ohm	V	ohm	°	A	V	#
	0	1	1000078	1959.065	-1297.53	1	2349.791	-33.51735	8.640693E-008	0.2522804	8
	1	1	794390.6	2177.522	-1285.818	1	2528.819	-30.56168	5.082096E-008	0.2519878	8
	2	1	630984.4	2378.361	-1261.972	1	2692.429	-27.95069	7.600859E-008	0.2518762	8
	3	2	501234.4	2560.794	-1237.572	1	2844.161	-25.79339	5.86401E-008	0.251792	8
	4	2	398109.4	2725.985	-1214.93	1	2984.468	-24.02181	7.511518E-008	0.2517515	8
	5	2	316265.6	2877.418	-1204.878	1	3119.497	-22.72081	7.420127E-008	0.2517385	8
	6	3	251203.1	3020.635	-1211.673	1	3254.595	-21.85729	7.504882E-008	0.2517308	8
	7	3	199546.9	3164.407	-1233.616	1	3396.363	-21.29788	7.253629E-008	0.2517217	8
	8	3	158578.1	3299.11	-1276.081	1	3537.302	-21.14626	8.304177E-008	0.2517411	8
	9	3	125953.1	3463.034	-1323.524	1	3707.334	-20.91616	-5.122112E-009	0.2517385	7
	10	4	100078.1	3611.381	-1409.924	1	3876.849	-21.32624	4.352945E-009	0.2517098	7
	11	4	79453.13	3768.748	-1534.509	1	4069.174	-22.15452	3.988808E-009	0.2517037	7
	12	4	63140.62	3946.499	-1684.029	1	4290.782	-23.10865	3.920061E-009	0.2517009	7
	13	5	50203.12	4147.069	-1858.401	1	4544.429	-24.1383	4.162284E-009	0.2516995	7
	14	5	39890.62	4376.045	-2057.609	1	4835.652	-25.18283	3.168391E-009	0.2516948	7
	15	5	31640.63	4640.286	-2283.983	1	5171.927	-26.20675	3.455953E-009	0.2516899	7
	16	6	25171.88	4936.401	-2532.573	1	5548.151	-27.15966	3.643478E-009	0.2516843	7
	17	6	20015.62	5269.532	-2801.229	1	5967.818	-27.99465	3.879427E-009	0.2516895	7
	18	6	15890.62	5644.294	-3092.608	1	6436.015	-28.7191	4.613472E-009	0.251691	7
	19	7	12609.37	6061.092	-3409.862	1	6954.422	-29.36133	5.3281E-009	0.2516894	7
	20	7	10078.13	6503.279	-3735.859	1	7499.952	-29.87554	5.589401E-009	0.2516819	7
	21	7	8015.625	6989.842	-4092.221	1	8099.64	-30.34695	4.983999E-009	0.2516759	7
	22	8	6328.125	7524.487	-4484.978	1	8759.733	-30.7971	3.828845E-009	0.2516781	7
	23	8	5015.625	8107.537	-4892.237	1	9469.22	-31.10755	1.568323E-009	0.2516758	6
	24	8	3984.375	8670.679	-5371.545	1	10199.71	-31.7785	1.424709E-009	0.2516803	6
	25	8	3170.956	9245.743	-5927.113	1	10982.46	-32.66247	1.871802E-009	0.2516787	6
	26	9	2527.573	9828.2	-6582.742	1	11829.03	-33.81342	1.954628E-009	0.251681	6
	27	9	1976.103	10481.98	-7443.375	1	12855.96	-35.37901	1.223432E-009	0.2516792	6
	28	9	1577.524	11102.51	-8421.631	1	13935.19	-37.18155	1.213752E-009	0.2516742	6
	29	10	1265.625	11749.1	-9588.57	1	15165.15	-39.21826	1.29798E-009	0.25167	6
	30	10	998.264	12516.31	-11146.89	1	16760.4	-41.68792	2.05839E-009	0.2516811	6
	31	10	796.875	13349.9	-12981.47	1	18620.91	-44.19838	7.683824E-010	0.2516687	6
	32	11	627.7902	14380.83	-15376.79	1	21053.6	-46.91692	6.453573E-010	0.2516693	6
	33	11	505.5147	15502.41	-18020.89	1	23771.35	-49.29634	1.726934E-009	0.2516764	6
	34	11	397.9953	17048.35	-21537.95	1	27468.7	-51.63664	9.351493E-010	0.2516915	6
	35	12	315.5048	18957.16	-25696.79	1	31932.72	-53.58288	9.350241E-010	0.2516895	6
	36	12	252.4038	21315.97	-30403.77	1	37131.66	-54.96584	7.573467E-010	0.251683	6
	37	12	198.6229	24590.77	-36293.65	1	43839.88	-55.88039	8.921253E-010	0.2516847	6
	38	13	158.3615	28576.8	-42697.87	1	51378.41	-56.20642	9.019985E-010	0.2516839	6
	39	13	125.558	33725.18	-49956.58	1	60274.77	-55.97712	7.010711E-010	0.2516845	6
	40	13	100.4464	39801.02	-57736.27	1	70125.59	-55.41921	7.395348E-010	0.2516841	6
	41	14	79.00281	47625.88	-66576.9	1	81857.85	-54.42191	5.634233E-010	0.2516883	6
	42	14	63.3446	55976.6	-75227.82	1	93768.89	-53.34727	4.744813E-010	0.2516851	6
	43	14	49.86702	66224.21	-85160.91	1	107879.7	-52.13007	7.189527E-012	0.2516782	5
	44	15	39.72458	77099.3	-95601.5	1	122816.7	-51.11502	3.735327E-010	0.2516803	5
	45	15	31.6723	88943.95	-106791.1	1	138979.7	-50.20983	3.342332E-010	0.2516798	5
	46	15	24.93351	103065.8	-120173	1	158316.5	-49.38212	-4.880648E-010	0.2516788	5
	47	16	19.86229	118025.1	-134652.6	1	179056.5	-48.76493	-1.488525E-009	0.25168	5
	48	16	15.83615	134509.8	-149900.3	1	201402.5	-48.09746	-5.188779E-010	0.251678	5
	49	16	12.40079	154415.2	-167954.6	1	228150.8	-47.405	4.217292E-010	0.2516789	5
	50	16	9.93114	176559.6	-188132.8	1	258006.3	-46.81762	-1.814446E-010	0.2516793	5
	51	17	7.944915	200275.4	-209106.7	1	289544.2	-46.23581	-1.344065E-009	0.25168	5
	52	17	6.317385	228064.3	-232256.9	1	325509.8	-45.52183	-9.272443E-011	0.2516658	5
	53	18	5.008013	259130.7	-257480.7	1	365301.3	-44.81701	-2.660742E-010	0.2516705	5
	54	19	3.945707	295478.1	-285847.8	1	411115.9	-44.05092	-4.684438E-010	0.2516698	5
	55	20	3.158693	332364.1	-313149.9	1	456649.5	-43.29505	-2.121038E-010	0.2516527	5
	56	21	2.504006	376007.3	-344162.2	1	509734.3	-42.4681	1.715084E-010	0.2516582	5
	57	22	1.998082	418174.1	-376050.5	1	562390.9	-41.96402	1.38109E-010	0.2516516	5
	58	24	1.584686	466409.2	-410809.5	1	621531.9	-41.37334	-7.293404E-011	0.2516141	5
	59	26	1.266892	514965.6	-450313.3	1	684084.5	-41.16817	-1.01096E-010	0.2516243	5
	60	28	0.999041	566217.4	-497054.9	1	753436	-41.27834	-8.09475E-011	0.2516444	5
