EXPLAIN
TAG	EISPOT
TITLE	LABEL	Potentiostatic EIS	Test &Identifier
DATE	LABEL	7/30/2020	Date
TIME	LABEL	22:30:10	Time
NOTES	NOTES	1	&Notes...
	
PSTAT	PSTAT	REF600-11020	Potentiostat
VDC	POTEN	0.00000E+000	T	DC &Voltage (V)
FREQINIT	QUANT	1.00000E+006	Initial Fre&q. (Hz)
FREQFINAL	QUANT	1.00000E+000	Final Fre&q. (Hz)
PTSPERDEC	QUANT	1.00000E+001	Points/&decade
VAC	QUANT	2.50000E+001	AC &Voltage (mV rms)
AREA	QUANT	4.00000E-005	&Area (cm^2)
CONDIT	TWOPARAM	F	5.00000E+000	0.00000E+000	Conditionin&g	Time(s)	E(V)
DELAY	TWOPARAM	F	3.00000E+000	0.00000E+000	Init. De&lay	Time(s)	Stab.(mV/s)
SPEED	SELECTOR	0	&Optimize for:
ZGUESS	QUANT	1.00000E+003	E&stimated Z (ohms)
OCVCURVE	TABLE	39
	Pt	T	Vf	Vm	Ach	Over
	#	s	V vs. Ref.	V	V	bits
	0	0.258333	-1.39957E-001	-1.39957E-001	5.46916E-004	...........
	1	0.516667	-1.39958E-001	-1.39984E-001	5.44083E-004	...........
	2	0.775	-1.39961E-001	-1.40007E-001	5.46083E-004	...........
	3	1.03333	-1.39969E-001	-1.39993E-001	5.42416E-004	...........
	4	1.29167	-1.39980E-001	-1.39999E-001	5.44183E-004	...........
	5	1.55	-1.39990E-001	-1.40014E-001	5.43916E-004	...........
	6	1.80833	-1.39998E-001	-1.40020E-001	5.42683E-004	...........
	7	2.06667	-1.40004E-001	-1.40025E-001	5.43083E-004	...........
	8	2.325	-1.40011E-001	-1.40033E-001	5.45883E-004	...........
	9	2.58333	-1.40019E-001	-1.40062E-001	5.46350E-004	...........
	10	2.84167	-1.40028E-001	-1.40080E-001	5.47783E-004	...........
	11	3.1	-1.40042E-001	-1.40110E-001	5.45083E-004	...........
	12	3.35833	-1.40060E-001	-1.40137E-001	5.43283E-004	...........
	13	3.61667	-1.40083E-001	-1.40177E-001	5.46850E-004	...........
	14	3.875	-1.40110E-001	-1.40217E-001	5.42083E-004	...........
	15	4.13333	-1.40141E-001	-1.40268E-001	5.44083E-004	...........
	16	4.39167	-1.40177E-001	-1.40313E-001	5.47650E-004	...........
	17	4.65	-1.40218E-001	-1.40352E-001	5.43583E-004	...........
	18	4.90833	-1.40262E-001	-1.40400E-001	5.41350E-004	...........
	19	5.16667	-1.40307E-001	-1.40443E-001	5.41583E-004	...........
	20	5.425	-1.40351E-001	-1.40470E-001	5.40783E-004	...........
	21	5.68333	-1.40393E-001	-1.40501E-001	5.43250E-004	...........
	22	5.94167	-1.40432E-001	-1.40536E-001	5.49983E-004	...........
	23	6.2	-1.40467E-001	-1.40563E-001	5.45383E-004	...........
	24	6.45833	-1.40500E-001	-1.40591E-001	5.43416E-004	...........
	25	6.71667	-1.40531E-001	-1.40622E-001	5.42450E-004	...........
	26	6.975	-1.40561E-001	-1.40646E-001	5.46616E-004	...........
	27	7.23333	-1.40590E-001	-1.40668E-001	5.44516E-004	...........
	28	7.49167	-1.40617E-001	-1.40694E-001	5.42716E-004	...........
	29	7.75	-1.40643E-001	-1.40717E-001	5.44316E-004	...........
	30	8.00833	-1.40667E-001	-1.40716E-001	5.42283E-004	...........
	31	8.26667	-1.40688E-001	-1.40731E-001	5.42783E-004	...........
	32	8.525	-1.40706E-001	-1.40746E-001	5.42816E-004	...........
	33	8.78333	-1.40720E-001	-1.40777E-001	5.38616E-004	...........
	34	9.04167	-1.40734E-001	-1.40801E-001	5.40350E-004	...........
	35	9.3	-1.40752E-001	-1.40820E-001	5.42150E-004	...........
	36	9.5583	-1.40773E-001	-1.40851E-001	5.43616E-004	...........
	37	9.8167	-1.40797E-001	-1.40874E-001	5.42016E-004	...........
	38	10.075	-1.40822E-001	-1.40893E-001	5.40450E-004	...........
EOC	QUANT	-0.1408217	Open Circuit (V)
PSTATMODEL	IQUANT	4	Pstat Model
PSTATSECTION	LABEL	REF600-11020	Pstat Section
PSTATSERIALNO	LABEL	11020	Pstat Serial Number
CTRLMODE	IQUANT	1	Control Mode
IESTAB	IQUANT	0	I/E Stability
CASPEED	IQUANT	1	Control Amp Speed
CONVENTION	IQUANT	1	Current Convention
ICHRANGE	IQUANT	2	Ich Range
ICHRANGEMODE	TOGGLE	F	Ich Auto Range
ICHOFFSETENABLE	TOGGLE	T	Ich Offset Enable
ICHOFFSET	QUANT	0	Ich Offset (V)
ICHFILTER	IQUANT	3	Ich Filter
VCHRANGE	IQUANT	2	Vch Range
VCHRANGEMODE	TOGGLE	F	Vch Auto Range
VCHOFFSETENABLE	TOGGLE	T	Vch Offset Enable
VCHOFFSET	QUANT	0	Vch Offset (V)
VCHFILTER	IQUANT	3	Vch Filter
ACHRANGE	IQUANT	2	Ach Range
ACHOFFSETENABLE	TOGGLE	F	Ach Offset Enable
ACHOFFSET	QUANT	0	Ach Offset (V)
ACHFILTER	IQUANT	3	Ach Filter
IERANGELOWERLIMIT	IQUANT	1	I/E Range Lower Limit
IERANGEMODE	TOGGLE	F	I/E AutoRange
IERANGE	IQUANT	8	I/E Range
POSFEEDENABLE	TOGGLE	F	Positive Feedback IR Comp
POSFEEDRESISTANCE	QUANT	0	Positive Feedback Resistance (ohm)
ACHSELECT	IQUANT	0	Ach Select
CABLEID	IQUANT	14	Cable ID
DCCALDATE	LABEL	6/26/2020	DC Calibration Date
ACCALDATE	LABEL	6/26/2020	AC Calibration Date
THERMOSELECT	IQUANT	1	Thermo Select
FRAMEWORKVERSION	QUANT	6.33	Framework Version
INSTRUMENTVERSION	LABEL	3.50	Instrument Version
ZCURVE	TABLE
	Pt	Time	Freq	Zreal	Zimag	Zsig	Zmod	Zphz	Idc	Vdc	IERange
	#	s	Hz	ohm	ohm	V	ohm	°	A	V	#
	0	1	1000078	1177.828	-2317.525	1	2599.654	-63.05912	1.305594E-008	-0.1382921	8
	1	2	794390.6	1444.241	-2734.587	1	3092.539	-62.15974	3.961321E-008	-0.1386404	8
	2	2	630984.4	1787.048	-3196.873	1	3662.45	-60.79486	5.094765E-009	-0.1388051	8
	3	2	501234.4	2209.088	-3713.08	1	4320.537	-59.24957	5.361289E-008	-0.1389294	8
	4	2	398109.4	2729.227	-4253.937	1	5054.172	-57.31672	3.869696E-008	-0.1389692	8
	5	3	316265.6	3356.342	-4816.625	1	5870.682	-55.13028	5.549856E-009	-0.1390148	8
	6	3	251203.1	4087.814	-5383.906	1	6759.931	-52.79185	2.839005E-008	-0.1390366	8
	7	3	199546.9	4897.209	-5951.552	1	7707.375	-50.55089	5.840178E-008	-0.1390325	8
	8	4	158578.1	5791.646	-6497.143	1	8703.794	-48.28573	1.090241E-008	-0.1390276	8
	9	4	125953.1	6783.593	-7048.873	1	9782.83	-46.09869	-3.269109E-009	-0.1390505	7
	10	4	100078.1	7784.402	-7592.013	1	10873.62	-44.28316	-1.658084E-009	-0.1390708	7
	11	5	79453.13	8797.734	-8185.45	1	12016.73	-42.93524	3.415619E-010	-0.1390754	7
	12	5	63140.62	9820.53	-8821.815	1	13201.03	-41.93346	-1.975704E-010	-0.1390796	7
	13	5	50203.12	10857.92	-9548.01	1	14458.87	-41.32709	-1.548532E-009	-0.1390875	7
	14	5	39890.62	11907.3	-10405.72	1	15813.37	-41.15004	-1.197536E-009	-0.1390885	7
	15	6	31640.63	12981.49	-11468	1	17321.49	-41.45776	2.146772E-010	-0.1390778	7
	16	6	25171.88	14091.97	-12739.7	1	18996.93	-42.11485	-2.452304E-010	-0.1390863	7
	17	6	20015.62	15252.7	-14362.73	1	20950.72	-43.27872	2.865597E-010	-0.1390878	7
	18	7	15890.62	16526.44	-16300.21	1	23212.5	-44.60516	5.334681E-010	-0.1390876	7
	19	7	12609.37	18017.85	-18693.97	1	25963.58	-46.0551	9.415808E-010	-0.1391051	6
	20	7	10078.13	19573.44	-21582.06	1	29135.97	-47.79414	9.045567E-010	-0.1391093	6
	21	8	8015.625	21436.26	-25184.64	1	33072.34	-49.59677	1.21991E-009	-0.1391048	6
	22	8	6328.125	23793.64	-29657.51	1	38022.43	-51.26061	1.017222E-009	-0.1391015	6
	23	8	5015.625	26673.33	-34934.76	1	43953.43	-52.63761	1.193961E-009	-0.1391035	6
	24	9	3984.375	30281.11	-41065.26	1	51022.55	-53.59531	9.570483E-010	-0.1391073	6
	25	9	3170.956	34775.09	-48102.15	1	59355.91	-54.13523	9.479777E-010	-0.1391066	6
	26	9	2527.573	40325.54	-56070.55	1	69065.59	-54.27658	8.877608E-010	-0.1391149	6
	27	9	1976.103	47926.84	-65704.19	1	81326.64	-53.89174	7.550247E-010	-0.1391152	6
	28	10	1577.524	56455.56	-75563.67	1	94324.44	-53.23565	9.536143E-010	-0.1391083	6
	29	10	1265.625	67344.64	-85073.15	1	108502.3	-51.63456	7.248523E-010	-0.1391197	5
	30	10	998.264	80138.77	-96693.6	1	125586.1	-50.34837	7.276498E-010	-0.1391189	5
	31	11	796.875	94406.02	-108002.2	1	143446.8	-48.8429	6.73288E-010	-0.1391289	5
	32	11	627.7902	111691.1	-119983	1	163923.3	-47.04982	7.429968E-010	-0.1391257	5
	33	11	505.5147	129393.8	-130987.6	1	184120.9	-45.35071	6.807563E-010	-0.1391211	5
	34	12	397.9953	151072.1	-142678.2	1	207797.6	-43.36322	6.860385E-010	-0.1390924	5
	35	12	315.5048	174289.8	-153745.8	1	232410.6	-41.41639	6.728015E-010	-0.1390918	5
	36	12	252.4038	198575.9	-163575.4	1	257272.8	-39.47974	6.526781E-010	-0.1391028	5
	37	13	198.6229	226683.3	-173078.1	1	285204	-37.36259	6.659194E-010	-0.1390976	5
	38	13	158.3615	254934.5	-180659	1	312456.8	-35.32325	6.016618E-010	-0.1390979	5
	39	13	125.558	284691.5	-186313.1	1	340237.9	-33.20228	6.345575E-010	-0.1390986	5
	40	13	100.4464	313679.2	-190644	1	367069.2	-31.28988	6.002334E-010	-0.1391027	5
	41	14	79.00281	343456.8	-193230.9	1	394082.2	-29.36237	5.728885E-010	-0.139106	5
	42	14	63.3446	369347.8	-195307.1	1	417807	-27.8694	5.927644E-010	-0.1391064	5
	43	14	49.86702	395953.2	-199614.7	1	443424.1	-26.75437	5.395671E-010	-0.1391058	5
	44	15	39.72458	418946.3	-205196.3	1	466499.2	-26.09521	6.873069E-010	-0.1391009	5
	45	15	31.6723	440812.8	-213773	1	489913	-25.87115	7.564224E-010	-0.1391038	5
	46	15	24.93351	464167.9	-228467.4	1	517348.3	-26.20681	8.146477E-010	-0.1391039	5
	47	16	19.86229	488003.3	-247627.6	1	547235.5	-26.90461	9.947013E-010	-0.1391025	5
	48	16	15.83615	513340.1	-272271.3	1	581076.3	-27.9411	7.312537E-010	-0.1391012	5
	49	16	12.40079	548009.9	-305822	1	627568.3	-29.16411	7.672187E-010	-0.1391027	5
	50	17	9.93114	584156.3	-343040.7	1	677433	-30.42321	8.024342E-010	-0.1391013	5
	51	17	7.944915	626387.1	-383019.8	1	734210.4	-31.44472	4.928196E-010	-0.1390997	5
	52	17	6.317385	680659.9	-429508.2	1	804844.8	-32.25264	6.818472E-010	-0.1391117	5
	53	18	5.008013	746271.9	-476705	1	885533.4	-32.56971	5.222364E-010	-0.139112	5
	54	19	3.945707	831109.1	-528698.6	1	985020	-32.46191	4.916516E-010	-0.1391036	4
	55	20	3.158693	926300.3	-583885.1	1	1094968	-32.22491	4.170526E-010	-0.1391142	4
	56	21	2.504006	1040519	-635590	1	1219284	-31.41823	4.987804E-010	-0.1391215	4
	57	22	1.998082	1142788	-660191.8	1	1319779	-30.01515	6.559683E-010	-0.1390788	4
	58	24	1.584686	1242553	-670948.3	1	1412129	-28.36797	5.691536E-010	-0.1391093	4
	59	26	1.266892	1347772	-677807.9	1	1508613	-26.69827	5.459792E-010	-0.1391451	4
	60	28	0.999041	1453906	-688957.5	1	1608883	-25.35471	5.573147E-010	-0.1391574	4
