EXPLAIN
TAG	EISPOT
TITLE	LABEL	Potentiostatic EIS	Test &Identifier
DATE	LABEL	9/11/2020	Date
TIME	LABEL	19:30:43	Time
NOTES	NOTES	1	&Notes...
	
PSTAT	PSTAT	REF600-11020	Potentiostat
VDC	POTEN	0.00000E+000	T	DC &Voltage (V)
FREQINIT	QUANT	1.00000E+006	Initial Fre&q. (Hz)
FREQFINAL	QUANT	1.00000E+000	Final Fre&q. (Hz)
PTSPERDEC	QUANT	1.00000E+001	Points/&decade
VAC	QUANT	2.50000E+001	AC &Voltage (mV rms)
AREA	QUANT	4.00000E-005	&Area (cm^2)
CONDIT	TWOPARAM	F	5.00000E+000	0.00000E+000	Conditionin&g	Time(s)	E(V)
DELAY	TWOPARAM	F	3.00000E+000	0.00000E+000	Init. De&lay	Time(s)	Stab.(mV/s)
SPEED	SELECTOR	0	&Optimize for:
ZGUESS	QUANT	1.00000E+003	E&stimated Z (ohms)
OCVCURVE	TABLE	39
	Pt	T	Vf	Vm	Ach	Over
	#	s	V vs. Ref.	V	V	bits
	0	0.258333	-2.36012E-001	-2.36012E-001	5.41992E-004	...........
	1	0.516667	-2.36013E-001	-2.36052E-001	5.50092E-004	...........
	2	0.775	-2.36018E-001	-2.36093E-001	5.51059E-004	...........
	3	1.03333	-2.36031E-001	-2.36127E-001	5.50892E-004	...........
	4	1.29167	-2.36055E-001	-2.36158E-001	5.48225E-004	...........
	5	1.55	-2.36087E-001	-2.36176E-001	5.43859E-004	...........
	6	1.80833	-2.36119E-001	-2.36202E-001	5.54759E-004	...........
	7	2.06667	-2.36149E-001	-2.36217E-001	5.52492E-004	...........
	8	2.325	-2.36175E-001	-2.36231E-001	5.50625E-004	...........
	9	2.58333	-2.36196E-001	-2.36241E-001	5.48759E-004	...........
	10	2.84167	-2.36214E-001	-2.36248E-001	5.52559E-004	...........
	11	3.1	-2.36228E-001	-2.36251E-001	5.55359E-004	...........
	12	3.35833	-2.36238E-001	-2.36262E-001	5.51892E-004	...........
	13	3.61667	-2.36246E-001	-2.36273E-001	5.53525E-004	...........
	14	3.875	-2.36254E-001	-2.36282E-001	5.48825E-004	...........
	15	4.13333	-2.36262E-001	-2.36292E-001	5.50192E-004	...........
	16	4.39167	-2.36272E-001	-2.36300E-001	5.51159E-004	...........
	17	4.65	-2.36281E-001	-2.36312E-001	5.49425E-004	...........
	18	4.90833	-2.36291E-001	-2.36319E-001	5.42459E-004	...........
	19	5.16667	-2.36300E-001	-2.36327E-001	5.46225E-004	...........
	20	5.425	-2.36309E-001	-2.36332E-001	5.48759E-004	...........
	21	5.68333	-2.36318E-001	-2.36339E-001	5.48059E-004	...........
	22	5.94167	-2.36325E-001	-2.36343E-001	5.48359E-004	...........
	23	6.2	-2.36332E-001	-2.36344E-001	5.48425E-004	...........
	24	6.45833	-2.36337E-001	-2.36347E-001	5.52025E-004	...........
	25	6.71667	-2.36341E-001	-2.36342E-001	5.50292E-004	...........
	26	6.975	-2.36343E-001	-2.36338E-001	5.46992E-004	...........
	27	7.23333	-2.36343E-001	-2.36333E-001	5.47392E-004	...........
	28	7.49167	-2.36341E-001	-2.36328E-001	5.48759E-004	...........
	29	7.75	-2.36338E-001	-2.36324E-001	5.45692E-004	...........
	30	8.00833	-2.36333E-001	-2.36315E-001	5.47225E-004	...........
	31	8.26667	-2.36328E-001	-2.36305E-001	5.45859E-004	...........
	32	8.525	-2.36322E-001	-2.36297E-001	5.47759E-004	...........
	33	8.78333	-2.36315E-001	-2.36289E-001	5.47492E-004	...........
	34	9.04167	-2.36306E-001	-2.36280E-001	5.53592E-004	...........
	35	9.3	-2.36298E-001	-2.36267E-001	5.47625E-004	...........
	36	9.5583	-2.36289E-001	-2.36251E-001	5.48325E-004	...........
	37	9.8167	-2.36278E-001	-2.36239E-001	5.53459E-004	...........
	38	10.075	-2.36266E-001	-2.36222E-001	5.51025E-004	...........
EOC	QUANT	-0.2362663	Open Circuit (V)
PSTATMODEL	IQUANT	4	Pstat Model
PSTATSECTION	LABEL	REF600-11020	Pstat Section
PSTATSERIALNO	LABEL	11020	Pstat Serial Number
CTRLMODE	IQUANT	1	Control Mode
IESTAB	IQUANT	0	I/E Stability
CASPEED	IQUANT	1	Control Amp Speed
CONVENTION	IQUANT	1	Current Convention
ICHRANGE	IQUANT	2	Ich Range
ICHRANGEMODE	TOGGLE	F	Ich Auto Range
ICHOFFSETENABLE	TOGGLE	T	Ich Offset Enable
ICHOFFSET	QUANT	0	Ich Offset (V)
ICHFILTER	IQUANT	3	Ich Filter
VCHRANGE	IQUANT	2	Vch Range
VCHRANGEMODE	TOGGLE	F	Vch Auto Range
VCHOFFSETENABLE	TOGGLE	T	Vch Offset Enable
VCHOFFSET	QUANT	0	Vch Offset (V)
VCHFILTER	IQUANT	3	Vch Filter
ACHRANGE	IQUANT	2	Ach Range
ACHOFFSETENABLE	TOGGLE	F	Ach Offset Enable
ACHOFFSET	QUANT	0	Ach Offset (V)
ACHFILTER	IQUANT	3	Ach Filter
IERANGELOWERLIMIT	IQUANT	1	I/E Range Lower Limit
IERANGEMODE	TOGGLE	F	I/E AutoRange
IERANGE	IQUANT	8	I/E Range
POSFEEDENABLE	TOGGLE	F	Positive Feedback IR Comp
POSFEEDRESISTANCE	QUANT	0	Positive Feedback Resistance (ohm)
ACHSELECT	IQUANT	0	Ach Select
CABLEID	IQUANT	14	Cable ID
DCCALDATE	LABEL	9/1/2020	DC Calibration Date
ACCALDATE	LABEL	9/1/2020	AC Calibration Date
THERMOSELECT	IQUANT	1	Thermo Select
FRAMEWORKVERSION	QUANT	6.33	Framework Version
INSTRUMENTVERSION	LABEL	3.50	Instrument Version
ZCURVE	TABLE
	Pt	Time	Freq	Zreal	Zimag	Zsig	Zmod	Zphz	Idc	Vdc	IERange
	#	s	Hz	ohm	ohm	V	ohm	°	A	V	#
	0	1	1000078	1589.034	-2708.448	1	3140.178	-59.60005	7.026108E-008	-0.2340325	8
	1	1	794390.6	1966.745	-3124.115	1	3691.636	-57.80808	1.598463E-007	-0.2343294	8
	2	2	630984.4	2421.632	-3566.019	1	4310.544	-55.82014	1.541896E-008	-0.2345088	8
	3	2	501234.4	2966.236	-4020.104	1	4995.978	-53.57822	1.282611E-007	-0.2346146	8
	4	2	398109.4	3613.537	-4479.992	1	5755.69	-51.11054	6.710281E-008	-0.234712	8
	5	3	316265.6	4349.689	-4920.112	1	6567.138	-48.52129	1.436092E-007	-0.2347023	8
	6	3	251203.1	5173.136	-5332.646	1	7429.565	-45.86986	5.791642E-008	-0.2347493	8
	7	3	199546.9	6082.175	-5687.149	1	8326.854	-43.07764	8.473264E-008	-0.2347501	8
	8	4	158578.1	7031.183	-5992.651	1	9238.475	-40.44083	-1.057249E-008	-0.2347794	8
	9	4	125953.1	8067.143	-6216.933	1	10184.75	-37.61959	2.255612E-008	-0.2347611	7
	10	4	100078.1	9072.429	-6407.495	1	11106.98	-35.23204	6.827688E-009	-0.2347707	7
	11	5	79453.13	10064.59	-6567.333	1	12017.73	-33.12519	2.480688E-009	-0.234771	7
	12	5	63140.62	11056.27	-6728.657	1	12942.8	-31.32397	6.051021E-009	-0.2347787	7
	13	5	50203.12	12037.18	-6870.492	1	13859.92	-29.71654	1.870594E-009	-0.2347777	7
	14	5	39890.62	13017.34	-7043.982	1	14800.97	-28.41885	6.231503E-009	-0.2347845	7
	15	6	31640.63	14005.04	-7228.037	1	15760.26	-27.29837	2.41129E-009	-0.234792	7
	16	6	25171.88	14986.41	-7460.584	1	16740.76	-26.46519	3.962124E-009	-0.2347895	7
	17	6	20015.62	15971.61	-7734.724	1	17745.93	-25.83996	5.21855E-009	-0.2347873	7
	18	7	15890.62	17002.79	-8055.962	1	18814.71	-25.35171	3.103889E-009	-0.2347862	7
	19	7	12609.37	18203.62	-8373.467	1	20037.13	-24.70192	8.687015E-010	-0.2347927	6
	20	7	10078.13	19279.39	-8825.391	1	21203.36	-24.59655	7.069629E-010	-0.2347897	6
	21	8	8015.625	20420.18	-9358.373	1	22462.47	-24.62154	1.063418E-009	-0.2347934	6
	22	8	6328.125	21678.26	-9992.46	1	23870.4	-24.74705	8.101038E-010	-0.2347886	6
	23	8	5015.625	22987.75	-10703.47	1	25357.47	-24.96745	7.063372E-010	-0.2347989	6
	24	9	3984.375	24380.96	-11505.92	1	26959.55	-25.26368	2.814444E-010	-0.2347952	6
	25	9	3170.956	25854.98	-12405.62	1	28677.15	-25.63241	3.977081E-010	-0.2347909	6
	26	9	2527.573	27430.91	-13412.51	1	30534.41	-26.05661	8.604192E-010	-0.2347976	6
	27	10	1976.103	29265.48	-14644.3	1	32724.97	-26.58316	2.375329E-011	-0.2348001	6
	28	10	1577.524	31099.35	-15926.14	1	34940.12	-27.11723	8.008836E-010	-0.2347979	6
	29	10	1265.625	33017.57	-17323.27	1	37286.13	-27.68457	8.90737E-010	-0.2348116	6
	30	11	998.264	35271.33	-19013.53	1	40069.7	-28.32754	3.550438E-010	-0.2347955	6
	31	11	796.875	37592.62	-20842.17	1	42983.73	-29.00495	9.001136E-010	-0.2347993	6
	32	11	627.7902	40256.02	-23027.88	1	46377.04	-29.7711	7.196723E-010	-0.234802	6
	33	11	505.5147	42898.13	-25256.07	1	49780.7	-30.48725	7.325935E-010	-0.2348103	6
	34	12	397.9953	46094.63	-28053.22	1	53960.16	-31.32472	5.189303E-010	-0.234792	6
	35	12	315.5048	49500.14	-31159.23	1	58490.7	-32.1895	5.385491E-010	-0.2347916	6
	36	12	252.4038	53092.29	-34554.12	1	63346.49	-33.05733	5.117898E-010	-0.2347967	6
	37	13	198.6229	57348.3	-38711.74	1	69191.23	-34.02047	5.888691E-010	-0.2347921	6
	38	13	158.3615	61822.79	-43209.92	1	75426.48	-34.95093	5.267181E-010	-0.2347927	6
	39	13	125.558	66924.04	-48464.27	1	82629.37	-35.91086	5.43343E-010	-0.2347914	6
	40	14	100.4464	72369.02	-54220.25	1	90427.38	-36.84125	4.286934E-010	-0.234795	6
	41	14	79.00281	78991.69	-61173.8	1	99909.6	-37.7554	-5.897855E-012	-0.2348037	5
	42	14	63.3446	85720.64	-68645.16	1	109818.9	-38.68777	-6.302979E-012	-0.2347985	5
	43	15	49.86702	93897.33	-77919.39	1	122017	-39.68711	-2.357081E-010	-0.2348062	5
	44	15	39.72458	102654.5	-88041.31	1	135237.6	-40.61794	-2.503526E-010	-0.2348019	5
	45	15	31.6723	112543.1	-99600.8	1	150287.3	-41.50888	-4.427154E-010	-0.2348069	5
	46	16	24.93351	124439.4	-113549.3	1	168459.5	-42.38005	8.376844E-011	-0.2348092	5
	47	16	19.86229	137453.9	-128856.3	1	188407.8	-43.15089	-1.998047E-010	-0.2348079	5
	48	16	15.83615	152287	-146043.3	1	210997.6	-43.80103	2.892766E-010	-0.2348103	5
	49	17	12.40079	170911.3	-167103.5	1	239027.7	-44.35459	1.004564E-009	-0.2348114	5
	50	17	9.93114	189991.2	-189019.5	1	268001.9	-44.8531	9.421913E-010	-0.2348027	5
	51	17	7.944915	212691.5	-213796.3	1	301573.5	-45.14842	-3.298091E-010	-0.2348044	5
	52	18	6.317385	239725.4	-241970.4	1	340614	-45.26704	4.588032E-010	-0.234822	5
	53	18	5.008013	271959.8	-273741.2	1	385870.9	-45.18703	3.535235E-010	-0.2348111	5
	54	19	3.945707	309557.9	-308942	1	437345.7	-44.94294	-2.625202E-010	-0.2348136	5
	55	20	3.158693	350706.6	-344210.3	1	491401.9	-44.4644	1.658452E-010	-0.2348168	5
	56	21	2.504006	398352	-383429.4	1	552903.6	-43.90647	1.490383E-010	-0.2348063	5
	57	23	1.998082	450781.8	-422973.3	1	618151	-43.1771	-1.960336E-010	-0.2348531	5
	58	24	1.584686	508442.4	-467386.1	1	690625.4	-42.5908	-1.905774E-010	-0.2348345	5
	59	26	1.266892	569832.2	-510948.5	1	765360.8	-41.88147	-1.058354E-010	-0.2348017	5
	60	29	0.999041	641439.1	-561096	1	852216.4	-41.17767	-5.939714E-011	-0.2347808	5
