EXPLAIN
TAG	EISPOT
TITLE	LABEL	Potentiostatic EIS	Test &Identifier
DATE	LABEL	3/12/2020	Date
TIME	LABEL	12:33:39	Time
NOTES	NOTES	1	&Notes...
	
PSTAT	PSTAT	REF600-11020	Potentiostat
VDC	POTEN	0.00000E+000	T	DC &Voltage (V)
FREQINIT	QUANT	1.00000E+006	Initial Fre&q. (Hz)
FREQFINAL	QUANT	1.00000E+000	Final Fre&q. (Hz)
PTSPERDEC	QUANT	1.00000E+001	Points/&decade
VAC	QUANT	2.50000E+001	AC &Voltage (mV rms)
AREA	QUANT	2.50000E-001	&Area (cm^2)
CONDIT	TWOPARAM	F	5.00000E+000	0.00000E+000	Conditionin&g	Time(s)	E(V)
DELAY	TWOPARAM	T	5.00000E+000	0.00000E+000	Init. De&lay	Time(s)	Stab.(mV/s)
SPEED	SELECTOR	1	&Optimize for:
ZGUESS	QUANT	5.00000E+003	E&stimated Z (ohms)
OCVCURVE	TABLE	19
	Pt	T	Vf	Vm	Ach	Over
	#	s	V vs. Ref.	V	V	bits
	0	0.258333	6.27116E-002	6.27116E-002	5.64663E-004	...........
	1	0.516667	6.27105E-002	6.26562E-002	5.64830E-004	...........
	2	0.775	6.27035E-002	6.25786E-002	5.66097E-004	...........
	3	1.03333	6.26873E-002	6.27726E-002	5.65463E-004	...........
	4	1.29167	6.26736E-002	6.27486E-002	5.57597E-004	...........
	5	1.55	6.26781E-002	6.26461E-002	5.62364E-004	...........
	6	1.80833	6.26956E-002	6.28098E-002	5.55630E-004	...........
	7	2.06667	6.27147E-002	6.28439E-002	5.61730E-004	...........
	8	2.325	6.27379E-002	6.27217E-002	5.59597E-004	...........
	9	2.58333	6.27630E-002	6.28166E-002	5.67097E-004	...........
	10	2.84167	6.27814E-002	6.28991E-002	5.66897E-004	...........
	11	3.1	6.27977E-002	6.28245E-002	5.65197E-004	...........
	12	3.35833	6.28183E-002	6.28602E-002	5.63363E-004	...........
	13	3.61667	6.28379E-002	6.28876E-002	5.62730E-004	...........
	14	3.875	6.28527E-002	6.29128E-002	5.64897E-004	...........
	15	4.13333	6.28688E-002	6.29924E-002	5.62630E-004	...........
	16	4.39167	6.28916E-002	6.29168E-002	5.62030E-004	...........
	17	4.65	6.29164E-002	6.29192E-002	5.61730E-004	...........
	18	4.90833	6.29332E-002	6.30048E-002	5.65497E-004	...........
EOC	QUANT	0.0629332	Open Circuit (V)
PSTATMODEL	IQUANT	4	Pstat Model
PSTATSECTION	LABEL	REF600-11020	Pstat Section
PSTATSERIALNO	LABEL	11020	Pstat Serial Number
CTRLMODE	IQUANT	1	Control Mode
IESTAB	IQUANT	0	I/E Stability
CASPEED	IQUANT	1	Control Amp Speed
CONVENTION	IQUANT	1	Current Convention
ICHRANGE	IQUANT	2	Ich Range
ICHRANGEMODE	TOGGLE	F	Ich Auto Range
ICHOFFSETENABLE	TOGGLE	T	Ich Offset Enable
ICHOFFSET	QUANT	0	Ich Offset (V)
ICHFILTER	IQUANT	3	Ich Filter
VCHRANGE	IQUANT	2	Vch Range
VCHRANGEMODE	TOGGLE	F	Vch Auto Range
VCHOFFSETENABLE	TOGGLE	T	Vch Offset Enable
VCHOFFSET	QUANT	0	Vch Offset (V)
VCHFILTER	IQUANT	3	Vch Filter
ACHRANGE	IQUANT	2	Ach Range
ACHOFFSETENABLE	TOGGLE	F	Ach Offset Enable
ACHOFFSET	QUANT	0	Ach Offset (V)
ACHFILTER	IQUANT	3	Ach Filter
IERANGELOWERLIMIT	IQUANT	1	I/E Range Lower Limit
IERANGEMODE	TOGGLE	F	I/E AutoRange
IERANGE	IQUANT	7	I/E Range
POSFEEDENABLE	TOGGLE	F	Positive Feedback IR Comp
POSFEEDRESISTANCE	QUANT	0	Positive Feedback Resistance (ohm)
ACHSELECT	IQUANT	0	Ach Select
CABLEID	IQUANT	14	Cable ID
DCCALDATE	LABEL	2/27/2020	DC Calibration Date
ACCALDATE	LABEL	2/27/2020	AC Calibration Date
THERMOSELECT	IQUANT	1	Thermo Select
FRAMEWORKVERSION	QUANT	6.33	Framework Version
INSTRUMENTVERSION	LABEL	3.50	Instrument Version
ZCURVE	TABLE
	Pt	Time	Freq	Zreal	Zimag	Zsig	Zmod	Zphz	Idc	Vdc	IERange
	#	s	Hz	ohm	ohm	V	ohm	°	A	V	#
	0	1	1000078	1729.998	-1932.883	1	2594.018	-48.17035	-3.717323E-010	0.0654286	8
	1	2	794390.6	2012.233	-2130.874	1	2930.82	-46.64026	3.317134E-006	0.0644055	8
	2	4	630984.4	2322.994	-2299.539	1	3268.667	-44.70927	2.651879E-007	0.0646885	8
	3	5	501234.4	2645.883	-2511.122	1	3647.798	-43.50311	-1.581014E-006	0.0649965	8
	4	7	398109.4	2992.853	-2720.267	1	4044.381	-42.26835	-1.207671E-006	0.0650288	8
	5	8	316265.6	3358.747	-2952.457	1	4471.933	-41.31661	-1.282107E-006	0.065009	8
	6	9	251203.1	3750.131	-3218.343	1	4941.782	-40.63602	6.441822E-007	0.0645374	8
	7	11	199546.9	4162.398	-3507.674	1	5443.284	-40.12101	-1.549073E-006	0.0650037	8
	8	12	158578.1	4636.687	-3817.644	1	6006.103	-39.46653	-4.155686E-007	0.0647396	8
	9	13	125953.1	5199.972	-4195.23	1	6681.292	-38.89587	3.40302E-007	0.0638905	7
	10	15	100078.1	5770.131	-4606.658	1	7383.476	-38.60256	6.406636E-008	0.0644931	7
	11	16	79453.13	6452.592	-5055.422	1	8197.148	-38.07769	6.001501E-008	0.0644506	7
	12	18	63140.62	7221.177	-5509.662	1	9083.049	-37.34315	5.918443E-008	0.0644564	7
	13	19	50203.12	8079.24	-5950.574	1	10034.11	-36.37263	-1.748367E-008	0.0646012	7
	14	20	39890.62	9019.844	-6365.124	1	11039.58	-35.20985	-1.837191E-008	0.0645825	7
	15	22	31640.63	10030.26	-6738.804	1	12083.77	-33.89509	-2.627002E-008	0.0645708	7
	16	23	25171.88	11066.96	-7093.098	1	13144.95	-32.65685	1.946917E-008	0.0645681	7
	17	24	20015.62	12122.75	-7410.548	1	14208.35	-31.43715	6.141926E-008	0.064443	7
	18	26	15890.62	13171.63	-7709.139	1	15261.8	-30.33975	-1.705768E-008	0.064531	7
	19	27	12609.37	14280.13	-7995.675	1	16366.21	-29.24518	3.709035E-009	0.064607	6
	20	29	10078.13	15270.81	-8396.851	1	17427.13	-28.80476	2.52873E-009	0.0646309	6
	21	30	8015.625	16286.04	-8904.356	1	18561.32	-28.66754	3.989375E-009	0.0646085	6
	22	31	6328.125	17357.78	-9559.18	1	19815.92	-28.84222	4.698683E-009	0.0645777	6
	23	33	5015.625	18465.94	-10362.29	1	21174.7	-29.29928	5.117479E-009	0.0644662	6
	24	34	3984.375	19650.75	-11338.71	1	22687.4	-29.98545	3.984214E-009	0.0646028	6
	25	35	3170.956	20935.74	-12493.82	1	24380.34	-30.82748	1.592177E-009	0.0646315	6
	26	37	2527.573	22367.38	-13828.92	1	26297.13	-31.72696	-4.182469E-009	0.0646594	6
	27	38	1976.103	24105.16	-15485.96	1	28650.89	-32.71804	-3.24783E-009	0.0646595	6
	28	39	1577.524	25849.44	-17186.51	1	31041.42	-33.61874	-5.522494E-009	0.0646358	6
	29	41	1265.625	27686.95	-19074.86	1	33621.68	-34.5648	-7.901755E-010	0.0645371	6
	30	42	998.264	29789.79	-21390.43	1	36674	-35.68007	-9.08558E-010	0.0645361	6
	31	44	796.875	31855.19	-23972.57	1	39867.74	-36.96323	5.57298E-009	0.0645439	6
	32	45	627.7902	34151.73	-27234.71	1	43681.46	-38.57104	5.559976E-009	0.064542	6
	33	46	505.5147	36340.87	-30874.59	1	47685.42	-40.35067	1.741648E-010	0.0646393	6
	34	48	397.9953	38948.68	-35821.76	1	52916.89	-42.60527	1.645604E-010	0.0646031	6
	35	49	315.5048	41867.19	-41810.39	1	59168.99	-44.96111	1.886571E-010	0.0646021	6
	36	50	252.4038	45181.67	-48824.8	1	66522.52	-47.21933	1.706865E-010	0.0645972	6
	37	52	198.6229	49582.76	-57932.26	1	76253.5	-49.44062	5.892941E-010	0.0645994	6
	38	53	158.3615	54711.5	-68216.04	1	87445.85	-51.26924	5.648602E-010	0.0645965	6
	39	55	125.558	61400.97	-80381.88	1	101150	-52.62502	2.470768E-011	0.0645947	5
	40	56	100.4464	68876.15	-94293.02	1	116769.4	-53.85382	2.375826E-010	0.064596	5
	41	57	79.00281	78635.42	-111200.7	1	136195.2	-54.73401	3.763386E-010	0.0645967	5
	42	59	63.3446	88073.32	-127018.4	1	154565.8	-55.26294	8.004953E-011	0.0645999	5
	43	60	49.86702	106476.6	-151570.9	1	185232.3	-54.91245	-9.413624E-011	0.0645923	5
	44	62	39.72458	121246.6	-175960.6	1	213688.7	-55.431	2.993155E-010	0.0645967	5
	45	63	31.6723	140017.6	-204095.5	1	247507.3	-55.54833	8.214839E-011	0.0646015	5
	46	65	24.93351	164618.5	-237292.4	1	288802.6	-55.24952	2.471816E-010	0.0646068	5
	47	66	19.86229	192370	-274442	1	335148.6	-54.97149	3.406847E-010	0.064609	5
	48	67	15.83615	225429.6	-312941.9	1	385682.7	-54.23268	1.389583E-010	0.0646033	5
	49	69	12.40079	274731.2	-362053.7	1	454488.8	-52.80828	7.50023E-010	0.0645993	5
	50	70	9.93114	319305.1	-413970.4	1	522807.1	-52.35616	2.679344E-010	0.0645973	5
	51	72	7.944915	380552.5	-466733.9	1	602213.2	-50.80784	3.143357E-011	0.0645965	5
	52	73	6.317385	448592.8	-516376.2	1	684017.4	-49.01809	8.632794E-010	0.0645833	6
	53	76	5.008013	530708.2	-570982.9	1	779533.6	-47.09364	8.18643E-010	0.0646009	6
	54	79	3.945707	623316.1	-623680.4	1	881759.8	-45.01674	-1.479684E-010	0.0645964	5
	55	82	3.158693	718990.2	-669554.6	1	982472	-42.96099	1.849719E-010	0.0646021	4
	56	85	2.504006	823590.8	-716346.9	1	1091538	-41.01626	-3.161666E-010	0.0645847	4
	57	88	1.998082	927260.8	-756825.4	1	1196912	-39.22115	-1.946735E-010	0.0645628	4
	58	91	1.584686	1031760	-798487.1	1	1304649	-37.73657	-9.782127E-011	0.0646288	4
	59	94	1.266892	1136655	-845711.9	1	1416761	-36.65058	-2.341108E-010	0.0645779	4
	60	99	0.999041	1243694	-900127.1	1	1535254	-35.89524	2.930427E-010	0.0646203	4
