EXPLAIN
TAG	EISPOT
TITLE	LABEL	Potentiostatic EIS	Test &Identifier
DATE	LABEL	6/14/2020	Date
TIME	LABEL	21:25:48	Time
NOTES	NOTES	1	&Notes...
	
PSTAT	PSTAT	REF600-10037	Potentiostat
VDC	POTEN	0.00000E+000	T	DC &Voltage (V)
FREQINIT	QUANT	1.00000E+006	Initial Fre&q. (Hz)
FREQFINAL	QUANT	1.00000E+000	Final Fre&q. (Hz)
PTSPERDEC	QUANT	1.00000E+001	Points/&decade
VAC	QUANT	2.50000E+001	AC &Voltage (mV rms)
AREA	QUANT	2.50000E-001	&Area (cm^2)
CONDIT	TWOPARAM	F	5.00000E+000	0.00000E+000	Conditionin&g	Time(s)	E(V)
DELAY	TWOPARAM	F	3.00000E+000	0.00000E+000	Init. De&lay	Time(s)	Stab.(mV/s)
SPEED	SELECTOR	0	&Optimize for:
ZGUESS	QUANT	1.00000E+003	E&stimated Z (ohms)
OCVCURVE	TABLE	39
	Pt	T	Vf	Vm	Ach	Over
	#	s	V vs. Ref.	V	V	bits
	0	0.258333	-1.03615E-001	-1.03615E-001	5.53187E-004	...........
	1	0.516667	-1.03615E-001	-1.03613E-001	5.48854E-004	...........
	2	0.775	-1.03615E-001	-1.03612E-001	5.49220E-004	...........
	3	1.03333	-1.03614E-001	-1.03609E-001	5.51320E-004	...........
	4	1.29167	-1.03613E-001	-1.03607E-001	5.48587E-004	...........
	5	1.55	-1.03611E-001	-1.03608E-001	5.47254E-004	...........
	6	1.80833	-1.03610E-001	-1.03608E-001	5.50420E-004	...........
	7	2.06667	-1.03609E-001	-1.03607E-001	5.47454E-004	...........
	8	2.325	-1.03608E-001	-1.03603E-001	5.56954E-004	...........
	9	2.58333	-1.03607E-001	-1.03603E-001	5.59754E-004	...........
	10	2.84167	-1.03606E-001	-1.03600E-001	5.56954E-004	...........
	11	3.1	-1.03605E-001	-1.03602E-001	5.53920E-004	...........
	12	3.35833	-1.03603E-001	-1.03600E-001	5.45687E-004	...........
	13	3.61667	-1.03602E-001	-1.03601E-001	5.44421E-004	...........
	14	3.875	-1.03601E-001	-1.03600E-001	5.43487E-004	...........
	15	4.13333	-1.03601E-001	-1.03600E-001	5.48354E-004	...........
	16	4.39167	-1.03601E-001	-1.03600E-001	5.47454E-004	...........
	17	4.65	-1.03600E-001	-1.03600E-001	5.46687E-004	...........
	18	4.90833	-1.03600E-001	-1.03599E-001	5.47854E-004	...........
	19	5.16667	-1.03600E-001	-1.03599E-001	5.48954E-004	...........
	20	5.425	-1.03600E-001	-1.03598E-001	5.49520E-004	...........
	21	5.68333	-1.03599E-001	-1.03598E-001	5.49620E-004	...........
	22	5.94167	-1.03599E-001	-1.03596E-001	5.55454E-004	...........
	23	6.2	-1.03598E-001	-1.03595E-001	5.52287E-004	...........
	24	6.45833	-1.03597E-001	-1.03596E-001	5.51354E-004	...........
	25	6.71667	-1.03597E-001	-1.03596E-001	5.53320E-004	...........
	26	6.975	-1.03596E-001	-1.03593E-001	5.50520E-004	...........
	27	7.23333	-1.03596E-001	-1.03595E-001	5.50220E-004	...........
	28	7.49167	-1.03595E-001	-1.03594E-001	5.51654E-004	...........
	29	7.75	-1.03595E-001	-1.03593E-001	5.49587E-004	...........
	30	8.00833	-1.03594E-001	-1.03592E-001	5.54787E-004	...........
	31	8.26667	-1.03594E-001	-1.03593E-001	5.52387E-004	...........
	32	8.525	-1.03593E-001	-1.03591E-001	5.50987E-004	...........
	33	8.78333	-1.03592E-001	-1.03590E-001	5.55887E-004	...........
	34	9.04167	-1.03592E-001	-1.03586E-001	5.58420E-004	...........
	35	9.3	-1.03591E-001	-1.03587E-001	5.56887E-004	...........
	36	9.5583	-1.03589E-001	-1.03585E-001	5.59754E-004	...........
	37	9.8167	-1.03588E-001	-1.03582E-001	5.55020E-004	...........
	38	10.075	-1.03586E-001	-1.03578E-001	5.57787E-004	...........
EOC	QUANT	-0.1035864	Open Circuit (V)
PSTATMODEL	IQUANT	4	Pstat Model
PSTATSECTION	LABEL	REF600-10037	Pstat Section
PSTATSERIALNO	LABEL	10037	Pstat Serial Number
CTRLMODE	IQUANT	1	Control Mode
IESTAB	IQUANT	0	I/E Stability
CASPEED	IQUANT	1	Control Amp Speed
CONVENTION	IQUANT	1	Current Convention
ICHRANGE	IQUANT	2	Ich Range
ICHRANGEMODE	TOGGLE	F	Ich Auto Range
ICHOFFSETENABLE	TOGGLE	T	Ich Offset Enable
ICHOFFSET	QUANT	0	Ich Offset (V)
ICHFILTER	IQUANT	3	Ich Filter
VCHRANGE	IQUANT	2	Vch Range
VCHRANGEMODE	TOGGLE	F	Vch Auto Range
VCHOFFSETENABLE	TOGGLE	T	Vch Offset Enable
VCHOFFSET	QUANT	0	Vch Offset (V)
VCHFILTER	IQUANT	3	Vch Filter
ACHRANGE	IQUANT	2	Ach Range
ACHOFFSETENABLE	TOGGLE	F	Ach Offset Enable
ACHOFFSET	QUANT	0	Ach Offset (V)
ACHFILTER	IQUANT	3	Ach Filter
IERANGELOWERLIMIT	IQUANT	1	I/E Range Lower Limit
IERANGEMODE	TOGGLE	F	I/E AutoRange
IERANGE	IQUANT	8	I/E Range
POSFEEDENABLE	TOGGLE	F	Positive Feedback IR Comp
POSFEEDRESISTANCE	QUANT	0	Positive Feedback Resistance (ohm)
ACHSELECT	IQUANT	0	Ach Select
CABLEID	IQUANT	14	Cable ID
DCCALDATE	LABEL	6/8/2020	DC Calibration Date
ACCALDATE	LABEL	6/8/2020	AC Calibration Date
THERMOSELECT	IQUANT	1	Thermo Select
FRAMEWORKVERSION	QUANT	6.33	Framework Version
INSTRUMENTVERSION	LABEL	3.50	Instrument Version
ZCURVE	TABLE
	Pt	Time	Freq	Zreal	Zimag	Zsig	Zmod	Zphz	Idc	Vdc	IERange
	#	s	Hz	ohm	ohm	V	ohm	°	A	V	#
	0	1	1000078	1501.305	-952.302	1	1777.862	-32.38762	-1.357726E-007	-0.0944005	8
	1	1	794390.6	1636.507	-996.023	1	1915.781	-31.32586	4.4129E-007	-0.0946715	8
	2	2	630984.4	1770.416	-1045.936	1	2056.296	-30.57397	1.579797E-007	-0.0947757	8
	3	2	501234.4	1907.843	-1104.924	1	2204.704	-30.07722	3.950122E-008	-0.0948084	8
	4	2	398109.4	2047.106	-1174.269	1	2359.99	-29.83961	-7.025289E-008	-0.0949286	8
	5	3	316265.6	2198.372	-1259.971	1	2533.844	-29.81868	-1.540892E-007	-0.09488	8
	6	3	251203.1	2358.145	-1358.893	1	2721.661	-29.95292	-7.215963E-008	-0.0949219	8
	7	3	199546.9	2528.867	-1466.215	1	2923.175	-30.10478	5.046807E-008	-0.0949026	8
	8	4	158578.1	2717.657	-1602.338	1	3154.861	-30.52371	1.003975E-007	-0.0948567	8
	9	4	125953.1	3024.801	-1646.841	1	3444.054	-28.56591	5.628777E-008	-0.0947781	7
	10	4	100078.1	3247.724	-1820.693	1	3723.255	-29.27525	6.388043E-008	-0.0949896	7
	11	5	79453.13	3496.7	-2012.746	1	4034.607	-29.92529	-2.802273E-008	-0.0948268	7
	12	5	63140.62	3778.521	-2220.4	1	4382.624	-30.44009	6.683863E-008	-0.0949661	7
	13	5	50203.12	4099.961	-2437.431	1	4769.775	-30.73153	4.169612E-008	-0.0950148	7
	14	6	39890.62	4461.562	-2660.139	1	5194.408	-30.80487	6.406945E-008	-0.0950049	7
	15	6	31640.63	4864.964	-2885.936	1	5656.545	-30.67676	7.607088E-010	-0.0949747	7
	16	6	25171.88	5298.219	-3103.294	1	6140.16	-30.35853	6.438189E-008	-0.094999	7
	17	6	20015.62	5766.101	-3317.726	1	6652.46	-29.91547	7.017469E-008	-0.0949846	7
	18	7	15890.62	6256.808	-3518.517	1	7178.273	-29.35123	-4.606334E-008	-0.0948276	7
	19	7	12609.37	6760.479	-3728.129	1	7720.3	-28.87495	-2.396143E-008	-0.0949428	7
	20	7	10078.13	7249.264	-3927.325	1	8244.738	-28.44685	6.899406E-008	-0.094988	7
	21	8	8015.625	7744.231	-4152.157	1	8787.122	-28.19849	1.710823E-008	-0.0948776	7
	22	8	6328.125	8369.616	-4280.021	1	9400.481	-27.08411	2.730951E-009	-0.0950409	6
	23	8	5015.625	8844.361	-4634.846	1	9985.22	-27.65658	6.570505E-009	-0.0949359	6
	24	9	3984.375	9313.752	-5072.981	1	10605.71	-28.57609	-1.085734E-008	-0.0947881	6
	25	9	3170.956	9794.92	-5619.367	1	11292.37	-29.843	2.609371E-009	-0.0950309	6
	26	9	2527.573	10296.72	-6299.315	1	12070.78	-31.45742	-5.980781E-009	-0.0949216	6
	27	10	1976.103	10892.8	-7232.913	1	13075.47	-33.58451	8.821721E-009	-0.0950415	6
	28	10	1577.524	11512.18	-8297.598	1	14190.86	-35.78281	-3.037289E-009	-0.0949681	6
	29	10	1265.625	12227.78	-9571.62	1	15528.5	-38.053	9.428673E-009	-0.0950124	6
	30	11	998.264	13169.79	-11232.73	1	17309.46	-40.46141	-1.027533E-008	-0.0947863	6
	31	11	796.875	14306.43	-13105.02	1	19401.43	-42.49038	-9.684555E-009	-0.0947698	6
	32	11	627.7902	15840.54	-15447.59	1	22125.79	-44.28046	-5.209428E-009	-0.0947825	6
	33	12	505.5147	17615.84	-17812.38	1	25051.93	-45.31785	-1.000227E-008	-0.0947662	6
	34	12	397.9953	20105.45	-20710.04	1	28864.07	-45.84865	2.088282E-010	-0.0949001	6
	35	12	315.5048	23113.4	-23726.87	1	33123.91	-45.75036	2.041537E-010	-0.0948977	6
	36	12	252.4038	26574.03	-26646.91	1	37632.93	-45.07846	2.287283E-010	-0.0949039	6
	37	13	198.6229	30815.88	-29658.71	1	42769.82	-43.90379	4.566826E-010	-0.0949057	6
	38	13	158.3615	35259.86	-32382.16	1	47873.4	-42.56393	3.942802E-010	-0.0949053	6
	39	13	125.558	39992.5	-34995.26	1	53141.96	-41.1874	2.112374E-010	-0.0949034	6
	40	14	100.4464	44554.46	-37468.87	1	58215.26	-40.06276	2.676911E-010	-0.0949059	6
	41	14	79.00281	49434.7	-40389.34	1	63836.42	-39.24965	2.821656E-010	-0.0949046	6
	42	14	63.3446	53700.71	-43541.77	1	69135.03	-39.03593	1.193235E-010	-0.0949095	6
	43	15	49.86702	58084.95	-47759.63	1	75198.7	-39.42833	4.461706E-010	-0.0949133	6
	44	15	39.72458	62062.06	-52850.05	1	81515.81	-40.41665	4.353273E-010	-0.0949066	6
	45	16	31.6723	66068.98	-59494.25	1	88908.24	-42.00262	7.973234E-010	-0.0949094	6
	46	16	24.93351	70637.91	-68350.41	1	98292.9	-44.0571	-2.910104E-010	-0.0949049	5
	47	16	19.86229	72943.66	-78528.63	1	107179.9	-47.11161	-5.809529E-009	-0.1035421	5
	48	17	15.83615	78951.8	-92037.88	1	121261.5	-49.3764	-3.897193E-009	-0.1035471	5
	49	17	12.40079	86807.63	-109768.1	1	139945	-51.66209	-2.747645E-009	-0.1035383	5
	50	17	9.93114	95518.8	-129215.8	1	160687.8	-53.52747	-2.035365E-009	-0.1035344	5
	51	18	7.944915	106836	-152353	1	186079	-54.96034	-1.723407E-009	-0.1035353	5
	52	18	6.317385	120551.3	-179659.2	1	216356.3	-56.13839	-9.96849E-010	-0.1035337	5
	53	19	5.008013	137833.9	-211873.4	1	252761.8	-56.95405	-7.471784E-010	-0.1035349	5
	54	20	3.945707	159487.1	-250132.9	1	296652.3	-57.47803	-5.920319E-010	-0.1035418	5
	55	21	3.158693	182929.7	-290973.7	1	343698.9	-57.8432	-4.608855E-010	-0.1035413	5
	56	22	2.504006	212223.4	-340147.3	1	400922.6	-58.03929	-3.197187E-010	-0.1035437	5
	57	24	1.998082	244502.8	-395131.8	1	464662	-58.25127	-2.691233E-010	-0.1035446	5
	58	26	1.584686	282127.7	-460391.1	1	539959.3	-58.50003	-1.84147E-010	-0.1035418	5
	59	29	1.266892	323655.7	-533858	1	624305.5	-58.77333	-1.379237E-010	-0.1035468	5
	60	32	0.999041	374183.4	-625451.3	1	728836.4	-59.10954	-1.28409E-010	-0.103547	5
