EXPLAIN
TAG	EISPOT
TITLE	LABEL	Potentiostatic EIS	Test &Identifier
DATE	LABEL	9/11/2020	Date
TIME	LABEL	20:08:04	Time
NOTES	NOTES	1	&Notes...
	
PSTAT	PSTAT	REF600-11020	Potentiostat
VDC	POTEN	0.00000E+000	T	DC &Voltage (V)
FREQINIT	QUANT	1.00000E+006	Initial Fre&q. (Hz)
FREQFINAL	QUANT	1.00000E+000	Final Fre&q. (Hz)
PTSPERDEC	QUANT	1.00000E+001	Points/&decade
VAC	QUANT	2.50000E+001	AC &Voltage (mV rms)
AREA	QUANT	4.00000E-005	&Area (cm^2)
CONDIT	TWOPARAM	F	5.00000E+000	0.00000E+000	Conditionin&g	Time(s)	E(V)
DELAY	TWOPARAM	F	3.00000E+000	0.00000E+000	Init. De&lay	Time(s)	Stab.(mV/s)
SPEED	SELECTOR	0	&Optimize for:
ZGUESS	QUANT	1.00000E+003	E&stimated Z (ohms)
OCVCURVE	TABLE	39
	Pt	T	Vf	Vm	Ach	Over
	#	s	V vs. Ref.	V	V	bits
	0	0.258333	-1.83774E-001	-1.83774E-001	5.55559E-004	...........
	1	0.516667	-1.83774E-001	-1.83784E-001	5.54992E-004	...........
	2	0.775	-1.83775E-001	-1.83791E-001	5.54325E-004	...........
	3	1.03333	-1.83778E-001	-1.83799E-001	5.54392E-004	...........
	4	1.29167	-1.83784E-001	-1.83808E-001	5.53959E-004	...........
	5	1.55	-1.83791E-001	-1.83813E-001	5.55192E-004	...........
	6	1.80833	-1.83798E-001	-1.83821E-001	5.55525E-004	...........
	7	2.06667	-1.83806E-001	-1.83831E-001	5.55259E-004	...........
	8	2.325	-1.83813E-001	-1.83843E-001	5.56359E-004	...........
	9	2.58333	-1.83822E-001	-1.83848E-001	5.54159E-004	...........
	10	2.84167	-1.83831E-001	-1.83854E-001	5.61959E-004	...........
	11	3.1	-1.83839E-001	-1.83863E-001	5.62725E-004	...........
	12	3.35833	-1.83847E-001	-1.83874E-001	5.54125E-004	...........
	13	3.61667	-1.83855E-001	-1.83881E-001	5.67258E-004	...........
	14	3.875	-1.83863E-001	-1.83887E-001	5.62125E-004	...........
	15	4.13333	-1.83871E-001	-1.83895E-001	5.57425E-004	...........
	16	4.39167	-1.83879E-001	-1.83902E-001	5.55659E-004	...........
	17	4.65	-1.83887E-001	-1.83913E-001	5.57225E-004	...........
	18	4.90833	-1.83895E-001	-1.83920E-001	5.60959E-004	...........
	19	5.16667	-1.83903E-001	-1.83928E-001	5.56425E-004	...........
	20	5.425	-1.83911E-001	-1.83934E-001	5.58459E-004	...........
	21	5.68333	-1.83919E-001	-1.83945E-001	5.59992E-004	...........
	22	5.94167	-1.83927E-001	-1.83953E-001	5.63159E-004	...........
	23	6.2	-1.83935E-001	-1.83959E-001	5.58225E-004	...........
	24	6.45833	-1.83943E-001	-1.83966E-001	5.57159E-004	...........
	25	6.71667	-1.83951E-001	-1.83971E-001	5.59659E-004	...........
	26	6.975	-1.83958E-001	-1.83979E-001	5.59692E-004	...........
	27	7.23333	-1.83965E-001	-1.83986E-001	5.61992E-004	...........
	28	7.49167	-1.83972E-001	-1.83994E-001	5.64392E-004	...........
	29	7.75	-1.83979E-001	-1.83996E-001	5.62425E-004	...........
	30	8.00833	-1.83985E-001	-1.84003E-001	5.57825E-004	...........
	31	8.26667	-1.83992E-001	-1.84012E-001	5.61125E-004	...........
	32	8.525	-1.83998E-001	-1.84019E-001	5.62759E-004	...........
	33	8.78333	-1.84004E-001	-1.84023E-001	5.60225E-004	...........
	34	9.04167	-1.84011E-001	-1.84034E-001	5.60992E-004	...........
	35	9.3	-1.84018E-001	-1.84040E-001	5.58125E-004	...........
	36	9.5583	-1.84025E-001	-1.84047E-001	5.58492E-004	...........
	37	9.8167	-1.84032E-001	-1.84053E-001	5.61792E-004	...........
	38	10.075	-1.84039E-001	-1.84057E-001	5.61725E-004	...........
EOC	QUANT	-0.184039	Open Circuit (V)
PSTATMODEL	IQUANT	4	Pstat Model
PSTATSECTION	LABEL	REF600-11020	Pstat Section
PSTATSERIALNO	LABEL	11020	Pstat Serial Number
CTRLMODE	IQUANT	1	Control Mode
IESTAB	IQUANT	0	I/E Stability
CASPEED	IQUANT	1	Control Amp Speed
CONVENTION	IQUANT	1	Current Convention
ICHRANGE	IQUANT	2	Ich Range
ICHRANGEMODE	TOGGLE	F	Ich Auto Range
ICHOFFSETENABLE	TOGGLE	T	Ich Offset Enable
ICHOFFSET	QUANT	0	Ich Offset (V)
ICHFILTER	IQUANT	3	Ich Filter
VCHRANGE	IQUANT	2	Vch Range
VCHRANGEMODE	TOGGLE	F	Vch Auto Range
VCHOFFSETENABLE	TOGGLE	T	Vch Offset Enable
VCHOFFSET	QUANT	0	Vch Offset (V)
VCHFILTER	IQUANT	3	Vch Filter
ACHRANGE	IQUANT	2	Ach Range
ACHOFFSETENABLE	TOGGLE	F	Ach Offset Enable
ACHOFFSET	QUANT	0	Ach Offset (V)
ACHFILTER	IQUANT	3	Ach Filter
IERANGELOWERLIMIT	IQUANT	1	I/E Range Lower Limit
IERANGEMODE	TOGGLE	F	I/E AutoRange
IERANGE	IQUANT	8	I/E Range
POSFEEDENABLE	TOGGLE	F	Positive Feedback IR Comp
POSFEEDRESISTANCE	QUANT	0	Positive Feedback Resistance (ohm)
ACHSELECT	IQUANT	0	Ach Select
CABLEID	IQUANT	14	Cable ID
DCCALDATE	LABEL	9/1/2020	DC Calibration Date
ACCALDATE	LABEL	9/1/2020	AC Calibration Date
THERMOSELECT	IQUANT	1	Thermo Select
FRAMEWORKVERSION	QUANT	6.33	Framework Version
INSTRUMENTVERSION	LABEL	3.50	Instrument Version
ZCURVE	TABLE
	Pt	Time	Freq	Zreal	Zimag	Zsig	Zmod	Zphz	Idc	Vdc	IERange
	#	s	Hz	ohm	ohm	V	ohm	°	A	V	#
	0	1	1000078	1939.574	-1769.57	1	2625.514	-42.37575	5.156114E-008	-0.1818971	8
	1	1	794390.6	2282.702	-1824.249	1	2922.09	-38.63053	4.761029E-008	-0.1821871	8
	2	2	630984.4	2628.754	-1831.714	1	3203.985	-34.86875	1.50824E-008	-0.1823166	8
	3	2	501234.4	2960.986	-1804.03	1	3467.27	-31.35255	1.058688E-007	-0.1824503	8
	4	2	398109.4	3268.941	-1743.765	1	3704.955	-28.07699	4.90338E-008	-0.1824902	8
	5	3	316265.6	3546.838	-1668.003	1	3919.476	-25.18661	2.731715E-008	-0.1825172	8
	6	3	251203.1	3790.081	-1581.503	1	4106.807	-22.64952	9.670229E-009	-0.1824971	8
	7	3	199546.9	4014.778	-1499.105	1	4285.529	-20.47546	6.69145E-008	-0.1825159	8
	8	3	158578.1	4208.211	-1427.529	1	4443.747	-18.7382	6.485905E-008	-0.1825183	8
	9	4	125953.1	4411.223	-1347.515	1	4612.449	-16.98657	-4.033885E-009	-0.1825237	7
	10	4	100078.1	4573.828	-1299.768	1	4754.923	-15.86384	3.949758E-009	-0.1825314	7
	11	4	79453.13	4726.357	-1278.298	1	4896.171	-15.13422	4.070708E-010	-0.1825429	7
	12	5	63140.62	4874.467	-1275.534	1	5038.593	-14.66416	4.435763E-009	-0.1825334	7
	13	5	50203.12	5020.086	-1289.354	1	5183.021	-14.40444	1.596312E-009	-0.1825368	7
	14	5	39890.62	5167.434	-1321.742	1	5333.796	-14.34767	4.523279E-009	-0.1825461	7
	15	6	31640.63	5319.925	-1373.213	1	5494.299	-14.47361	5.321199E-010	-0.1825498	7
	16	6	25171.88	5477.157	-1444.831	1	5664.52	-14.77755	4.58579E-009	-0.1825418	7
	17	6	20015.62	5642.175	-1536.213	1	5847.571	-15.2309	1.296271E-009	-0.1825473	7
	18	7	15890.62	5819.577	-1650.685	1	6049.152	-15.83564	3.820798E-010	-0.1825507	7
	19	7	12609.37	6009.751	-1789.891	1	6270.631	-16.58517	4.802492E-010	-0.1825587	7
	20	7	10078.13	6210.718	-1949.588	1	6509.525	-17.42744	1.586657E-009	-0.1825576	7
	21	8	8015.625	6432.325	-2141.011	1	6779.287	-18.41011	1.121145E-009	-0.1825566	7
	22	8	6328.125	6682.41	-2373.123	1	7091.284	-19.55147	2.691189E-009	-0.1825533	7
	23	8	5015.625	6949.004	-2638.279	1	7432.979	-20.78991	3.587404E-009	-0.1825614	7
	24	9	3984.375	7237.368	-2944.78	1	7813.528	-22.14069	2.215333E-009	-0.1825569	7
	25	9	3170.956	7548.974	-3300.831	1	8239.083	-23.61762	2.348485E-009	-0.182557	7
	26	9	2527.573	7891.576	-3717.19	1	8723.215	-25.22197	5.023074E-009	-0.1825572	7
	27	9	1976.103	8314.896	-4230.198	1	9329.098	-26.96469	5.828847E-011	-0.1825618	6
	28	10	1577.524	8733.646	-4804.301	1	9967.84	-28.8148	6.21796E-010	-0.1825636	6
	29	10	1265.625	9188.55	-5454.697	1	10685.65	-30.69509	-1.440852E-010	-0.1825632	6
	30	10	998.264	9740.84	-6277.569	1	11588.44	-32.80011	6.525326E-011	-0.1825635	6
	31	11	796.875	10323.77	-7189.212	1	12580.34	-34.85237	-5.572556E-010	-0.1825633	6
	32	11	627.7902	11013.06	-8327.476	1	13807.04	-37.09459	-4.326578E-011	-0.182571	6
	33	11	505.5147	11715.81	-9541.5	1	15109.61	-39.1598	-3.450389E-010	-0.1825686	6
	34	12	397.9953	12565.92	-11134.31	1	16789.14	-41.54325	5.71869E-010	-0.1825598	6
	35	12	315.5048	13495.06	-12988.93	1	18730.44	-43.90517	5.499454E-010	-0.1825542	6
	36	12	252.4038	14500.24	-15129.25	1	20955.93	-46.21614	4.88924E-010	-0.1825541	6
	37	13	198.6229	15744.1	-17904.35	1	23842.03	-48.67338	4.549429E-010	-0.1825554	6
	38	13	158.3615	17122.07	-21077.54	1	27155.63	-50.91176	3.070746E-010	-0.1825584	6
	39	13	125.558	18801.22	-24990.77	1	31273.38	-53.04488	3.289952E-010	-0.1825576	6
	40	14	100.4464	20744.04	-29492.85	1	36057.5	-54.87905	1.811571E-010	-0.1825593	6
	41	14	79.00281	23298.99	-35291.16	1	42288.4	-56.56747	2.471219E-010	-0.1825592	6
	42	14	63.3446	26186.02	-41634.57	1	49184.8	-57.8322	1.231939E-010	-0.1825609	6
	43	15	49.86702	30058.8	-49758.42	1	58132.88	-58.86405	5.772269E-010	-0.182567	6
	44	15	39.72458	34624.55	-58858.53	1	68287.52	-59.53309	2.389031E-010	-0.1825621	6
	45	15	31.6723	40242.39	-69442.18	1	80259.99	-59.90731	1.413117E-010	-0.1825628	6
	46	16	24.93351	47616	-82405.98	1	95173.7	-59.97972	2.015075E-012	-0.1825655	6
	47	16	19.86229	56254.29	-96581.1	1	111769.7	-59.78106	-1.309227E-009	-0.1825757	5
	48	16	15.83615	66870.51	-112726.2	1	131068.1	-59.32307	6.237387E-010	-0.1825712	5
	49	17	12.40079	81003.48	-132366.6	1	155185.3	-58.5349	-7.317512E-010	-0.1825659	5
	50	17	9.93114	96335.2	-152474.5	1	180357.8	-57.71482	-3.310585E-010	-0.1825733	5
	51	17	7.944915	114729.8	-174502.1	1	208839.4	-56.67631	1.184997E-009	-0.1825749	5
	52	18	6.317385	137380.6	-199678.6	1	242373.6	-55.47169	-3.556582E-010	-0.1825503	5
	53	18	5.008013	164470.1	-227327.7	1	280585.6	-54.11451	-3.816516E-010	-0.1825713	5
	54	19	3.945707	196354.9	-257119.8	1	323521	-52.63208	4.000474E-010	-0.1825634	5
	55	20	3.158693	230934.9	-286850.1	1	368257.9	-51.16344	-2.196767E-010	-0.1825632	5
	56	21	2.504006	270418.8	-318962.4	1	418166.7	-49.70846	-6.585404E-011	-0.1825814	5
	57	23	1.998082	313141	-351662.7	1	470875.7	-48.31627	3.390699E-010	-0.182534	5
	58	24	1.584686	359028	-388075.8	1	528681.4	-47.22657	2.740584E-010	-0.182565	5
	59	26	1.266892	407446.7	-424793.2	1	588610.3	-46.19405	1.381081E-010	-0.1826068	5
	60	29	0.999041	462867.3	-468549.3	1	658623.3	-45.34952	4.029306E-011	-0.1826245	5
