EXPLAIN
TAG	EISPOT
TITLE	LABEL	Potentiostatic EIS	Test &Identifier
DATE	LABEL	6/26/2020	Date
TIME	LABEL	13:28:03	Time
NOTES	NOTES	1	&Notes...
	
PSTAT	PSTAT	REF600-11020	Potentiostat
VDC	POTEN	0.00000E+000	T	DC &Voltage (V)
FREQINIT	QUANT	1.00000E+006	Initial Fre&q. (Hz)
FREQFINAL	QUANT	1.00000E+000	Final Fre&q. (Hz)
PTSPERDEC	QUANT	1.00000E+001	Points/&decade
VAC	QUANT	2.50000E+001	AC &Voltage (mV rms)
AREA	QUANT	4.00000E-004	&Area (cm^2)
CONDIT	TWOPARAM	F	5.00000E+000	0.00000E+000	Conditionin&g	Time(s)	E(V)
DELAY	TWOPARAM	F	3.00000E+000	0.00000E+000	Init. De&lay	Time(s)	Stab.(mV/s)
SPEED	SELECTOR	0	&Optimize for:
ZGUESS	QUANT	1.00000E+003	E&stimated Z (ohms)
OCVCURVE	TABLE	39
	Pt	T	Vf	Vm	Ach	Over
	#	s	V vs. Ref.	V	V	bits
	0	0.258333	7.54926E-002	7.54926E-002	5.19083E-004	...........
	1	0.516667	7.54927E-002	7.54987E-002	5.16883E-004	...........
	2	0.775	7.54935E-002	7.55097E-002	5.17883E-004	...........
	3	1.03333	7.54961E-002	7.55193E-002	5.26350E-004	...........
	4	1.29167	7.55014E-002	7.55266E-002	5.19683E-004	...........
	5	1.55	7.55088E-002	7.55379E-002	5.19183E-004	...........
	6	1.80833	7.55176E-002	7.55437E-002	5.16750E-004	...........
	7	2.06667	7.55266E-002	7.55506E-002	5.16217E-004	...........
	8	2.325	7.55352E-002	7.55608E-002	5.21750E-004	...........
	9	2.58333	7.55433E-002	7.55668E-002	5.16817E-004	...........
	10	2.84167	7.55513E-002	7.55778E-002	5.16917E-004	...........
	11	3.1	7.55593E-002	7.55855E-002	5.19050E-004	...........
	12	3.35833	7.55677E-002	7.55942E-002	5.18117E-004	...........
	13	3.61667	7.55762E-002	7.56002E-002	5.17883E-004	...........
	14	3.875	7.55846E-002	7.56074E-002	5.16050E-004	...........
	15	4.13333	7.55925E-002	7.56179E-002	5.19250E-004	...........
	16	4.39167	7.56003E-002	7.56269E-002	5.19150E-004	...........
	17	4.65	7.56084E-002	7.56373E-002	5.19550E-004	...........
	18	4.90833	7.56171E-002	7.56439E-002	5.18617E-004	...........
	19	5.16667	7.56261E-002	7.56505E-002	5.20483E-004	...........
	20	5.425	7.56348E-002	7.56580E-002	5.19150E-004	...........
	21	5.68333	7.56429E-002	7.56687E-002	5.13117E-004	...........
	22	5.94167	7.56508E-002	7.56785E-002	5.17650E-004	...........
	23	6.2	7.56590E-002	7.56836E-002	5.16283E-004	...........
	24	6.45833	7.56674E-002	7.56866E-002	5.16350E-004	...........
	25	6.71667	7.56752E-002	7.56960E-002	5.19383E-004	...........
	26	6.975	7.56821E-002	7.57014E-002	5.18583E-004	...........
	27	7.23333	7.56885E-002	7.57086E-002	5.19517E-004	...........
	28	7.49167	7.56948E-002	7.57156E-002	5.19683E-004	...........
	29	7.75	7.57014E-002	7.57218E-002	5.18717E-004	...........
	30	8.00833	7.57080E-002	7.57288E-002	5.16983E-004	...........
	31	8.26667	7.57147E-002	7.57327E-002	5.18750E-004	...........
	32	8.525	7.57211E-002	7.57368E-002	5.12217E-004	...........
	33	8.78333	7.57270E-002	7.57435E-002	5.14483E-004	...........
	34	9.04167	7.57323E-002	7.57488E-002	5.20150E-004	...........
	35	9.3	7.57376E-002	7.57594E-002	5.16483E-004	...........
	36	9.5583	7.57434E-002	7.57610E-002	5.17783E-004	...........
	37	9.8167	7.57496E-002	7.57673E-002	5.15083E-004	...........
	38	10.075	7.57558E-002	7.57731E-002	5.15283E-004	...........
EOC	QUANT	0.0757558	Open Circuit (V)
PSTATMODEL	IQUANT	4	Pstat Model
PSTATSECTION	LABEL	REF600-11020	Pstat Section
PSTATSERIALNO	LABEL	11020	Pstat Serial Number
CTRLMODE	IQUANT	1	Control Mode
IESTAB	IQUANT	0	I/E Stability
CASPEED	IQUANT	1	Control Amp Speed
CONVENTION	IQUANT	1	Current Convention
ICHRANGE	IQUANT	2	Ich Range
ICHRANGEMODE	TOGGLE	F	Ich Auto Range
ICHOFFSETENABLE	TOGGLE	T	Ich Offset Enable
ICHOFFSET	QUANT	0	Ich Offset (V)
ICHFILTER	IQUANT	3	Ich Filter
VCHRANGE	IQUANT	2	Vch Range
VCHRANGEMODE	TOGGLE	F	Vch Auto Range
VCHOFFSETENABLE	TOGGLE	T	Vch Offset Enable
VCHOFFSET	QUANT	0	Vch Offset (V)
VCHFILTER	IQUANT	3	Vch Filter
ACHRANGE	IQUANT	2	Ach Range
ACHOFFSETENABLE	TOGGLE	F	Ach Offset Enable
ACHOFFSET	QUANT	0	Ach Offset (V)
ACHFILTER	IQUANT	3	Ach Filter
IERANGELOWERLIMIT	IQUANT	1	I/E Range Lower Limit
IERANGEMODE	TOGGLE	F	I/E AutoRange
IERANGE	IQUANT	8	I/E Range
POSFEEDENABLE	TOGGLE	F	Positive Feedback IR Comp
POSFEEDRESISTANCE	QUANT	0	Positive Feedback Resistance (ohm)
ACHSELECT	IQUANT	0	Ach Select
CABLEID	IQUANT	14	Cable ID
DCCALDATE	LABEL	6/26/2020	DC Calibration Date
ACCALDATE	LABEL	6/26/2020	AC Calibration Date
THERMOSELECT	IQUANT	1	Thermo Select
FRAMEWORKVERSION	QUANT	6.33	Framework Version
INSTRUMENTVERSION	LABEL	3.50	Instrument Version
ZCURVE	TABLE
	Pt	Time	Freq	Zreal	Zimag	Zsig	Zmod	Zphz	Idc	Vdc	IERange
	#	s	Hz	ohm	ohm	V	ohm	°	A	V	#
	0	1	1000078	1171.002	-496.8149	1	1272.034	-22.98981	1.932076E-007	0.0783758	8
	1	2	794390.6	1238.966	-492.0161	1	1333.086	-21.65893	1.153711E-007	0.0779752	8
	2	2	630984.4	1302.336	-491.0118	1	1391.823	-20.65764	7.575603E-008	0.0777642	8
	3	2	501234.4	1362.686	-495.5382	1	1449.99	-19.98371	7.86571E-008	0.0776632	8
	4	3	398109.4	1421.397	-506.4167	1	1508.916	-19.61001	4.410395E-008	0.0775882	8
	5	3	316265.6	1482.37	-524.129	1	1572.302	-19.47232	2.340861E-007	0.0775378	8
	6	3	251203.1	1547.541	-551.3774	1	1642.833	-19.6106	-6.899604E-009	0.0775537	8
	7	3	199546.9	1615.015	-586.0718	1	1718.067	-19.9453	3.374395E-007	0.0775063	8
	8	4	158578.1	1691.629	-625.8412	1	1803.686	-20.30265	-2.668608E-009	0.0775453	8
	9	4	125953.1	1789.823	-655.2207	1	1905.985	-20.10674	-2.805614E-008	0.0775954	7
	10	4	100078.1	1889.617	-704.9117	1	2016.818	-20.45777	-1.451803E-008	0.0775377	7
	11	5	79453.13	1990.562	-762.0385	1	2131.441	-20.94814	-2.989977E-008	0.0775345	7
	12	5	63140.62	2102.154	-820.7211	1	2256.686	-21.32663	6.073795E-009	0.0775154	7
	13	5	50203.12	2225.535	-879.077	1	2392.861	-21.55381	2.55358E-008	0.0774393	7
	14	6	39890.62	2357.654	-934.699	1	2536.177	-21.626	1.713454E-008	0.077494	7
	15	6	31640.63	2499.757	-989.511	1	2688.478	-21.59578	3.229121E-008	0.0774586	7
	16	6	25171.88	2645.509	-1041.422	1	2843.11	-21.48742	2.439789E-008	0.0774299	7
	17	7	20015.62	2795.521	-1092.289	1	3001.338	-21.34199	-2.045511E-008	0.077479	7
	18	7	15890.62	2948.513	-1143.771	1	3162.584	-21.202	-4.524804E-009	0.0775117	7
	19	7	12609.37	3103.13	-1200.389	1	3327.214	-21.14805	2.506826E-008	0.0774282	7
	20	8	10078.13	3249.59	-1259.668	1	3485.197	-21.18828	-3.471959E-008	0.077502	7
	21	8	8015.625	3396.697	-1333.589	1	3649.111	-21.43564	3.285837E-008	0.0774543	7
	22	8	6328.125	3543.917	-1428.759	1	3821.086	-21.95722	3.335848E-008	0.0774531	7
	23	8	5015.625	3686.598	-1550.778	1	3999.49	-22.81419	-2.039572E-008	0.0774711	7
	24	9	3984.375	3828.021	-1706.988	1	4191.366	-24.03301	-3.521806E-008	0.0775015	7
	25	9	3170.956	3974.901	-1905.642	1	4408.096	-25.61393	2.861251E-008	0.0774668	7
	26	9	2527.573	4132.228	-2152.826	1	4659.396	-27.5188	-2.372587E-008	0.0775144	7
	27	10	1976.103	4322.847	-2487.718	1	4987.56	-29.91962	-2.462443E-008	0.0775155	7
	28	10	1577.524	4521.071	-2863.269	1	5351.485	-32.34675	-3.270523E-008	0.0775136	7
	29	10	1265.625	4741.823	-3300.644	1	5777.468	-34.84064	-3.466486E-008	0.0775109	7
	30	11	998.264	5004.748	-3862.907	1	6322.148	-37.6627	-2.929971E-008	0.0774879	7
	31	11	796.875	5281.502	-4501.691	1	6939.704	-40.44263	3.368456E-008	0.0774437	7
	32	11	627.7902	5608.348	-5315.103	1	7726.829	-43.46223	-3.402758E-008	0.0774935	7
	33	12	505.5147	5919.724	-6208.691	1	8578.519	-46.36485	2.279135E-008	0.0774662	7
	34	12	397.9953	6304.879	-7425.304	1	9740.98	-49.66517	3.325785E-009	0.0774932	7
	35	12	315.5048	6730.065	-8880.854	1	11142.86	-52.84452	4.66237E-010	0.0774852	6
	36	13	252.4038	7197.39	-10601.5	1	12813.83	-55.82731	3.540392E-010	0.0774808	6
	37	13	198.6229	7791.371	-12876.49	1	15050.23	-58.8225	3.790172E-010	0.0774785	6
	38	13	158.3615	8469.287	-15522.17	1	17682.38	-61.382	3.583946E-010	0.0774776	6
	39	14	125.558	9317.732	-18839.86	1	21018.1	-63.68413	4.030526E-010	0.0774754	6
	40	14	100.4464	10323.43	-22727.48	1	24962.2	-65.57117	1.333909E-010	0.0774723	6
	41	14	79.00281	11672.3	-27843.63	1	30191.23	-67.25614	2.085281E-010	0.0774748	6
	42	15	63.3446	13227.57	-33561.85	1	36074.46	-68.48936	1.964936E-010	0.077473	6
	43	15	49.86702	15386.19	-41101.51	1	43887	-69.47681	1.686768E-010	0.0774733	6
	44	15	39.72458	18021.83	-49804.58	1	52964.91	-70.1073	4.290486E-010	0.0774778	6
	45	16	31.6723	21400.7	-60239.95	1	63928.41	-70.44204	4.640109E-010	0.0774745	6
	46	16	24.93351	25986.05	-73423.06	1	77885.95	-70.51	-2.096954E-010	0.0774744	6
	47	16	19.86229	31661.45	-88493	1	93986.48	-70.31357	-4.27678E-010	0.077477	6
	48	16	15.83615	38946.53	-105971.9	1	112902	-69.82073	1.322523E-010	0.0774632	5
	49	17	12.40079	49023.29	-128291.6	1	137339	-69.08694	1.013066E-009	0.0774616	5
	50	17	9.93114	60253.48	-151915.1	1	163427.9	-68.36544	6.278564E-010	0.0774654	5
	51	17	7.944915	74399.44	-179282	1	194106.4	-67.46226	-5.333054E-010	0.0774642	5
	52	18	6.317385	91950.06	-211572.8	1	230689.9	-66.51011	3.695131E-010	0.0774505	5
	53	19	5.008013	113582.8	-249235.8	1	273896.9	-65.5001	4.044621E-010	0.0774686	5
	54	20	3.945707	140057	-293139.2	1	324879.3	-64.46231	-3.12319E-011	0.0774571	5
	55	20	3.158693	169257.9	-340269.4	1	380041.5	-63.55318	2.61811E-010	0.0774662	5
	56	21	2.504006	204264.7	-395936.8	1	445522.2	-62.71069	1.22455E-010	0.0774557	5
	57	23	1.998082	243532.8	-458516.1	1	519177.5	-62.02578	-1.578623E-011	0.077406	5
	58	24	1.584686	288780.7	-531552.1	1	604931.4	-61.48573	4.737594E-011	0.0774408	5
	59	26	1.266892	340971.6	-613311.7	1	701721.4	-60.92806	9.645538E-011	0.0774745	5
	60	29	0.999041	404575.6	-715959.4	1	822362.1	-60.53	1.195098E-010	0.077484	5
