EXPLAIN
TAG	EISPOT
TITLE	LABEL	Potentiostatic EIS	Test &Identifier
DATE	LABEL	2/6/2020	Date
TIME	LABEL	18:19:42	Time
NOTES	NOTES	6	&Notes...
	
	
	
	
	
	
PSTAT	PSTAT	REF600-11020	Potentiostat
VDC	POTEN	0.00000E+000	T	DC &Voltage (V)
FREQINIT	QUANT	1.00000E+006	Initial Fre&q. (Hz)
FREQFINAL	QUANT	1.00000E+000	Final Fre&q. (Hz)
PTSPERDEC	QUANT	1.00000E+001	Points/&decade
VAC	QUANT	2.50000E+001	AC &Voltage (mV rms)
AREA	QUANT	1.60000E-004	&Area (cm^2)
CONDIT	TWOPARAM	F	5.00000E+000	0.00000E+000	Conditionin&g	Time(s)	E(V)
DELAY	TWOPARAM	F	5.00000E+000	0.00000E+000	Init. De&lay	Time(s)	Stab.(mV/s)
SPEED	SELECTOR	0	&Optimize for:
ZGUESS	QUANT	1.00000E+003	E&stimated Z (ohms)
OCVCURVE	TABLE	39
	Pt	T	Vf	Vm	Ach	Over
	#	s	V vs. Ref.	V	V	bits
	0	0.258333	-1.39491E-002	-1.39491E-002	5.96504E-004	...........
	1	0.516667	-1.39489E-002	-1.39380E-002	5.95104E-004	...........
	2	0.775	-1.39476E-002	-1.39279E-002	5.95171E-004	...........
	3	1.03333	-1.39436E-002	-1.38990E-002	5.92904E-004	...........
	4	1.29167	-1.39349E-002	-1.38717E-002	5.94837E-004	...........
	5	1.55	-1.39201E-002	-1.38465E-002	5.95604E-004	...........
	6	1.80833	-1.38995E-002	-1.38275E-002	5.97504E-004	...........
	7	2.06667	-1.38759E-002	-1.38032E-002	5.89837E-004	...........
	8	2.325	-1.38518E-002	-1.37872E-002	5.92104E-004	...........
	9	2.58333	-1.38291E-002	-1.37746E-002	5.87304E-004	...........
	10	2.84167	-1.38088E-002	-1.37629E-002	5.94137E-004	...........
	11	3.1	-1.37914E-002	-1.37536E-002	5.94004E-004	...........
	12	3.35833	-1.37770E-002	-1.37442E-002	5.94004E-004	...........
	13	3.61667	-1.37650E-002	-1.37357E-002	5.96937E-004	...........
	14	3.875	-1.37546E-002	-1.37274E-002	5.99037E-004	...........
	15	4.13333	-1.37455E-002	-1.37337E-002	6.00470E-004	...........
	16	4.39167	-1.37384E-002	-1.37364E-002	6.05337E-004	...........
	17	4.65	-1.37343E-002	-1.37325E-002	5.99470E-004	...........
	18	4.90833	-1.37330E-002	-1.37264E-002	6.00070E-004	...........
	19	5.16667	-1.37322E-002	-1.37163E-002	6.03070E-004	...........
	20	5.425	-1.37297E-002	-1.37104E-002	5.98937E-004	...........
	21	5.68333	-1.37248E-002	-1.36983E-002	5.95504E-004	...........
	22	5.94167	-1.37177E-002	-1.36882E-002	5.93204E-004	...........
	23	6.2	-1.37092E-002	-1.36860E-002	5.95970E-004	...........
	24	6.45833	-1.37005E-002	-1.36838E-002	5.94837E-004	...........
	25	6.71667	-1.36930E-002	-1.36799E-002	5.95637E-004	...........
	26	6.975	-1.36874E-002	-1.36769E-002	5.94437E-004	...........
	27	7.23333	-1.36835E-002	-1.36780E-002	5.93671E-004	...........
	28	7.49167	-1.36806E-002	-1.36716E-002	5.96604E-004	...........
	29	7.75	-1.36781E-002	-1.36696E-002	5.91771E-004	...........
	30	8.00833	-1.36756E-002	-1.36652E-002	5.91004E-004	...........
	31	8.26667	-1.36728E-002	-1.36672E-002	5.92371E-004	...........
	32	8.525	-1.36700E-002	-1.36671E-002	5.94271E-004	...........
	33	8.78333	-1.36680E-002	-1.36649E-002	5.93971E-004	...........
	34	9.04167	-1.36668E-002	-1.36604E-002	5.95837E-004	...........
	35	9.3	-1.36656E-002	-1.36586E-002	5.99337E-004	...........
	36	9.5583	-1.36638E-002	-1.36588E-002	5.94037E-004	...........
	37	9.8167	-1.36618E-002	-1.36591E-002	5.94404E-004	...........
	38	10.075	-1.36602E-002	-1.36582E-002	5.92637E-004	...........
EOC	QUANT	-0.0136602	Open Circuit (V)
PSTATMODEL	IQUANT	4	Pstat Model
PSTATSECTION	LABEL	REF600-11020	Pstat Section
PSTATSERIALNO	LABEL	11020	Pstat Serial Number
CTRLMODE	IQUANT	1	Control Mode
IESTAB	IQUANT	0	I/E Stability
CASPEED	IQUANT	1	Control Amp Speed
CONVENTION	IQUANT	1	Current Convention
ICHRANGE	IQUANT	2	Ich Range
ICHRANGEMODE	TOGGLE	F	Ich Auto Range
ICHOFFSETENABLE	TOGGLE	T	Ich Offset Enable
ICHOFFSET	QUANT	0	Ich Offset (V)
ICHFILTER	IQUANT	3	Ich Filter
VCHRANGE	IQUANT	2	Vch Range
VCHRANGEMODE	TOGGLE	F	Vch Auto Range
VCHOFFSETENABLE	TOGGLE	T	Vch Offset Enable
VCHOFFSET	QUANT	0	Vch Offset (V)
VCHFILTER	IQUANT	3	Vch Filter
ACHRANGE	IQUANT	2	Ach Range
ACHOFFSETENABLE	TOGGLE	F	Ach Offset Enable
ACHOFFSET	QUANT	0	Ach Offset (V)
ACHFILTER	IQUANT	3	Ach Filter
IERANGELOWERLIMIT	IQUANT	1	I/E Range Lower Limit
IERANGEMODE	TOGGLE	F	I/E AutoRange
IERANGE	IQUANT	7	I/E Range
POSFEEDENABLE	TOGGLE	F	Positive Feedback IR Comp
POSFEEDRESISTANCE	QUANT	0	Positive Feedback Resistance (ohm)
ACHSELECT	IQUANT	0	Ach Select
CABLEID	IQUANT	14	Cable ID
DCCALDATE	LABEL	1/27/2020	DC Calibration Date
ACCALDATE	LABEL	1/27/2020	AC Calibration Date
THERMOSELECT	IQUANT	1	Thermo Select
FRAMEWORKVERSION	QUANT	6.33	Framework Version
INSTRUMENTVERSION	LABEL	3.50	Instrument Version
ZCURVE	TABLE
	Pt	Time	Freq	Zreal	Zimag	Zsig	Zmod	Zphz	Idc	Vdc	IERange
	#	s	Hz	ohm	ohm	V	ohm	°	A	V	#
	0	1	1000078	1865.474	-945.4684	1	2091.388	-26.87702	-7.416918E-007	-0.011522	8
	1	2	794390.6	2013.571	-936.0982	1	2220.529	-24.93346	1.978338E-006	-0.0122295	8
	2	2	630984.4	2150.771	-911.2462	1	2335.848	-22.96157	-3.608863E-007	-0.0119408	8
	3	2	501234.4	2287.53	-889.7579	1	2454.478	-21.25405	-1.116215E-006	-0.0118792	8
	4	3	398109.4	2414.532	-867.2982	1	2565.574	-19.75825	-2.500079E-006	-0.0116764	8
	5	3	316265.6	2533.07	-839.9654	1	2668.705	-18.34551	-9.558695E-007	-0.0120341	8
	6	3	251203.1	2656.169	-821.9426	1	2780.436	-17.1945	9.120809E-007	-0.0123955	8
	7	4	199546.9	2773.667	-788.6128	1	2883.598	-15.87158	1.528798E-006	-0.0125192	8
	8	4	158578.1	2876.169	-792.4774	1	2983.348	-15.4046	1.389406E-007	-0.012273	8
	9	4	125953.1	2994.281	-740.8104	1	3084.561	-13.89641	4.2521E-007	-0.0131966	7
	10	4	100078.1	3093.862	-735.8599	1	3180.168	-13.37893	4.342854E-008	-0.0122266	7
	11	5	79453.13	3186.246	-746.3428	1	3272.49	-13.18322	-3.341002E-008	-0.0122011	7
	12	5	63140.62	3279.817	-762.4132	1	3367.265	-13.08634	9.748124E-008	-0.0123701	7
	13	5	50203.12	3374.065	-784.5076	1	3464.068	-13.08934	5.096774E-009	-0.0122207	7
	14	6	39890.62	3471.764	-812.998	1	3565.685	-13.17971	4.38958E-008	-0.0122397	7
	15	6	31640.63	3572.81	-851.2064	1	3672.809	-13.40065	1.826266E-008	-0.012294	7
	16	6	25171.88	3676.134	-896.848	1	3783.953	-13.71034	-1.753599E-008	-0.0121638	7
	17	7	20015.62	3783.296	-951.124	1	3901.021	-14.11176	9.771878E-008	-0.012375	7
	18	7	15890.62	3894.284	-1018.027	1	4025.15	-14.65016	6.478146E-008	-0.012349	7
	19	7	12609.37	4008.151	-1098.743	1	4156.021	-15.32975	-1.380579E-008	-0.0121424	7
	20	8	10078.13	4122.788	-1192.907	1	4291.9	-16.13752	-1.421207E-008	-0.012147	7
	21	8	8015.625	4243.884	-1313.788	1	4442.588	-17.20106	3.119916E-009	-0.01229	7
	22	8	6328.125	4380.696	-1468.307	1	4620.219	-18.52995	-1.842048E-008	-0.0121651	7
	23	9	5015.625	4528.524	-1652.36	1	4820.563	-20.04593	-1.457308E-008	-0.0121495	7
	24	9	3984.375	4692.559	-1868.259	1	5050.792	-21.7091	1.947062E-008	-0.0122631	7
	25	9	3170.956	4875.472	-2123.614	1	5317.891	-23.53654	4.924877E-009	-0.0122994	7
	26	10	2527.573	5082.512	-2421.122	1	5629.721	-25.47141	-3.679018E-008	-0.0121663	7
	27	10	1976.103	5332.414	-2791.79	1	6019.03	-27.63435	3.673147E-009	-0.0122997	7
	28	10	1577.524	5580.279	-3184.401	1	6424.945	-29.71136	-2.685954E-008	-0.0122315	7
	29	10	1265.625	5836.001	-3645.549	1	6881.056	-31.9916	-4.483498E-009	-0.0122222	7
	30	11	998.264	7130.214	-4234.261	1	7450.402	-34.63361	-3.674664E-008	-0.0121932	7
	31	11	796.875	6428.824	-4915.043	1	8092.43	-37.39908	-1.374382E-008	-0.0122544	7
	32	11	627.7902	6760.343	-5813.867	1	8916.461	-40.69539	-1.353443E-008	-0.0121579	7
	33	12	505.5147	7106.921	-6805.206	1	9839.67	-43.75761	-3.08532E-009	-0.0122212	6
	34	12	397.9953	7542.219	-8167.081	1	11116.94	-47.27783	1.175948E-009	-0.0122406	6
	35	12	315.5048	8053.678	-9806.27	1	12689.55	-50.60447	9.302755E-010	-0.0122403	6
	36	13	252.4038	8664.869	-11734.56	1	14586.98	-53.55763	1.213468E-009	-0.0122468	6
	37	13	198.6229	9498.206	-14254.7	1	17129.29	-56.32365	5.725705E-010	-0.0122439	6
	38	13	158.3615	10503.39	-17140.02	1	20102.28	-58.50006	9.545401E-010	-0.0122458	6
	39	14	125.558	11838.15	-20678.93	1	23827.71	-60.20998	7.60274E-010	-0.0122378	6
	40	14	100.4464	13496.8	-24717.05	1	28161.96	-61.36315	6.313103E-011	-0.0122446	6
	41	14	79.00281	15784.27	-29898.68	1	33809.39	-62.16929	5.775185E-010	-0.0122458	6
	42	15	63.3446	18141.99	-35173.98	1	39577.02	-62.71629	1.035758E-009	-0.0122451	6
	43	15	49.86702	21820.03	-42143.62	1	47457.34	-62.62695	8.683137E-010	-0.0122462	6
	44	15	39.72458	26301.73	-49848.15	1	56361.5	-62.18221	1.180462E-009	-0.012244	6
	45	16	31.6723	31471.55	-58449.39	1	66383.66	-61.70015	7.388887E-010	-0.0122521	6
	46	16	24.93351	38451.29	-68644.43	1	78680.11	-60.74456	4.662279E-011	-0.0122506	6
	47	16	19.86229	46194.97	-79309.09	1	91781.84	-59.78059	-1.432587E-010	-0.012255	6
	48	17	15.83615	54328.13	-90682.29	1	105711	-59.074	-5.239553E-010	-0.0122485	5
	49	17	12.40079	65841.67	-105406.3	1	124280.4	-58.00917	-8.619608E-010	-0.0122439	5
	50	17	9.93114	76927.27	-119485.1	1	142107.3	-57.22562	9.013121E-011	-0.0122461	5
	51	18	7.944915	88752.55	-135718.6	1	162162.1	-56.8175	6.763407E-010	-0.0122533	5
	52	18	6.317385	101435.1	-155162.7	1	185376.7	-56.826	5.363088E-010	-0.0122623	5
	53	19	5.008013	115366.2	-178446.2	1	212491	-57.11715	2.390704E-010	-0.0122528	5
	54	20	3.945707	130883.4	-207054	1	244952.6	-57.70211	2.270553E-011	-0.0122464	5
	55	22	3.158693	146151.9	-240183.1	1	281155.3	-58.6794	-1.060552E-010	-0.0122628	5
	56	23	2.504006	164417.5	-281481.8	1	325983.3	-59.71019	9.634843E-011	-0.0122665	5
	57	25	1.998082	184355.4	-330820.2	1	378720.1	-60.87049	1.356177E-010	-0.0122374	5
	58	26	1.584686	209499.8	-391312.9	1	443864.8	-61.83644	-1.112403E-011	-0.0122805	5
	59	28	1.266892	239149.3	-463459.8	1	521524	-62.70587	-1.689526E-011	-0.0123029	5
	60	31	0.999041	276319.8	-555208.3	1	620168.4	-63.54108	-4.064801E-012	-0.0123014	5
