EXPLAIN
TAG	EISPOT
TITLE	LABEL	Potentiostatic EIS	Test &Identifier
DATE	LABEL	1/7/2020	Date
TIME	LABEL	15:56:14	Time
NOTES	NOTES	5	&Notes...
	
	
	
	
	
PSTAT	PSTAT	REF600-11020	Potentiostat
VDC	POTEN	0.00000E+000	T	DC &Voltage (V)
FREQINIT	QUANT	1.00000E+006	Initial Fre&q. (Hz)
FREQFINAL	QUANT	1.00000E+000	Final Fre&q. (Hz)
PTSPERDEC	QUANT	1.00000E+001	Points/&decade
VAC	QUANT	2.50000E+001	AC &Voltage (mV rms)
AREA	QUANT	1.00000E-001	&Area (cm^2)
CONDIT	TWOPARAM	T	5.00000E+000	0.00000E+000	Conditionin&g	Time(s)	E(V)
DELAY	TWOPARAM	T	5.00000E+000	0.00000E+000	Init. De&lay	Time(s)	Stab.(mV/s)
SPEED	SELECTOR	0	&Optimize for:
ZGUESS	QUANT	1.00000E+003	E&stimated Z (ohms)
OCVCURVE	TABLE	19
	Pt	T	Vf	Vm	Ach	Over
	#	s	V vs. Ref.	V	V	bits
	0	0.258333	3.23670E-002	3.23670E-002	6.48480E-004	...........
	1	0.516667	3.24055E-002	3.43822E-002	6.48980E-004	...........
	2	0.775	3.26410E-002	3.62485E-002	6.51046E-004	...........
	3	1.03333	3.33035E-002	3.79803E-002	6.51680E-004	...........
	4	1.29167	3.44781E-002	3.96261E-002	6.46713E-004	...........
	5	1.55	3.60220E-002	4.11847E-002	6.47880E-004	...........
	6	1.80833	3.77116E-002	4.26543E-002	6.49780E-004	...........
	7	2.06667	3.93878E-002	4.40567E-002	6.47613E-004	...........
	8	2.325	4.09821E-002	4.53853E-002	6.48846E-004	...........
	9	2.58333	4.24820E-002	4.66435E-002	6.47913E-004	...........
	10	2.84167	4.38956E-002	4.78544E-002	6.43213E-004	...........
	11	3.1	4.52345E-002	4.90260E-002	6.49980E-004	...........
	12	3.35833	4.65099E-002	5.01708E-002	6.49213E-004	...........
	13	3.61667	4.77331E-002	5.12793E-002	6.52146E-004	...........
	14	3.875	4.89138E-002	5.23598E-002	6.47580E-004	...........
	15	4.13333	5.00587E-002	5.34078E-002	6.49446E-004	...........
	16	4.39167	5.11712E-002	5.44257E-002	6.44546E-004	...........
	17	4.65	5.22531E-002	5.54380E-002	6.51913E-004	...........
	18	4.90833	5.33064E-002	5.63959E-002	6.51146E-004	...........
EOC	QUANT	0.0533064	Open Circuit (V)
PSTATMODEL	IQUANT	4	Pstat Model
PSTATSECTION	LABEL	REF600-11020	Pstat Section
PSTATSERIALNO	LABEL	11020	Pstat Serial Number
CTRLMODE	IQUANT	1	Control Mode
IESTAB	IQUANT	0	I/E Stability
CASPEED	IQUANT	1	Control Amp Speed
CONVENTION	IQUANT	1	Current Convention
ICHRANGE	IQUANT	2	Ich Range
ICHRANGEMODE	TOGGLE	F	Ich Auto Range
ICHOFFSETENABLE	TOGGLE	T	Ich Offset Enable
ICHOFFSET	QUANT	0	Ich Offset (V)
ICHFILTER	IQUANT	3	Ich Filter
VCHRANGE	IQUANT	2	Vch Range
VCHRANGEMODE	TOGGLE	F	Vch Auto Range
VCHOFFSETENABLE	TOGGLE	T	Vch Offset Enable
VCHOFFSET	QUANT	0	Vch Offset (V)
VCHFILTER	IQUANT	3	Vch Filter
ACHRANGE	IQUANT	2	Ach Range
ACHOFFSETENABLE	TOGGLE	F	Ach Offset Enable
ACHOFFSET	QUANT	0	Ach Offset (V)
ACHFILTER	IQUANT	3	Ach Filter
IERANGELOWERLIMIT	IQUANT	1	I/E Range Lower Limit
IERANGEMODE	TOGGLE	F	I/E AutoRange
IERANGE	IQUANT	8	I/E Range
POSFEEDENABLE	TOGGLE	F	Positive Feedback IR Comp
POSFEEDRESISTANCE	QUANT	0	Positive Feedback Resistance (ohm)
ACHSELECT	IQUANT	0	Ach Select
CABLEID	IQUANT	14	Cable ID
DCCALDATE	LABEL	12/22/2019	DC Calibration Date
ACCALDATE	LABEL	12/22/2019	AC Calibration Date
THERMOSELECT	IQUANT	1	Thermo Select
FRAMEWORKVERSION	QUANT	6.33	Framework Version
INSTRUMENTVERSION	LABEL	3.50	Instrument Version
ZCURVE	TABLE
	Pt	Time	Freq	Zreal	Zimag	Zsig	Zmod	Zphz	Idc	Vdc	IERange
	#	s	Hz	ohm	ohm	V	ohm	°	A	V	#
	0	1	1000078	2338.982	-1677.09	1	2878.101	-35.64118	-4.484395E-007	0.0544462	8
	1	2	794390.6	2693.523	-1607.624	1	3136.801	-30.83078	-1.479644E-006	0.0556965	8
	2	2	630984.4	2964.18	-1536.476	1	3338.731	-27.39986	5.504751E-006	0.054086	8
	3	2	501234.4	3235.316	-1436.145	1	3539.743	-23.93625	2.124652E-006	0.0543362	8
	4	3	398109.4	3473.976	-1310.052	1	3712.782	-20.66168	4.375695E-006	0.0540578	8
	5	3	316265.6	3669.914	-1186.094	1	3856.823	-17.91051	-3.568696E-006	0.0555598	8
	6	3	251203.1	3788.332	-1042.908	1	3929.264	-15.39196	-2.891007E-006	0.0551843	8
	7	4	199546.9	3908.649	-927.2542	1	4017.13	-13.34565	-8.120252E-007	0.0547977	8
	8	4	158578.1	4044.797	-849.3181	1	4133.004	-11.85857	4.24139E-006	0.0537769	8
	9	4	125953.1	4135.949	-677.4692	1	4191.067	-9.30245	-3.150668E-007	0.0554	7
	10	5	100078.1	4193.24	-621.317	1	4239.021	-8.428257	-3.948566E-008	0.0548409	7
	11	5	79453.13	4247.755	-592.7284	1	4288.911	-7.943715	-5.648031E-008	0.0547494	7
	12	5	63140.62	4298.148	-576.7757	1	4336.674	-7.642959	-5.628494E-008	0.0547498	7
	13	6	50203.12	4345.006	-575.9687	1	4383.015	-7.551036	1.544703E-007	0.0544454	7
	14	6	39890.62	4402.863	-591.4595	1	4442.412	-7.651037	-9.668578E-008	0.0548716	7
	15	6	31640.63	4450.034	-616.9819	1	4492.602	-7.89354	-9.313841E-008	0.0548956	7
	16	7	25171.88	4504.509	-660.2702	1	4552.643	-8.339022	8.239488E-008	0.054484	7
	17	7	20015.62	4566.882	-719.0569	1	4623.144	-8.94778	1.163339E-007	0.0544953	7
	18	7	15890.62	4641.35	-798.3742	1	4709.515	-9.76013	-5.471133E-008	0.0547442	7
	19	8	12609.37	4714.67	-881.2148	1	4796.316	-10.58695	-4.194706E-008	0.0548276	7
	20	8	10078.13	4797.018	-990.832	1	4898.278	-11.67042	3.241308E-008	0.0547115	7
	21	8	8015.625	4892.417	-1121.073	1	5019.218	-12.90623	-4.29597E-008	0.0548719	7
	22	8	6328.125	5000.653	-1280.431	1	5161.98	-14.36217	-4.115321E-008	0.054818	7
	23	9	5015.625	5118.346	-1464.556	1	5323.757	-15.96787	1.789674E-007	0.0544816	7
	24	9	3984.375	5248.193	-1683.146	1	5511.489	-17.78155	-4.077189E-008	0.0548143	7
	25	9	3170.956	5386.408	-1939.677	1	5725.01	-19.80424	-4.52475E-009	0.0547595	7
	26	10	2527.573	5533.627	-2246.06	1	5972.086	-22.09189	-8.366678E-008	0.054811	7
	27	10	1976.103	5708.233	-2652.929	1	6294.598	-24.92688	-8.199699E-008	0.0548109	7
	28	10	1577.524	5886.858	-3104.161	1	6655.142	-27.80284	-4.588155E-009	0.0547564	7
	29	11	1265.625	6081.849	-3638.934	1	7087.364	-30.89322	-5.661788E-008	0.0547244	7
	30	11	998.264	6319.178	-4343.864	1	7668.192	-34.505	-2.404514E-008	0.0548924	7
	31	11	796.875	6572.316	-5158.207	1	8354.785	-38.12619	-3.979562E-008	0.0548222	7
	32	12	627.7902	6894.841	-6205.782	1	9276.345	-41.98917	-3.943283E-008	0.0546856	7
	33	12	505.5147	7220.252	-7361.614	1	10311.42	-45.55543	-1.299681E-008	0.0549276	6
	34	12	397.9953	7632.136	-8920.915	1	11740.2	-49.45193	-1.226684E-009	0.0547097	6
	35	13	315.5048	8099.583	-10786.05	1	13488.6	-53.09598	-1.938519E-009	0.0547079	6
	36	13	252.4038	8622.564	-12977.84	1	15581.17	-56.39966	-1.573555E-009	0.0547075	6
	37	13	198.6229	9294.581	-15878.21	1	18398.55	-59.6567	-1.772016E-009	0.0547067	6
	38	14	158.3615	10069.48	-19258.21	1	21731.84	-62.39641	-1.933587E-009	0.054703	6
	39	14	125.558	11047.2	-23522.75	1	25987.7	-64.84342	-1.536781E-009	0.0547106	6
	40	14	100.4464	12251.83	-28565.23	1	31081.82	-66.78516	-2.232504E-009	0.0547049	6
	41	15	79.00281	13919.57	-35250.45	1	37899.19	-68.4521	-1.210088E-009	0.054705	6
	42	15	63.3446	15922.88	-42290.2	1	45188.48	-69.3679	-1.460793E-009	0.0547065	6
	43	15	49.86702	18903.69	-52153.16	1	55473.44	-70.07619	-1.374674E-009	0.0547047	6
	44	16	39.72458	22479.92	-63763.91	1	67610.52	-70.57993	-1.647172E-009	0.0547103	6
	45	16	31.6723	27524.99	-77345.71	1	82097.41	-70.4109	-2.160185E-009	0.0547067	6
	46	16	24.93351	34421.16	-94046.83	1	100148	-69.89736	-1.312214E-009	0.054704	6
	47	17	19.86229	43226.64	-112738.9	1	120741.9	-69.02206	-1.728716E-009	0.0547086	5
	48	17	15.83615	54316.11	-135136.3	1	145643.6	-68.10303	-3.014703E-009	0.0547037	5
	49	17	12.40079	70799.95	-161722.4	1	176541.2	-66.35683	-2.440567E-009	0.0547072	5
	50	18	9.93114	88824.02	-188065.1	1	207986	-64.71841	-2.513472E-009	0.0547093	5
	51	18	7.944915	110940.7	-217443.3	1	244109.5	-62.9691	-2.53737E-009	0.0547067	5
	52	19	6.317385	138401	-250309	1	286023.5	-61.06088	-2.627999E-009	0.0547166	5
	53	20	5.008013	170528.3	-286209.7	1	333160.5	-59.21284	-2.546864E-009	0.054698	5
	54	21	3.945707	207604.3	-325699.9	1	386238.2	-57.48617	-2.128192E-009	0.0547035	5
	55	22	3.158693	246189.7	-365956.6	1	441059.7	-56.07013	-2.18042E-009	0.0547177	5
	56	24	2.504006	290187.7	-412958.6	1	504721.4	-54.90413	-2.335466E-009	0.0547061	5
	57	25	1.998082	335213	-463536.1	1	572043.2	-54.12687	-2.097044E-009	0.0547289	5
	58	27	1.584686	387444.2	-525824.2	1	653149.3	-53.61602	-1.990641E-009	0.0547507	5
	59	28	1.266892	441183.5	-594945.2	1	740677.2	-53.4411	-1.980943E-009	0.0547209	5
	60	31	0.999041	506557.7	-680359.6	1	848227.5	-53.33069	-1.991493E-009	0.0546969	5
