EXPLAIN
TAG	EISPOT
TITLE	LABEL	Potentiostatic EIS	Test &Identifier
DATE	LABEL	5/26/2020	Date
TIME	LABEL	18:31:02	Time
NOTES	NOTES	1	&Notes...
	
PSTAT	PSTAT	REF600-11020	Potentiostat
VDC	POTEN	0.00000E+000	T	DC &Voltage (V)
FREQINIT	QUANT	1.00000E+006	Initial Fre&q. (Hz)
FREQFINAL	QUANT	1.00000E+000	Final Fre&q. (Hz)
PTSPERDEC	QUANT	1.00000E+001	Points/&decade
VAC	QUANT	2.50000E+001	AC &Voltage (mV rms)
AREA	QUANT	5.00000E-004	&Area (cm^2)
CONDIT	TWOPARAM	F	5.00000E+000	0.00000E+000	Conditionin&g	Time(s)	E(V)
DELAY	TWOPARAM	T	3.00000E+000	0.00000E+000	Init. De&lay	Time(s)	Stab.(mV/s)
SPEED	SELECTOR	0	&Optimize for:
ZGUESS	QUANT	1.00000E+003	E&stimated Z (ohms)
OCVCURVE	TABLE	12
	Pt	T	Vf	Vm	Ach	Over
	#	s	V vs. Ref.	V	V	bits
	0	0.258333	6.39368E-002	6.39368E-002	5.77963E-004	...........
	1	0.516667	6.39365E-002	6.39245E-002	5.83830E-004	...........
	2	0.775	6.39350E-002	6.39104E-002	5.80730E-004	...........
	3	1.03333	6.39308E-002	6.39016E-002	5.77097E-004	...........
	4	1.29167	6.39232E-002	6.38893E-002	5.82030E-004	...........
	5	1.55	6.39131E-002	6.38737E-002	5.80663E-004	...........
	6	1.80833	6.39015E-002	6.38621E-002	5.82263E-004	...........
	7	2.06667	6.38891E-002	6.38548E-002	5.81330E-004	...........
	8	2.325	6.38768E-002	6.38478E-002	5.77730E-004	...........
	9	2.58333	6.38658E-002	6.38419E-002	5.76030E-004	...........
	10	2.84167	6.38565E-002	6.38345E-002	5.77697E-004	...........
	11	3.1	6.38488E-002	6.38283E-002	5.86996E-004	...........
EOC	QUANT	0.0638488	Open Circuit (V)
PSTATMODEL	IQUANT	4	Pstat Model
PSTATSECTION	LABEL	REF600-11020	Pstat Section
PSTATSERIALNO	LABEL	11020	Pstat Serial Number
CTRLMODE	IQUANT	1	Control Mode
IESTAB	IQUANT	0	I/E Stability
CASPEED	IQUANT	1	Control Amp Speed
CONVENTION	IQUANT	1	Current Convention
ICHRANGE	IQUANT	2	Ich Range
ICHRANGEMODE	TOGGLE	F	Ich Auto Range
ICHOFFSETENABLE	TOGGLE	T	Ich Offset Enable
ICHOFFSET	QUANT	0	Ich Offset (V)
ICHFILTER	IQUANT	3	Ich Filter
VCHRANGE	IQUANT	2	Vch Range
VCHRANGEMODE	TOGGLE	F	Vch Auto Range
VCHOFFSETENABLE	TOGGLE	T	Vch Offset Enable
VCHOFFSET	QUANT	0	Vch Offset (V)
VCHFILTER	IQUANT	3	Vch Filter
ACHRANGE	IQUANT	2	Ach Range
ACHOFFSETENABLE	TOGGLE	F	Ach Offset Enable
ACHOFFSET	QUANT	0	Ach Offset (V)
ACHFILTER	IQUANT	3	Ach Filter
IERANGELOWERLIMIT	IQUANT	1	I/E Range Lower Limit
IERANGEMODE	TOGGLE	F	I/E AutoRange
IERANGE	IQUANT	8	I/E Range
POSFEEDENABLE	TOGGLE	F	Positive Feedback IR Comp
POSFEEDRESISTANCE	QUANT	0	Positive Feedback Resistance (ohm)
ACHSELECT	IQUANT	0	Ach Select
CABLEID	IQUANT	14	Cable ID
DCCALDATE	LABEL	2/27/2020	DC Calibration Date
ACCALDATE	LABEL	2/27/2020	AC Calibration Date
THERMOSELECT	IQUANT	1	Thermo Select
FRAMEWORKVERSION	QUANT	6.33	Framework Version
INSTRUMENTVERSION	LABEL	3.50	Instrument Version
ZCURVE	TABLE
	Pt	Time	Freq	Zreal	Zimag	Zsig	Zmod	Zphz	Idc	Vdc	IERange
	#	s	Hz	ohm	ohm	V	ohm	°	A	V	#
	0	1	1000078	1396.488	-3022.241	1	3329.282	-65.19975	6.144396E-009	0.0660968	8
	1	1	794390.6	1627.994	-3594.291	1	3945.794	-65.63238	6.697316E-008	0.0658042	8
	2	1	630984.4	1899.933	-4281.418	1	4684.046	-66.07014	1.769466E-008	0.0656532	8
	3	2	501234.4	2237.049	-5109.365	1	5577.634	-66.35461	1.034442E-007	0.0655447	8
	4	2	398109.4	2634.445	-6102.541	1	6646.902	-66.65031	2.289138E-008	0.0655216	8
	5	2	316265.6	3149.035	-7280.225	1	7932.092	-66.60928	2.261719E-008	0.065527	8
	6	3	251203.1	3755.17	-8700.903	1	9476.657	-66.65575	6.078132E-008	0.0654867	8
	7	3	199546.9	4563.749	-10392.55	1	11350.46	-66.29196	2.66989E-008	0.0654913	8
	8	3	158578.1	5600.151	-12347.66	1	13558.26	-65.60383	4.982014E-008	0.0654938	8
	9	3	125953.1	7166.429	-14598.54	1	16262.69	-63.85357	3.63756E-009	0.0654351	7
	10	4	100078.1	8779.606	-17198.5	1	19309.84	-62.95629	3.494338E-009	0.0654181	7
	11	4	79453.13	10883.06	-20192.92	1	22938.94	-61.67737	3.135701E-009	0.065409	7
	12	4	63140.62	13513.45	-23516.32	1	27122.52	-60.11654	4.07942E-009	0.0654012	7
	13	5	50203.12	16790.04	-27079.84	1	31862.57	-58.20026	3.357763E-009	0.0654121	7
	14	5	39890.62	20870.85	-30923.76	1	37307.79	-55.98407	4.202719E-009	0.065401	7
	15	5	31640.63	25838.95	-34729.26	1	43287.1	-53.35035	3.225553E-009	0.0654089	7
	16	6	25171.88	31570.45	-38532.69	1	49814.27	-50.67169	3.529968E-009	0.065408	7
	17	6	20015.62	38226.03	-41932.34	1	56741.08	-47.64732	3.376664E-009	0.0654035	7
	18	6	15890.62	45615.14	-45096.78	1	64144.06	-44.6726	4.802171E-009	0.0654109	7
	19	7	12609.37	54476	-46749.37	1	71785.36	-40.63502	6.797392E-010	0.0654529	6
	20	7	10078.13	62405.26	-48395.77	1	78971.94	-37.79386	7.283243E-010	0.0654571	6
	21	7	8015.625	70614.34	-49475.2	1	86221.7	-35.01661	7.914275E-010	0.0654514	6
	22	8	6328.125	79020.02	-50032.99	1	93527.88	-32.3407	7.545473E-010	0.0654576	6
	23	8	5015.625	87039.11	-50114.54	1	100435.4	-29.93206	7.048548E-010	0.0654515	6
	24	8	3984.375	94646.62	-49968.89	1	107027.4	-27.83191	5.955924E-010	0.0654396	6
	25	9	3170.956	101961.7	-49891.74	1	113513.7	-26.07336	6.075475E-010	0.065447	6
	26	9	2527.573	108892.8	-49754.4	1	119721.1	-24.55621	6.400053E-010	0.0654491	6
	27	9	1976.103	116168.1	-49854.08	1	126413.8	-23.22682	5.765129E-010	0.0654471	6
	28	10	1577.524	122742.8	-50313.92	1	132654.8	-22.28938	6.445849E-010	0.0654488	6
	29	10	1265.625	130346.4	-48498.55	1	139076.5	-20.40895	1.509698E-011	0.0654521	5
	30	10	998.264	136823.3	-50087.79	1	145703.1	-20.10649	2.990091E-011	0.0654551	5
	31	10	796.875	143072.3	-52056.11	1	152248.3	-19.99365	3.066017E-011	0.0654434	5
	32	11	627.7902	149949.9	-54650.93	1	159598.5	-20.02484	1.170629E-011	0.0654377	5
	33	11	505.5147	156413.6	-57484.52	1	166642.4	-20.17919	1.14276E-012	0.0654527	5
	34	11	397.9953	163901	-61297.95	1	174988.5	-20.50548	8.593557E-011	0.0654667	5
	35	12	315.5048	171568.6	-65680.16	1	183710.8	-20.94793	8.437832E-011	0.0654658	5
	36	12	252.4038	179390.2	-70622.16	1	192790.9	-21.48851	9.374181E-011	0.0654596	5
	37	12	198.6229	188387.8	-76856.34	1	203462.2	-22.19393	3.147383E-011	0.0654627	5
	38	13	158.3615	197614.2	-83683.28	1	214602.6	-22.9511	3.730294E-011	0.0654575	5
	39	13	125.558	207867.4	-91761.48	1	227220.2	-23.8187	3.832953E-011	0.0654629	5
	40	13	100.4464	218652	-100687.1	1	240721	-24.72561	1.566373E-010	0.0654606	5
	41	14	79.00281	231375.8	-111641.1	1	256901.7	-25.75777	4.80433E-011	0.065456	5
	42	14	63.3446	244249.7	-123167	1	273547.1	-26.76029	3.421759E-012	0.06545	5
	43	14	49.86702	259545.2	-137415.5	1	293677.9	-27.89886	1.262557E-011	0.0654506	5
	44	15	39.72458	275605.3	-152901.6	1	315178	-29.02084	-1.706234E-010	0.0654519	5
	45	15	31.6723	293416.1	-170425.9	1	339319.9	-30.14946	-2.166579E-010	0.0654487	5
	46	15	24.93351	314047.9	-191568.2	1	367864.7	-31.38305	2.432747E-010	0.0654482	5
	47	16	19.86229	335717.1	-215144.1	1	398739.2	-32.65376	8.182804E-010	0.0654512	5
	48	16	15.83615	361108.4	-241375.7	1	434351.8	-33.75996	-4.172343E-010	0.0654476	5
	49	16	12.40079	390203.3	-273590	1	476560.7	-35.03612	-1.143325E-010	0.0654487	5
	50	17	9.93114	420571	-307213.2	1	520826.2	-36.14689	-3.241056E-010	0.0654515	5
	51	17	7.944915	453465.5	-347122.7	1	571073.7	-37.43365	-5.122219E-010	0.0654533	5
	52	17	6.317385	494192.2	-392823.3	1	631297.1	-38.48048	1.079751E-010	0.0654401	5
	53	18	5.008013	540697.2	-445592.2	1	700646.8	-39.49216	2.385898E-012	0.0654448	5
	54	19	3.945707	596328.2	-508262.6	1	783542.1	-40.44162	-1.136482E-010	0.0654421	5
	55	20	3.158693	655115.8	-572164.9	1	869798.4	-41.1333	4.296078E-011	0.0654224	5
	56	21	2.504006	726589.4	-647815.1	1	973446	-41.71967	2.118904E-010	0.0654333	5
	57	22	1.998082	804362.1	-727786.1	1	1084745	-42.13877	5.170194E-011	0.0654048	4
	58	24	1.584686	897479.5	-820488.6	1	1216006	-42.434	-4.531504E-011	0.0653814	4
	59	26	1.266892	992970	-919287.5	1	1353174	-42.79339	-1.000956E-011	0.0654115	4
	60	28	0.999041	1105870	-1033128	1	1513375	-43.05228	1.467322E-011	0.0654386	4
