EXPLAIN
TAG	EISPOT
TITLE	LABEL	Potentiostatic EIS	Test &Identifier
DATE	LABEL	3/12/2020	Date
TIME	LABEL	14:00:32	Time
NOTES	NOTES	1	&Notes...
	
PSTAT	PSTAT	REF600-11020	Potentiostat
VDC	POTEN	0.00000E+000	T	DC &Voltage (V)
FREQINIT	QUANT	1.00000E+006	Initial Fre&q. (Hz)
FREQFINAL	QUANT	1.00000E+000	Final Fre&q. (Hz)
PTSPERDEC	QUANT	1.00000E+001	Points/&decade
VAC	QUANT	2.50000E+001	AC &Voltage (mV rms)
AREA	QUANT	2.50000E-001	&Area (cm^2)
CONDIT	TWOPARAM	F	5.00000E+000	0.00000E+000	Conditionin&g	Time(s)	E(V)
DELAY	TWOPARAM	T	5.00000E+000	0.00000E+000	Init. De&lay	Time(s)	Stab.(mV/s)
SPEED	SELECTOR	1	&Optimize for:
ZGUESS	QUANT	5.00000E+003	E&stimated Z (ohms)
OCVCURVE	TABLE	19
	Pt	T	Vf	Vm	Ach	Over
	#	s	V vs. Ref.	V	V	bits
	0	0.258333	3.48707E-002	3.48707E-002	5.71097E-004	...........
	1	0.516667	3.48641E-002	3.45242E-002	5.73297E-004	...........
	2	0.775	3.48287E-002	3.44704E-002	5.77130E-004	...........
	3	1.03333	3.47469E-002	3.44665E-002	5.74297E-004	...........
	4	1.29167	3.46354E-002	3.43124E-002	5.74897E-004	...........
	5	1.55	3.45237E-002	3.41459E-002	5.74030E-004	...........
	6	1.80833	3.44215E-002	3.43344E-002	5.75030E-004	...........
	7	2.06667	3.43372E-002	3.42914E-002	5.74730E-004	...........
	8	2.325	3.42862E-002	3.41503E-002	5.69497E-004	...........
	9	2.58333	3.42590E-002	3.40853E-002	5.69763E-004	...........
	10	2.84167	3.42236E-002	3.39397E-002	5.75797E-004	...........
	11	3.1	3.41600E-002	3.38475E-002	5.71463E-004	...........
	12	3.35833	3.40715E-002	3.38103E-002	5.72997E-004	...........
	13	3.61667	3.39750E-002	3.37523E-002	5.71930E-004	...........
	14	3.875	3.38879E-002	3.37113E-002	5.72297E-004	...........
	15	4.13333	3.38175E-002	3.36634E-002	5.73230E-004	...........
	16	4.39167	3.37612E-002	3.36263E-002	5.76363E-004	...........
	17	4.65	3.37130E-002	3.35753E-002	5.69263E-004	...........
	18	4.90833	3.36685E-002	3.35280E-002	5.65763E-004	...........
EOC	QUANT	0.0336685	Open Circuit (V)
PSTATMODEL	IQUANT	4	Pstat Model
PSTATSECTION	LABEL	REF600-11020	Pstat Section
PSTATSERIALNO	LABEL	11020	Pstat Serial Number
CTRLMODE	IQUANT	1	Control Mode
IESTAB	IQUANT	0	I/E Stability
CASPEED	IQUANT	1	Control Amp Speed
CONVENTION	IQUANT	1	Current Convention
ICHRANGE	IQUANT	2	Ich Range
ICHRANGEMODE	TOGGLE	F	Ich Auto Range
ICHOFFSETENABLE	TOGGLE	T	Ich Offset Enable
ICHOFFSET	QUANT	0	Ich Offset (V)
ICHFILTER	IQUANT	3	Ich Filter
VCHRANGE	IQUANT	2	Vch Range
VCHRANGEMODE	TOGGLE	F	Vch Auto Range
VCHOFFSETENABLE	TOGGLE	T	Vch Offset Enable
VCHOFFSET	QUANT	0	Vch Offset (V)
VCHFILTER	IQUANT	3	Vch Filter
ACHRANGE	IQUANT	2	Ach Range
ACHOFFSETENABLE	TOGGLE	F	Ach Offset Enable
ACHOFFSET	QUANT	0	Ach Offset (V)
ACHFILTER	IQUANT	3	Ach Filter
IERANGELOWERLIMIT	IQUANT	1	I/E Range Lower Limit
IERANGEMODE	TOGGLE	F	I/E AutoRange
IERANGE	IQUANT	7	I/E Range
POSFEEDENABLE	TOGGLE	F	Positive Feedback IR Comp
POSFEEDRESISTANCE	QUANT	0	Positive Feedback Resistance (ohm)
ACHSELECT	IQUANT	0	Ach Select
CABLEID	IQUANT	14	Cable ID
DCCALDATE	LABEL	2/27/2020	DC Calibration Date
ACCALDATE	LABEL	2/27/2020	AC Calibration Date
THERMOSELECT	IQUANT	1	Thermo Select
FRAMEWORKVERSION	QUANT	6.33	Framework Version
INSTRUMENTVERSION	LABEL	3.50	Instrument Version
ZCURVE	TABLE
	Pt	Time	Freq	Zreal	Zimag	Zsig	Zmod	Zphz	Idc	Vdc	IERange
	#	s	Hz	ohm	ohm	V	ohm	°	A	V	#
	0	1	1000078	1794.208	-1394.082	1	2272.146	-37.84686	-8.45729E-007	0.0364217	8
	1	3	794390.6	2049.799	-1412.798	1	2489.513	-34.57606	-5.860363E-007	0.0359044	8
	2	4	630984.4	2302.271	-1411.168	1	2700.342	-31.50604	6.867515E-007	0.0354819	8
	3	5	501234.4	2544.523	-1380.076	1	2894.686	-28.47412	-3.474442E-007	0.0355374	8
	4	7	398109.4	2757.761	-1336.114	1	3064.384	-25.84983	-7.043878E-007	0.0355231	8
	5	8	316265.6	2981.887	-1287.364	1	3247.916	-23.35121	-8.625035E-007	0.035601	8
	6	9	251203.1	3167.646	-1224.293	1	3396.008	-21.13148	-2.658408E-007	0.0354253	8
	7	11	199546.9	3341.365	-1166.13	1	3539.008	-19.23888	2.09713E-007	0.0353357	8
	8	12	158578.1	3508.375	-1130.742	1	3686.092	-17.86403	-6.474917E-007	0.035457	8
	9	14	125953.1	3665.605	-1047.124	1	3812.234	-15.94262	2.460975E-007	0.0348329	7
	10	15	100078.1	3787.22	-1011.945	1	3920.085	-14.95995	-1.787648E-008	0.0353399	7
	11	16	79453.13	3914.589	-996.152	1	4039.348	-14.27713	-1.560278E-008	0.0352875	7
	12	18	63140.62	4037.404	-988.916	1	4156.751	-13.76298	-2.847322E-008	0.035331	7
	13	19	50203.12	4157.933	-991.4	1	4274.492	-13.41096	2.582948E-008	0.035232	7
	14	20	39890.62	4279.162	-1005.716	1	4395.758	-13.22598	-1.706544E-008	0.0353149	7
	15	22	31640.63	4403.509	-1030.719	1	4522.53	-13.17391	5.376768E-008	0.0352071	7
	16	23	25171.88	4528.551	-1066.435	1	4652.425	-13.25123	-1.757172E-008	0.0352924	7
	17	24	20015.62	4659.121	-1114.394	1	4790.541	-13.4516	2.012094E-008	0.0352149	7
	18	26	15890.62	4796.487	-1174.231	1	4938.128	-13.75607	-4.787527E-010	0.0353154	7
	19	27	12609.37	4941.236	-1246.86	1	5096.123	-14.16223	2.606083E-008	0.0352758	7
	20	29	10078.13	5086.32	-1328.752	1	5257.018	-14.64076	-5.409045E-009	0.0353056	7
	21	30	8015.625	5241.235	-1425.849	1	5431.721	-15.2187	5.181493E-009	0.0352439	7
	22	31	6328.125	5408.587	-1545.853	1	5625.164	-15.9507	6.798906E-009	0.0352694	7
	23	33	5015.625	5576.557	-1687.195	1	5826.201	-16.83326	5.933166E-009	0.0352629	7
	24	34	3984.375	5748.873	-1855.156	1	6040.79	-17.88485	4.501706E-009	0.0352342	7
	25	35	3170.956	5923.505	-2057.302	1	6270.599	-19.1527	5.248798E-009	0.0352354	7
	26	37	2527.573	6104.047	-2301.62	1	6523.561	-20.65968	1.209272E-008	0.0352465	7
	27	38	1976.103	6304.375	-2629.853	1	6830.906	-22.64333	-1.567249E-008	0.0352925	7
	28	39	1577.524	6497.667	-2997.81	1	7155.875	-24.76705	1.172736E-008	0.0352515	7
	29	41	1265.625	6689.649	-3440.051	1	7522.324	-27.21381	2.941288E-008	0.0352136	7
	30	42	998.264	6910.212	-4033.999	1	8001.511	-30.27525	-1.765981E-008	0.0352851	7
	31	43	796.875	7135.619	-4734.579	1	8563.485	-33.56481	1.244994E-008	0.0352574	7
	32	45	627.7902	7390.493	-5659.423	1	9308.516	-37.44383	2.906254E-008	0.0352104	7
	33	46	505.5147	7655.46	-6702.397	1	10174.88	-41.20232	-9.452952E-010	0.0353692	6
	34	48	397.9953	7980.441	-8125.497	1	11389.08	-45.51601	1.138674E-009	0.0353288	6
	35	49	315.5048	8351.461	-9845.28	1	12910.33	-49.69305	7.110822E-010	0.0353255	6
	36	50	252.4038	8773.614	-11885.94	1	14773.35	-53.56709	7.589035E-010	0.0353271	6
	37	52	198.6229	9321.424	-14593.23	1	17316.22	-57.43161	9.499528E-010	0.0353313	6
	38	53	158.3615	9960.18	-17759.46	1	20361.82	-60.71465	7.658672E-010	0.0353265	6
	39	54	125.558	10774.35	-21745.92	1	24268.74	-63.64317	6.206946E-010	0.035331	6
	40	56	100.4464	11766.8	-26441.12	1	28941.15	-66.01003	1.148535E-009	0.0353284	6
	41	57	79.00281	13098.61	-32700.05	1	35225.94	-68.17052	7.949561E-010	0.0353347	6
	42	59	63.3446	14525.96	-39782.91	1	42351.9	-69.94131	6.084168E-010	0.0353259	6
	43	60	49.86702	16972.42	-48771.61	1	51640.42	-70.81221	4.485424E-010	0.0353253	6
	44	61	39.72458	19709.42	-59626.49	1	62799.52	-71.7088	7.028659E-010	0.0353316	6
	45	63	31.6723	23304.82	-72716.46	1	76359.66	-72.22992	8.580454E-010	0.0353311	6
	46	64	24.93351	28312.69	-89222.83	1	93607.27	-72.39443	3.285265E-010	0.035329	6
	47	66	19.86229	34583.08	-108130.7	1	113526.4	-72.26434	6.795691E-010	0.0353319	5
	48	67	15.83615	42168.94	-130920	1	137543.7	-72.1464	-2.06718E-010	0.0353332	5
	49	68	12.40079	55084.75	-160052	1	169266	-71.00819	9.784684E-010	0.0353274	5
	50	70	9.93114	68512.31	-191201.4	1	203105.6	-70.28611	2.445221E-010	0.0353331	5
	51	71	7.944915	86929.35	-227130.5	1	243197.5	-69.05672	8.652192E-010	0.0353325	5
	52	73	6.317385	110996.4	-270225	1	292133.1	-67.66931	3.382519E-010	0.0353432	5
	53	75	5.008013	142034.2	-319293	1	349459.2	-66.01859	3.848238E-010	0.0353375	5
	54	78	3.945707	181353.6	-375717.7	1	417196.5	-64.23405	3.655923E-010	0.0353353	5
	55	80	3.158693	226399.6	-432944.5	1	488567	-62.39359	1.592102E-010	0.0353384	5
	56	84	2.504006	281684.1	-497391.2	1	571615.2	-60.47612	3.687002E-010	0.0353242	5
	57	86	1.998082	343009.5	-564281.4	1	660355.2	-58.70585	3.791474E-011	0.0353709	5
	58	89	1.584686	413010.2	-639069.3	1	760912	-57.1267	3.032557E-010	0.0353518	5
	59	93	1.266892	489459.6	-715424.1	1	866834.6	-55.6219	1.196833E-010	0.0353755	5
	60	97	0.999041	573249.2	-805902.6	1	988986	-54.57525	2.261772E-010	0.0352958	5
