EXPLAIN
TAG	EISPOT
TITLE	LABEL	Potentiostatic EIS	Test &Identifier
DATE	LABEL	2/13/2020	Date
TIME	LABEL	13:46:20	Time
NOTES	NOTES	1	&Notes...
	
PSTAT	PSTAT	REF600-11020	Potentiostat
VDC	POTEN	0.00000E+000	T	DC &Voltage (V)
FREQINIT	QUANT	1.00000E+006	Initial Fre&q. (Hz)
FREQFINAL	QUANT	1.00000E+000	Final Fre&q. (Hz)
PTSPERDEC	QUANT	1.00000E+001	Points/&decade
VAC	QUANT	2.50000E+001	AC &Voltage (mV rms)
AREA	QUANT	5.00000E-004	&Area (cm^2)
CONDIT	TWOPARAM	F	1.50000E+001	0.00000E+000	Conditionin&g	Time(s)	E(V)
DELAY	TWOPARAM	F	1.00000E+002	0.00000E+000	Init. De&lay	Time(s)	Stab.(mV/s)
SPEED	SELECTOR	0	&Optimize for:
ZGUESS	QUANT	1.00000E+003	E&stimated Z (ohms)
OCVCURVE	TABLE	39
	Pt	T	Vf	Vm	Ach	Over
	#	s	V vs. Ref.	V	V	bits
	0	0.258333	4.81464E-002	4.81464E-002	5.67771E-004	...........
	1	0.516667	4.81494E-002	4.83043E-002	5.66204E-004	...........
	2	0.775	4.81682E-002	4.84705E-002	5.67704E-004	...........
	3	1.03333	4.82298E-002	4.90103E-002	5.67704E-004	...........
	4	1.29167	4.83636E-002	4.89948E-002	5.66971E-004	...........
	5	1.55	4.85693E-002	4.93467E-002	5.68071E-004	...........
	6	1.80833	4.88734E-002	5.28118E-002	5.64771E-004	...........
	7	2.06667	4.93811E-002	4.98208E-002	5.70371E-004	...........
	8	2.325	4.99985E-002	4.88710E-002	5.67638E-004	...........
	9	2.58333	5.03038E-002	4.86360E-002	5.64504E-004	...........
	10	2.84167	5.00792E-002	4.97133E-002	5.65838E-004	...........
	11	3.1	4.96578E-002	5.08638E-002	5.67904E-004	...........
	12	3.35833	4.94832E-002	4.90395E-002	5.67804E-004	...........
	13	3.61667	4.95866E-002	4.96999E-002	5.68438E-004	...........
	14	3.875	4.96980E-002	4.93798E-002	5.67038E-004	...........
	15	4.13333	4.96731E-002	4.92657E-002	5.71038E-004	...........
	16	4.39167	4.95663E-002	4.94342E-002	5.65438E-004	...........
	17	4.65	4.94596E-002	4.93786E-002	5.66371E-004	...........
	18	4.90833	4.93990E-002	4.95626E-002	5.68004E-004	...........
	19	5.16667	4.93977E-002	4.96276E-002	5.74238E-004	...........
	20	5.425	4.94503E-002	4.99451E-002	5.68238E-004	...........
	21	5.68333	4.95542E-002	5.01571E-002	5.73038E-004	...........
	22	5.94167	4.97007E-002	4.98817E-002	5.69404E-004	...........
	23	6.2	4.98721E-002	5.12705E-002	5.69171E-004	...........
	24	6.45833	5.00851E-002	5.07561E-002	5.64771E-004	...........
	25	6.71667	5.03342E-002	4.97399E-002	5.68138E-004	...........
	26	6.975	5.04770E-002	4.94027E-002	5.66504E-004	...........
	27	7.23333	5.03636E-002	4.94048E-002	5.60271E-004	...........
	28	7.49167	5.00583E-002	4.99190E-002	5.63638E-004	...........
	29	7.75	4.97690E-002	4.92090E-002	5.66571E-004	...........
	30	8.00833	4.96049E-002	4.95291E-002	5.68538E-004	...........
	31	8.26667	4.95329E-002	4.97419E-002	5.67071E-004	...........
	32	8.525	4.95071E-002	4.91528E-002	5.66471E-004	...........
	33	8.78333	4.94920E-002	4.92159E-002	5.68004E-004	...........
	34	9.04167	4.94461E-002	4.94602E-002	5.72838E-004	...........
	35	9.3	4.93750E-002	4.90301E-002	5.71138E-004	...........
	36	9.5583	4.93093E-002	4.91632E-002	5.71338E-004	...........
	37	9.8167	4.92551E-002	4.94066E-002	5.61904E-004	...........
	38	10.075	4.92208E-002	4.90649E-002	5.67771E-004	...........
EOC	QUANT	0.0492208	Open Circuit (V)
PSTATMODEL	IQUANT	4	Pstat Model
PSTATSECTION	LABEL	REF600-11020	Pstat Section
PSTATSERIALNO	LABEL	11020	Pstat Serial Number
CTRLMODE	IQUANT	1	Control Mode
IESTAB	IQUANT	0	I/E Stability
CASPEED	IQUANT	1	Control Amp Speed
CONVENTION	IQUANT	1	Current Convention
ICHRANGE	IQUANT	2	Ich Range
ICHRANGEMODE	TOGGLE	F	Ich Auto Range
ICHOFFSETENABLE	TOGGLE	T	Ich Offset Enable
ICHOFFSET	QUANT	0	Ich Offset (V)
ICHFILTER	IQUANT	3	Ich Filter
VCHRANGE	IQUANT	2	Vch Range
VCHRANGEMODE	TOGGLE	F	Vch Auto Range
VCHOFFSETENABLE	TOGGLE	T	Vch Offset Enable
VCHOFFSET	QUANT	0	Vch Offset (V)
VCHFILTER	IQUANT	3	Vch Filter
ACHRANGE	IQUANT	2	Ach Range
ACHOFFSETENABLE	TOGGLE	F	Ach Offset Enable
ACHOFFSET	QUANT	0	Ach Offset (V)
ACHFILTER	IQUANT	3	Ach Filter
IERANGELOWERLIMIT	IQUANT	1	I/E Range Lower Limit
IERANGEMODE	TOGGLE	F	I/E AutoRange
IERANGE	IQUANT	7	I/E Range
POSFEEDENABLE	TOGGLE	F	Positive Feedback IR Comp
POSFEEDRESISTANCE	QUANT	0	Positive Feedback Resistance (ohm)
ACHSELECT	IQUANT	0	Ach Select
CABLEID	IQUANT	14	Cable ID
DCCALDATE	LABEL	1/27/2020	DC Calibration Date
ACCALDATE	LABEL	1/27/2020	AC Calibration Date
THERMOSELECT	IQUANT	1	Thermo Select
FRAMEWORKVERSION	QUANT	6.33	Framework Version
INSTRUMENTVERSION	LABEL	3.50	Instrument Version
ZCURVE	TABLE
	Pt	Time	Freq	Zreal	Zimag	Zsig	Zmod	Zphz	Idc	Vdc	IERange
	#	s	Hz	ohm	ohm	V	ohm	°	A	V	#
	0	1	1000078	2096.66	-2120.383	1	2981.947	-45.32231	1.12856E-006	0.0515052	8
	1	1	794390.6	2527.727	-2219.78	1	3364.049	-41.28872	-2.365546E-006	0.051527	8
	2	2	630984.4	3005.369	-2232.455	1	3743.807	-36.60579	-1.230783E-007	0.0511673	8
	3	2	501234.4	3434.292	-2191.449	1	4073.918	-32.54227	-1.067319E-006	0.0511666	8
	4	2	398109.4	3864.867	-2075.68	1	4386.985	-28.23863	-4.680865E-007	0.0509453	8
	5	2	316265.6	4219.232	-1903.661	1	4628.806	-24.28426	9.511724E-007	0.0506983	8
	6	3	251203.1	4506.198	-1694.785	1	4814.365	-20.61132	-8.253903E-007	0.0509683	8
	7	3	199546.9	4773.625	-1499.989	1	5003.745	-17.44399	-7.26536E-007	0.0509611	8
	8	3	158578.1	4969.49	-1288.889	1	5133.913	-14.53988	2.272844E-006	0.0506022	8
	9	4	125953.1	5128.106	-1127.086	1	5250.504	-12.39572	-2.796122E-007	0.0512798	7
	10	4	100078.1	5235.458	-990.108	1	5328.258	-10.70907	-4.410525E-008	0.0508737	7
	11	4	79453.13	5328.561	-887.4128	1	5401.95	-9.455202	8.490299E-008	0.0506636	7
	12	5	63140.62	5401.158	-804.6678	1	5460.769	-8.473637	-2.428066E-008	0.0508061	7
	13	5	50203.12	5464.804	-746.4873	1	5515.553	-7.77841	-1.172896E-008	0.0508753	7
	14	5	39890.62	5520.771	-710.8022	1	5566.341	-7.336501	1.094679E-009	0.0507767	7
	15	6	31640.63	5575.212	-693.9235	1	5618.231	-7.094881	-1.162738E-008	0.0508712	7
	16	6	25171.88	5626.151	-699.1545	1	5669.426	-7.083757	1.011846E-009	0.050778	7
	17	6	20015.62	5678.595	-723.4628	1	5724.495	-7.260468	1.741409E-008	0.0507865	7
	18	7	15890.62	5729.835	-771.2883	1	5781.514	-7.666453	1.527538E-009	0.0507742	7
	19	7	12609.37	5787.757	-842.0447	1	5848.689	-8.277727	3.861072E-008	0.0507218	7
	20	7	10078.13	5853.394	-932.6946	1	5927.237	-9.053543	9.352757E-010	0.0507681	7
	21	8	8015.625	5912.038	-1054.922	1	6005.418	-10.11716	4.413704E-008	0.0506779	7
	22	8	6328.125	5987.393	-1215.235	1	6109.474	-11.47322	8.607712E-008	0.0506533	7
	23	8	5015.625	6071.719	-1414.078	1	6234.211	-13.11025	1.323702E-009	0.0507691	7
	24	9	3984.375	6163.444	-1654.28	1	6381.589	-15.0242	-3.214679E-008	0.0508332	7
	25	9	3170.956	6269.973	-1949.766	1	6566.136	-17.27406	-2.828284E-008	0.0508474	7
	26	9	2527.573	6390.5	-2303.073	1	6792.836	-19.81866	3.710247E-008	0.0507135	7
	27	9	1976.103	6543.232	-2778.144	1	7108.584	-23.00524	-4.436441E-008	0.0508452	7
	28	10	1577.524	6713.562	-3309.729	1	7485.066	-26.2429	-2.352844E-008	0.0507863	7
	29	10	1265.625	6900.184	-3936.124	1	7943.904	-29.70206	1.91128E-009	0.0507627	7
	30	10	998.264	7142.269	-4756.787	1	8581.318	-33.66381	1.540717E-008	0.0507665	7
	31	11	796.875	7416.1	-5701.891	1	9354.684	-37.55499	3.841827E-008	0.0507136	7
	32	11	627.7902	7762.482	-6919.311	1	10398.7	-41.71313	-3.921192E-010	0.0507441	6
	33	11	505.5147	8130.509	-8254.049	1	11585.96	-45.432	7.324627E-009	0.0507162	6
	34	12	397.9953	8619.343	-10044.34	1	13235.63	-49.36615	1.112225E-009	0.0507968	6
	35	12	315.5048	9183.624	-12163.82	1	15241.31	-52.94737	6.532098E-010	0.0507949	6
	36	12	252.4038	9835.91	-14633.82	1	17632.18	-56.09356	5.059609E-010	0.0507972	6
	37	13	198.6229	10676.66	-17867.62	1	20814.49	-59.13989	1.074786E-009	0.0507961	6
	38	13	158.3615	11645.2	-21598.18	1	24537.56	-61.66756	1.906673E-009	0.0507897	6
	39	13	125.558	12838.69	-26235.91	1	29208.81	-63.92493	3.528678E-009	0.0507945	6
	40	14	100.4464	14297.39	-31668.92	1	34746.74	-65.70251	3.633678E-009	0.0507957	6
	41	14	79.00281	16203.05	-38868.45	1	42110.51	-67.37025	1.306519E-009	0.0507872	6
	42	14	63.3446	18297.55	-46318.42	1	49801.57	-68.44408	7.582202E-010	0.0507877	6
	43	15	49.86702	21446.48	-56802.9	1	60716.72	-69.31549	5.686666E-010	0.0507857	6
	44	15	39.72458	24957.85	-69100.38	1	73469.43	-70.14117	8.043998E-010	0.0507909	6
	45	15	31.6723	29737.12	-83590.16	1	88722.1	-70.41703	1.326826E-009	0.0507892	6
	46	16	24.93351	35646.8	-101615	1	107686.1	-70.66901	-3.939504E-010	0.0507852	5
	47	16	19.86229	42920.02	-122639.3	1	129932.8	-70.71151	-1.144076E-010	0.0507871	5
	48	16	15.83615	53014.48	-147110.9	1	156371.9	-70.18232	-3.93441E-010	0.0507847	5
	49	17	12.40079	65727.07	-179492.6	1	191148.2	-69.88815	-9.582662E-010	0.0507813	5
	50	17	9.93114	80003.95	-214603.7	1	229031.4	-69.55461	-1.01901E-009	0.0507803	5
	51	18	7.944915	99294.8	-254327.3	1	273023.5	-68.67327	-3.57304E-010	0.0507861	5
	52	18	6.317385	125512.5	-303647.3	1	328565.2	-67.54226	-1.005676E-009	0.0508003	5
	53	19	5.008013	158702.4	-360697.4	1	394067.3	-66.25111	2.236018E-009	0.0507809	5
	54	20	3.945707	200404.9	-426069.1	1	470847.2	-64.80968	5.651746E-010	0.0507799	5
	55	21	3.158693	253601.8	-492287.5	1	553769.7	-62.74475	-1.218618E-010	0.0507954	5
	56	23	2.504006	318329.6	-569506.7	1	652435.1	-60.7967	-3.864778E-010	0.0507889	5
	57	24	1.998082	386880.4	-650100.1	1	756509.4	-59.24274	-5.038231E-011	0.0507718	5
	58	26	1.584686	474251.7	-737451.2	1	876783.3	-57.2551	1.958294E-010	0.0508103	5
	59	28	1.266892	566281.7	-828735.9	1	1003732	-55.6549	1.229475E-010	0.0507648	4
	60	30	0.999041	674516.6	-935380	1	1153217	-54.20406	1.398131E-010	0.0507447	4
