EXPLAIN
TAG	EISPOT
TITLE	LABEL	Potentiostatic EIS	Test &Identifier
DATE	LABEL	1/28/2020	Date
TIME	LABEL	12:41:26	Time
NOTES	NOTES	6	&Notes...
	
	
	
	
	
	
PSTAT	PSTAT	REF600-11020	Potentiostat
VDC	POTEN	0.00000E+000	T	DC &Voltage (V)
FREQINIT	QUANT	1.00000E+006	Initial Fre&q. (Hz)
FREQFINAL	QUANT	1.00000E+000	Final Fre&q. (Hz)
PTSPERDEC	QUANT	1.00000E+001	Points/&decade
VAC	QUANT	2.50000E+001	AC &Voltage (mV rms)
AREA	QUANT	1.60000E-004	&Area (cm^2)
CONDIT	TWOPARAM	F	5.00000E+000	0.00000E+000	Conditionin&g	Time(s)	E(V)
DELAY	TWOPARAM	F	5.00000E+000	0.00000E+000	Init. De&lay	Time(s)	Stab.(mV/s)
SPEED	SELECTOR	0	&Optimize for:
ZGUESS	QUANT	1.00000E+003	E&stimated Z (ohms)
OCVCURVE	TABLE	39
	Pt	T	Vf	Vm	Ach	Over
	#	s	V vs. Ref.	V	V	bits
	0	0.258333	7.40126E-002	7.40126E-002	6.46136E-004	...........
	1	0.516667	7.40124E-002	7.40016E-002	6.46236E-004	...........
	2	0.775	7.40113E-002	7.40045E-002	6.37470E-004	...........
	3	1.03333	7.40085E-002	7.39691E-002	6.39436E-004	...........
	4	1.29167	7.39571E-002	7.15877E-002	6.34470E-004	...........
	5	1.55	7.36976E-002	7.08663E-002	6.37903E-004	...........
	6	1.80833	7.31144E-002	7.21133E-002	6.41303E-004	...........
	7	2.06667	7.24126E-002	7.22838E-002	6.39903E-004	...........
	8	2.325	7.19660E-002	7.22125E-002	6.45603E-004	...........
	9	2.58333	7.18901E-002	7.22247E-002	6.38370E-004	...........
	10	2.84167	7.20130E-002	7.24071E-002	6.40236E-004	...........
	11	3.1	7.21584E-002	7.24034E-002	6.46870E-004	...........
	12	3.35833	7.22619E-002	7.20822E-002	6.44437E-004	...........
	13	3.61667	7.23068E-002	7.22767E-002	6.46236E-004	...........
	14	3.875	7.22996E-002	7.24167E-002	6.45770E-004	...........
	15	4.13333	7.22856E-002	7.24306E-002	6.40403E-004	...........
	16	4.39167	7.23064E-002	7.25027E-002	6.44870E-004	...........
	17	4.65	7.23620E-002	7.26258E-002	6.39803E-004	...........
	18	4.90833	7.24360E-002	7.27441E-002	6.43703E-004	...........
	19	5.16667	7.25204E-002	7.27196E-002	6.39670E-004	...........
	20	5.425	7.25937E-002	7.21511E-002	6.45203E-004	...........
	21	5.68333	7.25975E-002	7.18651E-002	6.49670E-004	...........
	22	5.94167	7.24823E-002	7.19398E-002	6.47570E-004	...........
	23	6.2	7.22857E-002	7.21010E-002	6.44070E-004	...........
	24	6.45833	7.21166E-002	7.22548E-002	6.48370E-004	...........
	25	6.71667	7.20557E-002	7.23667E-002	6.39870E-004	...........
	26	6.975	7.21044E-002	7.25471E-002	6.43936E-004	...........
	27	7.23333	7.22195E-002	7.26137E-002	6.50970E-004	...........
	28	7.49167	7.23561E-002	7.26683E-002	6.45770E-004	...........
	29	7.75	7.24837E-002	7.27827E-002	6.40337E-004	...........
	30	8.00833	7.25888E-002	7.27535E-002	6.38370E-004	...........
	31	8.26667	7.26692E-002	7.27657E-002	6.41903E-004	...........
	32	8.525	7.27240E-002	7.28099E-002	6.43103E-004	...........
	33	8.78333	7.27555E-002	7.27000E-002	6.39403E-004	...........
	34	9.04167	7.27641E-002	7.25962E-002	6.43070E-004	...........
	35	9.3	7.27447E-002	7.25860E-002	6.41470E-004	...........
	36	9.5583	7.27013E-002	7.26563E-002	6.45003E-004	...........
	37	9.8167	7.26604E-002	7.28154E-002	6.50003E-004	...........
	38	10.075	7.26512E-002	7.26805E-002	6.48103E-004	...........
EOC	QUANT	0.0726512	Open Circuit (V)
PSTATMODEL	IQUANT	4	Pstat Model
PSTATSECTION	LABEL	REF600-11020	Pstat Section
PSTATSERIALNO	LABEL	11020	Pstat Serial Number
CTRLMODE	IQUANT	1	Control Mode
IESTAB	IQUANT	0	I/E Stability
CASPEED	IQUANT	1	Control Amp Speed
CONVENTION	IQUANT	1	Current Convention
ICHRANGE	IQUANT	2	Ich Range
ICHRANGEMODE	TOGGLE	F	Ich Auto Range
ICHOFFSETENABLE	TOGGLE	T	Ich Offset Enable
ICHOFFSET	QUANT	0	Ich Offset (V)
ICHFILTER	IQUANT	3	Ich Filter
VCHRANGE	IQUANT	2	Vch Range
VCHRANGEMODE	TOGGLE	F	Vch Auto Range
VCHOFFSETENABLE	TOGGLE	T	Vch Offset Enable
VCHOFFSET	QUANT	0	Vch Offset (V)
VCHFILTER	IQUANT	3	Vch Filter
ACHRANGE	IQUANT	2	Ach Range
ACHOFFSETENABLE	TOGGLE	F	Ach Offset Enable
ACHOFFSET	QUANT	0	Ach Offset (V)
ACHFILTER	IQUANT	3	Ach Filter
IERANGELOWERLIMIT	IQUANT	1	I/E Range Lower Limit
IERANGEMODE	TOGGLE	F	I/E AutoRange
IERANGE	IQUANT	8	I/E Range
POSFEEDENABLE	TOGGLE	F	Positive Feedback IR Comp
POSFEEDRESISTANCE	QUANT	0	Positive Feedback Resistance (ohm)
ACHSELECT	IQUANT	0	Ach Select
CABLEID	IQUANT	14	Cable ID
DCCALDATE	LABEL	1/27/2020	DC Calibration Date
ACCALDATE	LABEL	1/27/2020	AC Calibration Date
THERMOSELECT	IQUANT	1	Thermo Select
FRAMEWORKVERSION	QUANT	6.33	Framework Version
INSTRUMENTVERSION	LABEL	3.50	Instrument Version
ZCURVE	TABLE
	Pt	Time	Freq	Zreal	Zimag	Zsig	Zmod	Zphz	Idc	Vdc	IERange
	#	s	Hz	ohm	ohm	V	ohm	°	A	V	#
	0	1	1000078	1918.76	-2149.632	1	2881.416	-48.24792	-6.76122E-006	0.0758539	8
	1	1	794390.6	2248.123	-2352.627	1	3254.061	-46.30124	-8.358357E-007	0.0754187	8
	2	2	630984.4	2636.419	-2577.396	1	3686.96	-44.35141	-1.429423E-006	0.0747938	8
	3	2	501234.4	3070.685	-2755.673	1	4125.875	-41.90522	-2.458775E-006	0.0749307	8
	4	2	398109.4	3531.516	-2910.619	1	4576.386	-39.4948	5.796413E-007	0.0742337	8
	5	3	316265.6	4037.789	-3054.515	1	5062.983	-37.10686	-2.458676E-006	0.074802	8
	6	3	251203.1	4560.94	-3174.27	1	5556.812	-34.83669	2.561633E-009	0.0743672	8
	7	3	199546.9	5105.947	-3191.259	1	6021.198	-32.00573	5.162491E-007	0.0741063	8
	8	4	158578.1	5633.061	-3275.173	1	6515.99	-30.17457	-8.032453E-008	0.0743638	8
	9	4	125953.1	6169.193	-3165.769	1	6934.049	-27.16498	-1.528068E-007	0.0745258	7
	10	4	100078.1	6664.673	-3150.805	1	7371.936	-25.30301	3.905508E-008	0.0742003	7
	11	5	79453.13	7129.588	-3128.386	1	7785.745	-23.69135	-2.554044E-008	0.0743103	7
	12	5	63140.62	7575.277	-3109.831	1	8188.765	-22.31931	-3.683525E-008	0.0743801	7
	13	5	50203.12	7996.589	-3103.844	1	8577.837	-21.21352	-3.736908E-008	0.0743369	7
	14	6	39890.62	8409.398	-3109.874	1	8966.008	-20.29486	3.614001E-009	0.0742418	7
	15	6	31640.63	8814.539	-3141.863	1	9357.746	-19.61815	6.630285E-008	0.0741667	7
	16	6	25171.88	9213.162	-3207.358	1	9755.49	-19.19443	-2.961177E-008	0.0744245	7
	17	6	20015.62	9610.36	-3300.505	1	10161.31	-18.95411	-1.733401E-008	0.0743636	7
	18	7	15890.62	10022.72	-3420.177	1	10590.21	-18.84182	7.12612E-008	0.0741793	7
	19	7	12609.37	10481.06	-3512.178	1	11053.87	-18.52587	-1.621047E-009	0.0742093	6
	20	7	10078.13	10888.79	-3724.552	1	11508.18	-18.88345	1.617799E-009	0.0743414	6
	21	8	8015.625	11329.79	-3994.193	1	12013.23	-19.41954	1.329149E-008	0.0741346	6
	22	8	6328.125	11828.56	-4317.503	1	12591.89	-20.05241	-5.164288E-009	0.0743988	6
	23	8	5015.625	12351.87	-4702.459	1	13216.73	-20.84224	-4.780937E-009	0.0744214	6
	24	9	3984.375	12916.94	-5139.97	1	13902.04	-21.69883	3.72422E-009	0.0741385	6
	25	9	3170.956	13539.84	-5644.588	1	14669.31	-22.63064	1.995874E-009	0.0743438	6
	26	9	2527.573	14211.6	-6207.844	1	15508.28	-23.59645	-5.32771E-009	0.0743965	6
	27	10	1976.103	15001.43	-6894.74	1	16510.01	-24.68377	1.475031E-008	0.0740464	6
	28	10	1577.524	15794.01	-7622.182	1	17537.06	-25.76193	-8.054305E-009	0.07435	6
	29	10	1265.625	16611.65	-8419.742	1	18623.61	-26.87852	7.838183E-009	0.0741168	6
	30	11	998.264	17567.94	-9428.376	1	19938.07	-28.2216	3.620617E-009	0.0743409	6
	31	11	796.875	18543.25	-10559.06	1	21338.84	-29.65842	3.051794E-009	0.0743417	6
	32	11	627.7902	19683.6	-11987.44	1	23046.53	-31.34169	-1.602095E-009	0.0742085	6
	33	12	505.5147	20847.88	-13505.51	1	24840.15	-32.93566	8.124467E-009	0.0742656	6
	34	12	397.9953	22299.68	-15512.88	1	27164.78	-34.8246	7.218959E-010	0.074303	6
	35	12	315.5048	23958.21	-17771.31	1	29829.78	-36.56665	4.883432E-010	0.0743	6
	36	13	252.4038	25786.19	-20281.56	1	32806.54	-38.18604	3.631699E-010	0.0742926	6
	37	13	198.6229	28078.48	-23363.73	1	36527.59	-39.76339	9.88837E-010	0.0742939	6
	38	13	158.3615	30553.56	-26670.61	1	40556.64	-41.11814	1.275562E-009	0.0742938	6
	39	13	125.558	33380.81	-30514.39	1	45226.17	-42.43136	1.068643E-009	0.0742919	6
	40	14	100.4464	36279.44	-34692.39	1	50197.21	-43.71899	3.229891E-010	0.0742923	6
	41	14	79.00281	39723.79	-39903.18	1	56304.91	-45.12908	1.379446E-009	0.0742899	6
	42	14	63.3446	44211.3	-45667.78	1	63562.46	-45.92839	3.584814E-010	0.0742923	6
	43	15	49.86702	47884.48	-53137.27	1	71529.66	-47.97651	3.92589E-010	0.0742917	6
	44	15	39.72458	51672.16	-61246.48	1	80132.04	-49.84649	5.402447E-010	0.0742942	6
	45	16	31.6723	56071.11	-71429.07	1	90807.94	-51.86844	7.313046E-010	0.0742952	6
	46	16	24.93351	61833.85	-84527.27	1	104729.6	-53.81358	2.073535E-010	0.0742901	5
	47	16	19.86229	67846.83	-99797.7	1	120676.3	-55.79043	1.011103E-009	0.0742937	5
	48	16	15.83615	75265.32	-118991	1	140796.8	-57.68544	3.657272E-010	0.0742907	5
	49	17	12.40079	85203.34	-143525.6	1	166910.7	-59.3047	-2.797218E-011	0.0742881	5
	50	17	9.93114	95891.9	-169144.2	1	194435.1	-60.45007	-8.692479E-011	0.0742854	5
	51	18	7.944915	110026.2	-200039	1	228301	-61.18815	-8.781046E-011	0.0742956	5
	52	18	6.317385	128195.7	-238457.8	1	270732.8	-61.73738	-5.23707E-011	0.0742918	5
	53	19	5.008013	151729.3	-283452.2	1	321507.2	-61.84028	2.027653E-010	0.0742931	5
	54	20	3.945707	182094.6	-336136.6	1	382290.8	-61.55435	-3.217044E-011	0.0742796	5
	55	22	3.158693	217268.2	-392010.2	1	448193.6	-61.00298	1.791041E-010	0.0742764	5
	56	23	2.504006	259802.1	-456654.3	1	525385.8	-60.36336	1.903364E-010	0.0742783	5
	57	24	1.998082	308220.6	-526364.1	1	609966.5	-59.64824	9.135377E-012	0.0742337	5
	58	26	1.584686	361746.9	-608059.8	1	707529.1	-59.25074	4.613213E-011	0.074244	5
	59	28	1.266892	420212.4	-696252.6	1	813231.9	-58.88757	1.059163E-010	0.0742813	5
	60	30	0.999041	489638	-806820.3	1	943771.3	-58.74754	1.204124E-010	0.0743038	5
