EXPLAIN
TAG	EISPOT
TITLE	LABEL	Potentiostatic EIS	Test &Identifier
DATE	LABEL	1/14/2020	Date
TIME	LABEL	18:10:51	Time
NOTES	NOTES	5	&Notes...
	
	
	
	
	
PSTAT	PSTAT	REF600-11020	Potentiostat
VDC	POTEN	0.00000E+000	T	DC &Voltage (V)
FREQINIT	QUANT	1.00000E+006	Initial Fre&q. (Hz)
FREQFINAL	QUANT	1.00000E+000	Final Fre&q. (Hz)
PTSPERDEC	QUANT	1.00000E+001	Points/&decade
VAC	QUANT	2.50000E+001	AC &Voltage (mV rms)
AREA	QUANT	1.00000E-001	&Area (cm^2)
CONDIT	TWOPARAM	T	5.00000E+000	0.00000E+000	Conditionin&g	Time(s)	E(V)
DELAY	TWOPARAM	T	5.00000E+000	0.00000E+000	Init. De&lay	Time(s)	Stab.(mV/s)
SPEED	SELECTOR	1	&Optimize for:
ZGUESS	QUANT	5.00000E+002	E&stimated Z (ohms)
OCVCURVE	TABLE	19
	Pt	T	Vf	Vm	Ach	Over
	#	s	V vs. Ref.	V	V	bits
	0	0.258333	6.55336E-003	6.55336E-003	6.40780E-004	...........
	1	0.516667	6.55598E-003	6.69044E-003	6.37313E-004	...........
	2	0.775	6.57178E-003	6.80553E-003	6.39813E-004	...........
	3	1.03333	6.61451E-003	6.86288E-003	6.43613E-004	...........
	4	1.29167	6.68609E-003	6.99023E-003	6.40280E-004	...........
	5	1.55	6.77788E-003	7.19405E-003	6.40280E-004	...........
	6	1.80833	6.88783E-003	7.36538E-003	6.41413E-004	...........
	7	2.06667	7.02166E-003	7.55760E-003	6.43146E-004	...........
	8	2.325	7.17956E-003	7.72045E-003	6.42713E-004	...........
	9	2.58333	7.35197E-003	7.85866E-003	6.38946E-004	...........
	10	2.84167	7.52509E-003	7.97346E-003	6.42046E-004	...........
	11	3.1	7.68701E-003	8.09688E-003	6.37813E-004	...........
	12	3.35833	7.83264E-003	8.21783E-003	6.37546E-004	...........
	13	3.61667	7.96463E-003	8.34503E-003	6.38146E-004	...........
	14	3.875	8.08930E-003	8.46666E-003	6.38980E-004	...........
	15	4.13333	8.21168E-003	8.58380E-003	6.38813E-004	...........
	16	4.39167	8.33355E-003	8.70254E-003	6.46746E-004	...........
	17	4.65	8.45476E-003	8.82978E-003	6.44113E-004	...........
	18	4.90833	8.57534E-003	8.94057E-003	6.41813E-004	...........
EOC	QUANT	0.0085753	Open Circuit (V)
PSTATMODEL	IQUANT	4	Pstat Model
PSTATSECTION	LABEL	REF600-11020	Pstat Section
PSTATSERIALNO	LABEL	11020	Pstat Serial Number
CTRLMODE	IQUANT	1	Control Mode
IESTAB	IQUANT	0	I/E Stability
CASPEED	IQUANT	1	Control Amp Speed
CONVENTION	IQUANT	1	Current Convention
ICHRANGE	IQUANT	2	Ich Range
ICHRANGEMODE	TOGGLE	F	Ich Auto Range
ICHOFFSETENABLE	TOGGLE	T	Ich Offset Enable
ICHOFFSET	QUANT	0	Ich Offset (V)
ICHFILTER	IQUANT	3	Ich Filter
VCHRANGE	IQUANT	2	Vch Range
VCHRANGEMODE	TOGGLE	F	Vch Auto Range
VCHOFFSETENABLE	TOGGLE	T	Vch Offset Enable
VCHOFFSET	QUANT	0	Vch Offset (V)
VCHFILTER	IQUANT	3	Vch Filter
ACHRANGE	IQUANT	2	Ach Range
ACHOFFSETENABLE	TOGGLE	F	Ach Offset Enable
ACHOFFSET	QUANT	0	Ach Offset (V)
ACHFILTER	IQUANT	3	Ach Filter
IERANGELOWERLIMIT	IQUANT	1	I/E Range Lower Limit
IERANGEMODE	TOGGLE	F	I/E AutoRange
IERANGE	IQUANT	7	I/E Range
POSFEEDENABLE	TOGGLE	F	Positive Feedback IR Comp
POSFEEDRESISTANCE	QUANT	0	Positive Feedback Resistance (ohm)
ACHSELECT	IQUANT	0	Ach Select
CABLEID	IQUANT	14	Cable ID
DCCALDATE	LABEL	12/22/2019	DC Calibration Date
ACCALDATE	LABEL	12/22/2019	AC Calibration Date
THERMOSELECT	IQUANT	1	Thermo Select
FRAMEWORKVERSION	QUANT	6.33	Framework Version
INSTRUMENTVERSION	LABEL	3.50	Instrument Version
ZCURVE	TABLE
	Pt	Time	Freq	Zreal	Zimag	Zsig	Zmod	Zphz	Idc	Vdc	IERange
	#	s	Hz	ohm	ohm	V	ohm	°	A	V	#
	0	1	1000078	1992.022	-1176.225	1	2313.365	-30.56049	1.992006E-006	0.0106201	8
	1	2	794390.6	2171.933	-1156.298	1	2460.552	-28.03003	-1.973897E-007	0.0102673	8
	2	4	630984.4	2355.338	-1144.867	1	2618.843	-25.92315	1.559935E-006	0.009968	8
	3	5	501234.4	2532.073	-1112.479	1	2765.683	-23.71853	1.196501E-006	0.0098949	8
	4	6	398109.4	2699.595	-1084.944	1	2909.453	-21.89477	-8.192029E-007	0.0103133	8
	5	7	316265.6	2860.187	-1048.903	1	3046.451	-20.13927	-1.902553E-006	0.0104398	8
	6	9	251203.1	3016.003	-1015.986	1	3182.531	-18.61687	-3.586262E-007	0.0101558	8
	7	10	199546.9	3158.363	-981.939	1	3307.486	-17.27053	3.049979E-006	0.0095954	8
	8	11	158578.1	3306.183	-962.15	1	3443.338	-16.2258	1.596635E-007	0.0099807	8
	9	13	125953.1	3447.16	-889.8208	1	3560.153	-14.4739	-5.325672E-007	0.0116175	7
	10	14	100078.1	3571.498	-865.3091	1	3674.828	-13.61929	5.508799E-008	0.0099225	7
	11	15	79453.13	3693.495	-847.7042	1	3789.526	-12.92625	1.317293E-008	0.0099637	7
	12	17	63140.62	3810.79	-831.453	1	3900.44	-12.30813	-5.950005E-009	0.0100241	7
	13	18	50203.12	3924.126	-816.5836	1	4008.188	-11.7551	5.199228E-008	0.009905	7
	14	19	39890.62	4035.544	-804.8466	1	4115.021	-11.27905	4.488664E-008	0.0099854	7
	15	21	31640.63	4143.323	-796.3982	1	4219.167	-10.88026	5.696954E-008	0.0099037	7
	16	22	25171.88	4247.571	-791.9788	1	4320.774	-10.56178	5.249392E-008	0.0099011	7
	17	23	20015.62	4346.179	-788.8278	1	4417.185	-10.28715	-2.255851E-008	0.0100148	7
	18	25	15890.62	4447.766	-798.3066	1	4518.84	-10.17538	-1.315095E-008	0.0099982	7
	19	26	12609.37	4543.407	-813.3665	1	4615.638	-10.14965	6.04034E-010	0.0100196	7
	20	27	10078.13	4635.493	-836.9797	1	4710.449	-10.23499	-3.094914E-009	0.0100201	7
	21	29	8015.625	4717.62	-870.8044	1	4797.315	-10.45826	8.626728E-008	0.0098853	7
	22	30	6328.125	4818.615	-927.5202	1	4907.071	-10.89543	1.47169E-008	0.0099521	7
	23	31	5015.625	4912.389	-997.778	1	5012.696	-11.48142	-3.198869E-011	0.010024	7
	24	33	3984.375	5004.862	-1092.973	1	5122.815	-12.31898	1.515915E-008	0.0099543	7
	25	34	3170.956	5101.796	-1200.546	1	5241.148	-13.24183	-3.491328E-008	0.0100572	7
	26	35	2527.573	5198.082	-1340.813	1	5368.224	-14.46381	-2.119753E-009	0.0100214	7
	27	37	1976.103	5302.217	-1534.182	1	5519.712	-16.13766	5.506773E-008	0.009894	7
	28	38	1577.524	5399.612	-1776.334	1	5684.292	-18.20988	4.182666E-009	0.0100164	7
	29	39	1265.625	5502.209	-2030.675	1	5864.976	-20.25735	-1.329157E-008	0.0099957	7
	30	41	998.264	5612.854	-2400.482	1	6104.624	-23.15522	1.53394E-008	0.0099456	7
	31	42	796.875	5731.689	-2846.615	1	6399.647	-26.41106	-6.383889E-009	0.0100827	7
	32	43	627.7902	5870.368	-3431.435	1	6799.703	-30.30778	-2.110238E-008	0.0100094	7
	33	45	505.5147	6017.541	-4096.164	1	7279.378	-34.24327	2.460565E-008	0.0099731	7
	34	46	397.9953	6221.365	-5007.709	1	7986.397	-38.83133	8.79418E-009	0.010001	7
	35	47	315.5048	6464.334	-6105.22	1	8891.644	-43.36349	8.693665E-009	0.0100088	7
	36	49	252.4038	6761.811	-7399.83	1	10023.95	-47.57958	1.41764E-009	0.0100051	6
	37	50	198.6229	7171.745	-9108.422	1	11592.98	-51.78399	9.32435E-010	0.0100114	6
	38	51	158.3615	7675.773	-11085.42	1	13483.47	-55.30048	1.04E-009	0.0100032	6
	39	53	125.558	8350.178	-13550.38	1	15916.61	-58.3573	7.7323E-010	0.0100106	6
	40	54	100.4464	9194.821	-16413.32	1	18813.35	-60.74224	1.04425E-009	0.010007	6
	41	55	79.00281	10413.2	-20122.39	1	22657.12	-62.63873	5.614823E-010	0.0100064	6
	42	57	63.3446	11819.35	-24156.9	1	26893.37	-63.92869	9.632608E-010	0.0100068	6
	43	58	49.86702	13939.06	-29509.71	1	32636.18	-64.71606	6.900209E-010	0.0100007	6
	44	60	39.72458	16444.54	-35367.01	1	39003.19	-65.06306	3.817814E-010	0.0100077	6
	45	61	31.6723	19719.27	-42208.5	1	46587.63	-64.95863	1.064352E-009	0.0100089	6
	46	62	24.93351	24018.83	-50591.87	1	56003.94	-64.60365	7.138732E-010	0.0100078	6
	47	64	19.86229	29230.67	-59730.15	1	66499.05	-63.92385	5.591667E-010	0.0100105	6
	48	65	15.83615	35687.96	-69927.33	1	78507.72	-62.96215	1.579103E-009	0.0100078	6
	49	66	12.40079	43777.7	-82441.34	1	93343.79	-62.03097	-1.855366E-010	0.0100095	6
	50	68	9.93114	52848.21	-95320.3	1	108990.4	-60.9948	-1.39357E-010	0.0100055	5
	51	69	7.944915	63551.61	-109367.9	1	126491.7	-59.83995	-8.578228E-010	0.0100024	5
	52	71	6.317385	76001.33	-125446.9	1	146673.5	-58.79065	-4.224594E-010	0.0100039	5
	53	73	5.008013	90053.23	-143409.2	1	169339.3	-57.8734	3.147789E-010	0.0100168	5
	54	75	3.945707	105914.5	-164170.8	1	195371.3	-57.17199	-4.383626E-010	0.0099998	5
	55	77	3.158693	122012	-186127.8	1	222554.5	-56.75403	1.263497E-010	0.0100139	5
	56	81	2.504006	139729.2	-212733	1	254518.3	-56.70192	-2.35818E-010	0.0100169	5
	57	83	1.998082	157005.6	-242935.1	1	289254.6	-57.12597	1.496785E-010	0.0099883	5
	58	87	1.584686	176075.8	-282297.5	1	332708	-58.04721	-3.301567E-010	0.0099574	5
	59	90	1.266892	195724.9	-326448.8	1	380627.2	-59.05488	6.551007E-011	0.0099932	5
	60	94	0.999041	219380.7	-386584.9	1	444495	-60.42579	-2.407217E-010	0.0099978	5
