EXPLAIN
TAG	EISPOT
TITLE	LABEL	Potentiostatic EIS	Test &Identifier
DATE	LABEL	2/11/2020	Date
TIME	LABEL	11:29:43	Time
NOTES	NOTES	6	&Notes...
	
	
	
	
	
	
PSTAT	PSTAT	REF600-11020	Potentiostat
VDC	POTEN	0.00000E+000	T	DC &Voltage (V)
FREQINIT	QUANT	1.00000E+006	Initial Fre&q. (Hz)
FREQFINAL	QUANT	1.00000E+000	Final Fre&q. (Hz)
PTSPERDEC	QUANT	1.00000E+001	Points/&decade
VAC	QUANT	2.50000E+001	AC &Voltage (mV rms)
AREA	QUANT	4.00000E-005	&Area (cm^2)
CONDIT	TWOPARAM	F	5.00000E+000	0.00000E+000	Conditionin&g	Time(s)	E(V)
DELAY	TWOPARAM	F	5.00000E+000	0.00000E+000	Init. De&lay	Time(s)	Stab.(mV/s)
SPEED	SELECTOR	0	&Optimize for:
ZGUESS	QUANT	1.00000E+003	E&stimated Z (ohms)
OCVCURVE	TABLE	39
	Pt	T	Vf	Vm	Ach	Over
	#	s	V vs. Ref.	V	V	bits
	0	0.258333	1.31765E-002	1.31765E-002	5.66071E-004	...........
	1	0.516667	1.31776E-002	1.32358E-002	5.65904E-004	...........
	2	0.775	1.31829E-002	1.32050E-002	5.66104E-004	...........
	3	1.03333	1.31932E-002	1.32208E-002	5.66638E-004	...........
	4	1.29167	1.32066E-002	1.33295E-002	5.66904E-004	...........
	5	1.55	1.32264E-002	1.33747E-002	5.67971E-004	...........
	6	1.80833	1.32598E-002	1.33864E-002	5.65771E-004	...........
	7	2.06667	1.33039E-002	1.34069E-002	5.70371E-004	...........
	8	2.325	1.33467E-002	1.34251E-002	5.67604E-004	...........
	9	2.58333	1.33802E-002	1.34422E-002	5.68904E-004	...........
	10	2.84167	1.34047E-002	1.34581E-002	5.64404E-004	...........
	11	3.1	1.34240E-002	1.34737E-002	5.70471E-004	...........
	12	3.35833	1.34409E-002	1.34924E-002	5.73004E-004	...........
	13	3.61667	1.34572E-002	1.35048E-002	5.63438E-004	...........
	14	3.875	1.34709E-002	1.33963E-002	5.64538E-004	...........
	15	4.13333	1.34701E-002	1.31908E-002	5.66404E-004	...........
	16	4.39167	1.34356E-002	1.31749E-002	5.64504E-004	...........
	17	4.65	1.33624E-002	1.30826E-002	5.66438E-004	...........
	18	4.90833	1.32725E-002	1.31805E-002	5.68104E-004	...........
	19	5.16667	1.32036E-002	1.34386E-002	5.68071E-004	...........
	20	5.425	1.31909E-002	1.33952E-002	5.65004E-004	...........
	21	5.68333	1.32408E-002	1.35265E-002	5.72704E-004	...........
	22	5.94167	1.33259E-002	1.35703E-002	5.64004E-004	...........
	23	6.2	1.34146E-002	1.35967E-002	5.68171E-004	...........
	24	6.45833	1.34922E-002	1.37067E-002	5.73638E-004	...........
	25	6.71667	1.35556E-002	1.35806E-002	5.65971E-004	...........
	26	6.975	1.35985E-002	1.34885E-002	5.66838E-004	...........
	27	7.23333	1.36086E-002	1.35513E-002	5.70738E-004	...........
	28	7.49167	1.35893E-002	1.35732E-002	5.68238E-004	...........
	29	7.75	1.35632E-002	1.34679E-002	5.68238E-004	...........
	30	8.00833	1.35443E-002	1.35258E-002	5.65304E-004	...........
	31	8.26667	1.35308E-002	1.35524E-002	5.67204E-004	...........
	32	8.525	1.35241E-002	1.35582E-002	5.68738E-004	...........
	33	8.78333	1.35268E-002	1.34986E-002	5.74138E-004	...........
	34	9.04167	1.35325E-002	1.35376E-002	5.70371E-004	...........
	35	9.3	1.35348E-002	1.35948E-002	5.62638E-004	...........
	36	9.5583	1.35399E-002	1.36506E-002	5.62504E-004	...........
	37	9.8167	1.35578E-002	1.36303E-002	5.65638E-004	...........
	38	10.075	1.35866E-002	1.36651E-002	5.61304E-004	...........
EOC	QUANT	0.0135866	Open Circuit (V)
PSTATMODEL	IQUANT	4	Pstat Model
PSTATSECTION	LABEL	REF600-11020	Pstat Section
PSTATSERIALNO	LABEL	11020	Pstat Serial Number
CTRLMODE	IQUANT	1	Control Mode
IESTAB	IQUANT	0	I/E Stability
CASPEED	IQUANT	1	Control Amp Speed
CONVENTION	IQUANT	1	Current Convention
ICHRANGE	IQUANT	2	Ich Range
ICHRANGEMODE	TOGGLE	F	Ich Auto Range
ICHOFFSETENABLE	TOGGLE	T	Ich Offset Enable
ICHOFFSET	QUANT	0	Ich Offset (V)
ICHFILTER	IQUANT	3	Ich Filter
VCHRANGE	IQUANT	2	Vch Range
VCHRANGEMODE	TOGGLE	F	Vch Auto Range
VCHOFFSETENABLE	TOGGLE	T	Vch Offset Enable
VCHOFFSET	QUANT	0	Vch Offset (V)
VCHFILTER	IQUANT	3	Vch Filter
ACHRANGE	IQUANT	2	Ach Range
ACHOFFSETENABLE	TOGGLE	F	Ach Offset Enable
ACHOFFSET	QUANT	0	Ach Offset (V)
ACHFILTER	IQUANT	3	Ach Filter
IERANGELOWERLIMIT	IQUANT	1	I/E Range Lower Limit
IERANGEMODE	TOGGLE	F	I/E AutoRange
IERANGE	IQUANT	7	I/E Range
POSFEEDENABLE	TOGGLE	F	Positive Feedback IR Comp
POSFEEDRESISTANCE	QUANT	0	Positive Feedback Resistance (ohm)
ACHSELECT	IQUANT	0	Ach Select
CABLEID	IQUANT	14	Cable ID
DCCALDATE	LABEL	1/27/2020	DC Calibration Date
ACCALDATE	LABEL	1/27/2020	AC Calibration Date
THERMOSELECT	IQUANT	1	Thermo Select
FRAMEWORKVERSION	QUANT	6.33	Framework Version
INSTRUMENTVERSION	LABEL	3.50	Instrument Version
ZCURVE	TABLE
	Pt	Time	Freq	Zreal	Zimag	Zsig	Zmod	Zphz	Idc	Vdc	IERange
	#	s	Hz	ohm	ohm	V	ohm	°	A	V	#
	0	1	1000078	1869.558	-2254.761	1	2929.026	-50.33584	-9.21431E-007	0.0157597	8
	1	1	794390.6	2223.311	-2495.707	1	3342.404	-48.30361	-6.95424E-007	0.0156833	8
	2	1	630984.4	2663.647	-2734.782	1	3817.597	-45.75495	-7.740483E-007	0.0155225	8
	3	2	501234.4	3151.058	-2932.326	1	4304.382	-42.94078	-1.193576E-006	0.0153727	8
	4	2	398109.4	3724.331	-3106.606	1	4849.912	-39.83277	6.967625E-007	0.0149869	8
	5	2	316265.6	4304.275	-3209.092	1	5368.897	-36.70671	4.371684E-006	0.0143497	8
	6	3	251203.1	4971.583	-3213.04	1	5919.482	-32.87382	-2.989468E-006	0.0156222	8
	7	3	199546.9	5579.612	-3101.146	1	6383.508	-29.06528	-6.495227E-007	0.0151897	8
	8	3	158578.1	6146.328	-2947.704	1	6816.62	-25.62181	3.314633E-006	0.0145167	8
	9	4	125953.1	6668.933	-2663.705	1	7181.225	-21.77275	1.231067E-006	0.0123854	7
	10	4	100078.1	7081.896	-2419.231	1	7483.711	-18.86057	-5.334313E-008	0.0151409	7
	11	5	79453.13	7425.09	-2178.753	1	7738.147	-16.35333	-4.733403E-008	0.0151513	7
	12	5	63140.62	7704.343	-1948.674	1	7946.963	-14.19424	4.876366E-009	0.0150732	7
	13	5	50203.12	7924.894	-1747.01	1	8115.17	-12.43178	1.224233E-007	0.0148872	7
	14	6	39890.62	8101.15	-1571.649	1	8252.194	-10.97918	4.510889E-008	0.0149166	7
	15	6	31640.63	8250.742	-1430	1	8373.747	-9.8327	3.926223E-009	0.0149815	7
	16	6	25171.88	8386.328	-1333.286	1	8491.651	-9.033465	-2.689092E-008	0.0151755	7
	17	7	20015.62	8501.815	-1262.265	1	8595.009	-8.445019	4.559488E-008	0.0149168	7
	18	7	15890.62	8612.737	-1222.857	1	8699.116	-8.080981	-3.956235E-008	0.0150942	7
	19	7	12609.37	8715.019	-1213.703	1	8799.126	-7.928339	-3.957047E-008	0.0150906	7
	20	8	10078.13	8835.047	-1172.756	1	8912.542	-7.561187	8.576473E-009	0.0148576	6
	21	8	8015.625	8932.939	-1235.117	1	9017.922	-7.872116	2.248636E-009	0.0150986	6
	22	8	6328.125	9035.984	-1331.327	1	9133.534	-8.38144	-1.873444E-009	0.0151619	6
	23	8	5015.625	9136.27	-1462.939	1	9252.654	-9.097223	2.957489E-009	0.0149389	6
	24	9	3984.375	9243.595	-1637.135	1	9387.452	-10.04352	-2.493583E-011	0.0150129	6
	25	9	3170.956	9355.435	-1854.637	1	9537.5	-11.21303	-1.707017E-009	0.0149396	6
	26	9	2527.573	9474.937	-2129.358	1	9711.26	-12.66598	-2.853564E-009	0.0150111	6
	27	10	1976.103	9611.88	-2505.576	1	9933.09	-14.61043	-1.011292E-008	0.0151047	6
	28	10	1577.524	9764.49	-2940.674	1	10197.69	-16.76019	-2.431465E-009	0.0150078	6
	29	10	1265.625	9913.47	-3459.434	1	10499.74	-19.23709	3.893554E-009	0.0150967	6
	30	11	998.264	10107.65	-4151.497	1	10927.01	-22.32934	8.801766E-009	0.0150147	6
	31	11	796.875	10322.87	-4967.068	1	11455.71	-25.69553	-5.647184E-009	0.015171	6
	32	11	627.7902	10593.05	-6025.227	1	12186.71	-29.63082	-1.861206E-009	0.014938	6
	33	12	505.5147	10887.37	-7204.776	1	13055.41	-33.49481	-1.024617E-008	0.0150998	6
	34	12	397.9953	11285.29	-8797.407	1	14309.16	-37.93807	1.287418E-009	0.0150473	6
	35	12	315.5048	11761.75	-10692.41	1	15895.48	-42.27343	1.990893E-010	0.0150472	6
	36	13	252.4038	12328.71	-12910.3	1	17851.42	-46.32006	4.297784E-010	0.0150444	6
	37	13	198.6229	13098.44	-15812.51	1	20533.02	-50.36304	1.037277E-009	0.0150475	6
	38	13	158.3615	14010.51	-19148.06	1	23726.41	-53.80732	1.257928E-009	0.0150415	6
	39	14	125.558	15200.15	-23281.4	1	27804.11	-56.85997	9.540433E-010	0.0150442	6
	40	14	100.4464	16659.63	-28093.94	1	32662.1	-59.33217	1.10682E-010	0.0150365	6
	41	14	79.00281	18533.42	-34333.86	1	39016.68	-61.63982	4.594379E-011	0.0150389	6
	42	15	63.3446	21045.04	-40654.21	1	45778.36	-62.63123	1.002317E-009	0.0150439	6
	43	15	49.86702	24119.84	-49719.53	1	55261.18	-64.12114	9.890316E-010	0.0150418	6
	44	15	39.72458	27459.71	-60004.27	1	65989.01	-65.40978	1.116393E-009	0.0150421	6
	45	16	31.6723	31794.93	-72138.69	1	78834.69	-66.21465	1.144102E-009	0.0150431	6
	46	16	24.93351	38034.64	-87142.98	1	95081.7	-66.42054	9.444262E-010	0.0150446	6
	47	16	19.86229	45203.49	-103893.6	1	113301.5	-66.48643	5.931962E-010	0.0150441	5
	48	17	15.83615	54072.56	-124413.8	1	135656.4	-66.50934	2.003296E-010	0.0150385	5
	49	17	12.40079	66083.01	-149888	1	163809	-66.20815	-7.232293E-011	0.0150392	5
	50	17	9.93114	78945.53	-176200.4	1	193077.7	-65.86552	6.165968E-010	0.015042	5
	51	18	7.944915	95583.4	-207108.8	1	228101.4	-65.22607	7.828009E-010	0.0150367	5
	52	19	6.317385	116830.8	-244566.1	1	271038.8	-64.4659	4.962998E-010	0.0150261	5
	53	19	5.008013	142899.1	-288030.8	1	321530.6	-63.61288	3.654884E-010	0.0150392	5
	54	20	3.945707	176840.2	-339940.1	1	383186.3	-62.5161	-4.007188E-011	0.0150293	5
	55	22	3.158693	213874.9	-393866.1	1	448188.5	-61.49741	4.033209E-011	0.0150108	5
	56	23	2.504006	262428.7	-457082.9	1	527061.4	-60.13822	2.554386E-010	0.0150252	5
	57	25	1.998082	317835.8	-524063.8	1	612913.1	-58.76389	1.388243E-010	0.0150084	5
	58	26	1.584686	388008.3	-600238.9	1	714728.8	-57.12044	1.669095E-011	0.0149709	5
	59	28	1.266892	464519	-679447.4	1	823059.3	-55.64069	1.125366E-011	0.0149886	5
	60	31	0.999041	558096.9	-768373.6	1	949668.4	-54.00777	4.657654E-011	0.0150165	5
