EXPLAIN
TAG	EISPOT
TITLE	LABEL	Potentiostatic EIS	Test &Identifier
DATE	LABEL	1/7/2021	Date
TIME	LABEL	15:45:16	Time
NOTES	NOTES	1	&Notes...
	
PSTAT	PSTAT	REF600-11020	Potentiostat
VDC	POTEN	0.00000E+000	T	DC &Voltage (V)
FREQINIT	QUANT	1.00000E+006	Initial Fre&q. (Hz)
FREQFINAL	QUANT	1.00000E+000	Final Fre&q. (Hz)
PTSPERDEC	QUANT	1.00000E+001	Points/&decade
VAC	QUANT	2.50000E+001	AC &Voltage (mV rms)
AREA	QUANT	4.00000E-005	&Area (cm^2)
CONDIT	TWOPARAM	F	5.00000E+000	0.00000E+000	Conditionin&g	Time(s)	E(V)
DELAY	TWOPARAM	F	3.00000E+000	0.00000E+000	Init. De&lay	Time(s)	Stab.(mV/s)
SPEED	SELECTOR	0	&Optimize for:
ZGUESS	QUANT	1.00000E+003	E&stimated Z (ohms)
OCVCURVE	TABLE	39
	Pt	T	Vf	Vm	Ach	Over
	#	s	V vs. Ref.	V	V	bits
	0	0.258333	-1.84064E-002	-1.84064E-002	5.21059E-004	...........
	1	0.516667	-1.84065E-002	-1.84105E-002	5.15626E-004	...........
	2	0.775	-1.84071E-002	-1.84213E-002	5.19526E-004	...........
	3	1.03333	-1.84091E-002	-1.84207E-002	5.18193E-004	...........
	4	1.29167	-1.84124E-002	-1.84132E-002	5.10293E-004	...........
	5	1.55	-1.84156E-002	-1.84211E-002	5.12159E-004	...........
	6	1.80833	-1.84174E-002	-1.84186E-002	5.14759E-004	...........
	7	2.06667	-1.84183E-002	-1.84270E-002	5.11493E-004	...........
	8	2.325	-1.84196E-002	-1.84311E-002	5.21426E-004	...........
	9	2.58333	-1.84222E-002	-1.84409E-002	5.20059E-004	...........
	10	2.84167	-1.84267E-002	-1.84541E-002	5.15726E-004	...........
	11	3.1	-1.84334E-002	-1.84700E-002	5.15793E-004	...........
	12	3.35833	-1.84428E-002	-1.84862E-002	5.21326E-004	...........
	13	3.61667	-1.84547E-002	-1.84896E-002	5.21959E-004	...........
	14	3.875	-1.84672E-002	-1.84781E-002	5.17726E-004	...........
	15	4.13333	-1.84772E-002	-1.84946E-002	5.20926E-004	...........
	16	4.39167	-1.84834E-002	-1.84976E-002	5.20226E-004	...........
	17	4.65	-1.84880E-002	-1.85189E-002	5.07759E-004	...........
	18	4.90833	-1.84945E-002	-1.85469E-002	5.16993E-004	...........
	19	5.16667	-1.85052E-002	-1.85481E-002	5.15459E-004	...........
	20	5.425	-1.85194E-002	-1.85490E-002	5.12726E-004	...........
	21	5.68333	-1.85333E-002	-1.85523E-002	5.20993E-004	...........
	22	5.94167	-1.85433E-002	-1.85575E-002	5.17526E-004	...........
	23	6.2	-1.85496E-002	-1.85668E-002	5.18226E-004	...........
	24	6.45833	-1.85542E-002	-1.85689E-002	5.21426E-004	...........
	25	6.71667	-1.85590E-002	-1.85746E-002	5.20993E-004	...........
	26	6.975	-1.85642E-002	-1.85843E-002	5.20692E-004	...........
	27	7.23333	-1.85695E-002	-1.85773E-002	5.18759E-004	...........
	28	7.49167	-1.85740E-002	-1.85621E-002	5.15793E-004	...........
	29	7.75	-1.85761E-002	-1.85892E-002	5.17093E-004	...........
	30	8.00833	-1.85765E-002	-1.85921E-002	5.18793E-004	...........
	31	8.26667	-1.85784E-002	-1.85939E-002	5.13293E-004	...........
	32	8.525	-1.85831E-002	-1.86046E-002	5.24292E-004	...........
	33	8.78333	-1.85893E-002	-1.86092E-002	5.18559E-004	...........
	34	9.04167	-1.85959E-002	-1.86152E-002	5.17693E-004	...........
	35	9.3	-1.86025E-002	-1.86245E-002	5.20993E-004	...........
	36	9.5583	-1.86090E-002	-1.86266E-002	5.20259E-004	...........
	37	9.8167	-1.86157E-002	-1.86446E-002	5.19026E-004	...........
	38	10.075	-1.86232E-002	-1.86654E-002	5.18293E-004	...........
EOC	QUANT	-0.0186232	Open Circuit (V)
PSTATMODEL	IQUANT	4	Pstat Model
PSTATSECTION	LABEL	REF600-11020	Pstat Section
PSTATSERIALNO	LABEL	11020	Pstat Serial Number
CTRLMODE	IQUANT	1	Control Mode
IESTAB	IQUANT	0	I/E Stability
CASPEED	IQUANT	1	Control Amp Speed
CONVENTION	IQUANT	1	Current Convention
ICHRANGE	IQUANT	2	Ich Range
ICHRANGEMODE	TOGGLE	F	Ich Auto Range
ICHOFFSETENABLE	TOGGLE	T	Ich Offset Enable
ICHOFFSET	QUANT	0	Ich Offset (V)
ICHFILTER	IQUANT	3	Ich Filter
VCHRANGE	IQUANT	2	Vch Range
VCHRANGEMODE	TOGGLE	F	Vch Auto Range
VCHOFFSETENABLE	TOGGLE	T	Vch Offset Enable
VCHOFFSET	QUANT	0	Vch Offset (V)
VCHFILTER	IQUANT	3	Vch Filter
ACHRANGE	IQUANT	2	Ach Range
ACHOFFSETENABLE	TOGGLE	F	Ach Offset Enable
ACHOFFSET	QUANT	0	Ach Offset (V)
ACHFILTER	IQUANT	3	Ach Filter
IERANGELOWERLIMIT	IQUANT	1	I/E Range Lower Limit
IERANGEMODE	TOGGLE	F	I/E AutoRange
IERANGE	IQUANT	7	I/E Range
POSFEEDENABLE	TOGGLE	F	Positive Feedback IR Comp
POSFEEDRESISTANCE	QUANT	0	Positive Feedback Resistance (ohm)
ACHSELECT	IQUANT	0	Ach Select
CABLEID	IQUANT	14	Cable ID
DCCALDATE	LABEL	9/1/2020	DC Calibration Date
ACCALDATE	LABEL	9/1/2020	AC Calibration Date
THERMOSELECT	IQUANT	1	Thermo Select
FRAMEWORKVERSION	QUANT	6.33	Framework Version
INSTRUMENTVERSION	LABEL	3.50	Instrument Version
ZCURVE	TABLE
	Pt	Time	Freq	Zreal	Zimag	Zsig	Zmod	Zphz	Idc	Vdc	IERange
	#	s	Hz	ohm	ohm	V	ohm	°	A	V	#
	0	1	1000078	1208.7	-2956.293	1	3193.842	-67.76247	-6.826415E-008	-0.0163127	8
	1	1	794390.6	1503.829	-3495.921	1	3805.649	-66.72422	2.028026E-007	-0.0166836	8
	2	2	630984.4	1854.979	-4111.553	1	4510.634	-65.71688	1.246854E-007	-0.0168538	8
	3	2	501234.4	2256.727	-4820.132	1	5322.263	-64.91158	2.229551E-008	-0.0169517	8
	4	2	398109.4	2738.499	-5631.413	1	6261.963	-64.06682	3.664E-008	-0.0170268	8
	5	3	316265.6	3302.776	-6575.766	1	7358.602	-63.33123	3.72421E-008	-0.0170584	8
	6	3	251203.1	3937.558	-7665.867	1	8617.997	-62.81279	4.063903E-008	-0.0170636	8
	7	3	199546.9	4709.344	-8937.435	1	10102.26	-62.2142	3.721163E-008	-0.0170722	8
	8	4	158578.1	5579.962	-10415.07	1	11815.66	-61.81945	8.358988E-008	-0.0170631	8
	9	4	125953.1	6702.226	-12154.04	1	13879.5	-61.1259	-3.274712E-008	-0.0170287	7
	10	4	100078.1	7970.712	-14134.61	1	16227.12	-60.58072	1.495473E-008	-0.017122	7
	11	5	79453.13	9507.71	-16459.42	1	19008.13	-59.98732	1.83369E-008	-0.0171189	7
	12	5	63140.62	11360.41	-19112.99	1	22234.33	-59.27354	8.906076E-009	-0.0171057	7
	13	5	50203.12	13569.42	-22128.63	1	25957.76	-58.48311	5.479208E-009	-0.0171016	7
	14	6	39890.62	16214.61	-25591.76	1	30296.07	-57.64217	-4.873293E-009	-0.0171182	7
	15	6	31640.63	19420.57	-29380.41	1	35218.85	-56.53513	1.758836E-008	-0.01713	7
	16	6	25171.88	23211.54	-33526.6	1	40777.55	-55.3039	1.869413E-008	-0.0171277	7
	17	6	20015.62	27689.44	-38085.46	1	47087.23	-53.98156	-3.826757E-009	-0.0170999	7
	18	7	15890.62	32865.69	-43228.95	1	54303.74	-52.75535	7.294915E-009	-0.0171368	7
	19	7	12609.37	39153.8	-48510.3	1	62339.95	-51.09219	1.594732E-009	-0.0171493	6
	20	7	10078.13	46067.39	-54136.83	1	71084.46	-49.60409	1.588159E-009	-0.0171485	6
	21	8	8015.625	54336.26	-60143.89	1	81053.8	-47.90415	-2.352119E-010	-0.0171326	6
	22	8	6328.125	64342.07	-66383.19	1	92447.98	-45.89454	-3.164715E-010	-0.0171366	6
	23	8	5015.625	75781.59	-72283.46	1	104727	-43.6466	3.478561E-009	-0.017152	6
	24	9	3984.375	88691.74	-77432.53	1	117737.1	-41.12266	-1.507306E-009	-0.0170811	6
	25	9	3170.956	102911	-81264.7	1	131128.3	-38.29675	-8.287993E-010	-0.0170909	6
	26	9	2527.573	117912.4	-83541.58	1	144507.9	-35.31778	-1.194533E-009	-0.0171215	6
	27	10	1976.103	134742.6	-83957.65	1	158759.1	-31.9269	-1.188438E-009	-0.0171235	6
	28	10	1577.524	149488.8	-82333.32	1	170662.5	-28.84447	3.461825E-009	-0.0171567	6
	29	10	1265.625	163531.3	-78137.58	1	181240.1	-25.53913	-5.066164E-011	-0.0170948	5
	30	11	998.264	176108.3	-74074.12	1	191052.7	-22.81244	4.948084E-010	-0.0171622	5
	31	11	796.875	186635.6	-70151.31	1	199384.2	-20.59989	1.984719E-010	-0.0171068	5
	32	11	627.7902	196383.1	-66410.43	1	207308.2	-18.68387	2.717959E-010	-0.0171199	5
	33	12	505.5147	203869.1	-63632.16	1	213568.9	-17.33432	4.294491E-010	-0.0171724	5
	34	12	397.9953	211028.3	-61596.7	1	219834.2	-16.27191	1.870679E-010	-0.0171142	5
	35	12	315.5048	217283.4	-60881.75	1	225651.6	-15.65262	1.967102E-010	-0.0171172	5
	36	13	252.4038	223458.2	-61592.27	1	231791.2	-15.40992	1.633928E-010	-0.0171218	5
	37	13	198.6229	229089.2	-63623.05	1	237759.9	-15.52113	1.833546E-010	-0.0171177	5
	38	13	158.3615	235417	-67063.34	1	244782.8	-15.90069	1.51213E-010	-0.0171224	5
	39	14	125.558	242110.9	-72030.09	1	252598.5	-16.5682	1.95575E-010	-0.0171219	5
	40	14	100.4464	248845.6	-78277.97	1	260867	-17.46172	9.290737E-011	-0.0171216	5
	41	14	79.00281	256208.6	-86797.92	1	270512	-18.71527	1.4625E-010	-0.017121	5
	42	15	63.3446	263828.6	-96388.1	1	280884.6	-20.06945	6.733088E-011	-0.017122	5
	43	15	49.86702	273462.8	-109143.4	1	294438.8	-21.75775	2.137566E-011	-0.0171234	5
	44	15	39.72458	283444.7	-123829.8	1	309313.2	-23.59929	9.764779E-011	-0.0171208	5
	45	16	31.6723	294308.8	-141267.4	1	326457	-25.64087	4.230277E-011	-0.0171221	5
	46	16	24.93351	307686.1	-163402.9	1	348383.8	-27.97144	8.358131E-011	-0.0171281	5
	47	16	19.86229	321872.8	-189056.6	1	373288.7	-30.42846	5.875685E-010	-0.0171164	5
	48	17	15.83615	339837.3	-219245.4	1	404423	-32.82801	-4.01843E-010	-0.0171213	5
	49	17	12.40079	360237.2	-257631.1	1	442882.2	-35.57125	-8.354993E-011	-0.0171178	5
	50	17	9.93114	384002.3	-299111.8	1	486750.1	-37.91618	-2.585175E-010	-0.0171158	5
	51	17	7.944915	411740.1	-348527.2	1	539445.1	-40.24704	-5.764748E-010	-0.017119	5
	52	18	6.317385	447538.4	-407533.7	1	605288.6	-42.32136	9.563057E-011	-0.0171371	5
	53	19	5.008013	492765	-477108.1	1	685893.3	-44.07514	1.138409E-010	-0.0171243	5
	54	20	3.945707	549104	-558289.4	1	783072.4	-45.47524	-1.455308E-010	-0.0171356	5
	55	20	3.158693	614796	-643366.4	1	889884.5	-46.30085	9.35485E-011	-0.0171346	5
	56	22	2.504006	697379.8	-741139.6	1	1017657	-46.7424	3.083226E-011	-0.0171273	4
	57	23	1.998082	792771.1	-844012.9	1	1157948	-46.79314	-1.200422E-010	-0.017173	4
	58	24	1.584686	901966.3	-955842	1	1314221	-46.66109	-6.085488E-011	-0.0171351	4
	59	26	1.266892	1027122	-1068707	1	1482267	-46.13671	4.213035E-012	-0.0171047	4
	60	29	0.999041	1175552	-1198816	1	1679012	-45.56137	4.575755E-011	-0.0170904	4
