EXPLAIN
TAG	EISPOT
TITLE	LABEL	Potentiostatic EIS	Test &Identifier
DATE	LABEL	1/7/2021	Date
TIME	LABEL	15:40:12	Time
NOTES	NOTES	1	&Notes...
	
PSTAT	PSTAT	REF600-11020	Potentiostat
VDC	POTEN	0.00000E+000	T	DC &Voltage (V)
FREQINIT	QUANT	1.00000E+006	Initial Fre&q. (Hz)
FREQFINAL	QUANT	1.00000E+000	Final Fre&q. (Hz)
PTSPERDEC	QUANT	1.00000E+001	Points/&decade
VAC	QUANT	2.50000E+001	AC &Voltage (mV rms)
AREA	QUANT	4.00000E-005	&Area (cm^2)
CONDIT	TWOPARAM	F	5.00000E+000	0.00000E+000	Conditionin&g	Time(s)	E(V)
DELAY	TWOPARAM	F	3.00000E+000	0.00000E+000	Init. De&lay	Time(s)	Stab.(mV/s)
SPEED	SELECTOR	0	&Optimize for:
ZGUESS	QUANT	1.00000E+003	E&stimated Z (ohms)
OCVCURVE	TABLE	39
	Pt	T	Vf	Vm	Ach	Over
	#	s	V vs. Ref.	V	V	bits
	0	0.258333	5.44724E-002	5.44724E-002	5.13959E-004	...........
	1	0.516667	5.44722E-002	5.44592E-002	5.16126E-004	...........
	2	0.775	5.44706E-002	5.44445E-002	5.15259E-004	...........
	3	1.03333	5.44659E-002	5.44294E-002	5.12759E-004	...........
	4	1.29167	5.44572E-002	5.44121E-002	5.07359E-004	...........
	5	1.55	5.44448E-002	5.43966E-002	5.11959E-004	...........
	6	1.80833	5.44301E-002	5.43810E-002	5.09193E-004	...........
	7	2.06667	5.44143E-002	5.43679E-002	5.16226E-004	...........
	8	2.325	5.43985E-002	5.43542E-002	5.04693E-004	...........
	9	2.58333	5.43834E-002	5.43404E-002	5.05459E-004	...........
	10	2.84167	5.43691E-002	5.43270E-002	5.10726E-004	...........
	11	3.1	5.43552E-002	5.43124E-002	5.09393E-004	...........
	12	3.35833	5.43414E-002	5.42981E-002	5.15126E-004	...........
	13	3.61667	5.43277E-002	5.42893E-002	5.13193E-004	...........
	14	3.875	5.43141E-002	5.42755E-002	5.13426E-004	...........
	15	4.13333	5.43011E-002	5.42547E-002	5.11693E-004	...........
	16	4.39167	5.42878E-002	5.42442E-002	5.11026E-004	...........
	17	4.65	5.42738E-002	5.42287E-002	5.11959E-004	...........
	18	4.90833	5.42592E-002	5.42129E-002	5.10226E-004	...........
	19	5.16667	5.42443E-002	5.41985E-002	5.11326E-004	...........
	20	5.425	5.42295E-002	5.41849E-002	5.13926E-004	...........
	21	5.68333	5.42148E-002	5.41734E-002	5.11859E-004	...........
	22	5.94167	5.42005E-002	5.41620E-002	5.12759E-004	...........
	23	6.2	5.41872E-002	5.41513E-002	5.09226E-004	...........
	24	6.45833	5.41748E-002	5.41386E-002	5.08193E-004	...........
	25	6.71667	5.41630E-002	5.41260E-002	5.12359E-004	...........
	26	6.975	5.41512E-002	5.41138E-002	5.06726E-004	...........
	27	7.23333	5.41392E-002	5.40990E-002	5.14326E-004	...........
	28	7.49167	5.41268E-002	5.40865E-002	5.10126E-004	...........
	29	7.75	5.41139E-002	5.40750E-002	5.08726E-004	...........
	30	8.00833	5.41009E-002	5.40612E-002	5.14993E-004	...........
	31	8.26667	5.40880E-002	5.40476E-002	5.08893E-004	...........
	32	8.525	5.40751E-002	5.40327E-002	5.09059E-004	...........
	33	8.78333	5.40618E-002	5.40199E-002	5.02826E-004	...........
	34	9.04167	5.40484E-002	5.40111E-002	5.13893E-004	...........
	35	9.3	5.40351E-002	5.39979E-002	5.14793E-004	...........
	36	9.5583	5.40224E-002	5.39764E-002	5.13759E-004	...........
	37	9.8167	5.40101E-002	5.39980E-002	5.14926E-004	...........
	38	10.075	5.39993E-002	5.39741E-002	5.12093E-004	...........
EOC	QUANT	0.0539993	Open Circuit (V)
PSTATMODEL	IQUANT	4	Pstat Model
PSTATSECTION	LABEL	REF600-11020	Pstat Section
PSTATSERIALNO	LABEL	11020	Pstat Serial Number
CTRLMODE	IQUANT	1	Control Mode
IESTAB	IQUANT	0	I/E Stability
CASPEED	IQUANT	1	Control Amp Speed
CONVENTION	IQUANT	1	Current Convention
ICHRANGE	IQUANT	2	Ich Range
ICHRANGEMODE	TOGGLE	F	Ich Auto Range
ICHOFFSETENABLE	TOGGLE	T	Ich Offset Enable
ICHOFFSET	QUANT	0	Ich Offset (V)
ICHFILTER	IQUANT	3	Ich Filter
VCHRANGE	IQUANT	2	Vch Range
VCHRANGEMODE	TOGGLE	F	Vch Auto Range
VCHOFFSETENABLE	TOGGLE	T	Vch Offset Enable
VCHOFFSET	QUANT	0	Vch Offset (V)
VCHFILTER	IQUANT	3	Vch Filter
ACHRANGE	IQUANT	2	Ach Range
ACHOFFSETENABLE	TOGGLE	F	Ach Offset Enable
ACHOFFSET	QUANT	0	Ach Offset (V)
ACHFILTER	IQUANT	3	Ach Filter
IERANGELOWERLIMIT	IQUANT	1	I/E Range Lower Limit
IERANGEMODE	TOGGLE	F	I/E AutoRange
IERANGE	IQUANT	8	I/E Range
POSFEEDENABLE	TOGGLE	F	Positive Feedback IR Comp
POSFEEDRESISTANCE	QUANT	0	Positive Feedback Resistance (ohm)
ACHSELECT	IQUANT	0	Ach Select
CABLEID	IQUANT	14	Cable ID
DCCALDATE	LABEL	9/1/2020	DC Calibration Date
ACCALDATE	LABEL	9/1/2020	AC Calibration Date
THERMOSELECT	IQUANT	1	Thermo Select
FRAMEWORKVERSION	QUANT	6.33	Framework Version
INSTRUMENTVERSION	LABEL	3.50	Instrument Version
ZCURVE	TABLE
	Pt	Time	Freq	Zreal	Zimag	Zsig	Zmod	Zphz	Idc	Vdc	IERange
	#	s	Hz	ohm	ohm	V	ohm	°	A	V	#
	0	1	1000078	1422.693	-3067.25	1	3381.135	-65.11655	1.067106E-007	0.0561313	8
	1	2	794390.6	1797.999	-3635.611	1	4055.917	-63.6852	5.651189E-008	0.0557959	8
	2	2	630984.4	2285.971	-4261.18	1	4835.63	-61.78802	2.559585E-008	0.0556419	8
	3	2	501234.4	2913.008	-4932.524	1	5728.474	-59.43511	8.510811E-008	0.0555838	8
	4	3	398109.4	3691.761	-5643.076	1	6743.397	-56.80685	3.238546E-008	0.0554958	8
	5	3	316265.6	4652.997	-6335.551	1	7860.635	-53.70546	3.417855E-008	0.0554656	8
	6	3	251203.1	5803.909	-6966.204	1	9067.158	-50.20055	6.732677E-008	0.0554797	8
	7	4	199546.9	7121.709	-7495.365	1	10339.21	-46.46433	6.757043E-008	0.0554699	8
	8	4	158578.1	8532.464	-7884.207	1	11617.39	-42.7387	7.953037E-008	0.0554698	8
	9	4	125953.1	10096.6	-8066.146	1	12923.01	-38.62126	-3.47234E-008	0.0554961	7
	10	5	100078.1	11597.03	-8057.348	1	14121.33	-34.79068	9.08436E-010	0.0554304	7
	11	5	79453.13	13030.59	-7895.579	1	15236.02	-31.21279	1.166506E-008	0.0554261	7
	12	5	63140.62	14365.96	-7629.907	1	16266.41	-27.97323	1.248829E-008	0.0554127	7
	13	6	50203.12	15569.11	-7273.907	1	17184.5	-25.04204	-4.393073E-009	0.0554385	7
	14	6	39890.62	16648.48	-6912.617	1	18026.54	-22.54872	9.761671E-009	0.0554107	7
	15	6	31640.63	17618.88	-6542.519	1	18794.4	-20.37176	-1.210912E-008	0.055438	7
	16	7	25171.88	18474.03	-6226.515	1	19495.11	-18.62595	-3.691727E-009	0.0554212	7
	17	7	20015.62	19229.77	-5950.683	1	20129.45	-17.19477	-7.755874E-009	0.0554409	7
	18	7	15890.62	19944.46	-5758.217	1	20759.06	-16.1041	1.449778E-008	0.0554154	7
	19	8	12609.37	20639.29	-5596.473	1	21384.6	-15.1713	-3.791169E-010	0.05541	6
	20	8	10078.13	21273.18	-5565.316	1	21989.11	-14.66069	2.478124E-009	0.0553885	6
	21	8	8015.625	21899.96	-5611.167	1	22607.38	-14.37106	-1.151088E-009	0.0554205	6
	22	9	6328.125	22556.76	-5744.774	1	23276.81	-14.28838	-5.175657E-010	0.055405	6
	23	9	5015.625	23207.4	-5962.029	1	23960.99	-14.40783	-2.302171E-009	0.0554376	6
	24	9	3984.375	23884.04	-6268.751	1	24693.01	-14.70649	-2.417654E-009	0.0554335	6
	25	9	3170.956	24592.34	-6664.642	1	25479.42	-15.16322	2.386402E-009	0.0553906	6
	26	10	2527.573	25327.24	-7159.245	1	26319.65	-15.78399	-2.344205E-009	0.0554334	6
	27	10	1976.103	26190.04	-7813.549	1	27330.75	-16.61197	-2.380308E-009	0.0554405	6
	28	10	1577.524	27033.86	-8533.332	1	28348.68	-17.51848	9.809064E-010	0.0554094	6
	29	11	1265.625	27914.14	-9374.265	1	29446.15	-18.56334	-4.495892E-010	0.0553923	6
	30	11	998.264	28962.79	-10443.46	1	30788.13	-19.8284	-1.847316E-009	0.0554426	6
	31	11	796.875	30034.48	-11648.73	1	32214.33	-21.19854	-1.938374E-009	0.0554112	6
	32	12	627.7902	31284.52	-13150.42	1	33936.04	-22.7994	1.087429E-009	0.0554082	6
	33	12	505.5147	32533.52	-14761.06	1	35725.61	-24.40467	2.437807E-009	0.0553877	6
	34	12	397.9953	34047.61	-16852.52	1	37990.09	-26.334	4.123376E-010	0.0554283	6
	35	13	315.5048	35684.59	-19257.64	1	40549.31	-28.35408	4.277693E-010	0.0554271	6
	36	13	252.4038	37433.63	-21981.34	1	43410.32	-30.42181	4.391396E-010	0.0554256	6
	37	13	198.6229	39528.26	-25449.23	1	47012.19	-32.77439	3.897139E-010	0.0554231	6
	38	14	158.3615	41747.18	-29343.85	1	51028.31	-35.10316	5.017229E-010	0.0554208	6
	39	14	125.558	44299.82	-34097.94	1	55902.98	-37.58577	4.086745E-010	0.055421	6
	40	14	100.4464	47063.01	-39529.65	1	61461.54	-40.02792	3.758066E-010	0.0554219	6
	41	15	79.00281	50445.79	-46522.76	1	68623.21	-42.68326	2.696089E-010	0.0554251	6
	42	15	63.3446	54007.16	-54221.9	1	76529.65	-45.11369	2.742671E-010	0.0554185	6
	43	15	49.86702	58449.77	-64204.71	1	86825.23	-47.68635	4.157626E-010	0.0554171	6
	44	16	39.72458	63347.42	-75605.55	1	98636.2	-50.04146	2.848863E-010	0.0554203	6
	45	16	31.6723	69018.45	-89121.38	1	112721.6	-52.24465	-4.868778E-011	0.0554144	5
	46	16	24.93351	76062.83	-106364	1	130762.6	-54.43076	-7.077054E-011	0.0554125	5
	47	17	19.86229	84012.31	-126076	1	151503.2	-56.322	-4.341883E-010	0.0554049	5
	48	17	15.83615	93498.92	-149670.4	1	176474.6	-58.00703	2.286491E-010	0.0554115	5
	49	17	12.40079	106148.6	-180208.6	1	209147.5	-59.50055	-4.149687E-010	0.0554184	5
	50	18	9.93114	119871.9	-213357.9	1	244726.1	-60.67121	-3.417625E-010	0.0554085	5
	51	18	7.944915	137066.9	-252702.2	1	287481.7	-61.52437	4.073746E-010	0.0554114	5
	52	18	6.317385	158453.1	-300658.8	1	339857.4	-62.20988	-5.170755E-011	0.0554151	5
	53	19	5.008013	185914	-357823.3	1	403238.8	-62.545	-1.488391E-010	0.0554013	5
	54	20	3.945707	220013.4	-426189.2	1	479628.1	-62.69567	4.919072E-012	0.0554082	5
	55	21	3.158693	258522.2	-500446.4	1	563276.4	-62.67988	-6.361098E-011	0.0553958	5
	56	22	2.504006	307727.6	-589318.3	1	664825.1	-62.42754	1.29862E-010	0.0553978	5
	57	23	1.998082	362241.3	-688350.6	1	777846.6	-62.24463	9.885709E-011	0.0554132	5
	58	25	1.584686	431310.9	-805195.6	1	913438	-61.82384	1.934375E-011	0.0553606	5
	59	27	1.266892	507981.3	-939839.4	1	1068337	-61.60887	-1.154033E-011	0.0553559	4
	60	29	0.999041	599604.9	-1102845	1	1255306	-61.46756	-1.657719E-011	0.05538	4
