EXPLAIN
TAG	EISPOT
TITLE	LABEL	Potentiostatic EIS	Test &Identifier
DATE	LABEL	6/10/2021	Date
TIME	LABEL	15:51:05	Time
NOTES	NOTES	1	&Notes...
	
PSTAT	PSTAT	REF600-11020	Potentiostat
VDC	POTEN	0.00000E+000	T	DC &Voltage (V)
FREQINIT	QUANT	1.00000E+006	Initial Fre&q. (Hz)
FREQFINAL	QUANT	1.00000E+000	Final Fre&q. (Hz)
PTSPERDEC	QUANT	1.00000E+001	Points/&decade
VAC	QUANT	2.50000E+001	AC &Voltage (mV rms)
AREA	QUANT	4.00000E-005	&Area (cm^2)
CONDIT	TWOPARAM	F	5.00000E+000	0.00000E+000	Conditionin&g	Time(s)	E(V)
DELAY	TWOPARAM	F	3.00000E+000	0.00000E+000	Init. De&lay	Time(s)	Stab.(mV/s)
SPEED	SELECTOR	0	&Optimize for:
ZGUESS	QUANT	1.00000E+003	E&stimated Z (ohms)
OCVCURVE	TABLE	39
	Pt	T	Vf	Vm	Ach	Over
	#	s	V vs. Ref.	V	V	bits
	0	0.258333	4.20235E-001	4.20235E-001	4.81193E-004	...........
	1	0.516667	4.20108E-001	4.13594E-001	4.83426E-004	...........
	2	0.775	4.19327E-001	4.07168E-001	4.82926E-004	...........
	3	1.03333	4.17093E-001	4.00226E-001	4.84793E-004	...........
	4	1.29167	4.13035E-001	3.94600E-001	4.84060E-004	...........
	5	1.55	4.07614E-001	3.91360E-001	4.84126E-004	...........
	6	1.80833	4.01784E-001	3.86497E-001	4.85626E-004	...........
	7	2.06667	3.96312E-001	3.81973E-001	4.82993E-004	...........
	8	2.325	3.91274E-001	3.71910E-001	4.84693E-004	...........
	9	2.58333	3.86000E-001	3.61111E-001	4.81593E-004	...........
	10	2.84167	3.79618E-001	3.54548E-001	4.82793E-004	...........
	11	3.1	3.72003E-001	3.50204E-001	4.80660E-004	...........
	12	3.35833	3.64121E-001	3.47758E-001	4.78060E-004	...........
	13	3.61667	3.57238E-001	3.45110E-001	4.80460E-004	...........
	14	3.875	3.51946E-001	3.40635E-001	4.78560E-004	...........
	15	4.13333	3.47903E-001	3.36219E-001	4.83726E-004	...........
	16	4.39167	3.44302E-001	3.31407E-001	4.80826E-004	...........
	17	4.65	3.40481E-001	3.25399E-001	4.81426E-004	...........
	18	4.90833	3.36168E-001	3.21414E-001	4.83926E-004	...........
	19	5.16667	3.31406E-001	3.15074E-001	4.78826E-004	...........
	20	5.425	3.26302E-001	3.07097E-001	4.81993E-004	...........
	21	5.68333	3.20808E-001	3.02703E-001	4.79560E-004	...........
	22	5.94167	3.14960E-001	2.98992E-001	4.79060E-004	...........
	23	6.2	3.09184E-001	2.95069E-001	4.80860E-004	...........
	24	6.45833	3.03958E-001	2.90704E-001	4.73360E-004	...........
	25	6.71667	2.99357E-001	2.86615E-001	4.81360E-004	...........
	26	6.975	2.95148E-001	2.83661E-001	4.84260E-004	...........
	27	7.23333	2.91145E-001	2.78982E-001	4.81026E-004	...........
	28	7.49167	2.87254E-001	2.75081E-001	4.80693E-004	...........
	29	7.75	2.83368E-001	2.70972E-001	4.84360E-004	...........
	30	8.00833	2.79422E-001	2.67657E-001	4.83260E-004	...........
	31	8.26667	2.75444E-001	2.62586E-001	4.79693E-004	...........
	32	8.525	2.71430E-001	2.57849E-001	4.79626E-004	...........
	33	8.78333	2.67281E-001	2.54113E-001	4.76127E-004	...........
	34	9.04167	2.62989E-001	2.50380E-001	4.80226E-004	...........
	35	9.3	2.58701E-001	2.46038E-001	4.75993E-004	...........
	36	9.5583	2.54524E-001	2.41555E-001	4.82793E-004	...........
	37	9.8167	2.50405E-001	2.37724E-001	4.79693E-004	...........
	38	10.075	2.46279E-001	2.34105E-001	4.78193E-004	...........
EOC	QUANT	0.2462785	Open Circuit (V)
PSTATMODEL	IQUANT	4	Pstat Model
PSTATSECTION	LABEL	REF600-11020	Pstat Section
PSTATSERIALNO	LABEL	11020	Pstat Serial Number
CTRLMODE	IQUANT	1	Control Mode
IESTAB	IQUANT	0	I/E Stability
CASPEED	IQUANT	1	Control Amp Speed
CONVENTION	IQUANT	1	Current Convention
ICHRANGE	IQUANT	2	Ich Range
ICHRANGEMODE	TOGGLE	F	Ich Auto Range
ICHOFFSETENABLE	TOGGLE	T	Ich Offset Enable
ICHOFFSET	QUANT	0	Ich Offset (V)
ICHFILTER	IQUANT	3	Ich Filter
VCHRANGE	IQUANT	2	Vch Range
VCHRANGEMODE	TOGGLE	F	Vch Auto Range
VCHOFFSETENABLE	TOGGLE	T	Vch Offset Enable
VCHOFFSET	QUANT	0	Vch Offset (V)
VCHFILTER	IQUANT	3	Vch Filter
ACHRANGE	IQUANT	2	Ach Range
ACHOFFSETENABLE	TOGGLE	F	Ach Offset Enable
ACHOFFSET	QUANT	0	Ach Offset (V)
ACHFILTER	IQUANT	3	Ach Filter
IERANGELOWERLIMIT	IQUANT	1	I/E Range Lower Limit
IERANGEMODE	TOGGLE	F	I/E AutoRange
IERANGE	IQUANT	8	I/E Range
POSFEEDENABLE	TOGGLE	F	Positive Feedback IR Comp
POSFEEDRESISTANCE	QUANT	0	Positive Feedback Resistance (ohm)
ACHSELECT	IQUANT	0	Ach Select
CABLEID	IQUANT	14	Cable ID
DCCALDATE	LABEL	9/1/2020	DC Calibration Date
ACCALDATE	LABEL	9/1/2020	AC Calibration Date
THERMOSELECT	IQUANT	1	Thermo Select
FRAMEWORKVERSION	QUANT	6.33	Framework Version
INSTRUMENTVERSION	LABEL	3.50	Instrument Version
ZCURVE	TABLE
	Pt	Time	Freq	Zreal	Zimag	Zsig	Zmod	Zphz	Idc	Vdc	IERange
	#	s	Hz	ohm	ohm	V	ohm	°	A	V	#
	0	1	1000078	608.7773	-7220.805	1	7246.422	-85.18085	5.863974E-008	0.2482266	8
	1	2	794390.6	723.9589	-8996.446	1	9025.528	-85.39923	2.386805E-008	0.2479798	8
	2	2	630984.4	853.2739	-11230.27	1	11262.64	-85.65502	6.334636E-008	0.2478378	8
	3	2	501234.4	994.957	-13999.13	1	14034.45	-85.93467	-2.08437E-008	0.2477631	8
	4	2	398109.4	1240.235	-17473.62	1	17517.57	-85.94009	5.423872E-008	0.247723	8
	5	3	316265.6	1519.076	-21849.89	1	21902.63	-86.02301	4.019933E-008	0.2476929	8
	6	3	251203.1	1845.137	-27183.82	1	27246.37	-86.11693	5.653804E-008	0.2476891	8
	7	3	199546.9	2383.139	-33848.62	1	33932.41	-85.97269	4.982621E-008	0.2477016	8
	8	4	158578.1	2788.833	-42350.88	1	42442.6	-86.23248	1.809899E-008	0.2476961	8
	9	4	125953.1	3843.412	-52770.63	1	52910.41	-85.83437	6.786426E-009	0.2476866	7
	10	4	100078.1	4972.208	-65702.49	1	65890.37	-85.67224	3.611559E-010	0.2476839	7
	11	5	79453.13	6270.564	-81947.02	1	82186.59	-85.62427	4.558532E-010	0.2476679	7
	12	5	63140.62	7399.117	-102044.1	1	102312	-85.8528	1.771689E-009	0.2476671	7
	13	5	50203.12	9544.58	-126936.5	1	127294.8	-85.69992	6.156249E-010	0.2476572	7
	14	5	39890.62	11699.4	-157841.9	1	158274.9	-85.76093	6.018117E-010	0.2476585	7
	15	6	31640.63	14266.47	-196923.5	1	197439.6	-85.85635	1.20358E-009	0.247655	7
	16	6	25171.88	16301.74	-244854.9	1	245397	-86.19103	1.886486E-009	0.2476652	7
	17	6	20015.62	21543.42	-304404.3	1	305165.6	-85.95179	7.019498E-010	0.2476662	7
	18	7	15890.62	25919.19	-379141.5	1	380026.4	-86.08918	4.873424E-010	0.2476612	7
	19	7	12609.37	30245.83	-474685.8	1	475648.4	-86.35418	5.077629E-010	0.2476612	6
	20	7	10078.13	37513.76	-589251.6	1	590444.5	-86.35727	3.637596E-010	0.2476484	6
	21	8	8015.625	43581.2	-734462.9	1	735754.8	-86.60419	5.347055E-010	0.2476545	6
	22	8	6328.125	55317.9	-922068.4	1	923726.3	-86.56676	3.846584E-010	0.2476497	6
	23	8	5015.625	63465.7	-1152701	1	1154447	-86.84858	3.858461E-010	0.2476549	6
	24	9	3984.375	82493.23	-1439211	1	1441573	-86.71949	3.198954E-010	0.2476534	6
	25	9	3170.956	102373.2	-1800792	1	1803699	-86.74629	3.6056E-010	0.2476536	6
	26	9	2527.573	121938.9	-2244327	1	2247637	-86.89006	2.782777E-010	0.2476489	6
	27	9	1976.103	153990	-2841856	1	2846025	-86.89838	2.930046E-010	0.2476496	6
	28	10	1577.524	137408.2	-3555489	1	3558144	-87.7868	4.487119E-010	0.2476445	6
	29	10	1265.625	250411	-4382040	1	4389189	-86.7294	1.514414E-012	0.2476343	5
	30	10	998.264	302820.3	-5521746	1	5530043	-86.86096	-2.933307E-012	0.2476378	5
	31	11	796.875	342033.8	-6870581	1	6879089	-87.15003	1.569777E-011	0.2476411	5
	32	11	627.7902	447032.6	-8657942	1	8669475	-87.04429	4.551472E-012	0.2476365	5
	33	11	505.5147	550038	-1.066383E+007	1	1.0678E+007	-87.04731	-7.316826E-012	0.2476291	5
	34	12	397.9953	660884.4	-1.349355E+007	1	1.350973E+007	-87.19602	-1.910503E-012	0.2476624	5
	35	12	315.5048	817883.9	-1.69214E+007	1	1.694116E+007	-87.2328	-3.19838E-012	0.2476599	5
	36	12	252.4038	1010905	-2.101423E+007	1	2.103853E+007	-87.24586	-2.684146E-012	0.2476581	5
	37	12	198.6229	1274032	-2.653862E+007	1	2.656918E+007	-87.25153	-2.092518E-012	0.2476611	5
	38	13	158.3615	1605082	-3.301951E+007	1	3.305849E+007	-87.21703	-9.639868E-013	0.2476591	5
	39	13	125.558	2110585	-4.145953E+007	1	4.151322E+007	-87.08575	-1.570846E-011	0.2476661	4
	40	13	100.4464	2903960	-5.138507E+007	1	5.146706E+007	-86.76544	-1.493551E-011	0.2476589	4
	41	14	79.00281	2914242	-6.475876E+007	1	6.48243E+007	-87.42334	-1.383052E-011	0.2476599	4
	42	14	63.3446	2392552	-7.755763E+007	1	7.759453E+007	-88.23306	-1.391289E-011	0.2476555	4
	43	14	49.86702	5366958	-9.835786E+007	1	9.850418E+007	-86.87672	-1.384444E-011	0.2476545	4
	44	15	39.72458	7313206	-1.255149E+008	1	1.257278E+008	-86.6654	-1.417959E-011	0.2476607	4
	45	15	31.6723	1.094062E+007	-1.545851E+008	1	1.549717E+008	-85.95169	-1.359278E-011	0.2476606	4
	46	15	24.93351	1.249427E+007	-1.967566E+008	1	1.971529E+008	-86.36653	-1.494477E-011	0.2476589	4
	47	16	19.86229	1.662879E+007	-2.459626E+008	1	2.46524E+008	-86.13229	-1.410219E-011	0.2476637	4
	48	16	15.83615	2.760004E+007	-2.938337E+008	1	2.951271E+008	-84.6339	-1.735146E-011	0.2476602	4
	49	16	12.40079	1.078674E+007	-3.920906E+008	1	3.922389E+008	-88.42414	-1.666743E-012	0.2476509	3
	50	17	9.93114	3.45625E+007	-4.775092E+008	1	4.787584E+008	-85.86011	2.376119E-013	0.2476555	3
	51	17	7.944915	3.33486E+007	-6.074913E+008	1	6.08406E+008	-86.85786	7.327145E-013	0.2476548	3
	52	18	6.317385	4.857567E+007	-7.348165E+008	1	7.364204E+008	-86.21792	3.412954E-013	0.2476374	3
	53	19	5.008013	5.303714E+007	-9.448502E+008	1	9.463377E+008	-86.78719	1.15634E-014	0.2476402	3
	54	20	3.945707	7.128906E+007	-1.165798E+009	1	1.167975E+009	-86.50069	-1.246931E-015	0.2476527	3
	55	22	3.158693	7.360976E+007	-1.457286E+009	1	1.459144E+009	-87.10836	2.579135E-013	0.2476499	3
	56	24	2.504006	1.026574E+008	-1.799958E+009	1	1.802883E+009	-86.73577	1.674459E-013	0.2476438	3
	57	25	1.998082	1.262793E+008	-2.23784E+009	1	2.2414E+009	-86.77028	2.71372E-013	0.2475997	3
	58	27	1.584686	1.488962E+008	-2.801322E+009	1	2.805277E+009	-86.95747	2.455187E-013	0.2476239	3
	59	29	1.266892	1.923726E+008	-3.453941E+009	1	3.459294E+009	-86.81212	-1.34197E-012	0.2476746	2
	60	31	0.999041	2.432064E+008	-4.363476E+009	1	4.370249E+009	-86.80981	-1.344669E-012	0.2476964	2
