EXPLAIN
TAG	EISPOT
TITLE	LABEL	Potentiostatic EIS	Test &Identifier
DATE	LABEL	6/10/2021	Date
TIME	LABEL	16:05:32	Time
NOTES	NOTES	1	&Notes...
	
PSTAT	PSTAT	REF600-11020	Potentiostat
VDC	POTEN	0.00000E+000	T	DC &Voltage (V)
FREQINIT	QUANT	1.00000E+006	Initial Fre&q. (Hz)
FREQFINAL	QUANT	1.00000E+000	Final Fre&q. (Hz)
PTSPERDEC	QUANT	1.00000E+001	Points/&decade
VAC	QUANT	2.50000E+001	AC &Voltage (mV rms)
AREA	QUANT	4.00000E-005	&Area (cm^2)
CONDIT	TWOPARAM	F	5.00000E+000	0.00000E+000	Conditionin&g	Time(s)	E(V)
DELAY	TWOPARAM	F	3.00000E+000	0.00000E+000	Init. De&lay	Time(s)	Stab.(mV/s)
SPEED	SELECTOR	0	&Optimize for:
ZGUESS	QUANT	1.00000E+003	E&stimated Z (ohms)
OCVCURVE	TABLE	39
	Pt	T	Vf	Vm	Ach	Over
	#	s	V vs. Ref.	V	V	bits
	0	0.258333	-4.94539E-002	-4.94539E-002	5.43192E-004	...........
	1	0.516667	-4.94544E-002	-4.94759E-002	5.33626E-004	...........
	2	0.775	-4.94568E-002	-4.94913E-002	5.38526E-004	...........
	3	1.03333	-4.94635E-002	-4.95048E-002	5.36759E-004	...........
	4	1.29167	-4.94745E-002	-4.95167E-002	5.29959E-004	...........
	5	1.55	-4.94881E-002	-4.95279E-002	5.35692E-004	...........
	6	1.80833	-4.95020E-002	-4.95431E-002	5.33826E-004	...........
	7	2.06667	-4.95153E-002	-4.95543E-002	5.27926E-004	...........
	8	2.325	-4.95282E-002	-4.95644E-002	5.25326E-004	...........
	9	2.58333	-4.95407E-002	-4.95751E-002	5.27126E-004	...........
	10	2.84167	-4.95524E-002	-4.95833E-002	5.36992E-004	...........
	11	3.1	-4.95631E-002	-4.95822E-002	5.34926E-004	...........
	12	3.35833	-4.95720E-002	-4.95838E-002	5.29292E-004	...........
	13	3.61667	-4.95783E-002	-4.95867E-002	5.28559E-004	...........
	14	3.875	-4.95829E-002	-4.96258E-002	5.27559E-004	...........
	15	4.13333	-4.95895E-002	-4.96533E-002	5.34759E-004	...........
	16	4.39167	-4.96017E-002	-4.96319E-002	5.35226E-004	...........
	17	4.65	-4.96175E-002	-4.96414E-002	5.36292E-004	...........
	18	4.90833	-4.96304E-002	-4.96400E-002	5.34126E-004	...........
	19	5.16667	-4.96376E-002	-4.96517E-002	5.34959E-004	...........
	20	5.425	-4.96415E-002	-4.96615E-002	5.31659E-004	...........
	21	5.68333	-4.96458E-002	-4.96695E-002	5.33559E-004	...........
	22	5.94167	-4.96519E-002	-4.96749E-002	5.38626E-004	...........
	23	6.2	-4.96595E-002	-4.96811E-002	5.41759E-004	...........
	24	6.45833	-4.96672E-002	-4.96901E-002	5.30292E-004	...........
	25	6.71667	-4.96746E-002	-4.96978E-002	5.30026E-004	...........
	26	6.975	-4.96819E-002	-4.97049E-002	5.37826E-004	...........
	27	7.23333	-4.96893E-002	-4.97111E-002	5.30992E-004	...........
	28	7.49167	-4.96967E-002	-4.97211E-002	5.34359E-004	...........
	29	7.75	-4.97042E-002	-4.97297E-002	5.34992E-004	...........
	30	8.00833	-4.97119E-002	-4.97328E-002	5.37259E-004	...........
	31	8.26667	-4.97197E-002	-4.97411E-002	5.37392E-004	...........
	32	8.525	-4.97270E-002	-4.97502E-002	5.38792E-004	...........
	33	8.78333	-4.97340E-002	-4.97538E-002	5.37192E-004	...........
	34	9.04167	-4.97409E-002	-4.97605E-002	5.31892E-004	...........
	35	9.3	-4.97476E-002	-4.97661E-002	5.34592E-004	...........
	36	9.5583	-4.97540E-002	-4.97753E-002	5.31592E-004	...........
	37	9.8167	-4.97603E-002	-4.97798E-002	5.31892E-004	...........
	38	10.075	-4.97667E-002	-4.97857E-002	5.31059E-004	...........
EOC	QUANT	-0.0497667	Open Circuit (V)
PSTATMODEL	IQUANT	4	Pstat Model
PSTATSECTION	LABEL	REF600-11020	Pstat Section
PSTATSERIALNO	LABEL	11020	Pstat Serial Number
CTRLMODE	IQUANT	1	Control Mode
IESTAB	IQUANT	0	I/E Stability
CASPEED	IQUANT	1	Control Amp Speed
CONVENTION	IQUANT	1	Current Convention
ICHRANGE	IQUANT	2	Ich Range
ICHRANGEMODE	TOGGLE	F	Ich Auto Range
ICHOFFSETENABLE	TOGGLE	T	Ich Offset Enable
ICHOFFSET	QUANT	0	Ich Offset (V)
ICHFILTER	IQUANT	3	Ich Filter
VCHRANGE	IQUANT	2	Vch Range
VCHRANGEMODE	TOGGLE	F	Vch Auto Range
VCHOFFSETENABLE	TOGGLE	T	Vch Offset Enable
VCHOFFSET	QUANT	0	Vch Offset (V)
VCHFILTER	IQUANT	3	Vch Filter
ACHRANGE	IQUANT	2	Ach Range
ACHOFFSETENABLE	TOGGLE	F	Ach Offset Enable
ACHOFFSET	QUANT	0	Ach Offset (V)
ACHFILTER	IQUANT	3	Ach Filter
IERANGELOWERLIMIT	IQUANT	1	I/E Range Lower Limit
IERANGEMODE	TOGGLE	F	I/E AutoRange
IERANGE	IQUANT	7	I/E Range
POSFEEDENABLE	TOGGLE	F	Positive Feedback IR Comp
POSFEEDRESISTANCE	QUANT	0	Positive Feedback Resistance (ohm)
ACHSELECT	IQUANT	0	Ach Select
CABLEID	IQUANT	14	Cable ID
DCCALDATE	LABEL	9/1/2020	DC Calibration Date
ACCALDATE	LABEL	9/1/2020	AC Calibration Date
THERMOSELECT	IQUANT	1	Thermo Select
FRAMEWORKVERSION	QUANT	6.33	Framework Version
INSTRUMENTVERSION	LABEL	3.50	Instrument Version
ZCURVE	TABLE
	Pt	Time	Freq	Zreal	Zimag	Zsig	Zmod	Zphz	Idc	Vdc	IERange
	#	s	Hz	ohm	ohm	V	ohm	°	A	V	#
	0	2	1000078	1913.618	-2850.572	1	3433.321	-56.12614	3.035334E-008	-0.0477809	8
	1	2	794390.6	2430.827	-3168.953	1	3993.893	-52.50906	3.475385E-008	-0.0480473	8
	2	2	630984.4	3035.884	-3441.833	1	4589.423	-48.58596	6.969046E-008	-0.0481757	8
	3	2	501234.4	3713.983	-3627.967	1	5191.899	-44.32877	1.162691E-007	-0.0482318	8
	4	3	398109.4	4430.215	-3722.145	1	5786.291	-40.03605	6.075222E-008	-0.0482857	8
	5	3	316265.6	5144.473	-3702.167	1	6338.111	-35.74029	3.932544E-008	-0.0483029	8
	6	3	251203.1	5818.803	-3594.831	1	6839.684	-31.70759	4.068062E-008	-0.0483061	8
	7	4	199546.9	6420.716	-3436.85	1	7282.687	-28.15904	3.285466E-008	-0.0483069	8
	8	4	158578.1	6922.42	-3230.017	1	7638.908	-25.01386	4.045742E-008	-0.0483023	8
	9	4	125953.1	7392.28	-3026.631	1	7987.885	-22.26573	4.031069E-009	-0.0482937	7
	10	5	100078.1	7753.901	-2857.382	1	8263.632	-20.22929	6.644435E-011	-0.0483351	7
	11	5	79453.13	8057.436	-2750.088	1	8513.827	-18.84531	-8.025764E-010	-0.0483395	7
	12	5	63140.62	8331.52	-2706.692	1	8760.159	-17.99762	-1.207169E-009	-0.0483445	7
	13	6	50203.12	8583.292	-2728.938	1	9006.664	-17.63733	-1.874441E-009	-0.0483391	7
	14	6	39890.62	8825.144	-2819.021	1	9264.45	-17.71507	-1.459073E-009	-0.0483351	7
	15	6	31640.63	9071.86	-2988.302	1	9551.37	-18.23206	-3.590756E-010	-0.0483417	7
	16	7	25171.88	9315.804	-3231.365	1	9860.32	-19.13008	-1.456122E-010	-0.0483503	7
	17	7	20015.62	9589.34	-3569.796	1	10232.24	-20.41865	-3.353178E-010	-0.0483457	7
	18	7	15890.62	9871.05	-4003.165	1	10651.9	-22.07481	-1.012287E-010	-0.0483535	7
	19	8	12609.37	10218.34	-4532.62	1	11178.51	-23.92097	2.556564E-010	-0.0483515	6
	20	8	10078.13	10574.38	-5199.468	1	11783.55	-26.18354	2.583196E-010	-0.0483551	6
	21	8	8015.625	11007.34	-6027.007	1	12549.36	-28.70266	2.961263E-010	-0.0483542	6
	22	9	6328.125	11519.28	-7061.049	1	13511.19	-31.50732	3.920865E-010	-0.0483581	6
	23	9	5015.625	12128.06	-8286.659	1	14688.72	-34.34338	1.487707E-010	-0.0483469	6
	24	9	3984.375	12851.81	-9732.05	1	16120.85	-37.13488	1.85335E-010	-0.0483513	6
	25	10	3170.956	13709.67	-11434.51	1	17852.25	-39.8297	1.628284E-010	-0.0483422	6
	26	10	2527.573	14738.55	-13418.86	1	19932.15	-42.3166	3.964546E-010	-0.0483553	6
	27	10	1976.103	16098.71	-15965.58	1	22673.07	-44.76212	1.781458E-010	-0.0483461	6
	28	11	1577.524	17612.23	-18685.1	1	25677.3	-46.69305	5.469337E-011	-0.0483508	6
	29	11	1265.625	19416.28	-21770.67	1	29171.11	-48.27167	1.30487E-010	-0.0483486	6
	30	11	998.264	21738.26	-25599.1	1	33583.71	-49.66272	8.643444E-011	-0.0483487	6
	31	11	796.875	24424.33	-29774.92	1	38510.96	-50.638	1.740833E-010	-0.0483507	6
	32	12	627.7902	27839.22	-34790.78	1	44558.06	-51.33357	-2.191156E-011	-0.0483524	6
	33	12	505.5147	31529.94	-39986.17	1	50921.81	-51.74348	3.009754E-010	-0.0483555	6
	34	12	397.9953	36368.05	-46414.75	1	58965.79	-51.9197	2.094992E-011	-0.0483318	6
	35	13	315.5048	41926.81	-53386.6	1	67882.15	-51.85592	-1.712987E-011	-0.0483311	6
	36	13	252.4038	48153.02	-60797.21	1	77556.52	-51.61983	-3.193265E-011	-0.0483355	6
	37	13	198.6229	55841.32	-69557.13	1	89198.92	-51.24208	-3.269419E-011	-0.0483321	6
	38	14	158.3615	64125.62	-78529.42	1	101385.2	-50.76558	-5.259634E-011	-0.0483423	5
	39	14	125.558	73467.94	-88773.91	1	115231.7	-50.38936	-4.803271E-011	-0.0483418	5
	40	14	100.4464	83253.02	-99699.2	1	129888.4	-50.1367	-1.875241E-011	-0.0483442	5
	41	15	79.00281	94559.16	-113014.5	1	147355.7	-50.08079	-9.81082E-011	-0.0483479	5
	42	15	63.3446	105662.9	-127123.5	1	165302.8	-50.26722	-5.673653E-011	-0.0483469	5
	43	15	49.86702	118451.3	-145145	1	187344	-50.7825	-9.288641E-011	-0.0483503	5
	44	16	39.72458	131541.1	-165592.8	1	211480.5	-51.53761	-4.577491E-011	-0.0483467	5
	45	16	31.6723	145800.7	-190089.3	1	239565.9	-52.51138	-1.419464E-011	-0.0483473	5
	46	16	24.93351	162414	-221226.4	1	274443.8	-53.71564	-1.816476E-010	-0.0483487	5
	47	17	19.86229	180399	-257147.4	1	314115.6	-54.94884	-9.464454E-011	-0.048344	5
	48	17	15.83615	200893	-300170.5	1	361192.9	-56.20707	-1.728501E-010	-0.048345	5
	49	17	12.40079	226801.1	-356337.8	1	422392.5	-57.52415	-3.586643E-010	-0.0483418	5
	50	18	9.93114	254216	-417220.5	1	488568	-58.64569	-3.666074E-010	-0.0483484	5
	51	18	7.944915	286969.3	-490930.9	1	568651.5	-59.69196	-1.115513E-010	-0.0483436	5
	52	18	6.317385	327185.3	-580260.3	1	666147.3	-60.5831	-1.220835E-011	-0.0483548	5
	53	19	5.008013	377177.7	-688618.7	1	785148.8	-61.28912	-4.686816E-011	-0.0483577	5
	54	20	3.945707	439151.1	-820839.5	1	930930.3	-61.85311	-1.200311E-010	-0.0483562	5
	55	21	3.158693	512000	-966045	1	1093338	-62.0766	1.716806E-011	-0.0483589	4
	56	22	2.504006	602505	-1142695	1	1291807	-62.19881	5.266531E-011	-0.0483501	4
	57	23	1.998082	709922.1	-1339605	1	1516091	-62.0787	-3.09347E-011	-0.048396	4
	58	25	1.584686	837563.7	-1577273	1	1785862	-62.03079	-2.387837E-011	-0.0483876	4
	59	27	1.266892	987386	-1835205	1	2083964	-61.71865	-1.905957E-012	-0.0483533	4
	60	29	0.999041	1178900	-2153021	1	2454649	-61.29682	1.043268E-011	-0.0483224	4
