EXPLAIN
TAG	EISPOT
TITLE	LABEL	Potentiostatic EIS	Test &Identifier
DATE	LABEL	6/10/2021	Date
TIME	LABEL	15:34:23	Time
NOTES	NOTES	1	&Notes...
	
PSTAT	PSTAT	REF600-11020	Potentiostat
VDC	POTEN	0.00000E+000	T	DC &Voltage (V)
FREQINIT	QUANT	1.00000E+006	Initial Fre&q. (Hz)
FREQFINAL	QUANT	1.00000E+000	Final Fre&q. (Hz)
PTSPERDEC	QUANT	1.00000E+001	Points/&decade
VAC	QUANT	2.50000E+001	AC &Voltage (mV rms)
AREA	QUANT	4.00000E-005	&Area (cm^2)
CONDIT	TWOPARAM	F	5.00000E+000	0.00000E+000	Conditionin&g	Time(s)	E(V)
DELAY	TWOPARAM	F	3.00000E+000	0.00000E+000	Init. De&lay	Time(s)	Stab.(mV/s)
SPEED	SELECTOR	0	&Optimize for:
ZGUESS	QUANT	1.00000E+003	E&stimated Z (ohms)
OCVCURVE	TABLE	39
	Pt	T	Vf	Vm	Ach	Over
	#	s	V vs. Ref.	V	V	bits
	0	0.258333	-4.64549E-002	-4.64549E-002	5.34492E-004	...........
	1	0.516667	-4.64550E-002	-4.64578E-002	5.32426E-004	...........
	2	0.775	-4.64554E-002	-4.64621E-002	5.37459E-004	...........
	3	1.03333	-4.64564E-002	-4.64580E-002	5.30492E-004	...........
	4	1.29167	-4.64580E-002	-4.64724E-002	5.26092E-004	...........
	5	1.55	-4.64604E-002	-4.64735E-002	5.33526E-004	...........
	6	1.80833	-4.64640E-002	-4.64840E-002	5.32692E-004	...........
	7	2.06667	-4.64692E-002	-4.64951E-002	5.37026E-004	...........
	8	2.325	-4.64759E-002	-4.64948E-002	5.39226E-004	...........
	9	2.58333	-4.64831E-002	-4.65019E-002	5.42292E-004	...........
	10	2.84167	-4.64900E-002	-4.65063E-002	5.41859E-004	...........
	11	3.1	-4.64961E-002	-4.65203E-002	5.35159E-004	...........
	12	3.35833	-4.65025E-002	-4.65414E-002	5.32259E-004	...........
	13	3.61667	-4.65104E-002	-4.65126E-002	5.38992E-004	...........
	14	3.875	-4.65184E-002	-4.65407E-002	5.37526E-004	...........
	15	4.13333	-4.65251E-002	-4.65665E-002	5.39492E-004	...........
	16	4.39167	-4.65321E-002	-4.65479E-002	5.41259E-004	...........
	17	4.65	-4.65407E-002	-4.65586E-002	5.32492E-004	...........
	18	4.90833	-4.65485E-002	-4.65568E-002	5.33826E-004	...........
	19	5.16667	-4.65535E-002	-4.65608E-002	5.35592E-004	...........
	20	5.425	-4.65565E-002	-4.65683E-002	5.33159E-004	...........
	21	5.68333	-4.65594E-002	-4.65832E-002	5.28459E-004	...........
	22	5.94167	-4.65638E-002	-4.65842E-002	5.37826E-004	...........
	23	6.2	-4.65698E-002	-4.65663E-002	5.37392E-004	...........
	24	6.45833	-4.65749E-002	-4.65896E-002	5.35959E-004	...........
	25	6.71667	-4.65782E-002	-4.66059E-002	5.35426E-004	...........
	26	6.975	-4.65824E-002	-4.66100E-002	5.32026E-004	...........
	27	7.23333	-4.65898E-002	-4.66163E-002	5.28292E-004	...........
	28	7.49167	-4.65991E-002	-4.66232E-002	5.32992E-004	...........
	29	7.75	-4.66079E-002	-4.66214E-002	5.35126E-004	...........
	30	8.00833	-4.66150E-002	-4.66363E-002	5.32059E-004	...........
	31	8.26667	-4.66210E-002	-4.66450E-002	5.36626E-004	...........
	32	8.525	-4.66273E-002	-4.66512E-002	5.34226E-004	...........
	33	8.78333	-4.66346E-002	-4.66544E-002	5.30059E-004	...........
	34	9.04167	-4.66427E-002	-4.66891E-002	5.28426E-004	...........
	35	9.3	-4.66521E-002	-4.66871E-002	5.30892E-004	...........
	36	9.5583	-4.66635E-002	-4.66858E-002	5.35026E-004	...........
	37	9.8167	-4.66742E-002	-4.66759E-002	5.32559E-004	...........
	38	10.075	-4.66810E-002	-4.66875E-002	5.27626E-004	...........
EOC	QUANT	-0.046681	Open Circuit (V)
PSTATMODEL	IQUANT	4	Pstat Model
PSTATSECTION	LABEL	REF600-11020	Pstat Section
PSTATSERIALNO	LABEL	11020	Pstat Serial Number
CTRLMODE	IQUANT	1	Control Mode
IESTAB	IQUANT	0	I/E Stability
CASPEED	IQUANT	1	Control Amp Speed
CONVENTION	IQUANT	1	Current Convention
ICHRANGE	IQUANT	2	Ich Range
ICHRANGEMODE	TOGGLE	F	Ich Auto Range
ICHOFFSETENABLE	TOGGLE	T	Ich Offset Enable
ICHOFFSET	QUANT	0	Ich Offset (V)
ICHFILTER	IQUANT	3	Ich Filter
VCHRANGE	IQUANT	2	Vch Range
VCHRANGEMODE	TOGGLE	F	Vch Auto Range
VCHOFFSETENABLE	TOGGLE	T	Vch Offset Enable
VCHOFFSET	QUANT	0	Vch Offset (V)
VCHFILTER	IQUANT	3	Vch Filter
ACHRANGE	IQUANT	2	Ach Range
ACHOFFSETENABLE	TOGGLE	F	Ach Offset Enable
ACHOFFSET	QUANT	0	Ach Offset (V)
ACHFILTER	IQUANT	3	Ach Filter
IERANGELOWERLIMIT	IQUANT	1	I/E Range Lower Limit
IERANGEMODE	TOGGLE	F	I/E AutoRange
IERANGE	IQUANT	7	I/E Range
POSFEEDENABLE	TOGGLE	F	Positive Feedback IR Comp
POSFEEDRESISTANCE	QUANT	0	Positive Feedback Resistance (ohm)
ACHSELECT	IQUANT	0	Ach Select
CABLEID	IQUANT	14	Cable ID
DCCALDATE	LABEL	9/1/2020	DC Calibration Date
ACCALDATE	LABEL	9/1/2020	AC Calibration Date
THERMOSELECT	IQUANT	1	Thermo Select
FRAMEWORKVERSION	QUANT	6.33	Framework Version
INSTRUMENTVERSION	LABEL	3.50	Instrument Version
ZCURVE	TABLE
	Pt	Time	Freq	Zreal	Zimag	Zsig	Zmod	Zphz	Idc	Vdc	IERange
	#	s	Hz	ohm	ohm	V	ohm	°	A	V	#
	0	2	1000078	766.3704	-3509.663	1	3592.361	-77.68224	2.908164E-009	-0.0446718	8
	1	2	794390.6	954.572	-4316.123	1	4420.421	-77.52898	4.641125E-008	-0.0449813	8
	2	2	630984.4	1210.05	-5287.168	1	5423.87	-77.10899	7.709734E-008	-0.045104	8
	3	2	501234.4	1538.097	-6473.619	1	6653.832	-76.63464	3.975397E-008	-0.0451998	8
	4	3	398109.4	2000.851	-7883.34	1	8133.293	-75.75861	1.472861E-007	-0.0452572	8
	5	3	316265.6	2590.406	-9586.77	1	9930.58	-74.87941	4.112478E-008	-0.0452892	8
	6	3	251203.1	3342.958	-11625.77	1	12096.85	-73.95755	-1.611275E-008	-0.0453	8
	7	4	199546.9	4374.582	-13965.4	1	14634.52	-72.60713	1.300408E-007	-0.0452953	8
	8	4	158578.1	5641.374	-16682.71	1	17610.73	-71.31667	1.221917E-008	-0.0452823	8
	9	4	125953.1	7390.994	-19837.33	1	21169.47	-69.56561	-6.811716E-009	-0.0452729	7
	10	5	100078.1	9320.288	-23393.1	1	25181.44	-68.27666	-2.079473E-009	-0.0453149	7
	11	5	79453.13	11634.46	-27675.02	1	30021.11	-67.19833	-3.251778E-010	-0.0453258	7
	12	5	63140.62	14375.41	-32402.21	1	35447.93	-66.07529	-8.760305E-010	-0.0453251	7
	13	6	50203.12	17644.71	-37870.34	1	41779.16	-65.01805	-1.286406E-009	-0.0453312	7
	14	6	39890.62	21538.97	-44245.23	1	49209.43	-64.04277	-1.564574E-009	-0.0453303	7
	15	6	31640.63	26140.54	-51731.08	1	57960.62	-63.1918	-1.37035E-010	-0.0453282	7
	16	7	25171.88	31760.27	-59949.61	1	67842.98	-62.08613	-5.069291E-010	-0.0453319	7
	17	7	20015.62	38189.43	-69711.25	1	79486.42	-61.28506	8.834581E-010	-0.0453387	7
	18	7	15890.62	45907.13	-80710.59	1	92852.91	-60.36935	1.259182E-009	-0.0453407	7
	19	8	12609.37	55492.37	-92706.11	1	108045.5	-59.09595	2.285857E-010	-0.0453361	6
	20	8	10078.13	65573.81	-106068.3	1	124701.3	-58.27471	1.431217E-010	-0.0453459	6
	21	8	8015.625	77438.45	-121409.5	1	144003.4	-57.4691	2.271017E-010	-0.0453433	6
	22	9	6328.125	91109.29	-139343.1	1	166485.5	-56.8214	5.989291E-011	-0.045348	6
	23	9	5015.625	106351.9	-159508.2	1	191712.3	-56.30667	9.727237E-011	-0.0453402	6
	24	9	3984.375	123167.7	-182395.6	1	220087.3	-55.96972	6.461218E-011	-0.0453354	6
	25	9	3170.956	141499.8	-208974.8	1	252374.1	-55.89752	2.416504E-010	-0.0453378	6
	26	10	2527.573	161907.9	-239268.4	1	288900.5	-55.91462	3.542115E-010	-0.045342	6
	27	10	1976.103	187440.5	-277409.1	1	334798.1	-55.95379	4.629768E-011	-0.0453475	6
	28	10	1577.524	212914.1	-319814.2	1	384205.1	-56.34657	6.365943E-011	-0.0453367	6
	29	11	1265.625	245538.4	-365987.4	1	440722	-56.14262	-5.585286E-011	-0.0453517	5
	30	11	998.264	281241.5	-428220.3	1	512317.8	-56.70436	-1.592609E-011	-0.0453528	5
	31	11	796.875	321851	-498700.2	1	593540.3	-57.16262	-2.616441E-011	-0.045356	5
	32	12	627.7902	373751.2	-586454.4	1	695427	-57.49037	-5.420578E-011	-0.0453581	5
	33	12	505.5147	430379.7	-680259.3	1	804971.7	-57.67968	-2.605035E-011	-0.0453504	5
	34	12	397.9953	509003	-799261.9	1	947577.8	-57.50933	-4.504182E-011	-0.0453273	5
	35	13	315.5048	603796.4	-932339.2	1	1110777	-57.07232	-4.14661E-011	-0.0453276	5
	36	13	252.4038	716658.3	-1075753	1	1292611	-56.32875	-3.88434E-011	-0.0453315	5
	37	13	198.6229	866059	-1245589	1	1517086	-55.18908	-3.301515E-011	-0.0453308	5
	38	14	158.3615	1038107	-1418760	1	1757995	-53.80707	-3.451942E-011	-0.0453362	5
	39	14	125.558	1255638	-1603311	1	2036475	-51.93361	-3.448066E-011	-0.0453293	4
	40	14	100.4464	1492914	-1785735	1	2327583	-50.10363	-2.198722E-011	-0.0453355	4
	41	15	79.00281	1789521	-1981918	1	2670278	-47.92036	-3.407122E-011	-0.0453371	4
	42	15	63.3446	2086822	-2166300	1	3007936	-46.07056	-3.870056E-011	-0.0453343	4
	43	15	49.86702	2452635	-2339319	1	3389370	-43.64536	-1.456526E-011	-0.0453343	4
	44	16	39.72458	2829532	-2487772	1	3767659	-41.32248	-4.392969E-011	-0.04533	4
	45	16	31.6723	3223422	-2622578	1	4155522	-39.13182	-3.81331E-011	-0.0453337	4
	46	16	24.93351	3644087	-2749147	1	4564776	-37.03138	-4.166625E-011	-0.0453364	4
	47	17	19.86229	4050575	-2870491	1	4964562	-35.32378	-1.12272E-010	-0.0453399	4
	48	17	15.83615	4477120	-2962056	1	5368274	-33.48856	4.178085E-011	-0.0453376	4
	49	17	12.40079	4900836	-3096619	1	5797175	-32.28696	9.154574E-012	-0.0453363	4
	50	17	9.93114	5288727	-3225523	1	6194727	-31.37844	3.448758E-011	-0.0453386	4
	51	18	7.944915	5672241	-3412018	1	6619380	-31.02813	3.379791E-011	-0.0453414	4
	52	18	6.317385	6097231	-3618324	1	7090028	-30.68647	-3.596995E-011	-0.0453237	4
	53	19	5.008013	6541706	-3874632	1	7603071	-30.63813	-1.912432E-011	-0.0453328	4
	54	20	3.945707	7022815	-4211314	1	8188717	-30.9495	4.25263E-012	-0.0453346	4
	55	21	3.158693	7514106	-4560799	1	8789919	-31.25628	-1.723145E-011	-0.0453236	4
	56	22	2.504006	8090128	-5004521	1	9.512906E+006	-31.74077	-1.803415E-011	-0.0453457	3
	57	23	1.998082	8681416	-5481791	1	1.026728E+007	-32.26994	-1.178698E-012	-0.0453176	3
	58	25	1.584686	9395488	-6069796	1	1.11856E+007	-32.8638	1.261297E-011	-0.0453144	3
	59	27	1.266892	1.0132E+007	-6691573	1	1.214226E+007	-33.44234	8.041704E-012	-0.0453517	3
	60	29	0.999041	1.101734E+007	-7399703	1	1.327168E+007	-33.88694	4.056859E-012	-0.0453772	3
