EXPLAIN
TAG	EISPOT
TITLE	LABEL	Potentiostatic EIS	Test &Identifier
DATE	LABEL	6/10/2021	Date
TIME	LABEL	15:16:36	Time
NOTES	NOTES	1	&Notes...
	
PSTAT	PSTAT	REF600-11020	Potentiostat
VDC	POTEN	0.00000E+000	T	DC &Voltage (V)
FREQINIT	QUANT	1.00000E+006	Initial Fre&q. (Hz)
FREQFINAL	QUANT	1.00000E+000	Final Fre&q. (Hz)
PTSPERDEC	QUANT	1.00000E+001	Points/&decade
VAC	QUANT	2.50000E+001	AC &Voltage (mV rms)
AREA	QUANT	4.00000E-005	&Area (cm^2)
CONDIT	TWOPARAM	F	5.00000E+000	0.00000E+000	Conditionin&g	Time(s)	E(V)
DELAY	TWOPARAM	F	3.00000E+000	0.00000E+000	Init. De&lay	Time(s)	Stab.(mV/s)
SPEED	SELECTOR	0	&Optimize for:
ZGUESS	QUANT	1.00000E+003	E&stimated Z (ohms)
OCVCURVE	TABLE	39
	Pt	T	Vf	Vm	Ach	Over
	#	s	V vs. Ref.	V	V	bits
	0	0.258333	-3.85228E-003	-3.85228E-003	5.25559E-004	...........
	1	0.516667	-3.85233E-003	-3.85492E-003	5.25792E-004	...........
	2	0.775	-3.85229E-003	-3.83921E-003	5.25959E-004	...........
	3	1.03333	-3.85127E-003	-3.83692E-003	5.28059E-004	...........
	4	1.29167	-3.84885E-003	-3.86462E-003	5.27792E-004	...........
	5	1.55	-3.84743E-003	-3.87081E-003	5.26326E-004	...........
	6	1.80833	-3.85041E-003	-3.87516E-003	5.29492E-004	...........
	7	2.06667	-3.85749E-003	-3.87015E-003	5.23192E-004	...........
	8	2.325	-3.86497E-003	-3.87277E-003	5.23859E-004	...........
	9	2.58333	-3.87008E-003	-3.88268E-003	5.28859E-004	...........
	10	2.84167	-3.87327E-003	-3.88499E-003	5.19526E-004	...........
	11	3.1	-3.87643E-003	-3.88989E-003	5.26059E-004	...........
	12	3.35833	-3.88040E-003	-3.89537E-003	5.25892E-004	...........
	13	3.61667	-3.88509E-003	-3.90667E-003	5.28359E-004	...........
	14	3.875	-3.89052E-003	-3.90881E-003	5.32692E-004	...........
	15	4.13333	-3.89663E-003	-3.91312E-003	5.23226E-004	...........
	16	4.39167	-3.90261E-003	-3.91136E-003	5.23492E-004	...........
	17	4.65	-3.90749E-003	-3.91876E-003	5.23692E-004	...........
	18	4.90833	-3.91127E-003	-3.92705E-003	5.31392E-004	...........
	19	5.16667	-3.91490E-003	-3.92565E-003	5.25326E-004	...........
	20	5.425	-3.91937E-003	-3.95134E-003	5.25392E-004	...........
	21	5.68333	-3.92507E-003	-3.93083E-003	5.33059E-004	...........
	22	5.94167	-3.93132E-003	-3.95087E-003	5.33759E-004	...........
	23	6.2	-3.93667E-003	-3.93983E-003	5.30159E-004	...........
	24	6.45833	-3.94046E-003	-3.95059E-003	5.31026E-004	...........
	25	6.71667	-3.94316E-003	-3.95085E-003	5.29392E-004	...........
	26	6.975	-3.94581E-003	-3.96590E-003	5.30392E-004	...........
	27	7.23333	-3.94928E-003	-3.95236E-003	5.28026E-004	...........
	28	7.49167	-3.95310E-003	-3.95744E-003	5.27926E-004	...........
	29	7.75	-3.95588E-003	-3.96231E-003	5.25992E-004	...........
	30	8.00833	-3.95752E-003	-3.96555E-003	5.25492E-004	...........
	31	8.26667	-3.95927E-003	-3.96904E-003	5.28226E-004	...........
	32	8.525	-3.96188E-003	-3.97334E-003	5.25359E-004	...........
	33	8.78333	-3.96521E-003	-3.97635E-003	5.25192E-004	...........
	34	9.04167	-3.96884E-003	-3.97897E-003	5.23159E-004	...........
	35	9.3	-3.97249E-003	-3.98499E-003	5.27226E-004	...........
	36	9.5583	-3.97609E-003	-3.98676E-003	5.29426E-004	...........
	37	9.8167	-3.97982E-003	-3.99485E-003	5.22559E-004	...........
	38	10.075	-3.98357E-003	-3.98248E-003	5.24826E-004	...........
EOC	QUANT	-0.0039836	Open Circuit (V)
PSTATMODEL	IQUANT	4	Pstat Model
PSTATSECTION	LABEL	REF600-11020	Pstat Section
PSTATSERIALNO	LABEL	11020	Pstat Serial Number
CTRLMODE	IQUANT	1	Control Mode
IESTAB	IQUANT	0	I/E Stability
CASPEED	IQUANT	1	Control Amp Speed
CONVENTION	IQUANT	1	Current Convention
ICHRANGE	IQUANT	2	Ich Range
ICHRANGEMODE	TOGGLE	F	Ich Auto Range
ICHOFFSETENABLE	TOGGLE	T	Ich Offset Enable
ICHOFFSET	QUANT	0	Ich Offset (V)
ICHFILTER	IQUANT	3	Ich Filter
VCHRANGE	IQUANT	2	Vch Range
VCHRANGEMODE	TOGGLE	F	Vch Auto Range
VCHOFFSETENABLE	TOGGLE	T	Vch Offset Enable
VCHOFFSET	QUANT	0	Vch Offset (V)
VCHFILTER	IQUANT	3	Vch Filter
ACHRANGE	IQUANT	2	Ach Range
ACHOFFSETENABLE	TOGGLE	F	Ach Offset Enable
ACHOFFSET	QUANT	0	Ach Offset (V)
ACHFILTER	IQUANT	3	Ach Filter
IERANGELOWERLIMIT	IQUANT	1	I/E Range Lower Limit
IERANGEMODE	TOGGLE	F	I/E AutoRange
IERANGE	IQUANT	6	I/E Range
POSFEEDENABLE	TOGGLE	F	Positive Feedback IR Comp
POSFEEDRESISTANCE	QUANT	0	Positive Feedback Resistance (ohm)
ACHSELECT	IQUANT	0	Ach Select
CABLEID	IQUANT	14	Cable ID
DCCALDATE	LABEL	9/1/2020	DC Calibration Date
ACCALDATE	LABEL	9/1/2020	AC Calibration Date
THERMOSELECT	IQUANT	1	Thermo Select
FRAMEWORKVERSION	QUANT	6.33	Framework Version
INSTRUMENTVERSION	LABEL	3.50	Instrument Version
ZCURVE	TABLE
	Pt	Time	Freq	Zreal	Zimag	Zsig	Zmod	Zphz	Idc	Vdc	IERange
	#	s	Hz	ohm	ohm	V	ohm	°	A	V	#
	0	1	1000078	1830.551	-2434.818	1	3046.187	-53.06332	3.387359E-008	-0.0019875	8
	1	1	794390.6	2167.441	-2678.799	1	3445.833	-51.02336	8.51896E-008	-0.0022832	8
	2	2	630984.4	2515.087	-2928.828	1	3860.531	-49.34617	3.971705E-008	-0.0023966	8
	3	2	501234.4	2862.038	-3201.5	1	4294.283	-48.20432	7.121949E-008	-0.0025028	8
	4	2	398109.4	3196.943	-3509.161	1	4747.068	-47.66561	4.935209E-008	-0.0025448	8
	5	3	316265.6	3524.685	-3892.05	1	5250.853	-47.83566	7.237167E-008	-0.0025811	8
	6	3	251203.1	3850.4	-4347.306	1	5807.292	-48.46875	3.825047E-008	-0.0025731	8
	7	3	199546.9	4172.893	-4935.809	1	6463.377	-49.78774	4.565691E-008	-0.0025872	8
	8	4	158578.1	4488.262	-5673.41	1	7234.091	-51.65231	8.442028E-008	-0.0026128	8
	9	4	125953.1	4856.37	-6614.84	1	8206.122	-53.71527	-5.138383E-009	-0.0025793	7
	10	4	100078.1	5192.885	-7787.37	1	9359.978	-56.30328	1.155974E-009	-0.0026005	7
	11	5	79453.13	5562.732	-9296.78	1	10833.93	-59.10579	3.082492E-009	-0.0026196	7
	12	5	63140.62	5959.236	-11165.34	1	12656.12	-61.91	2.518973E-009	-0.0026123	7
	13	5	50203.12	6426.679	-13504.3	1	14955.55	-64.55029	2.951215E-009	-0.0026232	7
	14	5	39890.62	7001.842	-16397.48	1	17829.84	-66.87717	1.03439E-009	-0.0026216	7
	15	6	31640.63	7678.338	-20052.18	1	21472	-69.04726	1.491785E-009	-0.0026188	7
	16	6	25171.88	8555.911	-24534.87	1	25983.91	-70.77509	1.390689E-009	-0.0026269	7
	17	6	20015.62	9610.88	-30089.08	1	31586.74	-72.28577	1.73667E-009	-0.002622	7
	18	7	15890.62	11005.81	-37080	1	38678.86	-73.46845	2.499426E-009	-0.0026231	7
	19	7	12609.37	13263.43	-45560.14	1	47451.5	-73.76871	9.777769E-010	-0.0026244	6
	20	7	10078.13	15934.02	-55685.42	1	57920.28	-74.03188	9.852775E-010	-0.0026261	6
	21	8	8015.625	19546.29	-68341.76	1	71082.02	-74.03904	1.083575E-009	-0.0026196	6
	22	8	6328.125	24791.12	-84272.62	1	87843.46	-73.60729	1.051123E-009	-0.0026207	6
	23	8	5015.625	32284.01	-102949.2	1	107892.5	-72.58902	9.696027E-010	-0.0026232	6
	24	9	3984.375	42724.88	-124968.9	1	132070.6	-71.12526	7.659976E-010	-0.0026311	6
	25	9	3170.956	56303.15	-151194.2	1	161337.3	-69.57519	1.026156E-009	-0.00263	6
	26	9	2527.573	75940.95	-179719.5	1	195105.4	-67.09338	1.009091E-009	-0.0026343	6
	27	10	1976.103	105332.7	-214130.4	1	238635.3	-63.80701	7.151948E-010	-0.0026371	6
	28	10	1577.524	140134.7	-247258.7	1	284208.7	-60.45746	8.177081E-010	-0.0026307	6
	29	10	1265.625	187602.8	-274678.5	1	332630.5	-55.6673	4.916358E-010	-0.0026377	5
	30	11	998.264	245375	-300694.2	1	388105.6	-50.78458	4.68484E-010	-0.0026309	5
	31	11	796.875	307827.1	-317551.7	1	442263	-45.89087	5.338719E-010	-0.0026392	5
	32	11	627.7902	378328.9	-325998.2	1	499407.2	-40.75079	4.216249E-010	-0.0026365	5
	33	12	505.5147	444311.8	-323426.7	1	549561.4	-36.0519	5.377316E-010	-0.0026417	5
	34	12	397.9953	511136.8	-305545	1	595498.6	-30.86994	4.453064E-010	-0.0026167	5
	35	12	315.5048	567589.2	-279876.4	1	632841.4	-26.24776	4.275753E-010	-0.0026204	5
	36	12	252.4038	608108	-247405.7	1	656509.6	-22.1387	4.161814E-010	-0.0026232	5
	37	13	198.6229	647093.3	-217243.3	1	682586.5	-18.55803	3.945028E-010	-0.0026232	5
	38	13	158.3615	671520.4	-188449.7	1	697461.8	-15.67579	3.726052E-010	-0.0026232	5
	39	13	125.558	692160.4	-163885.5	1	711297.8	-13.32083	4.469799E-010	-0.0026264	5
	40	14	100.4464	697158.4	-140353.3	1	711146.2	-11.38275	2.649158E-010	-0.0026256	5
	41	14	79.00281	719496	-128496.7	1	730880.2	-10.12585	4.624311E-010	-0.0026278	5
	42	14	63.3446	721672.8	-116445.6	1	731007	-9.165963	3.68815E-010	-0.0026263	5
	43	15	49.86702	726715.3	-108682.2	1	734797.3	-8.505696	2.345865E-010	-0.0026315	5
	44	16	39.72458	732373.9	-105007.4	1	739863.5	-8.159428	4.792775E-010	-0.0026279	5
	45	16	31.6723	742158.9	-106803.2	1	749804.4	-8.189145	4.71591E-010	-0.0026261	5
	46	16	24.93351	753145.1	-113068.2	1	761585.1	-8.537943	3.681571E-010	-0.002628	5
	47	17	19.86229	767687.4	-121426.2	1	777231.1	-8.988093	9.596918E-010	-0.0026217	5
	48	17	15.83615	775218.4	-131442.1	1	786282.8	-9.62326	-9.383185E-011	-0.0026278	5
	49	17	12.40079	795420.9	-143352.6	1	808235.4	-10.21631	6.562118E-010	-0.0026301	5
	50	18	9.93114	806424.2	-160254.6	1	822193.1	-11.23953	-1.597757E-010	-0.0026336	5
	51	18	7.944915	825018.6	-179108.8	1	844236.8	-12.24865	-5.166554E-010	-0.0026264	5
	52	19	6.317385	854814.7	-199190.3	1	877715.8	-13.11708	-3.468146E-010	-0.0026137	5
	53	20	5.008013	879355.6	-220949.5	1	906688.9	-14.10433	1.957283E-010	-0.0026158	4
	54	21	3.945707	909413.8	-247775.7	1	942563.6	-15.24068	-1.694244E-010	-0.002627	4
	55	22	3.158693	927545.4	-271990.2	1	966602	-16.34306	1.248761E-010	-0.0026343	4
	56	24	2.504006	954194	-304817.6	1	1001699	-17.71609	2.221761E-010	-0.002635	4
	57	25	1.998082	982999	-343311.8	1	1041225	-19.25172	-6.17531E-011	-0.0026745	4
	58	27	1.584686	1017029	-389889.2	1	1089202	-20.97487	-1.125992E-010	-0.002659	4
	59	30	1.266892	1067196	-444047.8	1	1155891	-22.59163	-4.849913E-011	-0.0026215	4
	60	32	0.999041	1101471	-511670.1	1	1214514	-24.91645	1.409584E-011	-0.0025994	4
