EXPLAIN
TAG	EISPOT
TITLE	LABEL	Potentiostatic EIS	Test &Identifier
DATE	LABEL	1/7/2021	Date
TIME	LABEL	15:31:35	Time
NOTES	NOTES	1	&Notes...
	
PSTAT	PSTAT	REF600-11020	Potentiostat
VDC	POTEN	0.00000E+000	T	DC &Voltage (V)
FREQINIT	QUANT	1.00000E+006	Initial Fre&q. (Hz)
FREQFINAL	QUANT	1.00000E+000	Final Fre&q. (Hz)
PTSPERDEC	QUANT	1.00000E+001	Points/&decade
VAC	QUANT	2.50000E+001	AC &Voltage (mV rms)
AREA	QUANT	4.00000E-005	&Area (cm^2)
CONDIT	TWOPARAM	F	5.00000E+000	0.00000E+000	Conditionin&g	Time(s)	E(V)
DELAY	TWOPARAM	F	3.00000E+000	0.00000E+000	Init. De&lay	Time(s)	Stab.(mV/s)
SPEED	SELECTOR	0	&Optimize for:
ZGUESS	QUANT	1.00000E+003	E&stimated Z (ohms)
OCVCURVE	TABLE	39
	Pt	T	Vf	Vm	Ach	Over
	#	s	V vs. Ref.	V	V	bits
	0	0.258333	2.69039E-002	2.69039E-002	5.35626E-004	...........
	1	0.516667	2.69037E-002	2.68979E-002	5.40226E-004	...........
	2	0.775	2.69032E-002	2.69008E-002	5.43025E-004	...........
	3	1.03333	2.69016E-002	2.68712E-002	5.38359E-004	...........
	4	1.29167	2.68968E-002	2.68257E-002	5.42125E-004	...........
	5	1.55	2.68845E-002	2.67888E-002	5.37226E-004	...........
	6	1.80833	2.68622E-002	2.67722E-002	5.37692E-004	...........
	7	2.06667	2.68324E-002	2.67232E-002	5.35926E-004	...........
	8	2.325	2.67992E-002	2.66850E-002	5.35092E-004	...........
	9	2.58333	2.67644E-002	2.66566E-002	5.36792E-004	...........
	10	2.84167	2.67285E-002	2.66239E-002	5.36626E-004	...........
	11	3.1	2.66930E-002	2.65873E-002	5.36892E-004	...........
	12	3.35833	2.66594E-002	2.66043E-002	5.42125E-004	...........
	13	3.61667	2.66312E-002	2.66090E-002	5.34026E-004	...........
	14	3.875	2.66130E-002	2.66155E-002	5.29092E-004	...........
	15	4.13333	2.66062E-002	2.66141E-002	5.42359E-004	...........
	16	4.39167	2.66069E-002	2.66070E-002	5.39926E-004	...........
	17	4.65	2.66088E-002	2.65778E-002	5.34559E-004	...........
	18	4.90833	2.66063E-002	2.65449E-002	5.36359E-004	...........
	19	5.16667	2.65951E-002	2.65077E-002	5.37192E-004	...........
	20	5.425	2.65741E-002	2.64733E-002	5.36792E-004	...........
	21	5.68333	2.65452E-002	2.64364E-002	5.38392E-004	...........
	22	5.94167	2.65117E-002	2.64041E-002	5.41692E-004	...........
	23	6.2	2.64765E-002	2.63724E-002	5.39426E-004	...........
	24	6.45833	2.64414E-002	2.63331E-002	5.37892E-004	...........
	25	6.71667	2.64067E-002	2.62940E-002	5.39392E-004	...........
	26	6.975	2.63714E-002	2.62526E-002	5.41792E-004	...........
	27	7.23333	2.63345E-002	2.62079E-002	5.37626E-004	...........
	28	7.49167	2.62953E-002	2.61591E-002	5.40359E-004	...........
	29	7.75	2.62536E-002	2.61208E-002	5.37026E-004	...........
	30	8.00833	2.62103E-002	2.60791E-002	5.36926E-004	...........
	31	8.26667	2.61669E-002	2.60432E-002	5.28226E-004	...........
	32	8.525	2.61249E-002	2.60077E-002	5.41826E-004	...........
	33	8.78333	2.60848E-002	2.59697E-002	5.35026E-004	...........
	34	9.04167	2.60468E-002	2.59407E-002	5.35792E-004	...........
	35	9.3	2.60104E-002	2.59049E-002	5.33459E-004	...........
	36	9.5583	2.59754E-002	2.58684E-002	5.27859E-004	...........
	37	9.8167	2.59411E-002	2.58383E-002	5.22026E-004	...........
	38	10.075	2.59072E-002	2.58076E-002	5.32559E-004	...........
EOC	QUANT	0.0259072	Open Circuit (V)
PSTATMODEL	IQUANT	4	Pstat Model
PSTATSECTION	LABEL	REF600-11020	Pstat Section
PSTATSERIALNO	LABEL	11020	Pstat Serial Number
CTRLMODE	IQUANT	1	Control Mode
IESTAB	IQUANT	0	I/E Stability
CASPEED	IQUANT	1	Control Amp Speed
CONVENTION	IQUANT	1	Current Convention
ICHRANGE	IQUANT	2	Ich Range
ICHRANGEMODE	TOGGLE	F	Ich Auto Range
ICHOFFSETENABLE	TOGGLE	T	Ich Offset Enable
ICHOFFSET	QUANT	0	Ich Offset (V)
ICHFILTER	IQUANT	3	Ich Filter
VCHRANGE	IQUANT	2	Vch Range
VCHRANGEMODE	TOGGLE	F	Vch Auto Range
VCHOFFSETENABLE	TOGGLE	T	Vch Offset Enable
VCHOFFSET	QUANT	0	Vch Offset (V)
VCHFILTER	IQUANT	3	Vch Filter
ACHRANGE	IQUANT	2	Ach Range
ACHOFFSETENABLE	TOGGLE	F	Ach Offset Enable
ACHOFFSET	QUANT	0	Ach Offset (V)
ACHFILTER	IQUANT	3	Ach Filter
IERANGELOWERLIMIT	IQUANT	1	I/E Range Lower Limit
IERANGEMODE	TOGGLE	F	I/E AutoRange
IERANGE	IQUANT	7	I/E Range
POSFEEDENABLE	TOGGLE	F	Positive Feedback IR Comp
POSFEEDRESISTANCE	QUANT	0	Positive Feedback Resistance (ohm)
ACHSELECT	IQUANT	0	Ach Select
CABLEID	IQUANT	14	Cable ID
DCCALDATE	LABEL	9/1/2020	DC Calibration Date
ACCALDATE	LABEL	9/1/2020	AC Calibration Date
THERMOSELECT	IQUANT	1	Thermo Select
FRAMEWORKVERSION	QUANT	6.33	Framework Version
INSTRUMENTVERSION	LABEL	3.50	Instrument Version
ZCURVE	TABLE
	Pt	Time	Freq	Zreal	Zimag	Zsig	Zmod	Zphz	Idc	Vdc	IERange
	#	s	Hz	ohm	ohm	V	ohm	°	A	V	#
	0	1	1000078	1461.226	-3198.321	1	3516.31	-65.44563	1.560025E-007	0.0280147	8
	1	1	794390.6	1784.793	-3767.548	1	4168.921	-64.65177	-2.450406E-008	0.027758	8
	2	1	630984.4	2178.691	-4427.802	1	4934.787	-63.8006	1.28717E-007	0.027614	8
	3	2	501234.4	2637.181	-5181.849	1	5814.316	-63.02724	5.220912E-008	0.0275664	8
	4	2	398109.4	3207.655	-6031.978	1	6831.823	-61.99707	1.065324E-007	0.0274836	8
	5	2	316265.6	3862.062	-7008.671	1	8002.312	-61.14346	6.480738E-008	0.0274677	8
	6	3	251203.1	4658.448	-8128.187	1	9368.488	-60.182	3.737123E-008	0.0274459	8
	7	3	199546.9	5571.459	-9376.477	1	10906.85	-59.28141	6.466844E-008	0.027458	8
	8	3	158578.1	6662.205	-10772.5	1	12666.17	-58.26548	6.410185E-008	0.0274845	8
	9	4	125953.1	7975.483	-12351.67	1	14702.79	-57.14964	8.313689E-009	0.0274593	7
	10	4	100078.1	9433.418	-14149.11	1	17005.49	-56.30803	-5.29647E-009	0.0274293	7
	11	4	79453.13	11110.03	-16166.38	1	19615.93	-55.50196	-5.737946E-009	0.0274202	7
	12	5	63140.62	13021.43	-18418.36	1	22556.45	-54.74041	-9.523311E-009	0.0274279	7
	13	5	50203.12	15195.79	-20947.02	1	25878.36	-54.04139	-9.643164E-009	0.0274199	7
	14	5	39890.62	17669.83	-23795.01	1	29638.24	-53.40295	1.133782E-008	0.0274023	7
	15	6	31640.63	20531.77	-27083.97	1	33986.69	-52.83503	9.568363E-009	0.0274007	7
	16	6	25171.88	23833.1	-30669.34	1	38841.02	-52.14928	1.055037E-008	0.0274026	7
	17	6	20015.62	27648.85	-34907.07	1	44530.46	-51.6183	-8.656635E-009	0.0274095	7
	18	6	15890.62	32175.19	-39484.8	1	50934.2	-50.82425	3.108096E-009	0.0274141	7
	19	7	12609.37	37587.15	-44755.17	1	58445.01	-49.97514	-2.394074E-010	0.0274223	6
	20	7	10078.13	43740.62	-50282.35	1	66645.01	-48.97999	2.489358E-010	0.027421	6
	21	7	8015.625	51191.04	-56331.27	1	76116.59	-47.73701	2.087967E-010	0.0274177	6
	22	8	6328.125	60316.62	-62734.58	1	87027.13	-46.12572	-9.120313E-010	0.027425	6
	23	8	5015.625	70787.3	-69049.23	1	98887	-44.2879	-1.226149E-009	0.027417	6
	24	8	3984.375	82852.09	-74619.92	1	111501.6	-42.00747	1.966057E-009	0.0273976	6
	25	9	3170.956	96040.2	-79409.98	1	124618.1	-39.58534	2.818277E-010	0.0273878	6
	26	9	2527.573	110192.8	-82910.77	1	137900.9	-36.95837	-8.302518E-010	0.0274009	6
	27	9	1976.103	126069.1	-85234.06	1	152178.4	-34.06223	1.277501E-009	0.0273704	6
	28	10	1577.524	140351.7	-85609.77	1	164400.8	-31.38177	-9.420792E-010	0.0274182	6
	29	10	1265.625	154540.9	-84136.91	1	175960	-28.56526	4.925306E-010	0.0273618	5
	30	10	998.264	168329.3	-83274.96	1	187801.7	-26.32227	4.439209E-010	0.0273573	5
	31	11	796.875	180451.5	-82080.3	1	198242.1	-24.45892	2.356142E-010	0.0273681	5
	32	11	627.7902	192826	-81134.41	1	209200.1	-22.81965	1.171719E-010	0.0274109	5
	33	11	505.5147	203473.6	-80416.27	1	218788.2	-21.56479	4.153857E-010	0.0273598	5
	34	12	397.9953	214320.6	-79936.28	1	228742.5	-20.45427	3.209095E-010	0.0274078	5
	35	12	315.5048	225171.1	-80287.14	1	239056.6	-19.62423	2.609788E-010	0.0274092	5
	36	12	252.4038	235293.5	-81041.26	1	248858.8	-19.00505	2.777333E-010	0.027406	5
	37	13	198.6229	246111.3	-82462.49	1	259559	-18.52403	3.250784E-010	0.0274063	5
	38	13	158.3615	256825.7	-84461.17	1	270357.4	-18.20426	3.594354E-010	0.0273998	5
	39	13	125.558	268094.5	-87201.96	1	281919.9	-18.01793	3.73533E-010	0.0274021	5
	40	14	100.4464	279261	-90526.36	1	293567.3	-17.96082	2.35658E-010	0.0274025	5
	41	14	79.00281	291365.8	-94756.21	1	306386.7	-18.01524	2.932087E-010	0.0273981	5
	42	14	63.3446	303043.4	-99403.2	1	318930	-18.16034	3.549351E-010	0.0273966	5
	43	15	49.86702	316787.3	-105328.8	1	333838.8	-18.39149	-1.491498E-011	0.0273978	5
	44	15	39.72458	330819.4	-111794.3	1	349198.3	-18.67173	2.423997E-010	0.0274031	5
	45	15	31.6723	345255.7	-119052.4	1	365205.4	-19.02541	3.703061E-010	0.0273989	5
	46	16	24.93351	361657.9	-127599.5	1	383507.6	-19.43377	-2.467123E-010	0.0273993	5
	47	16	19.86229	378609.4	-137282	1	402729.9	-19.93041	-7.862781E-011	0.0274054	5
	48	16	15.83615	398227.8	-148413.3	1	424984.6	-20.43965	-4.378603E-010	0.0274049	5
	49	17	12.40079	435354.3	-164653.1	1	465450.3	-20.71686	-1.555324E-009	0.0274082	5
	50	17	9.93114	482415	-190204.2	1	518557.5	-21.51808	-1.668101E-009	0.0274022	5
	51	17	7.944915	508365.6	-207774.2	1	549186.4	-22.23034	-2.628383E-010	0.0274088	5
	52	18	6.317385	535790.1	-229589	1	582908.3	-23.1954	-2.881223E-010	0.0274034	5
	53	18	5.008013	566461.3	-255179.9	1	621285.1	-24.25064	-6.386924E-010	0.0273911	5
	54	19	3.945707	603393.5	-284971.5	1	667302.4	-25.28049	-5.910257E-010	0.0273987	5
	55	20	3.158693	639005.8	-317022.3	1	713324.3	-26.38684	-5.069152E-010	0.0273849	5
	56	21	2.504006	680439.1	-354243.8	1	767128.4	-27.50197	-1.334267E-010	0.0273882	5
	57	23	1.998082	721011.5	-395263.3	1	822247.3	-28.73184	-2.00316E-010	0.0273766	5
	58	24	1.584686	770697.6	-443457.2	1	889173.2	-29.916	-3.857271E-010	0.0273414	5
	59	26	1.266892	826457.1	-500916	1	966410	-31.22007	-4.424038E-010	0.0273569	4
	60	29	0.999041	891003	-571302.4	1	1058429	-32.66759	-4.126587E-010	0.0273793	4
