EXPLAIN
TAG	EISPOT
TITLE	LABEL	Potentiostatic EIS	Test &Identifier
DATE	LABEL	1/7/2021	Date
TIME	LABEL	16:20:13	Time
NOTES	NOTES	1	&Notes...
	
PSTAT	PSTAT	REF600-11020	Potentiostat
VDC	POTEN	0.00000E+000	T	DC &Voltage (V)
FREQINIT	QUANT	1.00000E+006	Initial Fre&q. (Hz)
FREQFINAL	QUANT	1.00000E+000	Final Fre&q. (Hz)
PTSPERDEC	QUANT	1.00000E+001	Points/&decade
VAC	QUANT	2.50000E+001	AC &Voltage (mV rms)
AREA	QUANT	4.00000E-005	&Area (cm^2)
CONDIT	TWOPARAM	F	5.00000E+000	0.00000E+000	Conditionin&g	Time(s)	E(V)
DELAY	TWOPARAM	F	3.00000E+000	0.00000E+000	Init. De&lay	Time(s)	Stab.(mV/s)
SPEED	SELECTOR	0	&Optimize for:
ZGUESS	QUANT	1.00000E+003	E&stimated Z (ohms)
OCVCURVE	TABLE	39
	Pt	T	Vf	Vm	Ach	Over
	#	s	V vs. Ref.	V	V	bits
	0	0.258333	6.20617E-002	6.20617E-002	5.39526E-004	...........
	1	0.516667	6.20612E-002	6.20395E-002	5.39226E-004	...........
	2	0.775	6.20585E-002	6.20112E-002	5.39126E-004	...........
	3	1.03333	6.20504E-002	6.19880E-002	5.37226E-004	...........
	4	1.29167	6.20353E-002	6.19668E-002	5.34726E-004	...........
	5	1.55	6.20148E-002	6.19450E-002	5.38759E-004	...........
	6	1.80833	6.19921E-002	6.19238E-002	5.35759E-004	...........
	7	2.06667	6.19693E-002	6.19010E-002	5.39092E-004	...........
	8	2.325	6.19469E-002	6.18803E-002	5.42425E-004	...........
	9	2.58333	6.19250E-002	6.18599E-002	5.41792E-004	...........
	10	2.84167	6.19036E-002	6.18424E-002	5.43959E-004	...........
	11	3.1	6.18827E-002	6.18197E-002	5.44625E-004	...........
	12	3.35833	6.18623E-002	6.18005E-002	5.37792E-004	...........
	13	3.61667	6.18422E-002	6.17789E-002	5.41092E-004	...........
	14	3.875	6.18220E-002	6.17606E-002	5.41259E-004	...........
	15	4.13333	6.18018E-002	6.17431E-002	5.45159E-004	...........
	16	4.39167	6.17820E-002	6.17269E-002	5.42725E-004	...........
	17	4.65	6.17631E-002	6.17099E-002	5.38759E-004	...........
	18	4.90833	6.17452E-002	6.16908E-002	5.37092E-004	...........
	19	5.16667	6.17278E-002	6.16761E-002	5.35859E-004	...........
	20	5.425	6.17105E-002	6.16556E-002	5.35992E-004	...........
	21	5.68333	6.16932E-002	6.16396E-002	5.37892E-004	...........
	22	5.94167	6.16758E-002	6.16220E-002	5.39726E-004	...........
	23	6.2	6.16582E-002	6.16041E-002	5.44859E-004	...........
	24	6.45833	6.16407E-002	6.15876E-002	5.43359E-004	...........
	25	6.71667	6.16233E-002	6.15698E-002	5.33459E-004	...........
	26	6.975	6.16059E-002	6.15548E-002	5.35326E-004	...........
	27	7.23333	6.15888E-002	6.15356E-002	5.41159E-004	...........
	28	7.49167	6.15719E-002	6.15232E-002	5.41126E-004	...........
	29	7.75	6.15554E-002	6.15109E-002	5.31159E-004	...........
	30	8.00833	6.15398E-002	6.15024E-002	5.42392E-004	...........
	31	8.26667	6.15256E-002	6.14850E-002	5.37192E-004	...........
	32	8.525	6.15127E-002	6.14743E-002	5.38059E-004	...........
	33	8.78333	6.15002E-002	6.14578E-002	5.39226E-004	...........
	34	9.04167	6.14874E-002	6.14558E-002	5.32592E-004	...........
	35	9.3	6.14749E-002	6.14356E-002	5.34792E-004	...........
	36	9.5583	6.14632E-002	6.14393E-002	5.40626E-004	...........
	37	9.8167	6.14521E-002	6.13969E-002	5.38726E-004	...........
	38	10.075	6.14401E-002	6.13943E-002	5.31159E-004	...........
EOC	QUANT	0.0614401	Open Circuit (V)
PSTATMODEL	IQUANT	4	Pstat Model
PSTATSECTION	LABEL	REF600-11020	Pstat Section
PSTATSERIALNO	LABEL	11020	Pstat Serial Number
CTRLMODE	IQUANT	1	Control Mode
IESTAB	IQUANT	0	I/E Stability
CASPEED	IQUANT	1	Control Amp Speed
CONVENTION	IQUANT	1	Current Convention
ICHRANGE	IQUANT	2	Ich Range
ICHRANGEMODE	TOGGLE	F	Ich Auto Range
ICHOFFSETENABLE	TOGGLE	T	Ich Offset Enable
ICHOFFSET	QUANT	0	Ich Offset (V)
ICHFILTER	IQUANT	3	Ich Filter
VCHRANGE	IQUANT	2	Vch Range
VCHRANGEMODE	TOGGLE	F	Vch Auto Range
VCHOFFSETENABLE	TOGGLE	T	Vch Offset Enable
VCHOFFSET	QUANT	0	Vch Offset (V)
VCHFILTER	IQUANT	3	Vch Filter
ACHRANGE	IQUANT	2	Ach Range
ACHOFFSETENABLE	TOGGLE	F	Ach Offset Enable
ACHOFFSET	QUANT	0	Ach Offset (V)
ACHFILTER	IQUANT	3	Ach Filter
IERANGELOWERLIMIT	IQUANT	1	I/E Range Lower Limit
IERANGEMODE	TOGGLE	F	I/E AutoRange
IERANGE	IQUANT	8	I/E Range
POSFEEDENABLE	TOGGLE	F	Positive Feedback IR Comp
POSFEEDRESISTANCE	QUANT	0	Positive Feedback Resistance (ohm)
ACHSELECT	IQUANT	0	Ach Select
CABLEID	IQUANT	14	Cable ID
DCCALDATE	LABEL	9/1/2020	DC Calibration Date
ACCALDATE	LABEL	9/1/2020	AC Calibration Date
THERMOSELECT	IQUANT	1	Thermo Select
FRAMEWORKVERSION	QUANT	6.33	Framework Version
INSTRUMENTVERSION	LABEL	3.50	Instrument Version
ZCURVE	TABLE
	Pt	Time	Freq	Zreal	Zimag	Zsig	Zmod	Zphz	Idc	Vdc	IERange
	#	s	Hz	ohm	ohm	V	ohm	°	A	V	#
	0	1	1000078	1638.723	-2469.774	1	2963.984	-56.43528	4.915422E-008	0.0635175	8
	1	1	794390.6	2026.307	-2773.715	1	3435.028	-53.85042	3.035212E-008	0.0632199	8
	2	1	630984.4	2464.709	-3065.386	1	3933.368	-51.19915	6.830669E-008	0.0631028	8
	3	2	501234.4	2942.903	-3339.26	1	4450.993	-48.61014	6.398628E-008	0.0630107	8
	4	2	398109.4	3448.181	-3589.403	1	4977.325	-46.14959	5.665465E-008	0.0629712	8
	5	2	316265.6	3960.667	-3840.12	1	5516.647	-44.11467	4.524673E-008	0.06294	8
	6	3	251203.1	4454.879	-4089.916	1	6047.591	-42.55428	1.582896E-007	0.0629124	8
	7	3	199546.9	4957.935	-4372.006	1	6610.261	-41.40649	5.948914E-008	0.0629396	8
	8	3	158578.1	5425.859	-4705.293	1	7181.903	-40.93176	6.6704E-008	0.0629577	8
	9	4	125953.1	5906.394	-5125.146	1	7820.013	-40.9491	3.05553E-008	0.0629391	7
	10	4	100078.1	6362.849	-5661.93	1	8517.235	-41.66403	-1.860928E-010	0.0629316	7
	11	4	79453.13	6815.429	-6374.48	1	9331.885	-43.08527	-2.854417E-009	0.0629258	7
	12	5	63140.62	7282.985	-7287.247	1	10302.71	-45.01676	2.122195E-009	0.0629072	7
	13	5	50203.12	7793.54	-8427.103	1	11478.47	-47.23678	-6.954979E-009	0.0629159	7
	14	5	39890.62	8375.735	-9857.49	1	12935.34	-49.64603	-4.991898E-009	0.0629174	7
	15	6	31640.63	9064.955	-11658.06	1	14767.66	-52.13245	-6.02862E-010	0.0629115	7
	16	6	25171.88	9883.92	-13879.84	1	17039.42	-54.54509	7.738091E-011	0.0628996	7
	17	6	20015.62	10935.37	-16538.65	1	19826.98	-56.52728	9.942783E-009	0.0629008	7
	18	6	15890.62	12275.22	-19830.3	1	23322.13	-58.24193	9.03485E-009	0.0628993	7
	19	7	12609.37	14089.13	-23707.12	1	27577.73	-59.277	1.991657E-009	0.0628887	6
	20	7	10078.13	16285.33	-28188.72	1	32554.81	-59.98389	-3.186357E-010	0.0629126	6
	21	7	8015.625	19178.37	-33560.41	1	38653.73	-60.25385	-1.911222E-010	0.0628997	6
	22	8	6328.125	23096.52	-39933.11	1	46131.36	-59.95576	-2.079952E-010	0.0629081	6
	23	8	5015.625	28054.11	-47136.99	1	54853.71	-59.24054	1.080607E-009	0.0628815	6
	24	8	3984.375	34433.48	-55049.38	1	64931.49	-57.97395	2.028695E-009	0.0628811	6
	25	9	3170.956	42461.4	-63517.24	1	76402.95	-56.23719	1.534561E-009	0.0628788	6
	26	9	2527.573	52450.32	-72346.05	1	89358.75	-54.05818	-6.535929E-010	0.0629107	6
	27	9	1976.103	65771.1	-81921.58	1	105057	-51.24061	1.893779E-009	0.0628807	6
	28	10	1577.524	80557.66	-89427.24	1	120361	-47.98691	1.91541E-009	0.0628895	6
	29	10	1265.625	97414.7	-94983.78	1	136057.1	-44.27612	4.007465E-010	0.0629022	5
	30	10	998.264	116450.8	-99317.8	1	153051.7	-40.45998	2.867112E-010	0.0629003	5
	31	11	796.875	135440	-101429	1	169209.5	-36.82898	3.705104E-010	0.062901	5
	32	11	627.7902	155160.4	-100387	1	184803.4	-32.90241	4.880721E-010	0.0628932	5
	33	11	505.5147	172194	-97704.2	1	197982	-29.57092	5.510007E-010	0.0628776	5
	34	12	397.9953	188797.6	-92529.93	1	210253	-26.10953	4.224584E-010	0.0629115	5
	35	12	315.5048	202769	-86813.52	1	220571.6	-23.1777	3.757638E-010	0.0629098	5
	36	12	252.4038	214343	-81547.59	1	229331.5	-20.8295	2.798422E-010	0.0629069	5
	37	13	198.6229	224867.7	-76597.03	1	237555.4	-18.81046	3.144331E-010	0.0629031	5
	38	13	158.3615	233506	-73036.49	1	244661.7	-17.36875	2.272429E-010	0.0629027	5
	39	13	125.558	240977.4	-70729.29	1	251142.9	-16.35749	1.98544E-010	0.0629071	5
	40	14	100.4464	246852.8	-69947.12	1	256571.5	-15.82037	2.380469E-010	0.062902	5
	41	14	79.00281	253575.4	-71024.52	1	263334.3	-15.64715	1.861477E-010	0.0629047	5
	42	14	63.3446	259808.6	-73993.52	1	270139.9	-15.89696	2.296491E-010	0.0629033	5
	43	15	49.86702	266589.2	-79214.85	1	278109.3	-16.54889	1.563418E-010	0.062901	5
	44	15	39.72458	273325.5	-86192.61	1	286593.8	-17.50256	1.21497E-010	0.0629089	5
	45	15	31.6723	279865.5	-95443.1	1	295692.5	-18.83103	2.210594E-010	0.0629058	5
	46	16	24.93351	289799.7	-108043.9	1	309285.2	-20.44659	-4.097805E-010	0.0629056	5
	47	16	19.86229	299409.4	-122531.6	1	323511.9	-22.25655	-2.676195E-010	0.0629053	5
	48	16	15.83615	311909.5	-140505.3	1	342095.4	-24.25005	-5.853656E-010	0.0629026	5
	49	16	12.40079	327307	-163219.1	1	365746.3	-26.50418	-1.282188E-009	0.0629116	5
	50	17	9.93114	344489	-187795.7	1	392351.7	-28.5967	-1.388091E-009	0.0629083	5
	51	17	7.944915	364618.6	-216375.2	1	423986.9	-30.68612	-3.654669E-010	0.0629091	5
	52	18	6.317385	390894.2	-248334.1	1	463107	-32.4277	1.54714E-011	0.0628995	5
	53	18	5.008013	422565.8	-283807.3	1	509026.9	-33.88644	-3.231251E-010	0.0628954	5
	54	19	3.945707	463003.1	-323344.2	1	564733	-34.92902	-4.886719E-010	0.0629019	5
	55	20	3.158693	504925.1	-360183.6	1	620227.1	-35.50181	-1.272126E-010	0.0628882	5
	56	21	2.504006	553230.9	-400777.5	1	683145	-35.92073	2.61131E-010	0.0628933	5
	57	23	1.998082	601958.6	-441269.9	1	746373.4	-36.24353	4.797169E-011	0.062869	5
	58	24	1.584686	657258.8	-486712.3	1	817849.6	-36.52063	-1.171367E-010	0.0628423	5
	59	26	1.266892	709085.6	-537666	1	889880.4	-37.17132	-7.904758E-011	0.0628727	5
	60	29	0.999041	763923	-600031.3	1	971399	-38.14823	-6.650232E-011	0.0629037	4
