EXPLAIN
TAG	EISPOT
TITLE	LABEL	Potentiostatic EIS	Test &Identifier
DATE	LABEL	1/7/2021	Date
TIME	LABEL	16:25:16	Time
NOTES	NOTES	1	&Notes...
	
PSTAT	PSTAT	REF600-11020	Potentiostat
VDC	POTEN	0.00000E+000	T	DC &Voltage (V)
FREQINIT	QUANT	1.00000E+006	Initial Fre&q. (Hz)
FREQFINAL	QUANT	1.00000E+000	Final Fre&q. (Hz)
PTSPERDEC	QUANT	1.00000E+001	Points/&decade
VAC	QUANT	2.50000E+001	AC &Voltage (mV rms)
AREA	QUANT	4.00000E-005	&Area (cm^2)
CONDIT	TWOPARAM	F	5.00000E+000	0.00000E+000	Conditionin&g	Time(s)	E(V)
DELAY	TWOPARAM	F	3.00000E+000	0.00000E+000	Init. De&lay	Time(s)	Stab.(mV/s)
SPEED	SELECTOR	0	&Optimize for:
ZGUESS	QUANT	1.00000E+003	E&stimated Z (ohms)
OCVCURVE	TABLE	39
	Pt	T	Vf	Vm	Ach	Over
	#	s	V vs. Ref.	V	V	bits
	0	0.258333	6.21784E-003	6.21784E-003	5.26059E-004	...........
	1	0.516667	6.21563E-003	6.10262E-003	5.24726E-004	...........
	2	0.775	6.20222E-003	5.99888E-003	5.25359E-004	...........
	3	1.03333	6.16446E-003	5.89037E-003	5.25259E-004	...........
	4	1.29167	6.09691E-003	5.79053E-003	5.21926E-004	...........
	5	1.55	6.00650E-003	5.68583E-003	5.20093E-004	...........
	6	1.80833	5.90500E-003	5.59603E-003	5.19126E-004	...........
	7	2.06667	5.80155E-003	5.50294E-003	5.22326E-004	...........
	8	2.325	5.70104E-003	5.41859E-003	5.17193E-004	...........
	9	2.58333	5.60512E-003	5.33091E-003	5.26626E-004	...........
	10	2.84167	5.51357E-003	5.25036E-003	5.25792E-004	...........
	11	3.1	5.42555E-003	5.16927E-003	5.26192E-004	...........
	12	3.35833	5.34034E-003	5.08872E-003	5.24092E-004	...........
	13	3.61667	5.25742E-003	5.01423E-003	5.23626E-004	...........
	14	3.875	5.17646E-003	4.93551E-003	5.26159E-004	...........
	15	4.13333	5.09735E-003	4.86615E-003	5.19359E-004	...........
	16	4.39167	5.02014E-003	4.79328E-003	5.14326E-004	...........
	17	4.65	4.94506E-003	4.72941E-003	5.17159E-004	...........
	18	4.90833	4.87248E-003	4.66620E-003	5.20326E-004	...........
	19	5.16667	4.80279E-003	4.60235E-003	5.19692E-004	...........
	20	5.425	4.73608E-003	4.54913E-003	5.12426E-004	...........
	21	5.68333	4.67236E-003	4.49404E-003	5.17026E-004	...........
	22	5.94167	4.61178E-003	4.43954E-003	5.20192E-004	...........
	23	6.2	4.55402E-003	4.38263E-003	5.22726E-004	...........
	24	6.45833	4.49801E-003	4.32699E-003	5.17226E-004	...........
	25	6.71667	4.44278E-003	4.28169E-003	5.20392E-004	...........
	26	6.975	4.38840E-003	4.23102E-003	5.28592E-004	...........
	27	7.23333	4.33573E-003	4.18638E-003	5.23526E-004	...........
	28	7.49167	4.28526E-003	4.13962E-003	5.24959E-004	...........
	29	7.75	4.23673E-003	4.09216E-003	5.20859E-004	...........
	30	8.00833	4.18949E-003	4.04788E-003	5.22159E-004	...........
	31	8.26667	4.14295E-003	4.00184E-003	5.23959E-004	...........
	32	8.525	4.09689E-003	3.95916E-003	5.23159E-004	...........
	33	8.78333	4.05144E-003	3.91701E-003	5.23192E-004	...........
	34	9.04167	4.00690E-003	3.87775E-003	5.22659E-004	...........
	35	9.3	3.96359E-003	3.83725E-003	5.19226E-004	...........
	36	9.5583	3.92161E-003	3.79669E-003	5.21159E-004	...........
	37	9.8167	3.88073E-003	3.76182E-003	5.22959E-004	...........
	38	10.075	3.84074E-003	3.71912E-003	5.31992E-004	...........
EOC	QUANT	0.0038407	Open Circuit (V)
PSTATMODEL	IQUANT	4	Pstat Model
PSTATSECTION	LABEL	REF600-11020	Pstat Section
PSTATSERIALNO	LABEL	11020	Pstat Serial Number
CTRLMODE	IQUANT	1	Control Mode
IESTAB	IQUANT	0	I/E Stability
CASPEED	IQUANT	1	Control Amp Speed
CONVENTION	IQUANT	1	Current Convention
ICHRANGE	IQUANT	2	Ich Range
ICHRANGEMODE	TOGGLE	F	Ich Auto Range
ICHOFFSETENABLE	TOGGLE	T	Ich Offset Enable
ICHOFFSET	QUANT	0	Ich Offset (V)
ICHFILTER	IQUANT	3	Ich Filter
VCHRANGE	IQUANT	2	Vch Range
VCHRANGEMODE	TOGGLE	F	Vch Auto Range
VCHOFFSETENABLE	TOGGLE	T	Vch Offset Enable
VCHOFFSET	QUANT	0	Vch Offset (V)
VCHFILTER	IQUANT	3	Vch Filter
ACHRANGE	IQUANT	2	Ach Range
ACHOFFSETENABLE	TOGGLE	F	Ach Offset Enable
ACHOFFSET	QUANT	0	Ach Offset (V)
ACHFILTER	IQUANT	3	Ach Filter
IERANGELOWERLIMIT	IQUANT	1	I/E Range Lower Limit
IERANGEMODE	TOGGLE	F	I/E AutoRange
IERANGE	IQUANT	6	I/E Range
POSFEEDENABLE	TOGGLE	F	Positive Feedback IR Comp
POSFEEDRESISTANCE	QUANT	0	Positive Feedback Resistance (ohm)
ACHSELECT	IQUANT	0	Ach Select
CABLEID	IQUANT	14	Cable ID
DCCALDATE	LABEL	9/1/2020	DC Calibration Date
ACCALDATE	LABEL	9/1/2020	AC Calibration Date
THERMOSELECT	IQUANT	1	Thermo Select
FRAMEWORKVERSION	QUANT	6.33	Framework Version
INSTRUMENTVERSION	LABEL	3.50	Instrument Version
ZCURVE	TABLE
	Pt	Time	Freq	Zreal	Zimag	Zsig	Zmod	Zphz	Idc	Vdc	IERange
	#	s	Hz	ohm	ohm	V	ohm	°	A	V	#
	0	1	1000078	1068.667	-3130.233	1	3307.629	-71.15	5.355185E-008	0.0057308	8
	1	2	794390.6	1284.058	-3785.884	1	3997.715	-71.26461	1.744034E-007	0.0054311	8
	2	2	630984.4	1553.74	-4577.76	1	4834.252	-71.25225	4.104665E-008	0.0053967	8
	3	2	501234.4	1912.198	-5511.395	1	5833.693	-70.8656	4.755963E-008	0.0053336	8
	4	3	398109.4	2344.203	-6622.503	1	7025.157	-70.50729	1.043347E-007	0.0052476	8
	5	3	316265.6	2928.367	-7919.348	1	8443.424	-69.70693	8.098409E-008	0.0052635	8
	6	3	251203.1	3540.863	-9491.078	1	10130.07	-69.54082	7.1703E-008	0.0052323	8
	7	4	199546.9	4399.312	-11310.05	1	12135.53	-68.74527	1.13479E-007	0.0052287	8
	8	4	158578.1	5407.69	-13450.42	1	14496.79	-68.09759	6.116355E-008	0.0052313	8
	9	4	125953.1	6701.806	-15947.04	1	17298.04	-67.20523	2.968773E-008	0.0051881	7
	10	5	100078.1	8274.788	-18887.04	1	20620.2	-66.34082	-3.106344E-009	0.0052211	7
	11	5	79453.13	10136.15	-22302.94	1	24498.22	-65.55935	7.667634E-009	0.0052047	7
	12	5	63140.62	12492.28	-26260.4	1	29080.33	-64.5592	5.839263E-009	0.0052036	7
	13	5	50203.12	15331.33	-30859.84	1	34458.37	-63.58157	5.550318E-009	0.005197	7
	14	6	39890.62	18889.91	-36053.89	1	40702.72	-62.34837	8.115815E-009	0.0051921	7
	15	6	31640.63	23436.33	-41957.12	1	48058.94	-60.81323	-4.079447E-009	0.0052049	7
	16	6	25171.88	28910.92	-48368.24	1	56350.05	-59.13217	1.193928E-009	0.0051936	7
	17	7	20015.62	35466.66	-55523.24	1	65884.09	-57.43072	-4.014751E-009	0.0051971	7
	18	7	15890.62	43553.92	-62970.77	1	76565.41	-55.33021	7.236793E-009	0.0051869	7
	19	7	12609.37	53367.93	-70939.88	1	88772.75	-53.04593	1.093333E-009	0.0051774	6
	20	8	10078.13	64280.71	-78583.35	1	101525.1	-50.71704	-1.017184E-009	0.0052031	6
	21	8	8015.625	77019.73	-86209.58	1	115603.3	-48.22237	1.234135E-009	0.0051741	6
	22	8	6328.125	91732.18	-93551.18	1	131021.4	-45.56248	1.326038E-009	0.0051757	6
	23	9	5015.625	107646.7	-100046.4	1	146959.5	-42.90426	6.479994E-010	0.0051755	6
	24	9	3984.375	124459.3	-105376.2	1	163077.5	-40.25366	1.613965E-009	0.0051697	6
	25	9	3170.956	141867	-109572.8	1	179255.2	-37.68115	6.86332E-010	0.0051855	6
	26	10	2527.573	159677	-113405	1	195850.5	-35.38294	5.817719E-010	0.005171	6
	27	10	1976.103	178981.4	-116357.4	1	213479.3	-33.02826	2.83921E-010	0.0051779	6
	28	10	1577.524	196367.7	-117935.2	1	229061	-30.98833	1.728511E-009	0.0051807	6
	29	11	1265.625	214192.8	-117836.4	1	244466.7	-28.81704	-5.535097E-011	0.0051874	5
	30	11	998.264	231800.8	-119724.6	1	260893.9	-27.31625	-1.306692E-010	0.0051873	5
	31	11	796.875	248208.6	-121734.9	1	276454.1	-26.12582	-1.194964E-010	0.0051898	5
	32	12	627.7902	265264.1	-124476.8	1	293017.9	-25.1386	-1.731562E-011	0.0051863	5
	33	12	505.5147	280440.3	-127736.9	1	308161.5	-24.48863	1.916486E-011	0.0051601	5
	34	12	397.9953	297198.8	-132626.8	1	325448.9	-24.04911	6.650766E-011	0.0051998	5
	35	13	315.5048	313613.9	-138948	1	343016.4	-23.89595	5.925209E-011	0.0051981	5
	36	13	252.4038	329969.5	-146727.3	1	361121.6	-23.97324	6.235371E-011	0.0051948	5
	37	13	198.6229	348475.3	-157137.3	1	382265.9	-24.27195	3.954025E-011	0.0051942	5
	38	14	158.3615	367279.4	-168962.9	1	404280.3	-24.70428	4.127607E-011	0.0051939	5
	39	14	125.558	388073	-183038.8	1	429073.3	-25.25141	2.207901E-011	0.0051951	5
	40	14	100.4464	409468.2	-198381.8	1	454994	-25.84956	4.404369E-011	0.0051924	5
	41	15	79.00281	433940.3	-217151.6	1	485241.2	-26.58422	3.723566E-011	0.0051906	5
	42	15	63.3446	457446.5	-237174.6	1	515275.8	-27.40561	9.339408E-011	0.0051881	5
	43	15	49.86702	484002.1	-262827	1	550759.6	-28.50323	1.075015E-011	0.0051891	5
	44	16	39.72458	510511.8	-292515.2	1	588376.9	-29.81203	5.850605E-011	0.0051923	5
	45	16	31.6723	539016.3	-328704.2	1	631335.9	-31.37577	1.044257E-010	0.0051899	5
	46	16	24.93351	572706.1	-375414.7	1	684783.6	-33.24525	-1.766945E-011	0.0051872	5
	47	17	19.86229	610028.1	-429847.4	1	746259.4	-35.16988	1.434427E-010	0.0051871	5
	48	17	15.83615	655221.8	-493407.3	1	820223.3	-36.98116	-1.966873E-010	0.0051882	5
	49	17	12.40079	713959.1	-573712.8	1	915906.1	-38.78415	-2.682498E-010	0.0051952	5
	50	17	9.93114	777965.4	-656637.3	1	1018039	-40.16585	-3.258039E-010	0.005193	4
	51	18	7.944915	855470.6	-752276.9	1	1139189	-41.3275	-1.092378E-010	0.0051944	4
	52	18	6.317385	949545.5	-857085.5	1	1279153	-42.07027	7.672965E-011	0.0051816	4
	53	19	5.008013	1060789	-972635	1	1439198	-42.51764	1.016182E-011	0.0051808	4
	54	20	3.945707	1191413	-1103424	1	1623888	-42.80423	-7.121898E-011	0.0051853	4
	55	21	3.158693	1327210	-1231547	1	1810578	-42.85889	3.48042E-011	0.0051687	4
	56	22	2.504006	1486164	-1381006	1	2028758	-42.89952	1.035418E-010	0.005172	4
	57	23	1.998082	1652424	-1535547	1	2255750	-42.90036	2.989736E-011	0.0051439	4
	58	25	1.584686	1846065	-1720307	1	2523373	-42.98048	2.453295E-012	0.0051329	4
	59	27	1.266892	2042744	-1914947	1	2799969	-43.15051	1.752709E-011	0.0051653	4
	60	29	0.999041	2272871	-2141634	1	3122906	-43.29717	3.009496E-011	0.0051955	4
