EXPLAIN
TAG	EISPOT
TITLE	LABEL	Potentiostatic EIS	Test &Identifier
DATE	LABEL	1/7/2021	Date
TIME	LABEL	15:52:10	Time
NOTES	NOTES	1	&Notes...
	
PSTAT	PSTAT	REF600-11020	Potentiostat
VDC	POTEN	0.00000E+000	T	DC &Voltage (V)
FREQINIT	QUANT	1.00000E+006	Initial Fre&q. (Hz)
FREQFINAL	QUANT	1.00000E+000	Final Fre&q. (Hz)
PTSPERDEC	QUANT	1.00000E+001	Points/&decade
VAC	QUANT	2.50000E+001	AC &Voltage (mV rms)
AREA	QUANT	4.00000E-005	&Area (cm^2)
CONDIT	TWOPARAM	F	5.00000E+000	0.00000E+000	Conditionin&g	Time(s)	E(V)
DELAY	TWOPARAM	F	3.00000E+000	0.00000E+000	Init. De&lay	Time(s)	Stab.(mV/s)
SPEED	SELECTOR	0	&Optimize for:
ZGUESS	QUANT	1.00000E+003	E&stimated Z (ohms)
OCVCURVE	TABLE	39
	Pt	T	Vf	Vm	Ach	Over
	#	s	V vs. Ref.	V	V	bits
	0	0.258333	7.23807E-002	7.23807E-002	5.42725E-004	...........
	1	0.516667	7.23808E-002	7.23836E-002	5.40325E-004	...........
	2	0.775	7.23812E-002	7.23932E-002	5.46525E-004	...........
	3	1.03333	7.23829E-002	7.23965E-002	5.43192E-004	...........
	4	1.29167	7.23862E-002	7.23991E-002	5.41692E-004	...........
	5	1.55	7.23905E-002	7.24003E-002	5.41459E-004	...........
	6	1.80833	7.23946E-002	7.24005E-002	5.38592E-004	...........
	7	2.06667	7.23976E-002	7.24002E-002	5.38659E-004	...........
	8	2.325	7.23994E-002	7.24007E-002	5.44092E-004	...........
	9	2.58333	7.24003E-002	7.24042E-002	5.39226E-004	...........
	10	2.84167	7.24010E-002	7.24069E-002	5.46625E-004	...........
	11	3.1	7.24022E-002	7.24076E-002	5.48525E-004	...........
	12	3.35833	7.24039E-002	7.24098E-002	5.41992E-004	...........
	13	3.61667	7.24058E-002	7.24105E-002	5.45659E-004	...........
	14	3.875	7.24077E-002	7.24125E-002	5.39826E-004	...........
	15	4.13333	7.24093E-002	7.24140E-002	5.51892E-004	...........
	16	4.39167	7.24108E-002	7.24166E-002	5.47692E-004	...........
	17	4.65	7.24125E-002	7.24182E-002	5.42292E-004	...........
	18	4.90833	7.24141E-002	7.24145E-002	5.47725E-004	...........
	19	5.16667	7.24156E-002	7.24204E-002	5.51792E-004	...........
	20	5.425	7.24167E-002	7.24230E-002	5.49659E-004	...........
	21	5.68333	7.24180E-002	7.24275E-002	5.42959E-004	...........
	22	5.94167	7.24202E-002	7.24313E-002	5.48159E-004	...........
	23	6.2	7.24233E-002	7.24321E-002	5.42259E-004	...........
	24	6.45833	7.24266E-002	7.24349E-002	5.46959E-004	...........
	25	6.71667	7.24297E-002	7.24374E-002	5.51325E-004	...........
	26	6.975	7.24324E-002	7.24414E-002	5.50425E-004	...........
	27	7.23333	7.24350E-002	7.24416E-002	5.49125E-004	...........
	28	7.49167	7.24375E-002	7.24447E-002	5.42892E-004	...........
	29	7.75	7.24400E-002	7.24482E-002	5.41259E-004	...........
	30	8.00833	7.24424E-002	7.24524E-002	5.43692E-004	...........
	31	8.26667	7.24452E-002	7.24570E-002	5.53825E-004	...........
	32	8.525	7.24484E-002	7.24583E-002	5.54925E-004	...........
	33	8.78333	7.24519E-002	7.24596E-002	5.52359E-004	...........
	34	9.04167	7.24551E-002	7.24627E-002	5.51592E-004	...........
	35	9.3	7.24578E-002	7.24644E-002	5.43825E-004	...........
	36	9.5583	7.24601E-002	7.24693E-002	5.46825E-004	...........
	37	9.8167	7.24625E-002	7.24714E-002	5.40359E-004	...........
	38	10.075	7.24653E-002	7.24776E-002	5.41792E-004	...........
EOC	QUANT	0.0724653	Open Circuit (V)
PSTATMODEL	IQUANT	4	Pstat Model
PSTATSECTION	LABEL	REF600-11020	Pstat Section
PSTATSERIALNO	LABEL	11020	Pstat Serial Number
CTRLMODE	IQUANT	1	Control Mode
IESTAB	IQUANT	0	I/E Stability
CASPEED	IQUANT	1	Control Amp Speed
CONVENTION	IQUANT	1	Current Convention
ICHRANGE	IQUANT	2	Ich Range
ICHRANGEMODE	TOGGLE	F	Ich Auto Range
ICHOFFSETENABLE	TOGGLE	T	Ich Offset Enable
ICHOFFSET	QUANT	0	Ich Offset (V)
ICHFILTER	IQUANT	3	Ich Filter
VCHRANGE	IQUANT	2	Vch Range
VCHRANGEMODE	TOGGLE	F	Vch Auto Range
VCHOFFSETENABLE	TOGGLE	T	Vch Offset Enable
VCHOFFSET	QUANT	0	Vch Offset (V)
VCHFILTER	IQUANT	3	Vch Filter
ACHRANGE	IQUANT	2	Ach Range
ACHOFFSETENABLE	TOGGLE	F	Ach Offset Enable
ACHOFFSET	QUANT	0	Ach Offset (V)
ACHFILTER	IQUANT	3	Ach Filter
IERANGELOWERLIMIT	IQUANT	1	I/E Range Lower Limit
IERANGEMODE	TOGGLE	F	I/E AutoRange
IERANGE	IQUANT	8	I/E Range
POSFEEDENABLE	TOGGLE	F	Positive Feedback IR Comp
POSFEEDRESISTANCE	QUANT	0	Positive Feedback Resistance (ohm)
ACHSELECT	IQUANT	0	Ach Select
CABLEID	IQUANT	14	Cable ID
DCCALDATE	LABEL	9/1/2020	DC Calibration Date
ACCALDATE	LABEL	9/1/2020	AC Calibration Date
THERMOSELECT	IQUANT	1	Thermo Select
FRAMEWORKVERSION	QUANT	6.33	Framework Version
INSTRUMENTVERSION	LABEL	3.50	Instrument Version
ZCURVE	TABLE
	Pt	Time	Freq	Zreal	Zimag	Zsig	Zmod	Zphz	Idc	Vdc	IERange
	#	s	Hz	ohm	ohm	V	ohm	°	A	V	#
	0	1	1000078	1609.834	-2703.951	1	3146.891	-59.23197	2.768076E-007	0.0745686	8
	1	1	794390.6	2029.18	-3104.963	1	3709.227	-56.83427	-1.356577E-009	0.0742885	8
	2	2	630984.4	2545.332	-3496.581	1	4324.903	-53.9473	2.460752E-007	0.0741039	8
	3	2	501234.4	3152.256	-3871.285	1	4992.351	-50.84525	1.016856E-008	0.0740409	8
	4	2	398109.4	3841.809	-4193.651	1	5687.373	-47.50716	2.579734E-008	0.073999	8
	5	3	316265.6	4591.812	-4438.508	1	6386.321	-44.02741	7.757884E-008	0.0739703	8
	6	3	251203.1	5371.886	-4608.456	1	7077.784	-40.62577	7.850917E-008	0.0739638	8
	7	3	199546.9	6146.403	-4737.665	1	7760.396	-37.62514	7.927346E-008	0.0739506	8
	8	3	158578.1	6910.193	-4807.363	1	8417.928	-34.82601	4.388358E-008	0.0739484	8
	9	4	125953.1	7650.231	-4826.567	1	9045.54	-32.24802	2.036687E-008	0.0739527	7
	10	4	100078.1	8333.467	-4877.025	1	9655.67	-30.33761	1.266349E-008	0.0739042	7
	11	4	79453.13	8983.289	-4960.234	1	10261.75	-28.90583	4.880697E-009	0.0739206	7
	12	5	63140.62	9616.19	-5094.841	1	10882.48	-27.91551	-7.326118E-009	0.0739204	7
	13	5	50203.12	10244.77	-5291.934	1	11530.83	-27.3186	-4.040523E-009	0.0739014	7
	14	5	39890.62	10885.03	-5549.706	1	12218.15	-27.01465	-1.049904E-008	0.0739093	7
	15	6	31640.63	11560.34	-5888.909	1	12973.85	-26.99458	-1.010275E-008	0.073904	7
	16	6	25171.88	12261.17	-6298.455	1	13784.29	-27.18917	1.34339E-008	0.0738968	7
	17	6	20015.62	13034.1	-6802.739	1	14702.55	-27.56089	-2.492179E-009	0.0738914	7
	18	7	15890.62	13876.29	-7388.997	1	15720.97	-28.03489	-7.443479E-009	0.0738959	7
	19	7	12609.37	14831.52	-8034.214	1	16867.79	-28.44435	2.640645E-009	0.0738822	6
	20	7	10078.13	15819.47	-8778.325	1	18091.84	-29.02617	-2.101826E-009	0.0739272	6
	21	8	8015.625	16940.29	-9629.34	1	19485.83	-29.61512	-2.221848E-009	0.0739222	6
	22	8	6328.125	18230.78	-10612.63	1	21094.76	-30.20484	2.646743E-009	0.0738785	6
	23	8	5015.625	19627.12	-11677.92	1	22838.51	-30.75217	5.527249E-010	0.0738707	6
	24	9	3984.375	21158.51	-12843.42	1	24751.48	-31.25816	1.324387E-009	0.073864	6
	25	9	3170.956	22833.78	-14099.47	1	26836.11	-31.69464	-2.158104E-010	0.0739171	6
	26	9	2527.573	24659.88	-15482.21	1	29117.15	-32.12183	1.301572E-009	0.0738601	6
	27	10	1976.103	26843.4	-17124.25	1	31840.35	-32.53508	1.756316E-009	0.0738576	6
	28	10	1577.524	29037.36	-18778.98	1	34580.61	-32.89148	4.113016E-010	0.0738677	6
	29	10	1265.625	31367.14	-20536.59	1	37491.99	-33.21343	-2.181058E-009	0.0739178	6
	30	11	998.264	34137.94	-22625.59	1	40955.05	-33.53521	-1.842606E-010	0.0739169	6
	31	11	796.875	37003.65	-24859.48	1	44578.74	-33.89366	-2.079954E-009	0.0739037	6
	32	11	627.7902	40323.79	-27477.44	1	48795.67	-34.27131	2.535183E-009	0.0738694	6
	33	11	505.5147	43587.52	-30135.6	1	52990.81	-34.65926	3.945817E-010	0.0738591	6
	34	12	397.9953	47640.98	-33348.93	1	58153.37	-34.99222	3.817588E-010	0.0739089	6
	35	12	315.5048	51968.75	-36847.04	1	63706	-35.33752	3.658717E-010	0.0739038	6
	36	12	252.4038	56551.54	-40545.23	1	69584.43	-35.63904	4.010726E-010	0.0739044	6
	37	13	198.6229	61975.51	-44912.89	1	76538.43	-35.93038	3.147324E-010	0.073907	6
	38	13	158.3615	67582.27	-49450.71	1	83742.09	-36.19336	2.999937E-010	0.073904	6
	39	13	125.558	73787.21	-54584.96	1	91782.73	-36.49262	3.032604E-010	0.0739033	6
	40	14	100.4464	80180.22	-59989.05	1	100137.7	-36.80301	-3.621561E-012	0.0739001	5
	41	14	79.00281	87520.37	-66732.41	1	110059.2	-37.32475	3.431319E-011	0.0738948	5
	42	14	63.3446	94741.62	-73910.87	1	120161.5	-37.9589	-1.599018E-010	0.0738964	5
	43	15	49.86702	103197.3	-83008.38	1	132438.9	-38.81202	1.087594E-010	0.0738924	5
	44	15	39.72458	112028.4	-93222.34	1	145742.1	-39.76491	7.891619E-011	0.0738964	5
	45	15	31.6723	121832.7	-105186.9	1	160958	-40.8064	-2.99096E-011	0.0738971	5
	46	16	24.93351	133520.1	-119967.2	1	179498.6	-41.93954	3.95249E-010	0.0738966	5
	47	16	19.86229	146108.1	-136416.9	1	199892.8	-43.0354	8.95158E-010	0.0739001	5
	48	16	15.83615	160696.8	-155530.8	1	223636.5	-44.06409	-2.971515E-010	0.073897	5
	49	17	12.40079	178717.5	-178916.8	1	252885.7	-45.03192	5.577243E-010	0.0738985	5
	50	17	9.93114	197394.4	-203960.5	1	283838.7	-45.93726	3.093159E-010	0.0739038	5
	51	17	7.944915	218928.1	-232089.8	1	319053.6	-46.67155	-8.183588E-010	0.0738968	5
	52	18	6.317385	244755	-266047.3	1	361505.4	-47.38694	2.229012E-010	0.0738839	5
	53	19	5.008013	274912.4	-305402.8	1	410910.8	-48.00762	4.623905E-010	0.0738959	5
	54	19	3.945707	311325.3	-350297.3	1	468648.7	-48.37104	1.396302E-012	0.0738866	5
	55	20	3.158693	350050.6	-398619.5	1	530502.6	-48.71178	2.585665E-010	0.0739005	5
	56	21	2.504006	396668	-453608.2	1	602582.7	-48.83119	-2.710544E-011	0.0738921	5
	57	23	1.998082	446686	-514838.2	1	681606	-49.0543	-1.223141E-010	0.0738643	5
	58	24	1.584686	504360.6	-582986.1	1	770877.7	-49.13583	3.358381E-011	0.0739143	5
	59	26	1.266892	567762.8	-659777.1	1	870436.9	-49.28678	9.088104E-011	0.0739256	5
	60	29	0.999041	639681.2	-753736.3	1	988590	-49.67939	1.141592E-010	0.0739208	5
