EXPLAIN
TAG	EISPOT
TITLE	LABEL	Potentiostatic EIS	Test &Identifier
DATE	LABEL	6/10/2021	Date
TIME	LABEL	15:24:49	Time
NOTES	NOTES	1	&Notes...
	
PSTAT	PSTAT	REF600-11020	Potentiostat
VDC	POTEN	0.00000E+000	T	DC &Voltage (V)
FREQINIT	QUANT	1.00000E+006	Initial Fre&q. (Hz)
FREQFINAL	QUANT	1.00000E+000	Final Fre&q. (Hz)
PTSPERDEC	QUANT	1.00000E+001	Points/&decade
VAC	QUANT	2.50000E+001	AC &Voltage (mV rms)
AREA	QUANT	4.00000E-005	&Area (cm^2)
CONDIT	TWOPARAM	F	5.00000E+000	0.00000E+000	Conditionin&g	Time(s)	E(V)
DELAY	TWOPARAM	F	3.00000E+000	0.00000E+000	Init. De&lay	Time(s)	Stab.(mV/s)
SPEED	SELECTOR	0	&Optimize for:
ZGUESS	QUANT	1.00000E+003	E&stimated Z (ohms)
OCVCURVE	TABLE	39
	Pt	T	Vf	Vm	Ach	Over
	#	s	V vs. Ref.	V	V	bits
	0	0.258333	3.53002E-002	3.53002E-002	5.18959E-004	...........
	1	0.516667	3.53001E-002	3.52947E-002	5.17026E-004	...........
	2	0.775	3.52994E-002	3.52893E-002	5.18426E-004	...........
	3	1.03333	3.52976E-002	3.52846E-002	5.22392E-004	...........
	4	1.29167	3.52943E-002	3.52795E-002	5.17359E-004	...........
	5	1.55	3.52900E-002	3.52746E-002	5.19992E-004	...........
	6	1.80833	3.52851E-002	3.52685E-002	5.28192E-004	...........
	7	2.06667	3.52799E-002	3.52627E-002	5.22926E-004	...........
	8	2.325	3.52746E-002	3.52592E-002	5.23492E-004	...........
	9	2.58333	3.52693E-002	3.52564E-002	5.21059E-004	...........
	10	2.84167	3.52643E-002	3.52520E-002	5.28992E-004	...........
	11	3.1	3.52600E-002	3.52452E-002	5.28892E-004	...........
	12	3.35833	3.52557E-002	3.52409E-002	5.26259E-004	...........
	13	3.61667	3.52513E-002	3.52386E-002	5.21026E-004	...........
	14	3.875	3.52467E-002	3.52336E-002	5.27259E-004	...........
	15	4.13333	3.52422E-002	3.52280E-002	5.19759E-004	...........
	16	4.39167	3.52379E-002	3.52249E-002	5.25892E-004	...........
	17	4.65	3.52336E-002	3.52212E-002	5.24926E-004	...........
	18	4.90833	3.52293E-002	3.52156E-002	5.26526E-004	...........
	19	5.16667	3.52251E-002	3.52128E-002	5.24259E-004	...........
	20	5.425	3.52209E-002	3.52090E-002	5.26126E-004	...........
	21	5.68333	3.52168E-002	3.52028E-002	5.22626E-004	...........
	22	5.94167	3.52127E-002	3.51989E-002	5.18859E-004	...........
	23	6.2	3.52084E-002	3.51948E-002	5.25292E-004	...........
	24	6.45833	3.52038E-002	3.51858E-002	5.27159E-004	...........
	25	6.71667	3.51989E-002	3.51832E-002	5.27826E-004	...........
	26	6.975	3.51937E-002	3.51804E-002	5.27792E-004	...........
	27	7.23333	3.51886E-002	3.51758E-002	5.25959E-004	...........
	28	7.49167	3.51841E-002	3.51729E-002	5.21192E-004	...........
	29	7.75	3.51801E-002	3.51691E-002	5.25792E-004	...........
	30	8.00833	3.51765E-002	3.51654E-002	5.25292E-004	...........
	31	8.26667	3.51729E-002	3.51611E-002	5.28959E-004	...........
	32	8.525	3.51693E-002	3.51582E-002	5.28692E-004	...........
	33	8.78333	3.51656E-002	3.51548E-002	5.24059E-004	...........
	34	9.04167	3.51619E-002	3.51521E-002	5.25359E-004	...........
	35	9.3	3.51585E-002	3.51478E-002	5.24926E-004	...........
	36	9.5583	3.51552E-002	3.51456E-002	5.24692E-004	...........
	37	9.8167	3.51519E-002	3.51396E-002	5.26959E-004	...........
	38	10.075	3.51484E-002	3.51361E-002	5.27292E-004	...........
EOC	QUANT	0.0351484	Open Circuit (V)
PSTATMODEL	IQUANT	4	Pstat Model
PSTATSECTION	LABEL	REF600-11020	Pstat Section
PSTATSERIALNO	LABEL	11020	Pstat Serial Number
CTRLMODE	IQUANT	1	Control Mode
IESTAB	IQUANT	0	I/E Stability
CASPEED	IQUANT	1	Control Amp Speed
CONVENTION	IQUANT	1	Current Convention
ICHRANGE	IQUANT	2	Ich Range
ICHRANGEMODE	TOGGLE	F	Ich Auto Range
ICHOFFSETENABLE	TOGGLE	T	Ich Offset Enable
ICHOFFSET	QUANT	0	Ich Offset (V)
ICHFILTER	IQUANT	3	Ich Filter
VCHRANGE	IQUANT	2	Vch Range
VCHRANGEMODE	TOGGLE	F	Vch Auto Range
VCHOFFSETENABLE	TOGGLE	T	Vch Offset Enable
VCHOFFSET	QUANT	0	Vch Offset (V)
VCHFILTER	IQUANT	3	Vch Filter
ACHRANGE	IQUANT	2	Ach Range
ACHOFFSETENABLE	TOGGLE	F	Ach Offset Enable
ACHOFFSET	QUANT	0	Ach Offset (V)
ACHFILTER	IQUANT	3	Ach Filter
IERANGELOWERLIMIT	IQUANT	1	I/E Range Lower Limit
IERANGEMODE	TOGGLE	F	I/E AutoRange
IERANGE	IQUANT	7	I/E Range
POSFEEDENABLE	TOGGLE	F	Positive Feedback IR Comp
POSFEEDRESISTANCE	QUANT	0	Positive Feedback Resistance (ohm)
ACHSELECT	IQUANT	0	Ach Select
CABLEID	IQUANT	14	Cable ID
DCCALDATE	LABEL	9/1/2020	DC Calibration Date
ACCALDATE	LABEL	9/1/2020	AC Calibration Date
THERMOSELECT	IQUANT	1	Thermo Select
FRAMEWORKVERSION	QUANT	6.33	Framework Version
INSTRUMENTVERSION	LABEL	3.50	Instrument Version
ZCURVE	TABLE
	Pt	Time	Freq	Zreal	Zimag	Zsig	Zmod	Zphz	Idc	Vdc	IERange
	#	s	Hz	ohm	ohm	V	ohm	°	A	V	#
	0	1	1000078	1572.109	-2817.297	1	3226.25	-60.83759	6.030371E-009	0.0373583	8
	1	1	794390.6	1924.183	-3241.898	1	3769.932	-59.30935	8.07913E-008	0.0370504	8
	2	2	630984.4	2339.93	-3712.55	1	4388.428	-57.77777	9.588071E-009	0.0369204	8
	3	2	501234.4	2815.28	-4233.212	1	5083.885	-56.37427	-1.048542E-008	0.0368241	8
	4	2	398109.4	3383.74	-4800.365	1	5873.091	-54.82029	3.631239E-008	0.0367577	8
	5	3	316265.6	4040.509	-5418.071	1	6758.787	-53.28638	2.271725E-008	0.0367419	8
	6	3	251203.1	4811.219	-6105.984	1	7773.73	-51.76361	3.828695E-008	0.0367148	8
	7	3	199546.9	5723.772	-6833.695	1	8914.087	-50.0511	3.096131E-010	0.0367133	8
	8	3	158578.1	6816.419	-7570.661	1	10187.17	-48.00098	3.566177E-008	0.0367172	8
	9	4	125953.1	8148.752	-8263.561	1	11605.54	-45.40079	-1.689611E-010	0.0367063	7
	10	4	100078.1	9595.73	-8878.351	1	13072.99	-42.77623	5.507359E-010	0.0366862	7
	11	4	79453.13	11155.57	-9389.88	1	14581.38	-40.08803	-8.277448E-010	0.0366926	7
	12	5	63140.62	12812.6	-9772.58	1	16114.15	-37.33393	-2.750068E-010	0.0366879	7
	13	5	50203.12	14484.37	-10030.49	1	17618.39	-34.70277	-1.17954E-010	0.0366875	7
	14	5	39890.62	16108.04	-10114.75	1	19020.44	-32.12602	-2.436022E-010	0.0366734	7
	15	6	31640.63	17682.78	-10177.08	1	20402.3	-29.922	2.862173E-011	0.0366736	7
	16	6	25171.88	19131.4	-10196.48	1	21678.99	-28.05633	-7.34923E-010	0.0366767	7
	17	6	20015.62	20532.35	-10262.86	1	22954.38	-26.55766	-1.268727E-010	0.0366745	7
	18	7	15890.62	21912.24	-10405.44	1	24257.36	-25.40158	-7.56791E-010	0.036676	7
	19	7	12609.37	23361.2	-10545.4	1	25631.05	-24.29473	2.394062E-010	0.0366805	6
	20	7	10078.13	24643.76	-10876.31	1	26937.13	-23.81385	2.000496E-011	0.0366702	6
	21	8	8015.625	26047.4	-11349.04	1	28412.45	-23.5431	1.693975E-010	0.0366735	6
	22	8	6328.125	27489.63	-11944.98	1	29972.69	-23.48623	5.672525E-011	0.0366691	6
	23	8	5015.625	28985.92	-12662.75	1	31631.13	-23.59853	9.485596E-011	0.0366739	6
	24	9	3984.375	30614.41	-13521.01	1	33467.3	-23.8289	-2.328644E-011	0.0366599	6
	25	9	3170.956	32303.15	-14502.94	1	35409.45	-24.17834	-6.703846E-011	0.0366745	6
	26	9	2527.573	34138.55	-15622.68	1	37543.43	-24.59005	2.273686E-010	0.0366732	6
	27	10	1976.103	36380.44	-16997.23	1	40155.22	-25.04235	5.000661E-011	0.0366671	6
	28	10	1577.524	38552.13	-18409.24	1	42721.96	-25.5252	1.712694E-010	0.0366708	6
	29	10	1265.625	40896.07	-19914.79	1	45487.22	-25.96428	1.52051E-010	0.036663	6
	30	10	998.264	43728.32	-21699.6	1	48816.37	-26.39229	-2.833661E-011	0.0366585	6
	31	11	796.875	46627.36	-23548.56	1	52236.44	-26.79548	9.876136E-011	0.0366646	6
	32	11	627.7902	50026.81	-25636.36	1	56213.03	-27.13298	-3.684853E-011	0.0366596	6
	33	11	505.5147	53404.7	-27681.57	1	60152.57	-27.39932	1.017287E-010	0.0366731	6
	34	12	397.9953	57427.55	-30092.81	1	64834.41	-27.65514	9.180885E-011	0.0366875	6
	35	12	315.5048	61827.64	-32548.64	1	69871.82	-27.76418	2.072723E-010	0.0366861	6
	36	12	252.4038	66287.28	-35018.64	1	74968.72	-27.84686	1.375623E-010	0.0366834	6
	37	13	198.6229	71604.55	-37788.17	1	80963.93	-27.82214	6.456385E-011	0.0366866	6
	38	13	158.3615	76887.46	-40494.15	1	86899.13	-27.77433	2.71754E-010	0.0366841	6
	39	13	125.558	82796.78	-43359.64	1	93463.18	-27.64049	2.993196E-010	0.036686	6
	40	14	100.4464	88670.45	-46101.28	1	99938.9	-27.47069	4.057314E-012	0.0366744	5
	41	14	79.00281	95358.3	-49332.31	1	107363.3	-27.35418	-2.13847E-010	0.0366761	5
	42	14	63.3446	101836.3	-52512.72	1	114578.5	-27.27826	-2.704694E-010	0.0366744	5
	43	15	49.86702	108874.5	-56286.02	1	122563.3	-27.33809	4.306061E-010	0.0366749	5
	44	15	39.72458	115947.2	-60338.97	1	130707.8	-27.4925	-2.938343E-010	0.0366791	5
	45	15	31.6723	123264	-65017.1	1	139360.1	-27.80994	-2.973754E-010	0.0366762	5
	46	16	24.93351	131281.2	-70770.09	1	149141.4	-28.32788	-3.145273E-010	0.0366725	5
	47	16	19.86229	139253.6	-77542.65	1	159387.6	-29.11102	-2.414418E-009	0.0366716	5
	48	16	15.83615	148321.1	-84734.52	1	170818.9	-29.73895	2.502484E-009	0.0366681	5
	49	17	12.40079	157822.6	-94258.47	1	183827.7	-30.84748	1.762144E-009	0.0366737	5
	50	17	9.93114	166651.8	-104107.8	1	196497.5	-31.99314	2.203137E-009	0.0366704	5
	51	17	7.944915	176508.1	-117198.4	1	211873.9	-33.5835	1.409224E-009	0.0366642	5
	52	18	6.317385	187709.8	-132093.9	1	229529.5	-35.13457	-4.618455E-010	0.0366784	5
	53	18	5.008013	199488.6	-150154.5	1	249683.9	-36.96867	4.452785E-011	0.0366761	5
	54	19	3.945707	212508.8	-173357.2	1	274249.4	-39.20636	5.110311E-010	0.0366704	5
	55	20	3.158693	225642.6	-198876	1	300776.1	-41.39217	2.045491E-011	0.0366886	5
	56	21	2.504006	241152.5	-231825.5	1	334511	-43.87028	-1.963238E-010	0.036674	5
	57	23	1.998082	257438	-269657.8	1	372813.1	-46.32806	1.634989E-010	0.0366954	5
	58	24	1.584686	276817.1	-318249.6	1	421794.4	-48.98288	1.990578E-010	0.0367048	5
	59	26	1.266892	296785.7	-374265.9	1	477657.5	-51.58626	7.923461E-011	0.036673	5
	60	29	0.999041	321651.1	-445430	1	549424.6	-54.16644	2.268365E-011	0.0366449	5
