EXPLAIN
TAG	EISPOT
TITLE	LABEL	Potentiostatic EIS	Test &Identifier
DATE	LABEL	1/7/2021	Date
TIME	LABEL	16:02:35	Time
NOTES	NOTES	1	&Notes...
	
PSTAT	PSTAT	REF600-11020	Potentiostat
VDC	POTEN	0.00000E+000	T	DC &Voltage (V)
FREQINIT	QUANT	1.00000E+006	Initial Fre&q. (Hz)
FREQFINAL	QUANT	1.00000E+000	Final Fre&q. (Hz)
PTSPERDEC	QUANT	1.00000E+001	Points/&decade
VAC	QUANT	2.50000E+001	AC &Voltage (mV rms)
AREA	QUANT	4.00000E-005	&Area (cm^2)
CONDIT	TWOPARAM	F	5.00000E+000	0.00000E+000	Conditionin&g	Time(s)	E(V)
DELAY	TWOPARAM	F	3.00000E+000	0.00000E+000	Init. De&lay	Time(s)	Stab.(mV/s)
SPEED	SELECTOR	0	&Optimize for:
ZGUESS	QUANT	1.00000E+003	E&stimated Z (ohms)
OCVCURVE	TABLE	39
	Pt	T	Vf	Vm	Ach	Over
	#	s	V vs. Ref.	V	V	bits
	0	0.258333	1.33787E-002	1.33787E-002	5.40492E-004	...........
	1	0.516667	1.33787E-002	1.33755E-002	5.41359E-004	...........
	2	0.775	1.33780E-002	1.33571E-002	5.31692E-004	...........
	3	1.03333	1.33752E-002	1.33407E-002	5.40626E-004	...........
	4	1.29167	1.33686E-002	1.33393E-002	5.38126E-004	...........
	5	1.55	1.33585E-002	1.33138E-002	5.36026E-004	...........
	6	1.80833	1.33460E-002	1.32866E-002	5.39959E-004	...........
	7	2.06667	1.33313E-002	1.32891E-002	5.44225E-004	...........
	8	2.325	1.33153E-002	1.32875E-002	5.39126E-004	...........
	9	2.58333	1.33017E-002	1.32981E-002	5.40159E-004	...........
	10	2.84167	1.32941E-002	1.33099E-002	5.38459E-004	...........
	11	3.1	1.32931E-002	1.32942E-002	5.33292E-004	...........
	12	3.35833	1.32955E-002	1.32765E-002	5.36359E-004	...........
	13	3.61667	1.32966E-002	1.33166E-002	5.37926E-004	...........
	14	3.875	1.32946E-002	1.32200E-002	5.39392E-004	...........
	15	4.13333	1.32878E-002	1.32379E-002	5.39092E-004	...........
	16	4.39167	1.32743E-002	1.32417E-002	5.32626E-004	...........
	17	4.65	1.32578E-002	1.32334E-002	5.31559E-004	...........
	18	4.90833	1.32444E-002	1.31958E-002	5.33726E-004	...........
	19	5.16667	1.32336E-002	1.31870E-002	5.35226E-004	...........
	20	5.425	1.32212E-002	1.31830E-002	5.35659E-004	...........
	21	5.68333	1.32070E-002	1.31731E-002	5.29092E-004	...........
	22	5.94167	1.31936E-002	1.31631E-002	5.38726E-004	...........
	23	6.2	1.31826E-002	1.31559E-002	5.36326E-004	...........
	24	6.45833	1.31732E-002	1.31487E-002	5.38792E-004	...........
	25	6.71667	1.31647E-002	1.31406E-002	5.35726E-004	...........
	26	6.975	1.31567E-002	1.31337E-002	5.34092E-004	...........
	27	7.23333	1.31490E-002	1.31281E-002	5.40259E-004	...........
	28	7.49167	1.31417E-002	1.31197E-002	5.35192E-004	...........
	29	7.75	1.31346E-002	1.31121E-002	5.34092E-004	...........
	30	8.00833	1.31275E-002	1.31040E-002	5.38192E-004	...........
	31	8.26667	1.31202E-002	1.30975E-002	5.32126E-004	...........
	32	8.525	1.31126E-002	1.30878E-002	5.39092E-004	...........
	33	8.78333	1.31051E-002	1.30866E-002	5.36126E-004	...........
	34	9.04167	1.30978E-002	1.30798E-002	5.38159E-004	...........
	35	9.3	1.30913E-002	1.30725E-002	5.35092E-004	...........
	36	9.5583	1.30853E-002	1.30663E-002	5.35292E-004	...........
	37	9.8167	1.30794E-002	1.30596E-002	5.33092E-004	...........
	38	10.075	1.30732E-002	1.30546E-002	5.31426E-004	...........
EOC	QUANT	0.0130732	Open Circuit (V)
PSTATMODEL	IQUANT	4	Pstat Model
PSTATSECTION	LABEL	REF600-11020	Pstat Section
PSTATSERIALNO	LABEL	11020	Pstat Serial Number
CTRLMODE	IQUANT	1	Control Mode
IESTAB	IQUANT	0	I/E Stability
CASPEED	IQUANT	1	Control Amp Speed
CONVENTION	IQUANT	1	Current Convention
ICHRANGE	IQUANT	2	Ich Range
ICHRANGEMODE	TOGGLE	F	Ich Auto Range
ICHOFFSETENABLE	TOGGLE	T	Ich Offset Enable
ICHOFFSET	QUANT	0	Ich Offset (V)
ICHFILTER	IQUANT	3	Ich Filter
VCHRANGE	IQUANT	2	Vch Range
VCHRANGEMODE	TOGGLE	F	Vch Auto Range
VCHOFFSETENABLE	TOGGLE	T	Vch Offset Enable
VCHOFFSET	QUANT	0	Vch Offset (V)
VCHFILTER	IQUANT	3	Vch Filter
ACHRANGE	IQUANT	2	Ach Range
ACHOFFSETENABLE	TOGGLE	F	Ach Offset Enable
ACHOFFSET	QUANT	0	Ach Offset (V)
ACHFILTER	IQUANT	3	Ach Filter
IERANGELOWERLIMIT	IQUANT	1	I/E Range Lower Limit
IERANGEMODE	TOGGLE	F	I/E AutoRange
IERANGE	IQUANT	7	I/E Range
POSFEEDENABLE	TOGGLE	F	Positive Feedback IR Comp
POSFEEDRESISTANCE	QUANT	0	Positive Feedback Resistance (ohm)
ACHSELECT	IQUANT	0	Ach Select
CABLEID	IQUANT	14	Cable ID
DCCALDATE	LABEL	9/1/2020	DC Calibration Date
ACCALDATE	LABEL	9/1/2020	AC Calibration Date
THERMOSELECT	IQUANT	1	Thermo Select
FRAMEWORKVERSION	QUANT	6.33	Framework Version
INSTRUMENTVERSION	LABEL	3.50	Instrument Version
ZCURVE	TABLE
	Pt	Time	Freq	Zreal	Zimag	Zsig	Zmod	Zphz	Idc	Vdc	IERange
	#	s	Hz	ohm	ohm	V	ohm	°	A	V	#
	0	1	1000078	1543.357	-1687.472	1	2286.813	-47.55405	2.745942E-007	0.0149633	8
	1	2	794390.6	1817.728	-1838.963	1	2585.715	-45.33273	1.356276E-008	0.0147444	8
	2	2	630984.4	2117.204	-1977.382	1	2896.997	-43.04424	2.532641E-007	0.0145847	8
	3	2	501234.4	2438.371	-2102.027	1	3219.343	-40.76338	1.010651E-007	0.0145798	8
	4	3	398109.4	2771.212	-2218.943	1	3550.116	-38.68468	3.053061E-008	0.0144988	8
	5	3	316265.6	3111.936	-2322.714	1	3883.187	-36.73725	6.095404E-010	0.0144844	8
	6	3	251203.1	3461.274	-2417.533	1	4221.952	-34.93244	9.932476E-008	0.0144672	8
	7	4	199546.9	3812.027	-2516.892	1	4567.964	-33.4348	1.69202E-007	0.014469	8
	8	4	158578.1	4172.617	-2625.619	1	4929.97	-32.18016	2.146044E-008	0.0144989	8
	9	4	125953.1	4546.372	-2724.348	1	5300.148	-30.93154	6.292228E-008	0.0144219	7
	10	5	100078.1	4912.295	-2847.673	1	5678.018	-30.101	-1.174303E-008	0.0144852	7
	11	5	79453.13	5279.484	-3008.546	1	6076.537	-29.67692	-1.475436E-008	0.0144744	7
	12	5	63140.62	5655.405	-3197.067	1	6496.526	-29.47999	-1.267091E-008	0.0144756	7
	13	6	50203.12	6047.829	-3424.789	1	6950.21	-29.52218	1.204402E-008	0.0144294	7
	14	6	39890.62	6462.574	-3691.95	1	7442.806	-29.73854	1.797654E-008	0.014444	7
	15	6	31640.63	6915.767	-4016.745	1	7997.629	-30.14844	6.651262E-009	0.014429	7
	16	7	25171.88	7401.845	-4388.631	1	8605.079	-30.66414	6.802692E-009	0.0144291	7
	17	7	20015.62	7936.057	-4813.327	1	9281.654	-31.23738	-1.146794E-008	0.0144637	7
	18	7	15890.62	8535.777	-5310.3	1	10052.8	-31.88668	1.295851E-008	0.0144262	7
	19	8	12609.37	9217.038	-5844.141	1	10913.65	-32.37709	-1.684593E-009	0.0144902	6
	20	8	10078.13	9928.5	-6448.756	1	11838.99	-33.00451	-7.98701E-010	0.014441	6
	21	8	8015.625	10734.28	-7136.286	1	12889.97	-33.61646	3.286978E-009	0.0144191	6
	22	8	6328.125	11642.73	-7913.914	1	14077.75	-34.20514	-1.96462E-009	0.01448	6
	23	9	5015.625	12623.91	-8772.216	1	15372.54	-34.79501	3.468403E-009	0.0144089	6
	24	9	3984.375	13674.24	-9717.84	1	16775.62	-35.40018	2.460938E-009	0.0144416	6
	25	9	3170.956	14784.5	-10777.62	1	18295.86	-36.09134	2.192489E-010	0.0144298	6
	26	10	2527.573	15958.54	-11965.35	1	19946.04	-36.86172	2.826295E-009	0.0144274	6
	27	10	1976.103	17281.89	-13467.71	1	21909.88	-37.92915	2.283724E-009	0.0144022	6
	28	10	1577.524	18551.55	-15090.39	1	23914.01	-39.12594	-2.61487E-009	0.0144726	6
	29	11	1265.625	19854.19	-16994.21	1	26134.12	-40.5619	-4.088013E-010	0.0144689	6
	30	11	998.264	21328.59	-19483.18	1	28887.77	-42.41098	-2.787183E-010	0.0144673	6
	31	11	796.875	22811.13	-22382.05	1	31957.85	-44.45604	-2.330139E-009	0.01446	6
	32	12	627.7902	24517.46	-26121.28	1	35824.95	-46.81406	6.293843E-010	0.014456	6
	33	12	505.5147	26249.07	-30301.79	1	40090.05	-49.09909	-9.890331E-010	0.0144685	6
	34	12	397.9953	28368.63	-35947.8	1	45793.27	-51.72084	5.026203E-010	0.0144638	6
	35	13	315.5048	30747.32	-42688.2	1	52608.75	-54.23568	5.373049E-010	0.0144619	6
	36	13	252.4038	33424.28	-50586.13	1	60631.18	-56.54567	4.674484E-010	0.0144615	6
	37	13	198.6229	36792.41	-60940.58	1	71185.92	-58.87884	5.485307E-010	0.0144601	6
	38	14	158.3615	40641.76	-72866.62	1	83434.38	-60.84916	5.391762E-010	0.0144527	6
	39	14	125.558	45440.63	-87692.84	1	98766.8	-62.60773	5.044856E-010	0.014459	6
	40	14	100.4464	51158.29	-104815.3	1	116633.6	-63.9839	1.361638E-010	0.014449	5
	41	15	79.00281	58766.11	-127115.8	1	140042.4	-65.18873	1.253648E-010	0.0144468	5
	42	15	63.3446	67280.52	-152046.4	1	166267.2	-66.13062	1.00644E-010	0.0144402	5
	43	15	49.86702	79026.63	-184285.1	1	200514.9	-66.78899	1.360674E-010	0.0144425	5
	44	16	39.72458	93090.66	-221010.3	1	239815.4	-67.15893	1.353644E-010	0.0144475	5
	45	16	31.6723	110735.3	-264706.9	1	286935.6	-67.29889	9.25283E-011	0.0144427	5
	46	16	24.93351	134249.8	-319828.8	1	346862.3	-67.22951	7.692495E-011	0.0144407	5
	47	17	19.86229	163335.1	-381356.5	1	414862.8	-66.81453	-1.059724E-010	0.0144424	5
	48	17	15.83615	200616.7	-453079.3	1	495507.8	-66.11696	2.940424E-010	0.0144431	5
	49	17	12.40079	251790	-543747.5	1	599215.8	-65.15283	2.768799E-010	0.0144397	5
	50	17	9.93114	312098.5	-636628.3	1	709014.1	-63.88421	3.855495E-010	0.0144386	5
	51	18	7.944915	384850	-744277.8	1	837889.6	-62.65749	3.498722E-010	0.014436	5
	52	18	6.317385	481033.4	-864119.9	1	988988	-60.89643	7.099907E-011	0.0144557	5
	53	19	5.008013	603116.1	-997433	1	1165599	-58.83998	5.602503E-011	0.0144445	4
	54	20	3.945707	751534.8	-1139981	1	1365416	-56.60505	2.002865E-010	0.0144484	4
	55	21	3.158693	918267.3	-1282331	1	1577209	-54.39384	3.079289E-011	0.0144496	4
	56	22	2.504006	1115304	-1428299	1	1812165	-52.01507	7.107024E-012	0.0144378	4
	57	23	1.998082	1329598	-1555055	1	2045978	-49.46901	1.071319E-010	0.014483	4
	58	25	1.584686	1563611	-1697118	1	2307616	-47.3446	5.415996E-011	0.0144587	4
	59	27	1.266892	1812933	-1819074	1	2568221	-45.09688	3.043388E-011	0.0144136	4
	60	29	0.999041	2107971	-1992322	1	2900498	-43.38441	5.808017E-012	0.0143911	4
