EXPLAIN
TAG	EISPOT
TITLE	LABEL	Potentiostatic EIS	Test &Identifier
DATE	LABEL	1/7/2021	Date
TIME	LABEL	15:33:26	Time
NOTES	NOTES	1	&Notes...
	
PSTAT	PSTAT	REF600-11020	Potentiostat
VDC	POTEN	0.00000E+000	T	DC &Voltage (V)
FREQINIT	QUANT	1.00000E+006	Initial Fre&q. (Hz)
FREQFINAL	QUANT	1.00000E+000	Final Fre&q. (Hz)
PTSPERDEC	QUANT	1.00000E+001	Points/&decade
VAC	QUANT	2.50000E+001	AC &Voltage (mV rms)
AREA	QUANT	4.00000E-005	&Area (cm^2)
CONDIT	TWOPARAM	F	5.00000E+000	0.00000E+000	Conditionin&g	Time(s)	E(V)
DELAY	TWOPARAM	F	3.00000E+000	0.00000E+000	Init. De&lay	Time(s)	Stab.(mV/s)
SPEED	SELECTOR	0	&Optimize for:
ZGUESS	QUANT	1.00000E+003	E&stimated Z (ohms)
OCVCURVE	TABLE	39
	Pt	T	Vf	Vm	Ach	Over
	#	s	V vs. Ref.	V	V	bits
	0	0.258333	6.95850E-002	6.95850E-002	5.35559E-004	...........
	1	0.516667	6.95842E-002	6.95442E-002	5.37892E-004	...........
	2	0.775	6.95793E-002	6.94980E-002	5.35526E-004	...........
	3	1.03333	6.95653E-002	6.94736E-002	5.34392E-004	...........
	4	1.29167	6.95410E-002	6.94549E-002	5.37992E-004	...........
	5	1.55	6.95116E-002	6.94480E-002	5.36559E-004	...........
	6	1.80833	6.94847E-002	6.94458E-002	5.32459E-004	...........
	7	2.06667	6.94648E-002	6.94388E-002	5.29759E-004	...........
	8	2.325	6.94524E-002	6.94488E-002	5.37959E-004	...........
	9	2.58333	6.94469E-002	6.94825E-002	5.33626E-004	...........
	10	2.84167	6.94494E-002	6.95204E-002	5.34626E-004	...........
	11	3.1	6.94620E-002	6.95477E-002	5.37392E-004	...........
	12	3.35833	6.94845E-002	6.95759E-002	5.33959E-004	...........
	13	3.61667	6.95131E-002	6.96063E-002	5.35226E-004	...........
	14	3.875	6.95438E-002	6.96468E-002	5.46892E-004	...........
	15	4.13333	6.95758E-002	6.97041E-002	5.37292E-004	...........
	16	4.39167	6.96114E-002	6.97626E-002	5.33692E-004	...........
	17	4.65	6.96516E-002	6.97132E-002	5.38292E-004	...........
	18	4.90833	6.96838E-002	6.94244E-002	5.38759E-004	...........
	19	5.16667	6.96768E-002	6.92896E-002	5.37326E-004	...........
	20	5.425	6.96059E-002	6.91961E-002	5.37359E-004	...........
	21	5.68333	6.94839E-002	6.91291E-002	5.34459E-004	...........
	22	5.94167	6.93500E-002	6.90703E-002	5.34926E-004	...........
	23	6.2	6.92344E-002	6.90022E-002	5.35826E-004	...........
	24	6.45833	6.91440E-002	6.89425E-002	5.35492E-004	...........
	25	6.71667	6.90718E-002	6.88996E-002	5.39492E-004	...........
	26	6.975	6.90098E-002	6.88585E-002	5.36226E-004	...........
	27	7.23333	6.89550E-002	6.88140E-002	5.39326E-004	...........
	28	7.49167	6.89057E-002	6.87613E-002	5.35959E-004	...........
	29	7.75	6.88595E-002	6.87207E-002	5.37892E-004	...........
	30	8.00833	6.88141E-002	6.86790E-002	5.44025E-004	...........
	31	8.26667	6.87691E-002	6.86353E-002	5.37859E-004	...........
	32	8.525	6.87250E-002	6.85946E-002	5.36959E-004	...........
	33	8.78333	6.86819E-002	6.85519E-002	5.37426E-004	...........
	34	9.04167	6.86394E-002	6.85085E-002	5.37092E-004	...........
	35	9.3	6.85973E-002	6.84775E-002	5.36859E-004	...........
	36	9.5583	6.85562E-002	6.84444E-002	5.30826E-004	...........
	37	9.8167	6.85173E-002	6.84120E-002	5.34292E-004	...........
	38	10.075	6.84810E-002	6.83763E-002	5.36292E-004	...........
EOC	QUANT	0.068481	Open Circuit (V)
PSTATMODEL	IQUANT	4	Pstat Model
PSTATSECTION	LABEL	REF600-11020	Pstat Section
PSTATSERIALNO	LABEL	11020	Pstat Serial Number
CTRLMODE	IQUANT	1	Control Mode
IESTAB	IQUANT	0	I/E Stability
CASPEED	IQUANT	1	Control Amp Speed
CONVENTION	IQUANT	1	Current Convention
ICHRANGE	IQUANT	2	Ich Range
ICHRANGEMODE	TOGGLE	F	Ich Auto Range
ICHOFFSETENABLE	TOGGLE	T	Ich Offset Enable
ICHOFFSET	QUANT	0	Ich Offset (V)
ICHFILTER	IQUANT	3	Ich Filter
VCHRANGE	IQUANT	2	Vch Range
VCHRANGEMODE	TOGGLE	F	Vch Auto Range
VCHOFFSETENABLE	TOGGLE	T	Vch Offset Enable
VCHOFFSET	QUANT	0	Vch Offset (V)
VCHFILTER	IQUANT	3	Vch Filter
ACHRANGE	IQUANT	2	Ach Range
ACHOFFSETENABLE	TOGGLE	F	Ach Offset Enable
ACHOFFSET	QUANT	0	Ach Offset (V)
ACHFILTER	IQUANT	3	Ach Filter
IERANGELOWERLIMIT	IQUANT	1	I/E Range Lower Limit
IERANGEMODE	TOGGLE	F	I/E AutoRange
IERANGE	IQUANT	8	I/E Range
POSFEEDENABLE	TOGGLE	F	Positive Feedback IR Comp
POSFEEDRESISTANCE	QUANT	0	Positive Feedback Resistance (ohm)
ACHSELECT	IQUANT	0	Ach Select
CABLEID	IQUANT	14	Cable ID
DCCALDATE	LABEL	9/1/2020	DC Calibration Date
ACCALDATE	LABEL	9/1/2020	AC Calibration Date
THERMOSELECT	IQUANT	1	Thermo Select
FRAMEWORKVERSION	QUANT	6.33	Framework Version
INSTRUMENTVERSION	LABEL	3.50	Instrument Version
ZCURVE	TABLE
	Pt	Time	Freq	Zreal	Zimag	Zsig	Zmod	Zphz	Idc	Vdc	IERange
	#	s	Hz	ohm	ohm	V	ohm	°	A	V	#
	0	1	1000078	974.711	-8604.377	1	8659.409	-83.53704	7.727452E-008	0.070683	8
	1	1	794390.6	1194.444	-10679.36	1	10745.95	-83.61822	7.143677E-008	0.0703213	8
	2	2	630984.4	1426.938	-13251.81	1	13328.42	-83.85414	6.062366E-008	0.0701365	8
	3	2	501234.4	1767.933	-16449.73	1	16544.46	-83.86568	5.173682E-008	0.0700458	8
	4	2	398109.4	2220.046	-20445.53	1	20565.7	-83.8029	8.401257E-008	0.0699912	8
	5	3	316265.6	2802.651	-25321.35	1	25475.98	-83.68402	9.671889E-008	0.0699351	8
	6	3	251203.1	3580.761	-31435.71	1	31638.99	-83.50159	7.672556E-008	0.0699752	8
	7	3	199546.9	4395.688	-39201.3	1	39446.98	-83.60208	4.142791E-008	0.0699446	8
	8	4	158578.1	5844.866	-48699.71	1	49049.21	-83.15618	9.422703E-008	0.0699216	8
	9	4	125953.1	7790.426	-60531.85	1	61031.11	-82.66637	-1.223779E-008	0.0699552	7
	10	4	100078.1	10565.93	-74945.62	1	75686.75	-81.97526	1.079515E-008	0.0699114	7
	11	5	79453.13	14089.71	-93219.98	1	94278.77	-81.4051	-6.931949E-009	0.0699097	7
	12	5	63140.62	19279.26	-115084.9	1	116688.5	-80.49	1.001211E-008	0.0698957	7
	13	5	50203.12	26481.21	-142357.9	1	144799.9	-79.46236	-8.231376E-009	0.0699082	7
	14	6	39890.62	37572.72	-174782.5	1	178775.3	-77.86784	2.31395E-009	0.06991	7
	15	6	31640.63	52811.21	-214530.3	1	220935	-76.17041	1.126933E-008	0.0698967	7
	16	6	25171.88	72786.55	-262149.8	1	272066.9	-74.48256	2.629135E-009	0.069888	7
	17	7	20015.62	103238	-317717.2	1	334069.3	-71.99911	-7.741966E-009	0.0698949	7
	18	7	15890.62	146641.6	-379128.4	1	406499.8	-68.85422	-5.028518E-009	0.0699029	7
	19	7	12609.37	204994.6	-446467.6	1	491280.1	-65.33788	2.71906E-009	0.0698773	6
	20	7	10078.13	280217.4	-513321	1	584825	-61.37026	-1.109662E-009	0.0699291	6
	21	8	8015.625	376569.5	-576739.3	1	688790.8	-56.85833	8.281003E-010	0.0699117	6
	22	8	6328.125	495889.8	-634831.4	1	805554.3	-52.00531	-1.194792E-009	0.0699077	6
	23	8	5015.625	629574	-669092.9	1	918721.3	-46.74299	2.290335E-009	0.0698678	6
	24	9	3984.375	770221.1	-682765.8	1	1029276	-41.55552	1.308305E-009	0.0698755	6
	25	9	3170.956	908645.3	-669063.8	1	1128398	-36.36537	-5.308503E-010	0.0699145	6
	26	9	2527.573	1036871	-640573.4	1	1218785	-31.70755	-1.822652E-009	0.0699169	6
	27	10	1976.103	1155863	-591760.4	1	1298538	-27.11082	1.249856E-009	0.0698672	6
	28	10	1577.524	1248496	-533886.9	1	1357857	-23.15272	2.59296E-009	0.0698616	6
	29	10	1265.625	1328262	-473896.2	1	1410269	-19.63534	5.649948E-011	0.0698965	5
	30	11	998.264	1393133	-421167.7	1	1455404	-16.82096	3.4092E-010	0.069892	5
	31	11	796.875	1442496	-375386.1	1	1490540	-14.58676	4.872984E-010	0.069858	5
	32	11	627.7902	1484056	-333072.2	1	1520973	-12.6495	4.563392E-010	0.0698701	5
	33	12	505.5147	1502953	-297587.1	1	1532131	-11.1998	4.808826E-010	0.0698606	5
	34	12	397.9953	1529366	-268204	1	1552705	-9.94678	2.697564E-010	0.0699042	5
	35	12	315.5048	1558366	-245651.3	1	1577608	-8.958047	2.502997E-010	0.0699049	5
	36	13	252.4038	1585764	-228316.1	1	1602116	-8.19306	2.345124E-010	0.0698996	5
	37	13	198.6229	1613367	-213145.6	1	1627385	-7.525896	2.328717E-010	0.0699045	5
	38	13	158.3615	1638904	-201879.6	1	1651291	-7.0223	2.530939E-010	0.0699018	5
	39	14	125.558	1666292	-191344.5	1	1677242	-6.550725	2.49565E-010	0.0699053	4
	40	14	100.4464	1690007	-184474.5	1	1700046	-6.229517	2.371167E-010	0.0699051	4
	41	14	79.00281	1713884	-178021.5	1	1723105	-5.93006	2.166028E-010	0.0698987	4
	42	15	63.3446	1734944	-174273.5	1	1743675	-5.736066	1.969338E-010	0.0698964	4
	43	15	49.86702	1757931	-172097.9	1	1766335	-5.591324	2.528633E-010	0.0698951	4
	44	15	39.72458	1779822	-171197.8	1	1788037	-5.494273	2.696139E-010	0.0699029	4
	45	16	31.6723	1802813	-172792.4	1	1811075	-5.474844	2.170913E-010	0.0698993	4
	46	16	24.93351	1832357	-176196.2	1	1840809	-5.492571	3.141883E-010	0.0698973	4
	47	16	19.86229	1867387	-185976.1	1	1876625	-5.687426	3.566133E-010	0.0699055	4
	48	17	15.83615	1897010	-193698.2	1	1906874	-5.8301	2.548438E-010	0.0699017	4
	49	17	12.40079	1930082	-203375.8	1	1940767	-6.01515	4.549218E-010	0.0698991	4
	50	17	9.93114	1966607	-221088	1	1978995	-6.414321	4.679652E-010	0.0699039	4
	51	18	7.944915	2002618	-235835.7	1	2016457	-6.716428	1.407504E-010	0.0699011	4
	52	18	6.317385	2050443	-257941	1	2066603	-7.170016	3.090535E-010	0.0698901	4
	53	19	5.008013	2109706	-284570.5	1	2128812	-7.682051	4.177285E-010	0.0699035	4
	54	20	3.945707	2170098	-310889.7	1	2192254	-8.152759	3.2787E-010	0.0698897	4
	55	21	3.158693	2215214	-338786.6	1	2240971	-8.695229	4.152567E-010	0.0699102	4
	56	22	2.504006	2287274	-369329.3	1	2316901	-9.172457	3.062797E-010	0.0698995	4
	57	23	1.998082	2371047	-407341.8	1	2405783	-9.74816	2.498708E-010	0.0698724	4
	58	24	1.584686	2468364	-444484.8	1	2508065	-10.208	3.24905E-010	0.0699252	4
	59	26	1.266892	2587157	-485227.5	1	2632267	-10.62256	3.480969E-010	0.0699258	4
	60	29	0.999041	2713528	-532294.8	1	2765243	-11.09841	3.969222E-010	0.0699127	4
