EXPLAIN
TAG	EISPOT
TITLE	LABEL	Potentiostatic EIS	Test &Identifier
DATE	LABEL	6/10/2021	Date
TIME	LABEL	15:31:19	Time
NOTES	NOTES	1	&Notes...
	
PSTAT	PSTAT	REF600-11020	Potentiostat
VDC	POTEN	0.00000E+000	T	DC &Voltage (V)
FREQINIT	QUANT	1.00000E+006	Initial Fre&q. (Hz)
FREQFINAL	QUANT	1.00000E+000	Final Fre&q. (Hz)
PTSPERDEC	QUANT	1.00000E+001	Points/&decade
VAC	QUANT	2.50000E+001	AC &Voltage (mV rms)
AREA	QUANT	4.00000E-005	&Area (cm^2)
CONDIT	TWOPARAM	F	5.00000E+000	0.00000E+000	Conditionin&g	Time(s)	E(V)
DELAY	TWOPARAM	F	3.00000E+000	0.00000E+000	Init. De&lay	Time(s)	Stab.(mV/s)
SPEED	SELECTOR	0	&Optimize for:
ZGUESS	QUANT	1.00000E+003	E&stimated Z (ohms)
OCVCURVE	TABLE	39
	Pt	T	Vf	Vm	Ach	Over
	#	s	V vs. Ref.	V	V	bits
	0	0.258333	-5.18925E-002	-5.18925E-002	5.35059E-004	...........
	1	0.516667	-5.18925E-002	-5.18919E-002	5.27992E-004	...........
	2	0.775	-5.18927E-002	-5.19063E-002	5.27626E-004	...........
	3	1.03333	-5.18944E-002	-5.19268E-002	5.30359E-004	...........
	4	1.29167	-5.18994E-002	-5.19254E-002	5.31226E-004	...........
	5	1.55	-5.19077E-002	-5.19275E-002	5.29859E-004	...........
	6	1.80833	-5.19165E-002	-5.19316E-002	5.30526E-004	...........
	7	2.06667	-5.19239E-002	-5.19607E-002	5.26526E-004	...........
	8	2.325	-5.19307E-002	-5.19434E-002	5.20859E-004	...........
	9	2.58333	-5.19380E-002	-5.19490E-002	5.26259E-004	...........
	10	2.84167	-5.19438E-002	-5.19387E-002	5.26226E-004	...........
	11	3.1	-5.19461E-002	-5.19397E-002	5.28359E-004	...........
	12	3.35833	-5.19457E-002	-5.19622E-002	5.22459E-004	...........
	13	3.61667	-5.19458E-002	-5.19718E-002	5.22959E-004	...........
	14	3.875	-5.19500E-002	-5.19807E-002	5.25792E-004	...........
	15	4.13333	-5.19583E-002	-5.19850E-002	5.25292E-004	...........
	16	4.39167	-5.19682E-002	-5.19945E-002	5.24992E-004	...........
	17	4.65	-5.19774E-002	-5.19967E-002	5.28459E-004	...........
	18	4.90833	-5.19853E-002	-5.20046E-002	5.28159E-004	...........
	19	5.16667	-5.19919E-002	-5.20085E-002	5.24659E-004	...........
	20	5.425	-5.19977E-002	-5.20121E-002	5.26292E-004	...........
	21	5.68333	-5.20031E-002	-5.20252E-002	5.22492E-004	...........
	22	5.94167	-5.20087E-002	-5.20295E-002	5.26426E-004	...........
	23	6.2	-5.20150E-002	-5.20319E-002	5.26259E-004	...........
	24	6.45833	-5.20214E-002	-5.20365E-002	5.23826E-004	...........
	25	6.71667	-5.20272E-002	-5.20411E-002	5.21792E-004	...........
	26	6.975	-5.20321E-002	-5.20463E-002	5.26159E-004	...........
	27	7.23333	-5.20366E-002	-5.20510E-002	5.23559E-004	...........
	28	7.49167	-5.20412E-002	-5.20562E-002	5.23559E-004	...........
	29	7.75	-5.20459E-002	-5.20626E-002	5.27892E-004	...........
	30	8.00833	-5.20509E-002	-5.20685E-002	5.29259E-004	...........
	31	8.26667	-5.20563E-002	-5.20724E-002	5.23092E-004	...........
	32	8.525	-5.20619E-002	-5.20788E-002	5.25692E-004	...........
	33	8.78333	-5.20673E-002	-5.20821E-002	5.26426E-004	...........
	34	9.04167	-5.20725E-002	-5.20874E-002	5.24059E-004	...........
	35	9.3	-5.20775E-002	-5.20943E-002	5.28026E-004	...........
	36	9.5583	-5.20825E-002	-5.20960E-002	5.31392E-004	...........
	37	9.8167	-5.20874E-002	-5.21003E-002	5.33059E-004	...........
	38	10.075	-5.20920E-002	-5.21035E-002	5.35859E-004	...........
EOC	QUANT	-0.052092	Open Circuit (V)
PSTATMODEL	IQUANT	4	Pstat Model
PSTATSECTION	LABEL	REF600-11020	Pstat Section
PSTATSERIALNO	LABEL	11020	Pstat Serial Number
CTRLMODE	IQUANT	1	Control Mode
IESTAB	IQUANT	0	I/E Stability
CASPEED	IQUANT	1	Control Amp Speed
CONVENTION	IQUANT	1	Current Convention
ICHRANGE	IQUANT	2	Ich Range
ICHRANGEMODE	TOGGLE	F	Ich Auto Range
ICHOFFSETENABLE	TOGGLE	T	Ich Offset Enable
ICHOFFSET	QUANT	0	Ich Offset (V)
ICHFILTER	IQUANT	3	Ich Filter
VCHRANGE	IQUANT	2	Vch Range
VCHRANGEMODE	TOGGLE	F	Vch Auto Range
VCHOFFSETENABLE	TOGGLE	T	Vch Offset Enable
VCHOFFSET	QUANT	0	Vch Offset (V)
VCHFILTER	IQUANT	3	Vch Filter
ACHRANGE	IQUANT	2	Ach Range
ACHOFFSETENABLE	TOGGLE	F	Ach Offset Enable
ACHOFFSET	QUANT	0	Ach Offset (V)
ACHFILTER	IQUANT	3	Ach Filter
IERANGELOWERLIMIT	IQUANT	1	I/E Range Lower Limit
IERANGEMODE	TOGGLE	F	I/E AutoRange
IERANGE	IQUANT	7	I/E Range
POSFEEDENABLE	TOGGLE	F	Positive Feedback IR Comp
POSFEEDRESISTANCE	QUANT	0	Positive Feedback Resistance (ohm)
ACHSELECT	IQUANT	0	Ach Select
CABLEID	IQUANT	14	Cable ID
DCCALDATE	LABEL	9/1/2020	DC Calibration Date
ACCALDATE	LABEL	9/1/2020	AC Calibration Date
THERMOSELECT	IQUANT	1	Thermo Select
FRAMEWORKVERSION	QUANT	6.33	Framework Version
INSTRUMENTVERSION	LABEL	3.50	Instrument Version
ZCURVE	TABLE
	Pt	Time	Freq	Zreal	Zimag	Zsig	Zmod	Zphz	Idc	Vdc	IERange
	#	s	Hz	ohm	ohm	V	ohm	°	A	V	#
	0	1	1000078	1976.865	-2219.191	1	2972.003	-48.30521	2.457471E-008	-0.0499745	8
	1	1	794390.6	2392.315	-2336.375	1	3343.922	-44.32222	2.908625E-008	-0.0502447	8
	2	1	630984.4	2815.216	-2403.922	1	3701.93	-40.49411	5.149643E-008	-0.0503847	8
	3	2	501234.4	3222.612	-2425.611	1	4033.462	-36.96821	1.929977E-008	-0.0504586	8
	4	2	398109.4	3596.906	-2424.823	1	4337.915	-33.98554	-2.691587E-009	-0.0505274	8
	5	2	316265.6	3934.189	-2414.211	1	4615.87	-31.53532	-3.172349E-009	-0.0505583	8
	6	3	251203.1	4237.274	-2419.648	1	4879.466	-29.72804	-5.26507E-009	-0.0505484	8
	7	3	199546.9	4511.558	-2461.609	1	5139.424	-28.61789	1.256246E-007	-0.0505643	8
	8	3	158578.1	4759.36	-2544.284	1	5396.749	-28.12831	3.196273E-008	-0.050545	8
	9	4	125953.1	5029.972	-2658.258	1	5689.197	-27.85572	-1.915802E-009	-0.0505676	7
	10	4	100078.1	5265.693	-2865.397	1	5994.833	-28.55341	-1.171247E-009	-0.0505873	7
	11	4	79453.13	5507.023	-3164.958	1	6351.713	-29.88654	-9.653959E-010	-0.0505834	7
	12	5	63140.62	5769.408	-3547.985	1	6773.055	-31.59007	4.360405E-010	-0.0505941	7
	13	5	50203.12	6059.137	-4034.75	1	7279.584	-33.65946	1.060967E-009	-0.0505903	7
	14	5	39890.62	6388.195	-4633.614	1	7891.731	-35.95488	-7.217885E-011	-0.0505933	7
	15	5	31640.63	6774.112	-5375.556	1	8647.844	-38.43354	1.234714E-009	-0.0505883	7
	16	6	25171.88	7219.564	-6256.033	1	9553.01	-40.9102	-3.656451E-010	-0.0505973	7
	17	6	20015.62	7741.412	-7309.065	1	10646.68	-43.35455	2.941177E-011	-0.0505922	7
	18	6	15890.62	8361.393	-8576.415	1	11977.8	-45.72732	6.591855E-010	-0.0505993	7
	19	7	12609.37	9150.113	-10037.6	1	13582.27	-47.64821	6.094533E-010	-0.0505976	6
	20	7	10078.13	9990.32	-11765.72	1	15434.98	-49.66529	2.817583E-010	-0.0506017	6
	21	7	8015.625	10992.63	-13839.09	1	17673.67	-51.53926	3.719199E-010	-0.0505979	6
	22	8	6328.125	12231.31	-16371.65	1	20436.14	-53.23648	3.020734E-010	-0.0506096	6
	23	8	5015.625	13669.39	-19317.35	1	23664.58	-54.71591	1.781289E-011	-0.0506086	6
	24	8	3984.375	15348.49	-22757.75	1	27449.8	-56.00312	4.097338E-010	-0.0506026	6
	25	9	3170.956	17339.68	-26754.3	1	31881.93	-57.05241	4.6115E-010	-0.0506051	6
	26	9	2527.573	19689.15	-31445.76	1	37101.19	-57.94806	3.234786E-010	-0.0506078	6
	27	9	1976.103	22689.32	-37426.19	1	43766.71	-58.774	2.820677E-010	-0.0506022	6
	28	10	1577.524	25986.54	-43895.96	1	51011.33	-59.37434	2.836303E-010	-0.0506074	6
	29	10	1265.625	29782.04	-51192.92	1	59225.71	-59.81083	1.700203E-010	-0.0506113	6
	30	10	998.264	34565.55	-60510.06	1	69686.76	-60.26342	5.419662E-010	-0.0506049	6
	31	11	796.875	39989.46	-70867.08	1	81371.37	-60.56447	2.836665E-010	-0.0506072	6
	32	11	627.7902	46853.54	-83541.62	1	95783.4	-60.71452	1.657393E-010	-0.0506118	6
	33	11	505.5147	54477.41	-96870.9	1	111138.4	-60.64784	-3.521234E-011	-0.0506117	5
	34	12	397.9953	63945.62	-114365.9	1	131029	-60.78906	-3.377564E-011	-0.0505915	5
	35	12	315.5048	74818.88	-134224.8	1	153669	-60.86406	-2.859483E-011	-0.0505943	5
	36	12	252.4038	87123.76	-156457.9	1	179079.9	-60.8887	-4.643921E-011	-0.0505972	5
	37	12	198.6229	102742.2	-184311.1	1	211013.2	-60.86301	-4.614655E-011	-0.0505944	5
	38	13	158.3615	120208.1	-215055.3	1	246371.2	-60.7964	-5.102588E-011	-0.0505975	5
	39	13	125.558	141327.8	-251720.2	1	288680.8	-60.68806	-3.184674E-011	-0.0505969	5
	40	13	100.4464	165268.7	-292672.1	1	336111.1	-60.54707	-4.752177E-011	-0.0505978	5
	41	14	79.00281	195751.9	-343837.8	1	395655.5	-60.3465	-4.123067E-011	-0.0506013	5
	42	14	63.3446	229260	-398456.2	1	459703.7	-60.08514	-4.542352E-011	-0.0505987	5
	43	15	49.86702	271843.6	-466982.8	1	540344.3	-59.79513	-8.63629E-011	-0.0506005	5
	44	15	39.72458	319809.6	-542203.1	1	629493.7	-59.46647	-7.415527E-011	-0.0506006	5
	45	15	31.6723	376784	-628398.1	1	732700.7	-59.05333	-9.078027E-011	-0.0506031	5
	46	16	24.93351	448108.5	-732636.9	1	858812.1	-58.54846	3.349738E-012	-0.0506052	5
	47	16	19.86229	529422.6	-846292	1	998248	-57.97076	2.825848E-011	-0.0505986	5
	48	16	15.83615	625675.4	-975365	1	1158796	-57.32072	3.755387E-011	-0.0506019	4
	49	16	12.40079	749749.3	-1133240	1	1358808	-56.51147	1.823333E-010	-0.0506035	4
	50	17	9.93114	879885.9	-1289957	1	1561470	-55.7019	1.772784E-010	-0.0505995	4
	51	17	7.944915	1032824	-1469126	1	1795844	-54.89203	5.982715E-012	-0.0506059	4
	52	17	6.317385	1215613	-1671432	1	2066737	-53.97206	-1.138076E-011	-0.0506001	4
	53	18	5.008013	1429335	-1893481	1	2372398	-52.95189	4.264023E-011	-0.0505994	4
	54	19	3.945707	1683095	-2145436	1	2726848	-51.88581	3.714546E-011	-0.0506072	4
	55	20	3.158693	1944590	-2397715	1	3087145	-50.95732	1.856992E-011	-0.0505846	4
	56	21	2.504006	2255466	-2685207	1	3506774	-49.9711	-3.251572E-011	-0.0505952	4
	57	22	1.998082	2573064	-2984837	1	3940801	-49.23718	-1.047358E-011	-0.0505881	4
	58	24	1.584686	2945864	-3329133	1	4445362	-48.49521	1.338411E-011	-0.050559	4
	59	26	1.266892	3320646	-3709414	1	4978598	-48.16527	1.193E-011	-0.0505711	4
	60	28	0.999041	3745188	-4159994	1	5597498	-48.00371	8.502195E-012	-0.0505979	4
