EXPLAIN
TAG	EISPOT
TITLE	LABEL	Potentiostatic EIS	Test &Identifier
DATE	LABEL	1/7/2021	Date
TIME	LABEL	16:34:55	Time
NOTES	NOTES	1	&Notes...
	
PSTAT	PSTAT	REF600-11020	Potentiostat
VDC	POTEN	0.00000E+000	T	DC &Voltage (V)
FREQINIT	QUANT	1.00000E+006	Initial Fre&q. (Hz)
FREQFINAL	QUANT	1.00000E+000	Final Fre&q. (Hz)
PTSPERDEC	QUANT	1.00000E+001	Points/&decade
VAC	QUANT	2.50000E+001	AC &Voltage (mV rms)
AREA	QUANT	4.00000E-005	&Area (cm^2)
CONDIT	TWOPARAM	F	5.00000E+000	0.00000E+000	Conditionin&g	Time(s)	E(V)
DELAY	TWOPARAM	F	3.00000E+000	0.00000E+000	Init. De&lay	Time(s)	Stab.(mV/s)
SPEED	SELECTOR	0	&Optimize for:
ZGUESS	QUANT	1.00000E+003	E&stimated Z (ohms)
OCVCURVE	TABLE	39
	Pt	T	Vf	Vm	Ach	Over
	#	s	V vs. Ref.	V	V	bits
	0	0.258333	8.83605E-002	8.83605E-002	5.55025E-004	...........
	1	0.516667	8.83607E-002	8.83708E-002	5.53592E-004	...........
	2	0.775	8.83617E-002	8.83739E-002	5.50459E-004	...........
	3	1.03333	8.83644E-002	8.83764E-002	5.46192E-004	...........
	4	1.29167	8.83682E-002	8.83747E-002	5.53225E-004	...........
	5	1.55	8.83718E-002	8.83789E-002	5.51825E-004	...........
	6	1.80833	8.83745E-002	8.83816E-002	5.51592E-004	...........
	7	2.06667	8.83767E-002	8.83849E-002	5.48059E-004	...........
	8	2.325	8.83790E-002	8.83861E-002	5.48392E-004	...........
	9	2.58333	8.83814E-002	8.83858E-002	5.45125E-004	...........
	10	2.84167	8.83836E-002	8.83886E-002	5.44825E-004	...........
	11	3.1	8.83855E-002	8.83972E-002	5.51759E-004	...........
	12	3.35833	8.83877E-002	8.83991E-002	5.43825E-004	...........
	13	3.61667	8.83907E-002	8.83954E-002	5.44592E-004	...........
	14	3.875	8.83938E-002	8.83964E-002	5.50025E-004	...........
	15	4.13333	8.83958E-002	8.83982E-002	5.51259E-004	...........
	16	4.39167	8.83968E-002	8.83974E-002	5.49325E-004	...........
	17	4.65	8.83971E-002	8.83963E-002	5.59592E-004	...........
	18	4.90833	8.83973E-002	8.83993E-002	5.52725E-004	...........
	19	5.16667	8.83975E-002	8.84016E-002	5.53725E-004	...........
	20	5.425	8.83981E-002	8.84007E-002	5.39526E-004	...........
	21	5.68333	8.83991E-002	8.84032E-002	5.51525E-004	...........
	22	5.94167	8.84003E-002	8.84015E-002	5.49025E-004	...........
	23	6.2	8.84012E-002	8.83996E-002	5.41826E-004	...........
	24	6.45833	8.84015E-002	8.84014E-002	5.38359E-004	...........
	25	6.71667	8.84014E-002	8.84024E-002	5.42125E-004	...........
	26	6.975	8.84013E-002	8.84032E-002	5.45192E-004	...........
	27	7.23333	8.84015E-002	8.84021E-002	5.44659E-004	...........
	28	7.49167	8.84020E-002	8.84002E-002	5.41192E-004	...........
	29	7.75	8.84021E-002	8.84029E-002	5.44759E-004	...........
	30	8.00833	8.84020E-002	8.84006E-002	5.42925E-004	...........
	31	8.26667	8.84017E-002	8.83997E-002	5.49625E-004	...........
	32	8.525	8.84013E-002	8.83994E-002	5.40492E-004	...........
	33	8.78333	8.84008E-002	8.83994E-002	5.50959E-004	...........
	34	9.04167	8.84002E-002	8.83979E-002	5.52159E-004	...........
	35	9.3	8.83995E-002	8.83958E-002	5.41092E-004	...........
	36	9.5583	8.83988E-002	8.83971E-002	5.46625E-004	...........
	37	9.8167	8.83979E-002	8.83952E-002	5.49659E-004	...........
	38	10.075	8.83970E-002	8.83917E-002	5.49692E-004	...........
EOC	QUANT	0.088397	Open Circuit (V)
PSTATMODEL	IQUANT	4	Pstat Model
PSTATSECTION	LABEL	REF600-11020	Pstat Section
PSTATSERIALNO	LABEL	11020	Pstat Serial Number
CTRLMODE	IQUANT	1	Control Mode
IESTAB	IQUANT	0	I/E Stability
CASPEED	IQUANT	1	Control Amp Speed
CONVENTION	IQUANT	1	Current Convention
ICHRANGE	IQUANT	2	Ich Range
ICHRANGEMODE	TOGGLE	F	Ich Auto Range
ICHOFFSETENABLE	TOGGLE	T	Ich Offset Enable
ICHOFFSET	QUANT	0	Ich Offset (V)
ICHFILTER	IQUANT	3	Ich Filter
VCHRANGE	IQUANT	2	Vch Range
VCHRANGEMODE	TOGGLE	F	Vch Auto Range
VCHOFFSETENABLE	TOGGLE	T	Vch Offset Enable
VCHOFFSET	QUANT	0	Vch Offset (V)
VCHFILTER	IQUANT	3	Vch Filter
ACHRANGE	IQUANT	2	Ach Range
ACHOFFSETENABLE	TOGGLE	F	Ach Offset Enable
ACHOFFSET	QUANT	0	Ach Offset (V)
ACHFILTER	IQUANT	3	Ach Filter
IERANGELOWERLIMIT	IQUANT	1	I/E Range Lower Limit
IERANGEMODE	TOGGLE	F	I/E AutoRange
IERANGE	IQUANT	8	I/E Range
POSFEEDENABLE	TOGGLE	F	Positive Feedback IR Comp
POSFEEDRESISTANCE	QUANT	0	Positive Feedback Resistance (ohm)
ACHSELECT	IQUANT	0	Ach Select
CABLEID	IQUANT	14	Cable ID
DCCALDATE	LABEL	9/1/2020	DC Calibration Date
ACCALDATE	LABEL	9/1/2020	AC Calibration Date
THERMOSELECT	IQUANT	1	Thermo Select
FRAMEWORKVERSION	QUANT	6.33	Framework Version
INSTRUMENTVERSION	LABEL	3.50	Instrument Version
ZCURVE	TABLE
	Pt	Time	Freq	Zreal	Zimag	Zsig	Zmod	Zphz	Idc	Vdc	IERange
	#	s	Hz	ohm	ohm	V	ohm	°	A	V	#
	0	1	1000078	1497.162	-2574.51	1	2978.187	-59.8206	-9.868311E-009	0.0906174	8
	1	2	794390.6	1870.767	-2957.264	1	3499.311	-57.68253	5.829803E-008	0.0902732	8
	2	2	630984.4	2325.528	-3345.85	1	4074.653	-55.19883	1.441902E-007	0.0901351	8
	3	2	501234.4	2850.183	-3735.286	1	4698.5	-52.65482	6.097887E-008	0.0900666	8
	4	3	398109.4	3437.937	-4116.496	1	5363.297	-50.13268	7.133518E-008	0.0899855	8
	5	3	316265.6	4097.1	-4468.035	1	6062.142	-47.47979	6.464131E-008	0.0899678	8
	6	3	251203.1	4789.763	-4819.479	1	6794.793	-45.17718	7.969154E-008	0.08995	8
	7	4	199546.9	5552.901	-5146.293	1	7570.934	-42.8236	1.128608E-007	0.0899764	8
	8	4	158578.1	6328.166	-5503.094	1	8386.282	-41.01085	6.884794E-008	0.0899405	8
	9	4	125953.1	7193.741	-5818.029	1	9251.993	-38.96464	1.899365E-008	0.0899406	7
	10	5	100078.1	8092.981	-6138.184	1	10157.44	-37.17878	1.091653E-008	0.0899105	7
	11	5	79453.13	9036.364	-6453.379	1	11104.14	-35.53278	8.88327E-009	0.0899078	7
	12	5	63140.62	10032.56	-6756.878	1	12095.77	-33.96006	-7.419416E-009	0.0899108	7
	13	5	50203.12	11047.58	-7032.047	1	13095.75	-32.47772	8.810291E-009	0.0899047	7
	14	6	39890.62	12111.05	-7344.026	1	14163.76	-31.23223	6.337461E-009	0.0898942	7
	15	6	31640.63	13217.25	-7644.419	1	15268.68	-30.04367	6.990339E-010	0.0899078	7
	16	6	25171.88	14359.67	-7930.317	1	16403.97	-28.91025	1.023518E-008	0.0898888	7
	17	7	20015.62	15551.86	-8211.133	1	17586.45	-27.83334	1.178585E-008	0.0898916	7
	18	7	15890.62	16837.78	-8518.837	1	18870.12	-26.83648	-5.225212E-009	0.0899074	7
	19	7	12609.37	18174.36	-8733.589	1	20163.9	-25.66636	-2.384709E-010	0.089897	6
	20	8	10078.13	19564.13	-9001.6	1	21535.65	-24.7075	-4.349041E-010	0.0899158	6
	21	8	8015.625	21006.35	-9166.227	1	22919.13	-23.57429	-1.326107E-009	0.0899168	6
	22	8	6328.125	22475.71	-9217.462	1	24292.37	-22.29891	-3.000372E-010	0.0898949	6
	23	9	5015.625	24010.54	-9310.767	1	25752.6	-21.19521	-1.061384E-009	0.0899126	6
	24	9	3984.375	25424.44	-9268.136	1	27061.05	-20.02864	-2.767547E-010	0.089891	6
	25	9	3170.956	26680.3	-9116.979	1	28194.99	-18.86592	-1.356424E-009	0.0899088	6
	26	10	2527.573	27980.48	-9051.266	1	29408.04	-17.92562	1.875238E-009	0.0898829	6
	27	10	1976.103	29349.68	-9025.396	1	30706.05	-17.09332	1.654118E-009	0.0898812	6
	28	10	1577.524	30472.17	-9008.68	1	31775.93	-16.46959	-4.344293E-010	0.0899052	6
	29	11	1265.625	31485.86	-9075.604	1	32767.75	-16.0793	3.134752E-010	0.0899019	6
	30	11	998.264	32546.51	-9295.414	1	33847.89	-15.93956	1.769808E-009	0.0898846	6
	31	11	796.875	33501.61	-9656.71	1	34865.59	-16.07942	-1.162493E-009	0.0899139	6
	32	12	627.7902	34516.1	-10254.56	1	36007.18	-16.54642	-1.390837E-009	0.0898977	6
	33	12	505.5147	35383.07	-11026.01	1	37061.22	-17.30799	4.65683E-010	0.0898736	6
	34	12	397.9953	36231.4	-12137.73	1	38210.45	-18.52116	5.38913E-010	0.0899107	6
	35	13	315.5048	37034.31	-13567.61	1	39441.35	-20.12043	4.72154E-010	0.0899094	6
	36	13	252.4038	38214.38	-15392.55	1	41197.93	-21.93931	2.990804E-010	0.0899095	6
	37	13	198.6229	39203.37	-17791.54	1	43051.64	-24.40983	4.428501E-010	0.089908	6
	38	14	158.3615	40425.66	-20652.04	1	45395.38	-27.06089	3.075109E-010	0.0899052	6
	39	14	125.558	41993.97	-24268.78	1	48502.24	-30.02409	3.51384E-010	0.0899071	6
	40	14	100.4464	43832.01	-28503	1	52284.47	-33.03507	4.555082E-010	0.089904	6
	41	15	79.00281	46111.91	-34021.33	1	57304.09	-36.41988	4.776053E-010	0.0899039	6
	42	15	63.3446	48493.8	-40166.07	1	62967.95	-39.63401	5.719929E-010	0.0899027	6
	43	15	49.86702	51740	-48177.18	1	70697.02	-42.95783	3.177394E-010	0.0898995	6
	44	16	39.72458	55597.9	-57279.89	1	79825.52	-45.8537	4.77293E-010	0.0899048	6
	45	16	31.6723	60242.55	-68147.75	1	90957.58	-48.52335	6.053887E-010	0.0899002	6
	46	16	24.93351	66218.18	-81749.27	1	105203.6	-50.99199	-4.563829E-010	0.0898905	5
	47	17	19.86229	73264.92	-97248.3	1	121757.9	-53.00636	4.68967E-010	0.0898952	5
	48	17	15.83615	82286.68	-115174.6	1	141549.6	-54.45602	-1.223124E-009	0.0898839	5
	49	17	12.40079	94738.18	-137776.6	1	167205.6	-55.48675	-9.986363E-010	0.0898946	5
	50	17	9.93114	109064.3	-161164.3	1	194599.5	-55.91272	-1.244257E-009	0.0898908	5
	51	18	7.944915	125935.1	-188174.4	1	226427.1	-56.20771	-8.642043E-010	0.0898956	5
	52	18	6.317385	147544.1	-218893.5	1	263976.6	-56.01825	3.208847E-010	0.0898831	5
	53	19	5.008013	174107.1	-253527.2	1	307553.7	-55.52108	1.143827E-010	0.0898887	5
	54	20	3.945707	205183.6	-292715	1	357466.6	-54.97081	-3.454983E-010	0.0898892	5
	55	21	3.158693	239362.7	-332066.2	1	409344	-54.21488	1.139013E-010	0.0898757	5
	56	22	2.504006	278824.9	-377750.9	1	469509.4	-53.56828	2.604649E-010	0.0898821	5
	57	23	1.998082	320949.4	-425723.8	1	533150.3	-52.98768	-5.856297E-011	0.0898438	5
	58	25	1.584686	367330.4	-483624.2	1	607308.8	-52.78199	-6.055478E-011	0.0898474	5
	59	27	1.266892	414754	-545508.5	1	685273.9	-52.75402	2.417323E-011	0.0898834	5
	60	29	0.999041	470518.9	-622585.6	1	780385	-52.91985	7.080035E-011	0.0899072	5
