EXPLAIN
TAG	EISPOT
TITLE	LABEL	Potentiostatic EIS	Test &Identifier
DATE	LABEL	6/10/2021	Date
TIME	LABEL	16:02:27	Time
NOTES	NOTES	1	&Notes...
	
PSTAT	PSTAT	REF600-11020	Potentiostat
VDC	POTEN	0.00000E+000	T	DC &Voltage (V)
FREQINIT	QUANT	1.00000E+006	Initial Fre&q. (Hz)
FREQFINAL	QUANT	1.00000E+000	Final Fre&q. (Hz)
PTSPERDEC	QUANT	1.00000E+001	Points/&decade
VAC	QUANT	2.50000E+001	AC &Voltage (mV rms)
AREA	QUANT	4.00000E-005	&Area (cm^2)
CONDIT	TWOPARAM	F	5.00000E+000	0.00000E+000	Conditionin&g	Time(s)	E(V)
DELAY	TWOPARAM	F	3.00000E+000	0.00000E+000	Init. De&lay	Time(s)	Stab.(mV/s)
SPEED	SELECTOR	0	&Optimize for:
ZGUESS	QUANT	1.00000E+003	E&stimated Z (ohms)
OCVCURVE	TABLE	39
	Pt	T	Vf	Vm	Ach	Over
	#	s	V vs. Ref.	V	V	bits
	0	0.258333	2.60478E-002	2.60478E-002	4.82993E-004	...........
	1	0.516667	2.60474E-002	2.60259E-002	4.74460E-004	...........
	2	0.775	2.60448E-002	2.59999E-002	4.77593E-004	...........
	3	1.03333	2.60368E-002	2.59741E-002	4.84160E-004	...........
	4	1.29167	2.60220E-002	2.59483E-002	4.83193E-004	...........
	5	1.55	2.60012E-002	2.59279E-002	4.83993E-004	...........
	6	1.80833	2.59773E-002	2.59023E-002	4.81926E-004	...........
	7	2.06667	2.59527E-002	2.58745E-002	4.83493E-004	...........
	8	2.325	2.59280E-002	2.58546E-002	4.85560E-004	...........
	9	2.58333	2.59035E-002	2.58335E-002	4.86160E-004	...........
	10	2.84167	2.58798E-002	2.58185E-002	4.80493E-004	...........
	11	3.1	2.58577E-002	2.58006E-002	4.82426E-004	...........
	12	3.35833	2.58377E-002	2.57838E-002	4.76593E-004	...........
	13	3.61667	2.58194E-002	2.57705E-002	4.75460E-004	...........
	14	3.875	2.58024E-002	2.57549E-002	4.75826E-004	...........
	15	4.13333	2.57864E-002	2.57366E-002	4.81093E-004	...........
	16	4.39167	2.57707E-002	2.57235E-002	4.78793E-004	...........
	17	4.65	2.57556E-002	2.57359E-002	4.77393E-004	...........
	18	4.90833	2.57446E-002	2.58110E-002	4.81293E-004	...........
	19	5.16667	2.57434E-002	2.57458E-002	4.82426E-004	...........
	20	5.425	2.57499E-002	2.56745E-002	4.76093E-004	...........
	21	5.68333	2.57496E-002	2.56672E-002	4.78726E-004	...........
	22	5.94167	2.57327E-002	2.56574E-002	4.81460E-004	...........
	23	6.2	2.57048E-002	2.56191E-002	4.84193E-004	...........
	24	6.45833	2.56766E-002	2.56265E-002	4.92493E-004	...........
	25	6.71667	2.56532E-002	2.56089E-002	4.89326E-004	...........
	26	6.975	2.56355E-002	2.56091E-002	4.81960E-004	...........
	27	7.23333	2.56230E-002	2.56049E-002	4.87860E-004	...........
	28	7.49167	2.56140E-002	2.55708E-002	4.93360E-004	...........
	29	7.75	2.56054E-002	2.55677E-002	4.87560E-004	...........
	30	8.00833	2.55943E-002	2.55487E-002	4.89860E-004	...........
	31	8.26667	2.55812E-002	2.55599E-002	4.83660E-004	...........
	32	8.525	2.55688E-002	2.55401E-002	4.82993E-004	...........
	33	8.78333	2.55588E-002	2.55257E-002	4.86093E-004	...........
	34	9.04167	2.55500E-002	2.55215E-002	4.77760E-004	...........
	35	9.3	2.55406E-002	2.55094E-002	4.88026E-004	...........
	36	9.5583	2.55306E-002	2.55027E-002	4.85960E-004	...........
	37	9.8167	2.55209E-002	2.54945E-002	4.78593E-004	...........
	38	10.075	2.55117E-002	2.54862E-002	4.76526E-004	...........
EOC	QUANT	0.0255117	Open Circuit (V)
PSTATMODEL	IQUANT	4	Pstat Model
PSTATSECTION	LABEL	REF600-11020	Pstat Section
PSTATSERIALNO	LABEL	11020	Pstat Serial Number
CTRLMODE	IQUANT	1	Control Mode
IESTAB	IQUANT	0	I/E Stability
CASPEED	IQUANT	1	Control Amp Speed
CONVENTION	IQUANT	1	Current Convention
ICHRANGE	IQUANT	2	Ich Range
ICHRANGEMODE	TOGGLE	F	Ich Auto Range
ICHOFFSETENABLE	TOGGLE	T	Ich Offset Enable
ICHOFFSET	QUANT	0	Ich Offset (V)
ICHFILTER	IQUANT	3	Ich Filter
VCHRANGE	IQUANT	2	Vch Range
VCHRANGEMODE	TOGGLE	F	Vch Auto Range
VCHOFFSETENABLE	TOGGLE	T	Vch Offset Enable
VCHOFFSET	QUANT	0	Vch Offset (V)
VCHFILTER	IQUANT	3	Vch Filter
ACHRANGE	IQUANT	2	Ach Range
ACHOFFSETENABLE	TOGGLE	F	Ach Offset Enable
ACHOFFSET	QUANT	0	Ach Offset (V)
ACHFILTER	IQUANT	3	Ach Filter
IERANGELOWERLIMIT	IQUANT	1	I/E Range Lower Limit
IERANGEMODE	TOGGLE	F	I/E AutoRange
IERANGE	IQUANT	7	I/E Range
POSFEEDENABLE	TOGGLE	F	Positive Feedback IR Comp
POSFEEDRESISTANCE	QUANT	0	Positive Feedback Resistance (ohm)
ACHSELECT	IQUANT	0	Ach Select
CABLEID	IQUANT	14	Cable ID
DCCALDATE	LABEL	9/1/2020	DC Calibration Date
ACCALDATE	LABEL	9/1/2020	AC Calibration Date
THERMOSELECT	IQUANT	1	Thermo Select
FRAMEWORKVERSION	QUANT	6.33	Framework Version
INSTRUMENTVERSION	LABEL	3.50	Instrument Version
ZCURVE	TABLE
	Pt	Time	Freq	Zreal	Zimag	Zsig	Zmod	Zphz	Idc	Vdc	IERange
	#	s	Hz	ohm	ohm	V	ohm	°	A	V	#
	0	1	1000078	2054.142	-2351.589	1	3122.414	-48.86238	4.390617E-008	0.0275511	8
	1	1	794390.6	2411.134	-2503.619	1	3475.871	-46.07806	3.228423E-008	0.0272624	8
	2	2	630984.4	2752.347	-2647.533	1	3819.011	-43.88801	4.315012E-008	0.027127	8
	3	2	501234.4	3064.617	-2799.153	1	4150.559	-42.40788	2.862885E-008	0.0270486	8
	4	2	398109.4	3347.798	-2990.651	1	4489.069	-41.77501	3.207976E-008	0.0270131	8
	5	3	316265.6	3600.293	-3246.435	1	4847.83	-42.04142	5.390919E-008	0.0269824	8
	6	3	251203.1	3832.777	-3604.589	1	5261.487	-43.24264	3.38539E-008	0.0269737	8
	7	3	199546.9	4059.352	-4072.009	1	5749.748	-45.08918	6.633978E-008	0.0269888	8
	8	4	158578.1	4281.987	-4702.238	1	6359.753	-47.67815	3.974426E-008	0.026984	8
	9	4	125953.1	4552.614	-5515.666	1	7151.843	-50.46383	-1.152502E-009	0.026985	7
	10	4	100078.1	4844.434	-6569.849	1	8162.809	-53.59591	2.942969E-010	0.026961	7
	11	4	79453.13	5188.52	-7894.047	1	9446.519	-56.68428	-5.753567E-010	0.0269526	7
	12	5	63140.62	5625.161	-9560.8	1	11092.85	-59.52927	6.50911E-010	0.0269478	7
	13	5	50203.12	6203.969	-11582.71	1	13139.58	-61.82547	-7.280433E-010	0.0269427	7
	14	5	39890.62	6961.646	-14086.95	1	15713.27	-63.70183	5.843228E-010	0.0269461	7
	15	6	31640.63	8005.491	-17107.19	1	18887.66	-64.92225	1.079863E-009	0.0269428	7
	16	6	25171.88	9367.927	-20655.49	1	22680.55	-65.60419	6.849543E-010	0.0269421	7
	17	6	20015.62	11198.81	-24825.56	1	27234.57	-65.71986	5.669814E-010	0.0269326	7
	18	7	15890.62	13541.13	-29756.36	1	32692.55	-65.5313	5.491589E-010	0.0269287	7
	19	7	12609.37	16588.9	-35483.47	1	39169.74	-64.94341	6.964946E-010	0.0269356	6
	20	7	10078.13	20267.38	-41898	1	46542.55	-64.18549	6.575819E-010	0.0269336	6
	21	8	8015.625	24912.79	-49464.36	1	55383.84	-63.26783	7.088398E-010	0.026941	6
	22	8	6328.125	31024.32	-58417.23	1	66144.4	-62.02805	7.600962E-010	0.026934	6
	23	8	5015.625	38721.67	-68234.59	1	78455.89	-60.42602	5.408402E-010	0.0269283	6
	24	9	3984.375	48397.48	-78914.98	1	92573.7	-58.47978	5.828314E-010	0.0269227	6
	25	9	3170.956	60488.46	-89981.8	1	108423.1	-56.08982	5.223579E-010	0.0269277	6
	26	9	2527.573	75151.05	-101193.7	1	126047	-53.40073	6.177601E-010	0.0269281	6
	27	10	1976.103	94168.96	-113273.9	1	147305	-50.26194	8.112072E-010	0.0269332	6
	28	10	1577.524	114754.2	-123210.8	1	168372.9	-47.03529	6.516241E-010	0.0269229	6
	29	10	1265.625	137869.2	-129355.4	1	189052.2	-43.17517	4.16668E-010	0.0269218	5
	30	11	998.264	163818.5	-135363.4	1	212508.3	-39.56696	3.69855E-010	0.026923	5
	31	11	796.875	188870.4	-135703.1	1	232566.9	-35.69719	3.87228E-010	0.0269153	5
	32	11	627.7902	215858	-135552.9	1	254890.7	-32.12769	4.073026E-010	0.0269228	5
	33	12	505.5147	239048.3	-131692.8	1	272923.2	-28.85057	3.758975E-010	0.0269194	5
	34	12	397.9953	262438.8	-125025.4	1	290698.2	-25.47305	3.907563E-010	0.0269416	5
	35	12	315.5048	282842	-117379.9	1	306231.4	-22.53853	3.670448E-010	0.0269378	5
	36	13	252.4038	299043.8	-109087.7	1	318319.5	-20.04139	3.020111E-010	0.0269379	5
	37	13	198.6229	314587.5	-100920.7	1	330379	-17.78641	3.886745E-010	0.0269388	5
	38	13	158.3615	329405.1	-95459.8	1	342958.2	-16.16131	2.964641E-010	0.0269345	5
	39	14	125.558	337145.7	-88134.69	1	348475.1	-14.65009	3.511885E-010	0.0269355	5
	40	14	100.4464	342792.9	-82846.01	1	352661.9	-13.58669	3.506624E-010	0.0269351	5
	41	14	79.00281	352880	-81054.49	1	362069.2	-12.93612	2.589365E-010	0.0269362	5
	42	15	63.3446	356901.7	-80874.75	1	365950.2	-12.76774	4.419072E-010	0.0269355	5
	43	15	49.86702	361473.2	-82508.29	1	370770.1	-12.85781	-9.515223E-011	0.0269331	5
	44	15	39.72458	371062	-87383.73	1	381212.4	-13.2515	1.216918E-010	0.0269362	5
	45	16	31.6723	379614.2	-95598.7	1	391466.5	-14.13495	4.174509E-010	0.026935	5
	46	16	24.93351	384976.5	-105125.1	1	399071.7	-15.27333	1.232388E-010	0.0269329	5
	47	16	19.86229	401507.6	-121325.7	1	419438	-16.81352	5.170974E-010	0.0269367	5
	48	16	15.83615	415213	-134170.3	1	436352.5	-17.90752	-6.365395E-010	0.0269304	5
	49	17	12.40079	432103.9	-156718.8	1	459646.2	-19.93509	-9.896254E-010	0.0269348	5
	50	17	9.93114	455440.2	-178711	1	489247.8	-21.42463	-1.470985E-009	0.0269321	5
	51	17	7.944915	481118.1	-202497.5	1	521996	-22.82571	-6.345395E-010	0.0269367	5
	52	18	6.317385	507149.6	-222020.7	1	553618.9	-23.64291	1.486351E-010	0.0269274	5
	53	19	5.008013	532219.4	-242495.6	1	584860.3	-24.49547	-2.117577E-010	0.0269254	5
	54	20	3.945707	567853.4	-267511.1	1	627709.9	-25.22474	-5.000501E-010	0.026938	5
	55	20	3.158693	604346.3	-290040.6	1	670341.6	-25.63749	-1.771577E-012	0.0269233	5
	56	21	2.504006	647010.8	-312299.2	1	718438.4	-25.76567	3.617502E-010	0.0269313	5
	57	23	1.998082	689672.1	-345651.3	1	771441.8	-26.61921	1.46994E-010	0.0268973	5
	58	24	1.584686	729932.9	-375971.7	1	821070.5	-27.25195	-1.778118E-010	0.0268741	5
	59	26	1.266892	771817.1	-414565.1	1	876108.4	-28.24152	-6.869957E-011	0.0269056	5
	60	29	0.999041	799797.3	-462676.2	1	923983.3	-30.04903	-9.533428E-011	0.0269379	4
