EXPLAIN
TAG	EISPOT
TITLE	LABEL	Potentiostatic EIS	Test &Identifier
DATE	LABEL	1/7/2021	Date
TIME	LABEL	15:51:05	Time
NOTES	NOTES	1	&Notes...
	
PSTAT	PSTAT	REF600-11020	Potentiostat
VDC	POTEN	0.00000E+000	T	DC &Voltage (V)
FREQINIT	QUANT	1.00000E+006	Initial Fre&q. (Hz)
FREQFINAL	QUANT	1.00000E+000	Final Fre&q. (Hz)
PTSPERDEC	QUANT	1.00000E+001	Points/&decade
VAC	QUANT	2.50000E+001	AC &Voltage (mV rms)
AREA	QUANT	4.00000E-005	&Area (cm^2)
CONDIT	TWOPARAM	F	5.00000E+000	0.00000E+000	Conditionin&g	Time(s)	E(V)
DELAY	TWOPARAM	F	3.00000E+000	0.00000E+000	Init. De&lay	Time(s)	Stab.(mV/s)
SPEED	SELECTOR	0	&Optimize for:
ZGUESS	QUANT	1.00000E+003	E&stimated Z (ohms)
OCVCURVE	TABLE	39
	Pt	T	Vf	Vm	Ach	Over
	#	s	V vs. Ref.	V	V	bits
	0	0.258333	4.12255E-002	4.12255E-002	5.40192E-004	...........
	1	0.516667	4.12256E-002	4.12309E-002	5.39826E-004	...........
	2	0.775	4.12262E-002	4.12330E-002	5.26026E-004	...........
	3	1.03333	4.12276E-002	4.12350E-002	5.30859E-004	...........
	4	1.29167	4.12299E-002	4.12384E-002	5.30459E-004	...........
	5	1.55	4.12324E-002	4.12399E-002	5.35726E-004	...........
	6	1.80833	4.12350E-002	4.12373E-002	5.31559E-004	...........
	7	2.06667	4.12370E-002	4.12395E-002	5.38759E-004	...........
	8	2.325	4.12382E-002	4.12419E-002	5.37626E-004	...........
	9	2.58333	4.12390E-002	4.12432E-002	5.36826E-004	...........
	10	2.84167	4.12401E-002	4.12443E-002	5.32026E-004	...........
	11	3.1	4.12414E-002	4.12437E-002	5.38159E-004	...........
	12	3.35833	4.12427E-002	4.12491E-002	5.36426E-004	...........
	13	3.61667	4.12441E-002	4.12501E-002	5.35492E-004	...........
	14	3.875	4.12457E-002	4.12514E-002	5.33459E-004	...........
	15	4.13333	4.12477E-002	4.12536E-002	5.35292E-004	...........
	16	4.39167	4.12499E-002	4.12659E-002	5.37259E-004	...........
	17	4.65	4.12527E-002	4.12617E-002	5.38092E-004	...........
	18	4.90833	4.12563E-002	4.12640E-002	5.28092E-004	...........
	19	5.16667	4.12597E-002	4.12661E-002	5.39126E-004	...........
	20	5.425	4.12624E-002	4.12680E-002	5.38892E-004	...........
	21	5.68333	4.12643E-002	4.12694E-002	5.39592E-004	...........
	22	5.94167	4.12661E-002	4.12726E-002	5.34626E-004	...........
	23	6.2	4.12679E-002	4.12769E-002	5.42492E-004	...........
	24	6.45833	4.12702E-002	4.12814E-002	5.40759E-004	...........
	25	6.71667	4.12731E-002	4.12819E-002	5.40292E-004	...........
	26	6.975	4.12764E-002	4.12838E-002	5.42725E-004	...........
	27	7.23333	4.12793E-002	4.12852E-002	5.40426E-004	...........
	28	7.49167	4.12818E-002	4.12889E-002	5.38092E-004	...........
	29	7.75	4.12839E-002	4.12931E-002	5.45925E-004	...........
	30	8.00833	4.12862E-002	4.12960E-002	5.44825E-004	...........
	31	8.26667	4.12891E-002	4.12997E-002	5.37092E-004	...........
	32	8.525	4.12924E-002	4.13030E-002	5.41859E-004	...........
	33	8.78333	4.12958E-002	4.13027E-002	5.33859E-004	...........
	34	9.04167	4.12989E-002	4.13064E-002	5.38392E-004	...........
	35	9.3	4.13015E-002	4.13102E-002	5.40826E-004	...........
	36	9.5583	4.13039E-002	4.13095E-002	5.43492E-004	...........
	37	9.8167	4.13063E-002	4.13141E-002	5.44259E-004	...........
	38	10.075	4.13087E-002	4.13190E-002	5.37826E-004	...........
EOC	QUANT	0.0413087	Open Circuit (V)
PSTATMODEL	IQUANT	4	Pstat Model
PSTATSECTION	LABEL	REF600-11020	Pstat Section
PSTATSERIALNO	LABEL	11020	Pstat Serial Number
CTRLMODE	IQUANT	1	Control Mode
IESTAB	IQUANT	0	I/E Stability
CASPEED	IQUANT	1	Control Amp Speed
CONVENTION	IQUANT	1	Current Convention
ICHRANGE	IQUANT	2	Ich Range
ICHRANGEMODE	TOGGLE	F	Ich Auto Range
ICHOFFSETENABLE	TOGGLE	T	Ich Offset Enable
ICHOFFSET	QUANT	0	Ich Offset (V)
ICHFILTER	IQUANT	3	Ich Filter
VCHRANGE	IQUANT	2	Vch Range
VCHRANGEMODE	TOGGLE	F	Vch Auto Range
VCHOFFSETENABLE	TOGGLE	T	Vch Offset Enable
VCHOFFSET	QUANT	0	Vch Offset (V)
VCHFILTER	IQUANT	3	Vch Filter
ACHRANGE	IQUANT	2	Ach Range
ACHOFFSETENABLE	TOGGLE	F	Ach Offset Enable
ACHOFFSET	QUANT	0	Ach Offset (V)
ACHFILTER	IQUANT	3	Ach Filter
IERANGELOWERLIMIT	IQUANT	1	I/E Range Lower Limit
IERANGEMODE	TOGGLE	F	I/E AutoRange
IERANGE	IQUANT	7	I/E Range
POSFEEDENABLE	TOGGLE	F	Positive Feedback IR Comp
POSFEEDRESISTANCE	QUANT	0	Positive Feedback Resistance (ohm)
ACHSELECT	IQUANT	0	Ach Select
CABLEID	IQUANT	14	Cable ID
DCCALDATE	LABEL	9/1/2020	DC Calibration Date
ACCALDATE	LABEL	9/1/2020	AC Calibration Date
THERMOSELECT	IQUANT	1	Thermo Select
FRAMEWORKVERSION	QUANT	6.33	Framework Version
INSTRUMENTVERSION	LABEL	3.50	Instrument Version
ZCURVE	TABLE
	Pt	Time	Freq	Zreal	Zimag	Zsig	Zmod	Zphz	Idc	Vdc	IERange
	#	s	Hz	ohm	ohm	V	ohm	°	A	V	#
	0	1	1000078	1499.871	-2424.965	1	2851.328	-58.2627	8.298285E-008	0.0433343	8
	1	1	794390.6	1820.809	-2765.66	1	3311.227	-56.64056	2.397677E-008	0.042989	8
	2	2	630984.4	2185.198	-3125.854	1	3813.929	-55.04367	5.092993E-008	0.0428585	8
	3	2	501234.4	2591.876	-3511.367	1	4364.346	-53.56753	4.13547E-008	0.0427733	8
	4	2	398109.4	3041.414	-3927.576	1	4967.5	-52.24672	6.895007E-008	0.042726	8
	5	2	316265.6	3515.783	-4385.322	1	5620.657	-51.28028	3.90199E-008	0.0426884	8
	6	3	251203.1	4044.012	-4905.354	1	6357.399	-50.49756	4.34265E-008	0.0426832	8
	7	3	199546.9	4628.484	-5478.718	1	7172.114	-49.80849	5.559431E-008	0.0426879	8
	8	3	158578.1	5248.39	-6126.022	1	8066.83	-49.41212	1.591347E-007	0.0426807	8
	9	4	125953.1	5968.251	-6892.619	1	9117.468	-49.11103	-3.478851E-008	0.042716	7
	10	4	100078.1	6714.295	-7747.865	1	10252.37	-49.08782	1.433997E-008	0.0426498	7
	11	4	79453.13	7546.094	-8761.218	1	11562.98	-49.26146	-1.045983E-008	0.0426659	7
	12	5	63140.62	8427.459	-9914.83	1	13012.53	-49.63594	9.92295E-009	0.0426657	7
	13	5	50203.12	9383.688	-11285.89	1	14677.36	-50.25807	6.765636E-009	0.0426406	7
	14	5	39890.62	10424.65	-12864.52	1	16558.06	-50.98075	1.318641E-009	0.0426633	7
	15	6	31640.63	11542.09	-14791.86	1	18762.17	-52.03506	-2.824579E-009	0.0426573	7
	16	6	25171.88	12721.36	-17109.78	1	21320.83	-53.36868	1.294522E-008	0.0426325	7
	17	6	20015.62	14020.22	-19892.32	1	24336.62	-54.82361	1.52371E-008	0.0426316	7
	18	7	15890.62	15477.03	-23332.25	1	27998.79	-56.44241	1.400319E-008	0.04263	7
	19	7	12609.37	17228.76	-27485.72	1	32439.09	-57.91945	4.713093E-010	0.0426302	6
	20	7	10078.13	19105.39	-32446.68	1	37653.73	-59.50939	3.113991E-009	0.0426165	6
	21	8	8015.625	21382.44	-38594.07	1	44121.54	-61.01204	-8.12761E-010	0.0426491	6
	22	8	6328.125	24267.45	-46323.52	1	52295.1	-62.35135	2.393271E-009	0.0426355	6
	23	8	5015.625	27769.41	-55606.82	1	62155.11	-63.46298	2.438276E-009	0.0426361	6
	24	9	3984.375	32139.71	-66634.45	1	73980.48	-64.25065	1.750633E-009	0.0426388	6
	25	9	3170.956	37553.36	-79867.12	1	88255.38	-64.81718	-1.423644E-009	0.042661	6
	26	9	2527.573	44535.83	-95420.2	1	105301.8	-64.97996	-1.964061E-010	0.042638	6
	27	10	1976.103	54593.27	-115205	1	127485.7	-64.64468	-3.691162E-010	0.0426577	6
	28	10	1577.524	66480.21	-136709.2	1	152016.5	-64.06683	2.793069E-009	0.0426202	6
	29	10	1265.625	82276.24	-159887.5	1	179814.9	-62.77018	7.496498E-010	0.0426031	5
	30	10	998.264	102605.5	-189045	1	215095.1	-61.5088	5.604178E-010	0.0425963	5
	31	11	796.875	127198.1	-219804.5	1	253955.5	-59.94258	3.049745E-010	0.0426532	5
	32	11	627.7902	160080.7	-255440.3	1	301455.8	-57.92523	7.009578E-010	0.042605	5
	33	11	505.5147	197143.3	-289403.2	1	350170.9	-55.73707	6.44892E-010	0.0425873	5
	34	12	397.9953	247226.9	-326048.2	1	409180.3	-52.82867	4.406014E-010	0.0426444	5
	35	12	315.5048	304936.5	-362034.3	1	473344.6	-49.89303	4.48673E-010	0.04264	5
	36	12	252.4038	369504.1	-390379.4	1	537521.4	-46.57362	4.101988E-010	0.042641	5
	37	13	198.6229	446554.4	-416804.7	1	610849.4	-43.02648	3.704709E-010	0.0426412	5
	38	13	158.3615	523968.6	-431167.4	1	678563.4	-39.45055	4.092136E-010	0.0426379	5
	39	13	125.558	605471.1	-436670.7	1	746509.6	-35.79945	3.40648E-010	0.0426377	5
	40	14	100.4464	680824.1	-430329.8	1	805422.4	-32.29583	3.423206E-010	0.0426352	5
	41	14	79.00281	756501.5	-417433.9	1	864028.7	-28.88971	3.182668E-010	0.0426362	5
	42	14	63.3446	820576.3	-402046.7	1	913776.3	-26.10285	3.145428E-010	0.0426325	5
	43	15	49.86702	881135.4	-380489.2	1	959777	-23.3555	2.89909E-010	0.0426314	4
	44	16	39.72458	935423.4	-365460.7	1	1004280	-21.3401	2.019605E-010	0.0426402	4
	45	16	31.6723	978112	-349745	1	1038761	-19.67561	3.522211E-010	0.042637	4
	46	16	24.93351	1022939	-338934.6	1	1077627	-18.3318	2.952495E-010	0.0426373	4
	47	17	19.86229	1056246	-332979	1	1107489	-17.49733	5.978175E-010	0.0426397	4
	48	17	15.83615	1096205	-335917.3	1	1146519	-17.03698	2.482286E-011	0.0426382	4
	49	17	12.40079	1139841	-340532.7	1	1189622	-16.63376	4.755917E-010	0.0426352	4
	50	18	9.93114	1179872	-358211.3	1	1233050	-16.88839	-1.344564E-010	0.0426414	4
	51	18	7.944915	1217617	-374666.9	1	1273957	-17.1034	-3.56284E-011	0.0426415	4
	52	19	6.317385	1259489	-398222.3	1	1320944	-17.54579	1.682907E-011	0.0426377	4
	53	20	5.008013	1316328	-427765.5	1	1384089	-18.00254	-6.853247E-011	0.0426418	4
	54	21	3.945707	1360303	-460439.1	1	1436116	-18.70007	-3.789855E-011	0.0426368	4
	55	22	3.158693	1410771	-494096.7	1	1494793	-19.30187	1.348183E-010	0.0426502	4
	56	24	2.504006	1482024	-534685.8	1	1575526	-19.83847	-6.21083E-011	0.0426444	4
	57	25	1.998082	1543326	-577749.1	1	1647922	-20.52356	-8.400167E-011	0.0426141	4
	58	28	1.584686	1609628	-626628.6	1	1727300	-21.27098	-1.745809E-011	0.0426662	4
	59	31	1.266892	1681512	-680193.2	1	1813876	-22.02397	3.470239E-011	0.0426745	4
	60	35	0.999041	1757087	-749490.9	1	1910260	-23.10082	7.512759E-011	0.0426611	4
